"# Channel 1"
"# Trace 1"
Frequency, Formatted Data, Formatted Data
+1.00000000000E+006, +9.18945032993E+000, +3.11993026265E+001
+1.34500000000E+006, +9.24468714832E+000, +4.19337461654E+001
+1.69000000000E+006, +9.19376300768E+000, +5.26825164682E+001
+2.03500000000E+006, +9.14987940705E+000, +6.34874446876E+001
+2.38000000000E+006, +9.10814053133E+000, +7.42039832099E+001
+2.72500000000E+006, +9.03011121930E+000, +8.50214901545E+001
+3.07000000000E+006, +9.23607985078E+000, +9.58450037080E+001
+3.41500000000E+006, +9.06197279039E+000, +1.06695225824E+002
+3.76000000000E+006, +9.50066778071E+000, +1.17738858822E+002
+4.10500000000E+006, +9.19556259067E+000, +1.28576097331E+002
+4.45000000000E+006, +9.14542454815E+000, +1.39505157697E+002
+4.79500000000E+006, +9.28044189415E+000, +1.50231236889E+002
+5.14000000000E+006, +9.22872799440E+000, +1.61483927500E+002
+5.48500000000E+006, +9.15956947157E+000, +1.72257867025E+002
+5.83000000000E+006, +8.89473439612E+000, +1.83640127350E+002
+6.17500000000E+006, +9.30302854012E+000, +1.94590884213E+002
+6.52000000000E+006, +9.75129055026E+000, +2.05883909890E+002
+6.86500000000E+006, +9.80589434800E+000, +2.17096222874E+002
+7.21000000000E+006, +1.01926577955E+001, +2.28325416851E+002
+7.55500000000E+006, +1.02522098858E+001, +2.39794701008E+002
+7.90000000000E+006, +1.02022365403E+001, +2.50920161838E+002
+8.24500000000E+006, +1.04596673836E+001, +2.62291107031E+002
+8.59000000000E+006, +1.04350957143E+001, +2.73820867424E+002
+8.93500000000E+006, +1.03362982245E+001, +2.85051382125E+002
+9.28000000000E+006, +9.81902531784E+000, +2.96662693053E+002
+9.62500000000E+006, +1.06463497718E+001, +3.08245925109E+002
+9.97000000000E+006, +1.05151549735E+001, +3.20387200216E+002
+1.03150000000E+007, +1.04464082158E+001, +3.31905675431E+002
+1.06600000000E+007, +1.10078381433E+001, +3.43728014087E+002
+1.10050000000E+007, +1.09120560366E+001, +3.55292554168E+002
+1.13500000000E+007, +1.07886643871E+001, +3.67473758063E+002
+1.16950000000E+007, +1.09261979075E+001, +3.79262452248E+002
+1.20400000000E+007, +1.02206245197E+001, +3.91723413776E+002
+1.23850000000E+007, +1.08500934450E+001, +4.04384925785E+002
+1.27300000000E+007, +1.00993030491E+001, +4.17006413722E+002
+1.30750000000E+007, +9.74711700769E+000, +4.30055571009E+002
+1.34200000000E+007, +1.02697162265E+001, +4.42083171327E+002
+1.37650000000E+007, +1.02565236989E+001, +4.54129166188E+002
+1.41100000000E+007, +1.06135963109E+001, +4.68255977038E+002
+1.44550000000E+007, +1.08084416836E+001, +4.79104090171E+002
+1.48000000000E+007, +1.16200136317E+001, +4.94427845663E+002
+1.51450000000E+007, +1.06245314719E+001, +5.06987482540E+002
+1.54900000000E+007, +1.06316044201E+001, +5.19776544813E+002
+1.58350000000E+007, +1.14767899864E+001, +5.33975727348E+002
+1.61800000000E+007, +1.20936062046E+001, +5.47304762173E+002
+1.65250000000E+007, +1.07460158422E+001, +5.60007106935E+002
+1.68700000000E+007, +1.21043290399E+001, +5.76670868709E+002
+1.72150000000E+007, +8.47417222513E+000, +5.88990388446E+002
+1.75600000000E+007, +9.71581286098E+000, +6.05301378166E+002
+1.79050000000E+007, +1.19138847351E+001, +6.19365747750E+002
+1.82500000000E+007, +1.27390734806E+001, +6.33688611423E+002
+1.85950000000E+007, +1.19859759474E+001, +6.46576750392E+002
+1.89400000000E+007, +1.19716114917E+001, +6.60863294230E+002
+1.92850000000E+007, +1.13977934231E+001, +6.77002526310E+002
+1.96300000000E+007, +1.15665227383E+001, +6.92937985537E+002
+1.99750000000E+007, +1.30558421425E+001, +7.09610618139E+002
+2.03200000000E+007, +1.02201303533E+001, +7.27685461838E+002
+2.06650000000E+007, +1.23581077656E+001, +7.42175063923E+002
+2.10100000000E+007, +1.41725460959E+001, +7.59146826638E+002
+2.13550000000E+007, +1.23046422458E+001, +7.79418217928E+002
+2.17000000000E+007, +1.45408814983E+001, +7.93687508965E+002
+2.20450000000E+007, +1.58918566986E+001, +8.12509443095E+002
+2.23900000000E+007, +1.54819010609E+001, +8.27941129369E+002
+2.27350000000E+007, +1.37078612943E+001, +8.45184890202E+002
+2.30800000000E+007, +1.62524797446E+001, +8.67093334274E+002
+2.34250000000E+007, +1.78268958922E+001, +8.88128246348E+002
+2.37700000000E+007, +2.12995638746E+001, +9.06654956195E+002
+2.41150000000E+007, +1.55634331165E+001, +9.23582090786E+002
+2.44600000000E+007, +1.56888239138E+001, +9.41102233388E+002
+2.48050000000E+007, +1.29587157947E+001, +9.62060272751E+002
+2.51500000000E+007, +1.69373269837E+001, +9.83027872805E+002
+2.54950000000E+007, +1.29292716590E+001, +1.01024923534E+003
+2.58400000000E+007, +1.57427657338E+001, +1.03078052889E+003
+2.61850000000E+007, +1.63051538649E+001, +1.06047001489E+003
+2.65300000000E+007, +1.61290867374E+001, +1.07810120108E+003
+2.68750000000E+007, +2.07734920374E+001, +1.10397154707E+003
+2.72200000000E+007, +1.91903930888E+001, +1.13186309836E+003
+2.75650000000E+007, +2.04944833349E+001, +1.16290649958E+003
+2.79100000000E+007, +2.38331851835E+001, +1.17912814269E+003
+2.82550000000E+007, +2.36478547183E+001, +1.21291578782E+003
+2.86000000000E+007, +2.40117866485E+001, +1.24396950519E+003
+2.89450000000E+007, +3.14274014865E+001, +1.27506320940E+003
+2.92900000000E+007, +2.55480484686E+001, +1.30017833791E+003
+2.96350000000E+007, +4.03863321737E+001, +1.33544024387E+003
+2.99800000000E+007, +3.34124480950E+001, +1.37150773740E+003
+3.03250000000E+007, +3.82548872597E+001, +1.40901308635E+003
+3.06700000000E+007, +4.08131972772E+001, +1.43362610934E+003
+3.10150000000E+007, +4.51091657726E+001, +1.48103658039E+003
+3.13600000000E+007, +4.51142207194E+001, +1.51980182140E+003
+3.17050000000E+007, +4.63401167933E+001, +1.56844530901E+003
+3.20500000000E+007, +6.10179967290E+001, +1.61239308807E+003
+3.23950000000E+007, +6.57821892388E+001, +1.65475669668E+003
+3.27400000000E+007, +9.04993551994E+001, +1.67394459579E+003
+3.30850000000E+007, +6.54109809318E+001, +1.73482146668E+003
+3.34300000000E+007, +7.56655455893E+001, +1.77758748661E+003
+3.37750000000E+007, +9.42574085914E+001, +1.83374165271E+003
+3.41200000000E+007, +1.10051698407E+002, +1.88530849323E+003
+3.44650000000E+007, +1.10557752415E+002, +1.94618348769E+003
+3.48100000000E+007, +1.25833791240E+002, +1.98347983319E+003
+3.51550000000E+007, +1.31250111190E+002, +2.06662697362E+003
+3.55000000000E+007, +1.50116352904E+002, +2.11766627852E+003
+3.58450000000E+007, +1.75645906957E+002, +2.19718718325E+003
+3.61900000000E+007, +1.72318662432E+002, +2.21591466028E+003
+3.65350000000E+007, +2.09830534571E+002, +2.34940156777E+003
+3.68800000000E+007, +2.42800118989E+002, +2.41021024905E+003
+3.72250000000E+007, +2.16049902715E+002, +2.49577899764E+003
+3.75700000000E+007, +2.34486625675E+002, +2.58003248863E+003
+3.79150000000E+007, +2.61983499711E+002, +2.70970328818E+003
+3.82600000000E+007, +2.70988097933E+002, +2.80366869384E+003
+3.86050000000E+007, +3.23542339153E+002, +2.90800529400E+003
+3.89500000000E+007, +3.57455735189E+002, +3.07851099863E+003
+3.92950000000E+007, +3.55662716790E+002, +3.18926207465E+003
+3.96400000000E+007, +3.96764480328E+002, +3.35554705249E+003
+3.99850000000E+007, +4.36032889821E+002, +3.43418980533E+003
+4.03300000000E+007, +4.80020847418E+002, +3.61939355740E+003
+4.06750000000E+007, +3.91015754834E+002, +3.85581231920E+003
+4.10200000000E+007, +5.04063940946E+002, +4.12225943923E+003
+4.13650000000E+007, +4.75542219938E+002, +4.44288658038E+003
+4.17100000000E+007, +6.53544740740E+002, +4.82332013885E+003
+4.20550000000E+007, +8.13980518991E+002, +5.16972904508E+003
+4.24000000000E+007, +7.00911770146E+002, +5.85458722902E+003
+4.27450000000E+007, +8.10999097656E+002, +6.31742595576E+003
+4.30900000000E+007, +1.16575652839E+003, +7.18736365403E+003
+4.34350000000E+007, +1.73737242833E+003, +8.23148891309E+003
+4.37800000000E+007, +2.28320542352E+003, +9.28806691155E+003
+4.41250000000E+007, +3.04819490329E+003, +1.13659262824E+004
+4.44700000000E+007, +4.91242787191E+003, +1.39326855711E+004
+4.48150000000E+007, +8.45062052679E+003, +1.63603887919E+004
+4.51600000000E+007, +1.30969202363E+004, +1.97476010260E+004
+4.55050000000E+007, +3.20798110844E+004, +9.61133967616E+003
+4.58500000000E+007, +3.47595757353E+004, -1.47010266212E+004
+4.61950000000E+007, +2.07432174354E+004, -2.57852879375E+004
+4.65400000000E+007, +8.27089223497E+003, -1.67552535844E+004
+4.68850000000E+007, +5.34049754248E+003, -1.27149947449E+004
+4.72300000000E+007, +3.03128857969E+003, -1.04634934589E+004
+4.75750000000E+007, +1.99048703272E+003, -8.67577899456E+003
+4.79200000000E+007, +1.59985191757E+003, -7.29280659468E+003
+4.82650000000E+007, +1.37329007200E+003, -6.44479739033E+003
+4.86100000000E+007, +1.10145738431E+003, -5.59752362317E+003
+4.89550000000E+007, +8.34644915469E+002, -4.98742242242E+003
+4.93000000000E+007, +7.02666607218E+002, -4.38330059874E+003
+4.96450000000E+007, +6.65447166996E+002, -3.98522154271E+003
+4.99900000000E+007, +5.06312553167E+002, -3.66901448702E+003
+5.03350000000E+007, +4.51248515868E+002, -3.37603957699E+003
+5.06800000000E+007, +3.93147607399E+002, -3.10644956441E+003
+5.10250000000E+007, +3.49895796482E+002, -2.89756409638E+003
+5.13700000000E+007, +3.03943838173E+002, -2.66191255909E+003
+5.17150000000E+007, +2.70607961065E+002, -2.45696721796E+003
+5.20600000000E+007, +2.52633123748E+002, -2.29675983947E+003
+5.24050000000E+007, +2.38347896623E+002, -2.13951852375E+003
+5.27500000000E+007, +2.17268335071E+002, -2.01474660265E+003
+5.30950000000E+007, +1.99846187349E+002, -1.86731446324E+003
+5.34400000000E+007, +1.92905197761E+002, -1.76991005925E+003
+5.37850000000E+007, +1.89931123535E+002, -1.66653767175E+003
+5.41300000000E+007, +1.81070437133E+002, -1.56595653137E+003
+5.44750000000E+007, +1.78948573147E+002, -1.47824969617E+003
+5.48200000000E+007, +1.65681968328E+002, -1.39326066331E+003
+5.51650000000E+007, +1.61283625412E+002, -1.31251197337E+003
+5.55100000000E+007, +1.64715865489E+002, -1.24347566894E+003
+5.58550000000E+007, +1.49568716185E+002, -1.17800681494E+003
+5.62000000000E+007, +1.57024487414E+002, -1.11828554976E+003
+5.65450000000E+007, +1.61842731104E+002, -1.05567456005E+003
+5.68900000000E+007, +1.55314175650E+002, -1.00599872400E+003
+5.72350000000E+007, +1.45176196306E+002, -9.56784218694E+002
+5.75800000000E+007, +1.45275541510E+002, -9.04605118485E+002
+5.79250000000E+007, +1.39842072651E+002, -8.55331523456E+002
+5.82700000000E+007, +1.40799788197E+002, -8.14121189711E+002
+5.86150000000E+007, +1.35467739044E+002, -7.68643273215E+002
+5.89600000000E+007, +1.32077042273E+002, -7.25468091354E+002
+5.93050000000E+007, +1.32996507553E+002, -6.87439864260E+002
+5.96500000000E+007, +1.31042439404E+002, -6.51569699174E+002
+5.99950000000E+007, +1.28935864725E+002, -6.16239906457E+002
+6.03400000000E+007, +1.29753502110E+002, -5.83704019673E+002
+6.06850000000E+007, +1.29725268299E+002, -5.51525781605E+002
+6.10300000000E+007, +1.29865631299E+002, -5.20430825409E+002
+6.13750000000E+007, +1.28490634342E+002, -4.91406157311E+002
+6.17200000000E+007, +1.28402257002E+002, -4.64001871869E+002
+6.20650000000E+007, +1.27361963291E+002, -4.38512703926E+002
+6.24100000000E+007, +1.25492111222E+002, -4.13200533393E+002
+6.27550000000E+007, +1.21106168080E+002, -3.87436568593E+002
+6.31000000000E+007, +1.18150517830E+002, -3.62573020212E+002
+6.34450000000E+007, +1.15782808068E+002, -3.37368605926E+002
+6.37900000000E+007, +1.12735358853E+002, -3.13508355689E+002
+6.41350000000E+007, +1.11066085391E+002, -2.89129581750E+002
+6.44800000000E+007, +1.09508982137E+002, -2.65487201728E+002
+6.48250000000E+007, +1.07792020220E+002, -2.42582510851E+002
+6.51700000000E+007, +1.05817665547E+002, -2.21549240734E+002
+6.55150000000E+007, +1.04190924763E+002, -1.99223430462E+002
+6.58600000000E+007, +1.02247890147E+002, -1.77425866146E+002
+6.62050000000E+007, +1.00674486015E+002, -1.56110914466E+002
+6.65500000000E+007, +9.93861307653E+001, -1.34488890092E+002
+6.68950000000E+007, +9.86232603950E+001, -1.13192046922E+002
+6.72400000000E+007, +9.84175695222E+001, -9.22069628472E+001
+6.75850000000E+007, +9.91248737136E+001, -7.17836610144E+001
+6.79300000000E+007, +1.00302719402E+002, -5.25100641763E+001
+6.82750000000E+007, +1.01820333375E+002, -3.42408734976E+001
+6.86200000000E+007, +1.03144319002E+002, -1.74177483226E+001
+6.89650000000E+007, +1.03775229933E+002, -1.57873598212E+000
+6.93100000000E+007, +1.03204141281E+002, +1.36736902321E+001
+6.96550000000E+007, +1.01667138785E+002, +2.89675750555E+001
+7.00000000000E+007, +9.94596582884E+001, +4.50121082492E+001
