"# Channel 1"
"# Trace 1"
Frequency, Formatted Data, Formatted Data
+1.00000000000E+006, +3.68202741351E+001, +3.11723057185E+001
+1.34500000000E+006, +3.68797268906E+001, +4.18704484634E+001
+1.69000000000E+006, +3.68219534090E+001, +5.26842309885E+001
+2.03500000000E+006, +3.68472854752E+001, +6.34726183770E+001
+2.38000000000E+006, +3.67522631588E+001, +7.42256705621E+001
+2.72500000000E+006, +3.67691090075E+001, +8.50050149332E+001
+3.07000000000E+006, +3.69098735365E+001, +9.57837628067E+001
+3.41500000000E+006, +3.68438425870E+001, +1.06708147873E+002
+3.76000000000E+006, +3.72513450315E+001, +1.17648413553E+002
+4.10500000000E+006, +3.76071918639E+001, +1.28820388303E+002
+4.45000000000E+006, +3.70916355671E+001, +1.39529471101E+002
+4.79500000000E+006, +3.70777604694E+001, +1.50306992616E+002
+5.14000000000E+006, +3.69199659554E+001, +1.61538696363E+002
+5.48500000000E+006, +3.71326315174E+001, +1.72677363925E+002
+5.83000000000E+006, +3.74830252751E+001, +1.84111511952E+002
+6.17500000000E+006, +3.77678472852E+001, +1.94897191301E+002
+6.52000000000E+006, +3.81638145951E+001, +2.06022320456E+002
+6.86500000000E+006, +3.81515635721E+001, +2.17245335611E+002
+7.21000000000E+006, +3.86661402382E+001, +2.28352568022E+002
+7.55500000000E+006, +3.87303158161E+001, +2.39935708875E+002
+7.90000000000E+006, +3.90599957797E+001, +2.51398563627E+002
+8.24500000000E+006, +3.88005286841E+001, +2.62803647182E+002
+8.59000000000E+006, +3.89876567423E+001, +2.74185647436E+002
+8.93500000000E+006, +3.89747080581E+001, +2.85696265260E+002
+9.28000000000E+006, +3.82997353396E+001, +2.97467024177E+002
+9.62500000000E+006, +3.94654666370E+001, +3.09373591922E+002
+9.97000000000E+006, +3.91768192886E+001, +3.21891358965E+002
+1.03150000000E+007, +3.92658148252E+001, +3.33319690408E+002
+1.06600000000E+007, +3.94022673632E+001, +3.46204336851E+002
+1.10050000000E+007, +3.91376142334E+001, +3.57799563063E+002
+1.13500000000E+007, +3.94721746467E+001, +3.70521960236E+002
+1.16950000000E+007, +4.00818794102E+001, +3.83348425665E+002
+1.20400000000E+007, +3.96605898607E+001, +3.96319692818E+002
+1.23850000000E+007, +4.03740661762E+001, +4.08940300144E+002
+1.27300000000E+007, +3.96952529173E+001, +4.21405853592E+002
+1.30750000000E+007, +3.94834897431E+001, +4.35773669840E+002
+1.34200000000E+007, +3.98325991812E+001, +4.47779718957E+002
+1.37650000000E+007, +4.05807243153E+001, +4.60236378418E+002
+1.41100000000E+007, +4.16189444312E+001, +4.75521509209E+002
+1.44550000000E+007, +4.09725207205E+001, +4.88444240386E+002
+1.48000000000E+007, +4.23439083712E+001, +5.03895495416E+002
+1.51450000000E+007, +4.34786603124E+001, +5.15903258414E+002
+1.54900000000E+007, +4.20374254140E+001, +5.30920539394E+002
+1.58350000000E+007, +4.29542697804E+001, +5.45041033396E+002
+1.61800000000E+007, +4.24324227702E+001, +5.58971139866E+002
+1.65250000000E+007, +4.28554472369E+001, +5.73619763608E+002
+1.68700000000E+007, +4.58151762426E+001, +5.88737041153E+002
+1.72150000000E+007, +4.09165468163E+001, +6.05652112540E+002
+1.75600000000E+007, +4.47510718488E+001, +6.22058718146E+002
+1.79050000000E+007, +4.55476001447E+001, +6.35282537143E+002
+1.82500000000E+007, +4.57286315821E+001, +6.51778641863E+002
+1.85950000000E+007, +4.77130056468E+001, +6.67041544003E+002
+1.89400000000E+007, +5.00407338920E+001, +6.81055257747E+002
+1.92850000000E+007, +4.76326803513E+001, +7.01055842718E+002
+1.96300000000E+007, +4.82709183501E+001, +7.17055838664E+002
+1.99750000000E+007, +4.99594496534E+001, +7.37950267263E+002
+2.03200000000E+007, +4.96457699511E+001, +7.55103162143E+002
+2.06650000000E+007, +5.34515258469E+001, +7.73118311633E+002
+2.10100000000E+007, +5.49195751026E+001, +7.89785428799E+002
+2.13550000000E+007, +5.22558932015E+001, +8.09454438890E+002
+2.17000000000E+007, +5.79969897078E+001, +8.28101661313E+002
+2.20450000000E+007, +5.97009043618E+001, +8.47957309331E+002
+2.23900000000E+007, +6.15118635923E+001, +8.68055632225E+002
+2.27350000000E+007, +5.62968556628E+001, +8.88908562645E+002
+2.30800000000E+007, +5.92807577346E+001, +9.11287008068E+002
+2.34250000000E+007, +6.37342942571E+001, +9.29867410437E+002
+2.37700000000E+007, +6.58118231716E+001, +9.56667508247E+002
+2.41150000000E+007, +6.63990942878E+001, +9.76578710871E+002
+2.44600000000E+007, +6.27831889272E+001, +9.98601282360E+002
+2.48050000000E+007, +6.32161723467E+001, +1.02069133877E+003
+2.51500000000E+007, +7.18811973363E+001, +1.05232806913E+003
+2.54950000000E+007, +7.12572045373E+001, +1.07559410520E+003
+2.58400000000E+007, +7.68571072456E+001, +1.09821236144E+003
+2.61850000000E+007, +7.31763054365E+001, +1.13368422989E+003
+2.65300000000E+007, +7.78424631446E+001, +1.15701708957E+003
+2.68750000000E+007, +8.56989256302E+001, +1.18800065101E+003
+2.72200000000E+007, +8.69591109296E+001, +1.22050563570E+003
+2.75650000000E+007, +9.39268963704E+001, +1.25282950184E+003
+2.79100000000E+007, +9.66427804467E+001, +1.28429812019E+003
+2.82550000000E+007, +9.38159043510E+001, +1.32142518348E+003
+2.86000000000E+007, +9.82600231928E+001, +1.34742774680E+003
+2.89450000000E+007, +1.12909153040E+002, +1.38910683911E+003
+2.92900000000E+007, +1.14000165539E+002, +1.42323297883E+003
+2.96350000000E+007, +1.15150331206E+002, +1.47162874259E+003
+2.99800000000E+007, +1.17193175777E+002, +1.51626106807E+003
+3.03250000000E+007, +1.26408741675E+002, +1.56039553550E+003
+3.06700000000E+007, +1.43276233705E+002, +1.58927337166E+003
+3.10150000000E+007, +1.39792260179E+002, +1.65564225928E+003
+3.13600000000E+007, +1.42832274761E+002, +1.70879009541E+003
+3.17050000000E+007, +1.53423397013E+002, +1.76211004608E+003
+3.20500000000E+007, +1.67446107248E+002, +1.82730969064E+003
+3.23950000000E+007, +1.65267080098E+002, +1.86762027455E+003
+3.27400000000E+007, +1.96724280874E+002, +1.92433319360E+003
+3.30850000000E+007, +1.82629315312E+002, +2.02034256199E+003
+3.34300000000E+007, +2.21589512613E+002, +2.06587556574E+003
+3.37750000000E+007, +2.46355756459E+002, +2.15673567349E+003
+3.41200000000E+007, +2.55021740352E+002, +2.25324131177E+003
+3.44650000000E+007, +2.87558531469E+002, +2.34383046417E+003
+3.48100000000E+007, +3.14456299791E+002, +2.42276297430E+003
+3.51550000000E+007, +3.64091397403E+002, +2.55575274555E+003
+3.55000000000E+007, +3.62031608737E+002, +2.63102075387E+003
+3.58450000000E+007, +4.44074557997E+002, +2.77210047360E+003
+3.61900000000E+007, +4.40430015689E+002, +2.89202177505E+003
+3.65350000000E+007, +5.34439017718E+002, +3.03979185526E+003
+3.68800000000E+007, +6.69233639908E+002, +3.16222555781E+003
+3.72250000000E+007, +6.47914362779E+002, +3.34275827786E+003
+3.75700000000E+007, +7.38507303903E+002, +3.48765721852E+003
+3.79150000000E+007, +9.44554917246E+002, +3.71065574126E+003
+3.82600000000E+007, +1.07512795899E+003, +3.89040678996E+003
+3.86050000000E+007, +1.23918251645E+003, +4.16837103488E+003
+3.89500000000E+007, +1.40158017257E+003, +4.40965001000E+003
+3.92950000000E+007, +1.60654393826E+003, +4.44208054321E+003
+3.96400000000E+007, +1.88107755760E+003, +4.92019680314E+003
+3.99850000000E+007, +2.27052247014E+003, +5.04303618122E+003
+4.03300000000E+007, +2.48843537582E+003, +5.63922565694E+003
+4.06750000000E+007, +2.94163012387E+003, +6.12924483077E+003
+4.10200000000E+007, +3.72158457989E+003, +6.42830731069E+003
+4.13650000000E+007, +4.70713491157E+003, +7.34476812920E+003
+4.17100000000E+007, +6.29743021537E+003, +7.43613828552E+003
+4.20550000000E+007, +8.81911929584E+003, +7.58592425982E+003
+4.24000000000E+007, +1.15569917856E+004, +7.03247933512E+003
+4.27450000000E+007, +1.34663901300E+004, +5.41870894086E+003
+4.30900000000E+007, +1.43222252438E+004, +1.92390947939E+003
+4.34350000000E+007, +1.40906296838E+004, -2.19155694229E+003
+4.37800000000E+007, +1.24774675991E+004, -5.34280493107E+003
+4.41250000000E+007, +9.29344064767E+003, -7.14332798730E+003
+4.44700000000E+007, +7.87347352204E+003, -7.67496690550E+003
+4.48150000000E+007, +5.89999512171E+003, -7.14827569937E+003
+4.51600000000E+007, +4.64708752251E+003, -7.25691766129E+003
+4.55050000000E+007, +3.24710571070E+003, -6.25707476763E+003
+4.58500000000E+007, +2.70632951107E+003, -5.89986760564E+003
+4.61950000000E+007, +1.94804619363E+003, -5.39699808261E+003
+4.65400000000E+007, +1.59990617064E+003, -4.76697456909E+003
+4.68850000000E+007, +1.34530568467E+003, -4.33120074702E+003
+4.72300000000E+007, +1.13344430882E+003, -3.96425226356E+003
+4.75750000000E+007, +9.09378994442E+002, -3.57865679648E+003
+4.79200000000E+007, +8.03488722009E+002, -3.33454106539E+003
+4.82650000000E+007, +7.30476358591E+002, -3.10716789450E+003
+4.86100000000E+007, +6.47201988034E+002, -2.89253762326E+003
+4.89550000000E+007, +5.61724393709E+002, -2.70553284733E+003
+4.93000000000E+007, +5.18453928905E+002, -2.47586257546E+003
+4.96450000000E+007, +4.82190862164E+002, -2.34710805213E+003
+4.99900000000E+007, +4.24061867113E+002, -2.22141628386E+003
+5.03350000000E+007, +3.73606933068E+002, -2.09497775881E+003
+5.06800000000E+007, +3.39864615191E+002, -1.96920059560E+003
+5.10250000000E+007, +3.01291951946E+002, -1.86495875672E+003
+5.13700000000E+007, +2.86025314032E+002, -1.76465167008E+003
+5.17150000000E+007, +2.49382595484E+002, -1.65426310964E+003
+5.20600000000E+007, +2.30738231995E+002, -1.55739226387E+003
+5.24050000000E+007, +2.19999055920E+002, -1.47969427133E+003
+5.27500000000E+007, +2.02212951176E+002, -1.40293281144E+003
+5.30950000000E+007, +1.93500375262E+002, -1.32634493352E+003
+5.34400000000E+007, +1.88728101362E+002, -1.25529700930E+003
+5.37850000000E+007, +1.82951079157E+002, -1.19637802148E+003
+5.41300000000E+007, +1.64920344087E+002, -1.13453552304E+003
+5.44750000000E+007, +1.66514696889E+002, -1.08204487785E+003
+5.48200000000E+007, +1.57723668260E+002, -1.02380691120E+003
+5.51650000000E+007, +1.54025940301E+002, -9.76836186332E+002
+5.55100000000E+007, +1.49577098770E+002, -9.26270729613E+002
+5.58550000000E+007, +1.40958498133E+002, -8.83992343537E+002
+5.62000000000E+007, +1.38185027338E+002, -8.38606664437E+002
+5.65450000000E+007, +1.35843367101E+002, -7.91444260352E+002
+5.68900000000E+007, +1.36389844918E+002, -7.52720087301E+002
+5.72350000000E+007, +1.34112743324E+002, -7.14553328440E+002
+5.75800000000E+007, +1.34136363616E+002, -6.77992981665E+002
+5.79250000000E+007, +1.30780336702E+002, -6.43078485672E+002
+5.82700000000E+007, +1.30619173044E+002, -6.14398976100E+002
+5.86150000000E+007, +1.26943726023E+002, -5.81643529101E+002
+5.89600000000E+007, +1.26051513172E+002, -5.48250625674E+002
+5.93050000000E+007, +1.25534873088E+002, -5.20381135302E+002
+5.96500000000E+007, +1.25627170505E+002, -4.90381762627E+002
+5.99950000000E+007, +1.25492472066E+002, -4.65251651088E+002
+6.03400000000E+007, +1.26172180339E+002, -4.39992682414E+002
+6.06850000000E+007, +1.25167468824E+002, -4.16411481464E+002
+6.10300000000E+007, +1.25006974605E+002, -3.91668257184E+002
+6.13750000000E+007, +1.24099794866E+002, -3.68520972568E+002
+6.17200000000E+007, +1.22114991273E+002, -3.47026703979E+002
+6.20650000000E+007, +1.20741011072E+002, -3.24873491897E+002
+6.24100000000E+007, +1.18579897654E+002, -3.03957967844E+002
+6.27550000000E+007, +1.15920343603E+002, -2.82073142800E+002
+6.31000000000E+007, +1.13878258360E+002, -2.60632879117E+002
+6.34450000000E+007, +1.12668230125E+002, -2.39110591019E+002
+6.37900000000E+007, +1.11135992680E+002, -2.18249256796E+002
+6.41350000000E+007, +1.10275439383E+002, -1.97929133971E+002
+6.44800000000E+007, +1.09500464388E+002, -1.77620141915E+002
+6.48250000000E+007, +1.09091710502E+002, -1.57779385611E+002
+6.51700000000E+007, +1.08513317988E+002, -1.38974873327E+002
+6.55150000000E+007, +1.08060288916E+002, -1.19811109179E+002
+6.58600000000E+007, +1.07464825425E+002, -1.00781993423E+002
+6.62050000000E+007, +1.07228114359E+002, -8.16978693231E+001
+6.65500000000E+007, +1.07729719100E+002, -6.24524743703E+001
+6.68950000000E+007, +1.09022623031E+002, -4.37782740021E+001
+6.72400000000E+007, +1.11196586148E+002, -2.57259114509E+001
+6.75850000000E+007, +1.14277561123E+002, -8.57552068058E+000
+6.79300000000E+007, +1.17707463088E+002, +6.80193180932E+000
+6.82750000000E+007, +1.21075603477E+002, +2.06521185143E+001
+6.86200000000E+007, +1.23196754155E+002, +3.26808233516E+001
+6.89650000000E+007, +1.23662987656E+002, +4.38465746471E+001
+6.93100000000E+007, +1.22303379209E+002, +5.50132261129E+001
+6.96550000000E+007, +1.19446852263E+002, +6.66642358537E+001
+7.00000000000E+007, +1.15784835496E+002, +7.99348862911E+001
