"# Channel 1"
"# Trace 1"
Frequency, Formatted Data, Formatted Data
+1.00000000000E+006, +9.19545318296E+000, +3.11726900800E+001
+1.34500000000E+006, +9.22906994459E+000, +4.19623898566E+001
+1.69000000000E+006, +9.18650555454E+000, +5.26632362934E+001
+2.03500000000E+006, +9.19022803307E+000, +6.34264533144E+001
+2.38000000000E+006, +9.11393174728E+000, +7.42126046629E+001
+2.72500000000E+006, +9.07855858225E+000, +8.49820588362E+001
+3.07000000000E+006, +9.16133508113E+000, +9.57750544003E+001
+3.41500000000E+006, +9.03132409972E+000, +1.06731520243E+002
+3.76000000000E+006, +9.39271337585E+000, +1.17833979862E+002
+4.10500000000E+006, +9.21220725380E+000, +1.28584341640E+002
+4.45000000000E+006, +9.27768523782E+000, +1.39595553762E+002
+4.79500000000E+006, +9.30776546777E+000, +1.50433671413E+002
+5.14000000000E+006, +9.15228897364E+000, +1.61351965214E+002
+5.48500000000E+006, +9.12115684895E+000, +1.72380004764E+002
+5.83000000000E+006, +9.13837319972E+000, +1.83567396168E+002
+6.17500000000E+006, +9.41719232684E+000, +1.94778786470E+002
+6.52000000000E+006, +9.83571162243E+000, +2.05835409702E+002
+6.86500000000E+006, +1.00185598442E+001, +2.16726059145E+002
+7.21000000000E+006, +1.04210999571E+001, +2.27940853653E+002
+7.55500000000E+006, +1.03737544846E+001, +2.39404497647E+002
+7.90000000000E+006, +1.02834576947E+001, +2.50893456161E+002
+8.24500000000E+006, +1.08257665170E+001, +2.62278145658E+002
+8.59000000000E+006, +1.06678939986E+001, +2.73604829065E+002
+8.93500000000E+006, +1.07356737778E+001, +2.84723156536E+002
+9.28000000000E+006, +1.04971264211E+001, +2.96546286458E+002
+9.62500000000E+006, +1.10751238260E+001, +3.08459731220E+002
+9.97000000000E+006, +1.07443355298E+001, +3.19989809801E+002
+1.03150000000E+007, +1.08443875822E+001, +3.31763443113E+002
+1.06600000000E+007, +1.07834732625E+001, +3.43691490424E+002
+1.10050000000E+007, +1.10256973986E+001, +3.55484455721E+002
+1.13500000000E+007, +1.10863346109E+001, +3.67528745633E+002
+1.16950000000E+007, +1.06144485578E+001, +3.78794952245E+002
+1.20400000000E+007, +1.05512270586E+001, +3.91720969862E+002
+1.23850000000E+007, +1.05582915858E+001, +4.04211738640E+002
+1.27300000000E+007, +1.06426906819E+001, +4.16508454241E+002
+1.30750000000E+007, +1.05903048506E+001, +4.29840421139E+002
+1.34200000000E+007, +1.06638827771E+001, +4.42012121399E+002
+1.37650000000E+007, +1.06205146960E+001, +4.53664857371E+002
+1.41100000000E+007, +1.06154972369E+001, +4.67780195091E+002
+1.44550000000E+007, +1.02528620615E+001, +4.80327364941E+002
+1.48000000000E+007, +1.07156512197E+001, +4.93430809240E+002
+1.51450000000E+007, +1.09817055338E+001, +5.07070770962E+002
+1.54900000000E+007, +1.10177167668E+001, +5.20758473663E+002
+1.58350000000E+007, +1.20517814736E+001, +5.34885282336E+002
+1.61800000000E+007, +1.14843073230E+001, +5.46386977850E+002
+1.65250000000E+007, +1.14458164500E+001, +5.59066545042E+002
+1.68700000000E+007, +1.30669965733E+001, +5.74958038047E+002
+1.72150000000E+007, +9.84773798738E+000, +5.88694387910E+002
+1.75600000000E+007, +1.06668712472E+001, +6.03442126128E+002
+1.79050000000E+007, +1.19679525952E+001, +6.19106963150E+002
+1.82500000000E+007, +1.09702345183E+001, +6.33829452421E+002
+1.85950000000E+007, +1.12590743695E+001, +6.47633887856E+002
+1.89400000000E+007, +1.44977978864E+001, +6.58963532259E+002
+1.92850000000E+007, +1.27060619750E+001, +6.78377516016E+002
+1.96300000000E+007, +1.48344821266E+001, +6.95381618362E+002
+1.99750000000E+007, +1.24335343747E+001, +7.10623325015E+002
+2.03200000000E+007, +1.17448390140E+001, +7.26626083039E+002
+2.06650000000E+007, +1.42793756947E+001, +7.40750469748E+002
+2.10100000000E+007, +1.65672655245E+001, +7.58570269981E+002
+2.13550000000E+007, +1.32323635888E+001, +7.77403046334E+002
+2.17000000000E+007, +1.39762532863E+001, +7.92706732410E+002
+2.20450000000E+007, +1.51257908867E+001, +8.13355691443E+002
+2.23900000000E+007, +1.63735767059E+001, +8.28260415477E+002
+2.27350000000E+007, +1.46868363193E+001, +8.44439507597E+002
+2.30800000000E+007, +1.66074751064E+001, +8.65841909888E+002
+2.34250000000E+007, +1.79702409020E+001, +8.88092918419E+002
+2.37700000000E+007, +2.03792588629E+001, +9.06751806397E+002
+2.41150000000E+007, +1.72170832746E+001, +9.20304784530E+002
+2.44600000000E+007, +1.22817391287E+001, +9.42653426877E+002
+2.48050000000E+007, +1.85834387069E+001, +9.64741816715E+002
+2.51500000000E+007, +1.79343760785E+001, +9.84689420237E+002
+2.54950000000E+007, +1.35920429326E+001, +1.00747029892E+003
+2.58400000000E+007, +1.91209893040E+001, +1.02779848136E+003
+2.61850000000E+007, +1.49366502302E+001, +1.05985749500E+003
+2.65300000000E+007, +1.70617803665E+001, +1.07490825227E+003
+2.68750000000E+007, +2.33300187786E+001, +1.10027622859E+003
+2.72200000000E+007, +2.08497477300E+001, +1.12720761235E+003
+2.75650000000E+007, +2.43797135503E+001, +1.15669317223E+003
+2.79100000000E+007, +3.03107770667E+001, +1.17486240062E+003
+2.82550000000E+007, +2.21699960989E+001, +1.20863367239E+003
+2.86000000000E+007, +2.87027339829E+001, +1.23712042424E+003
+2.89450000000E+007, +2.98907395432E+001, +1.26846011415E+003
+2.92900000000E+007, +2.91297860253E+001, +1.28993782446E+003
+2.96350000000E+007, +2.80102760766E+001, +1.32604511629E+003
+2.99800000000E+007, +2.86389616411E+001, +1.36469002351E+003
+3.03250000000E+007, +3.21228455895E+001, +1.39309686276E+003
+3.06700000000E+007, +3.05282067666E+001, +1.43517254343E+003
+3.10150000000E+007, +2.72188058055E+001, +1.46573306797E+003
+3.13600000000E+007, +2.72422469454E+001, +1.50952065288E+003
+3.17050000000E+007, +3.07972613416E+001, +1.55005237562E+003
+3.20500000000E+007, +3.70411191584E+001, +1.59037299987E+003
+3.23950000000E+007, +3.74945430590E+001, +1.63655706262E+003
+3.27400000000E+007, +4.85698416606E+001, +1.67949420258E+003
+3.30850000000E+007, +3.69219758798E+001, +1.73434927748E+003
+3.34300000000E+007, +4.36134206993E+001, +1.76829012064E+003
+3.37750000000E+007, +5.19254674307E+001, +1.82639047190E+003
+3.41200000000E+007, +5.51123386408E+001, +1.89168547693E+003
+3.44650000000E+007, +6.76933459470E+001, +1.95597627345E+003
+3.48100000000E+007, +7.56346501435E+001, +2.00817939534E+003
+3.51550000000E+007, +7.55058703732E+001, +2.05926791875E+003
+3.55000000000E+007, +8.32852693689E+001, +2.13986484033E+003
+3.58450000000E+007, +8.92431776144E+001, +2.23323389326E+003
+3.61900000000E+007, +9.27251219377E+001, +2.26823275942E+003
+3.65350000000E+007, +1.19525545347E+002, +2.39908365308E+003
+3.68800000000E+007, +1.53654148065E+002, +2.52564438033E+003
+3.72250000000E+007, +1.33358120463E+002, +2.58268923470E+003
+3.75700000000E+007, +1.51578003371E+002, +2.68282724797E+003
+3.79150000000E+007, +2.05325439713E+002, +2.76300693539E+003
+3.82600000000E+007, +2.38120925682E+002, +2.94760157668E+003
+3.86050000000E+007, +2.61725066093E+002, +3.03651786202E+003
+3.89500000000E+007, +3.00714947856E+002, +3.21668261716E+003
+3.92950000000E+007, +3.53539338948E+002, +3.33662840525E+003
+3.96400000000E+007, +3.31158602661E+002, +3.52035709457E+003
+3.99850000000E+007, +4.77261429582E+002, +3.65188190483E+003
+4.03300000000E+007, +4.45373174007E+002, +3.89811145154E+003
+4.06750000000E+007, +4.51185913038E+002, +4.14592199606E+003
+4.10200000000E+007, +5.33867440000E+002, +4.37912457865E+003
+4.13650000000E+007, +5.18763400734E+002, +4.79132229475E+003
+4.17100000000E+007, +7.39124783919E+002, +5.24498251018E+003
+4.20550000000E+007, +9.33922395268E+002, +5.58466088264E+003
+4.24000000000E+007, +9.88730828669E+002, +6.38166545834E+003
+4.27450000000E+007, +1.26772168514E+003, +7.00572188908E+003
+4.30900000000E+007, +1.61399064882E+003, +7.69626386754E+003
+4.34350000000E+007, +2.28222460126E+003, +8.86683711036E+003
+4.37800000000E+007, +3.13297943292E+003, +1.05747241521E+004
+4.41250000000E+007, +4.39024740457E+003, +1.40196067810E+004
+4.44700000000E+007, +7.25904477112E+003, +1.56688664132E+004
+4.48150000000E+007, +1.50804864232E+004, +1.71072539462E+004
+4.51600000000E+007, +2.51036422169E+004, +2.07904866568E+004
+4.55050000000E+007, +3.18855093759E+004, -2.56736111062E+003
+4.58500000000E+007, +2.16703186820E+004, -2.00265112567E+004
+4.61950000000E+007, +1.47478750876E+004, -2.13192263335E+004
+4.65400000000E+007, +6.23171310962E+003, -1.44427986579E+004
+4.68850000000E+007, +4.09708182881E+003, -1.09826239945E+004
+4.72300000000E+007, +2.68951753509E+003, -9.35321897971E+003
+4.75750000000E+007, +1.75459445542E+003, -7.63999475621E+003
+4.79200000000E+007, +1.62177650079E+003, -6.59404700884E+003
+4.82650000000E+007, +1.25605313775E+003, -5.81350776317E+003
+4.86100000000E+007, +1.05096269118E+003, -5.22762493026E+003
+4.89550000000E+007, +8.22946938252E+002, -4.73820930950E+003
+4.93000000000E+007, +6.84613054257E+002, -4.22629746306E+003
+4.96450000000E+007, +6.14633936800E+002, -3.79430351126E+003
+4.99900000000E+007, +4.93415652060E+002, -3.54169254047E+003
+5.03350000000E+007, +4.67393470623E+002, -3.24959345906E+003
+5.06800000000E+007, +4.07605460694E+002, -3.02040262148E+003
+5.10250000000E+007, +3.68348682549E+002, -2.81872649441E+003
+5.13700000000E+007, +3.06763034736E+002, -2.61448581804E+003
+5.17150000000E+007, +2.91809539357E+002, -2.39745206551E+003
+5.20600000000E+007, +2.69808120911E+002, -2.24567665616E+003
+5.24050000000E+007, +2.26813691266E+002, -2.09986835637E+003
+5.27500000000E+007, +2.19425658462E+002, -1.98521051918E+003
+5.30950000000E+007, +2.11965412983E+002, -1.85362173237E+003
+5.34400000000E+007, +1.95784168727E+002, -1.73382935770E+003
+5.37850000000E+007, +1.94243254526E+002, -1.63783956903E+003
+5.41300000000E+007, +1.71014564969E+002, -1.55274815248E+003
+5.44750000000E+007, +1.72072481813E+002, -1.47335174891E+003
+5.48200000000E+007, +1.65119852616E+002, -1.37650692844E+003
+5.51650000000E+007, +1.63453921394E+002, -1.30653179291E+003
+5.55100000000E+007, +1.60961913902E+002, -1.23239289092E+003
+5.58550000000E+007, +1.47150437764E+002, -1.17163831604E+003
+5.62000000000E+007, +1.51865160239E+002, -1.11178631975E+003
+5.65450000000E+007, +1.53683317738E+002, -1.04602206394E+003
+5.68900000000E+007, +1.48343268710E+002, -1.00142628295E+003
+5.72350000000E+007, +1.41426322089E+002, -9.50131134506E+002
+5.75800000000E+007, +1.40328976730E+002, -8.99262383103E+002
+5.79250000000E+007, +1.32021265359E+002, -8.53093815918E+002
+5.82700000000E+007, +1.34998890369E+002, -8.10402186432E+002
+5.86150000000E+007, +1.28617300691E+002, -7.65606122111E+002
+5.89600000000E+007, +1.27543496818E+002, -7.24146070663E+002
+5.93050000000E+007, +1.27599314622E+002, -6.86874482945E+002
+5.96500000000E+007, +1.26828386440E+002, -6.51398796522E+002
+5.99950000000E+007, +1.23580162306E+002, -6.17383718455E+002
+6.03400000000E+007, +1.25098319064E+002, -5.84893512964E+002
+6.06850000000E+007, +1.23315247007E+002, -5.53436836335E+002
+6.10300000000E+007, +1.23282563655E+002, -5.21742467561E+002
+6.13750000000E+007, +1.21632302036E+002, -4.94205193534E+002
+6.17200000000E+007, +1.20891802217E+002, -4.66162871667E+002
+6.20650000000E+007, +1.19975828611E+002, -4.39639255896E+002
+6.24100000000E+007, +1.18172491433E+002, -4.13492948495E+002
+6.27550000000E+007, +1.14467804884E+002, -3.88496828222E+002
+6.31000000000E+007, +1.11830073743E+002, -3.63551476708E+002
+6.34450000000E+007, +1.09368062676E+002, -3.37893151727E+002
+6.37900000000E+007, +1.06880193155E+002, -3.13096844947E+002
+6.41350000000E+007, +1.05323995058E+002, -2.89465076054E+002
+6.44800000000E+007, +1.03847434917E+002, -2.66067543050E+002
+6.48250000000E+007, +1.02980078618E+002, -2.43308491527E+002
+6.51700000000E+007, +1.01351107147E+002, -2.22361227096E+002
+6.55150000000E+007, +1.00057579469E+002, -2.00325527423E+002
+6.58600000000E+007, +9.81279980087E+001, -1.79023817322E+002
+6.62050000000E+007, +9.67216288183E+001, -1.57925328574E+002
+6.65500000000E+007, +9.57317126003E+001, -1.36754255034E+002
+6.68950000000E+007, +9.49952184885E+001, -1.15894230382E+002
+6.72400000000E+007, +9.46233638509E+001, -9.52229221388E+001
+6.75850000000E+007, +9.50667063650E+001, -7.52150358564E+001
+6.79300000000E+007, +9.60037254030E+001, -5.60716921529E+001
+6.82750000000E+007, +9.73044508240E+001, -3.78852684771E+001
+6.86200000000E+007, +9.85232508018E+001, -2.07769469499E+001
+6.89650000000E+007, +9.92303484361E+001, -4.87495014740E+000
+6.93100000000E+007, +9.90755152613E+001, +1.03698261720E+001
+6.96550000000E+007, +9.77199594773E+001, +2.54824024818E+001
+7.00000000000E+007, +9.57597837815E+001, +4.11298625909E+001
