"# Channel 1"
"# Trace 1"
Frequency, Formatted Data, Formatted Data
+1.01000000000E+006, +7.68334739930E+001, +3.64182430674E+001
+1.25495000000E+006, +7.67213179945E+001, +4.53393787407E+001
+1.49990000000E+006, +7.67196850182E+001, +5.40659349282E+001
+1.74485000000E+006, +7.67005572456E+001, +6.28864134212E+001
+1.98980000000E+006, +7.67337780275E+001, +7.17289017139E+001
+2.23475000000E+006, +7.67370668097E+001, +8.05678172270E+001
+2.47970000000E+006, +7.69625002298E+001, +8.94697528167E+001
+2.72465000000E+006, +7.70544726019E+001, +9.85481845466E+001
+2.96960000000E+006, +7.71016689290E+001, +1.07444363522E+002
+3.21455000000E+006, +7.74980988381E+001, +1.16285841593E+002
+3.45950000000E+006, +7.75756117212E+001, +1.24838957595E+002
+3.70445000000E+006, +7.76146943315E+001, +1.34293644701E+002
+3.94940000000E+006, +7.80651598292E+001, +1.43005588432E+002
+4.19435000000E+006, +7.84528096847E+001, +1.52885289995E+002
+4.43930000000E+006, +7.80308639851E+001, +1.61999894892E+002
+4.68425000000E+006, +7.88756410286E+001, +1.70782760356E+002
+4.92920000000E+006, +7.86015300919E+001, +1.80475048326E+002
+5.17415000000E+006, +7.95045692011E+001, +1.89066563606E+002
+5.41910000000E+006, +7.97131018845E+001, +1.99273238964E+002
+5.66405000000E+006, +7.98730341381E+001, +2.08331935183E+002
+5.90900000000E+006, +8.03722320043E+001, +2.18446464750E+002
+6.15395000000E+006, +8.11177789722E+001, +2.27093087399E+002
+6.39890000000E+006, +8.13747595443E+001, +2.36849569925E+002
+6.64385000000E+006, +8.21894705630E+001, +2.46936835048E+002
+6.88880000000E+006, +8.25271782755E+001, +2.56561933278E+002
+7.13375000000E+006, +8.32317288646E+001, +2.66545554367E+002
+7.37870000000E+006, +8.39275280737E+001, +2.76149272145E+002
+7.62365000000E+006, +8.46462471800E+001, +2.87075153379E+002
+7.86860000000E+006, +8.46340796116E+001, +2.97375201182E+002
+8.11355000000E+006, +8.54584155423E+001, +3.07618645283E+002
+8.35850000000E+006, +8.59419593589E+001, +3.17238353354E+002
+8.60345000000E+006, +8.71758040125E+001, +3.28631729411E+002
+8.84840000000E+006, +8.80267130738E+001, +3.37619246012E+002
+9.09335000000E+006, +8.74552704981E+001, +3.49112215550E+002
+9.33830000000E+006, +8.96203034426E+001, +3.60240246279E+002
+9.58325000000E+006, +8.91091094677E+001, +3.71598183706E+002
+9.82820000000E+006, +8.98872609005E+001, +3.82921900549E+002
+1.00731500000E+007, +9.17991055596E+001, +3.93353720909E+002
+1.03181000000E+007, +9.18476249989E+001, +4.04448929826E+002
+1.05630500000E+007, +9.23598216967E+001, +4.16055260125E+002
+1.08080000000E+007, +9.34087054191E+001, +4.27783427230E+002
+1.10529500000E+007, +9.43926821145E+001, +4.40616851575E+002
+1.12979000000E+007, +9.55219869895E+001, +4.53637460738E+002
+1.15428500000E+007, +9.72090403758E+001, +4.65825462768E+002
+1.17878000000E+007, +9.79709165129E+001, +4.76357951707E+002
+1.20327500000E+007, +9.85872012492E+001, +4.91355567822E+002
+1.22777000000E+007, +9.94324112313E+001, +5.04835588495E+002
+1.25226500000E+007, +1.01473517872E+002, +5.16448408348E+002
+1.27676000000E+007, +1.01471797064E+002, +5.29672535949E+002
+1.30125500000E+007, +1.02916102387E+002, +5.42733446985E+002
+1.32575000000E+007, +1.05518728652E+002, +5.59505822553E+002
+1.35024500000E+007, +1.06324359853E+002, +5.72952271788E+002
+1.37474000000E+007, +1.09321736023E+002, +5.88988423043E+002
+1.39923500000E+007, +1.11168651634E+002, +6.02642500295E+002
+1.42373000000E+007, +1.10512470460E+002, +6.16374626450E+002
+1.44822500000E+007, +1.13376538519E+002, +6.32321129836E+002
+1.47272000000E+007, +1.14421493531E+002, +6.46873717942E+002
+1.49721500000E+007, +1.15952517896E+002, +6.63792913265E+002
+1.52171000000E+007, +1.16473486268E+002, +6.80884854993E+002
+1.54620500000E+007, +1.18894881379E+002, +6.97703566191E+002
+1.57070000000E+007, +1.21390260941E+002, +7.13551909800E+002
+1.59519500000E+007, +1.24483467174E+002, +7.31071235237E+002
+1.61969000000E+007, +1.28133012635E+002, +7.49177355743E+002
+1.64418500000E+007, +1.28403379045E+002, +7.69140387714E+002
+1.66868000000E+007, +1.32293442312E+002, +7.86775981426E+002
+1.69317500000E+007, +1.36066149559E+002, +8.06670686010E+002
+1.71767000000E+007, +1.31589874534E+002, +8.32009992780E+002
+1.74216500000E+007, +1.36636986107E+002, +8.48981389397E+002
+1.76666000000E+007, +1.38899619231E+002, +8.71657305897E+002
+1.79115500000E+007, +1.46862392033E+002, +8.90449276539E+002
+1.81565000000E+007, +1.47026317552E+002, +9.17226694685E+002
+1.84014500000E+007, +1.51030335950E+002, +9.40151393631E+002
+1.86464000000E+007, +1.52631178399E+002, +9.66418603810E+002
+1.88913500000E+007, +1.63682591511E+002, +9.86002783172E+002
+1.91363000000E+007, +1.68373500402E+002, +1.00811342488E+003
+1.93812500000E+007, +1.67700319419E+002, +1.04290135976E+003
+1.96262000000E+007, +1.75149430273E+002, +1.06645142989E+003
+1.98711500000E+007, +1.79569759390E+002, +1.09474147497E+003
+2.01161000000E+007, +1.83151430385E+002, +1.12146975412E+003
+2.03610500000E+007, +1.88463927616E+002, +1.15879172223E+003
+2.06060000000E+007, +2.01160874769E+002, +1.18354473471E+003
+2.08509500000E+007, +2.03686743415E+002, +1.21670641487E+003
+2.10959000000E+007, +2.07901523402E+002, +1.25568299167E+003
+2.13408500000E+007, +2.23283134957E+002, +1.28603227828E+003
+2.15858000000E+007, +2.24963046555E+002, +1.32025356528E+003
+2.18307500000E+007, +2.45019290404E+002, +1.36212159613E+003
+2.20757000000E+007, +2.44657992106E+002, +1.41527064140E+003
+2.23206500000E+007, +2.58544075331E+002, +1.44131487545E+003
+2.25656000000E+007, +2.66357593823E+002, +1.49368370500E+003
+2.28105500000E+007, +2.86701616575E+002, +1.55311426158E+003
+2.30555000000E+007, +3.10481652140E+002, +1.58807988385E+003
+2.33004500000E+007, +2.98664493625E+002, +1.64392760284E+003
+2.35454000000E+007, +3.29629593560E+002, +1.68831988786E+003
+2.37903500000E+007, +3.32341649211E+002, +1.74479395062E+003
+2.40353000000E+007, +3.57871452541E+002, +1.81835948694E+003
+2.42802500000E+007, +3.86658959034E+002, +1.87013218358E+003
+2.45252000000E+007, +4.01713716789E+002, +1.96388261181E+003
+2.47701500000E+007, +4.33541944073E+002, +2.04034873507E+003
+2.50151000000E+007, +4.65828125941E+002, +2.10761000168E+003
+2.52600500000E+007, +4.98370276686E+002, +2.18309690790E+003
+2.55050000000E+007, +5.77544795778E+002, +2.28187213809E+003
+2.57499500000E+007, +5.78694731292E+002, +2.37225626186E+003
+2.59949000000E+007, +6.11329404049E+002, +2.48096638804E+003
+2.62398500000E+007, +6.75940453132E+002, +2.58190472089E+003
+2.64848000000E+007, +7.71622744671E+002, +2.71995105864E+003
+2.67297500000E+007, +8.33836552732E+002, +2.83720269120E+003
+2.69747000000E+007, +8.95143712385E+002, +2.93167507000E+003
+2.72196500000E+007, +9.53398434862E+002, +3.10535439595E+003
+2.74646000000E+007, +1.08664108103E+003, +3.27082596001E+003
+2.77095500000E+007, +1.16397808012E+003, +3.42106036366E+003
+2.79545000000E+007, +1.34428111018E+003, +3.64025570790E+003
+2.81994500000E+007, +1.50557901890E+003, +3.82302482537E+003
+2.84444000000E+007, +1.78937085630E+003, +4.17610865118E+003
+2.86893500000E+007, +2.01774374684E+003, +4.44963718685E+003
+2.89343000000E+007, +2.28584322770E+003, +4.66154593899E+003
+2.91792500000E+007, +3.02168889859E+003, +4.93795981169E+003
+2.94242000000E+007, +3.32505086555E+003, +5.24363042390E+003
+2.96691500000E+007, +3.82511054679E+003, +5.63612917575E+003
+2.99141000000E+007, +4.73435889619E+003, +6.00463112803E+003
+3.01590500000E+007, +5.76211414895E+003, +5.91271830994E+003
+3.04040000000E+007, +6.71329047659E+003, +6.10090897764E+003
+3.06489500000E+007, +8.25484049177E+003, +5.57628375772E+003
+3.08939000000E+007, +1.06997156691E+004, +5.01425930157E+003
+3.11388500000E+007, +1.21942710195E+004, +3.38869745595E+003
+3.13838000000E+007, +1.20831837338E+004, +8.80189163964E+002
+3.16287500000E+007, +1.13615105922E+004, -1.30128464179E+003
+3.18737000000E+007, +1.08878570350E+004, -4.03036956954E+003
+3.21186500000E+007, +9.36519584118E+003, -5.39972305729E+003
+3.23636000000E+007, +7.38514311499E+003, -5.79760542602E+003
+3.26085500000E+007, +6.31311598842E+003, -6.48447245580E+003
+3.28535000000E+007, +5.56038310129E+003, -6.06361685124E+003
+3.30984500000E+007, +4.12308389235E+003, -5.58528193029E+003
+3.33434000000E+007, +3.53083236476E+003, -5.64112214390E+003
+3.35883500000E+007, +2.84107276485E+003, -5.44935393516E+003
+3.38333000000E+007, +2.61800173413E+003, -4.89504530971E+003
+3.40782500000E+007, +2.29535912332E+003, -4.66317258703E+003
+3.43232000000E+007, +1.99032025088E+003, -4.35749807468E+003
+3.45681500000E+007, +1.65620088549E+003, -4.18947114036E+003
+3.48131000000E+007, +1.52818674224E+003, -3.96113198467E+003
+3.50580500000E+007, +1.27451765520E+003, -3.65047397761E+003
+3.53030000000E+007, +1.17221302385E+003, -3.48299535214E+003
+3.55479500000E+007, +1.07583162902E+003, -3.31584508902E+003
+3.57929000000E+007, +9.35713576517E+002, -3.15733402031E+003
+3.60378500000E+007, +8.41413789991E+002, -3.00353236464E+003
+3.62828000000E+007, +8.29831302881E+002, -2.83999705054E+003
+3.65277500000E+007, +6.86562100045E+002, -2.75424009865E+003
+3.67727000000E+007, +6.68643279786E+002, -2.68163568804E+003
+3.70176500000E+007, +6.20895874132E+002, -2.53133282913E+003
+3.72626000000E+007, +5.64608040044E+002, -2.41962867894E+003
+3.75075500000E+007, +5.34744611786E+002, -2.34056877392E+003
+3.77525000000E+007, +4.97457297169E+002, -2.29162331844E+003
+3.79974500000E+007, +4.67606785529E+002, -2.18646077361E+003
+3.82424000000E+007, +4.38232213991E+002, -2.09161207507E+003
+3.84873500000E+007, +3.95862372325E+002, -2.03056147940E+003
+3.87323000000E+007, +3.80609531594E+002, -1.95959596594E+003
+3.89772500000E+007, +3.62874289469E+002, -1.88749599350E+003
+3.92222000000E+007, +3.32759801336E+002, -1.84247882404E+003
+3.94671500000E+007, +3.12719047365E+002, -1.77897108711E+003
+3.97121000000E+007, +2.84388629956E+002, -1.70830118528E+003
+3.99570500000E+007, +2.80729829879E+002, -1.66221469351E+003
+4.02020000000E+007, +2.61055501590E+002, -1.61482976724E+003
+4.04469500000E+007, +2.45821080210E+002, -1.56732402712E+003
+4.06919000000E+007, +2.43960336136E+002, -1.51965977606E+003
+4.09368500000E+007, +2.25834295640E+002, -1.47588660163E+003
+4.11818000000E+007, +2.05497536253E+002, -1.43949914546E+003
+4.14267500000E+007, +2.12801807597E+002, -1.39733203328E+003
+4.16717000000E+007, +1.88201558078E+002, -1.35241345037E+003
+4.19166500000E+007, +1.77534023801E+002, -1.32248742383E+003
+4.21616000000E+007, +1.76729396354E+002, -1.28043810521E+003
+4.24065500000E+007, +1.72092394944E+002, -1.25297094695E+003
+4.26515000000E+007, +1.72001282346E+002, -1.22149494675E+003
+4.28964500000E+007, +1.62274877679E+002, -1.18602760591E+003
+4.31414000000E+007, +1.52862452240E+002, -1.16201613785E+003
+4.33863500000E+007, +1.43810587278E+002, -1.12358072925E+003
+4.36313000000E+007, +1.41372855234E+002, -1.10365665018E+003
+4.38762500000E+007, +1.42993246567E+002, -1.07490363412E+003
+4.41212000000E+007, +1.35157581073E+002, -1.04802965705E+003
+4.43661500000E+007, +1.25707989306E+002, -1.02248451866E+003
+4.46111000000E+007, +1.22552470835E+002, -9.94066234890E+002
+4.48560500000E+007, +1.18463974990E+002, -9.78237800502E+002
+4.51010000000E+007, +1.14367267398E+002, -9.50086688892E+002
+4.53459500000E+007, +1.09092696155E+002, -9.25308760426E+002
+4.55909000000E+007, +1.06780581409E+002, -9.03794628797E+002
+4.58358500000E+007, +1.05287541388E+002, -8.79665864206E+002
+4.60808000000E+007, +1.00487203144E+002, -8.57727998417E+002
+4.63257500000E+007, +1.01120243217E+002, -8.41056712779E+002
+4.65707000000E+007, +9.66128421194E+001, -8.20425903246E+002
+4.68156500000E+007, +9.59376993126E+001, -7.98821451320E+002
+4.70606000000E+007, +9.47887613396E+001, -7.81540455919E+002
+4.73055500000E+007, +9.19662131108E+001, -7.60780981133E+002
+4.75505000000E+007, +8.82289102283E+001, -7.36730556225E+002
+4.77954500000E+007, +8.47758431723E+001, -7.23665554946E+002
+4.80404000000E+007, +8.28076567584E+001, -7.05547833586E+002
+4.82853500000E+007, +8.34915456532E+001, -6.87743488734E+002
+4.85303000000E+007, +8.05059049138E+001, -6.71134562098E+002
+4.87752500000E+007, +8.08111140694E+001, -6.52965554861E+002
+4.90202000000E+007, +7.69879398160E+001, -6.37663975734E+002
+4.92651500000E+007, +7.79691481002E+001, -6.19653025493E+002
+4.95101000000E+007, +7.56966772603E+001, -6.05569783469E+002
+4.97550500000E+007, +7.50428475866E+001, -5.91335795911E+002
+5.00000000000E+007, +7.42317040846E+001, -5.75896196854E+002
