"# Channel 1"
"# Trace 1"
Frequency, Formatted Data, Formatted Data
+1.01000000000E+006, +5.26535965061E+001, +2.47263938795E+001
+1.25495000000E+006, +5.26222230473E+001, +3.07235253867E+001
+1.49990000000E+006, +5.26712794682E+001, +3.66451339532E+001
+1.74485000000E+006, +5.25968932228E+001, +4.26407276441E+001
+1.98980000000E+006, +5.26466791562E+001, +4.86600713482E+001
+2.23475000000E+006, +5.26322952211E+001, +5.45987407076E+001
+2.47970000000E+006, +5.26174664867E+001, +6.06914146937E+001
+2.72465000000E+006, +5.25649758813E+001, +6.65761546035E+001
+2.96960000000E+006, +5.25873037828E+001, +7.26104060996E+001
+3.21455000000E+006, +5.28275254690E+001, +7.85444866579E+001
+3.45950000000E+006, +5.27457869567E+001, +8.45598566677E+001
+3.70445000000E+006, +5.28048273835E+001, +9.07756034726E+001
+3.94940000000E+006, +5.29927754873E+001, +9.66519420252E+001
+4.19435000000E+006, +5.31817689978E+001, +1.03083619712E+002
+4.43930000000E+006, +5.28324724036E+001, +1.09069255032E+002
+4.68425000000E+006, +5.32262762118E+001, +1.15010190009E+002
+4.92920000000E+006, +5.31470097939E+001, +1.21215481276E+002
+5.17415000000E+006, +5.31873088760E+001, +1.27307415330E+002
+5.41910000000E+006, +5.34375459853E+001, +1.33362687824E+002
+5.66405000000E+006, +5.33718877140E+001, +1.39626852388E+002
+5.90900000000E+006, +5.33751713851E+001, +1.45836689956E+002
+6.15395000000E+006, +5.38842524968E+001, +1.51872272378E+002
+6.39890000000E+006, +5.37455530745E+001, +1.58200905861E+002
+6.64385000000E+006, +5.40488930956E+001, +1.64417068979E+002
+6.88880000000E+006, +5.42782487579E+001, +1.70691828799E+002
+7.13375000000E+006, +5.44578614020E+001, +1.77000447488E+002
+7.37870000000E+006, +5.46353880128E+001, +1.83176678001E+002
+7.62365000000E+006, +5.48992071888E+001, +1.89610425144E+002
+7.86860000000E+006, +5.47564417439E+001, +1.96070492819E+002
+8.11355000000E+006, +5.49285404598E+001, +2.02522811990E+002
+8.35850000000E+006, +5.53680097581E+001, +2.08943622023E+002
+8.60345000000E+006, +5.54092211942E+001, +2.15167264554E+002
+8.84840000000E+006, +5.56635722272E+001, +2.21430198730E+002
+9.09335000000E+006, +5.57134986812E+001, +2.28265305568E+002
+9.33830000000E+006, +5.60937731512E+001, +2.34812518017E+002
+9.58325000000E+006, +5.62847219481E+001, +2.41560226748E+002
+9.82820000000E+006, +5.63965707935E+001, +2.48026390902E+002
+1.00731500000E+007, +5.62418880290E+001, +2.54432801544E+002
+1.03181000000E+007, +5.69125257429E+001, +2.61228037297E+002
+1.05630500000E+007, +5.67081342984E+001, +2.67931141602E+002
+1.08080000000E+007, +5.68773592089E+001, +2.74408943191E+002
+1.10529500000E+007, +5.75355570687E+001, +2.81730161148E+002
+1.12979000000E+007, +5.75311521377E+001, +2.88891883911E+002
+1.15428500000E+007, +5.83441100803E+001, +2.95416280192E+002
+1.17878000000E+007, +5.76601837764E+001, +3.01634844349E+002
+1.20327500000E+007, +5.81472637326E+001, +3.09434398507E+002
+1.22777000000E+007, +5.83521844112E+001, +3.16529772228E+002
+1.25226500000E+007, +5.84732261419E+001, +3.22793373925E+002
+1.27676000000E+007, +5.85413812768E+001, +3.30401006345E+002
+1.30125500000E+007, +5.97059566141E+001, +3.38306175863E+002
+1.32575000000E+007, +6.01338383332E+001, +3.45575986332E+002
+1.35024500000E+007, +6.08978549384E+001, +3.52301360462E+002
+1.37474000000E+007, +6.11280315976E+001, +3.60212838514E+002
+1.39923500000E+007, +6.07508254116E+001, +3.66820222819E+002
+1.42373000000E+007, +6.00158916210E+001, +3.74175289446E+002
+1.44822500000E+007, +6.09159502133E+001, +3.82568624777E+002
+1.47272000000E+007, +6.17263796658E+001, +3.89116672182E+002
+1.49721500000E+007, +6.19872944809E+001, +3.96753868171E+002
+1.52171000000E+007, +6.18183478856E+001, +4.05171510258E+002
+1.54620500000E+007, +6.28123795855E+001, +4.12734926474E+002
+1.57070000000E+007, +6.30286540567E+001, +4.19748186727E+002
+1.59519500000E+007, +6.23811170210E+001, +4.27421140826E+002
+1.61969000000E+007, +6.47721142777E+001, +4.36152643079E+002
+1.64418500000E+007, +6.39526083361E+001, +4.44726725375E+002
+1.66868000000E+007, +6.51894507313E+001, +4.52138153560E+002
+1.69317500000E+007, +6.57380822015E+001, +4.60585180075E+002
+1.71767000000E+007, +6.37325696598E+001, +4.70152932192E+002
+1.74216500000E+007, +6.46866999933E+001, +4.78479109925E+002
+1.76666000000E+007, +6.54143705068E+001, +4.86969459669E+002
+1.79115500000E+007, +6.66176852186E+001, +4.93015555679E+002
+1.81565000000E+007, +6.85591563144E+001, +5.03317959580E+002
+1.84014500000E+007, +6.72631114445E+001, +5.11564906906E+002
+1.86464000000E+007, +6.80625666398E+001, +5.21329762439E+002
+1.88913500000E+007, +6.85049447668E+001, +5.30027855735E+002
+1.91363000000E+007, +7.04901414551E+001, +5.39387620264E+002
+1.93812500000E+007, +7.00938588653E+001, +5.49249068851E+002
+1.96262000000E+007, +6.98454315260E+001, +5.57363121098E+002
+1.98711500000E+007, +7.15710684124E+001, +5.65102920036E+002
+2.01161000000E+007, +7.15873863070E+001, +5.75249990098E+002
+2.03610500000E+007, +7.31079987171E+001, +5.85602722530E+002
+2.06060000000E+007, +7.48500290512E+001, +5.95490530899E+002
+2.08509500000E+007, +7.33152757037E+001, +6.06944944575E+002
+2.10959000000E+007, +7.39791918254E+001, +6.15739564724E+002
+2.13408500000E+007, +7.54093650216E+001, +6.23995380050E+002
+2.15858000000E+007, +7.74777662136E+001, +6.35145967225E+002
+2.18307500000E+007, +7.76134575205E+001, +6.46424966792E+002
+2.20757000000E+007, +7.78355179956E+001, +6.59076594785E+002
+2.23206500000E+007, +7.93091210493E+001, +6.66354051306E+002
+2.25656000000E+007, +8.06524405916E+001, +6.79991320884E+002
+2.28105500000E+007, +8.19873895708E+001, +6.92965414567E+002
+2.30555000000E+007, +8.37723771271E+001, +7.01856124853E+002
+2.33004500000E+007, +8.53253651432E+001, +7.12046026047E+002
+2.35454000000E+007, +8.54431135554E+001, +7.21456251240E+002
+2.37903500000E+007, +8.48335760741E+001, +7.33510132658E+002
+2.40353000000E+007, +8.95528568702E+001, +7.49784271744E+002
+2.42802500000E+007, +8.93226253606E+001, +7.60674760040E+002
+2.45252000000E+007, +9.04781049443E+001, +7.74564968551E+002
+2.47701500000E+007, +9.11341098729E+001, +7.87972497874E+002
+2.50151000000E+007, +9.19395707051E+001, +7.97734048670E+002
+2.52600500000E+007, +8.98693473238E+001, +8.10454424612E+002
+2.55050000000E+007, +1.00358899047E+002, +8.27188475188E+002
+2.57499500000E+007, +9.62312034455E+001, +8.37441268365E+002
+2.59949000000E+007, +9.93534873655E+001, +8.52753918092E+002
+2.62398500000E+007, +9.89036053588E+001, +8.65143500595E+002
+2.64848000000E+007, +1.03128373027E+002, +8.81655248123E+002
+2.67297500000E+007, +1.07128328223E+002, +8.95840032528E+002
+2.69747000000E+007, +1.09931430045E+002, +9.10080839251E+002
+2.72196500000E+007, +1.04657309546E+002, +9.21674339406E+002
+2.74646000000E+007, +1.10018226881E+002, +9.38155504490E+002
+2.77095500000E+007, +1.11955568958E+002, +9.52211835717E+002
+2.79545000000E+007, +1.15659187917E+002, +9.67753512655E+002
+2.81994500000E+007, +1.16796896289E+002, +9.86377897318E+002
+2.84444000000E+007, +1.19849851740E+002, +1.01102984714E+003
+2.86893500000E+007, +1.24016656400E+002, +1.02430511314E+003
+2.89343000000E+007, +1.31467621298E+002, +1.04001958673E+003
+2.91792500000E+007, +1.23419254373E+002, +1.05425123013E+003
+2.94242000000E+007, +1.34402427168E+002, +1.07703811188E+003
+2.96691500000E+007, +1.31505016342E+002, +1.09409834721E+003
+2.99141000000E+007, +1.33365542955E+002, +1.11888306359E+003
+3.01590500000E+007, +1.44087277950E+002, +1.13605324144E+003
+3.04040000000E+007, +1.47650998601E+002, +1.15877123628E+003
+3.06489500000E+007, +1.42470083803E+002, +1.17632634171E+003
+3.08939000000E+007, +1.42680615013E+002, +1.19343948431E+003
+3.11388500000E+007, +1.49547472319E+002, +1.22061518193E+003
+3.13838000000E+007, +1.51470257499E+002, +1.24057009099E+003
+3.16287500000E+007, +1.65510798489E+002, +1.26929008374E+003
+3.18737000000E+007, +1.68069849863E+002, +1.29359528251E+003
+3.21186500000E+007, +1.63136941534E+002, +1.31287052831E+003
+3.23636000000E+007, +1.79000717693E+002, +1.33338674784E+003
+3.26085500000E+007, +1.73313915784E+002, +1.36825905020E+003
+3.28535000000E+007, +1.79306526723E+002, +1.39320267390E+003
+3.30984500000E+007, +1.89599850035E+002, +1.43166449879E+003
+3.33434000000E+007, +1.80491146099E+002, +1.44625392320E+003
+3.35883500000E+007, +2.08218416717E+002, +1.47656874278E+003
+3.38333000000E+007, +2.05927665241E+002, +1.50451196983E+003
+3.40782500000E+007, +2.05994147497E+002, +1.53626792233E+003
+3.43232000000E+007, +2.21807441811E+002, +1.57910503334E+003
+3.45681500000E+007, +2.24368422300E+002, +1.61544913572E+003
+3.48131000000E+007, +2.37304408888E+002, +1.62868459143E+003
+3.50580500000E+007, +2.49673999336E+002, +1.68793517576E+003
+3.53030000000E+007, +2.58811980693E+002, +1.71214777523E+003
+3.55479500000E+007, +2.79611962233E+002, +1.75268403159E+003
+3.57929000000E+007, +2.74916955760E+002, +1.80312455656E+003
+3.60378500000E+007, +2.88062443587E+002, +1.85899012469E+003
+3.62828000000E+007, +3.08260951948E+002, +1.88591263947E+003
+3.65277500000E+007, +2.85223846765E+002, +1.92142613598E+003
+3.67727000000E+007, +3.26495741605E+002, +1.95904901700E+003
+3.70176500000E+007, +3.43885465395E+002, +2.03190075518E+003
+3.72626000000E+007, +3.62004238923E+002, +2.09548051826E+003
+3.75075500000E+007, +3.98775718409E+002, +2.13560230592E+003
+3.77525000000E+007, +3.94826658620E+002, +2.18331235106E+003
+3.79974500000E+007, +4.06355928699E+002, +2.23410681479E+003
+3.82424000000E+007, +4.41526841684E+002, +2.34160473096E+003
+3.84873500000E+007, +4.59536067251E+002, +2.37419936296E+003
+3.87323000000E+007, +4.90784719534E+002, +2.45241407775E+003
+3.89772500000E+007, +5.07783577297E+002, +2.50674512072E+003
+3.92222000000E+007, +5.08678011690E+002, +2.58053638838E+003
+3.94671500000E+007, +5.61775199267E+002, +2.71199922151E+003
+3.97121000000E+007, +6.22554768738E+002, +2.83481405152E+003
+3.99570500000E+007, +6.54573375052E+002, +2.91157751716E+003
+4.02020000000E+007, +7.22673309241E+002, +2.96915175096E+003
+4.04469500000E+007, +7.27810222707E+002, +3.09015762544E+003
+4.06919000000E+007, +7.92006249154E+002, +3.18895534330E+003
+4.09368500000E+007, +8.75009765983E+002, +3.32384114830E+003
+4.11818000000E+007, +9.49841740589E+002, +3.45045044072E+003
+4.14267500000E+007, +1.03375448631E+003, +3.58526316433E+003
+4.16717000000E+007, +1.07043491141E+003, +3.83870820065E+003
+4.19166500000E+007, +1.19124349059E+003, +3.95573494404E+003
+4.21616000000E+007, +1.36532342333E+003, +4.18681404509E+003
+4.24065500000E+007, +1.39730462771E+003, +4.31957520216E+003
+4.26515000000E+007, +1.59819898426E+003, +4.45760769905E+003
+4.28964500000E+007, +1.82935495471E+003, +4.66387708524E+003
+4.31414000000E+007, +2.02000946965E+003, +4.95344430949E+003
+4.33863500000E+007, +2.28061778950E+003, +5.35904534539E+003
+4.36313000000E+007, +2.54851912201E+003, +5.58350352735E+003
+4.38762500000E+007, +2.87300865492E+003, +5.83223842172E+003
+4.41212000000E+007, +3.33499476501E+003, +6.16955738159E+003
+4.43661500000E+007, +3.83040536966E+003, +6.75039816591E+003
+4.46111000000E+007, +4.56521068018E+003, +6.83514476487E+003
+4.48560500000E+007, +5.28560463337E+003, +6.87510473839E+003
+4.51010000000E+007, +6.44539287256E+003, +7.17511115771E+003
+4.53459500000E+007, +8.11142768297E+003, +7.27380361345E+003
+4.55909000000E+007, +9.56300152471E+003, +7.28879026912E+003
+4.58358500000E+007, +1.14885339792E+004, +6.71726967580E+003
+4.60808000000E+007, +1.36819723236E+004, +5.29292123455E+003
+4.63257500000E+007, +1.37173778394E+004, +3.25790021163E+003
+4.65707000000E+007, +1.49224081408E+004, +1.11003032008E+003
+4.68156500000E+007, +1.40462960285E+004, -2.91501148646E+003
+4.70606000000E+007, +1.32215829552E+004, -4.15909067835E+003
+4.73055500000E+007, +1.10004328155E+004, -5.97410297853E+003
+4.75505000000E+007, +9.23921501334E+003, -6.68903013326E+003
+4.77954500000E+007, +8.32510803322E+003, -7.89501258334E+003
+4.80404000000E+007, +6.41810981033E+003, -7.65202611345E+003
+4.82853500000E+007, +5.67174434570E+003, -7.11618583834E+003
+4.85303000000E+007, +4.33996223530E+003, -6.80817784545E+003
+4.87752500000E+007, +3.78027433373E+003, -6.42438437429E+003
+4.90202000000E+007, +3.21079383910E+003, -6.02085329444E+003
+4.92651500000E+007, +2.65792302831E+003, -5.56651103667E+003
+4.95101000000E+007, +2.31365498451E+003, -5.42398029552E+003
+4.97550500000E+007, +2.02364243714E+003, -4.99730190530E+003
+5.00000000000E+007, +1.88098670554E+003, -4.85455975094E+003
