"# Channel 1"
"# Trace 1"
Frequency, Formatted Data, Formatted Data
+1.01000000000E+006, +6.88320603373E-001, +2.21919515253E+001
+1.25495000000E+006, +6.97510290750E-001, +2.75086699529E+001
+1.49990000000E+006, +7.05304530216E-001, +3.28374829849E+001
+1.74485000000E+006, +7.32004025061E-001, +3.81995234556E+001
+1.98980000000E+006, +7.45561716177E-001, +4.34985123763E+001
+2.23475000000E+006, +7.41750606824E-001, +4.88123099549E+001
+2.47970000000E+006, +7.64357246742E-001, +5.42029913144E+001
+2.72465000000E+006, +7.17494424298E-001, +5.95485515374E+001
+2.96960000000E+006, +7.39846446616E-001, +6.48724601733E+001
+3.21455000000E+006, +8.22494400804E-001, +7.03834483317E+001
+3.45950000000E+006, +8.09872605829E-001, +7.57518752000E+001
+3.70445000000E+006, +6.96955480055E-001, +8.12500860794E+001
+3.94940000000E+006, +8.72972242304E-001, +8.66034456426E+001
+4.19435000000E+006, +7.57289455288E-001, +9.21470382537E+001
+4.43930000000E+006, +7.56277547757E-001, +9.74469333803E+001
+4.68425000000E+006, +8.73412030141E-001, +1.02868513432E+002
+4.92920000000E+006, +7.37552535849E-001, +1.08503696920E+002
+5.17415000000E+006, +8.25061274077E-001, +1.13925559239E+002
+5.41910000000E+006, +7.67038240636E-001, +1.19469988043E+002
+5.66405000000E+006, +8.76234387959E-001, +1.24890414968E+002
+5.90900000000E+006, +9.56883778449E-001, +1.30463572778E+002
+6.15395000000E+006, +1.05732267804E+000, +1.35737895631E+002
+6.39890000000E+006, +9.56444418285E-001, +1.41394257998E+002
+6.64385000000E+006, +8.81678231919E-001, +1.47011500316E+002
+6.88880000000E+006, +1.11357010580E+000, +1.52563938091E+002
+7.13375000000E+006, +1.20389663270E+000, +1.58247906563E+002
+7.37870000000E+006, +1.27643747714E+000, +1.63872012598E+002
+7.62365000000E+006, +1.38218053565E+000, +1.69603827052E+002
+7.86860000000E+006, +1.12824646514E+000, +1.75394366919E+002
+8.11355000000E+006, +1.19402877576E+000, +1.80814083052E+002
+8.35850000000E+006, +1.14639452245E+000, +1.86526330365E+002
+8.60345000000E+006, +1.46616569218E+000, +1.92302298839E+002
+8.84840000000E+006, +1.49753989922E+000, +1.97707639827E+002
+9.09335000000E+006, +1.36579110972E+000, +2.03510840370E+002
+9.33830000000E+006, +1.47479822669E+000, +2.09468363483E+002
+9.58325000000E+006, +1.50938298502E+000, +2.15420339906E+002
+9.82820000000E+006, +1.56537628562E+000, +2.21044909815E+002
+1.00731500000E+007, +1.18766530364E+000, +2.26847881090E+002
+1.03181000000E+007, +1.33996647167E+000, +2.32636639146E+002
+1.05630500000E+007, +1.44917305974E+000, +2.38672738798E+002
+1.08080000000E+007, +1.30070161526E+000, +2.44294219828E+002
+1.10529500000E+007, +1.26869722969E+000, +2.50381193143E+002
+1.12979000000E+007, +1.20934852844E+000, +2.56794198044E+002
+1.15428500000E+007, +1.62783983481E+000, +2.62938434361E+002
+1.17878000000E+007, +1.10614414938E+000, +2.68321988865E+002
+1.20327500000E+007, +9.42446099816E-001, +2.74956962429E+002
+1.22777000000E+007, +9.92681353946E-001, +2.81137946335E+002
+1.25226500000E+007, +1.24048840118E+000, +2.86869901927E+002
+1.27676000000E+007, +1.55466843853E+000, +2.93167662233E+002
+1.30125500000E+007, +1.12068037067E+000, +2.99629625949E+002
+1.32575000000E+007, +1.67044075910E+000, +3.06727228256E+002
+1.35024500000E+007, +1.70389698600E+000, +3.13148810927E+002
+1.37474000000E+007, +1.15481539943E+000, +3.19490668853E+002
+1.39923500000E+007, +1.27675317739E+000, +3.25972157595E+002
+1.42373000000E+007, +8.71747943921E-001, +3.31655491551E+002
+1.44822500000E+007, +1.13038161957E+000, +3.39004125117E+002
+1.47272000000E+007, +8.64669996979E-001, +3.45294156072E+002
+1.49721500000E+007, +1.02937957772E+000, +3.51790881601E+002
+1.52171000000E+007, +8.75855796427E-001, +3.57890187762E+002
+1.54620500000E+007, +1.29203881284E+000, +3.64805037500E+002
+1.57070000000E+007, +2.00255790557E+000, +3.71533128915E+002
+1.59519500000E+007, +1.31400750348E+000, +3.78402181506E+002
+1.61969000000E+007, +9.32714178462E-001, +3.85938885491E+002
+1.64418500000E+007, +1.34919243785E+000, +3.92470785417E+002
+1.66868000000E+007, +1.79358497773E+000, +3.99378635415E+002
+1.69317500000E+007, +1.28219407263E+000, +4.06729189872E+002
+1.71767000000E+007, +3.27744473611E-001, +4.13877548069E+002
+1.74216500000E+007, -3.03931703014E-001, +4.21564372743E+002
+1.76666000000E+007, -5.16218553841E-001, +4.29089170274E+002
+1.79115500000E+007, +6.05957944284E-001, +4.35508154690E+002
+1.81565000000E+007, +7.53248166959E-001, +4.44106013248E+002
+1.84014500000E+007, +1.10682940959E+000, +4.51143432978E+002
+1.86464000000E+007, -5.03205522097E-001, +4.58505963222E+002
+1.88913500000E+007, +1.00855789095E+000, +4.65863274470E+002
+1.91363000000E+007, +1.29205999208E+000, +4.73757088863E+002
+1.93812500000E+007, -8.19634256567E-002, +4.82029201598E+002
+1.96262000000E+007, +1.95224963045E-001, +4.90503364532E+002
+1.98711500000E+007, +9.09213103072E-001, +4.98035806520E+002
+2.01161000000E+007, +2.14199481963E+000, +5.05814300765E+002
+2.03610500000E+007, +2.31786691999E+000, +5.14065424930E+002
+2.06060000000E+007, +1.91140796606E+000, +5.22053465601E+002
+2.08509500000E+007, +3.14323255416E-001, +5.30751509575E+002
+2.10959000000E+007, +2.67247666131E-001, +5.39098024329E+002
+2.13408500000E+007, +1.99796355496E+000, +5.46644214021E+002
+2.15858000000E+007, +1.81200790175E+000, +5.55960918610E+002
+2.18307500000E+007, +2.83608902519E+000, +5.66053425779E+002
+2.20757000000E+007, +9.54919249518E-001, +5.73948863143E+002
+2.23206500000E+007, +1.96558630821E+000, +5.83273368291E+002
+2.25656000000E+007, +1.63469714949E+000, +5.93415016422E+002
+2.28105500000E+007, +1.86966163029E+000, +6.01755886491E+002
+2.30555000000E+007, +1.43435578056E+000, +6.09585078288E+002
+2.33004500000E+007, +2.55567224819E+000, +6.18900361528E+002
+2.35454000000E+007, +1.66719160270E+000, +6.29821287593E+002
+2.37903500000E+007, +2.03704244044E+000, +6.38724038937E+002
+2.40353000000E+007, +2.31993218060E+000, +6.50028465464E+002
+2.42802500000E+007, +3.91755045708E+000, +6.59075979920E+002
+2.45252000000E+007, +3.84865437665E+000, +6.71058279267E+002
+2.47701500000E+007, +2.99606132750E+000, +6.81276536768E+002
+2.50151000000E+007, +4.21607676224E+000, +6.89426904598E+002
+2.52600500000E+007, +2.28992730496E+000, +7.01446353804E+002
+2.55050000000E+007, +4.20403321610E+000, +7.13874225241E+002
+2.57499500000E+007, +3.76827762876E+000, +7.20672204626E+002
+2.59949000000E+007, +4.98818332159E+000, +7.37375663855E+002
+2.62398500000E+007, +4.43435427411E+000, +7.45406630008E+002
+2.64848000000E+007, +5.90072834696E+000, +7.59328379998E+002
+2.67297500000E+007, +5.68780584746E+000, +7.69447716449E+002
+2.69747000000E+007, +6.57344047729E+000, +7.83740903585E+002
+2.72196500000E+007, +2.47532257490E+000, +7.92933161503E+002
+2.74646000000E+007, +5.06605053245E+000, +8.04451533259E+002
+2.77095500000E+007, +4.53168780037E+000, +8.17108418566E+002
+2.79545000000E+007, +5.69798975976E+000, +8.29974262465E+002
+2.81994500000E+007, +7.32663370055E+000, +8.46571569819E+002
+2.84444000000E+007, +9.39361543683E+000, +8.61467788726E+002
+2.86893500000E+007, +7.64344829906E+000, +8.73940256900E+002
+2.89343000000E+007, +8.91565555228E+000, +8.86274421788E+002
+2.91792500000E+007, +4.83457803936E+000, +9.03525284023E+002
+2.94242000000E+007, +1.14395402169E+001, +9.13156186693E+002
+2.96691500000E+007, +1.60986888620E+000, +9.33831849672E+002
+2.99141000000E+007, +4.89630631978E+000, +9.48555573199E+002
+3.01590500000E+007, +8.19519431330E+000, +9.65353089185E+002
+3.04040000000E+007, +6.47783840260E+000, +9.82396888729E+002
+3.06489500000E+007, +8.11134068796E+000, +9.93897011462E+002
+3.08939000000E+007, +6.83787126649E+000, +1.00581347848E+003
+3.11388500000E+007, +7.33701188129E+000, +1.03118195220E+003
+3.13838000000E+007, +1.25274736381E+001, +1.04546218884E+003
+3.16287500000E+007, +1.64153154819E+001, +1.06448314267E+003
+3.18737000000E+007, +1.83837067654E+001, +1.08306194654E+003
+3.21186500000E+007, +1.44711202530E+001, +1.10531826761E+003
+3.23636000000E+007, +1.31230640780E+001, +1.11922534047E+003
+3.26085500000E+007, +1.26168829804E+001, +1.14300637089E+003
+3.28535000000E+007, +1.39582659057E+001, +1.16127894217E+003
+3.30984500000E+007, +1.59147186629E+001, +1.18461416569E+003
+3.33434000000E+007, +1.02267581241E+001, +1.20207937410E+003
+3.35883500000E+007, +1.51267977019E+001, +1.22970848073E+003
+3.38333000000E+007, +1.51857236045E+001, +1.25120698773E+003
+3.40782500000E+007, +1.99419844665E+001, +1.27220168024E+003
+3.43232000000E+007, +2.15205593288E+001, +1.29223737561E+003
+3.45681500000E+007, +2.29503758260E+001, +1.32231900170E+003
+3.48131000000E+007, +1.77459014344E+001, +1.34470010470E+003
+3.50580500000E+007, +2.24752514507E+001, +1.37958600853E+003
+3.53030000000E+007, +3.41142743348E+001, +1.39889458636E+003
+3.55479500000E+007, +3.51743543465E+001, +1.42311360101E+003
+3.57929000000E+007, +2.66347549414E+001, +1.45738934311E+003
+3.60378500000E+007, +3.86124186334E+001, +1.49112241658E+003
+3.62828000000E+007, +4.52661729014E+001, +1.51463827206E+003
+3.65277500000E+007, +2.78476729070E+001, +1.54896548484E+003
+3.67727000000E+007, +3.61429353880E+001, +1.58574288101E+003
+3.70176500000E+007, +4.85861666068E+001, +1.61589029446E+003
+3.72626000000E+007, +3.79823732149E+001, +1.65731172207E+003
+3.75075500000E+007, +6.11130911375E+001, +1.69904203992E+003
+3.77525000000E+007, +6.74352699007E+001, +1.72033451926E+003
+3.79974500000E+007, +5.82895388671E+001, +1.76388664212E+003
+3.82424000000E+007, +5.48500633882E+001, +1.81174451123E+003
+3.84873500000E+007, +6.07327023715E+001, +1.85462917461E+003
+3.87323000000E+007, +6.04909965743E+001, +1.90470038031E+003
+3.89772500000E+007, +6.70784285416E+001, +1.95247912825E+003
+3.92222000000E+007, +7.53854692731E+001, +1.99266247187E+003
+3.94671500000E+007, +9.00296218643E+001, +2.04647562062E+003
+3.97121000000E+007, +7.77032187586E+001, +2.14087586397E+003
+3.99570500000E+007, +7.54686682606E+001, +2.17462041052E+003
+4.02020000000E+007, +1.09184519129E+002, +2.26285966709E+003
+4.04469500000E+007, +9.67974498265E+001, +2.31042517990E+003
+4.06919000000E+007, +1.12418367484E+002, +2.36946608585E+003
+4.09368500000E+007, +1.04869332236E+002, +2.44713495291E+003
+4.11818000000E+007, +1.03616051430E+002, +2.52056378579E+003
+4.14267500000E+007, +1.24662432133E+002, +2.61080774271E+003
+4.16717000000E+007, +1.42545385857E+002, +2.72359775970E+003
+4.19166500000E+007, +1.22895417550E+002, +2.79295876456E+003
+4.21616000000E+007, +1.32219657087E+002, +2.92290733936E+003
+4.24065500000E+007, +1.58736048603E+002, +2.96321577617E+003
+4.26515000000E+007, +2.03366435319E+002, +3.10811842703E+003
+4.28964500000E+007, +1.99203145069E+002, +3.23756112531E+003
+4.31414000000E+007, +2.13648098501E+002, +3.40551890815E+003
+4.33863500000E+007, +1.89992509707E+002, +3.62903772845E+003
+4.36313000000E+007, +2.42366347783E+002, +3.69286001441E+003
+4.38762500000E+007, +2.76946792400E+002, +3.86088275161E+003
+4.41212000000E+007, +2.90427416267E+002, +4.12355503295E+003
+4.43661500000E+007, +3.19764678520E+002, +4.29690949262E+003
+4.46111000000E+007, +3.57437062697E+002, +4.55162063636E+003
+4.48560500000E+007, +4.85930236863E+002, +4.78146943244E+003
+4.51010000000E+007, +4.16927786757E+002, +5.20266346176E+003
+4.53459500000E+007, +6.48954880589E+002, +5.55243933736E+003
+4.55909000000E+007, +6.68040023485E+002, +5.91339891992E+003
+4.58358500000E+007, +8.73521863797E+002, +6.36562147549E+003
+4.60808000000E+007, +1.05106555480E+003, +7.07529751787E+003
+4.63257500000E+007, +1.42172287228E+003, +7.47034636322E+003
+4.65707000000E+007, +1.35359227493E+003, +8.31806135394E+003
+4.68156500000E+007, +2.22380854422E+003, +9.67229624145E+003
+4.70606000000E+007, +3.16431285581E+003, +1.03582430477E+004
+4.73055500000E+007, +3.85883784108E+003, +1.21010875283E+004
+4.75505000000E+007, +6.65401238596E+003, +1.55325006190E+004
+4.77954500000E+007, +7.43622561756E+003, +1.83383333986E+004
+4.80404000000E+007, +1.18720541887E+004, +2.27918035372E+004
+4.82853500000E+007, +1.86348543676E+004, +2.32399283104E+004
+4.85303000000E+007, +3.53566557425E+004, +1.47734317855E+004
+4.87752500000E+007, +4.03953422920E+004, -1.04260903141E+004
+4.90202000000E+007, +2.71250623197E+004, -2.28316462956E+004
+4.92651500000E+007, +1.25353258468E+004, -2.05754094693E+004
+4.95101000000E+007, +7.34277788640E+003, -1.70525933476E+004
+4.97550500000E+007, +6.02521677294E+003, -1.47368078101E+004
+5.00000000000E+007, +4.39434994965E+003, -1.18341117823E+004
