"# Channel 1"
"# Trace 1"
Frequency, Formatted Data, Formatted Data
+1.00000000000E+006, +6.37595532451E+001, +3.16429625102E+001
+1.34500000000E+006, +6.38701297579E+001, +4.28197057127E+001
+1.69000000000E+006, +6.38435051851E+001, +5.37155648346E+001
+2.03500000000E+006, +6.38524859525E+001, +6.47762747461E+001
+2.38000000000E+006, +6.38036235259E+001, +7.56822424556E+001
+2.72500000000E+006, +6.39257965711E+001, +8.66990917543E+001
+3.07000000000E+006, +6.38805357682E+001, +9.77472025730E+001
+3.41500000000E+006, +6.39647690793E+001, +1.08888682970E+002
+3.76000000000E+006, +6.39692637101E+001, +1.19676263718E+002
+4.10500000000E+006, +6.47292857251E+001, +1.31159824792E+002
+4.45000000000E+006, +6.37778131103E+001, +1.41759415880E+002
+4.79500000000E+006, +6.43993874422E+001, +1.53233295163E+002
+5.14000000000E+006, +6.47421935700E+001, +1.64404169617E+002
+5.48500000000E+006, +6.48186769532E+001, +1.75962038817E+002
+5.83000000000E+006, +6.53321253946E+001, +1.87117700206E+002
+6.17500000000E+006, +6.58006490767E+001, +1.98026129323E+002
+6.52000000000E+006, +6.57216078291E+001, +2.09314488859E+002
+6.86500000000E+006, +6.62154685923E+001, +2.20442565595E+002
+7.21000000000E+006, +6.64292413767E+001, +2.31614712943E+002
+7.55500000000E+006, +6.63988318018E+001, +2.43272089400E+002
+7.90000000000E+006, +6.66914822800E+001, +2.54913145507E+002
+8.24500000000E+006, +6.71864605983E+001, +2.66240868569E+002
+8.59000000000E+006, +6.69751557584E+001, +2.78358311551E+002
+8.93500000000E+006, +6.74248561301E+001, +2.89751793013E+002
+9.28000000000E+006, +6.68483590410E+001, +3.01756814112E+002
+9.62500000000E+006, +6.71917630099E+001, +3.13553654197E+002
+9.97000000000E+006, +6.73427248980E+001, +3.26212570112E+002
+1.03150000000E+007, +6.73664156088E+001, +3.38059464535E+002
+1.06600000000E+007, +6.80626850251E+001, +3.51130306183E+002
+1.10050000000E+007, +6.84147853753E+001, +3.62486073520E+002
+1.13500000000E+007, +6.82106408674E+001, +3.76202639456E+002
+1.16950000000E+007, +6.91540815532E+001, +3.89227880102E+002
+1.20400000000E+007, +6.87592727013E+001, +4.01895529552E+002
+1.23850000000E+007, +6.93092946825E+001, +4.15321172438E+002
+1.27300000000E+007, +6.85188343213E+001, +4.27572184828E+002
+1.30750000000E+007, +6.95437705662E+001, +4.40752958024E+002
+1.34200000000E+007, +7.00718813343E+001, +4.53397727090E+002
+1.37650000000E+007, +7.12603780706E+001, +4.68438472611E+002
+1.41100000000E+007, +7.18929861299E+001, +4.81429098828E+002
+1.44550000000E+007, +7.26713527416E+001, +4.94630952012E+002
+1.48000000000E+007, +7.23712556627E+001, +5.09971533493E+002
+1.51450000000E+007, +7.27200279755E+001, +5.21171997189E+002
+1.54900000000E+007, +7.46665400530E+001, +5.36057580699E+002
+1.58350000000E+007, +7.38455967344E+001, +5.50362772715E+002
+1.61800000000E+007, +7.45790966336E+001, +5.65173345669E+002
+1.65250000000E+007, +7.49742281576E+001, +5.78815033214E+002
+1.68700000000E+007, +7.55222283694E+001, +5.93966222086E+002
+1.72150000000E+007, +7.63823808320E+001, +6.10670943610E+002
+1.75600000000E+007, +7.76154413861E+001, +6.23964275957E+002
+1.79050000000E+007, +7.96403859038E+001, +6.40583786614E+002
+1.82500000000E+007, +7.94053278619E+001, +6.56154168350E+002
+1.85950000000E+007, +8.12791645120E+001, +6.72479612782E+002
+1.89400000000E+007, +8.05556923465E+001, +6.88854249657E+002
+1.92850000000E+007, +8.56243738987E+001, +7.04567127379E+002
+1.96300000000E+007, +8.09238425528E+001, +7.20478288974E+002
+1.99750000000E+007, +8.54218107395E+001, +7.36400461318E+002
+2.03200000000E+007, +8.59704179245E+001, +7.56933881593E+002
+2.06650000000E+007, +9.00147328609E+001, +7.74455724915E+002
+2.10100000000E+007, +9.01035716055E+001, +7.91701469126E+002
+2.13550000000E+007, +9.12839881461E+001, +8.06300992633E+002
+2.17000000000E+007, +9.28468025807E+001, +8.30009458769E+002
+2.20450000000E+007, +9.63513394154E+001, +8.46472028567E+002
+2.23900000000E+007, +9.28570066894E+001, +8.66440561793E+002
+2.27350000000E+007, +9.73956094047E+001, +8.90214136012E+002
+2.30800000000E+007, +1.00475580941E+002, +9.03433088478E+002
+2.34250000000E+007, +1.01610685699E+002, +9.29899523554E+002
+2.37700000000E+007, +1.03927605304E+002, +9.49808277538E+002
+2.41150000000E+007, +1.08120376169E+002, +9.75648544017E+002
+2.44600000000E+007, +1.11384269878E+002, +9.93566655477E+002
+2.48050000000E+007, +1.15424578248E+002, +1.01756785567E+003
+2.51500000000E+007, +1.20729018670E+002, +1.03623067572E+003
+2.54950000000E+007, +1.22295581289E+002, +1.05938191622E+003
+2.58400000000E+007, +1.20438579022E+002, +1.08619883082E+003
+2.61850000000E+007, +1.27843686240E+002, +1.09950519994E+003
+2.65300000000E+007, +1.28979219900E+002, +1.13382311340E+003
+2.68750000000E+007, +1.31575342873E+002, +1.15763229546E+003
+2.72200000000E+007, +1.37199981800E+002, +1.18479192513E+003
+2.75650000000E+007, +1.33812723539E+002, +1.21369086206E+003
+2.79100000000E+007, +1.42436810917E+002, +1.24331996223E+003
+2.82550000000E+007, +1.50750534873E+002, +1.27296547455E+003
+2.86000000000E+007, +1.51787916608E+002, +1.31071360864E+003
+2.89450000000E+007, +1.62802130397E+002, +1.34333275590E+003
+2.92900000000E+007, +1.52321039515E+002, +1.35340088261E+003
+2.96350000000E+007, +1.67434200783E+002, +1.40710790446E+003
+2.99800000000E+007, +1.80957441954E+002, +1.44944962297E+003
+3.03250000000E+007, +1.72042041772E+002, +1.48976415252E+003
+3.06700000000E+007, +1.82398859578E+002, +1.51761744942E+003
+3.10150000000E+007, +1.94906485062E+002, +1.55440576768E+003
+3.13600000000E+007, +1.99520977213E+002, +1.60420506157E+003
+3.17050000000E+007, +2.07124920999E+002, +1.63675314786E+003
+3.20500000000E+007, +2.26075703607E+002, +1.69378479706E+003
+3.23950000000E+007, +2.25344613198E+002, +1.75386796111E+003
+3.27400000000E+007, +2.34616695788E+002, +1.80661387877E+003
+3.30850000000E+007, +2.44635905015E+002, +1.85193551906E+003
+3.34300000000E+007, +2.66121013877E+002, +1.90350174822E+003
+3.37750000000E+007, +2.71855062363E+002, +1.95913850007E+003
+3.41200000000E+007, +2.89488016446E+002, +2.00169819623E+003
+3.44650000000E+007, +3.26174858294E+002, +2.09137211558E+003
+3.48100000000E+007, +3.14447578363E+002, +2.15561962082E+003
+3.51550000000E+007, +3.50644439820E+002, +2.26797206242E+003
+3.55000000000E+007, +3.67550034736E+002, +2.32330623407E+003
+3.58450000000E+007, +3.98046337424E+002, +2.40294892060E+003
+3.61900000000E+007, +4.34392257304E+002, +2.51691081901E+003
+3.65350000000E+007, +4.53003332538E+002, +2.57789460972E+003
+3.68800000000E+007, +5.25386036560E+002, +2.68067634458E+003
+3.72250000000E+007, +5.98545522740E+002, +2.81487184950E+003
+3.75700000000E+007, +6.32682530793E+002, +2.89891991242E+003
+3.79150000000E+007, +6.86366054741E+002, +3.06511741862E+003
+3.82600000000E+007, +7.45617995068E+002, +3.18053566624E+003
+3.86050000000E+007, +8.17085054352E+002, +3.37775155818E+003
+3.89500000000E+007, +9.08333654042E+002, +3.54532268666E+003
+3.92950000000E+007, +9.88874449074E+002, +3.74218999270E+003
+3.96400000000E+007, +1.13757154187E+003, +3.94422584311E+003
+3.99850000000E+007, +1.30468068135E+003, +4.24530848638E+003
+4.03300000000E+007, +1.41889999631E+003, +4.37169594197E+003
+4.06750000000E+007, +1.73180447244E+003, +4.68483385785E+003
+4.10200000000E+007, +1.80490910189E+003, +5.10474317426E+003
+4.13650000000E+007, +2.31487286985E+003, +5.52674232448E+003
+4.17100000000E+007, +2.79296226462E+003, +5.83954632611E+003
+4.20550000000E+007, +3.44201918943E+003, +6.04237996092E+003
+4.24000000000E+007, +4.03025091412E+003, +6.51391193771E+003
+4.27450000000E+007, +4.92662367886E+003, +7.07649655900E+003
+4.30900000000E+007, +6.60636595434E+003, +7.17034391153E+003
+4.34350000000E+007, +8.74035088791E+003, +6.85567318891E+003
+4.37800000000E+007, +1.06549180913E+004, +5.47854588211E+003
+4.41250000000E+007, +1.21637451744E+004, +4.14894662197E+003
+4.44700000000E+007, +1.33901137203E+004, +1.18978132575E+003
+4.48150000000E+007, +1.35075246035E+004, -2.13578602476E+003
+4.51600000000E+007, +1.29913214980E+004, -3.72882200301E+003
+4.55050000000E+007, +1.01921565033E+004, -6.19194543987E+003
+4.58500000000E+007, +8.01497845677E+003, -6.75817434011E+003
+4.61950000000E+007, +5.74264277372E+003, -7.23531749664E+003
+4.65400000000E+007, +4.75383944928E+003, -6.38519371086E+003
+4.68850000000E+007, +3.43995562021E+003, -6.09108775149E+003
+4.72300000000E+007, +2.78340058121E+003, -5.49780914574E+003
+4.75750000000E+007, +2.20789863615E+003, -5.14984519965E+003
+4.79200000000E+007, +1.91383484010E+003, -4.65559628986E+003
+4.82650000000E+007, +1.60048621635E+003, -4.26117476611E+003
+4.86100000000E+007, +1.36222996920E+003, -3.86251256040E+003
+4.89550000000E+007, +1.16079895674E+003, -3.58411311923E+003
+4.93000000000E+007, +9.86085602727E+002, -3.37252093761E+003
+4.96450000000E+007, +8.67741867565E+002, -3.10117880985E+003
+4.99900000000E+007, +7.57496237817E+002, -2.88644417065E+003
+5.03350000000E+007, +6.95899983796E+002, -2.71123706169E+003
+5.06800000000E+007, +6.32163572543E+002, -2.51392356725E+003
+5.10250000000E+007, +5.37536088105E+002, -2.36640292939E+003
+5.13700000000E+007, +4.63945585059E+002, -2.21465978461E+003
+5.17150000000E+007, +4.58100839246E+002, -2.10132866273E+003
+5.20600000000E+007, +4.04002194900E+002, -1.96450745477E+003
+5.24050000000E+007, +3.70931639094E+002, -1.84394534676E+003
+5.27500000000E+007, +3.42565982111E+002, -1.73789533197E+003
+5.30950000000E+007, +3.34060902155E+002, -1.64452871377E+003
+5.34400000000E+007, +3.10931921348E+002, -1.54434708133E+003
+5.37850000000E+007, +2.85921968657E+002, -1.46149324753E+003
+5.41300000000E+007, +2.72987902147E+002, -1.38205999950E+003
+5.44750000000E+007, +2.59467576955E+002, -1.30074512926E+003
+5.48200000000E+007, +2.53782384964E+002, -1.23521006491E+003
+5.51650000000E+007, +2.42664588139E+002, -1.17499812086E+003
+5.55100000000E+007, +2.38552371715E+002, -1.10464066756E+003
+5.58550000000E+007, +2.32833775443E+002, -1.05045959892E+003
+5.62000000000E+007, +2.21350855303E+002, -9.98775459255E+002
+5.65450000000E+007, +2.18566561407E+002, -9.43046160443E+002
+5.68900000000E+007, +2.08759759253E+002, -8.98301864810E+002
+5.72350000000E+007, +2.02891006408E+002, -8.43509758829E+002
+5.75800000000E+007, +1.95297888473E+002, -8.03638158418E+002
+5.79250000000E+007, +1.91431112524E+002, -7.60229711962E+002
+5.82700000000E+007, +1.88889646797E+002, -7.16992053133E+002
+5.86150000000E+007, +1.86599876511E+002, -6.77459397303E+002
+5.89600000000E+007, +1.85427744851E+002, -6.37553988839E+002
+5.93050000000E+007, +1.83032283239E+002, -6.03400998430E+002
+5.96500000000E+007, +1.84771175052E+002, -5.67669297700E+002
+5.99950000000E+007, +1.83720205407E+002, -5.35778646799E+002
+6.03400000000E+007, +1.82402710519E+002, -5.03786574701E+002
+6.06850000000E+007, +1.84360399997E+002, -4.73755546340E+002
+6.10300000000E+007, +1.85804877507E+002, -4.44793683155E+002
+6.13750000000E+007, +1.87593576572E+002, -4.18237304254E+002
+6.17200000000E+007, +1.87625846834E+002, -3.94422835499E+002
+6.20650000000E+007, +1.88076023927E+002, -3.73314193965E+002
+6.24100000000E+007, +1.85420892491E+002, -3.52235550001E+002
+6.27550000000E+007, +1.82750533445E+002, -3.32093708927E+002
+6.31000000000E+007, +1.78079155767E+002, -3.11327106028E+002
+6.34450000000E+007, +1.73020808896E+002, -2.89781043443E+002
+6.37900000000E+007, +1.67749428069E+002, -2.68269231970E+002
+6.41350000000E+007, +1.62930090376E+002, -2.44844414812E+002
+6.44800000000E+007, +1.59329695202E+002, -2.22029691837E+002
+6.48250000000E+007, +1.55701426151E+002, -1.99096372955E+002
+6.51700000000E+007, +1.53882882360E+002, -1.76899431898E+002
+6.55150000000E+007, +1.52306537655E+002, -1.54619325357E+002
+6.58600000000E+007, +1.51630414732E+002, -1.33457599340E+002
+6.62050000000E+007, +1.51781015471E+002, -1.14135686106E+002
+6.65500000000E+007, +1.50754442701E+002, -9.62677877506E+001
+6.68950000000E+007, +1.48064918230E+002, -7.91826250100E+001
+6.72400000000E+007, +1.44288894638E+002, -6.10210962790E+001
+6.75850000000E+007, +1.40374865314E+002, -4.20024227421E+001
+6.79300000000E+007, +1.37221455055E+002, -2.27305531491E+001
+6.82750000000E+007, +1.34171449725E+002, -3.11607591024E+000
+6.86200000000E+007, +1.31455292081E+002, +1.65105193711E+001
+6.89650000000E+007, +1.29067680139E+002, +3.67888549247E+001
+6.93100000000E+007, +1.27589333235E+002, +5.70321559133E+001
+6.96550000000E+007, +1.26587997432E+002, +7.73229251138E+001
+7.00000000000E+007, +1.26668753729E+002, +9.68761354391E+001
