"# Channel 1"
"# Trace 1"
Frequency, Formatted Data, Formatted Data
+1.00000000000E+006, +5.81782049883E+001, +2.60710927909E+001
+1.34500000000E+006, +5.82296140668E+001, +3.51823157951E+001
+1.69000000000E+006, +5.82565059895E+001, +4.41907978355E+001
+2.03500000000E+006, +5.83156741463E+001, +5.32843535465E+001
+2.38000000000E+006, +5.83827694455E+001, +6.21580234088E+001
+2.72500000000E+006, +5.83527313056E+001, +7.13183996509E+001
+3.07000000000E+006, +5.87112215491E+001, +8.04686541345E+001
+3.41500000000E+006, +5.87027130739E+001, +8.96502807614E+001
+3.76000000000E+006, +5.86480296562E+001, +9.86319050013E+001
+4.10500000000E+006, +5.94042911907E+001, +1.08066784523E+002
+4.45000000000E+006, +5.87475015023E+001, +1.16845688629E+002
+4.79500000000E+006, +5.90599290013E+001, +1.26663847389E+002
+5.14000000000E+006, +5.95597440204E+001, +1.35845077820E+002
+5.48500000000E+006, +5.97514960944E+001, +1.45350081103E+002
+5.83000000000E+006, +6.01711052054E+001, +1.54654040188E+002
+6.17500000000E+006, +6.02904248740E+001, +1.64071331488E+002
+6.52000000000E+006, +6.07573711762E+001, +1.73609697539E+002
+6.86500000000E+006, +6.12274203717E+001, +1.83012121856E+002
+7.21000000000E+006, +6.16004789197E+001, +1.92542909302E+002
+7.55500000000E+006, +6.16847887700E+001, +2.02211408125E+002
+7.90000000000E+006, +6.19796382022E+001, +2.11958188150E+002
+8.24500000000E+006, +6.24559603054E+001, +2.21846450667E+002
+8.59000000000E+006, +6.25680573980E+001, +2.31912129215E+002
+8.93500000000E+006, +6.30249861178E+001, +2.42345439497E+002
+9.28000000000E+006, +6.30890710194E+001, +2.52456921528E+002
+9.62500000000E+006, +6.35643058649E+001, +2.62648586087E+002
+9.97000000000E+006, +6.35914567848E+001, +2.73513794484E+002
+1.03150000000E+007, +6.39926473202E+001, +2.84098312533E+002
+1.06600000000E+007, +6.47334102341E+001, +2.95219278744E+002
+1.10050000000E+007, +6.48684452023E+001, +3.05070619739E+002
+1.13500000000E+007, +6.54500242752E+001, +3.17144689489E+002
+1.16950000000E+007, +6.55923913158E+001, +3.28485588138E+002
+1.20400000000E+007, +6.68114582015E+001, +3.39412157590E+002
+1.23850000000E+007, +6.72061298072E+001, +3.51147442831E+002
+1.27300000000E+007, +6.72375696909E+001, +3.62239653197E+002
+1.30750000000E+007, +6.80815576736E+001, +3.73809871124E+002
+1.34200000000E+007, +6.88139527918E+001, +3.85286020022E+002
+1.37650000000E+007, +6.98654428705E+001, +3.97548848964E+002
+1.41100000000E+007, +7.08246354775E+001, +4.10663000552E+002
+1.44550000000E+007, +7.14930894823E+001, +4.23500340100E+002
+1.48000000000E+007, +7.27563231103E+001, +4.37177785480E+002
+1.51450000000E+007, +7.27578708846E+001, +4.48281118679E+002
+1.54900000000E+007, +7.42685335841E+001, +4.61975021311E+002
+1.58350000000E+007, +7.41856958991E+001, +4.74854080324E+002
+1.61800000000E+007, +7.56090842275E+001, +4.88851942372E+002
+1.65250000000E+007, +7.68418304660E+001, +5.02681848858E+002
+1.68700000000E+007, +7.69906458831E+001, +5.16533206541E+002
+1.72150000000E+007, +7.89926675634E+001, +5.32530185970E+002
+1.75600000000E+007, +7.88964966008E+001, +5.46085812432E+002
+1.79050000000E+007, +8.10551002857E+001, +5.62053990543E+002
+1.82500000000E+007, +8.36822868996E+001, +5.77494184689E+002
+1.85950000000E+007, +8.49590327835E+001, +5.93308470136E+002
+1.89400000000E+007, +8.60317791270E+001, +6.09738914577E+002
+1.92850000000E+007, +8.78196906866E+001, +6.26474427135E+002
+1.96300000000E+007, +8.93771451752E+001, +6.42775976737E+002
+1.99750000000E+007, +9.25751856728E+001, +6.59742591555E+002
+2.03200000000E+007, +9.24764277031E+001, +6.78190326199E+002
+2.06650000000E+007, +9.54110370181E+001, +6.97997876889E+002
+2.10100000000E+007, +9.74951354292E+001, +7.16830080385E+002
+2.13550000000E+007, +1.01771525221E+002, +7.35843249146E+002
+2.17000000000E+007, +1.05736011366E+002, +7.56497518327E+002
+2.20450000000E+007, +1.07478781867E+002, +7.77967609853E+002
+2.23900000000E+007, +1.12313772189E+002, +7.95206544675E+002
+2.27350000000E+007, +1.12598323470E+002, +8.25948045430E+002
+2.30800000000E+007, +1.18275487482E+002, +8.38761515533E+002
+2.34250000000E+007, +1.18711650379E+002, +8.65812037855E+002
+2.37700000000E+007, +1.23787792214E+002, +8.86307226989E+002
+2.41150000000E+007, +1.26625976304E+002, +9.14254915792E+002
+2.44600000000E+007, +1.31367928331E+002, +9.45888105278E+002
+2.48050000000E+007, +1.36994067380E+002, +9.62899715452E+002
+2.51500000000E+007, +1.38828484070E+002, +9.90213293882E+002
+2.54950000000E+007, +1.49900666330E+002, +1.01720422027E+003
+2.58400000000E+007, +1.51974886825E+002, +1.04758201004E+003
+2.61850000000E+007, +1.54755146399E+002, +1.07758978793E+003
+2.65300000000E+007, +1.65901051435E+002, +1.10952510125E+003
+2.68750000000E+007, +1.66378321892E+002, +1.14613838521E+003
+2.72200000000E+007, +1.79440945246E+002, +1.17930025806E+003
+2.75650000000E+007, +1.78283334522E+002, +1.21596827367E+003
+2.79100000000E+007, +1.93356001561E+002, +1.25367834817E+003
+2.82550000000E+007, +2.01136209707E+002, +1.29408973515E+003
+2.86000000000E+007, +2.10744799641E+002, +1.34406593115E+003
+2.89450000000E+007, +2.19055909608E+002, +1.38849049835E+003
+2.92900000000E+007, +2.25622241826E+002, +1.43052276410E+003
+2.96350000000E+007, +2.45439673773E+002, +1.47904681812E+003
+2.99800000000E+007, +2.61477225094E+002, +1.54063074059E+003
+3.03250000000E+007, +2.69053141832E+002, +1.59088449516E+003
+3.06700000000E+007, +2.87119791813E+002, +1.64165358018E+003
+3.10150000000E+007, +3.10142260136E+002, +1.70694136856E+003
+3.13600000000E+007, +3.30657631610E+002, +1.79066596831E+003
+3.17050000000E+007, +3.52601400284E+002, +1.83431311570E+003
+3.20500000000E+007, +3.94315414302E+002, +1.92886035220E+003
+3.23950000000E+007, +4.04827403404E+002, +1.99888351621E+003
+3.27400000000E+007, +4.62499241407E+002, +2.08829657249E+003
+3.30850000000E+007, +4.89524819145E+002, +2.18121876029E+003
+3.34300000000E+007, +5.44156618302E+002, +2.26955682839E+003
+3.37750000000E+007, +5.53004035523E+002, +2.39790642445E+003
+3.41200000000E+007, +6.13820207492E+002, +2.48167894693E+003
+3.44650000000E+007, +7.06960292761E+002, +2.64400645459E+003
+3.48100000000E+007, +7.01777983796E+002, +2.76455444897E+003
+3.51550000000E+007, +8.27901682874E+002, +2.88146865163E+003
+3.55000000000E+007, +9.51013551015E+002, +3.06178432140E+003
+3.58450000000E+007, +1.03963155057E+003, +3.28943347821E+003
+3.61900000000E+007, +1.19368367581E+003, +3.50234645382E+003
+3.65350000000E+007, +1.30571254981E+003, +3.64376465684E+003
+3.68800000000E+007, +1.58704501154E+003, +3.92179075022E+003
+3.72250000000E+007, +1.84311684627E+003, +4.16725432033E+003
+3.75700000000E+007, +2.12789533997E+003, +4.55365645838E+003
+3.79150000000E+007, +2.67867039976E+003, +4.97742601462E+003
+3.82600000000E+007, +3.00786682817E+003, +5.36589978042E+003
+3.86050000000E+007, +3.80035185918E+003, +5.70208708468E+003
+3.89500000000E+007, +4.92688035960E+003, +5.88487912827E+003
+3.92950000000E+007, +6.12587409362E+003, +6.13889809551E+003
+3.96400000000E+007, +7.54624509865E+003, +6.38754988402E+003
+3.99850000000E+007, +1.03940327242E+004, +5.10244661508E+003
+4.03300000000E+007, +1.21422455402E+004, +3.16406898768E+003
+4.06750000000E+007, +1.31883556385E+004, -1.84858413161E+002
+4.10200000000E+007, +1.34141191621E+004, -1.71162240628E+003
+4.13650000000E+007, +1.05915145790E+004, -5.83381710232E+003
+4.17100000000E+007, +8.13291710698E+003, -6.51218557375E+003
+4.20550000000E+007, +6.81512389597E+003, -6.23767711196E+003
+4.24000000000E+007, +4.92208037941E+003, -6.52633114787E+003
+4.27450000000E+007, +4.06750477888E+003, -5.96250043863E+003
+4.30900000000E+007, +2.87197246833E+003, -5.53037533681E+003
+4.34350000000E+007, +2.42116160086E+003, -5.10720536103E+003
+4.37800000000E+007, +2.00283132248E+003, -4.65569323858E+003
+4.41250000000E+007, +1.66037297413E+003, -4.34744874509E+003
+4.44700000000E+007, +1.42476472085E+003, -4.06734775644E+003
+4.48150000000E+007, +1.16506302010E+003, -3.71732089605E+003
+4.51600000000E+007, +1.01774770872E+003, -3.55129649118E+003
+4.55050000000E+007, +8.82361446991E+002, -3.26578701241E+003
+4.58500000000E+007, +7.81930514407E+002, -3.04948974944E+003
+4.61950000000E+007, +6.30021233739E+002, -2.89966357096E+003
+4.65400000000E+007, +6.08590064103E+002, -2.72809010206E+003
+4.68850000000E+007, +4.92945534603E+002, -2.55045448429E+003
+4.72300000000E+007, +4.78729527082E+002, -2.43178985655E+003
+4.75750000000E+007, +3.92317490890E+002, -2.30670186096E+003
+4.79200000000E+007, +3.73914050353E+002, -2.17305877353E+003
+4.82650000000E+007, +3.25542706668E+002, -2.06997210072E+003
+4.86100000000E+007, +3.22883773073E+002, -1.97400899383E+003
+4.89550000000E+007, +2.92304081719E+002, -1.89266217671E+003
+4.93000000000E+007, +2.68665648148E+002, -1.80362560701E+003
+4.96450000000E+007, +2.52373202246E+002, -1.71740831679E+003
+4.99900000000E+007, +2.38705232076E+002, -1.64253175206E+003
+5.03350000000E+007, +2.31019612812E+002, -1.58430274230E+003
+5.06800000000E+007, +2.04925815425E+002, -1.51405550432E+003
+5.10250000000E+007, +1.93194241176E+002, -1.44383377828E+003
+5.13700000000E+007, +1.74576165385E+002, -1.39456099747E+003
+5.17150000000E+007, +1.76895854101E+002, -1.34909299500E+003
+5.20600000000E+007, +1.69773475235E+002, -1.28747610840E+003
+5.24050000000E+007, +1.53607019673E+002, -1.23522457680E+003
+5.27500000000E+007, +1.44351576187E+002, -1.18793501383E+003
+5.30950000000E+007, +1.45575734787E+002, -1.14614632811E+003
+5.34400000000E+007, +1.37857191872E+002, -1.10014528299E+003
+5.37850000000E+007, +1.36669640467E+002, -1.05568292169E+003
+5.41300000000E+007, +1.30421376541E+002, -1.01760789290E+003
+5.44750000000E+007, +1.30301873177E+002, -9.80974572098E+002
+5.48200000000E+007, +1.30805311498E+002, -9.45849002820E+002
+5.51650000000E+007, +1.27998924956E+002, -9.10704842368E+002
+5.55100000000E+007, +1.27807805035E+002, -8.76252515494E+002
+5.58550000000E+007, +1.27311293305E+002, -8.43327320380E+002
+5.62000000000E+007, +1.25318799257E+002, -8.12856703342E+002
+5.65450000000E+007, +1.24031925506E+002, -7.84645976926E+002
+5.68900000000E+007, +1.19126759821E+002, -7.56939506107E+002
+5.72350000000E+007, +1.20503446910E+002, -7.30287131831E+002
+5.75800000000E+007, +1.17985187322E+002, -7.04308149742E+002
+5.79250000000E+007, +1.17839125066E+002, -6.79122746451E+002
+5.82700000000E+007, +1.19513076250E+002, -6.52252085930E+002
+5.86150000000E+007, +1.18447991124E+002, -6.27081027560E+002
+5.89600000000E+007, +1.19362762752E+002, -6.03418561219E+002
+5.93050000000E+007, +1.18199809103E+002, -5.80464442639E+002
+5.96500000000E+007, +1.21610915130E+002, -5.57318893813E+002
+5.99950000000E+007, +1.23421259806E+002, -5.36639346521E+002
+6.03400000000E+007, +1.21899078951E+002, -5.13747425786E+002
+6.06850000000E+007, +1.26481460540E+002, -4.92444662038E+002
+6.10300000000E+007, +1.29317944884E+002, -4.72558636152E+002
+6.13750000000E+007, +1.32211780161E+002, -4.54165044665E+002
+6.17200000000E+007, +1.34423904830E+002, -4.36563230155E+002
+6.20650000000E+007, +1.36938658247E+002, -4.22590031016E+002
+6.24100000000E+007, +1.36523900274E+002, -4.06760030343E+002
+6.27550000000E+007, +1.36371368895E+002, -3.91869547904E+002
+6.31000000000E+007, +1.34929566773E+002, -3.77422343545E+002
+6.34450000000E+007, +1.32326253575E+002, -3.60825286216E+002
+6.37900000000E+007, +1.29018576360E+002, -3.44808642091E+002
+6.41350000000E+007, +1.27549620130E+002, -3.26034260557E+002
+6.44800000000E+007, +1.26606361896E+002, -3.07539893987E+002
+6.48250000000E+007, +1.25347987361E+002, -2.89489843345E+002
+6.51700000000E+007, +1.26237923843E+002, -2.70792364500E+002
+6.55150000000E+007, +1.27700215611E+002, -2.52491366812E+002
+6.58600000000E+007, +1.29562307979E+002, -2.34578790075E+002
+6.62050000000E+007, +1.32278592389E+002, -2.19337851947E+002
+6.65500000000E+007, +1.34376960581E+002, -2.05093274561E+002
+6.68950000000E+007, +1.33392346125E+002, -1.92208116176E+002
+6.72400000000E+007, +1.30511633866E+002, -1.76971256624E+002
+6.75850000000E+007, +1.27750052048E+002, -1.59574361326E+002
+6.79300000000E+007, +1.26049676859E+002, -1.41532550582E+002
+6.82750000000E+007, +1.24885088763E+002, -1.22772406443E+002
+6.86200000000E+007, +1.24299794474E+002, -1.03513907187E+002
+6.89650000000E+007, +1.24169115995E+002, -8.36866519058E+001
+6.93100000000E+007, +1.25012300189E+002, -6.31649460912E+001
+6.96550000000E+007, +1.26973153591E+002, -4.20815660344E+001
+7.00000000000E+007, +1.30098074470E+002, -2.14296770161E+001
