"# Channel 1"
"# Trace 1"
Frequency, Formatted Data, Formatted Data
+1.00000000000E+006, +5.24079810984E+001, +2.40855598664E+001
+1.34500000000E+006, +5.23444608251E+001, +3.25561421457E+001
+1.69000000000E+006, +5.23927697643E+001, +4.08725720075E+001
+2.03500000000E+006, +5.25464187572E+001, +4.93512677559E+001
+2.38000000000E+006, +5.24564969883E+001, +5.75692094958E+001
+2.72500000000E+006, +5.25925226556E+001, +6.59701649332E+001
+3.07000000000E+006, +5.25955598978E+001, +7.43266486330E+001
+3.41500000000E+006, +5.27406745780E+001, +8.27952640677E+001
+3.76000000000E+006, +5.27183507785E+001, +9.11597530570E+001
+4.10500000000E+006, +5.31138809597E+001, +9.97277721009E+001
+4.45000000000E+006, +5.27588432041E+001, +1.07853126905E+002
+4.79500000000E+006, +5.31484763843E+001, +1.16728968859E+002
+5.14000000000E+006, +5.32540541187E+001, +1.25265220462E+002
+5.48500000000E+006, +5.33431509412E+001, +1.34007094330E+002
+5.83000000000E+006, +5.37343991966E+001, +1.42447691719E+002
+6.17500000000E+006, +5.41566950178E+001, +1.51009469711E+002
+6.52000000000E+006, +5.41436574595E+001, +1.59493355961E+002
+6.86500000000E+006, +5.44353839732E+001, +1.68277246946E+002
+7.21000000000E+006, +5.47818450924E+001, +1.76873968093E+002
+7.55500000000E+006, +5.48240832538E+001, +1.85852595882E+002
+7.90000000000E+006, +5.50691744665E+001, +1.94382675142E+002
+8.24500000000E+006, +5.53563075573E+001, +2.03226486644E+002
+8.59000000000E+006, +5.53679080087E+001, +2.12177968530E+002
+8.93500000000E+006, +5.55954319432E+001, +2.21568666549E+002
+9.28000000000E+006, +5.56678449768E+001, +2.30607471508E+002
+9.62500000000E+006, +5.57033244594E+001, +2.39773510318E+002
+9.97000000000E+006, +5.57515547147E+001, +2.49437508074E+002
+1.03150000000E+007, +5.61743114981E+001, +2.58593890742E+002
+1.06600000000E+007, +5.64822102598E+001, +2.68522428741E+002
+1.10050000000E+007, +5.70568737537E+001, +2.77405266568E+002
+1.13500000000E+007, +5.66789208576E+001, +2.87444582704E+002
+1.16950000000E+007, +5.74200303891E+001, +2.97470377606E+002
+1.20400000000E+007, +5.73920366877E+001, +3.07129193682E+002
+1.23850000000E+007, +5.76310036861E+001, +3.17109265137E+002
+1.27300000000E+007, +5.79051438591E+001, +3.26732519343E+002
+1.30750000000E+007, +5.79008940557E+001, +3.37084396085E+002
+1.34200000000E+007, +5.87495264787E+001, +3.47026947588E+002
+1.37650000000E+007, +5.91376657012E+001, +3.57994322323E+002
+1.41100000000E+007, +5.98969211592E+001, +3.68133381852E+002
+1.44550000000E+007, +6.09573706225E+001, +3.78825388366E+002
+1.48000000000E+007, +6.10074178527E+001, +3.90328178140E+002
+1.51450000000E+007, +6.05722093886E+001, +4.00304960388E+002
+1.54900000000E+007, +6.16832374838E+001, +4.11035784391E+002
+1.58350000000E+007, +6.23957794839E+001, +4.21831828800E+002
+1.61800000000E+007, +6.24488434360E+001, +4.32495382868E+002
+1.65250000000E+007, +6.38138072059E+001, +4.44782786014E+002
+1.68700000000E+007, +6.37882605241E+001, +4.55365685643E+002
+1.72150000000E+007, +6.41930898506E+001, +4.68559685554E+002
+1.75600000000E+007, +6.47400114008E+001, +4.80117080275E+002
+1.79050000000E+007, +6.55458846620E+001, +4.91151701829E+002
+1.82500000000E+007, +6.78510104733E+001, +5.04030808566E+002
+1.85950000000E+007, +6.85352245638E+001, +5.16672199036E+002
+1.89400000000E+007, +6.96065177782E+001, +5.29408917828E+002
+1.92850000000E+007, +6.94542700799E+001, +5.42631948985E+002
+1.96300000000E+007, +6.90155103776E+001, +5.54595754685E+002
+1.99750000000E+007, +7.14587698650E+001, +5.68487386902E+002
+2.03200000000E+007, +7.23983582513E+001, +5.82846300010E+002
+2.06650000000E+007, +7.45953345489E+001, +5.96130777582E+002
+2.10100000000E+007, +7.46114399716E+001, +6.07322809300E+002
+2.13550000000E+007, +7.75255736184E+001, +6.24109548913E+002
+2.17000000000E+007, +7.72615284523E+001, +6.38661526932E+002
+2.20450000000E+007, +7.72310799969E+001, +6.51529389696E+002
+2.23900000000E+007, +7.98388551604E+001, +6.67985775304E+002
+2.27350000000E+007, +7.95923851411E+001, +6.86084325262E+002
+2.30800000000E+007, +8.44426734604E+001, +6.99557874806E+002
+2.34250000000E+007, +8.32460598221E+001, +7.14088152250E+002
+2.37700000000E+007, +8.79966344166E+001, +7.31854964592E+002
+2.41150000000E+007, +9.04045821951E+001, +7.49366467043E+002
+2.44600000000E+007, +9.04554362514E+001, +7.64212355512E+002
+2.48050000000E+007, +9.24953796896E+001, +7.84634060933E+002
+2.51500000000E+007, +9.58969313414E+001, +7.99647855358E+002
+2.54950000000E+007, +1.01284093676E+002, +8.20321332696E+002
+2.58400000000E+007, +1.01988806365E+002, +8.37211571872E+002
+2.61850000000E+007, +1.02348216353E+002, +8.59187936689E+002
+2.65300000000E+007, +1.04109546641E+002, +8.76142689979E+002
+2.68750000000E+007, +1.07827043364E+002, +9.00450892545E+002
+2.72200000000E+007, +1.08208716567E+002, +9.17598205604E+002
+2.75650000000E+007, +1.09242487955E+002, +9.40515316218E+002
+2.79100000000E+007, +1.14399284617E+002, +9.61722512023E+002
+2.82550000000E+007, +1.17745089751E+002, +9.84703929686E+002
+2.86000000000E+007, +1.19761812494E+002, +1.00907200482E+003
+2.89450000000E+007, +1.24696343067E+002, +1.03254047379E+003
+2.92900000000E+007, +1.25547373076E+002, +1.05615974195E+003
+2.96350000000E+007, +1.35072108872E+002, +1.08892298397E+003
+2.99800000000E+007, +1.41879234241E+002, +1.11256631658E+003
+3.03250000000E+007, +1.38314942616E+002, +1.14282142649E+003
+3.06700000000E+007, +1.46280105687E+002, +1.16361104618E+003
+3.10150000000E+007, +1.49470934501E+002, +1.19437131555E+003
+3.13600000000E+007, +1.51552947384E+002, +1.22802028852E+003
+3.17050000000E+007, +1.59986744226E+002, +1.26131239999E+003
+3.20500000000E+007, +1.75793019793E+002, +1.29214714290E+003
+3.23950000000E+007, +1.74415020222E+002, +1.32958819607E+003
+3.27400000000E+007, +1.80959348980E+002, +1.36170542083E+003
+3.30850000000E+007, +1.83198886393E+002, +1.40689546470E+003
+3.34300000000E+007, +1.98739893893E+002, +1.44413664636E+003
+3.37750000000E+007, +1.90866938590E+002, +1.47460499811E+003
+3.41200000000E+007, +2.19043258221E+002, +1.51773949127E+003
+3.44650000000E+007, +2.30650153123E+002, +1.57702006244E+003
+3.48100000000E+007, +2.29525165467E+002, +1.62127791977E+003
+3.51550000000E+007, +2.42506102341E+002, +1.66563156658E+003
+3.55000000000E+007, +2.63097581990E+002, +1.72793241486E+003
+3.58450000000E+007, +2.70077489859E+002, +1.77261095784E+003
+3.61900000000E+007, +2.80419771810E+002, +1.84424098373E+003
+3.65350000000E+007, +2.93746991100E+002, +1.89689441992E+003
+3.68800000000E+007, +3.11619754681E+002, +1.96551506418E+003
+3.72250000000E+007, +3.63309458580E+002, +2.04478164844E+003
+3.75700000000E+007, +3.71839913259E+002, +2.10191730539E+003
+3.79150000000E+007, +3.95210077230E+002, +2.21428332981E+003
+3.82600000000E+007, +4.18368856909E+002, +2.26397481235E+003
+3.86050000000E+007, +4.44163503720E+002, +2.35169469963E+003
+3.89500000000E+007, +5.30075894224E+002, +2.48311483118E+003
+3.92950000000E+007, +5.33460041740E+002, +2.56124466247E+003
+3.96400000000E+007, +5.53003846615E+002, +2.69091172221E+003
+3.99850000000E+007, +6.50288183652E+002, +2.81798042367E+003
+4.03300000000E+007, +7.05694088420E+002, +2.91993584160E+003
+4.06750000000E+007, +7.48606130876E+002, +3.08850687425E+003
+4.10200000000E+007, +8.05511103131E+002, +3.25144732472E+003
+4.13650000000E+007, +9.50668501281E+002, +3.50535688802E+003
+4.17100000000E+007, +1.00032483869E+003, +3.72358695087E+003
+4.20550000000E+007, +1.19523996143E+003, +3.88141102251E+003
+4.24000000000E+007, +1.32437749913E+003, +4.10226386467E+003
+4.27450000000E+007, +1.48107669780E+003, +4.25543140804E+003
+4.30900000000E+007, +1.84919554848E+003, +4.73535903715E+003
+4.34350000000E+007, +2.11034789588E+003, +4.91144792719E+003
+4.37800000000E+007, +2.57567899927E+003, +5.30726145316E+003
+4.41250000000E+007, +2.96117283405E+003, +5.83466652818E+003
+4.44700000000E+007, +3.78371071804E+003, +6.13434948709E+003
+4.48150000000E+007, +4.69524097962E+003, +6.50586888006E+003
+4.51600000000E+007, +5.51066873965E+003, +6.95293351369E+003
+4.55050000000E+007, +7.11712473887E+003, +7.11318874885E+003
+4.58500000000E+007, +9.38022053473E+003, +6.57119855601E+003
+4.61950000000E+007, +1.21881096153E+004, +6.11622648979E+003
+4.65400000000E+007, +1.28432629764E+004, +3.46930160721E+003
+4.68850000000E+007, +1.50753094562E+004, -2.45894784443E+002
+4.72300000000E+007, +1.41320021596E+004, -2.85135314379E+003
+4.75750000000E+007, +1.20939203634E+004, -6.62408014853E+003
+4.79200000000E+007, +9.65680981146E+003, -7.53314897769E+003
+4.82650000000E+007, +6.77274183216E+003, -7.77742643136E+003
+4.86100000000E+007, +5.06100838392E+003, -7.20772924196E+003
+4.89550000000E+007, +4.22374353213E+003, -6.77517464199E+003
+4.93000000000E+007, +3.20901881068E+003, -6.18841626993E+003
+4.96450000000E+007, +2.49794838450E+003, -5.61670750953E+003
+4.99900000000E+007, +2.23489101654E+003, -5.21593836883E+003
+5.03350000000E+007, +1.80944759246E+003, -4.78250422560E+003
+5.06800000000E+007, +1.51660221555E+003, -4.42040783092E+003
+5.10250000000E+007, +1.29564529931E+003, -4.00948015093E+003
+5.13700000000E+007, +1.06809804365E+003, -3.79574303020E+003
+5.17150000000E+007, +9.44000513144E+002, -3.53100606711E+003
+5.20600000000E+007, +8.48127885263E+002, -3.28076789995E+003
+5.24050000000E+007, +7.65833858920E+002, -3.11599628082E+003
+5.27500000000E+007, +6.28865171028E+002, -2.89512847122E+003
+5.30950000000E+007, +6.06205337235E+002, -2.73576407515E+003
+5.34400000000E+007, +5.53044039961E+002, -2.56045241969E+003
+5.37850000000E+007, +5.13302345583E+002, -2.41909488371E+003
+5.41300000000E+007, +4.24953556106E+002, -2.31981228794E+003
+5.44750000000E+007, +4.28176646196E+002, -2.19493121307E+003
+5.48200000000E+007, +4.15987766637E+002, -2.07070294882E+003
+5.51650000000E+007, +3.75768930501E+002, -1.96177155636E+003
+5.55100000000E+007, +3.53144166328E+002, -1.88261539342E+003
+5.58550000000E+007, +3.43028413761E+002, -1.79306292855E+003
+5.62000000000E+007, +3.35863588966E+002, -1.72591604951E+003
+5.65450000000E+007, +3.12134605680E+002, -1.63309143736E+003
+5.68900000000E+007, +2.88230913036E+002, -1.57472924110E+003
+5.72350000000E+007, +2.73162140215E+002, -1.50670021925E+003
+5.75800000000E+007, +2.54111615342E+002, -1.44116165390E+003
+5.79250000000E+007, +2.31015610785E+002, -1.38777527528E+003
+5.82700000000E+007, +2.41015688720E+002, -1.31937043311E+003
+5.86150000000E+007, +2.26368686380E+002, -1.26806547911E+003
+5.89600000000E+007, +2.27402762500E+002, -1.21463824928E+003
+5.93050000000E+007, +2.13910385534E+002, -1.16782074474E+003
+5.96500000000E+007, +2.14236305540E+002, -1.12301255516E+003
+5.99950000000E+007, +2.10168970327E+002, -1.07789734289E+003
+6.03400000000E+007, +1.98665847818E+002, -1.03579285907E+003
+6.06850000000E+007, +2.07576862166E+002, -9.94807905749E+002
+6.10300000000E+007, +2.04435656525E+002, -9.59535325850E+002
+6.13750000000E+007, +2.04043972982E+002, -9.19959907021E+002
+6.17200000000E+007, +2.04195434668E+002, -8.85915313322E+002
+6.20650000000E+007, +2.02012312592E+002, -8.63742835562E+002
+6.24100000000E+007, +1.97211968362E+002, -8.34091950024E+002
+6.27550000000E+007, +1.96061817072E+002, -8.08834969603E+002
+6.31000000000E+007, +1.88280319714E+002, -7.80770730259E+002
+6.34450000000E+007, +1.82584627098E+002, -7.54601359657E+002
+6.37900000000E+007, +1.72906998212E+002, -7.29603566753E+002
+6.41350000000E+007, +1.68694982237E+002, -6.98733884672E+002
+6.44800000000E+007, +1.64180357421E+002, -6.71564353743E+002
+6.48250000000E+007, +1.59934292969E+002, -6.42963209881E+002
+6.51700000000E+007, +1.57482418012E+002, -6.18381326025E+002
+6.55150000000E+007, +1.56640839453E+002, -5.91437106336E+002
+6.58600000000E+007, +1.53252270737E+002, -5.64828683670E+002
+6.62050000000E+007, +1.53011924081E+002, -5.41436908583E+002
+6.65500000000E+007, +1.50203507794E+002, -5.18157687357E+002
+6.68950000000E+007, +1.49751904631E+002, -4.95838217550E+002
+6.72400000000E+007, +1.47245594868E+002, -4.73299691694E+002
+6.75850000000E+007, +1.47035817469E+002, -4.52663853042E+002
+6.79300000000E+007, +1.45007338664E+002, -4.31585108314E+002
+6.82750000000E+007, +1.40988412067E+002, -4.11935416673E+002
+6.86200000000E+007, +1.36882873549E+002, -3.92636229954E+002
+6.89650000000E+007, +1.31131443273E+002, -3.69241879055E+002
+6.93100000000E+007, +1.27874384051E+002, -3.44807120018E+002
+6.96550000000E+007, +1.27684804274E+002, -3.20018603484E+002
+7.00000000000E+007, +1.28117206895E+002, -2.96087203991E+002
