"# Channel 1"
"# Trace 1"
Frequency, Formatted Data, Formatted Data
+1.00000000000E+006, +3.71706598957E+001, +2.91151909962E+001
+1.34500000000E+006, +3.72573194939E+001, +3.92105175576E+001
+1.69000000000E+006, +3.70992477428E+001, +4.91342627638E+001
+2.03500000000E+006, +3.71841577778E+001, +5.91753677904E+001
+2.38000000000E+006, +3.71027006873E+001, +6.89507544098E+001
+2.72500000000E+006, +3.72725020969E+001, +7.92640599678E+001
+3.07000000000E+006, +3.70454777000E+001, +8.90936873451E+001
+3.41500000000E+006, +3.72140064927E+001, +9.91455928631E+001
+3.76000000000E+006, +3.73505143650E+001, +1.09172621694E+002
+4.10500000000E+006, +3.67498384591E+001, +1.19277204096E+002
+4.45000000000E+006, +3.73394241913E+001, +1.29095323030E+002
+4.79500000000E+006, +3.75154499083E+001, +1.39667700492E+002
+5.14000000000E+006, +3.74192126761E+001, +1.49130194125E+002
+5.48500000000E+006, +3.77731767864E+001, +1.59536603579E+002
+5.83000000000E+006, +3.76935605804E+001, +1.69026443314E+002
+6.17500000000E+006, +3.83516883908E+001, +1.79859878340E+002
+6.52000000000E+006, +3.84598293488E+001, +1.89668564710E+002
+6.86500000000E+006, +3.86506767342E+001, +1.99635364721E+002
+7.21000000000E+006, +3.90271053874E+001, +2.09662290546E+002
+7.55500000000E+006, +3.89231640913E+001, +2.20036458227E+002
+7.90000000000E+006, +3.91936940016E+001, +2.30336846195E+002
+8.24500000000E+006, +3.90501689127E+001, +2.40336283852E+002
+8.59000000000E+006, +3.88304072582E+001, +2.50789517405E+002
+8.93500000000E+006, +3.93394545316E+001, +2.61212727444E+002
+9.28000000000E+006, +3.89363943300E+001, +2.71626957954E+002
+9.62500000000E+006, +3.91906906404E+001, +2.81925847819E+002
+9.97000000000E+006, +3.93202595418E+001, +2.92496491560E+002
+1.03150000000E+007, +3.92094966241E+001, +3.03030165822E+002
+1.06600000000E+007, +3.88206687691E+001, +3.14047735814E+002
+1.10050000000E+007, +3.98539223193E+001, +3.24396064837E+002
+1.13500000000E+007, +4.02665130455E+001, +3.35804417421E+002
+1.16950000000E+007, +4.00480627270E+001, +3.46706481109E+002
+1.20400000000E+007, +4.06565536819E+001, +3.57357672645E+002
+1.23850000000E+007, +4.02209109857E+001, +3.68327706474E+002
+1.27300000000E+007, +3.99520310116E+001, +3.78812639741E+002
+1.30750000000E+007, +4.10858243073E+001, +3.90732430779E+002
+1.34200000000E+007, +4.17603665091E+001, +4.01658755300E+002
+1.37650000000E+007, +4.20114612179E+001, +4.11810495000E+002
+1.41100000000E+007, +4.25372564238E+001, +4.24522346755E+002
+1.44550000000E+007, +4.29932264382E+001, +4.35249502661E+002
+1.48000000000E+007, +4.26839601372E+001, +4.48117021483E+002
+1.51450000000E+007, +4.42246908773E+001, +4.59955996742E+002
+1.54900000000E+007, +4.45119202905E+001, +4.71335129738E+002
+1.58350000000E+007, +4.52598429344E+001, +4.83452112378E+002
+1.61800000000E+007, +4.49243827200E+001, +4.97289563398E+002
+1.65250000000E+007, +4.60941466735E+001, +5.07842823011E+002
+1.68700000000E+007, +4.68852773940E+001, +5.21759492897E+002
+1.72150000000E+007, +4.80575102417E+001, +5.34469882335E+002
+1.75600000000E+007, +4.80639912519E+001, +5.48409252283E+002
+1.79050000000E+007, +5.07612944222E+001, +5.60225086723E+002
+1.82500000000E+007, +5.45582259337E+001, +5.71249924369E+002
+1.85950000000E+007, +5.44879896632E+001, +5.85951961847E+002
+1.89400000000E+007, +5.51600398339E+001, +5.99585174497E+002
+1.92850000000E+007, +5.52511099028E+001, +6.14619395247E+002
+1.96300000000E+007, +5.49867585337E+001, +6.28620373041E+002
+1.99750000000E+007, +5.65496337376E+001, +6.41743968965E+002
+2.03200000000E+007, +5.92927134307E+001, +6.59709429789E+002
+2.06650000000E+007, +5.76099658824E+001, +6.72999474326E+002
+2.10100000000E+007, +6.14113246994E+001, +6.94134650264E+002
+2.13550000000E+007, +6.30509959424E+001, +7.10367081147E+002
+2.17000000000E+007, +6.69734491353E+001, +7.26055659512E+002
+2.20450000000E+007, +6.65651782186E+001, +7.42021923967E+002
+2.23900000000E+007, +6.89775143689E+001, +7.62903327928E+002
+2.27350000000E+007, +7.30911581262E+001, +7.86217613924E+002
+2.30800000000E+007, +7.66182389150E+001, +8.04209347023E+002
+2.34250000000E+007, +8.15976613201E+001, +8.25244305644E+002
+2.37700000000E+007, +8.72088575948E+001, +8.47272675462E+002
+2.41150000000E+007, +9.43639040230E+001, +8.71301203962E+002
+2.44600000000E+007, +1.01641490265E+002, +8.95313331679E+002
+2.48050000000E+007, +1.11829174463E+002, +9.17001129749E+002
+2.51500000000E+007, +1.27606883571E+002, +9.38125624881E+002
+2.54950000000E+007, +1.34956147870E+002, +9.62183367581E+002
+2.58400000000E+007, +1.42168281900E+002, +9.82993680177E+002
+2.61850000000E+007, +1.51577706805E+002, +1.00103528110E+003
+2.65300000000E+007, +1.50009608778E+002, +1.03153487173E+003
+2.68750000000E+007, +1.58009125418E+002, +1.06470909022E+003
+2.72200000000E+007, +1.68513403282E+002, +1.10350001201E+003
+2.75650000000E+007, +1.74998251037E+002, +1.14106946562E+003
+2.79100000000E+007, +1.87479496614E+002, +1.18388972757E+003
+2.82550000000E+007, +2.08497328585E+002, +1.22927132943E+003
+2.86000000000E+007, +2.18218503222E+002, +1.28749725274E+003
+2.89450000000E+007, +2.43167385205E+002, +1.32496208350E+003
+2.92900000000E+007, +2.83264505499E+002, +1.39657607147E+003
+2.96350000000E+007, +3.19909134528E+002, +1.45854807151E+003
+2.99800000000E+007, +3.50897675409E+002, +1.51815204113E+003
+3.03250000000E+007, +3.94045951473E+002, +1.59360004590E+003
+3.06700000000E+007, +4.56069878718E+002, +1.67448100679E+003
+3.10150000000E+007, +5.13606268269E+002, +1.76987366015E+003
+3.13600000000E+007, +6.21784932510E+002, +1.86948755430E+003
+3.17050000000E+007, +7.30045836569E+002, +1.96966363211E+003
+3.20500000000E+007, +8.69021282535E+002, +2.11528564702E+003
+3.23950000000E+007, +1.03289092083E+003, +2.22545002018E+003
+3.27400000000E+007, +1.34368214920E+003, +2.37811631712E+003
+3.30850000000E+007, +1.61823476983E+003, +2.44644779862E+003
+3.34300000000E+007, +2.01723233431E+003, +2.48337536257E+003
+3.37750000000E+007, +2.54435023419E+003, +2.42241813811E+003
+3.41200000000E+007, +3.02709193064E+003, +2.24523982167E+003
+3.44650000000E+007, +3.55180278926E+003, +1.70868090338E+003
+3.48100000000E+007, +3.89924451307E+003, +9.76440165517E+002
+3.51550000000E+007, +3.90681639314E+003, +1.95620569859E+002
+3.55000000000E+007, +3.70571318861E+003, -5.50412203557E+002
+3.58450000000E+007, +3.20954076433E+003, -1.09544081497E+003
+3.61900000000E+007, +2.62503607228E+003, -1.39281258619E+003
+3.65350000000E+007, +2.15071672361E+003, -1.43094104944E+003
+3.68800000000E+007, +1.76366509884E+003, -1.41181108132E+003
+3.72250000000E+007, +1.46740829884E+003, -1.33392375536E+003
+3.75700000000E+007, +1.26579914930E+003, -1.24507840832E+003
+3.79150000000E+007, +1.10073233558E+003, -1.15447602551E+003
+3.82600000000E+007, +9.55643798277E+002, -1.09656703878E+003
+3.86050000000E+007, +8.17610039284E+002, -1.02970779756E+003
+3.89500000000E+007, +7.00374734928E+002, -9.65677492113E+002
+3.92950000000E+007, +6.10938893116E+002, -9.07283546400E+002
+3.96400000000E+007, +5.23018244580E+002, -8.29863446179E+002
+3.99850000000E+007, +4.50179989380E+002, -7.57327744953E+002
+4.03300000000E+007, +3.94045098464E+002, -6.84236775928E+002
+4.06750000000E+007, +3.46713652037E+002, -6.17315826869E+002
+4.10200000000E+007, +3.06614352820E+002, -5.62942530462E+002
+4.13650000000E+007, +2.78925352306E+002, -5.06337562768E+002
+4.17100000000E+007, +2.51466792660E+002, -4.55638554083E+002
+4.20550000000E+007, +2.30640119347E+002, -4.09515922598E+002
+4.24000000000E+007, +2.11329360138E+002, -3.67267746121E+002
+4.27450000000E+007, +1.96576064360E+002, -3.26898224194E+002
+4.30900000000E+007, +1.82583214818E+002, -2.89855387109E+002
+4.34350000000E+007, +1.72910425078E+002, -2.55270247369E+002
+4.37800000000E+007, +1.64529820490E+002, -2.26941189792E+002
+4.41250000000E+007, +1.56654435659E+002, -2.00711559784E+002
+4.44700000000E+007, +1.48158164661E+002, -1.78087077532E+002
+4.48150000000E+007, +1.38292229410E+002, -1.55635797430E+002
+4.51600000000E+007, +1.27968626965E+002, -1.33225886590E+002
+4.55050000000E+007, +1.19044813601E+002, -1.10878507916E+002
+4.58500000000E+007, +1.11431655417E+002, -8.86442753924E+001
+4.61950000000E+007, +1.05078316570E+002, -6.74817216662E+001
+4.65400000000E+007, +9.96191925283E+001, -4.74036345041E+001
+4.68850000000E+007, +9.50316779834E+001, -2.83291374629E+001
+4.72300000000E+007, +9.07818947184E+001, -1.01205903308E+001
+4.75750000000E+007, +8.73090010345E+001, +7.42611750299E+000
+4.79200000000E+007, +8.45010440445E+001, +2.44604850845E+001
+4.82650000000E+007, +8.27936130704E+001, +4.06030902231E+001
+4.86100000000E+007, +8.22274157998E+001, +5.55163680188E+001
+4.89550000000E+007, +8.23030860823E+001, +6.88052369302E+001
+4.93000000000E+007, +8.20787241776E+001, +7.97328296423E+001
+4.96450000000E+007, +8.05677607158E+001, +8.95490701374E+001
+4.99900000000E+007, +7.79560864305E+001, +9.94724702257E+001
+5.03350000000E+007, +7.52873007813E+001, +1.09480020664E+002
+5.06800000000E+007, +7.26042411806E+001, +1.19564554645E+002
+5.10250000000E+007, +7.00836264642E+001, +1.29445368769E+002
+5.13700000000E+007, +6.77294075121E+001, +1.39155765859E+002
+5.17150000000E+007, +6.57658006867E+001, +1.48689951222E+002
+5.20600000000E+007, +6.38443698213E+001, +1.58141703013E+002
+5.24050000000E+007, +6.20217127612E+001, +1.66950554382E+002
+5.27500000000E+007, +5.98708080103E+001, +1.75278475279E+002
+5.30950000000E+007, +5.81894841697E+001, +1.83992431930E+002
+5.34400000000E+007, +5.62623053992E+001, +1.92469317060E+002
+5.37850000000E+007, +5.53601837493E+001, +2.00535237313E+002
+5.41300000000E+007, +5.38983859521E+001, +2.07996200798E+002
+5.44750000000E+007, +5.21885367403E+001, +2.15271167756E+002
+5.48200000000E+007, +5.01804113899E+001, +2.22384703157E+002
+5.51650000000E+007, +4.80492132629E+001, +2.29558344486E+002
+5.55100000000E+007, +4.63688743546E+001, +2.37171884793E+002
+5.58550000000E+007, +4.45869084773E+001, +2.44832468483E+002
+5.62000000000E+007, +4.33051978860E+001, +2.52626890961E+002
+5.65450000000E+007, +4.26067259335E+001, +2.60579474804E+002
+5.68900000000E+007, +4.17366944644E+001, +2.67106950864E+002
+5.72350000000E+007, +4.09496507915E+001, +2.74058893829E+002
+5.75800000000E+007, +3.98379931440E+001, +2.80802990608E+002
+5.79250000000E+007, +3.94817923185E+001, +2.87606626057E+002
+5.82700000000E+007, +3.86399290132E+001, +2.94178487730E+002
+5.86150000000E+007, +3.76394314091E+001, +3.00780045704E+002
+5.89600000000E+007, +3.70770187509E+001, +3.07836663523E+002
+5.93050000000E+007, +3.75108369840E+001, +3.14516170531E+002
+5.96500000000E+007, +3.76907228025E+001, +3.21418546614E+002
+5.99950000000E+007, +3.82678378272E+001, +3.27267305274E+002
+6.03400000000E+007, +3.92519320682E+001, +3.32723312603E+002
+6.06850000000E+007, +3.93468960625E+001, +3.36931904707E+002
+6.10300000000E+007, +3.86717253490E+001, +3.42171011552E+002
+6.13750000000E+007, +3.83402471112E+001, +3.47852694421E+002
+6.17200000000E+007, +3.79630774056E+001, +3.52811689021E+002
+6.20650000000E+007, +3.81833459603E+001, +3.57764387751E+002
+6.24100000000E+007, +3.66511012535E+001, +3.63645673093E+002
+6.27550000000E+007, +3.65440651688E+001, +3.68725408468E+002
+6.31000000000E+007, +3.60626006393E+001, +3.74622930734E+002
+6.34450000000E+007, +3.56386465722E+001, +3.81222490839E+002
+6.37900000000E+007, +3.66854918244E+001, +3.86805253710E+002
+6.41350000000E+007, +3.74717527356E+001, +3.92147134680E+002
+6.44800000000E+007, +3.68030292326E+001, +3.97003411672E+002
+6.48250000000E+007, +3.74258558477E+001, +4.02425788976E+002
+6.51700000000E+007, +3.74758186738E+001, +4.08047915980E+002
+6.55150000000E+007, +3.73850515684E+001, +4.13657477912E+002
+6.58600000000E+007, +3.71956672386E+001, +4.19597839715E+002
+6.62050000000E+007, +3.79277510349E+001, +4.24994916311E+002
+6.65500000000E+007, +3.85270869993E+001, +4.30977814300E+002
+6.68950000000E+007, +4.01938282245E+001, +4.36345931417E+002
+6.72400000000E+007, +4.18774221899E+001, +4.42603038406E+002
+6.75850000000E+007, +4.27688268629E+001, +4.46647754117E+002
+6.79300000000E+007, +4.34977498094E+001, +4.52094941665E+002
+6.82750000000E+007, +4.27929880921E+001, +4.57768655812E+002
+6.86200000000E+007, +4.41178828732E+001, +4.61251567403E+002
+6.89650000000E+007, +4.49885732941E+001, +4.66123784215E+002
+6.93100000000E+007, +4.57727834432E+001, +4.72261994123E+002
+6.96550000000E+007, +4.68498021997E+001, +4.76574775709E+002
+7.00000000000E+007, +4.73073893335E+001, +4.81422066655E+002
