"# Channel 1"
"# Trace 1"
Frequency, Formatted Data, Formatted Data
+1.00000000000E+006, +2.01673753228E+001, +2.08082614678E+001
+1.34500000000E+006, +2.01225562479E+001, +2.79581444855E+001
+1.69000000000E+006, +2.00710818256E+001, +3.50379899051E+001
+2.03500000000E+006, +2.00768395400E+001, +4.21652632080E+001
+2.38000000000E+006, +2.01188409322E+001, +4.92389450870E+001
+2.72500000000E+006, +2.00151251732E+001, +5.64237013990E+001
+3.07000000000E+006, +2.00581911515E+001, +6.33982537400E+001
+3.41500000000E+006, +2.01175677216E+001, +7.05434557308E+001
+3.76000000000E+006, +2.01060507768E+001, +7.76461278797E+001
+4.10500000000E+006, +1.97029061054E+001, +8.46946706949E+001
+4.45000000000E+006, +2.01218196466E+001, +9.17357247614E+001
+4.79500000000E+006, +2.01740011222E+001, +9.89520029197E+001
+5.14000000000E+006, +2.02402336277E+001, +1.05860928952E+002
+5.48500000000E+006, +2.01394002632E+001, +1.12915814108E+002
+5.83000000000E+006, +2.01922371150E+001, +1.19775553581E+002
+6.17500000000E+006, +1.99257776558E+001, +1.27124867616E+002
+6.52000000000E+006, +2.04291914308E+001, +1.34042418380E+002
+6.86500000000E+006, +2.04487154186E+001, +1.41110751473E+002
+7.21000000000E+006, +2.04737769779E+001, +1.47908736260E+002
+7.55500000000E+006, +2.04612428441E+001, +1.54937762826E+002
+7.90000000000E+006, +2.04518682088E+001, +1.61936063111E+002
+8.24500000000E+006, +2.03637218210E+001, +1.68844432975E+002
+8.59000000000E+006, +2.03590376551E+001, +1.75863875807E+002
+8.93500000000E+006, +2.04852890455E+001, +1.82894998877E+002
+9.28000000000E+006, +1.99494184012E+001, +1.89820231423E+002
+9.62500000000E+006, +2.00502803747E+001, +1.96634794426E+002
+9.97000000000E+006, +2.01190853580E+001, +2.03642010537E+002
+1.03150000000E+007, +2.01723413885E+001, +2.10496483723E+002
+1.06600000000E+007, +1.98301248537E+001, +2.17619899948E+002
+1.10050000000E+007, +2.01622824021E+001, +2.24482653628E+002
+1.13500000000E+007, +1.99138559542E+001, +2.31423282849E+002
+1.16950000000E+007, +1.96423196972E+001, +2.38294825736E+002
+1.20400000000E+007, +1.97561344137E+001, +2.44895558528E+002
+1.23850000000E+007, +1.99960351973E+001, +2.51722470697E+002
+1.27300000000E+007, +1.97122124826E+001, +2.58270530801E+002
+1.30750000000E+007, +2.00287895287E+001, +2.65468564277E+002
+1.34200000000E+007, +1.98501140166E+001, +2.72037243666E+002
+1.37650000000E+007, +2.02012303426E+001, +2.78591540655E+002
+1.41100000000E+007, +2.00168430308E+001, +2.85578145314E+002
+1.44550000000E+007, +1.98935129624E+001, +2.92198323935E+002
+1.48000000000E+007, +1.95510332955E+001, +2.99019210078E+002
+1.51450000000E+007, +1.99668896278E+001, +3.06206943559E+002
+1.54900000000E+007, +2.03945663446E+001, +3.12440108910E+002
+1.58350000000E+007, +2.03497659980E+001, +3.18761162770E+002
+1.61800000000E+007, +1.98017948923E+001, +3.25920153511E+002
+1.65250000000E+007, +2.02359654293E+001, +3.32409935278E+002
+1.68700000000E+007, +1.99889992671E+001, +3.39180439103E+002
+1.72150000000E+007, +1.93239514523E+001, +3.46410119602E+002
+1.75600000000E+007, +1.94445232925E+001, +3.52691742051E+002
+1.79050000000E+007, +1.99398323733E+001, +3.58780275567E+002
+1.82500000000E+007, +2.03694718202E+001, +3.65588982706E+002
+1.85950000000E+007, +2.07087580820E+001, +3.72055916990E+002
+1.89400000000E+007, +2.02684054064E+001, +3.79078185153E+002
+1.92850000000E+007, +2.06836516685E+001, +3.85779263279E+002
+1.96300000000E+007, +2.02478254186E+001, +3.91474807310E+002
+1.99750000000E+007, +2.06867786978E+001, +3.97327660598E+002
+2.03200000000E+007, +2.04642146810E+001, +4.05526072755E+002
+2.06650000000E+007, +1.98757682929E+001, +4.10727946628E+002
+2.10100000000E+007, +2.06805048483E+001, +4.17733886663E+002
+2.13550000000E+007, +1.97370560920E+001, +4.24228111667E+002
+2.17000000000E+007, +2.13165264559E+001, +4.30656418224E+002
+2.20450000000E+007, +2.04932353952E+001, +4.37844043521E+002
+2.23900000000E+007, +2.12874933318E+001, +4.44086996821E+002
+2.27350000000E+007, +2.06505147351E+001, +4.50132148837E+002
+2.30800000000E+007, +2.17243210978E+001, +4.56731291406E+002
+2.34250000000E+007, +2.24188065745E+001, +4.62912555383E+002
+2.37700000000E+007, +2.28914287690E+001, +4.69195142383E+002
+2.41150000000E+007, +2.27277601390E+001, +4.75122075203E+002
+2.44600000000E+007, +2.28056217617E+001, +4.83402292474E+002
+2.48050000000E+007, +2.31330977978E+001, +4.88936763445E+002
+2.51500000000E+007, +2.42368979298E+001, +4.95495550827E+002
+2.54950000000E+007, +2.48418645905E+001, +5.02728769483E+002
+2.58400000000E+007, +2.66595873715E+001, +5.08361545964E+002
+2.61850000000E+007, +2.56848015363E+001, +5.13657206653E+002
+2.65300000000E+007, +2.62291331836E+001, +5.20388913228E+002
+2.68750000000E+007, +2.71807386103E+001, +5.26748480962E+002
+2.72200000000E+007, +2.61830703372E+001, +5.32776585174E+002
+2.75650000000E+007, +2.64842948353E+001, +5.38802766445E+002
+2.79100000000E+007, +2.56635737194E+001, +5.47233183684E+002
+2.82550000000E+007, +2.59911513071E+001, +5.53187156985E+002
+2.86000000000E+007, +2.56407426359E+001, +5.60510585244E+002
+2.89450000000E+007, +2.61428030118E+001, +5.67043379612E+002
+2.92900000000E+007, +2.73117884808E+001, +5.74873059095E+002
+2.96350000000E+007, +2.79708930430E+001, +5.83200613458E+002
+2.99800000000E+007, +2.91026618830E+001, +5.87656068769E+002
+3.03250000000E+007, +2.87301690160E+001, +5.94719934910E+002
+3.06700000000E+007, +2.91873394984E+001, +6.01894591225E+002
+3.10150000000E+007, +2.97838917557E+001, +6.09380611585E+002
+3.13600000000E+007, +3.01151002037E+001, +6.15907756046E+002
+3.17050000000E+007, +3.16547977626E+001, +6.21597222201E+002
+3.20500000000E+007, +3.18674740514E+001, +6.31245372558E+002
+3.23950000000E+007, +3.10731790806E+001, +6.37573970843E+002
+3.27400000000E+007, +2.96729847647E+001, +6.44672348256E+002
+3.30850000000E+007, +3.21645879017E+001, +6.52269261496E+002
+3.34300000000E+007, +3.33596639873E+001, +6.58644878713E+002
+3.37750000000E+007, +3.44084373533E+001, +6.66761598900E+002
+3.41200000000E+007, +3.38285259100E+001, +6.72750261741E+002
+3.44650000000E+007, +3.51853219255E+001, +6.80993955863E+002
+3.48100000000E+007, +3.74640240431E+001, +6.90751129199E+002
+3.51550000000E+007, +3.88902772412E+001, +6.96850807904E+002
+3.55000000000E+007, +3.68941677243E+001, +7.04717431962E+002
+3.58450000000E+007, +3.87378532016E+001, +7.14498811215E+002
+3.61900000000E+007, +4.12625573327E+001, +7.23522522579E+002
+3.65350000000E+007, +4.22472353618E+001, +7.29622063708E+002
+3.68800000000E+007, +4.40262588897E+001, +7.40024098765E+002
+3.72250000000E+007, +4.46519365259E+001, +7.48367825075E+002
+3.75700000000E+007, +4.48555119613E+001, +7.58367358856E+002
+3.79150000000E+007, +4.87572057416E+001, +7.62182702871E+002
+3.82600000000E+007, +4.84244030071E+001, +7.77448948418E+002
+3.86050000000E+007, +4.90734414193E+001, +7.82632385885E+002
+3.89500000000E+007, +5.09415987534E+001, +7.93090340736E+002
+3.92950000000E+007, +4.94576612618E+001, +8.02244029905E+002
+3.96400000000E+007, +5.18367165859E+001, +8.14888218875E+002
+3.99850000000E+007, +5.40234929992E+001, +8.27366510526E+002
+4.03300000000E+007, +5.64677736831E+001, +8.35015129404E+002
+4.06750000000E+007, +6.17057151900E+001, +8.54958331297E+002
+4.10200000000E+007, +6.21295544266E+001, +8.65424304597E+002
+4.13650000000E+007, +6.59129307593E+001, +8.73270640324E+002
+4.17100000000E+007, +7.03778280264E+001, +8.86838267790E+002
+4.20550000000E+007, +6.91525590525E+001, +8.97432232069E+002
+4.24000000000E+007, +7.45452904601E+001, +9.13215740115E+002
+4.27450000000E+007, +8.31407339608E+001, +9.30590496435E+002
+4.30900000000E+007, +8.44252520348E+001, +9.51354422678E+002
+4.34350000000E+007, +9.00090077460E+001, +9.67239287688E+002
+4.37800000000E+007, +9.45594544071E+001, +9.83426899657E+002
+4.41250000000E+007, +1.01979082073E+002, +9.94920145521E+002
+4.44700000000E+007, +1.09891568414E+002, +1.01573434529E+003
+4.48150000000E+007, +1.13194112852E+002, +1.03321094429E+003
+4.51600000000E+007, +1.24650539616E+002, +1.05687335860E+003
+4.55050000000E+007, +1.22593014694E+002, +1.07454200917E+003
+4.58500000000E+007, +1.36664961026E+002, +1.10416917186E+003
+4.61950000000E+007, +1.50765591640E+002, +1.12425522565E+003
+4.65400000000E+007, +1.62035319799E+002, +1.15361423492E+003
+4.68850000000E+007, +1.82880348523E+002, +1.17891840910E+003
+4.72300000000E+007, +2.08842917461E+002, +1.20556636032E+003
+4.75750000000E+007, +2.34361049506E+002, +1.23599350187E+003
+4.79200000000E+007, +2.70679770683E+002, +1.26514923808E+003
+4.82650000000E+007, +3.02888991892E+002, +1.27256075756E+003
+4.86100000000E+007, +3.39926833566E+002, +1.29572229816E+003
+4.89550000000E+007, +3.76979011354E+002, +1.28369046428E+003
+4.93000000000E+007, +3.77853070346E+002, +1.29087733421E+003
+4.96450000000E+007, +3.91171919575E+002, +1.30163106686E+003
+4.99900000000E+007, +3.94035698634E+002, +1.33704357696E+003
+5.03350000000E+007, +4.02217176231E+002, +1.37064241346E+003
+5.06800000000E+007, +4.26022616788E+002, +1.42553054388E+003
+5.10250000000E+007, +4.57601439867E+002, +1.47058149180E+003
+5.13700000000E+007, +4.96362141845E+002, +1.53165628483E+003
+5.17150000000E+007, +5.42939851822E+002, +1.58940458591E+003
+5.20600000000E+007, +6.08271476408E+002, +1.66477170310E+003
+5.24050000000E+007, +6.78761337267E+002, +1.73969095450E+003
+5.27500000000E+007, +7.62552922397E+002, +1.80382207700E+003
+5.30950000000E+007, +8.98991041274E+002, +1.88997524201E+003
+5.34400000000E+007, +1.05000574575E+003, +1.96840503190E+003
+5.37850000000E+007, +1.24072107093E+003, +2.00591326793E+003
+5.41300000000E+007, +1.42700160676E+003, +2.08545877921E+003
+5.44750000000E+007, +1.69410298319E+003, +2.07697375322E+003
+5.48200000000E+007, +1.99828841981E+003, +2.07154616207E+003
+5.51650000000E+007, +2.43528647992E+003, +2.04863953047E+003
+5.55100000000E+007, +2.92835507948E+003, +1.72318126747E+003
+5.58550000000E+007, +3.31858052116E+003, +1.18537936035E+003
+5.62000000000E+007, +3.46157207475E+003, +4.59097684028E+002
+5.65450000000E+007, +3.19900979901E+003, -1.55156671532E+002
+5.68900000000E+007, +2.92744761391E+003, -5.85581368926E+002
+5.72350000000E+007, +2.52408570021E+003, -8.88321997148E+002
+5.75800000000E+007, +2.13267917289E+003, -1.08960995142E+003
+5.79250000000E+007, +1.77128850949E+003, -1.14532275294E+003
+5.82700000000E+007, +1.48503500089E+003, -1.13536754286E+003
+5.86150000000E+007, +1.22284297174E+003, -1.09094575371E+003
+5.89600000000E+007, +1.00808409996E+003, -9.92274712268E+002
+5.93050000000E+007, +8.56496128268E+002, -8.72782033054E+002
+5.96500000000E+007, +7.62546708438E+002, -7.82321599980E+002
+5.99950000000E+007, +6.92402933174E+002, -7.02597588988E+002
+6.03400000000E+007, +6.38539658086E+002, -6.39622617342E+002
+6.06850000000E+007, +5.90470754042E+002, -6.01548982055E+002
+6.10300000000E+007, +5.29636608818E+002, -5.59396507575E+002
+6.13750000000E+007, +4.80948765269E+002, -5.15452592947E+002
+6.17200000000E+007, +4.38586791426E+002, -4.75563697285E+002
+6.20650000000E+007, +3.93916705681E+002, -4.36680562495E+002
+6.24100000000E+007, +3.53241048425E+002, -3.96702247049E+002
+6.27550000000E+007, +3.19466221560E+002, -3.53289407245E+002
+6.31000000000E+007, +2.95257644445E+002, -3.11639972498E+002
+6.34450000000E+007, +2.76866916358E+002, -2.71846210207E+002
+6.37900000000E+007, +2.64603635593E+002, -2.37605546096E+002
+6.41350000000E+007, +2.53690992674E+002, -2.10420046155E+002
+6.44800000000E+007, +2.41562026420E+002, -1.87272336186E+002
+6.48250000000E+007, +2.28324061880E+002, -1.64281862036E+002
+6.51700000000E+007, +2.15020920889E+002, -1.41022013825E+002
+6.55150000000E+007, +2.03628441165E+002, -1.17671456209E+002
+6.58600000000E+007, +1.94610442939E+002, -9.36462077693E+001
+6.62050000000E+007, +1.88311583418E+002, -7.05771625227E+001
+6.65500000000E+007, +1.85591001812E+002, -4.94455687866E+001
+6.68950000000E+007, +1.84810297176E+002, -3.13599389140E+001
+6.72400000000E+007, +1.85153827335E+002, -1.65285825825E+001
+6.75850000000E+007, +1.85778085936E+002, -4.73633058291E+000
+6.79300000000E+007, +1.85666222347E+002, +3.85613855524E+000
+6.82750000000E+007, +1.82943633795E+002, +9.45458656121E+000
+6.86200000000E+007, +1.78697218928E+002, +1.57515277841E+001
+6.89650000000E+007, +1.73263116751E+002, +2.22799649007E+001
+6.93100000000E+007, +1.67627015518E+002, +2.85884551885E+001
+6.96550000000E+007, +1.61548871048E+002, +3.48519463560E+001
+7.00000000000E+007, +1.54685087256E+002, +4.13528605758E+001
