"# Channel 1"
"# Trace 1"
Frequency, Formatted Data, Formatted Data
+1.00000000000E+006, +7.20165830335E-001, +3.03176383536E+001
+1.34500000000E+006, +8.01127352642E-001, +4.07098585664E+001
+1.69000000000E+006, +8.07151148493E-001, +5.10399008504E+001
+2.03500000000E+006, +7.80562774297E-001, +6.14678704472E+001
+2.38000000000E+006, +7.50106703728E-001, +7.18222100832E+001
+2.72500000000E+006, +7.27210908135E-001, +8.22394545250E+001
+3.07000000000E+006, +8.13118929998E-001, +9.28596013826E+001
+3.41500000000E+006, +6.57521309159E-001, +1.03361230701E+002
+3.76000000000E+006, +1.01751945810E+000, +1.14253689880E+002
+4.10500000000E+006, +4.17931476611E-001, +1.24653334053E+002
+4.45000000000E+006, +7.31799028733E-001, +1.35453425353E+002
+4.79500000000E+006, +8.25223635415E-001, +1.46165243140E+002
+5.14000000000E+006, +6.57825668119E-001, +1.56992762436E+002
+5.48500000000E+006, +3.28544797275E-001, +1.67840487880E+002
+5.83000000000E+006, +5.46964065497E-001, +1.79028731737E+002
+6.17500000000E+006, +6.56107149350E-001, +1.90090192511E+002
+6.52000000000E+006, +9.18219416893E-001, +2.01251257650E+002
+6.86500000000E+006, +1.01367164453E+000, +2.12529513904E+002
+7.21000000000E+006, +1.22504316884E+000, +2.23486669409E+002
+7.55500000000E+006, +1.09299073173E+000, +2.35283062618E+002
+7.90000000000E+006, +9.30278153047E-001, +2.46560448189E+002
+8.24500000000E+006, +8.89878262619E-001, +2.58708115272E+002
+8.59000000000E+006, +8.00787464675E-001, +2.70235726800E+002
+8.93500000000E+006, +1.01018572609E+000, +2.81915620777E+002
+9.28000000000E+006, +2.41405850426E-001, +2.93580584378E+002
+9.62500000000E+006, +8.07547774386E-001, +3.06430333528E+002
+9.97000000000E+006, +3.07330256396E-001, +3.19060043596E+002
+1.03150000000E+007, +3.75296191042E-001, +3.31763851340E+002
+1.06600000000E+007, -2.43710971678E-001, +3.44463336477E+002
+1.10050000000E+007, -9.61254712947E-003, +3.57228945393E+002
+1.13500000000E+007, +3.05709355820E-001, +3.70194437951E+002
+1.16950000000E+007, -6.32846662649E-002, +3.83105196376E+002
+1.20400000000E+007, -3.53281409256E-001, +3.96857759430E+002
+1.23850000000E+007, -1.56622728515E-001, +4.11629467302E+002
+1.27300000000E+007, -5.03052269523E-001, +4.26113495883E+002
+1.30750000000E+007, -1.35876870145E+000, +4.39975858035E+002
+1.34200000000E+007, -7.10260634256E-001, +4.53486986378E+002
+1.37650000000E+007, -1.44536263181E+000, +4.68106642534E+002
+1.41100000000E+007, -1.91191318206E+000, +4.84999978943E+002
+1.44550000000E+007, -1.73396602651E+000, +4.99281044130E+002
+1.48000000000E+007, -2.33174143062E+000, +5.16495583029E+002
+1.51450000000E+007, -1.28936263460E+000, +5.32296228909E+002
+1.54900000000E+007, -1.26905757456E+000, +5.46925201758E+002
+1.58350000000E+007, -7.73235027651E-001, +5.66315962489E+002
+1.61800000000E+007, -1.78996500477E+000, +5.79229631363E+002
+1.65250000000E+007, -1.37179593074E-001, +5.97622045176E+002
+1.68700000000E+007, +1.21601023702E-002, +6.14970788579E+002
+1.72150000000E+007, -5.17883057371E+000, +6.33803269878E+002
+1.75600000000E+007, -3.37543043090E+000, +6.53929652335E+002
+1.79050000000E+007, -2.70216406080E+000, +6.73090114007E+002
+1.82500000000E+007, -3.50967669050E+000, +6.95231635758E+002
+1.85950000000E+007, -3.24442853115E+000, +7.13398297555E+002
+1.89400000000E+007, -1.99205976402E+000, +7.35087573215E+002
+1.92850000000E+007, -2.19076267041E+000, +7.57810573657E+002
+1.96300000000E+007, -3.85407569076E+000, +7.78839744844E+002
+1.99750000000E+007, -1.70017965275E+000, +8.03976520978E+002
+2.03200000000E+007, -3.89618282877E+000, +8.30758788770E+002
+2.06650000000E+007, -1.53133006284E+000, +8.51178745807E+002
+2.10100000000E+007, -1.48166657277E+000, +8.76116102251E+002
+2.13550000000E+007, -1.66999456914E+000, +9.04965259942E+002
+2.17000000000E+007, -3.26841462842E+000, +9.31299501889E+002
+2.20450000000E+007, +2.91491493238E+000, +9.60581486272E+002
+2.23900000000E+007, +1.21240235911E+000, +9.89743643392E+002
+2.27350000000E+007, -6.27979550278E-001, +1.01743605022E+003
+2.30800000000E+007, +7.47416395900E-001, +1.05297738341E+003
+2.34250000000E+007, +1.93461294384E+000, +1.08544495141E+003
+2.37700000000E+007, +1.09000744285E+001, +1.12400686552E+003
+2.41150000000E+007, -2.03223420658E-001, +1.15468199183E+003
+2.44600000000E+007, -3.59600401339E+000, +1.18919184537E+003
+2.48050000000E+007, -5.99726538710E-002, +1.22415248747E+003
+2.51500000000E+007, -3.39116341322E+000, +1.27380313624E+003
+2.54950000000E+007, -7.53213613403E+000, +1.32196850795E+003
+2.58400000000E+007, +4.09720472204E-002, +1.35760885816E+003
+2.61850000000E+007, -9.13086844851E+000, +1.43180108475E+003
+2.65300000000E+007, -5.18385060430E+000, +1.46462511394E+003
+2.68750000000E+007, +2.09647745674E+000, +1.52858719116E+003
+2.72200000000E+007, -8.45136244296E+000, +1.58963092297E+003
+2.75650000000E+007, +1.41001199453E+001, +1.65292004240E+003
+2.79100000000E+007, +2.60314215620E+000, +1.71792113020E+003
+2.82550000000E+007, +1.36986024169E+001, +1.79612049665E+003
+2.86000000000E+007, -1.89043850829E+000, +1.88331393792E+003
+2.89450000000E+007, +3.49294722254E+000, +1.95365660992E+003
+2.92900000000E+007, +2.40566031756E+001, +2.03606763705E+003
+2.96350000000E+007, +2.32926450806E+001, +2.14477895323E+003
+2.99800000000E+007, +4.00847597525E+000, +2.26239911944E+003
+3.03250000000E+007, +1.69620114847E+000, +2.39508703038E+003
+3.06700000000E+007, +2.64125612487E+001, +2.52212501154E+003
+3.10150000000E+007, +2.46296364136E+001, +2.66030978358E+003
+3.13600000000E+007, +7.39228963728E+000, +2.83599381524E+003
+3.17050000000E+007, +2.65697760805E+001, +3.01288509181E+003
+3.20500000000E+007, +4.24217190602E-002, +3.24608665885E+003
+3.23950000000E+007, +4.58084926141E+001, +3.47859382583E+003
+3.27400000000E+007, +1.11368089496E+002, +3.69132786302E+003
+3.30850000000E+007, +5.64949064606E+001, +4.07892541812E+003
+3.34300000000E+007, +1.33698992262E+002, +4.33923649896E+003
+3.37750000000E+007, +1.50786407079E+002, +4.83776693055E+003
+3.41200000000E+007, +6.59407280404E+001, +5.43402244097E+003
+3.44650000000E+007, +2.33308303381E+002, +6.09322081854E+003
+3.48100000000E+007, +1.59343758253E+002, +6.85605046732E+003
+3.51550000000E+007, +6.41290069944E+002, +8.28594919017E+003
+3.55000000000E+007, +1.01739641620E+003, +9.87525383985E+003
+3.58450000000E+007, +1.68310031162E+003, +1.22934853746E+004
+3.61900000000E+007, +1.61804830714E+003, +1.64029470563E+004
+3.65350000000E+007, +8.41000805185E+003, +2.47482567526E+004
+3.68800000000E+007, +3.28091130189E+004, +2.43843826983E+004
+3.72250000000E+007, +8.83861613708E+004, -2.13298906134E+004
+3.75700000000E+007, +2.08662776697E+004, -3.08633796639E+004
+3.79150000000E+007, +9.31952451638E+003, -1.95315382375E+004
+3.82600000000E+007, +4.23347635742E+003, -1.36214267547E+004
+3.86050000000E+007, +3.32738115597E+003, -1.16448248714E+004
+3.89500000000E+007, +1.82680897070E+003, -9.10387846025E+003
+3.92950000000E+007, +1.79209397842E+003, -8.09174698482E+003
+3.96400000000E+007, +1.14136855312E+003, -7.15491780013E+003
+3.99850000000E+007, +9.39304598529E+002, -6.21859664845E+003
+4.03300000000E+007, +6.52064055618E+002, -5.57128322620E+003
+4.06750000000E+007, +4.23256215976E+002, -5.10827741889E+003
+4.10200000000E+007, +4.73086858764E+002, -4.53698981496E+003
+4.13650000000E+007, +2.68881406884E+002, -4.14795783816E+003
+4.17100000000E+007, +3.05789077475E+002, -3.79611331190E+003
+4.20550000000E+007, +2.86963695029E+002, -3.50911678491E+003
+4.24000000000E+007, +1.87048607553E+002, -3.20501862914E+003
+4.27450000000E+007, +1.83538256891E+002, -3.01155329522E+003
+4.30900000000E+007, +1.55575948717E+002, -2.85011523365E+003
+4.34350000000E+007, +1.72105677309E+002, -2.66342657987E+003
+4.37800000000E+007, +1.39454747922E+002, -2.51517833028E+003
+4.41250000000E+007, +1.03046988258E+002, -2.37619490455E+003
+4.44700000000E+007, +1.06207192773E+002, -2.24583836862E+003
+4.48150000000E+007, +1.12806980323E+002, -2.11591588423E+003
+4.51600000000E+007, +1.05862576881E+002, -2.06531263121E+003
+4.55050000000E+007, +1.05004930122E+002, -1.94386627460E+003
+4.58500000000E+007, +7.17886351706E+001, -1.85069349533E+003
+4.61950000000E+007, +6.41324909311E+001, -1.77005027710E+003
+4.65400000000E+007, +6.25838468221E+001, -1.69166175690E+003
+4.68850000000E+007, +7.60308963387E+001, -1.62800930192E+003
+4.72300000000E+007, +6.68283632798E+001, -1.55843359593E+003
+4.75750000000E+007, +4.86566227764E+001, -1.48788736813E+003
+4.79200000000E+007, +6.30736440851E+001, -1.42648219292E+003
+4.82650000000E+007, +6.77968542329E+001, -1.36537711772E+003
+4.86100000000E+007, +6.35675327123E+001, -1.32284558986E+003
+4.89550000000E+007, +5.48910725982E+001, -1.27320161533E+003
+4.93000000000E+007, +5.92526069943E+001, -1.21807317758E+003
+4.96450000000E+007, +6.11300832988E+001, -1.17776079884E+003
+4.99900000000E+007, +6.24497800592E+001, -1.13754547843E+003
+5.03350000000E+007, +5.98632366538E+001, -1.09597516340E+003
+5.06800000000E+007, +5.63798082452E+001, -1.05477581884E+003
+5.10250000000E+007, +5.43126192763E+001, -1.03098326824E+003
+5.13700000000E+007, +5.21003038318E+001, -9.90929184160E+002
+5.17150000000E+007, +4.95758311745E+001, -9.57303989783E+002
+5.20600000000E+007, +4.75905054708E+001, -9.20801011401E+002
+5.24050000000E+007, +4.56439604743E+001, -8.88535478667E+002
+5.27500000000E+007, +4.31859974522E+001, -8.57578289256E+002
+5.30950000000E+007, +4.31236133008E+001, -8.28959672046E+002
+5.34400000000E+007, +4.37146239724E+001, -7.99406235542E+002
+5.37850000000E+007, +4.25429815867E+001, -7.71860530030E+002
+5.41300000000E+007, +4.11251400569E+001, -7.42825282223E+002
+5.44750000000E+007, +4.33443901475E+001, -7.17296138516E+002
+5.48200000000E+007, +4.26366324847E+001, -6.90932943826E+002
+5.51650000000E+007, +4.33048162700E+001, -6.66060796774E+002
+5.55100000000E+007, +4.47757692442E+001, -6.40540409761E+002
+5.58550000000E+007, +4.03564912668E+001, -6.16723858148E+002
+5.62000000000E+007, +4.22114041119E+001, -5.94935086003E+002
+5.65450000000E+007, +4.45764462329E+001, -5.71353722380E+002
+5.68900000000E+007, +4.49443185115E+001, -5.48992102835E+002
+5.72350000000E+007, +4.50216813315E+001, -5.24297580689E+002
+5.75800000000E+007, +4.79770691653E+001, -5.02063993905E+002
+5.79250000000E+007, +4.91439940921E+001, -4.81762667239E+002
+5.82700000000E+007, +5.39051903410E+001, -4.63502248960E+002
+5.86150000000E+007, +5.40238112526E+001, -4.45662144835E+002
+5.89600000000E+007, +5.55114029480E+001, -4.27134919574E+002
+5.93050000000E+007, +5.71262613710E+001, -4.10104934928E+002
+5.96500000000E+007, +5.76551903513E+001, -3.92376046334E+002
+5.99950000000E+007, +5.83568753818E+001, -3.74426614836E+002
+6.03400000000E+007, +6.02959162123E+001, -3.57855461109E+002
+6.06850000000E+007, +6.08893268031E+001, -3.41239685915E+002
+6.10300000000E+007, +6.23383807888E+001, -3.24065360891E+002
+6.13750000000E+007, +6.35201874621E+001, -3.08414184195E+002
+6.17200000000E+007, +6.43799895618E+001, -2.92703266011E+002
+6.20650000000E+007, +6.47867694424E+001, -2.77598729543E+002
+6.24100000000E+007, +6.48966224577E+001, -2.62133151962E+002
+6.27550000000E+007, +6.42702784814E+001, -2.46372995228E+002
+6.31000000000E+007, +6.44756769637E+001, -2.30844551540E+002
+6.34450000000E+007, +6.44487503836E+001, -2.14783260834E+002
+6.37900000000E+007, +6.44142570769E+001, -1.98875079535E+002
+6.41350000000E+007, +6.50108197078E+001, -1.82672487641E+002
+6.44800000000E+007, +6.54935020143E+001, -1.66644651826E+002
+6.48250000000E+007, +6.62103044525E+001, -1.50833338279E+002
+6.51700000000E+007, +6.65833010282E+001, -1.35642311134E+002
+6.55150000000E+007, +6.71540530861E+001, -1.19725017839E+002
+6.58600000000E+007, +6.75785935196E+001, -1.03655780150E+002
+6.62050000000E+007, +6.81297988901E+001, -8.74803041813E+001
+6.65500000000E+007, +6.90078321649E+001, -7.10053426034E+001
+6.68950000000E+007, +7.01875558001E+001, -5.44442307711E+001
+6.72400000000E+007, +7.17291412162E+001, -3.79374929926E+001
+6.75850000000E+007, +7.36650375459E+001, -2.14904251913E+001
+6.79300000000E+007, +7.60787130018E+001, -5.41703846968E+000
+6.82750000000E+007, +7.85934885778E+001, +1.01817696251E+001
+6.86200000000E+007, +8.07488803037E+001, +2.49706093674E+001
+6.89650000000E+007, +8.24222415443E+001, +3.97611895006E+001
+6.93100000000E+007, +8.34099205448E+001, +5.45205993929E+001
+6.96550000000E+007, +8.36697269405E+001, +6.96973494937E+001
+7.00000000000E+007, +8.36544204270E+001, +8.56189978029E+001
