"# Channel 1"
"# Trace 1"
Frequency, Formatted Data, Formatted Data
+1.00000000000E+006, +7.80642176098E-001, +3.28559136700E+001
+1.34500000000E+006, +8.91607655459E-001, +4.41045293892E+001
+1.69000000000E+006, +8.65821013921E-001, +5.53187286913E+001
+2.03500000000E+006, +8.66124903546E-001, +6.65738915520E+001
+2.38000000000E+006, +7.76651713305E-001, +7.78748016844E+001
+2.72500000000E+006, +7.69166760298E-001, +8.91132215404E+001
+3.07000000000E+006, +9.30891085308E-001, +1.00478016930E+002
+3.41500000000E+006, +7.72182937372E-001, +1.11955922079E+002
+3.76000000000E+006, +1.31498179314E+000, +1.23725363756E+002
+4.10500000000E+006, +4.71406486038E-001, +1.35042796256E+002
+4.45000000000E+006, +8.55939155651E-001, +1.46624899685E+002
+4.79500000000E+006, +9.90788664206E-001, +1.58451815079E+002
+5.14000000000E+006, +1.10308900626E+000, +1.69827143367E+002
+5.48500000000E+006, +5.35152829321E-001, +1.81540923372E+002
+5.83000000000E+006, +7.43330845094E-001, +1.94063961877E+002
+6.17500000000E+006, +1.01019202209E+000, +2.05328365818E+002
+6.52000000000E+006, +1.46685205048E+000, +2.17346519856E+002
+6.86500000000E+006, +1.56671125460E+000, +2.29272496107E+002
+7.21000000000E+006, +1.82252967931E+000, +2.41002700121E+002
+7.55500000000E+006, +1.57099979316E+000, +2.53839041976E+002
+7.90000000000E+006, +1.85308431884E+000, +2.66041681364E+002
+8.24500000000E+006, +1.32743017619E+000, +2.78668889509E+002
+8.59000000000E+006, +1.42121236548E+000, +2.91039846917E+002
+8.93500000000E+006, +1.27657035836E+000, +3.03828259841E+002
+9.28000000000E+006, +3.16870704329E-001, +3.16259146862E+002
+9.62500000000E+006, +1.32239174833E+000, +3.29536864185E+002
+9.97000000000E+006, +6.93169216838E-001, +3.43099511875E+002
+1.03150000000E+007, +7.76988182166E-001, +3.56216292391E+002
+1.06600000000E+007, -8.75608373605E-002, +3.69804280633E+002
+1.10050000000E+007, +1.95604712544E-001, +3.83609610097E+002
+1.13500000000E+007, +5.76592251106E-001, +3.97345743290E+002
+1.16950000000E+007, -2.90884184085E-001, +4.11302527557E+002
+1.20400000000E+007, +1.93285946839E-001, +4.26703147962E+002
+1.23850000000E+007, -2.04993878341E-001, +4.41427501330E+002
+1.27300000000E+007, -2.34090822522E-001, +4.56096258510E+002
+1.30750000000E+007, -3.12580178842E-001, +4.71828635269E+002
+1.34200000000E+007, -1.24968276583E+000, +4.86568208336E+002
+1.37650000000E+007, -2.89564270439E-001, +5.01156941519E+002
+1.41100000000E+007, -9.75897909648E-001, +5.19393141910E+002
+1.44550000000E+007, -3.56607740004E-001, +5.34577127834E+002
+1.48000000000E+007, +1.01546239726E+000, +5.52900153679E+002
+1.51450000000E+007, -2.48491780385E-001, +5.66919625924E+002
+1.54900000000E+007, +3.48667999773E-001, +5.83421319036E+002
+1.58350000000E+007, +9.00534113093E-001, +6.02635463558E+002
+1.61800000000E+007, +6.55659133026E-001, +6.18475991946E+002
+1.65250000000E+007, +1.75687304364E-001, +6.36804441818E+002
+1.68700000000E+007, +1.18585029168E+000, +6.55100108060E+002
+1.72150000000E+007, -3.33675524505E+000, +6.73308428036E+002
+1.75600000000E+007, -2.54144596930E+000, +6.94744283210E+002
+1.79050000000E+007, -5.05531670472E-001, +7.17123389086E+002
+1.82500000000E+007, -1.02170014415E+000, +7.35449593403E+002
+1.85950000000E+007, -1.95521571518E-002, +7.57143277257E+002
+1.89400000000E+007, +3.63097463644E+000, +7.78771813079E+002
+1.92850000000E+007, -1.29706045512E+000, +8.03214737507E+002
+1.96300000000E+007, +2.94481328339E+000, +8.27751770280E+002
+1.99750000000E+007, +3.60697063975E+000, +8.52832539862E+002
+2.03200000000E+007, +2.87435302874E+000, +8.75740750759E+002
+2.06650000000E+007, +4.07796646134E+000, +9.01096467566E+002
+2.10100000000E+007, +7.67255096743E+000, +9.25730780617E+002
+2.13550000000E+007, +3.06959646562E+000, +9.57157363167E+002
+2.17000000000E+007, +7.64120369470E+000, +9.83058982418E+002
+2.20450000000E+007, +9.70238055919E+000, +1.01125001249E+003
+2.23900000000E+007, +1.03000524649E+001, +1.04225477344E+003
+2.27350000000E+007, +5.82140856705E+000, +1.07179844469E+003
+2.30800000000E+007, +1.36610819922E+001, +1.10657028641E+003
+2.34250000000E+007, +1.05837487049E+001, +1.14117424495E+003
+2.37700000000E+007, +1.72899496363E+001, +1.18157410033E+003
+2.41150000000E+007, +8.81108181979E+000, +1.20716374127E+003
+2.44600000000E+007, +4.27562994426E+000, +1.25219897144E+003
+2.48050000000E+007, +3.43870304746E+000, +1.29368241877E+003
+2.51500000000E+007, +1.05057830458E+001, +1.33686985825E+003
+2.54950000000E+007, +9.53160997391E+000, +1.39334873894E+003
+2.58400000000E+007, +1.56010061262E+001, +1.43533531913E+003
+2.61850000000E+007, +9.84805322209E+000, +1.50060966191E+003
+2.65300000000E+007, +1.29458377057E+001, +1.55157845687E+003
+2.68750000000E+007, +2.22638726808E+001, +1.60959756484E+003
+2.72200000000E+007, +1.82692829372E+001, +1.68262912084E+003
+2.75650000000E+007, +4.79361588489E+001, +1.75739460786E+003
+2.79100000000E+007, +3.81617300067E+001, +1.82132292320E+003
+2.82550000000E+007, +4.32257531050E+001, +1.91202881300E+003
+2.86000000000E+007, +4.21448710078E+001, +1.99081049799E+003
+2.89450000000E+007, +6.50824795308E+001, +2.06159259769E+003
+2.92900000000E+007, +6.29855268914E+001, +2.17122083796E+003
+2.96350000000E+007, +7.78793914723E+001, +2.32656658107E+003
+2.99800000000E+007, +8.44932708378E+001, +2.42746965146E+003
+3.03250000000E+007, +1.30295609612E+002, +2.57051797242E+003
+3.06700000000E+007, +1.31216926515E+002, +2.71865742651E+003
+3.10150000000E+007, +1.04706765462E+002, +2.89153754022E+003
+3.13600000000E+007, +1.49063043957E+002, +3.14794939678E+003
+3.17050000000E+007, +2.59136021847E+002, +3.36248296635E+003
+3.20500000000E+007, +2.98766843632E+002, +3.61419679032E+003
+3.23950000000E+007, +3.47548239776E+002, +3.88339059274E+003
+3.27400000000E+007, +4.25030767119E+002, +4.20034716963E+003
+3.30850000000E+007, +6.15257050287E+002, +4.81393832958E+003
+3.34300000000E+007, +6.97288570507E+002, +5.16834198218E+003
+3.37750000000E+007, +9.50567639998E+002, +5.92116344518E+003
+3.41200000000E+007, +1.31321834333E+003, +6.60061850423E+003
+3.44650000000E+007, +1.87047154219E+003, +7.96749381049E+003
+3.48100000000E+007, +2.94800254147E+003, +8.68688459329E+003
+3.51550000000E+007, +5.13532919561E+003, +1.12698732020E+004
+3.55000000000E+007, +9.18462064852E+003, +1.23833225990E+004
+3.58450000000E+007, +1.70826401317E+004, +1.23788687681E+004
+3.61900000000E+007, +2.54458795289E+004, +3.43600566778E+003
+3.65350000000E+007, +1.86106253572E+004, -8.06778349286E+003
+3.68800000000E+007, +1.13674203501E+004, -8.94283716047E+003
+3.72250000000E+007, +7.75244876272E+003, -9.85431775635E+003
+3.75700000000E+007, +5.12647075708E+003, -8.24193923132E+003
+3.79150000000E+007, +4.17500269207E+003, -7.02626300748E+003
+3.82600000000E+007, +2.90264842700E+003, -5.91638295259E+003
+3.86050000000E+007, +2.41412704580E+003, -5.32875982379E+003
+3.89500000000E+007, +2.03785228172E+003, -4.93275315782E+003
+3.92950000000E+007, +1.79547933729E+003, -4.40581908450E+003
+3.96400000000E+007, +1.43128506326E+003, -4.08852352611E+003
+3.99850000000E+007, +1.26899815367E+003, -3.77696073948E+003
+4.03300000000E+007, +1.08269802742E+003, -3.52210302536E+003
+4.06750000000E+007, +8.65048721484E+002, -3.34190112166E+003
+4.10200000000E+007, +7.69443829406E+002, -3.05723965499E+003
+4.13650000000E+007, +5.84573499670E+002, -2.83652108545E+003
+4.17100000000E+007, +5.63501638484E+002, -2.61182159834E+003
+4.20550000000E+007, +5.11495554191E+002, -2.43144316161E+003
+4.24000000000E+007, +4.25567714173E+002, -2.28365928736E+003
+4.27450000000E+007, +3.66122931933E+002, -2.14020396477E+003
+4.30900000000E+007, +3.44321537798E+002, -2.02776878603E+003
+4.34350000000E+007, +3.01457019573E+002, -1.90151384141E+003
+4.37800000000E+007, +2.88677770300E+002, -1.79772817004E+003
+4.41250000000E+007, +2.42242428249E+002, -1.68981812256E+003
+4.44700000000E+007, +2.40981209233E+002, -1.60153710417E+003
+4.48150000000E+007, +2.25290478137E+002, -1.52215842530E+003
+4.51600000000E+007, +1.91683094752E+002, -1.45293719341E+003
+4.55050000000E+007, +1.92196473615E+002, -1.36292773188E+003
+4.58500000000E+007, +1.70578561080E+002, -1.29952863798E+003
+4.61950000000E+007, +1.45501315808E+002, -1.24181360047E+003
+4.65400000000E+007, +1.41939225430E+002, -1.17164695492E+003
+4.68850000000E+007, +1.43468569723E+002, -1.11798082037E+003
+4.72300000000E+007, +1.30611637327E+002, -1.06409124234E+003
+4.75750000000E+007, +1.23875965600E+002, -1.01139592214E+003
+4.79200000000E+007, +1.26166659540E+002, -9.60224593417E+002
+4.82650000000E+007, +1.25103663914E+002, -9.17769392790E+002
+4.86100000000E+007, +1.18401670305E+002, -8.78872428051E+002
+4.89550000000E+007, +1.11879031682E+002, -8.41701635991E+002
+4.93000000000E+007, +1.04606757904E+002, -8.03496351219E+002
+4.96450000000E+007, +1.00754743786E+002, -7.69932335803E+002
+4.99900000000E+007, +9.29962108319E+001, -7.36087769355E+002
+5.03350000000E+007, +8.59827628470E+001, -7.01369209981E+002
+5.06800000000E+007, +8.10964281514E+001, -6.66756240190E+002
+5.10250000000E+007, +7.50247308440E+001, -6.33893067583E+002
+5.13700000000E+007, +7.24234735088E+001, -6.01174407221E+002
+5.17150000000E+007, +6.80918804511E+001, -5.67857163322E+002
+5.20600000000E+007, +6.79176416681E+001, -5.37829711024E+002
+5.24050000000E+007, +6.64451979872E+001, -5.08697850427E+002
+5.27500000000E+007, +6.56399230024E+001, -4.82579547556E+002
+5.30950000000E+007, +6.35486445087E+001, -4.55757050151E+002
+5.34400000000E+007, +6.27762186451E+001, -4.30580381335E+002
+5.37850000000E+007, +6.04605475241E+001, -4.06066819629E+002
+5.41300000000E+007, +5.84206869050E+001, -3.80257045945E+002
+5.44750000000E+007, +5.87385299602E+001, -3.56721356620E+002
+5.48200000000E+007, +5.77798248655E+001, -3.31931174284E+002
+5.51650000000E+007, +5.76044897761E+001, -3.10088981695E+002
+5.55100000000E+007, +5.77604696244E+001, -2.87051204745E+002
+5.58550000000E+007, +5.72038607238E+001, -2.65395062118E+002
+5.62000000000E+007, +5.84521161008E+001, -2.43577582690E+002
+5.65450000000E+007, +6.01316547682E+001, -2.22911316438E+002
+5.68900000000E+007, +6.15500205921E+001, -2.04257398513E+002
+5.72350000000E+007, +6.22049454463E+001, -1.86248643482E+002
+5.75800000000E+007, +6.23038473629E+001, -1.68254448669E+002
+5.79250000000E+007, +6.18512742794E+001, -1.49940597515E+002
+5.82700000000E+007, +6.21556115859E+001, -1.31665172151E+002
+5.86150000000E+007, +6.24633774611E+001, -1.13563948393E+002
+5.89600000000E+007, +6.31898707041E+001, -9.56729942907E+001
+5.93050000000E+007, +6.42206924269E+001, -7.82170974604E+001
+5.96500000000E+007, +6.55143149532E+001, -6.11454250425E+001
+5.99950000000E+007, +6.70404620850E+001, -4.48004107871E+001
+6.03400000000E+007, +6.84894460899E+001, -2.90894926431E+001
+6.06850000000E+007, +6.97348220405E+001, -1.34899982618E+001
+6.10300000000E+007, +7.11506311712E+001, +1.84735173274E+000
+6.13750000000E+007, +7.24777367470E+001, +1.62415516882E+001
+6.17200000000E+007, +7.32203165759E+001, +3.02126363368E+001
+6.20650000000E+007, +7.34857616120E+001, +4.41124660884E+001
+6.24100000000E+007, +7.32420878525E+001, +5.82432816792E+001
+6.27550000000E+007, +7.27896550609E+001, +7.25068617840E+001
+6.31000000000E+007, +7.22288384016E+001, +8.71725972906E+001
+6.34450000000E+007, +7.20290072490E+001, +1.02010731891E+002
+6.37900000000E+007, +7.18416636600E+001, +1.17036252599E+002
+6.41350000000E+007, +7.16114066784E+001, +1.32011772734E+002
+6.44800000000E+007, +7.18154499189E+001, +1.46905015064E+002
+6.48250000000E+007, +7.21485005702E+001, +1.61851458752E+002
+6.51700000000E+007, +7.18785658118E+001, +1.76719709226E+002
+6.55150000000E+007, +7.18342634882E+001, +1.91693874307E+002
+6.58600000000E+007, +7.18253796623E+001, +2.07371515495E+002
+6.62050000000E+007, +7.23408940066E+001, +2.23072329401E+002
+6.65500000000E+007, +7.29726403638E+001, +2.39265946574E+002
+6.68950000000E+007, +7.39279340182E+001, +2.55325112035E+002
+6.72400000000E+007, +7.55901574991E+001, +2.71438405564E+002
+6.75850000000E+007, +7.80881407305E+001, +2.87070479743E+002
+6.79300000000E+007, +8.07319300067E+001, +3.02539298754E+002
+6.82750000000E+007, +8.23630672738E+001, +3.18455153732E+002
+6.86200000000E+007, +8.55907552410E+001, +3.30754988593E+002
+6.89650000000E+007, +8.68082725693E+001, +3.44723028996E+002
+6.93100000000E+007, +8.79645398615E+001, +3.58453607316E+002
+6.96550000000E+007, +8.73983582540E+001, +3.72342672008E+002
+7.00000000000E+007, +8.64480295293E+001, +3.87077848660E+002
