"# Channel 1"
"# Trace 1"
Frequency, Formatted Data, Formatted Data
+1.01000000000E+006, +3.38566925653E-001, +2.33962723960E+001
+1.25495000000E+006, +3.58473421899E-001, +2.90380158589E+001
+1.49990000000E+006, +3.78116392799E-001, +3.46554187442E+001
+1.74485000000E+006, +3.84991479811E-001, +4.02952638853E+001
+1.98980000000E+006, +3.70963347122E-001, +4.59451052905E+001
+2.23475000000E+006, +3.67894299948E-001, +5.15263777540E+001
+2.47970000000E+006, +4.21128185561E-001, +5.72394492981E+001
+2.72465000000E+006, +4.03818859136E-001, +6.28459695803E+001
+2.96960000000E+006, +3.72213636453E-001, +6.85115348725E+001
+3.21455000000E+006, +4.82400801735E-001, +7.43158969839E+001
+3.45950000000E+006, +4.86917161808E-001, +8.00762320321E+001
+3.70445000000E+006, +4.03519983503E-001, +8.58562937633E+001
+3.94940000000E+006, +4.54465277491E-001, +9.15366321828E+001
+4.19435000000E+006, +3.04792571574E-001, +9.74735526423E+001
+4.43930000000E+006, +4.20754231694E-001, +1.02967789243E+002
+4.68425000000E+006, +4.98918316906E-001, +1.08864950461E+002
+4.92920000000E+006, +4.24370756416E-001, +1.14718075844E+002
+5.17415000000E+006, +4.80131313878E-001, +1.20391487354E+002
+5.41910000000E+006, +4.05967645319E-001, +1.26421306217E+002
+5.66405000000E+006, +4.19514681703E-001, +1.32033018115E+002
+5.90900000000E+006, +5.72482278798E-001, +1.38146216953E+002
+6.15395000000E+006, +6.97684467194E-001, +1.43800958729E+002
+6.39890000000E+006, +5.97483836274E-001, +1.49747838918E+002
+6.64385000000E+006, +6.19115702901E-001, +1.55762181429E+002
+6.88880000000E+006, +7.43233845105E-001, +1.61700226453E+002
+7.13375000000E+006, +9.09978650763E-001, +1.67886531090E+002
+7.37870000000E+006, +8.72943021606E-001, +1.73706805495E+002
+7.62365000000E+006, +9.09580828111E-001, +1.79846824223E+002
+7.86860000000E+006, +7.99727293984E-001, +1.86062542042E+002
+8.11355000000E+006, +7.83597562263E-001, +1.92064417282E+002
+8.35850000000E+006, +9.30820351575E-001, +1.97908144078E+002
+8.60345000000E+006, +1.21478165899E+000, +2.04088979491E+002
+8.84840000000E+006, +1.23413389901E+000, +2.10073196708E+002
+9.09335000000E+006, +7.43998669040E-001, +2.16620479247E+002
+9.33830000000E+006, +1.17600546989E+000, +2.22888838338E+002
+9.58325000000E+006, +1.23681305251E+000, +2.28982766249E+002
+9.82820000000E+006, +1.15623416531E+000, +2.35461379964E+002
+1.00731500000E+007, +9.25162367884E-001, +2.41625336392E+002
+1.03181000000E+007, +1.06938163668E+000, +2.48451342101E+002
+1.05630500000E+007, +1.07921837369E+000, +2.54196423807E+002
+1.08080000000E+007, +1.08272106433E+000, +2.60683017426E+002
+1.10529500000E+007, +1.08688497051E+000, +2.67483545323E+002
+1.12979000000E+007, +9.57237415548E-001, +2.74349565678E+002
+1.15428500000E+007, +1.17302552650E+000, +2.80788625729E+002
+1.17878000000E+007, +1.01645175916E+000, +2.87459499324E+002
+1.20327500000E+007, +3.51986684140E-001, +2.94457820630E+002
+1.22777000000E+007, +6.64322179093E-001, +3.00565967659E+002
+1.25226500000E+007, +1.01503590377E+000, +3.07777414689E+002
+1.27676000000E+007, +7.57813306019E-001, +3.14543937258E+002
+1.30125500000E+007, +1.12440893973E+000, +3.21148200223E+002
+1.32575000000E+007, +9.94960560344E-001, +3.29521849207E+002
+1.35024500000E+007, +1.63580220504E+000, +3.35698690196E+002
+1.37474000000E+007, +6.85821319421E-001, +3.42619572754E+002
+1.39923500000E+007, +9.26565241688E-001, +3.49997526402E+002
+1.42373000000E+007, +1.56608833367E-001, +3.56841697421E+002
+1.44822500000E+007, +5.95529061609E-001, +3.65077890298E+002
+1.47272000000E+007, +9.47468635845E-001, +3.71603999854E+002
+1.49721500000E+007, +4.16061388662E-001, +3.79521583679E+002
+1.52171000000E+007, +8.82582708881E-001, +3.86579519340E+002
+1.54620500000E+007, +1.07449386346E+000, +3.94692386592E+002
+1.57070000000E+007, +1.64333880176E+000, +4.01280273533E+002
+1.59519500000E+007, +7.19412046610E-001, +4.09336127936E+002
+1.61969000000E+007, +7.06764882981E-001, +4.17156184294E+002
+1.64418500000E+007, +4.57053632623E-001, +4.25222859838E+002
+1.66868000000E+007, +1.18944066340E+000, +4.34101325126E+002
+1.69317500000E+007, +1.25644758068E+000, +4.42174300502E+002
+1.71767000000E+007, -1.15719170168E+000, +4.49429057807E+002
+1.74216500000E+007, -7.15180836068E-001, +4.58724089820E+002
+1.76666000000E+007, -1.52350679367E+000, +4.67599920503E+002
+1.79115500000E+007, +9.70558546351E-001, +4.73985235670E+002
+1.81565000000E+007, +1.26295792577E+000, +4.84809576630E+002
+1.84014500000E+007, -5.86310252501E-001, +4.92903686432E+002
+1.86464000000E+007, -1.94250437115E+000, +5.02151444892E+002
+1.88913500000E+007, +1.38972140160E-001, +5.10038581413E+002
+1.91363000000E+007, +1.24448082250E+000, +5.19590842365E+002
+1.93812500000E+007, -1.98197714265E-001, +5.29397562785E+002
+1.96262000000E+007, -4.58035088728E-001, +5.37694364213E+002
+1.98711500000E+007, +2.73174906607E-001, +5.48330602562E+002
+2.01161000000E+007, +3.98547353649E-001, +5.56703181792E+002
+2.03610500000E+007, +1.36514631813E+000, +5.67226962551E+002
+2.06060000000E+007, +1.69025254126E-002, +5.76853524462E+002
+2.08509500000E+007, +1.25790465650E+000, +5.88239767296E+002
+2.10959000000E+007, +4.48801313144E-001, +5.97846391663E+002
+2.13408500000E+007, +3.88052607393E-001, +6.07537143498E+002
+2.15858000000E+007, +1.48538100896E+000, +6.20219359464E+002
+2.18307500000E+007, +1.75208434872E+000, +6.30496876108E+002
+2.20757000000E+007, +7.65310702129E-001, +6.41222982181E+002
+2.23206500000E+007, +1.19967915037E+000, +6.51470745113E+002
+2.25656000000E+007, +1.49181764176E+000, +6.65547700387E+002
+2.28105500000E+007, +3.44380964020E-001, +6.74620423763E+002
+2.30555000000E+007, +1.35153492517E+000, +6.86544430124E+002
+2.33004500000E+007, +2.33620680445E+000, +6.97471571970E+002
+2.35454000000E+007, +1.11584656217E+000, +7.10319627101E+002
+2.37903500000E+007, +2.87414932742E+000, +7.20751444200E+002
+2.40353000000E+007, +2.22512223942E+000, +7.35710049023E+002
+2.42802500000E+007, +2.33021414131E+000, +7.46725310777E+002
+2.45252000000E+007, +2.13291955852E+000, +7.61997860401E+002
+2.47701500000E+007, +2.76424707433E+000, +7.75948686576E+002
+2.50151000000E+007, +1.37109653901E+000, +7.90178337264E+002
+2.52600500000E+007, +2.73864932645E-001, +8.02347378668E+002
+2.55050000000E+007, +3.23712029227E+000, +8.18965203807E+002
+2.57499500000E+007, +2.19349057550E+000, +8.28734374640E+002
+2.59949000000E+007, +2.91939022705E+000, +8.46838298613E+002
+2.62398500000E+007, +2.61029133651E+000, +8.60550445694E+002
+2.64848000000E+007, +4.72244947964E+000, +8.82685900861E+002
+2.67297500000E+007, +4.56118503376E+000, +8.95435434070E+002
+2.69747000000E+007, +8.85136351376E+000, +9.12228735944E+002
+2.72196500000E+007, -2.15512119439E-002, +9.26070017649E+002
+2.74646000000E+007, +5.93981859585E+000, +9.42795698513E+002
+2.77095500000E+007, +6.66766235040E+000, +9.56893037701E+002
+2.79545000000E+007, +7.51494026991E+000, +9.75169079538E+002
+2.81994500000E+007, +4.10066593934E+000, +9.98272331200E+002
+2.84444000000E+007, +1.23420188063E+001, +1.01962625982E+003
+2.86893500000E+007, +9.46467284251E+000, +1.04649690441E+003
+2.89343000000E+007, +1.30469198216E+001, +1.05715924215E+003
+2.91792500000E+007, +4.91664352357E+000, +1.08097992483E+003
+2.94242000000E+007, +1.10756653220E+001, +1.10023095510E+003
+2.96691500000E+007, +5.92529386005E+000, +1.12295018768E+003
+2.99141000000E+007, +9.26607036589E+000, +1.14742550496E+003
+3.01590500000E+007, +1.74104259419E+001, +1.17574760950E+003
+3.04040000000E+007, +1.39560769695E+001, +1.19781110896E+003
+3.06489500000E+007, +1.26414295577E+001, +1.22026777940E+003
+3.08939000000E+007, +4.78883900534E+000, +1.24813281029E+003
+3.11388500000E+007, +1.22215259378E+001, +1.27371204341E+003
+3.13838000000E+007, +1.64007060861E+001, +1.30275844384E+003
+3.16287500000E+007, +2.81146064144E+001, +1.32801913739E+003
+3.18737000000E+007, +1.89320600544E+001, +1.36131501074E+003
+3.21186500000E+007, +1.84277594593E+001, +1.39182450205E+003
+3.23636000000E+007, +2.72207134312E+001, +1.42402799619E+003
+3.26085500000E+007, +8.27287122327E+000, +1.45442005619E+003
+3.28535000000E+007, +1.28232568971E+001, +1.49453758521E+003
+3.30984500000E+007, +2.74676057386E+001, +1.54595930446E+003
+3.33434000000E+007, +1.60092806861E+001, +1.56816785985E+003
+3.35883500000E+007, +2.43577008868E+001, +1.61196312849E+003
+3.38333000000E+007, +3.28290805476E+001, +1.65077710739E+003
+3.40782500000E+007, +3.48262866133E+001, +1.69763626535E+003
+3.43232000000E+007, +3.17859085597E+001, +1.72403136043E+003
+3.45681500000E+007, +4.31814534890E+001, +1.78579359519E+003
+3.48131000000E+007, +4.83143282077E+001, +1.82742831217E+003
+3.50580500000E+007, +5.23336442770E+001, +1.88873243285E+003
+3.53030000000E+007, +5.32327242387E+001, +1.94515640338E+003
+3.55479500000E+007, +8.08269815635E+001, +1.98401573705E+003
+3.57929000000E+007, +8.19750276391E+001, +2.05314501283E+003
+3.60378500000E+007, +8.63277662408E+001, +2.12880024749E+003
+3.62828000000E+007, +1.00487556711E+002, +2.17297689033E+003
+3.65277500000E+007, +6.08942004362E+001, +2.25114849983E+003
+3.67727000000E+007, +1.00265940701E+002, +2.32278880023E+003
+3.70176500000E+007, +1.22711354498E+002, +2.39511333643E+003
+3.72626000000E+007, +1.16285301389E+002, +2.49342442226E+003
+3.75075500000E+007, +1.34962494817E+002, +2.57908201628E+003
+3.77525000000E+007, +1.36418277883E+002, +2.67639663629E+003
+3.79974500000E+007, +1.55998697374E+002, +2.77789021385E+003
+3.82424000000E+007, +1.72683825391E+002, +2.89690131071E+003
+3.84873500000E+007, +1.62742616858E+002, +3.03079968253E+003
+3.87323000000E+007, +2.46925254443E+002, +3.19458432590E+003
+3.89772500000E+007, +2.33121656597E+002, +3.33929982758E+003
+3.92222000000E+007, +2.14256470315E+002, +3.48088831049E+003
+3.94671500000E+007, +3.39453231576E+002, +3.67397825403E+003
+3.97121000000E+007, +2.80260129883E+002, +3.98294134515E+003
+3.99570500000E+007, +3.87125887727E+002, +4.11830309031E+003
+4.02020000000E+007, +3.62518401592E+002, +4.34392927719E+003
+4.04469500000E+007, +4.61289678116E+002, +4.66150361262E+003
+4.06919000000E+007, +4.41855264661E+002, +4.96030935482E+003
+4.09368500000E+007, +5.34073572105E+002, +5.36847730124E+003
+4.11818000000E+007, +6.60408167175E+002, +5.81069077404E+003
+4.14267500000E+007, +8.87544422803E+002, +6.11946382963E+003
+4.16717000000E+007, +9.49176081054E+002, +7.00989753409E+003
+4.19166500000E+007, +1.09551240995E+003, +7.46181842610E+003
+4.21616000000E+007, +1.37395502136E+003, +8.62852372444E+003
+4.24065500000E+007, +2.08125387922E+003, +9.16039496893E+003
+4.26515000000E+007, +3.05029931172E+003, +1.03371281614E+004
+4.28964500000E+007, +4.44165178825E+003, +1.23095118781E+004
+4.31414000000E+007, +6.49550186238E+003, +1.56238985127E+004
+4.33863500000E+007, +1.01583326353E+004, +2.04554431177E+004
+4.36313000000E+007, +1.48662642300E+004, +2.02376310325E+004
+4.38762500000E+007, +2.72451967074E+004, +1.80044820008E+004
+4.41212000000E+007, +5.35422232980E+004, +9.30863715761E+003
+4.43661500000E+007, +3.52844755679E+004, -2.44302938795E+004
+4.46111000000E+007, +1.40242741272E+004, -2.30181238514E+004
+4.48560500000E+007, +1.25686850759E+004, -1.88327883966E+004
+4.51010000000E+007, +4.72111288670E+003, -1.49010353055E+004
+4.53459500000E+007, +3.54834527407E+003, -1.25287966988E+004
+4.55909000000E+007, +3.02005682196E+003, -1.05133747970E+004
+4.58358500000E+007, +2.18951103567E+003, -9.15278052858E+003
+4.60808000000E+007, +1.56607288019E+003, -8.25306961242E+003
+4.63257500000E+007, +1.54481080989E+003, -7.16619007537E+003
+4.65707000000E+007, +1.15135147773E+003, -6.81221068538E+003
+4.68156500000E+007, +1.02926609141E+003, -5.94138262038E+003
+4.70606000000E+007, +9.61592160910E+002, -5.43567281592E+003
+4.73055500000E+007, +7.73590222499E+002, -5.00303792870E+003
+4.75505000000E+007, +5.85839253937E+002, -4.62473179395E+003
+4.77954500000E+007, +5.54615947565E+002, -4.32647022251E+003
+4.80404000000E+007, +4.28097584903E+002, -4.03541148253E+003
+4.82853500000E+007, +4.72186590245E+002, -3.87370560937E+003
+4.85303000000E+007, +3.73103568532E+002, -3.58342654423E+003
+4.87752500000E+007, +3.86104598160E+002, -3.36146545191E+003
+4.90202000000E+007, +3.23888897138E+002, -3.25566457591E+003
+4.92651500000E+007, +3.15356512186E+002, -3.04268053639E+003
+4.95101000000E+007, +2.94989066165E+002, -2.93589847200E+003
+4.97550500000E+007, +2.78118395991E+002, -2.79828690908E+003
+5.00000000000E+007, +2.81028031859E+002, -2.65887525585E+003
