"# Channel 1"
"# Trace 1"
Frequency, Formatted Data, Formatted Data
+1.01000000000E+006, +6.92016432559E+001, +3.37121891210E+001
+1.25495000000E+006, +6.90950198482E+001, +4.19052406833E+001
+1.49990000000E+006, +6.92458512348E+001, +4.99092192316E+001
+1.74485000000E+006, +6.92259940319E+001, +5.81149539243E+001
+1.98980000000E+006, +6.92343651085E+001, +6.62232997856E+001
+2.23475000000E+006, +6.94016757300E+001, +7.43756537154E+001
+2.47970000000E+006, +6.94788103744E+001, +8.25659533290E+001
+2.72465000000E+006, +6.95582968326E+001, +9.07231079677E+001
+2.96960000000E+006, +6.95942302051E+001, +9.91214173665E+001
+3.21455000000E+006, +7.01523718751E+001, +1.07065860150E+002
+3.45950000000E+006, +7.02545212899E+001, +1.15252628613E+002
+3.70445000000E+006, +7.04880305974E+001, +1.23698460675E+002
+3.94940000000E+006, +7.07313160169E+001, +1.31666354906E+002
+4.19435000000E+006, +7.12817227509E+001, +1.40353691028E+002
+4.43930000000E+006, +7.11593409451E+001, +1.48366566071E+002
+4.68425000000E+006, +7.15589331310E+001, +1.56958575211E+002
+4.92920000000E+006, +7.16983938851E+001, +1.65294728292E+002
+5.17415000000E+006, +7.21116912490E+001, +1.73619067804E+002
+5.41910000000E+006, +7.23888427718E+001, +1.82247305131E+002
+5.66405000000E+006, +7.28958453101E+001, +1.90642836675E+002
+5.90900000000E+006, +7.36081642677E+001, +1.99163015397E+002
+6.15395000000E+006, +7.40411744363E+001, +2.07491566628E+002
+6.39890000000E+006, +7.39656978793E+001, +2.15904081001E+002
+6.64385000000E+006, +7.51124048232E+001, +2.24708433961E+002
+6.88880000000E+006, +7.53424135935E+001, +2.33118322914E+002
+7.13375000000E+006, +7.57593782550E+001, +2.41772853394E+002
+7.37870000000E+006, +7.66462058172E+001, +2.50469404703E+002
+7.62365000000E+006, +7.73956753941E+001, +2.59241259969E+002
+7.86860000000E+006, +7.75377499902E+001, +2.68384892242E+002
+8.11355000000E+006, +7.85057879482E+001, +2.77549394437E+002
+8.35850000000E+006, +7.85620526622E+001, +2.85935593813E+002
+8.60345000000E+006, +7.96009377727E+001, +2.94980584635E+002
+8.84840000000E+006, +7.99098354588E+001, +3.03158024796E+002
+9.09335000000E+006, +7.99184484906E+001, +3.12707672464E+002
+9.33830000000E+006, +8.14542974912E+001, +3.22517512001E+002
+9.58325000000E+006, +8.19264207878E+001, +3.30951454133E+002
+9.82820000000E+006, +8.21362406958E+001, +3.40694178247E+002
+1.00731500000E+007, +8.24495746406E+001, +3.49989138882E+002
+1.03181000000E+007, +8.45100134139E+001, +3.59141522508E+002
+1.05630500000E+007, +8.43518401798E+001, +3.68858748403E+002
+1.08080000000E+007, +8.50147240937E+001, +3.77716075949E+002
+1.10529500000E+007, +8.59808060021E+001, +3.88568378961E+002
+1.12979000000E+007, +8.67652487082E+001, +3.98509322716E+002
+1.15428500000E+007, +8.79692677233E+001, +4.07497752279E+002
+1.17878000000E+007, +8.79517592997E+001, +4.18532306356E+002
+1.20327500000E+007, +8.84613574859E+001, +4.28600852208E+002
+1.22777000000E+007, +8.94061176694E+001, +4.38580216099E+002
+1.25226500000E+007, +8.97827839338E+001, +4.47833463395E+002
+1.27676000000E+007, +9.15297885919E+001, +4.57741496265E+002
+1.30125500000E+007, +9.14501161372E+001, +4.68051739623E+002
+1.32575000000E+007, +9.48663650677E+001, +4.80638949093E+002
+1.35024500000E+007, +9.52653032409E+001, +4.89932560555E+002
+1.37474000000E+007, +9.55223277412E+001, +5.02616310651E+002
+1.39923500000E+007, +9.73417357910E+001, +5.12369784525E+002
+1.42373000000E+007, +9.60610073421E+001, +5.23940820182E+002
+1.44822500000E+007, +9.81129759829E+001, +5.35046525479E+002
+1.47272000000E+007, +1.01598212058E+002, +5.46162406949E+002
+1.49721500000E+007, +1.00847102444E+002, +5.57874068510E+002
+1.52171000000E+007, +1.02162577632E+002, +5.69734438990E+002
+1.54620500000E+007, +1.03763040207E+002, +5.81607504156E+002
+1.57070000000E+007, +1.03715252266E+002, +5.93864723397E+002
+1.59519500000E+007, +1.05745235802E+002, +6.04884449654E+002
+1.61969000000E+007, +1.07311447011E+002, +6.17690323155E+002
+1.64418500000E+007, +1.07767142753E+002, +6.30680637882E+002
+1.66868000000E+007, +1.10225151401E+002, +6.43239635904E+002
+1.69317500000E+007, +1.14954553966E+002, +6.58130908112E+002
+1.71767000000E+007, +1.09712412073E+002, +6.71198201014E+002
+1.74216500000E+007, +1.11342159008E+002, +6.84309355603E+002
+1.76666000000E+007, +1.11650267896E+002, +6.99431273059E+002
+1.79115500000E+007, +1.16569713059E+002, +7.09721581321E+002
+1.81565000000E+007, +1.18497249779E+002, +7.25591622020E+002
+1.84014500000E+007, +1.19470858601E+002, +7.38905300870E+002
+1.86464000000E+007, +1.18770438619E+002, +7.56025073243E+002
+1.88913500000E+007, +1.26176299015E+002, +7.68649522643E+002
+1.91363000000E+007, +1.25639864069E+002, +7.82126254169E+002
+1.93812500000E+007, +1.28073852484E+002, +8.01206296120E+002
+1.96262000000E+007, +1.28253228503E+002, +8.15990544466E+002
+1.98711500000E+007, +1.30937875618E+002, +8.30910231142E+002
+2.01161000000E+007, +1.33373355828E+002, +8.47388169255E+002
+2.03610500000E+007, +1.34972776943E+002, +8.64705339486E+002
+2.06060000000E+007, +1.38742885063E+002, +8.78837947546E+002
+2.08509500000E+007, +1.41244906305E+002, +9.01725645511E+002
+2.10959000000E+007, +1.39971424395E+002, +9.18043683415E+002
+2.13408500000E+007, +1.46658986120E+002, +9.32670855408E+002
+2.15858000000E+007, +1.48483416112E+002, +9.54715093218E+002
+2.18307500000E+007, +1.57947371722E+002, +9.72476003311E+002
+2.20757000000E+007, +1.57121243879E+002, +9.94943689538E+002
+2.23206500000E+007, +1.57382168366E+002, +1.01235784389E+003
+2.25656000000E+007, +1.62453332830E+002, +1.03736320375E+003
+2.28105500000E+007, +1.63328860289E+002, +1.05953683946E+003
+2.30555000000E+007, +1.70580573924E+002, +1.07383848348E+003
+2.33004500000E+007, +1.72802245544E+002, +1.10312631590E+003
+2.35454000000E+007, +1.81808115934E+002, +1.12265800295E+003
+2.37903500000E+007, +1.80907867814E+002, +1.14804291837E+003
+2.40353000000E+007, +1.89453703903E+002, +1.17192021936E+003
+2.42802500000E+007, +1.88351390998E+002, +1.19425162133E+003
+2.45252000000E+007, +2.00180911194E+002, +1.22967390389E+003
+2.47701500000E+007, +2.05479090379E+002, +1.25171510083E+003
+2.50151000000E+007, +2.08891367139E+002, +1.27328761123E+003
+2.52600500000E+007, +2.06228524819E+002, +1.30424186540E+003
+2.55050000000E+007, +2.24369097149E+002, +1.33321880426E+003
+2.57499500000E+007, +2.26084299128E+002, +1.36583510588E+003
+2.59949000000E+007, +2.34976588282E+002, +1.40114302490E+003
+2.62398500000E+007, +2.43739556375E+002, +1.42682400168E+003
+2.64848000000E+007, +2.44994210921E+002, +1.46597501490E+003
+2.67297500000E+007, +2.62941209496E+002, +1.51187779744E+003
+2.69747000000E+007, +2.68915399190E+002, +1.52669944175E+003
+2.72196500000E+007, +2.72771337927E+002, +1.56859459550E+003
+2.74646000000E+007, +2.81069428920E+002, +1.61180253411E+003
+2.77095500000E+007, +2.84862848330E+002, +1.64476009320E+003
+2.79545000000E+007, +3.06329534444E+002, +1.68578509826E+003
+2.81994500000E+007, +3.22433622321E+002, +1.73903627249E+003
+2.84444000000E+007, +3.31488970451E+002, +1.78600291207E+003
+2.86893500000E+007, +3.58887647662E+002, +1.84221083865E+003
+2.89343000000E+007, +3.88823467492E+002, +1.87437980842E+003
+2.91792500000E+007, +3.64567255353E+002, +1.94109171905E+003
+2.94242000000E+007, +4.04347142264E+002, +1.97735849545E+003
+2.96691500000E+007, +4.15030196574E+002, +2.02857570292E+003
+2.99141000000E+007, +4.27792111447E+002, +2.10865576477E+003
+3.01590500000E+007, +4.84609271769E+002, +2.17434846163E+003
+3.04040000000E+007, +4.69516136439E+002, +2.24022612442E+003
+3.06489500000E+007, +5.06238448797E+002, +2.32778108241E+003
+3.08939000000E+007, +4.91886188492E+002, +2.39174264668E+003
+3.11388500000E+007, +5.58782579822E+002, +2.47625604937E+003
+3.13838000000E+007, +6.02836486448E+002, +2.57187547039E+003
+3.16287500000E+007, +6.59961520760E+002, +2.66287494635E+003
+3.18737000000E+007, +7.07653563788E+002, +2.75702138467E+003
+3.21186500000E+007, +7.31454165583E+002, +2.83414642794E+003
+3.23636000000E+007, +7.90353328506E+002, +2.97118022098E+003
+3.26085500000E+007, +8.35941573161E+002, +3.09145889682E+003
+3.28535000000E+007, +9.10621404923E+002, +3.19285225109E+003
+3.30984500000E+007, +1.05514099401E+003, +3.36688315344E+003
+3.33434000000E+007, +1.10551557054E+003, +3.50967771280E+003
+3.35883500000E+007, +1.13846438596E+003, +3.64715103116E+003
+3.38333000000E+007, +1.25923868817E+003, +3.73687449295E+003
+3.40782500000E+007, +1.37557607483E+003, +3.91348643861E+003
+3.43232000000E+007, +1.60664718260E+003, +4.15491322417E+003
+3.45681500000E+007, +1.74933550973E+003, +4.31863191561E+003
+3.48131000000E+007, +1.91659231641E+003, +4.47994752056E+003
+3.50580500000E+007, +2.19619381314E+003, +4.88788597583E+003
+3.53030000000E+007, +2.52032224149E+003, +4.96872909124E+003
+3.55479500000E+007, +2.85291245377E+003, +5.14839146447E+003
+3.57929000000E+007, +3.41977544001E+003, +5.56094030044E+003
+3.60378500000E+007, +3.83002566253E+003, +5.77673733285E+003
+3.62828000000E+007, +4.09997108765E+003, +5.81811496962E+003
+3.65277500000E+007, +5.04646211384E+003, +6.48121890983E+003
+3.67727000000E+007, +5.62077957315E+003, +6.50334380022E+003
+3.70176500000E+007, +6.88611150547E+003, +6.48176070519E+003
+3.72626000000E+007, +7.91172236700E+003, +6.37420194345E+003
+3.75075500000E+007, +8.97989740225E+003, +5.52186367883E+003
+3.77525000000E+007, +1.04657608723E+004, +4.82328448374E+003
+3.79974500000E+007, +1.15921214330E+004, +4.40719562904E+003
+3.82424000000E+007, +1.33544409662E+004, +8.79724821647E+002
+3.84873500000E+007, +1.25612036768E+004, -3.44216515189E+002
+3.87323000000E+007, +1.18179003592E+004, -2.40032917516E+003
+3.89772500000E+007, +1.16169604099E+004, -4.47709125489E+003
+3.92222000000E+007, +1.04506519422E+004, -5.36751940545E+003
+3.94671500000E+007, +8.83643004045E+003, -6.19936106615E+003
+3.97121000000E+007, +6.88576038651E+003, -6.74312112920E+003
+3.99570500000E+007, +6.12440401646E+003, -6.57652661352E+003
+4.02020000000E+007, +5.07244323260E+003, -6.57138713423E+003
+4.04469500000E+007, +4.41636718612E+003, -6.26041133699E+003
+4.06919000000E+007, +3.73423959998E+003, -6.30533548302E+003
+4.09368500000E+007, +3.12211149440E+003, -5.78685259786E+003
+4.11818000000E+007, +2.82836965466E+003, -5.53016413699E+003
+4.14267500000E+007, +2.49961550640E+003, -5.21557644541E+003
+4.16717000000E+007, +2.23278080237E+003, -4.94434593870E+003
+4.19166500000E+007, +1.86884925575E+003, -4.71070711443E+003
+4.21616000000E+007, +1.63509790475E+003, -4.40334475864E+003
+4.24065500000E+007, +1.49886251895E+003, -4.26816901162E+003
+4.26515000000E+007, +1.35491400908E+003, -4.04857970591E+003
+4.28964500000E+007, +1.25637968639E+003, -3.79186063886E+003
+4.31414000000E+007, +1.05605657257E+003, -3.61804232322E+003
+4.33863500000E+007, +9.21313638401E+002, -3.47044606406E+003
+4.36313000000E+007, +8.42277650833E+002, -3.37340677329E+003
+4.38762500000E+007, +7.63492463287E+002, -3.22652917363E+003
+4.41212000000E+007, +7.35270328813E+002, -3.09139206790E+003
+4.43661500000E+007, +6.41610111370E+002, -2.93512719383E+003
+4.46111000000E+007, +6.14103406139E+002, -2.82465217182E+003
+4.48560500000E+007, +6.05982817764E+002, -2.76425036260E+003
+4.51010000000E+007, +4.94180595117E+002, -2.62725074091E+003
+4.53459500000E+007, +4.85909436698E+002, -2.52571956081E+003
+4.55909000000E+007, +4.57565557237E+002, -2.44656551280E+003
+4.58358500000E+007, +4.43130800932E+002, -2.34858438725E+003
+4.60808000000E+007, +3.84402409566E+002, -2.28821450212E+003
+4.63257500000E+007, +3.84532662821E+002, -2.18810149904E+003
+4.65707000000E+007, +3.67868002514E+002, -2.13506440781E+003
+4.68156500000E+007, +3.43176604725E+002, -2.05464494926E+003
+4.70606000000E+007, +3.31415171617E+002, -1.98355415583E+003
+4.73055500000E+007, +3.12750292550E+002, -1.91649476164E+003
+4.75505000000E+007, +2.89440343133E+002, -1.85201559854E+003
+4.77954500000E+007, +2.65760207485E+002, -1.81943562880E+003
+4.80404000000E+007, +2.52671494960E+002, -1.75041912563E+003
+4.82853500000E+007, +2.57847963263E+002, -1.71431470424E+003
+4.85303000000E+007, +2.43826870885E+002, -1.66451373576E+003
+4.87752500000E+007, +2.40309499029E+002, -1.61667767164E+003
+4.90202000000E+007, +2.16569365804E+002, -1.57552187575E+003
+4.92651500000E+007, +2.11444269087E+002, -1.51083666875E+003
+4.95101000000E+007, +2.05086535239E+002, -1.48063929739E+003
+4.97550500000E+007, +2.02137767580E+002, -1.44704542398E+003
+5.00000000000E+007, +1.91896748836E+002, -1.40774423907E+003
