"# Channel 1"
"# Trace 1"
Frequency, Formatted Data, Formatted Data
+1.01000000000E+006, +3.12759818046E-001, +2.20006054572E+001
+1.25495000000E+006, +3.28072098854E-001, +2.72858121186E+001
+1.49990000000E+006, +3.27008145409E-001, +3.25796823611E+001
+1.74485000000E+006, +3.53918409024E-001, +3.78705979743E+001
+1.98980000000E+006, +3.55803291550E-001, +4.31394283472E+001
+2.23475000000E+006, +3.67952197275E-001, +4.84369049322E+001
+2.47970000000E+006, +3.91179456216E-001, +5.37594669500E+001
+2.72465000000E+006, +3.07248779129E-001, +5.90741545841E+001
+2.96960000000E+006, +3.64419839787E-001, +6.43601683926E+001
+3.21455000000E+006, +4.27919394776E-001, +6.97898946138E+001
+3.45950000000E+006, +4.53431817995E-001, +7.51563403683E+001
+3.70445000000E+006, +3.92341609925E-001, +8.05453236436E+001
+3.94940000000E+006, +6.27391460528E-001, +8.59124058886E+001
+4.19435000000E+006, +2.84495599480E-001, +9.14014818035E+001
+4.43930000000E+006, +3.13204110188E-001, +9.65790469966E+001
+4.68425000000E+006, +5.31581173293E-001, +1.01953605522E+002
+4.92920000000E+006, +3.35082669371E-001, +1.07445904710E+002
+5.17415000000E+006, +3.92630207197E-001, +1.12769017621E+002
+5.41910000000E+006, +3.94184938778E-001, +1.18429466546E+002
+5.66405000000E+006, +3.98577356347E-001, +1.23646859108E+002
+5.90900000000E+006, +4.71181370662E-001, +1.29342203402E+002
+6.15395000000E+006, +6.61387436067E-001, +1.34454449201E+002
+6.39890000000E+006, +5.96835274273E-001, +1.40075800468E+002
+6.64385000000E+006, +7.26097673884E-001, +1.45602532034E+002
+6.88880000000E+006, +6.66224854979E-001, +1.51143664004E+002
+7.13375000000E+006, +7.28195112416E-001, +1.56814946596E+002
+7.37870000000E+006, +8.08704078935E-001, +1.62204644526E+002
+7.62365000000E+006, +8.40166225066E-001, +1.67837670655E+002
+7.86860000000E+006, +7.76904091770E-001, +1.73488494364E+002
+8.11355000000E+006, +7.80480770631E-001, +1.79161217750E+002
+8.35850000000E+006, +8.11754748646E-001, +1.84713859455E+002
+8.60345000000E+006, +1.02082887500E+000, +1.90104045259E+002
+8.84840000000E+006, +9.64493209686E-001, +1.95525148754E+002
+9.09335000000E+006, +9.26177747167E-001, +2.01417933442E+002
+9.33830000000E+006, +1.04932507243E+000, +2.07307373803E+002
+9.58325000000E+006, +1.05941483324E+000, +2.12903755299E+002
+9.82820000000E+006, +9.43768254330E-001, +2.18830800967E+002
+1.00731500000E+007, +8.18694101131E-001, +2.24094066339E+002
+1.03181000000E+007, +1.05394332483E+000, +2.30208471329E+002
+1.05630500000E+007, +1.02538747320E+000, +2.35742127051E+002
+1.08080000000E+007, +1.07948062006E+000, +2.41552219738E+002
+1.10529500000E+007, +1.06656619689E+000, +2.47599260231E+002
+1.12979000000E+007, +8.08100436889E-001, +2.53783233000E+002
+1.15428500000E+007, +1.13938953668E+000, +2.59406120527E+002
+1.17878000000E+007, +8.28508827896E-001, +2.65092485173E+002
+1.20327500000E+007, +7.95569658502E-001, +2.71508015475E+002
+1.22777000000E+007, +7.74794848932E-001, +2.77168798913E+002
+1.25226500000E+007, +4.43044441281E-001, +2.83097275605E+002
+1.27676000000E+007, +8.72518834574E-001, +2.89678400891E+002
+1.30125500000E+007, +7.12549044647E-001, +2.95391275560E+002
+1.32575000000E+007, +8.33140011123E-001, +3.02643269225E+002
+1.35024500000E+007, +1.26248498291E+000, +3.08290371774E+002
+1.37474000000E+007, +1.13374317334E+000, +3.14511128362E+002
+1.39923500000E+007, +5.47656405619E-001, +3.20409652708E+002
+1.42373000000E+007, +4.75110092904E-001, +3.26371232489E+002
+1.44822500000E+007, +7.35076669540E-001, +3.33932930103E+002
+1.47272000000E+007, +1.20122018351E+000, +3.39199061151E+002
+1.49721500000E+007, +5.43811393279E-001, +3.45655391262E+002
+1.52171000000E+007, +3.67439601745E-001, +3.52447886139E+002
+1.54620500000E+007, +9.52568288616E-001, +3.59086686721E+002
+1.57070000000E+007, +5.81361702196E-001, +3.65126496599E+002
+1.59519500000E+007, +7.57288714735E-001, +3.72002504735E+002
+1.61969000000E+007, +9.55176715026E-001, +3.78579226785E+002
+1.64418500000E+007, -3.32883882187E-001, +3.85591944363E+002
+1.66868000000E+007, +1.34699442926E+000, +3.92594264598E+002
+1.69317500000E+007, +1.35290157017E+000, +3.99660745405E+002
+1.71767000000E+007, -5.25228471841E-001, +4.05517810098E+002
+1.74216500000E+007, -2.13448330596E-001, +4.13351820537E+002
+1.76666000000E+007, -6.62214993457E-001, +4.20267994710E+002
+1.79115500000E+007, +3.24387440045E-001, +4.26934936421E+002
+1.81565000000E+007, +6.00277874233E-001, +4.34784434294E+002
+1.84014500000E+007, -3.11823358743E-001, +4.42213039796E+002
+1.86464000000E+007, -3.68280242151E-002, +4.49464858314E+002
+1.88913500000E+007, +8.99604610118E-001, +4.56084484809E+002
+1.91363000000E+007, +2.46550105926E-001, +4.63611296944E+002
+1.93812500000E+007, -2.44542647007E-001, +4.71635111315E+002
+1.96262000000E+007, +1.62967873152E-001, +4.79456689486E+002
+1.98711500000E+007, +5.98618989497E-001, +4.85561741546E+002
+2.01161000000E+007, +5.21941328191E-001, +4.92501232606E+002
+2.03610500000E+007, +6.11709919163E-001, +5.01994973912E+002
+2.06060000000E+007, +1.53873689828E+000, +5.08944465274E+002
+2.08509500000E+007, +1.55408818138E+000, +5.16914873616E+002
+2.10959000000E+007, +5.63083412461E-001, +5.24857056191E+002
+2.13408500000E+007, +4.66910621083E-001, +5.33110300105E+002
+2.15858000000E+007, +9.93459762946E-001, +5.41731304595E+002
+2.18307500000E+007, +2.02108816373E+000, +5.50154510659E+002
+2.20757000000E+007, +1.14574427288E+000, +5.58158982409E+002
+2.23206500000E+007, +1.23635289234E+000, +5.67454177089E+002
+2.25656000000E+007, +5.65306006516E-001, +5.75204764484E+002
+2.28105500000E+007, -9.38508266563E-002, +5.84489122647E+002
+2.30555000000E+007, +3.06661230475E+000, +5.92030045738E+002
+2.33004500000E+007, +3.67575914362E+000, +6.00585692793E+002
+2.35454000000E+007, +1.58328081013E+000, +6.08223224538E+002
+2.37903500000E+007, +9.29265227242E-001, +6.19314864894E+002
+2.40353000000E+007, +9.49538689120E-001, +6.30746332951E+002
+2.42802500000E+007, +1.24832811335E+000, +6.36718307158E+002
+2.45252000000E+007, +9.96417547585E-001, +6.48720534480E+002
+2.47701500000E+007, +1.22050117466E+000, +6.58502902654E+002
+2.50151000000E+007, +1.79404672153E+000, +6.65801437514E+002
+2.52600500000E+007, +9.95179747883E-001, +6.76765895598E+002
+2.55050000000E+007, +2.61931714550E+000, +6.85743236955E+002
+2.57499500000E+007, +1.29553585066E+000, +6.94801874837E+002
+2.59949000000E+007, +4.25637307386E+000, +7.07349071199E+002
+2.62398500000E+007, +2.21523104311E+000, +7.17080951589E+002
+2.64848000000E+007, +2.47186310576E-001, +7.28735343937E+002
+2.67297500000E+007, +3.85432455234E+000, +7.40944342391E+002
+2.69747000000E+007, +3.45450109687E+000, +7.48214991754E+002
+2.72196500000E+007, +2.70581170920E-001, +7.61601535024E+002
+2.74646000000E+007, +4.24271074811E+000, +7.70606049068E+002
+2.77095500000E+007, +5.58354963514E+000, +7.81970542881E+002
+2.79545000000E+007, +3.67059792660E+000, +7.93780839812E+002
+2.81994500000E+007, +4.77878127857E+000, +8.03960978631E+002
+2.84444000000E+007, +6.30653035444E+000, +8.21408527494E+002
+2.86893500000E+007, +2.96842018636E+000, +8.34015813578E+002
+2.89343000000E+007, +7.99802504226E+000, +8.42829151643E+002
+2.91792500000E+007, +7.35397178130E+000, +8.55096544573E+002
+2.94242000000E+007, +9.47579268086E+000, +8.71430401553E+002
+2.96691500000E+007, +3.81102789640E+000, +8.80515468708E+002
+2.99141000000E+007, +4.60482756876E+000, +8.97212174372E+002
+3.01590500000E+007, +8.33346499007E+000, +9.12409024717E+002
+3.04040000000E+007, +7.06343121209E+000, +9.27537401354E+002
+3.06489500000E+007, +5.16589034777E+000, +9.36719034040E+002
+3.08939000000E+007, +4.63754595892E+000, +9.50938642750E+002
+3.11388500000E+007, +2.60190982813E+000, +9.68789450869E+002
+3.13838000000E+007, +7.05236216898E+000, +9.82532100316E+002
+3.16287500000E+007, +1.33865446284E+001, +9.95918347498E+002
+3.18737000000E+007, +1.14719653658E+001, +1.01728600016E+003
+3.21186500000E+007, +8.57136978868E+000, +1.02905245311E+003
+3.23636000000E+007, +9.72963204080E+000, +1.04781705876E+003
+3.26085500000E+007, +1.01064160269E+001, +1.06603748056E+003
+3.28535000000E+007, +1.33239429589E+001, +1.08118417230E+003
+3.30984500000E+007, +1.15970476959E+001, +1.09870576496E+003
+3.33434000000E+007, +9.65822478665E+000, +1.11210598215E+003
+3.35883500000E+007, +1.07994973742E+001, +1.13269810531E+003
+3.38333000000E+007, +1.14591682680E+001, +1.15092391581E+003
+3.40782500000E+007, +1.44530207965E+001, +1.17400525416E+003
+3.43232000000E+007, +1.43667716145E+001, +1.18432114365E+003
+3.45681500000E+007, +1.51321444599E+001, +1.21066118372E+003
+3.48131000000E+007, +1.90360518346E+001, +1.22664122743E+003
+3.50580500000E+007, +1.45467177592E+001, +1.24976859606E+003
+3.53030000000E+007, +2.01044106562E+001, +1.27758972757E+003
+3.55479500000E+007, +2.52812875292E+001, +1.29244184425E+003
+3.57929000000E+007, +1.98132451309E+001, +1.32381968064E+003
+3.60378500000E+007, +2.78514233127E+001, +1.34333914078E+003
+3.62828000000E+007, +3.05528716948E+001, +1.35753655526E+003
+3.65277500000E+007, +2.49125189056E+001, +1.38812509288E+003
+3.67727000000E+007, +2.36236603406E+001, +1.40712355252E+003
+3.70176500000E+007, +3.58345209179E+001, +1.44514790128E+003
+3.72626000000E+007, +2.90483158443E+001, +1.46903314416E+003
+3.75075500000E+007, +3.32477110116E+001, +1.49542874162E+003
+3.77525000000E+007, +3.75226013475E+001, +1.51947609312E+003
+3.79974500000E+007, +3.82999154076E+001, +1.54782945819E+003
+3.82424000000E+007, +3.67750483252E+001, +1.59998706500E+003
+3.84873500000E+007, +2.89997912404E+001, +1.62480140740E+003
+3.87323000000E+007, +4.59922142437E+001, +1.65912955890E+003
+3.89772500000E+007, +4.41307265461E+001, +1.68555995116E+003
+3.92222000000E+007, +5.42023413696E+001, +1.71888500687E+003
+3.94671500000E+007, +6.60495406626E+001, +1.77148661262E+003
+3.97121000000E+007, +4.37239088369E+001, +1.82333396571E+003
+3.99570500000E+007, +5.26478052801E+001, +1.84284529744E+003
+4.02020000000E+007, +6.35441031690E+001, +1.88756041709E+003
+4.04469500000E+007, +4.35828191696E+001, +1.92467478727E+003
+4.06919000000E+007, +5.83980654657E+001, +1.97652329710E+003
+4.09368500000E+007, +6.85679255372E+001, +2.02151508946E+003
+4.11818000000E+007, +6.12754303938E+001, +2.06342694829E+003
+4.14267500000E+007, +7.00558824797E+001, +2.11190056673E+003
+4.16717000000E+007, +6.99049902944E+001, +2.19629733091E+003
+4.19166500000E+007, +8.32351135688E+001, +2.25377469512E+003
+4.21616000000E+007, +8.76538218696E+001, +2.29874936251E+003
+4.24065500000E+007, +8.93608557137E+001, +2.37211865265E+003
+4.26515000000E+007, +1.00517310819E+002, +2.40623226018E+003
+4.28964500000E+007, +1.07787292217E+002, +2.49726247082E+003
+4.31414000000E+007, +9.87541721957E+001, +2.59615116060E+003
+4.33863500000E+007, +1.04573386086E+002, +2.70364111240E+003
+4.36313000000E+007, +1.06621953032E+002, +2.73924816621E+003
+4.38762500000E+007, +1.36139494315E+002, +2.84123437034E+003
+4.41212000000E+007, +1.19548544817E+002, +2.92410000365E+003
+4.43661500000E+007, +1.14952413889E+002, +3.07021036128E+003
+4.46111000000E+007, +1.34324241498E+002, +3.19460955982E+003
+4.48560500000E+007, +2.24049855498E+002, +3.26862963269E+003
+4.51010000000E+007, +1.87470974677E+002, +3.42231137750E+003
+4.53459500000E+007, +1.81267129911E+002, +3.61839500966E+003
+4.55909000000E+007, +2.28396810448E+002, +3.75129298241E+003
+4.58358500000E+007, +1.87512487642E+002, +3.89131661021E+003
+4.60808000000E+007, +2.29236123844E+002, +4.09608089019E+003
+4.63257500000E+007, +3.81323812607E+002, +4.24731253849E+003
+4.65707000000E+007, +2.86868408400E+002, +4.36930158570E+003
+4.68156500000E+007, +4.36846240676E+002, +4.71725172958E+003
+4.70606000000E+007, +4.74995241976E+002, +5.01625185746E+003
+4.73055500000E+007, +4.92526800077E+002, +5.41160032886E+003
+4.75505000000E+007, +7.57432995978E+002, +5.89684919629E+003
+4.77954500000E+007, +6.92943293451E+002, +6.15536364910E+003
+4.80404000000E+007, +6.68886169851E+002, +6.72143324676E+003
+4.82853500000E+007, +1.08036025889E+003, +7.21340731632E+003
+4.85303000000E+007, +1.09776320752E+003, +7.90802584511E+003
+4.87752500000E+007, +1.36951950676E+003, +8.79782481620E+003
+4.90202000000E+007, +2.05841568686E+003, +9.93412368945E+003
+4.92651500000E+007, +3.28203278494E+003, +1.14459199263E+004
+4.95101000000E+007, +3.30105044159E+003, +1.19925075061E+004
+4.97550500000E+007, +5.57383362709E+003, +1.43822075111E+004
+5.00000000000E+007, +7.67017783343E+003, +1.71681144025E+004
