"# Channel 1"
"# Trace 1"
Frequency, Formatted Data, Formatted Data
+1.01000000000E+006, +5.35233154663E+001, +2.50984506450E+001
+1.25495000000E+006, +5.35778801681E+001, +3.11975894773E+001
+1.49990000000E+006, +5.35714839764E+001, +3.72016855699E+001
+1.74485000000E+006, +5.35426554246E+001, +4.33386868605E+001
+1.98980000000E+006, +5.36245715378E+001, +4.93293875577E+001
+2.23475000000E+006, +5.35009188358E+001, +5.54212524541E+001
+2.47970000000E+006, +5.36444256012E+001, +6.16317479766E+001
+2.72465000000E+006, +5.36005929547E+001, +6.76992400513E+001
+2.96960000000E+006, +5.35615872739E+001, +7.37437902895E+001
+3.21455000000E+006, +5.37060358456E+001, +7.98441077213E+001
+3.45950000000E+006, +5.37376226899E+001, +8.58704571654E+001
+3.70445000000E+006, +5.38778400692E+001, +9.21442697385E+001
+3.94940000000E+006, +5.38866838478E+001, +9.80637103335E+001
+4.19435000000E+006, +5.39725678875E+001, +1.04842014596E+002
+4.43930000000E+006, +5.38716990150E+001, +1.10818369049E+002
+4.68425000000E+006, +5.43107926530E+001, +1.16826857514E+002
+4.92920000000E+006, +5.41573550431E+001, +1.23209065250E+002
+5.17415000000E+006, +5.43381244582E+001, +1.29392454483E+002
+5.41910000000E+006, +5.43968924187E+001, +1.35910253902E+002
+5.66405000000E+006, +5.43518520117E+001, +1.41974543921E+002
+5.90900000000E+006, +5.47987396922E+001, +1.48237879451E+002
+6.15395000000E+006, +5.50504994999E+001, +1.54328854825E+002
+6.39890000000E+006, +5.49525267311E+001, +1.60742503540E+002
+6.64385000000E+006, +5.53047926573E+001, +1.67372343314E+002
+6.88880000000E+006, +5.54049380650E+001, +1.73618899256E+002
+7.13375000000E+006, +5.56664945116E+001, +1.80102106346E+002
+7.37870000000E+006, +5.58600147488E+001, +1.86488131591E+002
+7.62365000000E+006, +5.61368657454E+001, +1.93094078717E+002
+7.86860000000E+006, +5.62213877335E+001, +1.99707317632E+002
+8.11355000000E+006, +5.63733048728E+001, +2.06367571537E+002
+8.35850000000E+006, +5.65476634889E+001, +2.12532718907E+002
+8.60345000000E+006, +5.69397481871E+001, +2.19083432268E+002
+8.84840000000E+006, +5.70919505802E+001, +2.25340276989E+002
+9.09335000000E+006, +5.70351024994E+001, +2.32696441796E+002
+9.33830000000E+006, +5.77941224640E+001, +2.39344952830E+002
+9.58325000000E+006, +5.79215791256E+001, +2.46135884523E+002
+9.82820000000E+006, +5.80377106868E+001, +2.52682329844E+002
+1.00731500000E+007, +5.81160084423E+001, +2.59794678721E+002
+1.03181000000E+007, +5.85941239264E+001, +2.66940913859E+002
+1.05630500000E+007, +5.82415522471E+001, +2.73184318274E+002
+1.08080000000E+007, +5.87466694164E+001, +2.80422526932E+002
+1.10529500000E+007, +5.96396255630E+001, +2.87614416942E+002
+1.12979000000E+007, +5.97150901808E+001, +2.94627752141E+002
+1.15428500000E+007, +6.00382582167E+001, +3.02222055318E+002
+1.17878000000E+007, +6.00878051938E+001, +3.08756156483E+002
+1.20327500000E+007, +6.01436284755E+001, +3.16261627467E+002
+1.22777000000E+007, +6.02919762397E+001, +3.23772907251E+002
+1.25226500000E+007, +6.06982547795E+001, +3.30136657749E+002
+1.27676000000E+007, +6.16656461496E+001, +3.38173093752E+002
+1.30125500000E+007, +6.16551958899E+001, +3.45419026131E+002
+1.32575000000E+007, +6.27891773697E+001, +3.54389693795E+002
+1.35024500000E+007, +6.31784382951E+001, +3.60916723630E+002
+1.37474000000E+007, +6.26505536446E+001, +3.68890935627E+002
+1.39923500000E+007, +6.33654389969E+001, +3.76491891024E+002
+1.42373000000E+007, +6.36677227607E+001, +3.84063366161E+002
+1.44822500000E+007, +6.37613419556E+001, +3.92668774336E+002
+1.47272000000E+007, +6.46220173491E+001, +3.99887510314E+002
+1.49721500000E+007, +6.44823169867E+001, +4.07599289825E+002
+1.52171000000E+007, +6.51415495984E+001, +4.16052263729E+002
+1.54620500000E+007, +6.58427811938E+001, +4.24126876855E+002
+1.57070000000E+007, +6.69383711813E+001, +4.31525838605E+002
+1.59519500000E+007, +6.71309344933E+001, +4.40423517495E+002
+1.61969000000E+007, +6.78698698069E+001, +4.49567685285E+002
+1.64418500000E+007, +6.82162038753E+001, +4.57593927527E+002
+1.66868000000E+007, +6.98596808109E+001, +4.67067690689E+002
+1.69317500000E+007, +7.00208515052E+001, +4.74481733114E+002
+1.71767000000E+007, +6.81778621527E+001, +4.84221128931E+002
+1.74216500000E+007, +7.00243935398E+001, +4.93269927639E+002
+1.76666000000E+007, +6.91825762778E+001, +5.02412846061E+002
+1.79115500000E+007, +7.21228294705E+001, +5.10072616597E+002
+1.81565000000E+007, +7.25013814177E+001, +5.20506415307E+002
+1.84014500000E+007, +7.18067012480E+001, +5.28985201046E+002
+1.86464000000E+007, +7.23526141044E+001, +5.40322410413E+002
+1.88913500000E+007, +7.58335045762E+001, +5.47306565681E+002
+1.91363000000E+007, +7.56444894208E+001, +5.57678886776E+002
+1.93812500000E+007, +7.67474084922E+001, +5.70331096921E+002
+1.96262000000E+007, +7.77512851803E+001, +5.79094636446E+002
+1.98711500000E+007, +8.00373906651E+001, +5.87454144914E+002
+2.01161000000E+007, +7.94153244171E+001, +5.99328596241E+002
+2.03610500000E+007, +8.06585459378E+001, +6.10546471960E+002
+2.06060000000E+007, +8.26601584216E+001, +6.19639280182E+002
+2.08509500000E+007, +8.33204092266E+001, +6.30310237860E+002
+2.10959000000E+007, +8.00793185847E+001, +6.41042130906E+002
+2.13408500000E+007, +8.30996905310E+001, +6.50732626604E+002
+2.15858000000E+007, +8.54129951079E+001, +6.63626372763E+002
+2.18307500000E+007, +8.54871044589E+001, +6.76664982306E+002
+2.20757000000E+007, +8.79812881556E+001, +6.90111753727E+002
+2.23206500000E+007, +9.21175899019E+001, +7.00800559824E+002
+2.25656000000E+007, +9.18564522704E+001, +7.14206574811E+002
+2.28105500000E+007, +9.26271668185E+001, +7.24846086745E+002
+2.30555000000E+007, +9.54071338296E+001, +7.37189547652E+002
+2.33004500000E+007, +9.50528178586E+001, +7.52903183753E+002
+2.35454000000E+007, +9.76740672926E+001, +7.60501064289E+002
+2.37903500000E+007, +1.00163900375E+002, +7.73337065754E+002
+2.40353000000E+007, +9.91440232583E+001, +7.90636955148E+002
+2.42802500000E+007, +1.01963609337E+002, +8.02025655742E+002
+2.45252000000E+007, +1.06420004195E+002, +8.21159708092E+002
+2.47701500000E+007, +1.09577407381E+002, +8.32452713513E+002
+2.50151000000E+007, +1.10315014291E+002, +8.46383407044E+002
+2.52600500000E+007, +1.07633358587E+002, +8.60517145298E+002
+2.55050000000E+007, +1.12097659200E+002, +8.76583361579E+002
+2.57499500000E+007, +1.16944024982E+002, +8.92706291887E+002
+2.59949000000E+007, +1.21932019248E+002, +9.08208953211E+002
+2.62398500000E+007, +1.23095819544E+002, +9.24644149387E+002
+2.64848000000E+007, +1.23126626385E+002, +9.41331427273E+002
+2.67297500000E+007, +1.29865757752E+002, +9.55589780971E+002
+2.69747000000E+007, +1.33544344581E+002, +9.76728555545E+002
+2.72196500000E+007, +1.25791372317E+002, +9.91347152520E+002
+2.74646000000E+007, +1.31563349260E+002, +1.01027857595E+003
+2.77095500000E+007, +1.43151921217E+002, +1.02591176083E+003
+2.79545000000E+007, +1.42955384951E+002, +1.04445980402E+003
+2.81994500000E+007, +1.48041085860E+002, +1.06882024593E+003
+2.84444000000E+007, +1.49839829308E+002, +1.08937953412E+003
+2.86893500000E+007, +1.54110182864E+002, +1.11550887678E+003
+2.89343000000E+007, +1.63021596680E+002, +1.12589145683E+003
+2.91792500000E+007, +1.60188451197E+002, +1.15366687545E+003
+2.94242000000E+007, +1.76341956818E+002, +1.17724402786E+003
+2.96691500000E+007, +1.69836973813E+002, +1.19161335047E+003
+2.99141000000E+007, +1.74762859507E+002, +1.22752862537E+003
+3.01590500000E+007, +1.90920426814E+002, +1.25381117728E+003
+3.04040000000E+007, +1.91563993551E+002, +1.27219333606E+003
+3.06489500000E+007, +1.94765751404E+002, +1.29557254935E+003
+3.08939000000E+007, +1.94877620422E+002, +1.31756279643E+003
+3.11388500000E+007, +2.08521929990E+002, +1.35402590651E+003
+3.13838000000E+007, +2.12996460465E+002, +1.37381597646E+003
+3.16287500000E+007, +2.38620398212E+002, +1.40699878555E+003
+3.18737000000E+007, +2.47082195470E+002, +1.44523892487E+003
+3.21186500000E+007, +2.41129286779E+002, +1.47793352301E+003
+3.23636000000E+007, +2.60333767951E+002, +1.50977544018E+003
+3.26085500000E+007, +2.55900171069E+002, +1.54145582367E+003
+3.28535000000E+007, +2.73240579058E+002, +1.57478295772E+003
+3.30984500000E+007, +2.87885818502E+002, +1.62198825965E+003
+3.33434000000E+007, +2.82037432492E+002, +1.66121278208E+003
+3.35883500000E+007, +3.13270754864E+002, +1.69679683058E+003
+3.38333000000E+007, +3.15242615664E+002, +1.72616956372E+003
+3.40782500000E+007, +3.47092632666E+002, +1.78244599790E+003
+3.43232000000E+007, +3.62308676803E+002, +1.82365804466E+003
+3.45681500000E+007, +3.59543244963E+002, +1.88357957135E+003
+3.48131000000E+007, +3.99308507345E+002, +1.91117552105E+003
+3.50580500000E+007, +4.08752124154E+002, +1.97522002254E+003
+3.53030000000E+007, +4.47822984292E+002, +2.03858224973E+003
+3.55479500000E+007, +4.66593289928E+002, +2.05911849957E+003
+3.57929000000E+007, +4.74338668920E+002, +2.12896804873E+003
+3.60378500000E+007, +5.16748471198E+002, +2.20794124590E+003
+3.62828000000E+007, +5.44045906182E+002, +2.24659689846E+003
+3.65277500000E+007, +5.57869203857E+002, +2.32336619282E+003
+3.67727000000E+007, +5.95109686527E+002, +2.38860641709E+003
+3.70176500000E+007, +6.40108761045E+002, +2.48349265427E+003
+3.72626000000E+007, +6.97619148023E+002, +2.58890745916E+003
+3.75075500000E+007, +7.67255588157E+002, +2.63428026610E+003
+3.77525000000E+007, +7.97634738342E+002, +2.75924597663E+003
+3.79974500000E+007, +8.83026805286E+002, +2.82871456032E+003
+3.82424000000E+007, +9.54905702120E+002, +2.98090431315E+003
+3.84873500000E+007, +1.02209285327E+003, +3.01881710609E+003
+3.87323000000E+007, +1.18735038268E+003, +3.16213192513E+003
+3.89772500000E+007, +1.21796997690E+003, +3.26600319220E+003
+3.92222000000E+007, +1.30545802057E+003, +3.38763013641E+003
+3.94671500000E+007, +1.47408191557E+003, +3.55896466013E+003
+3.97121000000E+007, +1.67241806267E+003, +3.73280872592E+003
+3.99570500000E+007, +1.79242662458E+003, +3.90039846172E+003
+4.02020000000E+007, +1.98693504523E+003, +4.08197946866E+003
+4.04469500000E+007, +2.22132197113E+003, +4.17621009939E+003
+4.06919000000E+007, +2.55617101344E+003, +4.32030716226E+003
+4.09368500000E+007, +2.81383142633E+003, +4.52637828184E+003
+4.11818000000E+007, +3.11116091283E+003, +4.67570891413E+003
+4.14267500000E+007, +3.55739568746E+003, +4.70384152645E+003
+4.16717000000E+007, +4.18172371315E+003, +5.06707294480E+003
+4.19166500000E+007, +4.77435462307E+003, +5.21678587747E+003
+4.21616000000E+007, +5.55561384180E+003, +5.31310172445E+003
+4.24065500000E+007, +5.96187575896E+003, +4.93577459974E+003
+4.26515000000E+007, +6.56163391435E+003, +4.47777878873E+003
+4.28964500000E+007, +7.50131830693E+003, +4.17953008995E+003
+4.31414000000E+007, +8.60360872831E+003, +3.40566077010E+003
+4.33863500000E+007, +9.79381008357E+003, +2.32522729328E+003
+4.36313000000E+007, +9.65563286186E+003, +1.51229327046E+003
+4.38762500000E+007, +9.91430759730E+003, -9.13151046753E+001
+4.41212000000E+007, +9.73737556778E+003, -1.00602484475E+003
+4.43661500000E+007, +9.09503852388E+003, -2.33039122940E+003
+4.46111000000E+007, +8.48375889573E+003, -3.44026318453E+003
+4.48560500000E+007, +7.96434379473E+003, -3.79367415412E+003
+4.51010000000E+007, +6.70338135559E+003, -4.51167513122E+003
+4.53459500000E+007, +5.77904473723E+003, -4.63972370152E+003
+4.55909000000E+007, +5.06548428795E+003, -4.76127823579E+003
+4.58358500000E+007, +4.47359222306E+003, -4.78256358941E+003
+4.60808000000E+007, +3.90607361123E+003, -4.80467232310E+003
+4.63257500000E+007, +3.67772380077E+003, -4.45667420409E+003
+4.65707000000E+007, +3.08828265001E+003, -4.41702470997E+003
+4.68156500000E+007, +2.62541262872E+003, -4.09767358299E+003
+4.70606000000E+007, +2.46946142291E+003, -3.95771489007E+003
+4.73055500000E+007, +2.17307730126E+003, -3.79676342314E+003
+4.75505000000E+007, +1.89231678594E+003, -3.62388124438E+003
+4.77954500000E+007, +1.71464992258E+003, -3.53347461426E+003
+4.80404000000E+007, +1.52587171763E+003, -3.37376292428E+003
+4.82853500000E+007, +1.44540852376E+003, -3.23659084972E+003
+4.85303000000E+007, +1.25166095694E+003, -3.06027622597E+003
+4.87752500000E+007, +1.20800648594E+003, -2.94223176165E+003
+4.90202000000E+007, +1.11786459251E+003, -2.83447383817E+003
+4.92651500000E+007, +1.00712462361E+003, -2.68727996778E+003
+4.95101000000E+007, +9.55424306682E+002, -2.64171790864E+003
+4.97550500000E+007, +8.93052620221E+002, -2.51207450158E+003
+5.00000000000E+007, +8.63907968352E+002, -2.43283139047E+003
