"# Channel 1"
"# Trace 1"
Frequency, Formatted Data, Formatted Data
+1.00000000000E+006, +5.76111664350E+001, +2.75233822074E+001
+1.34500000000E+006, +5.76918983759E+001, +3.70674335173E+001
+1.69000000000E+006, +5.77441804695E+001, +4.65652076843E+001
+2.03500000000E+006, +5.78037065139E+001, +5.61590614512E+001
+2.38000000000E+006, +5.78010628319E+001, +6.55305180764E+001
+2.72500000000E+006, +5.77835511282E+001, +7.52267481221E+001
+3.07000000000E+006, +5.79274781113E+001, +8.46790268540E+001
+3.41500000000E+006, +5.80781901605E+001, +9.45211349545E+001
+3.76000000000E+006, +5.80839948925E+001, +1.04055393780E+002
+4.10500000000E+006, +5.84215389187E+001, +1.13784100966E+002
+4.45000000000E+006, +5.80420981115E+001, +1.23052065119E+002
+4.79500000000E+006, +5.85471578860E+001, +1.33070795959E+002
+5.14000000000E+006, +5.87864709341E+001, +1.42797315727E+002
+5.48500000000E+006, +5.91077035472E+001, +1.52777333978E+002
+5.83000000000E+006, +5.96014881085E+001, +1.62310654167E+002
+6.17500000000E+006, +5.98372648514E+001, +1.72388265606E+002
+6.52000000000E+006, +5.99447629900E+001, +1.81917616927E+002
+6.86500000000E+006, +6.02693039880E+001, +1.91680913647E+002
+7.21000000000E+006, +6.05909418582E+001, +2.01560569035E+002
+7.55500000000E+006, +6.07329287956E+001, +2.11670648127E+002
+7.90000000000E+006, +6.08886493930E+001, +2.21509940636E+002
+8.24500000000E+006, +6.16415621898E+001, +2.31714912248E+002
+8.59000000000E+006, +6.13030645712E+001, +2.42306893331E+002
+8.93500000000E+006, +6.18125873429E+001, +2.52784925670E+002
+9.28000000000E+006, +6.14025101428E+001, +2.63360351159E+002
+9.62500000000E+006, +6.20142011476E+001, +2.73995171575E+002
+9.97000000000E+006, +6.19050207774E+001, +2.84925885309E+002
+1.03150000000E+007, +6.20910707138E+001, +2.95381308996E+002
+1.06600000000E+007, +6.27092700574E+001, +3.07126206902E+002
+1.10050000000E+007, +6.30342946814E+001, +3.17300097899E+002
+1.13500000000E+007, +6.37486145017E+001, +3.28656743039E+002
+1.16950000000E+007, +6.44799791698E+001, +3.40199509238E+002
+1.20400000000E+007, +6.44061430800E+001, +3.51834844059E+002
+1.23850000000E+007, +6.52676843205E+001, +3.62812166306E+002
+1.27300000000E+007, +6.49938563878E+001, +3.74647189547E+002
+1.30750000000E+007, +6.54989014213E+001, +3.86406511161E+002
+1.34200000000E+007, +6.57325804781E+001, +3.97651312949E+002
+1.37650000000E+007, +6.67424321821E+001, +4.09761644662E+002
+1.41100000000E+007, +6.71284429838E+001, +4.22470689542E+002
+1.44550000000E+007, +6.80413930910E+001, +4.34801239478E+002
+1.48000000000E+007, +6.89111413901E+001, +4.48162525012E+002
+1.51450000000E+007, +6.90016320392E+001, +4.59273471571E+002
+1.54900000000E+007, +7.02962021339E+001, +4.72138753944E+002
+1.58350000000E+007, +7.03721245958E+001, +4.86073173688E+002
+1.61800000000E+007, +7.16246709247E+001, +4.98330464632E+002
+1.65250000000E+007, +7.42026194884E+001, +5.11685760615E+002
+1.68700000000E+007, +7.33101194578E+001, +5.25186321060E+002
+1.72150000000E+007, +7.33591046792E+001, +5.41032518159E+002
+1.75600000000E+007, +7.43626763614E+001, +5.53988664685E+002
+1.79050000000E+007, +7.76932740261E+001, +5.67895175561E+002
+1.82500000000E+007, +7.88465937893E+001, +5.82894456191E+002
+1.85950000000E+007, +7.95804564376E+001, +5.98037442229E+002
+1.89400000000E+007, +8.04591418057E+001, +6.11593107312E+002
+1.92850000000E+007, +8.27147454797E+001, +6.27149904019E+002
+1.96300000000E+007, +7.99563180104E+001, +6.43169427853E+002
+1.99750000000E+007, +8.42237692268E+001, +6.58906209684E+002
+2.03200000000E+007, +8.34720033486E+001, +6.77770493908E+002
+2.06650000000E+007, +8.89226478530E+001, +6.92324314304E+002
+2.10100000000E+007, +8.91199364680E+001, +7.07945751614E+002
+2.13550000000E+007, +9.19669184678E+001, +7.28382414353E+002
+2.17000000000E+007, +9.35576802993E+001, +7.46709314821E+002
+2.20450000000E+007, +9.38053161870E+001, +7.64981134763E+002
+2.23900000000E+007, +9.79812338924E+001, +7.85543636019E+002
+2.27350000000E+007, +9.73506742199E+001, +8.04205151804E+002
+2.30800000000E+007, +1.02845069332E+002, +8.23123026157E+002
+2.34250000000E+007, +1.00645710968E+002, +8.43043811902E+002
+2.37700000000E+007, +1.09993549579E+002, +8.63375274661E+002
+2.41150000000E+007, +1.11583956308E+002, +8.88255135020E+002
+2.44600000000E+007, +1.15579565524E+002, +9.10815621804E+002
+2.48050000000E+007, +1.19230330756E+002, +9.35552317123E+002
+2.51500000000E+007, +1.22498962527E+002, +9.55260995160E+002
+2.54950000000E+007, +1.32471243927E+002, +9.81413504989E+002
+2.58400000000E+007, +1.33692155024E+002, +1.00099260887E+003
+2.61850000000E+007, +1.36185695719E+002, +1.03062745688E+003
+2.65300000000E+007, +1.40470292551E+002, +1.05662659512E+003
+2.68750000000E+007, +1.37756771358E+002, +1.08542727511E+003
+2.72200000000E+007, +1.50770547752E+002, +1.11438886503E+003
+2.75650000000E+007, +1.56445768097E+002, +1.14201458193E+003
+2.79100000000E+007, +1.62232400856E+002, +1.18200873425E+003
+2.82550000000E+007, +1.69436178104E+002, +1.20950635428E+003
+2.86000000000E+007, +1.69351696588E+002, +1.24136032777E+003
+2.89450000000E+007, +1.83886562226E+002, +1.28512992805E+003
+2.92900000000E+007, +1.82405196062E+002, +1.31255643958E+003
+2.96350000000E+007, +1.96535631153E+002, +1.36018172883E+003
+2.99800000000E+007, +2.04549923498E+002, +1.40982032543E+003
+3.03250000000E+007, +2.11314743894E+002, +1.44976546502E+003
+3.06700000000E+007, +2.27028381620E+002, +1.48292847313E+003
+3.10150000000E+007, +2.43479093828E+002, +1.54326415101E+003
+3.13600000000E+007, +2.51941249575E+002, +1.59249431465E+003
+3.17050000000E+007, +2.63657527279E+002, +1.64183685575E+003
+3.20500000000E+007, +3.08333987823E+002, +1.70533039457E+003
+3.23950000000E+007, +3.01103182103E+002, +1.77665227234E+003
+3.27400000000E+007, +3.28464925569E+002, +1.81384399377E+003
+3.30850000000E+007, +3.49669715255E+002, +1.90929724004E+003
+3.34300000000E+007, +3.76105915334E+002, +1.96036995366E+003
+3.37750000000E+007, +4.06686089221E+002, +2.06412878633E+003
+3.41200000000E+007, +4.34117343929E+002, +2.15094628729E+003
+3.44650000000E+007, +4.82081073442E+002, +2.21132174640E+003
+3.48100000000E+007, +4.99357878255E+002, +2.32663511192E+003
+3.51550000000E+007, +5.75750344229E+002, +2.44121796121E+003
+3.55000000000E+007, +6.13434726398E+002, +2.56714056126E+003
+3.58450000000E+007, +7.07323490483E+002, +2.69465026817E+003
+3.61900000000E+007, +7.78672643251E+002, +2.83951495251E+003
+3.65350000000E+007, +8.54324579522E+002, +2.97573191595E+003
+3.68800000000E+007, +1.01775350177E+003, +3.15993276142E+003
+3.72250000000E+007, +1.15482086228E+003, +3.37897690788E+003
+3.75700000000E+007, +1.36215476167E+003, +3.57141969869E+003
+3.79150000000E+007, +1.50886516129E+003, +3.81882415866E+003
+3.82600000000E+007, +1.74741581099E+003, +4.01955120189E+003
+3.86050000000E+007, +2.10678130214E+003, +4.27966219626E+003
+3.89500000000E+007, +2.49924029726E+003, +4.52357160103E+003
+3.92950000000E+007, +2.86817566634E+003, +4.81458256592E+003
+3.96400000000E+007, +3.76305713923E+003, +5.12354606001E+003
+3.99850000000E+007, +4.76186442014E+003, +5.36980992699E+003
+4.03300000000E+007, +5.81759577700E+003, +5.40301280849E+003
+4.06750000000E+007, +7.38273485858E+003, +5.57496713839E+003
+4.10200000000E+007, +8.62056299354E+003, +4.46906838886E+003
+4.13650000000E+007, +1.08929256632E+004, +2.01246727835E+003
+4.17100000000E+007, +1.07181896331E+004, -6.37160675764E+002
+4.20550000000E+007, +9.90552997348E+003, -2.25050397964E+003
+4.24000000000E+007, +8.43108035414E+003, -3.95533442010E+003
+4.27450000000E+007, +7.20495498648E+003, -4.66472251609E+003
+4.30900000000E+007, +5.27263285229E+003, -4.90412612499E+003
+4.34350000000E+007, +4.42458935286E+003, -4.77326586330E+003
+4.37800000000E+007, +3.57939909467E+003, -4.52502911654E+003
+4.41250000000E+007, +3.04058188581E+003, -4.45932641389E+003
+4.44700000000E+007, +2.54934163414E+003, -4.15807111560E+003
+4.48150000000E+007, +2.10208209885E+003, -3.88504366237E+003
+4.51600000000E+007, +1.72191481609E+003, -3.69736879037E+003
+4.55050000000E+007, +1.45814713173E+003, -3.48452513007E+003
+4.58500000000E+007, +1.22924209833E+003, -3.12376120574E+003
+4.61950000000E+007, +1.00024200283E+003, -2.93442275780E+003
+4.65400000000E+007, +9.33751431439E+002, -2.73605171303E+003
+4.68850000000E+007, +7.87513683606E+002, -2.55573116975E+003
+4.72300000000E+007, +7.06528489237E+002, -2.42029918199E+003
+4.75750000000E+007, +5.87651314356E+002, -2.26467301103E+003
+4.79200000000E+007, +5.59113006298E+002, -2.11936633682E+003
+4.82650000000E+007, +4.88123936974E+002, -1.99159698725E+003
+4.86100000000E+007, +4.37919823675E+002, -1.87859470385E+003
+4.89550000000E+007, +4.21446377296E+002, -1.78179342402E+003
+4.93000000000E+007, +3.66915959453E+002, -1.68714063485E+003
+4.96450000000E+007, +3.37564141362E+002, -1.58797711639E+003
+4.99900000000E+007, +3.20495215498E+002, -1.50865318185E+003
+5.03350000000E+007, +2.90771523326E+002, -1.43541507250E+003
+5.06800000000E+007, +2.68907335828E+002, -1.36667592952E+003
+5.10250000000E+007, +2.45311541183E+002, -1.29046750157E+003
+5.13700000000E+007, +2.26406660131E+002, -1.22827577604E+003
+5.17150000000E+007, +2.21094051261E+002, -1.16884901146E+003
+5.20600000000E+007, +2.06719288711E+002, -1.11197200285E+003
+5.24050000000E+007, +1.93643819514E+002, -1.05813705404E+003
+5.27500000000E+007, +1.80559771180E+002, -1.00559802713E+003
+5.30950000000E+007, +1.75817894825E+002, -9.57161092688E+002
+5.34400000000E+007, +1.65351204113E+002, -9.10185823003E+002
+5.37850000000E+007, +1.58310365266E+002, -8.68836767316E+002
+5.41300000000E+007, +1.53727910503E+002, -8.25141177234E+002
+5.44750000000E+007, +1.53363925381E+002, -7.86004338359E+002
+5.48200000000E+007, +1.47666188535E+002, -7.48751929440E+002
+5.51650000000E+007, +1.44726937440E+002, -7.14244589294E+002
+5.55100000000E+007, +1.41509876290E+002, -6.78161996894E+002
+5.58550000000E+007, +1.40146781883E+002, -6.47952970775E+002
+5.62000000000E+007, +1.39020000800E+002, -6.17778850121E+002
+5.65450000000E+007, +1.38063500051E+002, -5.89983627669E+002
+5.68900000000E+007, +1.31982414893E+002, -5.63257559690E+002
+5.72350000000E+007, +1.30063839274E+002, -5.36911492742E+002
+5.75800000000E+007, +1.25145755374E+002, -5.10477410324E+002
+5.79250000000E+007, +1.23662448613E+002, -4.84560219013E+002
+5.82700000000E+007, +1.21649307112E+002, -4.59138961200E+002
+5.86150000000E+007, +1.21151487284E+002, -4.34339412402E+002
+5.89600000000E+007, +1.19740058940E+002, -4.11542223149E+002
+5.93050000000E+007, +1.18379005089E+002, -3.87956952092E+002
+5.96500000000E+007, +1.18299784701E+002, -3.65665770251E+002
+5.99950000000E+007, +1.17971463708E+002, -3.44098615102E+002
+6.03400000000E+007, +1.18306501750E+002, -3.23462633447E+002
+6.06850000000E+007, +1.19905669771E+002, -3.02840769824E+002
+6.10300000000E+007, +1.21486021977E+002, -2.84402305990E+002
+6.13750000000E+007, +1.24111499077E+002, -2.66920452079E+002
+6.17200000000E+007, +1.25245715434E+002, -2.51024863065E+002
+6.20650000000E+007, +1.26597486824E+002, -2.37178499270E+002
+6.24100000000E+007, +1.26217105507E+002, -2.23229536848E+002
+6.27550000000E+007, +1.25242917126E+002, -2.09945992379E+002
+6.31000000000E+007, +1.22581462636E+002, -1.96642879231E+002
+6.34450000000E+007, +1.19461488370E+002, -1.82281953632E+002
+6.37900000000E+007, +1.16184751165E+002, -1.67788446028E+002
+6.41350000000E+007, +1.13398092725E+002, -1.51866370526E+002
+6.44800000000E+007, +1.11177707723E+002, -1.35984646978E+002
+6.48250000000E+007, +1.09312196256E+002, -1.20209880375E+002
+6.51700000000E+007, +1.08650332505E+002, -1.04907555354E+002
+6.55150000000E+007, +1.08026207243E+002, -8.93552213992E+001
+6.58600000000E+007, +1.08110495860E+002, -7.42671533080E+001
+6.62050000000E+007, +1.08792871064E+002, -6.03372956688E+001
+6.65500000000E+007, +1.09222947966E+002, -4.77092029055E+001
+6.68950000000E+007, +1.08542454433E+002, -3.64166988733E+001
+6.72400000000E+007, +1.05973552575E+002, -2.44538868695E+001
+6.75850000000E+007, +1.03090154297E+002, -1.12464190967E+001
+6.79300000000E+007, +1.00699061547E+002, +2.71118929027E+000
+6.82750000000E+007, +9.86934527452E+001, +1.69488009750E+001
+6.86200000000E+007, +9.68104711049E+001, +3.13058763178E+001
+6.89650000000E+007, +9.50671479075E+001, +4.60888467198E+001
+6.93100000000E+007, +9.39006803696E+001, +6.13674533532E+001
+6.96550000000E+007, +9.34678931247E+001, +7.68198723845E+001
+7.00000000000E+007, +9.38266077129E+001, +9.21088311439E+001
