"# Channel 1"
"# Trace 1"
Frequency, Formatted Data, Formatted Data
+1.00000000000E+005, +3.67987622765E+001, +3.01457747961E+000
+8.49500000000E+005, +3.69277630381E+001, +2.46994234968E+001
+1.59900000000E+006, +3.70416212712E+001, +4.63896569809E+001
+2.34850000000E+006, +3.74641395989E+001, +6.83736209732E+001
+3.09800000000E+006, +3.77494318467E+001, +9.08529042209E+001
+3.84750000000E+006, +3.85889692217E+001, +1.13729609082E+002
+4.59700000000E+006, +3.92119162053E+001, +1.37259108200E+002
+5.34650000000E+006, +4.03256082941E+001, +1.61682452656E+002
+6.09600000000E+006, +4.24626542616E+001, +1.87078094678E+002
+6.84550000000E+006, +4.40897143030E+001, +2.14161001663E+002
+7.59500000000E+006, +4.59593747117E+001, +2.42403670822E+002
+8.34450000000E+006, +4.86068308203E+001, +2.72153844733E+002
+9.09400000000E+006, +5.10694591265E+001, +3.04791303605E+002
+9.84350000000E+006, +5.53610623688E+001, +3.40366505663E+002
+1.05930000000E+007, +5.85567408179E+001, +3.78010178096E+002
+1.13425000000E+007, +6.24405333197E+001, +4.20018065080E+002
+1.20920000000E+007, +6.87926115328E+001, +4.65997952795E+002
+1.28415000000E+007, +7.63657539967E+001, +5.17772857271E+002
+1.35910000000E+007, +8.40369147287E+001, +5.78375307957E+002
+1.43405000000E+007, +9.79055475996E+001, +6.44693635245E+002
+1.50900000000E+007, +1.11065244282E+002, +7.23921305853E+002
+1.58395000000E+007, +1.30309495477E+002, +8.12895406399E+002
+1.65890000000E+007, +1.56132709824E+002, +9.31436283724E+002
+1.73385000000E+007, +1.86633268659E+002, +1.07777577640E+003
+1.80880000000E+007, +2.47647765676E+002, +1.25130301682E+003
+1.88375000000E+007, +3.38893105037E+002, +1.47934132741E+003
+1.95870000000E+007, +4.64206230365E+002, +1.80200528646E+003
+2.03365000000E+007, +7.43002416957E+002, +2.26287959982E+003
+2.10860000000E+007, +1.34068684198E+003, +2.97850119608E+003
+2.18355000000E+007, +2.79443411694E+003, +3.86410759135E+003
+2.25850000000E+007, +7.35554295945E+003, +3.33830126240E+003
+2.33345000000E+007, +6.61839072897E+003, -3.64675553933E+003
+2.40840000000E+007, +2.67003955619E+003, -3.78292738985E+003
+2.48335000000E+007, +1.34106075840E+003, -2.95985198149E+003
+2.55830000000E+007, +8.42181200163E+002, -2.31423451038E+003
+2.63325000000E+007, +5.68253087410E+002, -1.93853644988E+003
+2.70820000000E+007, +3.72049114145E+002, -1.62817085584E+003
+2.78315000000E+007, +2.65798333843E+002, -1.39726383925E+003
+2.85810000000E+007, +1.96327234025E+002, -1.21501796666E+003
+2.93305000000E+007, +1.59075482007E+002, -1.05584605429E+003
+3.00800000000E+007, +1.38024904162E+002, -9.48066253247E+002
+3.08295000000E+007, +1.14410577209E+002, -8.56395905677E+002
+3.15790000000E+007, +9.87808210634E+001, -7.71627480917E+002
+3.23285000000E+007, +9.02457131610E+001, -7.03920826178E+002
+3.30780000000E+007, +8.29389601096E+001, -6.46056153458E+002
+3.38275000000E+007, +7.78893952734E+001, -5.93053221088E+002
+3.45770000000E+007, +7.24047473765E+001, -5.48328394768E+002
+3.53265000000E+007, +6.80650320675E+001, -5.04627011685E+002
+3.60760000000E+007, +6.46358945983E+001, -4.66172828074E+002
+3.68255000000E+007, +6.36003169683E+001, -4.27688776629E+002
+3.75750000000E+007, +6.50471869782E+001, -3.95407445667E+002
+3.83245000000E+007, +6.43982611708E+001, -3.67799179952E+002
+3.90740000000E+007, +6.06645705551E+001, -3.40711527317E+002
+3.98235000000E+007, +5.74938937306E+001, -3.11368514257E+002
+4.05730000000E+007, +5.57870229685E+001, -2.81390730978E+002
+4.13225000000E+007, +5.61609105932E+001, -2.52956050422E+002
+4.20720000000E+007, +5.73681043400E+001, -2.24827207333E+002
+4.28215000000E+007, +6.06474652175E+001, -1.97409955832E+002
+4.35710000000E+007, +6.55561182082E+001, -1.70923551792E+002
+4.43205000000E+007, +6.95097122564E+001, -1.48038060025E+002
+4.50700000000E+007, +6.98123594457E+001, -1.23526056699E+002
+4.58195000000E+007, +7.12148316952E+001, -9.39616102734E+001
+4.65690000000E+007, +7.56156457622E+001, -6.29439562180E+001
+4.73185000000E+007, +8.21859279012E+001, -3.04032716307E+001
+4.80680000000E+007, +9.27448188722E+001, +5.21664498015E+000
+4.88175000000E+007, +1.10367434855E+002, +3.94974012590E+001
+4.95670000000E+007, +1.26737919808E+002, +6.75317276089E+001
+5.03165000000E+007, +1.38832622825E+002, +1.01212967029E+002
+5.10660000000E+007, +1.55113367166E+002, +1.41000230817E+002
+5.18155000000E+007, +1.76387800550E+002, +1.85012270448E+002
+5.25650000000E+007, +2.01684372990E+002, +2.33991785409E+002
+5.33145000000E+007, +2.32663267172E+002, +2.94446886055E+002
+5.40640000000E+007, +2.79252801908E+002, +3.65610897843E+002
+5.48135000000E+007, +3.35937620270E+002, +4.47071228381E+002
+5.55630000000E+007, +4.27805385912E+002, +5.62606332601E+002
+5.63125000000E+007, +5.95902219561E+002, +7.02261060135E+002
+5.70620000000E+007, +8.65964595637E+002, +8.17018232006E+002
+5.78115000000E+007, +1.29664585871E+003, +8.65204218858E+002
+5.85610000000E+007, +1.97110024937E+003, +6.35077028622E+002
+5.93105000000E+007, +2.36807639397E+003, -3.58562471881E+002
+6.00600000000E+007, +1.78211005185E+003, -1.06376009088E+003
+6.08095000000E+007, +1.35824701363E+003, -1.22671278765E+003
+6.15590000000E+007, +9.73353579159E+002, -1.28228669047E+003
+6.23085000000E+007, +6.90442446201E+002, -1.23058230814E+003
+6.30580000000E+007, +4.71985707368E+002, -1.13611850744E+003
+6.38075000000E+007, +3.49736389258E+002, -1.01098934950E+003
+6.45570000000E+007, +2.72289837582E+002, -9.22378822052E+002
+6.53065000000E+007, +2.10015062535E+002, -8.48382524048E+002
+6.60560000000E+007, +1.73749529478E+002, -7.77982421992E+002
+6.68055000000E+007, +1.48610398216E+002, -7.14813098916E+002
+6.75550000000E+007, +1.30728097576E+002, -6.66063751106E+002
+6.83045000000E+007, +1.15762441165E+002, -6.24715736858E+002
+6.90540000000E+007, +1.07170847250E+002, -5.90681395059E+002
+6.98035000000E+007, +9.90270277878E+001, -5.59932930496E+002
+7.05530000000E+007, +9.16362019590E+001, -5.36313188111E+002
+7.13025000000E+007, +8.48922193108E+001, -5.15721931195E+002
+7.20520000000E+007, +7.64121411195E+001, -4.95304002110E+002
+7.28015000000E+007, +6.64762280655E+001, -4.74918032321E+002
+7.35510000000E+007, +5.86286080182E+001, -4.55699760009E+002
+7.43005000000E+007, +5.31581825260E+001, -4.36453845308E+002
+7.50500000000E+007, +4.87508691448E+001, -4.18514661751E+002
+7.57995000000E+007, +4.55034618639E+001, -4.02400614621E+002
+7.65490000000E+007, +4.07090688361E+001, -3.87267215110E+002
+7.72985000000E+007, +3.69216382980E+001, -3.72437976530E+002
+7.80480000000E+007, +3.29769362076E+001, -3.57237866390E+002
+7.87975000000E+007, +3.09444269933E+001, -3.42984786046E+002
+7.95470000000E+007, +2.92290610567E+001, -3.29263937990E+002
+8.02965000000E+007, +2.72552249532E+001, -3.15915615261E+002
+8.10460000000E+007, +2.62515295192E+001, -3.03511311877E+002
+8.17955000000E+007, +2.49490570856E+001, -2.91262593972E+002
+8.25450000000E+007, +2.40530120163E+001, -2.79158297228E+002
+8.32945000000E+007, +2.39374983264E+001, -2.68053688431E+002
+8.40440000000E+007, +2.38962928878E+001, -2.57095179242E+002
+8.47935000000E+007, +2.33329496615E+001, -2.46926478150E+002
+8.55430000000E+007, +2.28985396746E+001, -2.36496774176E+002
+8.62925000000E+007, +2.26145555116E+001, -2.26217856926E+002
+8.70420000000E+007, +2.21883736504E+001, -2.15745522150E+002
+8.77915000000E+007, +2.20608313936E+001, -2.05541782734E+002
+8.85410000000E+007, +2.19502198057E+001, -1.95110721188E+002
+8.92905000000E+007, +2.22027073796E+001, -1.84866997498E+002
+9.00400000000E+007, +2.23250144420E+001, -1.74350081182E+002
+9.07895000000E+007, +2.26724237031E+001, -1.63660775853E+002
+9.15390000000E+007, +2.32173108182E+001, -1.52898367558E+002
+9.22885000000E+007, +2.42090254051E+001, -1.41818395887E+002
+9.30380000000E+007, +2.54775639539E+001, -1.30550361494E+002
+9.37875000000E+007, +2.70449271881E+001, -1.19019181243E+002
+9.45370000000E+007, +2.88853110854E+001, -1.07554623003E+002
+9.52865000000E+007, +3.10422907967E+001, -9.58109740127E+001
+9.60360000000E+007, +3.34985612774E+001, -8.35877696745E+001
+9.67855000000E+007, +3.63523709648E+001, -7.12346610571E+001
+9.75350000000E+007, +3.94505327704E+001, -5.85719736263E+001
+9.82845000000E+007, +4.27497195700E+001, -4.57247011560E+001
+9.90340000000E+007, +4.58662979075E+001, -3.14574755279E+001
+9.97835000000E+007, +4.92492598045E+001, -1.59941194900E+001
+1.00533000000E+008, +5.36623066182E+001, +1.36127270359E+000
+1.01282500000E+008, +5.97221669380E+001, +2.04600180567E+001
+1.02032000000E+008, +6.79242817636E+001, +4.11960617595E+001
+1.02781500000E+008, +7.88378681964E+001, +6.33594361578E+001
+1.03531000000E+008, +9.28821911827E+001, +8.66925614838E+001
+1.04280500000E+008, +1.11772282715E+002, +1.12174186022E+002
+1.05030000000E+008, +1.34738701513E+002, +1.36352362836E+002
+1.05779500000E+008, +1.63839161148E+002, +1.59559330031E+002
+1.06529000000E+008, +2.00013079979E+002, +1.81139433654E+002
+1.07278500000E+008, +2.43441113207E+002, +1.95532568439E+002
+1.08028000000E+008, +2.88308831928E+002, +1.96722340527E+002
+1.08777500000E+008, +3.23786765517E+002, +1.90482214554E+002
+1.09527000000E+008, +3.51329482321E+002, +1.89756665456E+002
+1.10276500000E+008, +3.81159111614E+002, +1.96305595738E+002
+1.11026000000E+008, +4.17898751506E+002, +2.09301021320E+002
+1.11775500000E+008, +4.63905370406E+002, +2.27972094860E+002
+1.12525000000E+008, +5.31123815082E+002, +2.49815543834E+002
+1.13274500000E+008, +6.28019374446E+002, +2.60907404664E+002
+1.14024000000E+008, +7.61131032924E+002, +2.49469020477E+002
+1.14773500000E+008, +9.30230448837E+002, +1.79464007218E+002
+1.15523000000E+008, +1.07662740023E+003, +9.61050047864E+000
+1.16272500000E+008, +1.14464199102E+003, -2.48196251626E+002
+1.17022000000E+008, +1.06712475504E+003, -5.07935550822E+002
+1.17771500000E+008, +8.89577790129E+002, -6.76864109353E+002
+1.18521000000E+008, +7.13858332104E+002, -7.27461896515E+002
+1.19270500000E+008, +5.80505572106E+002, -7.45909566651E+002
+1.20020000000E+008, +4.61793835635E+002, -7.27096680403E+002
+1.20769500000E+008, +3.76517840780E+002, -6.93814352670E+002
+1.21519000000E+008, +3.13056055563E+002, -6.56389241565E+002
+1.22268500000E+008, +2.66330052509E+002, -6.19546570727E+002
+1.23018000000E+008, +2.30067450653E+002, -5.85854452258E+002
+1.23767500000E+008, +2.03965634436E+002, -5.56626834617E+002
+1.24517000000E+008, +1.84567445481E+002, -5.30401797571E+002
+1.25266500000E+008, +1.68116364568E+002, -5.08461565039E+002
+1.26016000000E+008, +1.55563540771E+002, -4.88722040345E+002
+1.26765500000E+008, +1.43116724656E+002, -4.72354290637E+002
+1.27515000000E+008, +1.32392160944E+002, -4.58096561202E+002
+1.28264500000E+008, +1.23253387816E+002, -4.44750717995E+002
+1.29014000000E+008, +1.13918629570E+002, -4.33052156402E+002
+1.29763500000E+008, +1.07239724072E+002, -4.22834734690E+002
+1.30513000000E+008, +9.61962746897E+001, -4.14774640036E+002
+1.31262500000E+008, +7.96185116537E+001, -4.00897687607E+002
+1.32012000000E+008, +7.60179670842E+001, -3.83752857439E+002
+1.32761500000E+008, +7.16502015095E+001, -3.73193781650E+002
+1.33511000000E+008, +6.59652339757E+001, -3.62657174787E+002
+1.34260500000E+008, +6.01002282174E+001, -3.52304832138E+002
+1.35010000000E+008, +5.60780744675E+001, -3.41657693528E+002
+1.35759500000E+008, +5.25069013556E+001, -3.30794330448E+002
+1.36509000000E+008, +4.97457072302E+001, -3.20018010358E+002
+1.37258500000E+008, +4.75579167296E+001, -3.10539305646E+002
+1.38008000000E+008, +4.61750160494E+001, -3.01230470319E+002
+1.38757500000E+008, +4.50255547722E+001, -2.92937496094E+002
+1.39507000000E+008, +4.36555444897E+001, -2.85381706013E+002
+1.40256500000E+008, +4.20341325883E+001, -2.78010652477E+002
+1.41006000000E+008, +4.09710549654E+001, -2.71018623758E+002
+1.41755500000E+008, +3.92428214448E+001, -2.63864915949E+002
+1.42505000000E+008, +3.74426679264E+001, -2.57207157278E+002
+1.43254500000E+008, +3.61585424469E+001, -2.49934920763E+002
+1.44004000000E+008, +3.47147588714E+001, -2.42682490549E+002
+1.44753500000E+008, +3.35450533899E+001, -2.35661323665E+002
+1.45503000000E+008, +3.24085770673E+001, -2.28203864777E+002
+1.46252500000E+008, +3.14934130483E+001, -2.21139309779E+002
+1.47002000000E+008, +3.05730323965E+001, -2.13951505560E+002
+1.47751500000E+008, +3.00581527898E+001, -2.06530074883E+002
+1.48501000000E+008, +2.94944910906E+001, -1.99065271674E+002
+1.49250500000E+008, +2.94305230264E+001, -1.91579188932E+002
+1.50000000000E+008, +2.94625957579E+001, -1.83964975340E+002
