"# Channel 1"
"# Trace 1"
Frequency, Formatted Data, Formatted Data
+1.00000000000E+005, +7.72735897414E+001, +1.65539175192E+000
+1.03010033445E+005, +7.69988035368E+001, +1.66188530707E+000
+1.06020066890E+005, +7.70665957083E+001, +1.83595720985E+000
+1.09030100334E+005, +7.69767601550E+001, +1.81076632543E+000
+1.12040133779E+005, +7.70525429848E+001, +1.88097806229E+000
+1.15050167224E+005, +7.71713544039E+001, +1.89145622678E+000
+1.18060200669E+005, +7.70033118705E+001, +2.02895762705E+000
+1.21070234114E+005, +7.71015403174E+001, +2.11735399005E+000
+1.24080267559E+005, +7.70099036425E+001, +2.15400407205E+000
+1.27090301003E+005, +7.70244200776E+001, +2.20603358598E+000
+1.30100334448E+005, +7.69402647512E+001, +2.33740816972E+000
+1.33110367893E+005, +7.70295435214E+001, +2.34795316480E+000
+1.36120401338E+005, +7.70558664240E+001, +2.25835587604E+000
+1.39130434783E+005, +7.70754563145E+001, +2.36247449922E+000
+1.42140468227E+005, +7.70417829323E+001, +2.55032623171E+000
+1.45150501672E+005, +7.70125007384E+001, +2.56749607486E+000
+1.48160535117E+005, +7.70572593961E+001, +2.60822686820E+000
+1.51170568562E+005, +7.71004888044E+001, +2.61976522386E+000
+1.54180602007E+005, +7.70858572358E+001, +2.62370105719E+000
+1.57190635452E+005, +7.70750673837E+001, +2.71201623356E+000
+1.60200668896E+005, +7.70555557552E+001, +2.85679135418E+000
+1.63210702341E+005, +7.70908890747E+001, +2.86903498137E+000
+1.66220735786E+005, +7.70939354027E+001, +2.92189547673E+000
+1.69230769231E+005, +7.70529113301E+001, +2.98725766688E+000
+1.72240802676E+005, +7.70358023936E+001, +3.12621331805E+000
+1.75250836120E+005, +7.69471817168E+001, +3.06904616230E+000
+1.78260869565E+005, +7.70842766595E+001, +3.10903925583E+000
+1.81270903010E+005, +7.70885332229E+001, +3.19533053855E+000
+1.84280936455E+005, +7.70264943484E+001, +3.24044368385E+000
+1.87290969900E+005, +7.71744893397E+001, +3.30752468167E+000
+1.90301003344E+005, +7.71334903648E+001, +3.26574856367E+000
+1.93311036789E+005, +7.70217980358E+001, +3.41746413396E+000
+1.96321070234E+005, +7.70967780150E+001, +3.46411145745E+000
+1.99331103679E+005, +7.71511598179E+001, +3.58040455765E+000
+2.02341137124E+005, +7.71785134087E+001, +3.56283034009E+000
+2.05351170569E+005, +7.70380694751E+001, +3.65337632630E+000
+2.08361204013E+005, +7.71178228745E+001, +3.67174719821E+000
+2.11371237458E+005, +7.70841911374E+001, +3.63035030668E+000
+2.14381270903E+005, +7.71446375184E+001, +3.61441808252E+000
+2.17391304348E+005, +7.72233017234E+001, +3.73707125253E+000
+2.20401337793E+005, +7.71007297755E+001, +3.79858663818E+000
+2.23411371237E+005, +7.71088093422E+001, +3.84581568386E+000
+2.26421404682E+005, +7.71512459157E+001, +3.79170087773E+000
+2.29431438127E+005, +7.70879712905E+001, +3.97445765847E+000
+2.32441471572E+005, +7.70759182912E+001, +4.06423193762E+000
+2.35451505017E+005, +7.71118556952E+001, +4.15464313032E+000
+2.38461538462E+005, +7.71374681613E+001, +4.18592416657E+000
+2.41471571906E+005, +7.70594630871E+001, +4.25345015320E+000
+2.44481605351E+005, +7.71993906599E+001, +4.34041862168E+000
+2.47491638796E+005, +7.71009742028E+001, +4.36545039123E+000
+2.50501672241E+005, +7.71461033398E+001, +4.46797719759E+000
+2.53511705686E+005, +7.70827888565E+001, +4.47069168520E+000
+2.56521739130E+005, +7.71339803528E+001, +4.47258414923E+000
+2.59531772575E+005, +7.71294051081E+001, +4.52694525229E+000
+2.62541806020E+005, +7.71393238260E+001, +4.53946255271E+000
+2.65551839465E+005, +7.71869104514E+001, +4.61506317109E+000
+2.68561872910E+005, +7.71303269562E+001, +4.68288419753E+000
+2.71571906355E+005, +7.72007287570E+001, +4.75920971476E+000
+2.74581939799E+005, +7.71788198413E+001, +4.80086392386E+000
+2.77591973244E+005, +7.70893857331E+001, +4.82813068002E+000
+2.80602006689E+005, +7.71342713791E+001, +4.82154618851E+000
+2.83612040134E+005, +7.72034167553E+001, +4.97574563953E+000
+2.86622073579E+005, +7.71672750436E+001, +5.02774555367E+000
+2.89632107023E+005, +7.72459065918E+001, +5.03213575401E+000
+2.92642140468E+005, +7.72576961315E+001, +5.14126327365E+000
+2.95652173913E+005, +7.71561429664E+001, +5.11327160880E+000
+2.98662207358E+005, +7.71958563805E+001, +5.30303311723E+000
+3.01672240803E+005, +7.71837609636E+001, +5.29887422130E+000
+3.04682274247E+005, +7.72005828059E+001, +5.37001672958E+000
+3.07692307692E+005, +7.71636604642E+001, +5.34725891266E+000
+3.10702341137E+005, +7.72244366581E+001, +5.50632841575E+000
+3.13712374582E+005, +7.72408171425E+001, +5.44108132211E+000
+3.16722408027E+005, +7.71556724368E+001, +5.45332905005E+000
+3.19732441472E+005, +7.72488628557E+001, +5.45238689640E+000
+3.22742474916E+005, +7.71867478406E+001, +5.65001980971E+000
+3.25752508361E+005, +7.70685816791E+001, +5.62099773269E+000
+3.28762541806E+005, +7.71829849638E+001, +5.77138704070E+000
+3.31772575251E+005, +7.71950685564E+001, +5.73663598983E+000
+3.34782608696E+005, +7.71423754193E+001, +5.76773777071E+000
+3.37792642140E+005, +7.72026804429E+001, +5.79715206686E+000
+3.40802675585E+005, +7.72233701200E+001, +5.94867629805E+000
+3.43812709030E+005, +7.70832602716E+001, +6.02804312175E+000
+3.46822742475E+005, +7.72223209919E+001, +6.03837270815E+000
+3.49832775920E+005, +7.72613552598E+001, +5.98139933608E+000
+3.52842809365E+005, +7.72035010716E+001, +6.22353314752E+000
+3.55852842809E+005, +7.71828913759E+001, +6.16554617675E+000
+3.58862876254E+005, +7.73267763525E+001, +6.41267753733E+000
+3.61872909699E+005, +7.71570912471E+001, +6.38863927099E+000
+3.64882943144E+005, +7.72485491495E+001, +6.36372334978E+000
+3.67892976589E+005, +7.72084052814E+001, +6.45832246630E+000
+3.70903010033E+005, +7.71905320954E+001, +6.46442731594E+000
+3.73913043478E+005, +7.71592512957E+001, +6.44277667395E+000
+3.76923076923E+005, +7.73020355075E+001, +6.57701023208E+000
+3.79933110368E+005, +7.72228817026E+001, +6.53851334862E+000
+3.82943143813E+005, +7.71888713379E+001, +6.62929500444E+000
+3.85953177258E+005, +7.72163774110E+001, +6.66662814841E+000
+3.88963210702E+005, +7.72102282520E+001, +6.71952723933E+000
+3.91973244147E+005, +7.72872852232E+001, +6.84316318547E+000
+3.94983277592E+005, +7.72115351985E+001, +6.89267686729E+000
+3.97993311037E+005, +7.71799479359E+001, +6.90169149492E+000
+4.01003344482E+005, +7.72547008877E+001, +6.90974479174E+000
+4.04013377926E+005, +7.72133340800E+001, +7.01049742926E+000
+4.07023411371E+005, +7.72450026234E+001, +7.12050545579E+000
+4.10033444816E+005, +7.71610208154E+001, +7.14393671943E+000
+4.13043478261E+005, +7.72426117584E+001, +7.21458052616E+000
+4.16053511706E+005, +7.72708495960E+001, +7.26960241094E+000
+4.19063545151E+005, +7.72809260531E+001, +7.30666627825E+000
+4.22073578595E+005, +7.72352554819E+001, +7.30046655783E+000
+4.25083612040E+005, +7.72410236281E+001, +7.29152241325E+000
+4.28093645485E+005, +7.72428371598E+001, +7.45089687655E+000
+4.31103678930E+005, +7.72184238972E+001, +7.45977577305E+000
+4.34113712375E+005, +7.71426202378E+001, +7.54398619674E+000
+4.37123745819E+005, +7.72524669537E+001, +7.60736714677E+000
+4.40133779264E+005, +7.72199569006E+001, +7.70342161559E+000
+4.43143812709E+005, +7.72758533560E+001, +7.71921760746E+000
+4.46153846154E+005, +7.71831441913E+001, +7.78797086723E+000
+4.49163879599E+005, +7.72610412510E+001, +7.80701332046E+000
+4.52173913043E+005, +7.73085241684E+001, +7.90297985146E+000
+4.55183946488E+005, +7.73088838677E+001, +7.94236301596E+000
+4.58193979933E+005, +7.73229464532E+001, +7.97168851605E+000
+4.61204013378E+005, +7.72914055380E+001, +8.00758766497E+000
+4.64214046823E+005, +7.72487735192E+001, +8.03335153152E+000
+4.67224080268E+005, +7.72584058855E+001, +8.08024931355E+000
+4.70234113712E+005, +7.73313506704E+001, +8.09478668568E+000
+4.73244147157E+005, +7.72500686743E+001, +8.22783930912E+000
+4.76254180602E+005, +7.72392301499E+001, +8.29578890126E+000
+4.79264214047E+005, +7.73362469458E+001, +8.29921131630E+000
+4.82274247492E+005, +7.73306983161E+001, +8.33439360878E+000
+4.85284280936E+005, +7.72611595478E+001, +8.41155780204E+000
+4.88294314381E+005, +7.72694354212E+001, +8.49997283186E+000
+4.91304347826E+005, +7.71825516435E+001, +8.50525428903E+000
+4.94314381271E+005, +7.72242219093E+001, +8.58339964378E+000
+4.97324414716E+005, +7.73288243956E+001, +8.64571717262E+000
+5.00334448161E+005, +7.72607549570E+001, +8.73279844526E+000
+5.03344481605E+005, +7.72530092803E+001, +8.72591859286E+000
+5.06354515050E+005, +7.72750238195E+001, +8.73135023128E+000
+5.09364548495E+005, +7.73125695043E+001, +8.86023721132E+000
+5.12374581940E+005, +7.73081107598E+001, +8.88911602992E+000
+5.15384615385E+005, +7.73194179038E+001, +8.91468698582E+000
+5.18394648829E+005, +7.72361748134E+001, +9.06242720049E+000
+5.21404682274E+005, +7.72840561540E+001, +8.99472410357E+000
+5.24414715719E+005, +7.72716697090E+001, +9.07668473286E+000
+5.27424749164E+005, +7.71902199591E+001, +9.11835057162E+000
+5.30434782609E+005, +7.73069843052E+001, +9.10583145019E+000
+5.33444816054E+005, +7.71864548662E+001, +9.19374979923E+000
+5.36454849498E+005, +7.72667140095E+001, +9.24068916277E+000
+5.39464882943E+005, +7.72415025418E+001, +9.36227637056E+000
+5.42474916388E+005, +7.73111826483E+001, +9.33297119261E+000
+5.45484949833E+005, +7.72773282350E+001, +9.45127674547E+000
+5.48494983278E+005, +7.72164412439E+001, +9.47747111321E+000
+5.51505016722E+005, +7.72632640526E+001, +9.60411367156E+000
+5.54515050167E+005, +7.72250387053E+001, +9.52879775030E+000
+5.57525083612E+005, +7.72831535799E+001, +9.54154556195E+000
+5.60535117057E+005, +7.73446527128E+001, +9.66489465147E+000
+5.63545150502E+005, +7.72624297333E+001, +9.78031113952E+000
+5.66555183946E+005, +7.73599849781E+001, +9.75299557588E+000
+5.69565217391E+005, +7.72939155495E+001, +9.77665855130E+000
+5.72575250836E+005, +7.72147373983E+001, +9.82680375613E+000
+5.75585284281E+005, +7.73527948279E+001, +9.92723182605E+000
+5.78595317726E+005, +7.72693881206E+001, +9.99513441866E+000
+5.81605351171E+005, +7.72702639300E+001, +1.00160445901E+001
+5.84615384615E+005, +7.72697479996E+001, +1.00665069345E+001
+5.87625418060E+005, +7.73593516121E+001, +1.01292093651E+001
+5.90635451505E+005, +7.72599604303E+001, +1.01397279891E+001
+5.93645484950E+005, +7.73386320131E+001, +1.02395683581E+001
+5.96655518395E+005, +7.73938490035E+001, +1.02469801702E+001
+5.99665551839E+005, +7.73581790644E+001, +1.03715492055E+001
+6.02675585284E+005, +7.72593904738E+001, +1.03766041615E+001
+6.05685618729E+005, +7.74083154350E+001, +1.03563936818E+001
+6.08695652174E+005, +7.73215439328E+001, +1.04422449833E+001
+6.11705685619E+005, +7.73034610445E+001, +1.05042111226E+001
+6.14715719064E+005, +7.72617110052E+001, +1.05538488770E+001
+6.17725752508E+005, +7.72814070012E+001, +1.05993830487E+001
+6.20735785953E+005, +7.73412903970E+001, +1.06955736729E+001
+6.23745819398E+005, +7.73531233525E+001, +1.07393490702E+001
+6.26755852843E+005, +7.73667692220E+001, +1.08011655855E+001
+6.29765886288E+005, +7.72998896784E+001, +1.08077165615E+001
+6.32775919732E+005, +7.73467935469E+001, +1.09069094183E+001
+6.35785953177E+005, +7.73608529762E+001, +1.09584157481E+001
+6.38795986622E+005, +7.73033090385E+001, +1.09925068749E+001
+6.41806020067E+005, +7.71980977712E+001, +1.10413487935E+001
+6.44816053512E+005, +7.73040561793E+001, +1.10923349295E+001
+6.47826086957E+005, +7.72933849324E+001, +1.11109986990E+001
+6.50836120401E+005, +7.73702527884E+001, +1.11421467296E+001
+6.53846153846E+005, +7.72811249587E+001, +1.12029084479E+001
+6.56856187291E+005, +7.73105922244E+001, +1.11668558606E+001
+6.59866220736E+005, +7.73612322379E+001, +1.13436846291E+001
+6.62876254181E+005, +7.73644026693E+001, +1.13911746461E+001
+6.65886287625E+005, +7.73293749232E+001, +1.13851120415E+001
+6.68896321070E+005, +7.73280220878E+001, +1.15485698979E+001
+6.71906354515E+005, +7.73245156150E+001, +1.15196574297E+001
+6.74916387960E+005, +7.74140337794E+001, +1.15367535114E+001
+6.77926421405E+005, +7.73139435320E+001, +1.15494189947E+001
+6.80936454849E+005, +7.73577785766E+001, +1.16852007949E+001
+6.83946488294E+005, +7.73896600219E+001, +1.18074413551E+001
+6.86956521739E+005, +7.73708599412E+001, +1.17391121769E+001
+6.89966555184E+005, +7.73863576672E+001, +1.18184260322E+001
+6.92976588629E+005, +7.73537763397E+001, +1.17935251688E+001
+6.95986622074E+005, +7.73430319445E+001, +1.18462351038E+001
+6.98996655518E+005, +7.74119027607E+001, +1.20265858938E+001
+7.02006688963E+005, +7.74202736171E+001, +1.20002937211E+001
+7.05016722408E+005, +7.73709549510E+001, +1.19942439684E+001
+7.08026755853E+005, +7.74259694908E+001, +1.21423928258E+001
+7.11036789298E+005, +7.72988515382E+001, +1.21451905797E+001
+7.14046822742E+005, +7.74316104894E+001, +1.21353014330E+001
+7.17056856187E+005, +7.74660165762E+001, +1.22327786871E+001
+7.20066889632E+005, +7.72948938960E+001, +1.22813106940E+001
+7.23076923077E+005, +7.73944689470E+001, +1.23392706905E+001
+7.26086956522E+005, +7.73183498786E+001, +1.24018867366E+001
+7.29096989967E+005, +7.73735475479E+001, +1.24848408733E+001
+7.32107023411E+005, +7.72565900704E+001, +1.25026278472E+001
+7.35117056856E+005, +7.73422220489E+001, +1.25237755201E+001
+7.38127090301E+005, +7.73360721630E+001, +1.25737676281E+001
+7.41137123746E+005, +7.73683591804E+001, +1.26439828175E+001
+7.44147157191E+005, +7.74871551903E+001, +1.26223588734E+001
+7.47157190635E+005, +7.73416877017E+001, +1.27837695396E+001
+7.50167224080E+005, +7.74530779829E+001, +1.28518098773E+001
+7.53177257525E+005, +7.72812079211E+001, +1.27289442631E+001
+7.56187290970E+005, +7.73045310051E+001, +1.28966409049E+001
+7.59197324415E+005, +7.73196712532E+001, +1.29682983207E+001
+7.62207357860E+005, +7.74001463811E+001, +1.30809063721E+001
+7.65217391304E+005, +7.74493023697E+001, +1.30434254369E+001
+7.68227424749E+005, +7.74303592500E+001, +1.30286133907E+001
+7.71237458194E+005, +7.73993898652E+001, +1.31029029940E+001
+7.74247491639E+005, +7.74259581736E+001, +1.31681572044E+001
+7.77257525084E+005, +7.73055227117E+001, +1.32711211498E+001
+7.80267558528E+005, +7.74519571154E+001, +1.32089476677E+001
+7.83277591973E+005, +7.73118030272E+001, +1.33484230809E+001
+7.86287625418E+005, +7.74216791020E+001, +1.33981552040E+001
+7.89297658863E+005, +7.74251791918E+001, +1.34816125875E+001
+7.92307692308E+005, +7.74663401885E+001, +1.35472701047E+001
+7.95317725753E+005, +7.73988140204E+001, +1.36305187865E+001
+7.98327759197E+005, +7.74219394624E+001, +1.36275994439E+001
+8.01337792642E+005, +7.73598324292E+001, +1.35707582753E+001
+8.04347826087E+005, +7.74172585415E+001, +1.36400368278E+001
+8.07357859532E+005, +7.74143939750E+001, +1.36644107102E+001
+8.10367892977E+005, +7.73772730081E+001, +1.37004194693E+001
+8.13377926421E+005, +7.74469266465E+001, +1.38251015097E+001
+8.16387959866E+005, +7.74266738551E+001, +1.39114517760E+001
+8.19397993311E+005, +7.73889862000E+001, +1.39086842392E+001
+8.22408026756E+005, +7.74354126836E+001, +1.39536501854E+001
+8.25418060201E+005, +7.76001182329E+001, +1.40463398834E+001
+8.28428093645E+005, +7.74250650514E+001, +1.39463766963E+001
+8.31438127090E+005, +7.74242300105E+001, +1.41324311937E+001
+8.34448160535E+005, +7.73820008298E+001, +1.41323007677E+001
+8.37458193980E+005, +7.73779286355E+001, +1.42848970760E+001
+8.40468227425E+005, +7.74067513009E+001, +1.43103483427E+001
+8.43478260870E+005, +7.73970281572E+001, +1.43036748923E+001
+8.46488294314E+005, +7.74702187039E+001, +1.42977378066E+001
+8.49498327759E+005, +7.74346999557E+001, +1.43782069153E+001
+8.52508361204E+005, +7.74246742927E+001, +1.45012413575E+001
+8.55518394649E+005, +7.74137920331E+001, +1.45150767490E+001
+8.58528428094E+005, +7.74296305474E+001, +1.46289112221E+001
+8.61538461538E+005, +7.73759624588E+001, +1.46862047017E+001
+8.64548494983E+005, +7.73997677597E+001, +1.47054295126E+001
+8.67558528428E+005, +7.73186167224E+001, +1.47746418669E+001
+8.70568561873E+005, +7.73326779422E+001, +1.47622638956E+001
+8.73578595318E+005, +7.73419024562E+001, +1.48374077286E+001
+8.76588628763E+005, +7.74240692732E+001, +1.49436125974E+001
+8.79598662207E+005, +7.74948925358E+001, +1.48828235333E+001
+8.82608695652E+005, +7.73555225464E+001, +1.50297781725E+001
+8.85618729097E+005, +7.74743741926E+001, +1.50362387797E+001
+8.88628762542E+005, +7.74444138357E+001, +1.51238473475E+001
+8.91638795987E+005, +7.73601626434E+001, +1.50862863770E+001
+8.94648829431E+005, +7.73375968870E+001, +1.52076801909E+001
+8.97658862876E+005, +7.73409654438E+001, +1.51731948357E+001
+9.00668896321E+005, +7.74018932602E+001, +1.53322803656E+001
+9.03678929766E+005, +7.74954177598E+001, +1.53258529760E+001
+9.06688963211E+005, +7.74762636413E+001, +1.53773044330E+001
+9.09698996656E+005, +7.73642109191E+001, +1.53767339522E+001
+9.12709030100E+005, +7.73425588187E+001, +1.54740791222E+001
+9.15719063545E+005, +7.73879849032E+001, +1.55633947989E+001
+9.18729096990E+005, +7.74014657012E+001, +1.55432170559E+001
+9.21739130435E+005, +7.73741213261E+001, +1.55620870778E+001
+9.24749163880E+005, +7.73306188258E+001, +1.57661621828E+001
+9.27759197324E+005, +7.73546071487E+001, +1.56997641400E+001
+9.30769230769E+005, +7.74097312588E+001, +1.57048161224E+001
+9.33779264214E+005, +7.74690163016E+001, +1.58184697845E+001
+9.36789297659E+005, +7.73613071525E+001, +1.59252762757E+001
+9.39799331104E+005, +7.74665540645E+001, +1.59075107313E+001
+9.42809364548E+005, +7.74651498647E+001, +1.59421145060E+001
+9.45819397993E+005, +7.74709262442E+001, +1.60230878741E+001
+9.48829431438E+005, +7.74568945745E+001, +1.61136181051E+001
+9.51839464883E+005, +7.74136304218E+001, +1.60319077094E+001
+9.54849498328E+005, +7.74750089267E+001, +1.61041016811E+001
+9.57859531773E+005, +7.74437754050E+001, +1.62273237497E+001
+9.60869565217E+005, +7.74140787142E+001, +1.62513824726E+001
+9.63879598662E+005, +7.74339175619E+001, +1.63907270769E+001
+9.66889632107E+005, +7.74257365115E+001, +1.64045678619E+001
+9.69899665552E+005, +7.73712161962E+001, +1.63936800637E+001
+9.72909698997E+005, +7.74069710327E+001, +1.64178295417E+001
+9.75919732441E+005, +7.74157053106E+001, +1.65568637892E+001
+9.78929765886E+005, +7.74092135825E+001, +1.66807841587E+001
+9.81939799331E+005, +7.73883272533E+001, +1.65991075040E+001
+9.84949832776E+005, +7.74001372639E+001, +1.66141830592E+001
+9.87959866221E+005, +7.73989217693E+001, +1.67120324416E+001
+9.90969899666E+005, +7.74382825736E+001, +1.68673576524E+001
+9.93979933110E+005, +7.74468702473E+001, +1.67974100695E+001
+9.96989966555E+005, +7.73607676021E+001, +1.69379489842E+001
+1.00000000000E+006, +7.74860638470E+001, +1.69247849687E+001
