"# Channel 1"
"# Trace 1"
Frequency, Formatted Data, Formatted Data
+1.00000000000E+005, +5.11765480358E-001, +2.79644784643E+000
+8.49500000000E+005, +7.59676288934E-001, +2.33681665382E+001
+1.59900000000E+006, +8.99282793525E-001, +4.37492209716E+001
+2.34850000000E+006, +1.03464492090E+000, +6.42354742477E+001
+3.09800000000E+006, +9.59719330931E-001, +8.52643794083E+001
+3.84750000000E+006, +1.02009377907E+000, +1.06539807234E+002
+4.59700000000E+006, +9.84209587423E-001, +1.28498806313E+002
+5.34650000000E+006, +7.52851937670E-001, +1.51281408205E+002
+6.09600000000E+006, +1.29995561779E+000, +1.75118457189E+002
+6.84550000000E+006, +1.87472187221E+000, +1.99860873775E+002
+7.59500000000E+006, +1.75246385355E+000, +2.25695407281E+002
+8.34450000000E+006, +2.21621545225E+000, +2.53319602117E+002
+9.09400000000E+006, +1.47077732384E+000, +2.82231156557E+002
+9.84350000000E+006, +2.17545635737E+000, +3.13843288446E+002
+1.05930000000E+007, +2.82558137997E+000, +3.47766157096E+002
+1.13425000000E+007, +2.39529876457E+000, +3.84720227402E+002
+1.20920000000E+007, +2.05109150574E+000, +4.25865656657E+002
+1.28415000000E+007, +3.30268232991E+000, +4.70364336633E+002
+1.35910000000E+007, +2.96543285887E+000, +5.20080841368E+002
+1.43405000000E+007, +3.83946128427E+000, +5.76817782236E+002
+1.50900000000E+007, +4.77041976050E+000, +6.43101972017E+002
+1.58395000000E+007, +6.62330583373E+000, +7.15283665839E+002
+1.65890000000E+007, +5.25678988110E+000, +8.09113732254E+002
+1.73385000000E+007, -3.57092983725E-001, +9.16292715230E+002
+1.80880000000E+007, +1.20412088540E+001, +1.05240319025E+003
+1.88375000000E+007, +2.68787938304E+001, +1.21960806543E+003
+1.95870000000E+007, +2.63039755932E+001, +1.44406926838E+003
+2.03365000000E+007, +5.19519535683E+001, +1.75365378923E+003
+2.10860000000E+007, +7.58698620525E+001, +2.23193966485E+003
+2.18355000000E+007, +1.64596668773E+002, +2.98672518805E+003
+2.25850000000E+007, +3.85278432013E+002, +4.55662123802E+003
+2.33345000000E+007, +1.64716354174E+003, +9.35255311706E+003
+2.40840000000E+007, +2.90439235867E+004, -7.78935240552E+003
+2.48335000000E+007, +2.72758963772E+003, -7.91798267775E+003
+2.55830000000E+007, +1.12406121715E+003, -4.44566636886E+003
+2.63325000000E+007, +5.13068497508E+002, -3.09725883142E+003
+2.70820000000E+007, +2.67923938620E+002, -2.36567637664E+003
+2.78315000000E+007, +1.77751885682E+002, -1.89175572370E+003
+2.85810000000E+007, +1.26651555555E+002, -1.56894697027E+003
+2.93305000000E+007, +1.02051809633E+002, -1.33031121999E+003
+3.00800000000E+007, +7.97418627876E+001, -1.16669525140E+003
+3.08295000000E+007, +6.51800384593E+001, -1.02784634769E+003
+3.15790000000E+007, +6.09338629477E+001, -9.15383462971E+002
+3.23285000000E+007, +5.75561072068E+001, -8.24483155757E+002
+3.30780000000E+007, +5.41001618021E+001, -7.52358107557E+002
+3.38275000000E+007, +4.93761598990E+001, -6.81425806075E+002
+3.45770000000E+007, +4.68872526859E+001, -6.26293248273E+002
+3.53265000000E+007, +4.74247877438E+001, -5.74760294465E+002
+3.60760000000E+007, +4.57820652874E+001, -5.28201965445E+002
+3.68255000000E+007, +4.54893487641E+001, -4.84585895679E+002
+3.75750000000E+007, +4.62355265821E+001, -4.49144206493E+002
+3.83245000000E+007, +4.48179705113E+001, -4.15516739625E+002
+3.90740000000E+007, +4.30526277252E+001, -3.83612551239E+002
+3.98235000000E+007, +4.10130055780E+001, -3.52357207683E+002
+4.05730000000E+007, +3.94628190527E+001, -3.21039414783E+002
+4.13225000000E+007, +3.94441744702E+001, -2.90929111415E+002
+4.20720000000E+007, +4.05414826486E+001, -2.60787296776E+002
+4.28215000000E+007, +4.32505913926E+001, -2.32436526485E+002
+4.35710000000E+007, +4.63574239422E+001, -2.06019229162E+002
+4.43205000000E+007, +4.87872433441E+001, -1.81481556955E+002
+4.50700000000E+007, +4.93705411410E+001, -1.56149482321E+002
+4.58195000000E+007, +5.03278203038E+001, -1.28381675898E+002
+4.65690000000E+007, +5.28015448641E+001, -9.94493311740E+001
+4.73185000000E+007, +5.64643840715E+001, -6.97094154684E+001
+4.80680000000E+007, +6.24259532727E+001, -3.77813551297E+001
+4.88175000000E+007, +7.21202925719E+001, -6.77129423925E+000
+4.95670000000E+007, +8.10142664051E+001, +2.20276500073E+001
+5.03165000000E+007, +8.80358233303E+001, +5.41964752377E+001
+5.10660000000E+007, +9.76423535223E+001, +9.03343255414E+001
+5.18155000000E+007, +1.09525911695E+002, +1.28637287716E+002
+5.25650000000E+007, +1.22458809499E+002, +1.69851969609E+002
+5.33145000000E+007, +1.37078004653E+002, +2.18847774186E+002
+5.40640000000E+007, +1.58534085926E+002, +2.74833097302E+002
+5.48135000000E+007, +1.81142081539E+002, +3.35382311787E+002
+5.55630000000E+007, +2.09341423107E+002, +4.17451537656E+002
+5.63125000000E+007, +2.59173773774E+002, +5.23962325005E+002
+5.70620000000E+007, +3.35126977222E+002, +6.43408567220E+002
+5.78115000000E+007, +4.47692606631E+002, +8.06440171407E+002
+5.85610000000E+007, +6.51297719192E+002, +1.01958606355E+003
+5.93105000000E+007, +1.05358519069E+003, +1.26958624462E+003
+6.00600000000E+007, +1.79978047567E+003, +1.36594877330E+003
+6.08095000000E+007, +2.90517738618E+003, +9.00426918184E+002
+6.15590000000E+007, +3.32349599842E+003, -7.90007581671E+002
+6.23085000000E+007, +2.20381914874E+003, -1.90856280338E+003
+6.30580000000E+007, +1.23970332514E+003, -1.91319154469E+003
+6.38075000000E+007, +7.52770608996E+002, -1.64163391196E+003
+6.45570000000E+007, +4.80924752231E+002, -1.42584464559E+003
+6.53065000000E+007, +3.27612874000E+002, -1.25261919402E+003
+6.60560000000E+007, +2.34004571789E+002, -1.10288734339E+003
+6.68055000000E+007, +1.81789479978E+002, -9.87274404739E+002
+6.75550000000E+007, +1.47313877271E+002, -8.93733766594E+002
+6.83045000000E+007, +1.18752222371E+002, -8.18499709521E+002
+6.90540000000E+007, +1.06295967646E+002, -7.60845552200E+002
+6.98035000000E+007, +8.81062036324E+001, -7.07592887814E+002
+7.05530000000E+007, +7.31280027356E+001, -6.65473102711E+002
+7.13025000000E+007, +6.34872507476E+001, -6.25542651958E+002
+7.20520000000E+007, +5.40892146808E+001, -5.91150580675E+002
+7.28015000000E+007, +4.54271196850E+001, -5.59421130272E+002
+7.35510000000E+007, +3.89682704140E+001, -5.31018283943E+002
+7.43005000000E+007, +3.55629615140E+001, -5.03880801138E+002
+7.50500000000E+007, +3.26988116387E+001, -4.80059564621E+002
+7.57995000000E+007, +2.98513302259E+001, -4.58770384708E+002
+7.65490000000E+007, +2.79176064149E+001, -4.38216667040E+002
+7.72985000000E+007, +2.59918349785E+001, -4.18996849255E+002
+7.80480000000E+007, +2.48303626535E+001, -4.02995760769E+002
+7.87975000000E+007, +2.35186143237E+001, -3.86785497455E+002
+7.95470000000E+007, +2.23171687073E+001, -3.72637851787E+002
+8.02965000000E+007, +2.01147298871E+001, -3.58026013549E+002
+8.10460000000E+007, +1.86723722245E+001, -3.44166395015E+002
+8.17955000000E+007, +1.76916976715E+001, -3.30737138782E+002
+8.25450000000E+007, +1.68221681810E+001, -3.17772449545E+002
+8.32945000000E+007, +1.66703013346E+001, -3.05862464296E+002
+8.40440000000E+007, +1.57707275638E+001, -2.94219009033E+002
+8.47935000000E+007, +1.51212337013E+001, -2.82948707929E+002
+8.55430000000E+007, +1.46056897399E+001, -2.71969596494E+002
+8.62925000000E+007, +1.39643314409E+001, -2.61371132477E+002
+8.70420000000E+007, +1.33885904926E+001, -2.50635548556E+002
+8.77915000000E+007, +1.26686140568E+001, -2.39981435652E+002
+8.85410000000E+007, +1.19948642351E+001, -2.29438939390E+002
+8.92905000000E+007, +1.16882388981E+001, -2.19181696676E+002
+9.00400000000E+007, +1.11229091331E+001, -2.08573187285E+002
+9.07895000000E+007, +1.06493418736E+001, -1.98019066569E+002
+9.15390000000E+007, +1.05267266549E+001, -1.87276479378E+002
+9.22885000000E+007, +1.06785569206E+001, -1.76425420917E+002
+9.30380000000E+007, +1.09715947035E+001, -1.65421614055E+002
+9.37875000000E+007, +1.15133967533E+001, -1.54270815504E+002
+9.45370000000E+007, +1.23540897250E+001, -1.43207248085E+002
+9.52865000000E+007, +1.33409078705E+001, -1.32160981885E+002
+9.60360000000E+007, +1.44113475152E+001, -1.20870374910E+002
+9.67855000000E+007, +1.55057966381E+001, -1.09506226367E+002
+9.75350000000E+007, +1.65578498947E+001, -9.77427287097E+001
+9.82845000000E+007, +1.82173781823E+001, -8.51573872995E+001
+9.90340000000E+007, +1.91934137330E+001, -7.26801258280E+001
+9.97835000000E+007, +2.06980989973E+001, -5.90814857739E+001
+1.00533000000E+008, +2.25818795199E+001, -4.45109412057E+001
+1.01282500000E+008, +2.50878390411E+001, -2.90074626126E+001
+1.02032000000E+008, +2.83462791144E+001, -1.26001330871E+001
+1.02781500000E+008, +3.20432863788E+001, +4.71454817058E+000
+1.03531000000E+008, +3.66119870386E+001, +2.39460137278E+001
+1.04280500000E+008, +4.22131365211E+001, +4.47184107172E+001
+1.05030000000E+008, +5.03469944541E+001, +6.73005125551E+001
+1.05779500000E+008, +6.03475655550E+001, +9.22504480643E+001
+1.06529000000E+008, +7.43413825885E+001, +1.19939798338E+002
+1.07278500000E+008, +9.47900224644E+001, +1.48995270991E+002
+1.08028000000E+008, +1.23062155990E+002, +1.75653292483E+002
+1.08777500000E+008, +1.55062382362E+002, +1.94649939506E+002
+1.09527000000E+008, +1.84527036692E+002, +2.08431100982E+002
+1.10276500000E+008, +2.10335575171E+002, +2.22874052647E+002
+1.11026000000E+008, +2.34789803980E+002, +2.41120783143E+002
+1.11775500000E+008, +2.58637616537E+002, +2.65037388719E+002
+1.12525000000E+008, +2.85751601623E+002, +3.00931253144E+002
+1.13274500000E+008, +3.27056977538E+002, +3.48713846573E+002
+1.14024000000E+008, +3.85197518802E+002, +4.11692401823E+002
+1.14773500000E+008, +4.81101240561E+002, +4.88806839353E+002
+1.15523000000E+008, +6.35865257399E+002, +5.60905487908E+002
+1.16272500000E+008, +8.81050623745E+002, +6.04099187560E+002
+1.17022000000E+008, +1.21886466444E+003, +5.23434156052E+002
+1.17771500000E+008, +1.55194169985E+003, +1.86075093506E+002
+1.18521000000E+008, +1.58333039030E+003, -3.03131187330E+002
+1.19270500000E+008, +1.43777751762E+003, -7.04470541853E+002
+1.20020000000E+008, +1.08631249490E+003, -9.47155079675E+002
+1.20769500000E+008, +7.90396781085E+002, -9.73960287454E+002
+1.21519000000E+008, +5.83297968889E+002, -9.22282175421E+002
+1.22268500000E+008, +4.51537515313E+002, -8.52362122925E+002
+1.23018000000E+008, +3.62359908067E+002, -7.81210075562E+002
+1.23767500000E+008, +3.04243885775E+002, -7.25283607556E+002
+1.24517000000E+008, +2.62313141823E+002, -6.76227626522E+002
+1.25266500000E+008, +2.31939833593E+002, -6.38504956888E+002
+1.26016000000E+008, +2.07909340933E+002, -6.05011535789E+002
+1.26765500000E+008, +1.86580283156E+002, -5.77679511671E+002
+1.27515000000E+008, +1.69880342217E+002, -5.53531865935E+002
+1.28264500000E+008, +1.54808426047E+002, -5.32199937361E+002
+1.29014000000E+008, +1.42485604879E+002, -5.14100227096E+002
+1.29763500000E+008, +1.32746416464E+002, -4.99234743739E+002
+1.30513000000E+008, +1.19079090142E+002, -4.89102914462E+002
+1.31262500000E+008, +9.53843558698E+001, -4.70297182230E+002
+1.32012000000E+008, +9.40652029545E+001, -4.47711487584E+002
+1.32761500000E+008, +8.76921927890E+001, -4.38057215429E+002
+1.33511000000E+008, +7.84793869068E+001, -4.25681736547E+002
+1.34260500000E+008, +6.81474158980E+001, -4.12912326167E+002
+1.35010000000E+008, +6.18476403348E+001, -3.98349597289E+002
+1.35759500000E+008, +5.69474344524E+001, -3.84336224303E+002
+1.36509000000E+008, +5.30911718442E+001, -3.70723082064E+002
+1.37258500000E+008, +5.09934077326E+001, -3.58904908893E+002
+1.38008000000E+008, +4.88904911988E+001, -3.47779530573E+002
+1.38757500000E+008, +4.74580796805E+001, -3.38900596316E+002
+1.39507000000E+008, +4.56203335535E+001, -3.30532550022E+002
+1.40256500000E+008, +4.31488956234E+001, -3.22700035579E+002
+1.41006000000E+008, +4.11592019859E+001, -3.14976921901E+002
+1.41755500000E+008, +3.80873282323E+001, -3.07704144379E+002
+1.42505000000E+008, +3.51910996213E+001, -3.00267332183E+002
+1.43254500000E+008, +3.27567708371E+001, -2.92183308093E+002
+1.44004000000E+008, +3.07641452144E+001, -2.84461151688E+002
+1.44753500000E+008, +2.86048098186E+001, -2.76803845973E+002
+1.45503000000E+008, +2.65461118245E+001, -2.69343018262E+002
+1.46252500000E+008, +2.47765702449E+001, -2.61570315750E+002
+1.47002000000E+008, +2.29463714909E+001, -2.54353818291E+002
+1.47751500000E+008, +2.15507417357E+001, -2.46943269595E+002
+1.48501000000E+008, +2.03091492161E+001, -2.39444001995E+002
+1.49250500000E+008, +1.92424594494E+001, -2.31735850056E+002
+1.50000000000E+008, +1.83550992477E+001, -2.24298192203E+002
