"# Channel 1"
"# Trace 1"
Frequency, Formatted Data, Formatted Data
+1.00000000000E+005, +7.73538837467E+001, +1.72909473583E+000
+1.03010033445E+005, +7.71416045656E+001, +1.66658873162E+000
+1.06020066890E+005, +7.72141848579E+001, +1.76441085173E+000
+1.09030100334E+005, +7.72092180151E+001, +1.85176998903E+000
+1.12040133779E+005, +7.71160034607E+001, +1.79579349999E+000
+1.15050167224E+005, +7.71237613158E+001, +1.91906549893E+000
+1.18060200669E+005, +7.71402404930E+001, +1.93241352199E+000
+1.21070234114E+005, +7.71927742467E+001, +2.11495337134E+000
+1.24080267559E+005, +7.71310813015E+001, +2.15898931697E+000
+1.27090301003E+005, +7.71815282325E+001, +2.22624473750E+000
+1.30100334448E+005, +7.72126640298E+001, +2.26894142429E+000
+1.33110367893E+005, +7.71229265081E+001, +2.41763788854E+000
+1.36120401338E+005, +7.71811271736E+001, +2.38154698285E+000
+1.39130434783E+005, +7.71566339023E+001, +2.44707421462E+000
+1.42140468227E+005, +7.71600070958E+001, +2.42472121914E+000
+1.45150501672E+005, +7.71091567263E+001, +2.48318838621E+000
+1.48160535117E+005, +7.71114329810E+001, +2.62613926517E+000
+1.51170568562E+005, +7.72356776966E+001, +2.82956269891E+000
+1.54180602007E+005, +7.71646362493E+001, +2.76222442604E+000
+1.57190635452E+005, +7.71088314726E+001, +2.70494063280E+000
+1.60200668896E+005, +7.71118272867E+001, +2.77633745274E+000
+1.63210702341E+005, +7.71429082511E+001, +2.82235834185E+000
+1.66220735786E+005, +7.70550597847E+001, +2.88818800637E+000
+1.69230769231E+005, +7.71919020245E+001, +2.92399103557E+000
+1.72240802676E+005, +7.72323713827E+001, +3.02400450220E+000
+1.75250836120E+005, +7.71661038357E+001, +3.13900781921E+000
+1.78260869565E+005, +7.70879900679E+001, +3.16802564402E+000
+1.81270903010E+005, +7.72284695514E+001, +3.09312752293E+000
+1.84280936455E+005, +7.72094081813E+001, +3.26437190221E+000
+1.87290969900E+005, +7.72046859183E+001, +3.41360579938E+000
+1.90301003344E+005, +7.72977836095E+001, +3.36779937814E+000
+1.93311036789E+005, +7.71252979810E+001, +3.38765578983E+000
+1.96321070234E+005, +7.71321565123E+001, +3.44409293598E+000
+1.99331103679E+005, +7.72597529838E+001, +3.47505707692E+000
+2.02341137124E+005, +7.71427700820E+001, +3.57435438819E+000
+2.05351170569E+005, +7.72580946606E+001, +3.62356755923E+000
+2.08361204013E+005, +7.72237708616E+001, +3.65904409377E+000
+2.11371237458E+005, +7.71456190906E+001, +3.66611337185E+000
+2.14381270903E+005, +7.72451397259E+001, +3.75982530595E+000
+2.17391304348E+005, +7.72047915752E+001, +3.73494734858E+000
+2.20401337793E+005, +7.71991798294E+001, +3.85719697735E+000
+2.23411371237E+005, +7.71790014580E+001, +3.83728757420E+000
+2.26421404682E+005, +7.72246278272E+001, +3.89726749587E+000
+2.29431438127E+005, +7.72058365988E+001, +3.98914780416E+000
+2.32441471572E+005, +7.71116794404E+001, +4.02094076794E+000
+2.35451505017E+005, +7.72172314730E+001, +4.05857414341E+000
+2.38461538462E+005, +7.72306874222E+001, +4.10441933051E+000
+2.41471571906E+005, +7.72583911571E+001, +4.22292347755E+000
+2.44481605351E+005, +7.71833533849E+001, +4.25713723424E+000
+2.47491638796E+005, +7.71920053235E+001, +4.36932950055E+000
+2.50501672241E+005, +7.71745262694E+001, +4.41693414780E+000
+2.53511705686E+005, +7.72171715170E+001, +4.50655244489E+000
+2.56521739130E+005, +7.73532003177E+001, +4.52616872879E+000
+2.59531772575E+005, +7.72974488943E+001, +4.52305671939E+000
+2.62541806020E+005, +7.71025707274E+001, +4.63243910139E+000
+2.65551839465E+005, +7.73213610650E+001, +4.59799061389E+000
+2.68561872910E+005, +7.72810687455E+001, +4.77501368741E+000
+2.71571906355E+005, +7.72434214907E+001, +4.75961878224E+000
+2.74581939799E+005, +7.72647573865E+001, +4.76566062114E+000
+2.77591973244E+005, +7.72293281031E+001, +4.85115093285E+000
+2.80602006689E+005, +7.73182931453E+001, +4.90165441191E+000
+2.83612040134E+005, +7.72961343366E+001, +4.98064970366E+000
+2.86622073579E+005, +7.72185839035E+001, +4.98333918807E+000
+2.89632107023E+005, +7.73309706092E+001, +5.04380475267E+000
+2.92642140468E+005, +7.73002658902E+001, +5.16178268925E+000
+2.95652173913E+005, +7.72869754911E+001, +5.16473036521E+000
+2.98662207358E+005, +7.72627292092E+001, +5.24854066819E+000
+3.01672240803E+005, +7.72918123563E+001, +5.30839718375E+000
+3.04682274247E+005, +7.72274540107E+001, +5.25922594071E+000
+3.07692307692E+005, +7.71978584381E+001, +5.43285559393E+000
+3.10702341137E+005, +7.72736250093E+001, +5.40175383305E+000
+3.13712374582E+005, +7.72681806093E+001, +5.50407489645E+000
+3.16722408027E+005, +7.73760905817E+001, +5.48287904138E+000
+3.19732441472E+005, +7.73266053729E+001, +5.53068174159E+000
+3.22742474916E+005, +7.72560662566E+001, +5.52141540449E+000
+3.25752508361E+005, +7.71924748772E+001, +5.66202027474E+000
+3.28762541806E+005, +7.74049556765E+001, +5.71725311575E+000
+3.31772575251E+005, +7.72397675002E+001, +5.73962347051E+000
+3.34782608696E+005, +7.73062920422E+001, +5.85394705893E+000
+3.37792642140E+005, +7.73156475074E+001, +5.82405480143E+000
+3.40802675585E+005, +7.72883115932E+001, +5.90833500085E+000
+3.43812709030E+005, +7.73222332534E+001, +5.98780289036E+000
+3.46822742475E+005, +7.73038018115E+001, +6.05666906728E+000
+3.49832775920E+005, +7.72517049074E+001, +6.08789875125E+000
+3.52842809365E+005, +7.72803448623E+001, +6.16209934158E+000
+3.55852842809E+005, +7.72155866230E+001, +6.16831046066E+000
+3.58862876254E+005, +7.73259221587E+001, +6.22307048640E+000
+3.61872909699E+005, +7.73117682956E+001, +6.28999965082E+000
+3.64882943144E+005, +7.73267379443E+001, +6.35755515798E+000
+3.67892976589E+005, +7.72859316001E+001, +6.40060251807E+000
+3.70903010033E+005, +7.74024797442E+001, +6.48796219172E+000
+3.73913043478E+005, +7.74073765342E+001, +6.48280881750E+000
+3.76923076923E+005, +7.74570050548E+001, +6.55674970554E+000
+3.79933110368E+005, +7.73743028337E+001, +6.61994170229E+000
+3.82943143813E+005, +7.73548443243E+001, +6.73959521948E+000
+3.85953177258E+005, +7.73474629149E+001, +6.71095863426E+000
+3.88963210702E+005, +7.72965278033E+001, +6.68384026476E+000
+3.91973244147E+005, +7.73501106185E+001, +6.82948394079E+000
+3.94983277592E+005, +7.73615163460E+001, +6.90125516776E+000
+3.97993311037E+005, +7.73257029654E+001, +6.91264431962E+000
+4.01003344482E+005, +7.73457047608E+001, +6.97428512070E+000
+4.04013377926E+005, +7.72973413503E+001, +7.00242877511E+000
+4.07023411371E+005, +7.73739931574E+001, +7.02798280616E+000
+4.10033444816E+005, +7.73970852201E+001, +7.16829863623E+000
+4.13043478261E+005, +7.73383456268E+001, +7.21357823013E+000
+4.16053511706E+005, +7.72757109970E+001, +7.21918037899E+000
+4.19063545151E+005, +7.73907041970E+001, +7.23731175792E+000
+4.22073578595E+005, +7.73332230538E+001, +7.30963504050E+000
+4.25083612040E+005, +7.74350034775E+001, +7.36873960393E+000
+4.28093645485E+005, +7.73424993393E+001, +7.51054975747E+000
+4.31103678930E+005, +7.72840204218E+001, +7.50482218504E+000
+4.34113712375E+005, +7.73890288435E+001, +7.59243363588E+000
+4.37123745819E+005, +7.73741190220E+001, +7.57064971332E+000
+4.40133779264E+005, +7.74002713365E+001, +7.66892072251E+000
+4.43143812709E+005, +7.73622342091E+001, +7.73583527295E+000
+4.46153846154E+005, +7.73711008204E+001, +7.76712106752E+000
+4.49163879599E+005, +7.73551589665E+001, +7.85001832623E+000
+4.52173913043E+005, +7.72762606690E+001, +7.79240506464E+000
+4.55183946488E+005, +7.72978162840E+001, +7.86971629680E+000
+4.58193979933E+005, +7.73581194441E+001, +7.95902039286E+000
+4.61204013378E+005, +7.72977049645E+001, +8.05228094484E+000
+4.64214046823E+005, +7.73374042913E+001, +8.07619571067E+000
+4.67224080268E+005, +7.73759875772E+001, +8.06601422255E+000
+4.70234113712E+005, +7.73912460325E+001, +8.07947949711E+000
+4.73244147157E+005, +7.73636039114E+001, +8.08838203584E+000
+4.76254180602E+005, +7.74023110838E+001, +8.24526015783E+000
+4.79264214047E+005, +7.73870367871E+001, +8.22720992807E+000
+4.82274247492E+005, +7.73411923425E+001, +8.37600288821E+000
+4.85284280936E+005, +7.73836594237E+001, +8.35539335742E+000
+4.88294314381E+005, +7.73148559975E+001, +8.40580263106E+000
+4.91304347826E+005, +7.73903245942E+001, +8.60067562981E+000
+4.94314381271E+005, +7.74706702253E+001, +8.65131678398E+000
+4.97324414716E+005, +7.74508111263E+001, +8.69197673274E+000
+5.00334448161E+005, +7.73843705392E+001, +8.64156877798E+000
+5.03344481605E+005, +7.74241297153E+001, +8.67973853986E+000
+5.06354515050E+005, +7.74875690621E+001, +8.72869002601E+000
+5.09364548495E+005, +7.73416647611E+001, +8.73531522846E+000
+5.12374581940E+005, +7.73850698791E+001, +8.91055730433E+000
+5.15384615385E+005, +7.73913762966E+001, +8.95818592532E+000
+5.18394648829E+005, +7.74710440069E+001, +8.96197078824E+000
+5.21404682274E+005, +7.73733651809E+001, +9.05391501992E+000
+5.24414715719E+005, +7.73641492582E+001, +9.01301764338E+000
+5.27424749164E+005, +7.73574241895E+001, +9.16225450310E+000
+5.30434782609E+005, +7.74221021759E+001, +9.15353877541E+000
+5.33444816054E+005, +7.74104782441E+001, +9.21184821977E+000
+5.36454849498E+005, +7.74551779935E+001, +9.27529803824E+000
+5.39464882943E+005, +7.74712961485E+001, +9.30791603065E+000
+5.42474916388E+005, +7.74063660537E+001, +9.37855422938E+000
+5.45484949833E+005, +7.73990498312E+001, +9.42658800293E+000
+5.48494983278E+005, +7.73539286957E+001, +9.47472710870E+000
+5.51505016722E+005, +7.73378175825E+001, +9.52103514976E+000
+5.54515050167E+005, +7.73725019655E+001, +9.55132254425E+000
+5.57525083612E+005, +7.75141152034E+001, +9.64363300336E+000
+5.60535117057E+005, +7.73847247780E+001, +9.71945155953E+000
+5.63545150502E+005, +7.73856048141E+001, +9.74705442340E+000
+5.66555183946E+005, +7.73980193505E+001, +9.71277019368E+000
+5.69565217391E+005, +7.73792966276E+001, +9.81281039176E+000
+5.72575250836E+005, +7.73861230697E+001, +9.84925743970E+000
+5.75585284281E+005, +7.74206129242E+001, +9.88571117652E+000
+5.78595317726E+005, +7.73888799303E+001, +9.90583230124E+000
+5.81605351171E+005, +7.73782017110E+001, +1.00404421705E+001
+5.84615384615E+005, +7.74575796770E+001, +1.01541775975E+001
+5.87625418060E+005, +7.75410612555E+001, +1.01080849600E+001
+5.90635451505E+005, +7.75043374946E+001, +1.01734712627E+001
+5.93645484950E+005, +7.74843369456E+001, +1.02178948200E+001
+5.96655518395E+005, +7.74347296533E+001, +1.02735251456E+001
+5.99665551839E+005, +7.74016753198E+001, +1.02970250955E+001
+6.02675585284E+005, +7.74079265210E+001, +1.03902119127E+001
+6.05685618729E+005, +7.74897277861E+001, +1.04218041620E+001
+6.08695652174E+005, +7.74883002914E+001, +1.04133317944E+001
+6.11705685619E+005, +7.74566254840E+001, +1.04321882032E+001
+6.14715719064E+005, +7.74619266155E+001, +1.05192111902E+001
+6.17725752508E+005, +7.74318170790E+001, +1.05627647916E+001
+6.20735785953E+005, +7.74247136037E+001, +1.06488714971E+001
+6.23745819398E+005, +7.73902462393E+001, +1.07433164340E+001
+6.26755852843E+005, +7.74770586311E+001, +1.06951856423E+001
+6.29765886288E+005, +7.74562855016E+001, +1.08023001436E+001
+6.32775919732E+005, +7.75032847426E+001, +1.08158244282E+001
+6.35785953177E+005, +7.74321912448E+001, +1.08831192141E+001
+6.38795986622E+005, +7.73943765643E+001, +1.09192756982E+001
+6.41806020067E+005, +7.74668182931E+001, +1.09756823100E+001
+6.44816053512E+005, +7.75041336836E+001, +1.11229267536E+001
+6.47826086957E+005, +7.74744732636E+001, +1.10736189581E+001
+6.50836120401E+005, +7.75272399344E+001, +1.11501173173E+001
+6.53846153846E+005, +7.74389199221E+001, +1.12382372712E+001
+6.56856187291E+005, +7.74408370595E+001, +1.12568468969E+001
+6.59866220736E+005, +7.74410706624E+001, +1.13093928797E+001
+6.62876254181E+005, +7.75152095015E+001, +1.13717319541E+001
+6.65886287625E+005, +7.74465415773E+001, +1.14112591177E+001
+6.68896321070E+005, +7.74414865213E+001, +1.15197973555E+001
+6.71906354515E+005, +7.75109260354E+001, +1.15231326820E+001
+6.74916387960E+005, +7.74463458748E+001, +1.16032319091E+001
+6.77926421405E+005, +7.73975730346E+001, +1.16008842571E+001
+6.80936454849E+005, +7.74716280477E+001, +1.16923418442E+001
+6.83946488294E+005, +7.75056574672E+001, +1.16713248109E+001
+6.86956521739E+005, +7.74678274709E+001, +1.17762210612E+001
+6.89966555184E+005, +7.74968738912E+001, +1.18467918605E+001
+6.92976588629E+005, +7.74011184531E+001, +1.18817896986E+001
+6.95986622074E+005, +7.74836884836E+001, +1.18953669116E+001
+6.98996655518E+005, +7.74558422373E+001, +1.19823852009E+001
+7.02006688963E+005, +7.74118365884E+001, +1.19743455185E+001
+7.05016722408E+005, +7.74681296020E+001, +1.21005028035E+001
+7.08026755853E+005, +7.74548168917E+001, +1.21046448001E+001
+7.11036789298E+005, +7.75339171480E+001, +1.21400389986E+001
+7.14046822742E+005, +7.74937484193E+001, +1.22124444549E+001
+7.17056856187E+005, +7.73939282272E+001, +1.21509098366E+001
+7.20066889632E+005, +7.74943491009E+001, +1.22914480275E+001
+7.23076923077E+005, +7.74402765693E+001, +1.23171687135E+001
+7.26086956522E+005, +7.74619934725E+001, +1.23906922323E+001
+7.29096989967E+005, +7.74767794422E+001, +1.24575335639E+001
+7.32107023411E+005, +7.75580576428E+001, +1.23995687230E+001
+7.35117056856E+005, +7.74522158223E+001, +1.25900897109E+001
+7.38127090301E+005, +7.75232578515E+001, +1.25503293149E+001
+7.41137123746E+005, +7.74628399925E+001, +1.27196425269E+001
+7.44147157191E+005, +7.76149309369E+001, +1.26864781939E+001
+7.47157190635E+005, +7.74925460062E+001, +1.27306558050E+001
+7.50167224080E+005, +7.75122595472E+001, +1.28323811955E+001
+7.53177257525E+005, +7.75140098668E+001, +1.27781946345E+001
+7.56187290970E+005, +7.74948758721E+001, +1.28968582360E+001
+7.59197324415E+005, +7.74816676653E+001, +1.28771714709E+001
+7.62207357860E+005, +7.74866630175E+001, +1.29802347325E+001
+7.65217391304E+005, +7.74853469668E+001, +1.30624377653E+001
+7.68227424749E+005, +7.74845764600E+001, +1.31459216855E+001
+7.71237458194E+005, +7.74199091358E+001, +1.31797027475E+001
+7.74247491639E+005, +7.75989611915E+001, +1.31575294147E+001
+7.77257525084E+005, +7.75584714519E+001, +1.33027023837E+001
+7.80267558528E+005, +7.74187077675E+001, +1.32897800528E+001
+7.83277591973E+005, +7.75083846774E+001, +1.33666184136E+001
+7.86287625418E+005, +7.75499964588E+001, +1.34378360466E+001
+7.89297658863E+005, +7.75453189052E+001, +1.34539216659E+001
+7.92307692308E+005, +7.75050894472E+001, +1.35301935833E+001
+7.95317725753E+005, +7.74917099610E+001, +1.35415467818E+001
+7.98327759197E+005, +7.74788031807E+001, +1.35828197474E+001
+8.01337792642E+005, +7.75577043983E+001, +1.35995187329E+001
+8.04347826087E+005, +7.74986270920E+001, +1.36510566812E+001
+8.07357859532E+005, +7.74265941912E+001, +1.36727303337E+001
+8.10367892977E+005, +7.75364079987E+001, +1.38303767700E+001
+8.13377926421E+005, +7.75455650136E+001, +1.38696686253E+001
+8.16387959866E+005, +7.75731842398E+001, +1.39042986654E+001
+8.19397993311E+005, +7.76521034642E+001, +1.39023144636E+001
+8.22408026756E+005, +7.75826118608E+001, +1.39306061953E+001
+8.25418060201E+005, +7.74689305621E+001, +1.40522678051E+001
+8.28428093645E+005, +7.74727030834E+001, +1.40578331952E+001
+8.31438127090E+005, +7.75452295025E+001, +1.41724825274E+001
+8.34448160535E+005, +7.74970279342E+001, +1.41359565486E+001
+8.37458193980E+005, +7.75309896129E+001, +1.42157094661E+001
+8.40468227425E+005, +7.75937976152E+001, +1.43340336929E+001
+8.43478260870E+005, +7.75819153921E+001, +1.43410806968E+001
+8.46488294314E+005, +7.75241605657E+001, +1.43810463844E+001
+8.49498327759E+005, +7.74321868075E+001, +1.43158664183E+001
+8.52508361204E+005, +7.75329145788E+001, +1.45428924695E+001
+8.55518394649E+005, +7.75160690950E+001, +1.45110325793E+001
+8.58528428094E+005, +7.75355226699E+001, +1.45565993757E+001
+8.61538461538E+005, +7.75621576095E+001, +1.46598024454E+001
+8.64548494983E+005, +7.75169228413E+001, +1.47013822080E+001
+8.67558528428E+005, +7.75514602351E+001, +1.46689319840E+001
+8.70568561873E+005, +7.75091194123E+001, +1.47668634528E+001
+8.73578595318E+005, +7.75208249283E+001, +1.47863815130E+001
+8.76588628763E+005, +7.75440497989E+001, +1.48484884346E+001
+8.79598662207E+005, +7.75171445320E+001, +1.49566212576E+001
+8.82608695652E+005, +7.74685879256E+001, +1.49590698709E+001
+8.85618729097E+005, +7.74746324483E+001, +1.49701352584E+001
+8.88628762542E+005, +7.75432762513E+001, +1.50928240039E+001
+8.91638795987E+005, +7.75972769600E+001, +1.52662388060E+001
+8.94648829431E+005, +7.75731546776E+001, +1.51942435184E+001
+8.97658862876E+005, +7.75287119912E+001, +1.52080468528E+001
+9.00668896321E+005, +7.74463654186E+001, +1.52569535148E+001
+9.03678929766E+005, +7.74983745493E+001, +1.52623869708E+001
+9.06688963211E+005, +7.75197132880E+001, +1.53908991247E+001
+9.09698996656E+005, +7.75284455464E+001, +1.54644717650E+001
+9.12709030100E+005, +7.74735450179E+001, +1.55102397924E+001
+9.15719063545E+005, +7.75479416715E+001, +1.55498703472E+001
+9.18729096990E+005, +7.75028364384E+001, +1.57002629027E+001
+9.21739130435E+005, +7.75257297146E+001, +1.56659580122E+001
+9.24749163880E+005, +7.75038647593E+001, +1.56281430465E+001
+9.27759197324E+005, +7.75830263122E+001, +1.57907938178E+001
+9.30769230769E+005, +7.75968561828E+001, +1.57865805172E+001
+9.33779264214E+005, +7.75219106301E+001, +1.57893410301E+001
+9.36789297659E+005, +7.77213498622E+001, +1.58596479206E+001
+9.39799331104E+005, +7.76361107410E+001, +1.59844771679E+001
+9.42809364548E+005, +7.76136049138E+001, +1.60470966378E+001
+9.45819397993E+005, +7.75650790151E+001, +1.60147767635E+001
+9.48829431438E+005, +7.76186760215E+001, +1.60930547621E+001
+9.51839464883E+005, +7.74718662598E+001, +1.60454367875E+001
+9.54849498328E+005, +7.75735362743E+001, +1.62464398111E+001
+9.57859531773E+005, +7.73900553629E+001, +1.63344713795E+001
+9.60869565217E+005, +7.76029276656E+001, +1.62859183247E+001
+9.63879598662E+005, +7.75252630528E+001, +1.64321903792E+001
+9.66889632107E+005, +7.74610108544E+001, +1.63379734763E+001
+9.69899665552E+005, +7.75950542108E+001, +1.65196620781E+001
+9.72909698997E+005, +7.76115123674E+001, +1.64558216860E+001
+9.75919732441E+005, +7.75836961740E+001, +1.65358660933E+001
+9.78929765886E+005, +7.75239035845E+001, +1.65458507497E+001
+9.81939799331E+005, +7.74759875818E+001, +1.66768960719E+001
+9.84949832776E+005, +7.75634120599E+001, +1.67103927049E+001
+9.87959866221E+005, +7.75490332110E+001, +1.67235197217E+001
+9.90969899666E+005, +7.75549310920E+001, +1.67970370170E+001
+9.93979933110E+005, +7.75149406899E+001, +1.68010025783E+001
+9.96989966555E+005, +7.75519329934E+001, +1.68707970047E+001
+1.00000000000E+006, +7.75944765587E+001, +1.69760170411E+001
