"# Channel 1"
"# Trace 1"
Frequency, Formatted Data, Formatted Data
+1.00000000000E+006, +3.72228635686E+001, +2.91457873956E+001
+1.34500000000E+006, +3.71173655310E+001, +3.91400763298E+001
+1.69000000000E+006, +3.71625919109E+001, +4.91503121542E+001
+2.03500000000E+006, +3.71966479533E+001, +5.91357041250E+001
+2.38000000000E+006, +3.71539474682E+001, +6.90882183781E+001
+2.72500000000E+006, +3.71687334774E+001, +7.91234892617E+001
+3.07000000000E+006, +3.71102257435E+001, +8.91383159213E+001
+3.41500000000E+006, +3.72497088915E+001, +9.91113390271E+001
+3.76000000000E+006, +3.72881780220E+001, +1.09259681522E+002
+4.10500000000E+006, +3.67320465491E+001, +1.19169582684E+002
+4.45000000000E+006, +3.72900016490E+001, +1.29049010634E+002
+4.79500000000E+006, +3.74808803465E+001, +1.39484870960E+002
+5.14000000000E+006, +3.76112758981E+001, +1.49205551495E+002
+5.48500000000E+006, +3.76862600179E+001, +1.59559069515E+002
+5.83000000000E+006, +3.79389306260E+001, +1.69295407186E+002
+6.17500000000E+006, +3.81323531056E+001, +1.79903050840E+002
+6.52000000000E+006, +3.84866371236E+001, +1.89734358916E+002
+6.86500000000E+006, +3.86925950294E+001, +1.99689872013E+002
+7.21000000000E+006, +3.87706475197E+001, +2.09516528375E+002
+7.55500000000E+006, +3.89621904082E+001, +2.19862979309E+002
+7.90000000000E+006, +3.91098368138E+001, +2.30201581051E+002
+8.24500000000E+006, +3.87993710655E+001, +2.40549379272E+002
+8.59000000000E+006, +3.87688109410E+001, +2.50803494731E+002
+8.93500000000E+006, +3.93876792262E+001, +2.60573831536E+002
+9.28000000000E+006, +3.89041438810E+001, +2.71793412709E+002
+9.62500000000E+006, +3.91443245947E+001, +2.82195601362E+002
+9.97000000000E+006, +3.94428740905E+001, +2.92629744239E+002
+1.03150000000E+007, +3.93568016437E+001, +3.03241730063E+002
+1.06600000000E+007, +3.92243736618E+001, +3.14267674184E+002
+1.10050000000E+007, +3.98159015483E+001, +3.23885666150E+002
+1.13500000000E+007, +4.01380241544E+001, +3.36037516153E+002
+1.16950000000E+007, +4.00362877096E+001, +3.46904717787E+002
+1.20400000000E+007, +4.01111370447E+001, +3.57385039351E+002
+1.23850000000E+007, +4.04283310501E+001, +3.67733765703E+002
+1.27300000000E+007, +3.99469759892E+001, +3.78456652453E+002
+1.30750000000E+007, +4.15630676590E+001, +3.90546813620E+002
+1.34200000000E+007, +4.17398686170E+001, +4.02042122374E+002
+1.37650000000E+007, +4.24402226202E+001, +4.12256805538E+002
+1.41100000000E+007, +4.22911323761E+001, +4.24598075752E+002
+1.44550000000E+007, +4.34930510929E+001, +4.35475774061E+002
+1.48000000000E+007, +4.24110726002E+001, +4.46993383772E+002
+1.51450000000E+007, +4.34329440939E+001, +4.60113983065E+002
+1.54900000000E+007, +4.45361771729E+001, +4.71365112102E+002
+1.58350000000E+007, +4.51089051150E+001, +4.81916013119E+002
+1.61800000000E+007, +4.59711818788E+001, +4.96427463223E+002
+1.65250000000E+007, +4.50767765779E+001, +5.06976564505E+002
+1.68700000000E+007, +4.76836242394E+001, +5.21115184419E+002
+1.72150000000E+007, +4.66276069551E+001, +5.34728491990E+002
+1.75600000000E+007, +4.86169339118E+001, +5.47008648926E+002
+1.79050000000E+007, +4.91949638053E+001, +5.60155617721E+002
+1.82500000000E+007, +5.22707111712E+001, +5.70342829419E+002
+1.85950000000E+007, +5.31894432479E+001, +5.85229707866E+002
+1.89400000000E+007, +5.41191637000E+001, +5.99165632800E+002
+1.92850000000E+007, +5.53445447791E+001, +6.14828140930E+002
+1.96300000000E+007, +5.64793735721E+001, +6.28807324784E+002
+1.99750000000E+007, +5.68187019102E+001, +6.44533851931E+002
+2.03200000000E+007, +5.70520482012E+001, +6.61987564491E+002
+2.06650000000E+007, +5.77274492104E+001, +6.73525104918E+002
+2.10100000000E+007, +6.16011218278E+001, +6.95057027126E+002
+2.13550000000E+007, +6.25152678733E+001, +7.10408314756E+002
+2.17000000000E+007, +6.61653089129E+001, +7.25111264619E+002
+2.20450000000E+007, +6.58250917309E+001, +7.43031946135E+002
+2.23900000000E+007, +6.89502076037E+001, +7.64763483877E+002
+2.27350000000E+007, +7.29470142804E+001, +7.86160635021E+002
+2.30800000000E+007, +7.81893858646E+001, +8.03840099521E+002
+2.34250000000E+007, +8.21488197414E+001, +8.25065270184E+002
+2.37700000000E+007, +9.02752201666E+001, +8.46803035998E+002
+2.41150000000E+007, +9.73897874017E+001, +8.69659236995E+002
+2.44600000000E+007, +1.03471416272E+002, +8.95125797512E+002
+2.48050000000E+007, +1.13542930490E+002, +9.18354464990E+002
+2.51500000000E+007, +1.23488522297E+002, +9.43312588237E+002
+2.54950000000E+007, +1.34503501456E+002, +9.61904292699E+002
+2.58400000000E+007, +1.41158601733E+002, +9.82599911095E+002
+2.61850000000E+007, +1.49778792399E+002, +1.00049074072E+003
+2.65300000000E+007, +1.54568289248E+002, +1.03031401619E+003
+2.68750000000E+007, +1.56092388199E+002, +1.06503642810E+003
+2.72200000000E+007, +1.63184352083E+002, +1.10270664569E+003
+2.75650000000E+007, +1.71987674623E+002, +1.14209671294E+003
+2.79100000000E+007, +1.87593037724E+002, +1.18549325057E+003
+2.82550000000E+007, +2.04551837151E+002, +1.22859608089E+003
+2.86000000000E+007, +2.23002905018E+002, +1.28914289896E+003
+2.89450000000E+007, +2.47132600088E+002, +1.32812295489E+003
+2.92900000000E+007, +2.85557525245E+002, +1.38552625478E+003
+2.96350000000E+007, +3.11283876860E+002, +1.45679907515E+003
+2.99800000000E+007, +3.49636683113E+002, +1.51552072815E+003
+3.03250000000E+007, +3.96780540835E+002, +1.57769680542E+003
+3.06700000000E+007, +4.51237203074E+002, +1.67310084902E+003
+3.10150000000E+007, +5.23185418068E+002, +1.76816487669E+003
+3.13600000000E+007, +6.12340232149E+002, +1.85659196547E+003
+3.17050000000E+007, +7.07214183393E+002, +1.95977678008E+003
+3.20500000000E+007, +8.64667695892E+002, +2.09361057335E+003
+3.23950000000E+007, +1.04267701782E+003, +2.20494303503E+003
+3.27400000000E+007, +1.29195284903E+003, +2.35648145649E+003
+3.30850000000E+007, +1.64893282872E+003, +2.43948466400E+003
+3.34300000000E+007, +2.03643518373E+003, +2.42792033791E+003
+3.37750000000E+007, +2.52479541076E+003, +2.45273144812E+003
+3.41200000000E+007, +3.09668860533E+003, +2.16302119028E+003
+3.44650000000E+007, +3.54735282788E+003, +1.69958828103E+003
+3.48100000000E+007, +3.85440320860E+003, +9.82421990998E+002
+3.51550000000E+007, +3.92864632394E+003, +2.89422941723E+002
+3.55000000000E+007, +3.69530638520E+003, -5.30307954157E+002
+3.58450000000E+007, +3.25886477451E+003, -1.07297196079E+003
+3.61900000000E+007, +2.62039858012E+003, -1.38595084468E+003
+3.65350000000E+007, +2.14026858664E+003, -1.46778344038E+003
+3.68800000000E+007, +1.76748569971E+003, -1.43208408352E+003
+3.72250000000E+007, +1.46064917899E+003, -1.34838411333E+003
+3.75700000000E+007, +1.25337057120E+003, -1.26005994261E+003
+3.79150000000E+007, +1.09237792678E+003, -1.17062808415E+003
+3.82600000000E+007, +9.49107908888E+002, -1.10107490156E+003
+3.86050000000E+007, +8.25080739075E+002, -1.03780069699E+003
+3.89500000000E+007, +7.03779282834E+002, -9.70859678894E+002
+3.92950000000E+007, +6.13499168898E+002, -9.02735415183E+002
+3.96400000000E+007, +5.25194333006E+002, -8.28581587888E+002
+3.99850000000E+007, +4.53749062626E+002, -7.59129175272E+002
+4.03300000000E+007, +3.96855926952E+002, -6.89133377352E+002
+4.06750000000E+007, +3.48273623282E+002, -6.21678992236E+002
+4.10200000000E+007, +3.08632033592E+002, -5.63835365969E+002
+4.13650000000E+007, +2.79581850848E+002, -5.09889203467E+002
+4.17100000000E+007, +2.51628517458E+002, -4.59218037911E+002
+4.20550000000E+007, +2.27838379484E+002, -4.12317050945E+002
+4.24000000000E+007, +2.10767631848E+002, -3.69589610404E+002
+4.27450000000E+007, +1.95014293024E+002, -3.28775845806E+002
+4.30900000000E+007, +1.81455128705E+002, -2.91437279645E+002
+4.34350000000E+007, +1.71450146348E+002, -2.57768080702E+002
+4.37800000000E+007, +1.62564778531E+002, -2.27915532108E+002
+4.41250000000E+007, +1.54673630140E+002, -2.01861954048E+002
+4.44700000000E+007, +1.46395471927E+002, -1.78155137191E+002
+4.48150000000E+007, +1.36553856719E+002, -1.55945746845E+002
+4.51600000000E+007, +1.26812244953E+002, -1.33223929937E+002
+4.55050000000E+007, +1.18082808319E+002, -1.11086415298E+002
+4.58500000000E+007, +1.10723120969E+002, -8.89907434287E+001
+4.61950000000E+007, +1.04389937096E+002, -6.78021088281E+001
+4.65400000000E+007, +9.90051215456E+001, -4.77571142756E+001
+4.68850000000E+007, +9.41689581517E+001, -2.88786249335E+001
+4.72300000000E+007, +8.99587532185E+001, -1.06436592559E+001
+4.75750000000E+007, +8.63779419417E+001, +7.01544262639E+000
+4.79200000000E+007, +8.36927121327E+001, +2.42829064836E+001
+4.82650000000E+007, +8.19776850138E+001, +4.03558984852E+001
+4.86100000000E+007, +8.13953077952E+001, +5.52094087632E+001
+4.89550000000E+007, +8.14006963642E+001, +6.81794351234E+001
+4.93000000000E+007, +8.09938614523E+001, +7.93064193971E+001
+4.96450000000E+007, +7.93272475709E+001, +8.89386775708E+001
+4.99900000000E+007, +7.67370591148E+001, +9.91298178550E+001
+5.03350000000E+007, +7.39391106619E+001, +1.09305047148E+002
+5.06800000000E+007, +7.13666185450E+001, +1.19668669042E+002
+5.10250000000E+007, +6.87646823433E+001, +1.29617029370E+002
+5.13700000000E+007, +6.65649417862E+001, +1.39546885553E+002
+5.17150000000E+007, +6.46534311234E+001, +1.49273082333E+002
+5.20600000000E+007, +6.28784580899E+001, +1.58629897081E+002
+5.24050000000E+007, +6.14157877597E+001, +1.67568163126E+002
+5.27500000000E+007, +5.95905017317E+001, +1.75820982772E+002
+5.30950000000E+007, +5.77433357894E+001, +1.84248630787E+002
+5.34400000000E+007, +5.59098697742E+001, +1.92838036214E+002
+5.37850000000E+007, +5.50957824280E+001, +2.00756775752E+002
+5.41300000000E+007, +5.33715538809E+001, +2.07739295212E+002
+5.44750000000E+007, +5.14409169064E+001, +2.15246922552E+002
+5.48200000000E+007, +4.95645514692E+001, +2.22258781140E+002
+5.51650000000E+007, +4.72910193899E+001, +2.30021479356E+002
+5.55100000000E+007, +4.54678529825E+001, +2.38029286900E+002
+5.58550000000E+007, +4.40341493026E+001, +2.46101384112E+002
+5.62000000000E+007, +4.30197226732E+001, +2.53742031496E+002
+5.65450000000E+007, +4.28677790051E+001, +2.61433959076E+002
+5.68900000000E+007, +4.17359005517E+001, +2.67620002334E+002
+5.72350000000E+007, +4.12046159598E+001, +2.74064206142E+002
+5.75800000000E+007, +3.99686900965E+001, +2.81104915751E+002
+5.79250000000E+007, +3.91065377554E+001, +2.87808469811E+002
+5.82700000000E+007, +3.81140201876E+001, +2.94298581601E+002
+5.86150000000E+007, +3.73562910569E+001, +3.00844165978E+002
+5.89600000000E+007, +3.67702786747E+001, +3.08373146417E+002
+5.93050000000E+007, +3.69769754876E+001, +3.14758592383E+002
+5.96500000000E+007, +3.78253698684E+001, +3.21279490391E+002
+5.99950000000E+007, +3.79779944799E+001, +3.27243910350E+002
+6.03400000000E+007, +3.81745218433E+001, +3.33003111583E+002
+6.06850000000E+007, +3.85075835323E+001, +3.36925865059E+002
+6.10300000000E+007, +3.83789448298E+001, +3.42555111713E+002
+6.13750000000E+007, +3.82309739873E+001, +3.48190287793E+002
+6.17200000000E+007, +3.76111243903E+001, +3.53845802185E+002
+6.20650000000E+007, +3.80934518386E+001, +3.59027358099E+002
+6.24100000000E+007, +3.64280420094E+001, +3.64469845954E+002
+6.27550000000E+007, +3.61241137245E+001, +3.69719391279E+002
+6.31000000000E+007, +3.60678115276E+001, +3.75481206327E+002
+6.34450000000E+007, +3.58764676188E+001, +3.82257072165E+002
+6.37900000000E+007, +3.63984866433E+001, +3.87581639332E+002
+6.41350000000E+007, +3.73843226968E+001, +3.92206395912E+002
+6.44800000000E+007, +3.72067088111E+001, +3.97680700724E+002
+6.48250000000E+007, +3.72022976658E+001, +4.03225242665E+002
+6.51700000000E+007, +3.75522610305E+001, +4.08719907848E+002
+6.55150000000E+007, +3.81698200994E+001, +4.13974528449E+002
+6.58600000000E+007, +3.80166236416E+001, +4.19523832922E+002
+6.62050000000E+007, +3.85707080861E+001, +4.25623903428E+002
+6.65500000000E+007, +3.88489632185E+001, +4.31132835362E+002
+6.68950000000E+007, +4.02292289327E+001, +4.36994138484E+002
+6.72400000000E+007, +4.25156594863E+001, +4.42847493191E+002
+6.75850000000E+007, +4.34061027976E+001, +4.47306673264E+002
+6.79300000000E+007, +4.36936537008E+001, +4.52947251320E+002
+6.82750000000E+007, +4.31780665996E+001, +4.57549192553E+002
+6.86200000000E+007, +4.43839870987E+001, +4.62062529631E+002
+6.89650000000E+007, +4.53947063197E+001, +4.66441325348E+002
+6.93100000000E+007, +4.62215606276E+001, +4.71865845478E+002
+6.96550000000E+007, +4.68447628319E+001, +4.76891284247E+002
+7.00000000000E+007, +4.74172027470E+001, +4.81900249654E+002
