"# Channel 1"
"# Trace 1"
Frequency, Formatted Data, Formatted Data
+1.00000000000E+005, +2.05815758927E-001, +8.47708015362E-001
+2.66777963272E+005, +2.12261191098E-001, +2.23757109862E+000
+4.33555926544E+005, +2.29531686659E-001, +3.64077836715E+000
+6.00333889816E+005, +2.95342596863E-001, +4.99442840872E+000
+7.67111853088E+005, +3.23992270696E-001, +6.38171416444E+000
+9.33889816361E+005, +3.42713471728E-001, +7.71016058443E+000
+1.10066777963E+006, +3.23095668483E-001, +9.07004041927E+000
+1.26744574290E+006, +3.91250741744E-001, +1.04148477078E+001
+1.43422370618E+006, +3.19213542100E-001, +1.17773939689E+001
+1.60100166945E+006, +4.21911223886E-001, +1.31008498636E+001
+1.76777963272E+006, +4.25454199529E-001, +1.44410214257E+001
+1.93455759599E+006, +4.57102089507E-001, +1.57609307284E+001
+2.10133555927E+006, +4.67891908375E-001, +1.71178619079E+001
+2.26811352254E+006, +5.00484220957E-001, +1.84614041101E+001
+2.43489148581E+006, +4.96834956192E-001, +1.98246736517E+001
+2.60166944908E+006, +5.11241629635E-001, +2.11342826441E+001
+2.76844741235E+006, +4.93634900446E-001, +2.24967440848E+001
+2.93522537563E+006, +5.07687344497E-001, +2.38229766040E+001
+3.10200333890E+006, +5.76343908339E-001, +2.51461414240E+001
+3.26878130217E+006, +4.81028048932E-001, +2.64829940159E+001
+3.43555926544E+006, +5.51521565532E-001, +2.78396695482E+001
+3.60233722871E+006, +5.70974063177E-001, +2.91792870681E+001
+3.76911519199E+006, +5.30698057375E-001, +3.05499912535E+001
+3.93589315526E+006, +5.09427200396E-001, +3.18185024861E+001
+4.10267111853E+006, +5.62762336507E-001, +3.33017470988E+001
+4.26944908180E+006, +5.58133397449E-001, +3.46119116212E+001
+4.43622704508E+006, +5.96386130434E-001, +3.58748406203E+001
+4.60300500835E+006, +6.05733899310E-001, +3.72762741263E+001
+4.76978297162E+006, +5.81469168764E-001, +3.85230141576E+001
+4.93656093489E+006, +6.35194073629E-001, +3.99513053236E+001
+5.10333889816E+006, +6.35007543662E-001, +4.12384214060E+001
+5.27011686144E+006, +6.73055849450E-001, +4.27082824404E+001
+5.43689482471E+006, +6.09473691768E-001, +4.39653406549E+001
+5.60367278798E+006, +6.38537983754E-001, +4.53880198895E+001
+5.77045075125E+006, +5.96794067127E-001, +4.66290268866E+001
+5.93722871452E+006, +6.88098557065E-001, +4.80255910777E+001
+6.10400667780E+006, +6.55690327171E-001, +4.94103581073E+001
+6.27078464107E+006, +6.94292653481E-001, +5.07436541589E+001
+6.43756260434E+006, +6.91527434359E-001, +5.21242496614E+001
+6.60434056761E+006, +6.90003308503E-001, +5.34579758709E+001
+6.77111853088E+006, +7.61671278483E-001, +5.47820144457E+001
+6.93789649416E+006, +7.12474007138E-001, +5.61455810585E+001
+7.10467445743E+006, +7.24270251574E-001, +5.74667811951E+001
+7.27145242070E+006, +7.53055215550E-001, +5.88172939957E+001
+7.43823038397E+006, +7.80427406684E-001, +6.01551887753E+001
+7.60500834725E+006, +7.43966235415E-001, +6.15488966333E+001
+7.77178631052E+006, +7.72758734869E-001, +6.29068517435E+001
+7.93856427379E+006, +7.89813822684E-001, +6.42147419662E+001
+8.10534223706E+006, +8.08562127834E-001, +6.55483348310E+001
+8.27212020033E+006, +7.99766355551E-001, +6.69317287709E+001
+8.43889816361E+006, +7.64268287601E-001, +6.82693783597E+001
+8.60567612688E+006, +7.37837246757E-001, +6.95892077298E+001
+8.77245409015E+006, +7.76702560677E-001, +7.09530064085E+001
+8.93923205342E+006, +8.16966230758E-001, +7.23048351475E+001
+9.10601001669E+006, +8.22811741755E-001, +7.36777380658E+001
+9.27278797997E+006, +8.13979520818E-001, +7.50412598627E+001
+9.43956594324E+006, +8.03826579983E-001, +7.63604916586E+001
+9.60634390651E+006, +7.85537370454E-001, +7.76992823992E+001
+9.77312186978E+006, +7.77490917382E-001, +7.90856060200E+001
+9.93989983306E+006, +8.65435964547E-001, +8.04433859523E+001
+1.01066777963E+007, +7.91313041354E-001, +8.17979750308E+001
+1.02734557596E+007, +8.13925367428E-001, +8.31221702363E+001
+1.04402337229E+007, +8.16556216253E-001, +8.44566682883E+001
+1.06070116861E+007, +7.82508517612E-001, +8.58553699812E+001
+1.07737896494E+007, +7.89778749038E-001, +8.72512376178E+001
+1.09405676127E+007, +8.47214895129E-001, +8.85819940257E+001
+1.11073455760E+007, +8.43523277751E-001, +8.99972453290E+001
+1.12741235392E+007, +8.39623739798E-001, +9.12797784745E+001
+1.14409015025E+007, +8.48737500746E-001, +9.26917992568E+001
+1.16076794658E+007, +8.91832602830E-001, +9.40093590483E+001
+1.17744574290E+007, +8.63454879107E-001, +9.54465757637E+001
+1.19412353923E+007, +8.16668969593E-001, +9.68030467878E+001
+1.21080133556E+007, +7.93114689176E-001, +9.81644353382E+001
+1.22747913189E+007, +8.01849451612E-001, +9.95313911962E+001
+1.24415692821E+007, +7.93345854661E-001, +1.00863875957E+002
+1.26083472454E+007, +7.76394313418E-001, +1.02295222638E+002
+1.27751252087E+007, +8.11481884723E-001, +1.03540352241E+002
+1.29419031720E+007, +7.64697395231E-001, +1.04934765761E+002
+1.31086811352E+007, +8.26383353731E-001, +1.06380779969E+002
+1.32754590985E+007, +8.22637542395E-001, +1.07712015228E+002
+1.34422370618E+007, +7.90831189724E-001, +1.09105967898E+002
+1.36090150250E+007, +9.24024288654E-001, +1.10508235291E+002
+1.37757929883E+007, +8.51766820500E-001, +1.11811009417E+002
+1.39425709516E+007, +9.55348668522E-001, +1.13192657254E+002
+1.41093489149E+007, +8.88525001105E-001, +1.14560971425E+002
+1.42761268781E+007, +9.12186456475E-001, +1.15883792229E+002
+1.44429048414E+007, +8.81313400573E-001, +1.17337995494E+002
+1.46096828047E+007, +8.65419735052E-001, +1.18727171981E+002
+1.47764607679E+007, +9.13361036037E-001, +1.20008914679E+002
+1.49432387312E+007, +7.84992552425E-001, +1.21448401831E+002
+1.51100166945E+007, +7.97953844570E-001, +1.22845704089E+002
+1.52767946578E+007, +8.98286660988E-001, +1.24153673812E+002
+1.54435726210E+007, +9.27509107388E-001, +1.25569895626E+002
+1.56103505843E+007, +9.70777111767E-001, +1.26966580741E+002
+1.57771285476E+007, +9.25491631293E-001, +1.28297198962E+002
+1.59439065109E+007, +8.77029489251E-001, +1.29663767688E+002
+1.61106844741E+007, +8.61162829867E-001, +1.31155816326E+002
+1.62774624374E+007, +8.75695873448E-001, +1.32487328915E+002
+1.64442404007E+007, +8.41104265623E-001, +1.33864398084E+002
+1.66110183639E+007, +8.74814479993E-001, +1.35264806428E+002
+1.67777963272E+007, +9.41307178131E-001, +1.36920636618E+002
+1.69445742905E+007, +9.16091777726E-001, +1.38128185320E+002
+1.71113522538E+007, +5.92612665319E-001, +1.39312010953E+002
+1.72781302170E+007, +8.52941394450E-001, +1.40901623410E+002
+1.74449081803E+007, +8.28592547601E-001, +1.42209655637E+002
+1.76116861436E+007, +9.94727368692E-001, +1.43791505130E+002
+1.77784641068E+007, +9.27818967827E-001, +1.44838968914E+002
+1.79452420701E+007, +1.00960425249E+000, +1.46537326176E+002
+1.81120200334E+007, +9.12852788664E-001, +1.47849721249E+002
+1.82787979967E+007, +1.02250420046E+000, +1.49262462687E+002
+1.84455759599E+007, +1.03499900269E+000, +1.50768053000E+002
+1.86123539232E+007, +9.70858134619E-001, +1.52192825827E+002
+1.87791318865E+007, +1.00408179335E+000, +1.53552139036E+002
+1.89459098497E+007, +1.03027165563E+000, +1.55061008721E+002
+1.91126878130E+007, +1.09516073371E+000, +1.56343660425E+002
+1.92794657763E+007, +8.84324116966E-001, +1.57729512565E+002
+1.94462437396E+007, +1.12331276586E+000, +1.59244232913E+002
+1.96130217028E+007, +1.10786095718E+000, +1.60794070690E+002
+1.97797996661E+007, +1.13316512549E+000, +1.61972525947E+002
+1.99465776294E+007, +9.99108190993E-001, +1.63293054213E+002
+2.01133555927E+007, +9.64394579705E-001, +1.64714688051E+002
+2.02801335559E+007, +1.03493632004E+000, +1.66368877983E+002
+2.04469115192E+007, +1.15194377232E+000, +1.67656710926E+002
+2.06136894825E+007, +1.04107031451E+000, +1.69283595687E+002
+2.07804674457E+007, +1.12252536379E+000, +1.70813076920E+002
+2.09472454090E+007, +1.04252219793E+000, +1.72038139606E+002
+2.11140233723E+007, +1.26083525614E+000, +1.73427929198E+002
+2.12808013356E+007, +1.24740107564E+000, +1.74864205627E+002
+2.14475792988E+007, +1.17763138750E+000, +1.76412986342E+002
+2.16143572621E+007, +1.23591865010E+000, +1.77718263114E+002
+2.17811352254E+007, +1.24512238726E+000, +1.79067963414E+002
+2.19479131886E+007, +1.37763619898E+000, +1.80635215550E+002
+2.21146911519E+007, +1.46639245977E+000, +1.81995316529E+002
+2.22814691152E+007, +1.31242487798E+000, +1.83345687429E+002
+2.24482470785E+007, +1.44357094655E+000, +1.84950469586E+002
+2.26150250417E+007, +1.51050532563E+000, +1.86569242517E+002
+2.27818030050E+007, +1.55154394521E+000, +1.87831427044E+002
+2.29485809683E+007, +1.70303785670E+000, +1.89090250409E+002
+2.31153589316E+007, +1.24670830856E+000, +1.90840719594E+002
+2.32821368948E+007, +1.55135660905E+000, +1.92327639316E+002
+2.34489148581E+007, +1.67190099600E+000, +1.93658948865E+002
+2.36156928214E+007, +1.74923978799E+000, +1.95366512949E+002
+2.37824707846E+007, +1.70464280356E+000, +1.96514001210E+002
+2.39492487479E+007, +1.55608558379E+000, +1.97931981170E+002
+2.41160267112E+007, +1.62093682279E+000, +1.99415719308E+002
+2.42828046745E+007, +1.70035805799E+000, +2.00850665800E+002
+2.44495826377E+007, +1.72589067211E+000, +2.02737495138E+002
+2.46163606010E+007, +1.75476397466E+000, +2.03835396159E+002
+2.47831385643E+007, +1.75960825503E+000, +2.05344024461E+002
+2.49499165275E+007, +2.05592317085E+000, +2.06833105776E+002
+2.51166944908E+007, +2.21483908692E+000, +2.08274323604E+002
+2.52834724541E+007, +1.81904878542E+000, +2.09603298877E+002
+2.54502504174E+007, +2.14448755552E+000, +2.11235089957E+002
+2.56170283806E+007, +2.16275218019E+000, +2.12557624553E+002
+2.57838063439E+007, +1.95622203867E+000, +2.14294803944E+002
+2.59505843072E+007, +2.17370225286E+000, +2.15804655243E+002
+2.61173622705E+007, +2.28632288025E+000, +2.17008813902E+002
+2.62841402337E+007, +2.41715243569E+000, +2.18530929342E+002
+2.64509181970E+007, +2.11612400673E+000, +2.19900056496E+002
+2.66176961603E+007, +2.12777021694E+000, +2.21618706796E+002
+2.67844741235E+007, +2.21308853439E+000, +2.22813456874E+002
+2.69512520868E+007, +2.36117914818E+000, +2.24363717682E+002
+2.71180300501E+007, +2.35334348444E+000, +2.25475735429E+002
+2.72848080134E+007, +2.56854032784E+000, +2.27250656810E+002
+2.74515859766E+007, +2.69878596735E+000, +2.28644971392E+002
+2.76183639399E+007, +2.39550203640E+000, +2.29936991606E+002
+2.77851419032E+007, +2.35907963283E+000, +2.31548278879E+002
+2.79519198664E+007, +2.64698055082E+000, +2.33074459858E+002
+2.81186978297E+007, +2.68774541136E+000, +2.34308695365E+002
+2.82854757930E+007, +2.52688296621E+000, +2.36103511958E+002
+2.84522537563E+007, +2.26063490205E+000, +2.37481571544E+002
+2.86190317195E+007, +2.45527512430E+000, +2.38990129036E+002
+2.87858096828E+007, +2.79083241840E+000, +2.40452671352E+002
+2.89525876461E+007, +2.40702514444E+000, +2.41929858553E+002
+2.91193656093E+007, +2.44053447659E+000, +2.43118564393E+002
+2.92861435726E+007, +2.19569360029E+000, +2.44860182388E+002
+2.94529215359E+007, +2.64529158965E+000, +2.46396562281E+002
+2.96196994992E+007, +2.53157205968E+000, +2.48122486851E+002
+2.97864774624E+007, +2.70668566380E+000, +2.49518194873E+002
+2.99532554257E+007, +2.59326483595E+000, +2.51068944778E+002
+3.01200333890E+007, +2.38842814383E+000, +2.52636760388E+002
+3.02868113523E+007, +2.47173744354E+000, +2.54259879789E+002
+3.04535893155E+007, +2.23774850093E+000, +2.56092047770E+002
+3.06203672788E+007, +2.48309045617E+000, +2.57244508407E+002
+3.07871452421E+007, +2.22139463075E+000, +2.58869922040E+002
+3.09539232053E+007, +2.69297963114E+000, +2.60313103079E+002
+3.11207011686E+007, +2.13636793616E+000, +2.61959268936E+002
+3.12874791319E+007, +2.33948514103E+000, +2.63459022437E+002
+3.14542570952E+007, +2.31944142333E+000, +2.65067995913E+002
+3.16210350584E+007, +2.05244676865E+000, +2.66773076014E+002
+3.17878130217E+007, +2.03829542182E+000, +2.68027078737E+002
+3.19545909850E+007, +2.21167563073E+000, +2.69932358267E+002
+3.21213689482E+007, +1.93113482382E+000, +2.71574408970E+002
+3.22881469115E+007, +2.40140713428E+000, +2.72750558613E+002
+3.24549248748E+007, +1.94340639711E+000, +2.74508499586E+002
+3.26217028381E+007, +1.90211948743E+000, +2.76269258094E+002
+3.27884808013E+007, +2.28673320805E+000, +2.77728871202E+002
+3.29552587646E+007, +2.25472928151E+000, +2.79278928566E+002
+3.31220367279E+007, +2.02398816921E+000, +2.81168642331E+002
+3.32888146912E+007, +2.35629666299E+000, +2.82594207506E+002
+3.34555926544E+007, +1.77418168756E+000, +2.83992341190E+002
+3.36223706177E+007, +2.12885447995E+000, +2.85548983023E+002
+3.37891485810E+007, +2.11572631877E+000, +2.87032451439E+002
+3.39559265442E+007, +1.90627770550E+000, +2.89101957289E+002
+3.41227045075E+007, +2.28152765130E+000, +2.90560749077E+002
+3.42894824708E+007, +2.27122359133E+000, +2.92601491621E+002
+3.44562604341E+007, +2.29982892290E+000, +2.94220262150E+002
+3.46230383973E+007, +2.12035499083E+000, +2.96013944118E+002
+3.47898163606E+007, +2.61674560767E+000, +2.97109190314E+002
+3.49565943239E+007, +2.47831941742E+000, +2.99093909370E+002
+3.51233722871E+007, +2.63832257515E+000, +3.00861263768E+002
+3.52901502504E+007, +2.92503536221E+000, +3.02084307470E+002
+3.54569282137E+007, +2.31622580693E+000, +3.04573243036E+002
+3.56237061770E+007, +1.86918060427E+000, +3.05990937771E+002
+3.57904841402E+007, +2.27898725515E+000, +3.07667365779E+002
+3.59572621035E+007, +2.58134353513E+000, +3.09466256065E+002
+3.61240400668E+007, +2.42810109838E+000, +3.11048012720E+002
+3.62908180301E+007, +2.48198909234E+000, +3.13092619244E+002
+3.64575959933E+007, +2.18447484968E+000, +3.14170638883E+002
+3.66243739566E+007, +2.51421147954E+000, +3.16161547110E+002
+3.67911519199E+007, +2.72302774578E+000, +3.17881520147E+002
+3.69579298831E+007, +2.39458065402E+000, +3.19467587195E+002
+3.71247078464E+007, +2.67016063354E+000, +3.21598438447E+002
+3.72914858097E+007, +2.20357760200E+000, +3.23401856082E+002
+3.74582637730E+007, +2.84806514059E+000, +3.25827420497E+002
+3.76250417362E+007, +2.87042162834E+000, +3.27104754537E+002
+3.77918196995E+007, +2.79311300930E+000, +3.28465280520E+002
+3.79585976628E+007, +2.49581519735E+000, +3.30202781885E+002
+3.81253756260E+007, +3.01865452975E+000, +3.31861523857E+002
+3.82921535893E+007, +3.10832689719E+000, +3.33789757278E+002
+3.84589315526E+007, +2.91335951279E+000, +3.35544228298E+002
+3.86257095159E+007, +2.49165629016E+000, +3.37754964093E+002
+3.87924874791E+007, +2.83743126046E+000, +3.39520079803E+002
+3.89592654424E+007, +2.47473876562E+000, +3.41201854340E+002
+3.91260434057E+007, +3.16100982367E+000, +3.43282494679E+002
+3.92928213689E+007, +2.59852434897E+000, +3.45019860583E+002
+3.94595993322E+007, +3.02813256154E+000, +3.47023473540E+002
+3.96263772955E+007, +2.96233011836E+000, +3.48876230271E+002
+3.97931552588E+007, +1.93998339609E+000, +3.50809287380E+002
+3.99599332220E+007, +2.50556434753E+000, +3.52666221905E+002
+4.01267111853E+007, +3.38147202034E+000, +3.54831800499E+002
+4.02934891486E+007, +2.63806765183E+000, +3.55565804813E+002
+4.04602671119E+007, +3.21355595287E+000, +3.58017043710E+002
+4.06270450751E+007, +3.57099827165E+000, +3.60354533248E+002
+4.07938230384E+007, +3.40709674802E+000, +3.61836120339E+002
+4.09606010017E+007, +3.51922051153E+000, +3.63799954432E+002
+4.11273789649E+007, +3.45333602472E+000, +3.65546058247E+002
+4.12941569282E+007, +3.24346973630E+000, +3.68312136043E+002
+4.14609348915E+007, +3.19507874594E+000, +3.71187208980E+002
+4.16277128548E+007, +3.86341858325E+000, +3.72467391793E+002
+4.17944908180E+007, +3.71076226031E+000, +3.74369308805E+002
+4.19612687813E+007, +3.86970788311E+000, +3.75845786244E+002
+4.21280467446E+007, +3.34543725475E+000, +3.78239363432E+002
+4.22948247078E+007, +3.96021609580E+000, +3.80297939885E+002
+4.24616026711E+007, +3.83657417935E+000, +3.82064944221E+002
+4.26283806344E+007, +4.85701288551E+000, +3.84138203866E+002
+4.27951585977E+007, +3.37462065831E+000, +3.86272195825E+002
+4.29619365609E+007, +4.58751185533E+000, +3.88625725723E+002
+4.31287145242E+007, +4.25083097919E+000, +3.90692805115E+002
+4.32954924875E+007, +4.60765010443E+000, +3.92846932590E+002
+4.34622704508E+007, +3.27845706561E+000, +3.94773256109E+002
+4.36290484140E+007, +4.22329433576E+000, +3.97177499070E+002
+4.37958263773E+007, +3.82245984774E+000, +3.99597022281E+002
+4.39626043406E+007, +4.79709469784E+000, +4.01917838028E+002
+4.41293823038E+007, +4.71455162210E+000, +4.04242375287E+002
+4.42961602671E+007, +4.41459818563E+000, +4.05701109442E+002
+4.44629382304E+007, +4.49887309042E+000, +4.08376353863E+002
+4.46297161937E+007, +4.94773752521E+000, +4.10293127549E+002
+4.47964941569E+007, +4.44795994245E+000, +4.12811125997E+002
+4.49632721202E+007, +4.67568864762E+000, +4.14798504397E+002
+4.51300500835E+007, +5.21212653239E+000, +4.16744661495E+002
+4.52968280467E+007, +5.97088889243E+000, +4.18659402532E+002
+4.54636060100E+007, +5.06897153996E+000, +4.21966270761E+002
+4.56303839733E+007, +5.34735330365E+000, +4.24477644246E+002
+4.57971619366E+007, +5.67185632973E+000, +4.27224331209E+002
+4.59639398998E+007, +5.96180321092E+000, +4.30103194853E+002
+4.61307178631E+007, +6.51028046290E+000, +4.31436910293E+002
+4.62974958264E+007, +6.64092046880E+000, +4.34386843742E+002
+4.64642737896E+007, +6.18122965301E+000, +4.36633330696E+002
+4.66310517529E+007, +6.46511125732E+000, +4.39576226824E+002
+4.67978297162E+007, +6.91437289019E+000, +4.41151804617E+002
+4.69646076795E+007, +6.18823466784E+000, +4.44765465686E+002
+4.71313856427E+007, +7.29945866977E+000, +4.46952327034E+002
+4.72981636060E+007, +7.31021300518E+000, +4.49681897415E+002
+4.74649415693E+007, +7.60015572025E+000, +4.51346713648E+002
+4.76317195326E+007, +8.03025281743E+000, +4.55329715589E+002
+4.77984974958E+007, +8.92951252350E+000, +4.57353808010E+002
+4.79652754591E+007, +8.46040263001E+000, +4.60209715280E+002
+4.81320534224E+007, +9.47207951819E+000, +4.62036786833E+002
+4.82988313856E+007, +8.87057981727E+000, +4.65277755361E+002
+4.84656093489E+007, +9.89933995050E+000, +4.68412856845E+002
+4.86323873122E+007, +1.08743714928E+001, +4.70761141911E+002
+4.87991652755E+007, +1.13910773222E+001, +4.73679805241E+002
+4.89659432387E+007, +1.16797753078E+001, +4.75118086499E+002
+4.91327212020E+007, +1.16073335329E+001, +4.77517297246E+002
+4.92994991653E+007, +1.25714269875E+001, +4.80655550597E+002
+4.94662771285E+007, +1.30363233819E+001, +4.83692759469E+002
+4.96330550918E+007, +1.30333857470E+001, +4.85793032744E+002
+4.97998330551E+007, +1.40590066044E+001, +4.88584810404E+002
+4.99666110184E+007, +1.43844797773E+001, +4.91071340791E+002
+5.01333889816E+007, +1.41297131094E+001, +4.93940858198E+002
+5.03001669449E+007, +1.45326090846E+001, +4.94811280153E+002
+5.04669449082E+007, +1.57652007837E+001, +4.99121529229E+002
+5.06337228715E+007, +1.69784433221E+001, +5.02115363362E+002
+5.08005008347E+007, +1.49032225877E+001, +5.03654781658E+002
+5.09672787980E+007, +1.62421389641E+001, +5.06704087980E+002
+5.11340567613E+007, +1.63665812178E+001, +5.10241788864E+002
+5.13008347245E+007, +1.67136688390E+001, +5.14017646698E+002
+5.14676126878E+007, +1.69136357926E+001, +5.15806316507E+002
+5.16343906511E+007, +1.73224404693E+001, +5.19578261940E+002
+5.18011686144E+007, +1.73776214607E+001, +5.21084834788E+002
+5.19679465776E+007, +1.71329695462E+001, +5.24033924502E+002
+5.21347245409E+007, +1.79910327895E+001, +5.27842733671E+002
+5.23015025042E+007, +1.80695369496E+001, +5.33514674426E+002
+5.24682804674E+007, +1.67082621673E+001, +5.36043423907E+002
+5.26350584307E+007, +1.63729808166E+001, +5.37979708521E+002
+5.28018363940E+007, +1.54574838539E+001, +5.42034823958E+002
+5.29686143573E+007, +1.64150394911E+001, +5.46071140283E+002
+5.31353923205E+007, +1.69675179950E+001, +5.48411192433E+002
+5.33021702838E+007, +1.63714620922E+001, +5.52835737117E+002
+5.34689482471E+007, +1.74116028910E+001, +5.57307502780E+002
