"# Channel 1"
"# Trace 1"
Frequency, Formatted Data, Formatted Data
+1.00000000000E+005, +2.11199477094E-001, +8.44047163183E-001
+2.66777963272E+005, +2.08908899941E-001, +2.24363630922E+000
+4.33555926544E+005, +2.37570826987E-001, +3.64325531123E+000
+6.00333889816E+005, +3.09446852288E-001, +4.99620795382E+000
+7.67111853088E+005, +3.26096151294E-001, +6.37523340033E+000
+9.33889816361E+005, +3.40056152400E-001, +7.71201869970E+000
+1.10066777963E+006, +3.19127187905E-001, +9.06754442339E+000
+1.26744574290E+006, +3.87843494269E-001, +1.04091639841E+001
+1.43422370618E+006, +3.18886711974E-001, +1.17836550792E+001
+1.60100166945E+006, +4.21932375860E-001, +1.31018152021E+001
+1.76777963272E+006, +4.25922327858E-001, +1.44518713274E+001
+1.93455759599E+006, +4.58113290776E-001, +1.57594011729E+001
+2.10133555927E+006, +4.77558286736E-001, +1.71015934668E+001
+2.26811352254E+006, +5.04656642938E-001, +1.84798146820E+001
+2.43489148581E+006, +4.77050078144E-001, +1.98258762865E+001
+2.60166944908E+006, +5.18572559108E-001, +2.11232593288E+001
+2.76844741235E+006, +5.04434341980E-001, +2.25084072164E+001
+2.93522537563E+006, +5.10906475709E-001, +2.38271258999E+001
+3.10200333890E+006, +5.93635590694E-001, +2.51494749918E+001
+3.26878130217E+006, +4.88301962316E-001, +2.64806563700E+001
+3.43555926544E+006, +5.50160842292E-001, +2.78211508255E+001
+3.60233722871E+006, +5.83275512500E-001, +2.92049217986E+001
+3.76911519199E+006, +5.36009304101E-001, +3.05281372575E+001
+3.93589315526E+006, +5.20781919517E-001, +3.18204968224E+001
+4.10267111853E+006, +5.34319220564E-001, +3.32934483854E+001
+4.26944908180E+006, +5.70431837246E-001, +3.45929026581E+001
+4.43622704508E+006, +5.89851659150E-001, +3.58546299565E+001
+4.60300500835E+006, +5.87385112767E-001, +3.72816488246E+001
+4.76978297162E+006, +6.21906009698E-001, +3.85345558733E+001
+4.93656093489E+006, +6.65533657874E-001, +3.99357249895E+001
+5.10333889816E+006, +6.48424350504E-001, +4.12523957592E+001
+5.27011686144E+006, +6.52793904431E-001, +4.27016402038E+001
+5.43689482471E+006, +6.42081568024E-001, +4.39747862644E+001
+5.60367278798E+006, +6.04033892795E-001, +4.53811422620E+001
+5.77045075125E+006, +6.03670290343E-001, +4.66286626598E+001
+5.93722871452E+006, +6.90499531482E-001, +4.80305240769E+001
+6.10400667780E+006, +6.65234325592E-001, +4.93719678788E+001
+6.27078464107E+006, +6.78386062022E-001, +5.07428706324E+001
+6.43756260434E+006, +6.89187905021E-001, +5.21312580078E+001
+6.60434056761E+006, +7.07122494737E-001, +5.34647551411E+001
+6.77111853088E+006, +7.62601224174E-001, +5.48110682844E+001
+6.93789649416E+006, +7.19281353138E-001, +5.61507352758E+001
+7.10467445743E+006, +7.17687528509E-001, +5.74755142639E+001
+7.27145242070E+006, +7.63918603644E-001, +5.88241287236E+001
+7.43823038397E+006, +7.89428584179E-001, +6.01721040577E+001
+7.60500834725E+006, +7.37921854941E-001, +6.15057575337E+001
+7.77178631052E+006, +7.82837421442E-001, +6.29149974103E+001
+7.93856427379E+006, +7.97493823139E-001, +6.42100629818E+001
+8.10534223706E+006, +8.51452223310E-001, +6.55613345120E+001
+8.27212020033E+006, +8.23600259813E-001, +6.68880998291E+001
+8.43889816361E+006, +7.79322210080E-001, +6.82325448341E+001
+8.60567612688E+006, +7.50991374238E-001, +6.95986537214E+001
+8.77245409015E+006, +7.64801891530E-001, +7.09317116053E+001
+8.93923205342E+006, +8.17257397041E-001, +7.22637169552E+001
+9.10601001669E+006, +8.20106155508E-001, +7.36734056996E+001
+9.27278797997E+006, +7.97398154493E-001, +7.50119273060E+001
+9.43956594324E+006, +8.40495045823E-001, +7.63547272770E+001
+9.60634390651E+006, +7.74416955630E-001, +7.77181160963E+001
+9.77312186978E+006, +8.16370647346E-001, +7.90505366336E+001
+9.93989983306E+006, +8.71991603628E-001, +8.04265763082E+001
+1.01066777963E+007, +8.24139115512E-001, +8.17872700553E+001
+1.02734557596E+007, +8.32306139621E-001, +8.31499430029E+001
+1.04402337229E+007, +8.14920822214E-001, +8.44620986144E+001
+1.06070116861E+007, +7.70183619391E-001, +8.58654974628E+001
+1.07737896494E+007, +7.90291831300E-001, +8.72055029372E+001
+1.09405676127E+007, +8.69291818821E-001, +8.85759344875E+001
+1.11073455760E+007, +8.09393176750E-001, +9.00022387197E+001
+1.12741235392E+007, +8.40932476625E-001, +9.12516811024E+001
+1.14409015025E+007, +8.47355147400E-001, +9.27160206845E+001
+1.16076794658E+007, +8.62543273114E-001, +9.40140543855E+001
+1.17744574290E+007, +8.65736706320E-001, +9.54725977919E+001
+1.19412353923E+007, +8.18690586492E-001, +9.68036860987E+001
+1.21080133556E+007, +7.40242749226E-001, +9.81419682002E+001
+1.22747913189E+007, +8.41774437028E-001, +9.95470654646E+001
+1.24415692821E+007, +7.91859950186E-001, +1.00808274632E+002
+1.26083472454E+007, +7.54041272381E-001, +1.02272447849E+002
+1.27751252087E+007, +8.38370328243E-001, +1.03570080133E+002
+1.29419031720E+007, +7.94980247280E-001, +1.04924246971E+002
+1.31086811352E+007, +8.14863447883E-001, +1.06367407130E+002
+1.32754590985E+007, +8.67540330966E-001, +1.07723770877E+002
+1.34422370618E+007, +8.18517445313E-001, +1.09091311283E+002
+1.36090150250E+007, +9.55786141431E-001, +1.10503620044E+002
+1.37757929883E+007, +8.55593584468E-001, +1.11868234427E+002
+1.39425709516E+007, +9.05171571383E-001, +1.13153791099E+002
+1.41093489149E+007, +8.92450053525E-001, +1.14550295485E+002
+1.42761268781E+007, +9.15567431165E-001, +1.15987402182E+002
+1.44429048414E+007, +9.66938261903E-001, +1.17360574063E+002
+1.46096828047E+007, +8.71481568110E-001, +1.18737500337E+002
+1.47764607679E+007, +9.32635429290E-001, +1.20011944564E+002
+1.49432387312E+007, +8.84634975510E-001, +1.21447579981E+002
+1.51100166945E+007, +8.39137666742E-001, +1.22823685324E+002
+1.52767946578E+007, +9.07124442830E-001, +1.24203426247E+002
+1.54435726210E+007, +1.00605328537E+000, +1.25574210957E+002
+1.56103505843E+007, +9.00298349140E-001, +1.26972856191E+002
+1.57771285476E+007, +9.60514976684E-001, +1.28370534325E+002
+1.59439065109E+007, +8.96839722588E-001, +1.29719631736E+002
+1.61106844741E+007, +8.27750253141E-001, +1.31154284345E+002
+1.62774624374E+007, +8.48811737303E-001, +1.32511812457E+002
+1.64442404007E+007, +8.13201571364E-001, +1.33898672003E+002
+1.66110183639E+007, +1.00243683664E+000, +1.35258226976E+002
+1.67777963272E+007, +9.79249847781E-001, +1.36724542902E+002
+1.69445742905E+007, +1.00134759377E+000, +1.38160382678E+002
+1.71113522538E+007, +7.02258927543E-001, +1.39386376597E+002
+1.72781302170E+007, +8.55691549124E-001, +1.40949277526E+002
+1.74449081803E+007, +8.09268364924E-001, +1.42087756708E+002
+1.76116861436E+007, +9.85179951001E-001, +1.43770683147E+002
+1.77784641068E+007, +8.12651497087E-001, +1.44981520198E+002
+1.79452420701E+007, +8.76354704243E-001, +1.46516322244E+002
+1.81120200334E+007, +9.57260693146E-001, +1.47864529708E+002
+1.82787979967E+007, +1.03229884105E+000, +1.49401242261E+002
+1.84455759599E+007, +9.86864543813E-001, +1.50708422236E+002
+1.86123539232E+007, +1.13693927205E+000, +1.52097658266E+002
+1.87791318865E+007, +1.00012024391E+000, +1.53678602235E+002
+1.89459098497E+007, +9.96510180925E-001, +1.55024456001E+002
+1.91126878130E+007, +1.03177892371E+000, +1.56343808594E+002
+1.92794657763E+007, +1.03602462493E+000, +1.57684781873E+002
+1.94462437396E+007, +1.03393091006E+000, +1.59259565992E+002
+1.96130217028E+007, +9.63932105942E-001, +1.60704688444E+002
+1.97797996661E+007, +1.23563902301E+000, +1.62076327542E+002
+1.99465776294E+007, +9.54341109555E-001, +1.63390411290E+002
+2.01133555927E+007, +1.09166878049E+000, +1.64842448381E+002
+2.02801335559E+007, +1.01668753533E+000, +1.66333444215E+002
+2.04469115192E+007, +1.13638723410E+000, +1.67845945687E+002
+2.06136894825E+007, +1.17288128248E+000, +1.69154671365E+002
+2.07804674457E+007, +1.27650230546E+000, +1.70671871501E+002
+2.09472454090E+007, +1.08789738466E+000, +1.72118087036E+002
+2.11140233723E+007, +1.17174633160E+000, +1.73398258764E+002
+2.12808013356E+007, +1.30061339630E+000, +1.74904189724E+002
+2.14475792988E+007, +1.12405999716E+000, +1.76404706379E+002
+2.16143572621E+007, +1.35170265949E+000, +1.77765507681E+002
+2.17811352254E+007, +1.20126936424E+000, +1.79139967520E+002
+2.19479131886E+007, +1.39254729713E+000, +1.80790292552E+002
+2.21146911519E+007, +1.43427420202E+000, +1.81973340388E+002
+2.22814691152E+007, +1.34804025529E+000, +1.83436702460E+002
+2.24482470785E+007, +1.36129984731E+000, +1.85057402049E+002
+2.26150250417E+007, +1.57376014528E+000, +1.86396231479E+002
+2.27818030050E+007, +1.42815217352E+000, +1.87970095045E+002
+2.29485809683E+007, +1.82529717008E+000, +1.89277979236E+002
+2.31153589316E+007, +1.31691108806E+000, +1.90743105071E+002
+2.32821368948E+007, +1.61020245305E+000, +1.92356028284E+002
+2.34489148581E+007, +1.72815054865E+000, +1.93367506180E+002
+2.36156928214E+007, +1.65239138384E+000, +1.95155542042E+002
+2.37824707846E+007, +1.70574949262E+000, +1.96524722101E+002
+2.39492487479E+007, +1.61914882052E+000, +1.97797965332E+002
+2.41160267112E+007, +1.62862193642E+000, +1.99524151070E+002
+2.42828046745E+007, +1.66807342233E+000, +2.00914598304E+002
+2.44495826377E+007, +1.69979698239E+000, +2.02628082657E+002
+2.46163606010E+007, +1.69017930788E+000, +2.03601370926E+002
+2.47831385643E+007, +1.78331798327E+000, +2.05282624176E+002
+2.49499165275E+007, +1.91571384613E+000, +2.06737459234E+002
+2.51166944908E+007, +1.97157579848E+000, +2.08116573861E+002
+2.52834724541E+007, +2.20817449123E+000, +2.09630238064E+002
+2.54502504174E+007, +2.03979304453E+000, +2.11256092048E+002
+2.56170283806E+007, +2.18287121165E+000, +2.12502996771E+002
+2.57838063439E+007, +2.03295367493E+000, +2.14348301027E+002
+2.59505843072E+007, +2.22734068525E+000, +2.15770025080E+002
+2.61173622705E+007, +2.26923659794E+000, +2.17021680935E+002
+2.62841402337E+007, +2.37372668852E+000, +2.18542603317E+002
+2.64509181970E+007, +2.12153800611E+000, +2.20000607191E+002
+2.66176961603E+007, +2.17555703275E+000, +2.21752952841E+002
+2.67844741235E+007, +2.24326489436E+000, +2.23077706413E+002
+2.69512520868E+007, +2.40396096421E+000, +2.24471643320E+002
+2.71180300501E+007, +2.52754501340E+000, +2.25529120911E+002
+2.72848080134E+007, +2.35171107318E+000, +2.27062885642E+002
+2.74515859766E+007, +2.43784188360E+000, +2.28630653035E+002
+2.76183639399E+007, +2.45516391488E+000, +2.29990686204E+002
+2.77851419032E+007, +2.33727098658E+000, +2.31350501040E+002
+2.79519198664E+007, +2.70201923060E+000, +2.33139601886E+002
+2.81186978297E+007, +2.70539063569E+000, +2.34461660917E+002
+2.82854757930E+007, +2.52499953837E+000, +2.36052004247E+002
+2.84522537563E+007, +2.29744375549E+000, +2.37657806087E+002
+2.86190317195E+007, +2.38055596241E+000, +2.38838603651E+002
+2.87858096828E+007, +2.62322877839E+000, +2.40536171877E+002
+2.89525876461E+007, +2.55630819536E+000, +2.41945940540E+002
+2.91193656093E+007, +2.47346530154E+000, +2.43214077323E+002
+2.92861435726E+007, +2.06839103193E+000, +2.44817502827E+002
+2.94529215359E+007, +2.40038077273E+000, +2.46377348551E+002
+2.96196994992E+007, +2.50966537456E+000, +2.47844237104E+002
+2.97864774624E+007, +2.78641449507E+000, +2.49513733075E+002
+2.99532554257E+007, +2.60533714373E+000, +2.51342458731E+002
+3.01200333890E+007, +2.45188113818E+000, +2.52754473086E+002
+3.02868113523E+007, +2.21557212148E+000, +2.54267489487E+002
+3.04535893155E+007, +2.50810228257E+000, +2.55890895765E+002
+3.06203672788E+007, +2.61156362361E+000, +2.57464443775E+002
+3.07871452421E+007, +2.19147128300E+000, +2.58907068075E+002
+3.09539232053E+007, +2.35921366568E+000, +2.60207519365E+002
+3.11207011686E+007, +2.30981856981E+000, +2.62368167837E+002
+3.12874791319E+007, +2.60835429407E+000, +2.63398475767E+002
+3.14542570952E+007, +2.45038458073E+000, +2.64881208942E+002
+3.16210350584E+007, +2.23333747551E+000, +2.66693773573E+002
+3.17878130217E+007, +2.07365651794E+000, +2.68164009135E+002
+3.19545909850E+007, +2.35867646566E+000, +2.69813660668E+002
+3.21213689482E+007, +2.09126078799E+000, +2.71996512036E+002
+3.22881469115E+007, +2.24233925447E+000, +2.72888996927E+002
+3.24549248748E+007, +2.52145058080E+000, +2.74669500674E+002
+3.26217028381E+007, +2.10091920154E+000, +2.76170772027E+002
+3.27884808013E+007, +2.42462192650E+000, +2.77562688356E+002
+3.29552587646E+007, +2.53612020254E+000, +2.79541453251E+002
+3.31220367279E+007, +2.67547950603E+000, +2.81036485821E+002
+3.32888146912E+007, +2.01372569321E+000, +2.82854752749E+002
+3.34555926544E+007, +2.13093491582E+000, +2.83939179129E+002
+3.36223706177E+007, +2.62482011916E+000, +2.85751212011E+002
+3.37891485810E+007, +2.03481263971E+000, +2.87116278353E+002
+3.39559265442E+007, +2.25284929182E+000, +2.89449221704E+002
+3.41227045075E+007, +2.31486125439E+000, +2.90751103207E+002
+3.42894824708E+007, +2.34038253219E+000, +2.92473563986E+002
+3.44562604341E+007, +2.21777848991E+000, +2.94071507855E+002
+3.46230383973E+007, +2.10569371272E+000, +2.96126773140E+002
+3.47898163606E+007, +2.36901505366E+000, +2.97278098398E+002
+3.49565943239E+007, +2.62258818994E+000, +2.99446913477E+002
+3.51233722871E+007, +2.89387136847E+000, +3.00889691859E+002
+3.52901502504E+007, +2.52809343438E+000, +3.02295646189E+002
+3.54569282137E+007, +2.45827782502E+000, +3.04096502742E+002
+3.56237061770E+007, +2.53868411237E+000, +3.06109162255E+002
+3.57904841402E+007, +2.57714447904E+000, +3.07879698039E+002
+3.59572621035E+007, +2.27234539511E+000, +3.09085213373E+002
+3.61240400668E+007, +2.67706653586E+000, +3.11055686562E+002
+3.62908180301E+007, +2.67131590612E+000, +3.13306306040E+002
+3.64575959933E+007, +2.34184316335E+000, +3.14244191041E+002
+3.66243739566E+007, +2.78852488849E+000, +3.16100454397E+002
+3.67911519199E+007, +2.74713569937E+000, +3.17800070110E+002
+3.69579298831E+007, +2.41940589258E+000, +3.19685667135E+002
+3.71247078464E+007, +2.33972182485E+000, +3.21226302057E+002
+3.72914858097E+007, +2.40865016860E+000, +3.23661033074E+002
+3.74582637730E+007, +2.58824652071E+000, +3.25506597061E+002
+3.76250417362E+007, +2.85766108766E+000, +3.26987969959E+002
+3.77918196995E+007, +2.97394996705E+000, +3.28265255755E+002
+3.79585976628E+007, +2.43461587329E+000, +3.30388120858E+002
+3.81253756260E+007, +3.21582423001E+000, +3.32494974475E+002
+3.82921535893E+007, +3.09361774971E+000, +3.33749926932E+002
+3.84589315526E+007, +2.79940051151E+000, +3.35777170498E+002
+3.86257095159E+007, +2.36705024651E+000, +3.37909537735E+002
+3.87924874791E+007, +3.06158859650E+000, +3.39149856252E+002
+3.89592654424E+007, +2.27912475812E+000, +3.41521209754E+002
+3.91260434057E+007, +2.99355252533E+000, +3.43654273718E+002
+3.92928213689E+007, +2.95698283228E+000, +3.45411206511E+002
+3.94595993322E+007, +2.99071542151E+000, +3.46801345835E+002
+3.96263772955E+007, +2.68981047555E+000, +3.48676313204E+002
+3.97931552588E+007, +3.22011565626E+000, +3.50873279706E+002
+3.99599332220E+007, +2.97701428320E+000, +3.52653009304E+002
+4.01267111853E+007, +3.27077271695E+000, +3.54341589045E+002
+4.02934891486E+007, +2.62147626384E+000, +3.56120491082E+002
+4.04602671119E+007, +3.60039622842E+000, +3.58271730526E+002
+4.06270450751E+007, +3.66941590915E+000, +3.61083503448E+002
+4.07938230384E+007, +3.59700805234E+000, +3.62733914953E+002
+4.09606010017E+007, +3.73545746937E+000, +3.64193274085E+002
+4.11273789649E+007, +3.60115559253E+000, +3.65759674989E+002
+4.12941569282E+007, +3.71445421029E+000, +3.67825402054E+002
+4.14609348915E+007, +3.58100066080E+000, +3.70886074247E+002
+4.16277128548E+007, +3.59371126224E+000, +3.72609186833E+002
+4.17944908180E+007, +4.31083126208E+000, +3.73834354642E+002
+4.19612687813E+007, +4.17145541323E+000, +3.75704296139E+002
+4.21280467446E+007, +3.52842088778E+000, +3.78142075098E+002
+4.22948247078E+007, +3.83095717017E+000, +3.80182669293E+002
+4.24616026711E+007, +4.61012887763E+000, +3.82008792643E+002
+4.26283806344E+007, +3.83609175961E+000, +3.84150223426E+002
+4.27951585977E+007, +3.54748188770E+000, +3.86628735853E+002
+4.29619365609E+007, +4.46702166298E+000, +3.88355816896E+002
+4.31287145242E+007, +4.94541167665E+000, +3.90301336799E+002
+4.32954924875E+007, +4.31519011642E+000, +3.92614003149E+002
+4.34622704508E+007, +3.78959660797E+000, +3.94694621984E+002
+4.36290484140E+007, +4.49502025561E+000, +3.97338780429E+002
+4.37958263773E+007, +4.35202083241E+000, +3.99639185074E+002
+4.39626043406E+007, +4.35776678889E+000, +4.01171997772E+002
+4.41293823038E+007, +4.96454964137E+000, +4.04153855709E+002
+4.42961602671E+007, +4.48738853889E+000, +4.06054168083E+002
+4.44629382304E+007, +4.85493551616E+000, +4.08900156745E+002
+4.46297161937E+007, +4.80454093157E+000, +4.10874531750E+002
+4.47964941569E+007, +4.45558016592E+000, +4.12322594314E+002
+4.49632721202E+007, +4.49132137272E+000, +4.15122440190E+002
+4.51300500835E+007, +4.94881193899E+000, +4.17193017405E+002
+4.52968280467E+007, +5.78901588457E+000, +4.19192806503E+002
+4.54636060100E+007, +5.64138874302E+000, +4.22777127555E+002
+4.56303839733E+007, +4.96356173506E+000, +4.24524144270E+002
+4.57971619366E+007, +5.34327270636E+000, +4.26740147866E+002
+4.59639398998E+007, +5.90169866935E+000, +4.30061461734E+002
+4.61307178631E+007, +5.83263177028E+000, +4.31863008808E+002
+4.62974958264E+007, +6.92219143093E+000, +4.35367479086E+002
+4.64642737896E+007, +5.82749454630E+000, +4.36336558928E+002
+4.66310517529E+007, +6.21112250277E+000, +4.39286537790E+002
+4.67978297162E+007, +7.92411205938E+000, +4.41708406511E+002
+4.69646076795E+007, +6.80268642091E+000, +4.44570071641E+002
+4.71313856427E+007, +7.34725989713E+000, +4.46745155873E+002
+4.72981636060E+007, +7.52347648809E+000, +4.49816241101E+002
+4.74649415693E+007, +7.41020405868E+000, +4.52036635897E+002
+4.76317195326E+007, +9.30991933650E+000, +4.55098368802E+002
+4.77984974958E+007, +9.08217048375E+000, +4.57889974658E+002
+4.79652754591E+007, +7.94086664346E+000, +4.59678203939E+002
+4.81320534224E+007, +8.94919170171E+000, +4.62841696016E+002
+4.82988313856E+007, +9.49839832545E+000, +4.65709190452E+002
+4.84656093489E+007, +1.05964991385E+001, +4.68696047272E+002
+4.86323873122E+007, +1.08844220512E+001, +4.69989992772E+002
+4.87991652755E+007, +1.08813329551E+001, +4.73055730672E+002
+4.89659432387E+007, +1.13406370952E+001, +4.74604180305E+002
+4.91327212020E+007, +1.16471473737E+001, +4.78251598022E+002
+4.92994991653E+007, +1.23396240572E+001, +4.80195876128E+002
+4.94662771285E+007, +1.32896689154E+001, +4.83501539522E+002
+4.96330550918E+007, +1.32599510528E+001, +4.86990796921E+002
+4.97998330551E+007, +1.45176291502E+001, +4.88645594255E+002
+4.99666110184E+007, +1.44345422384E+001, +4.91095042993E+002
+5.01333889816E+007, +1.49698271875E+001, +4.93753505304E+002
+5.03001669449E+007, +1.40702628685E+001, +4.96118612493E+002
+5.04669449082E+007, +1.45226487034E+001, +5.00284143403E+002
+5.06337228715E+007, +1.60126569432E+001, +5.03352591946E+002
+5.08005008347E+007, +1.53030931714E+001, +5.03881555571E+002
+5.09672787980E+007, +1.66827015013E+001, +5.06137540693E+002
+5.11340567613E+007, +1.69967666300E+001, +5.10293257778E+002
+5.13008347245E+007, +1.56066218948E+001, +5.13502527441E+002
+5.14676126878E+007, +1.66198050941E+001, +5.16140089610E+002
+5.16343906511E+007, +1.70175418018E+001, +5.19220862664E+002
+5.18011686144E+007, +1.63473220566E+001, +5.21844346906E+002
+5.19679465776E+007, +1.70765212237E+001, +5.25141441962E+002
+5.21347245409E+007, +1.69684859223E+001, +5.29309205272E+002
+5.23015025042E+007, +1.73473251416E+001, +5.32739455840E+002
+5.24682804674E+007, +1.63999208161E+001, +5.36441666638E+002
+5.26350584307E+007, +1.71925388826E+001, +5.39298448383E+002
+5.28018363940E+007, +1.54182774951E+001, +5.42614990150E+002
+5.29686143573E+007, +1.66779570924E+001, +5.45428074318E+002
+5.31353923205E+007, +1.73084517217E+001, +5.48472162843E+002
+5.33021702838E+007, +1.59028576201E+001, +5.53271114253E+002
+5.34689482471E+007, +1.74554058547E+001, +5.57479865689E+002
