"# Channel 1"
"# Trace 1"
Frequency, Formatted Data, Formatted Data
+1.00000000000E+005, +1.43400235118E+001, +1.10316121918E+000
+2.66777963272E+005, +1.43383970226E+001, +2.97278003782E+000
+4.33555926544E+005, +1.43286985198E+001, +4.85409328888E+000
+6.00333889816E+005, +1.43638150667E+001, +6.66179115673E+000
+7.67111853088E+005, +1.43835751964E+001, +8.52861032623E+000
+9.33889816361E+005, +1.44021330226E+001, +1.03750569332E+001
+1.10066777963E+006, +1.43778503765E+001, +1.22528854546E+001
+1.26744574290E+006, +1.43992877232E+001, +1.40692327889E+001
+1.43422370618E+006, +1.43599503462E+001, +1.59441289410E+001
+1.60100166945E+006, +1.44087006543E+001, +1.77475288406E+001
+1.76777963272E+006, +1.44325777400E+001, +1.95799243164E+001
+1.93455759599E+006, +1.44091036762E+001, +2.13841657208E+001
+2.10133555927E+006, +1.44334868722E+001, +2.32503648436E+001
+2.26811352254E+006, +1.44454794020E+001, +2.50832532378E+001
+2.43489148581E+006, +1.44450601602E+001, +2.69767619258E+001
+2.60166944908E+006, +1.44399185902E+001, +2.87326015218E+001
+2.76844741235E+006, +1.44605340383E+001, +3.06339223044E+001
+2.93522537563E+006, +1.44428331484E+001, +3.24423043495E+001
+3.10200333890E+006, +1.44852385196E+001, +3.42315779122E+001
+3.26878130217E+006, +1.44284467589E+001, +3.61207420281E+001
+3.43555926544E+006, +1.44928971058E+001, +3.79684900928E+001
+3.60233722871E+006, +1.45178348199E+001, +3.98072231453E+001
+3.76911519199E+006, +1.44827614338E+001, +4.17332568477E+001
+3.93589315526E+006, +1.44160978243E+001, +4.34356450512E+001
+4.10267111853E+006, +1.44951015623E+001, +4.54164286944E+001
+4.26944908180E+006, +1.44979429020E+001, +4.72122132981E+001
+4.43622704508E+006, +1.44878135960E+001, +4.90103793773E+001
+4.60300500835E+006, +1.45295995012E+001, +5.09026454139E+001
+4.76978297162E+006, +1.45092905549E+001, +5.27134076804E+001
+4.93656093489E+006, +1.45455434274E+001, +5.45694511096E+001
+5.10333889816E+006, +1.45690929178E+001, +5.63383565106E+001
+5.27011686144E+006, +1.46382150084E+001, +5.83439531814E+001
+5.43689482471E+006, +1.45586189536E+001, +6.01696656542E+001
+5.60367278798E+006, +1.46195962670E+001, +6.20764256836E+001
+5.77045075125E+006, +1.45236638308E+001, +6.38229235085E+001
+5.93722871452E+006, +1.46449883545E+001, +6.57014648163E+001
+6.10400667780E+006, +1.46402318978E+001, +6.75990203172E+001
+6.27078464107E+006, +1.46751079889E+001, +6.94156222729E+001
+6.43756260434E+006, +1.47034413702E+001, +7.13095885357E+001
+6.60434056761E+006, +1.47101064583E+001, +7.31164742349E+001
+6.77111853088E+006, +1.48136681429E+001, +7.49574832284E+001
+6.93789649416E+006, +1.47517594185E+001, +7.68720239184E+001
+7.10467445743E+006, +1.47931511276E+001, +7.86799651975E+001
+7.27145242070E+006, +1.48145761900E+001, +8.05294367343E+001
+7.43823038397E+006, +1.48758448234E+001, +8.23485887410E+001
+7.60500834725E+006, +1.48070588739E+001, +8.42602836035E+001
+7.77178631052E+006, +1.48685534000E+001, +8.61626543432E+001
+7.93856427379E+006, +1.48790163243E+001, +8.79605928747E+001
+8.10534223706E+006, +1.49424891341E+001, +8.98350301126E+001
+8.27212020033E+006, +1.49354443904E+001, +9.16886140141E+001
+8.43889816361E+006, +1.48897985136E+001, +9.36073323315E+001
+8.60567612688E+006, +1.48579904263E+001, +9.54514624464E+001
+8.77245409015E+006, +1.48604512182E+001, +9.72649845077E+001
+8.93923205342E+006, +1.49478009995E+001, +9.91702259618E+001
+9.10601001669E+006, +1.49850590263E+001, +1.01109982075E+002
+9.27278797997E+006, +1.50034802788E+001, +1.02971086807E+002
+9.43956594324E+006, +1.49731825635E+001, +1.04849093425E+002
+9.60634390651E+006, +1.49905554124E+001, +1.06709128111E+002
+9.77312186978E+006, +1.49513519051E+001, +1.08508689842E+002
+9.93989983306E+006, +1.50717805835E+001, +1.10453840158E+002
+1.01066777963E+007, +1.49778838153E+001, +1.12308538644E+002
+1.02734557596E+007, +1.50554311423E+001, +1.14228784208E+002
+1.04402337229E+007, +1.50192657138E+001, +1.16107501573E+002
+1.06070116861E+007, +1.50031028345E+001, +1.17948056919E+002
+1.07737896494E+007, +1.50279118621E+001, +1.19876371223E+002
+1.09405676127E+007, +1.51390167444E+001, +1.21785021046E+002
+1.11073455760E+007, +1.50910859642E+001, +1.23789435160E+002
+1.12741235392E+007, +1.51237649400E+001, +1.25526357380E+002
+1.14409015025E+007, +1.51952382421E+001, +1.27511292896E+002
+1.16076794658E+007, +1.52617482423E+001, +1.29397465490E+002
+1.17744574290E+007, +1.52226675394E+001, +1.31387158309E+002
+1.19412353923E+007, +1.51631917066E+001, +1.33140946995E+002
+1.21080133556E+007, +1.50829555081E+001, +1.35112225930E+002
+1.22747913189E+007, +1.52719532202E+001, +1.37100254522E+002
+1.24415692821E+007, +1.51691896562E+001, +1.38864589354E+002
+1.26083472454E+007, +1.51728955343E+001, +1.40862018417E+002
+1.27751252087E+007, +1.53947431960E+001, +1.42691300925E+002
+1.29419031720E+007, +1.52304146409E+001, +1.44677254518E+002
+1.31086811352E+007, +1.54009571279E+001, +1.46671466068E+002
+1.32754590985E+007, +1.54110304024E+001, +1.48554577736E+002
+1.34422370618E+007, +1.53408694439E+001, +1.50338677882E+002
+1.36090150250E+007, +1.56210388704E+001, +1.52329730481E+002
+1.37757929883E+007, +1.54481082816E+001, +1.54259411657E+002
+1.39425709516E+007, +1.56008238554E+001, +1.56270669362E+002
+1.41093489149E+007, +1.56332697678E+001, +1.58096169691E+002
+1.42761268781E+007, +1.57784462674E+001, +1.60014333895E+002
+1.44429048414E+007, +1.58437252386E+001, +1.61817367220E+002
+1.46096828047E+007, +1.55883712359E+001, +1.64047077143E+002
+1.47764607679E+007, +1.57214376074E+001, +1.65612009933E+002
+1.49432387312E+007, +1.57343293367E+001, +1.67685283503E+002
+1.51100166945E+007, +1.56692613545E+001, +1.69751248195E+002
+1.52767946578E+007, +1.58101190513E+001, +1.71582752924E+002
+1.54435726210E+007, +1.59061834595E+001, +1.73539166017E+002
+1.56103505843E+007, +1.59260261558E+001, +1.75593406342E+002
+1.57771285476E+007, +1.57556534024E+001, +1.77482437390E+002
+1.59439065109E+007, +1.59337345198E+001, +1.79450055523E+002
+1.61106844741E+007, +1.58596721068E+001, +1.81337523225E+002
+1.62774624374E+007, +1.60119582725E+001, +1.83288766693E+002
+1.64442404007E+007, +1.59309416205E+001, +1.85328983574E+002
+1.66110183639E+007, +1.60661968730E+001, +1.87209651112E+002
+1.67777963272E+007, +1.61222555145E+001, +1.89517196751E+002
+1.69445742905E+007, +1.61880217980E+001, +1.91166870181E+002
+1.71113522538E+007, +1.56399316193E+001, +1.93006923110E+002
+1.72781302170E+007, +1.60841898893E+001, +1.95396109505E+002
+1.74449081803E+007, +1.59614970761E+001, +1.97243813769E+002
+1.76116861436E+007, +1.62060470213E+001, +1.99215445965E+002
+1.77784641068E+007, +1.59276086660E+001, +2.00929674740E+002
+1.79452420701E+007, +1.61892750433E+001, +2.03107539530E+002
+1.81120200334E+007, +1.63831883332E+001, +2.05161460043E+002
+1.82787979967E+007, +1.64941846232E+001, +2.07251828114E+002
+1.84455759599E+007, +1.65968492506E+001, +2.09380088047E+002
+1.86123539232E+007, +1.68024477915E+001, +2.11212100857E+002
+1.87791318865E+007, +1.65110892935E+001, +2.13315361234E+002
+1.89459098497E+007, +1.67209425791E+001, +2.15197380120E+002
+1.91126878130E+007, +1.69076419108E+001, +2.17255982913E+002
+1.92794657763E+007, +1.68692961375E+001, +2.19298349048E+002
+1.94462437396E+007, +1.67123464031E+001, +2.21653000708E+002
+1.96130217028E+007, +1.68804217550E+001, +2.23507524951E+002
+1.97797996661E+007, +1.72688202888E+001, +2.25422029433E+002
+1.99465776294E+007, +1.68549389197E+001, +2.27340696123E+002
+2.01133555927E+007, +1.70275175139E+001, +2.29267523230E+002
+2.02801335559E+007, +1.72132307892E+001, +2.31528744996E+002
+2.04469115192E+007, +1.76141313396E+001, +2.33745798276E+002
+2.06136894825E+007, +1.72732485494E+001, +2.35707161508E+002
+2.07804674457E+007, +1.74722278291E+001, +2.37891394006E+002
+2.09472454090E+007, +1.73792102734E+001, +2.40035445320E+002
+2.11140233723E+007, +1.77526546736E+001, +2.41861316119E+002
+2.12808013356E+007, +1.79232886368E+001, +2.43849415816E+002
+2.14475792988E+007, +1.78582428291E+001, +2.46276273042E+002
+2.16143572621E+007, +1.80145337095E+001, +2.48063632660E+002
+2.17811352254E+007, +1.78058331510E+001, +2.50081560678E+002
+2.19479131886E+007, +1.84485639345E+001, +2.52271558475E+002
+2.21146911519E+007, +1.86666792105E+001, +2.54214317152E+002
+2.22814691152E+007, +1.84163920488E+001, +2.56462218557E+002
+2.24482470785E+007, +1.85495468273E+001, +2.58682446838E+002
+2.26150250417E+007, +1.89253291673E+001, +2.60759517291E+002
+2.27818030050E+007, +1.90677844862E+001, +2.63084901798E+002
+2.29485809683E+007, +1.89279250761E+001, +2.65062529644E+002
+2.31153589316E+007, +1.89089138209E+001, +2.67189511578E+002
+2.32821368948E+007, +1.95360322672E+001, +2.69302433864E+002
+2.34489148581E+007, +1.95872219419E+001, +2.71308255948E+002
+2.36156928214E+007, +1.99057862816E+001, +2.73555720843E+002
+2.37824707846E+007, +1.96047195860E+001, +2.75527208714E+002
+2.39492487479E+007, +2.00329622164E+001, +2.77627457959E+002
+2.41160267112E+007, +2.03741175427E+001, +2.79736229614E+002
+2.42828046745E+007, +2.01384898917E+001, +2.81759849320E+002
+2.44495826377E+007, +2.04068479911E+001, +2.84067235652E+002
+2.46163606010E+007, +2.07099205913E+001, +2.85898467852E+002
+2.47831385643E+007, +2.07650461772E+001, +2.88081210022E+002
+2.49499165275E+007, +2.15164736864E+001, +2.90279632266E+002
+2.51166944908E+007, +2.15992126527E+001, +2.92459406476E+002
+2.52834724541E+007, +2.16143164982E+001, +2.94638833228E+002
+2.54502504174E+007, +2.23104372248E+001, +2.97022457760E+002
+2.56170283806E+007, +2.19151944597E+001, +2.98979875653E+002
+2.57838063439E+007, +2.16935077083E+001, +3.01415002889E+002
+2.59505843072E+007, +2.23759801322E+001, +3.03532387533E+002
+2.61173622705E+007, +2.28854541241E+001, +3.05253287536E+002
+2.62841402337E+007, +2.26943954670E+001, +3.07513894330E+002
+2.64509181970E+007, +2.24109414273E+001, +3.09451008388E+002
+2.66176961603E+007, +2.28292938911E+001, +3.11757689684E+002
+2.67844741235E+007, +2.29308088017E+001, +3.13459269863E+002
+2.69512520868E+007, +2.32335072225E+001, +3.15672850917E+002
+2.71180300501E+007, +2.34259758130E+001, +3.17326851941E+002
+2.72848080134E+007, +2.38991152003E+001, +3.19502333080E+002
+2.74515859766E+007, +2.41341139341E+001, +3.21643702472E+002
+2.76183639399E+007, +2.34943818549E+001, +3.23384397937E+002
+2.77851419032E+007, +2.36238122332E+001, +3.25909022832E+002
+2.79519198664E+007, +2.35616529624E+001, +3.27768293747E+002
+2.81186978297E+007, +2.40011243633E+001, +3.29924779378E+002
+2.82854757930E+007, +2.40606975512E+001, +3.31887930698E+002
+2.84522537563E+007, +2.31362047326E+001, +3.34437183608E+002
+2.86190317195E+007, +2.34422844171E+001, +3.36208159346E+002
+2.87858096828E+007, +2.37588274129E+001, +3.38909949916E+002
+2.89525876461E+007, +2.40427930389E+001, +3.40703581949E+002
+2.91193656093E+007, +2.30050774854E+001, +3.42809294953E+002
+2.92861435726E+007, +2.30511415051E+001, +3.45658069982E+002
+2.94529215359E+007, +2.34935691733E+001, +3.48013398507E+002
+2.96196994992E+007, +2.39895254454E+001, +3.50287296947E+002
+2.97864774624E+007, +2.42447757122E+001, +3.52879320163E+002
+2.99532554257E+007, +2.45628743538E+001, +3.55079430459E+002
+3.01200333890E+007, +2.45284855643E+001, +3.58165853055E+002
+3.02868113523E+007, +2.41204381475E+001, +3.60159247604E+002
+3.04535893155E+007, +2.39123807892E+001, +3.63373235826E+002
+3.06203672788E+007, +2.48657598318E+001, +3.64738073526E+002
+3.07871452421E+007, +2.42081529367E+001, +3.66756158957E+002
+3.09539232053E+007, +2.50771666605E+001, +3.69656639700E+002
+3.11207011686E+007, +2.39175908511E+001, +3.72820064414E+002
+3.12874791319E+007, +2.46027332543E+001, +3.73990363256E+002
+3.14542570952E+007, +2.48446362222E+001, +3.76708148954E+002
+3.16210350584E+007, +2.41119107704E+001, +3.79806970750E+002
+3.17878130217E+007, +2.40634480458E+001, +3.81893799102E+002
+3.19545909850E+007, +2.46158159733E+001, +3.84593602437E+002
+3.21213689482E+007, +2.46756460668E+001, +3.86717988566E+002
+3.22881469115E+007, +2.48755695484E+001, +3.89397208583E+002
+3.24549248748E+007, +2.55233965220E+001, +3.92943063336E+002
+3.26217028381E+007, +2.46176901958E+001, +3.95147234161E+002
+3.27884808013E+007, +2.54295247950E+001, +3.97673537472E+002
+3.29552587646E+007, +2.54819657817E+001, +3.99153537136E+002
+3.31220367279E+007, +2.60478371801E+001, +4.02104421447E+002
+3.32888146912E+007, +2.54375732518E+001, +4.05474829707E+002
+3.34555926544E+007, +2.51294872512E+001, +4.08093369218E+002
+3.36223706177E+007, +2.59431933816E+001, +4.10760939302E+002
+3.37891485810E+007, +2.60384573014E+001, +4.11941884966E+002
+3.39559265442E+007, +2.63366489944E+001, +4.16381301684E+002
+3.41227045075E+007, +2.57701722147E+001, +4.17898196967E+002
+3.42894824708E+007, +2.62462457168E+001, +4.21096771219E+002
+3.44562604341E+007, +2.66531427993E+001, +4.23899188672E+002
+3.46230383973E+007, +2.74624504999E+001, +4.26664988115E+002
+3.47898163606E+007, +2.74938182780E+001, +4.29447897416E+002
+3.49565943239E+007, +2.72768640403E+001, +4.32039850110E+002
+3.51233722871E+007, +2.68487322252E+001, +4.34983993147E+002
+3.52901502504E+007, +2.77418308255E+001, +4.37337317243E+002
+3.54569282137E+007, +2.74857734240E+001, +4.41058579004E+002
+3.56237061770E+007, +2.70856026539E+001, +4.43751766072E+002
+3.57904841402E+007, +2.80990351403E+001, +4.47005785876E+002
+3.59572621035E+007, +2.85411245829E+001, +4.49035382196E+002
+3.61240400668E+007, +2.87300929556E+001, +4.52177358575E+002
+3.62908180301E+007, +2.99184689286E+001, +4.56272865774E+002
+3.64575959933E+007, +2.84110102542E+001, +4.58056734349E+002
+3.66243739566E+007, +2.91144434370E+001, +4.61317575696E+002
+3.67911519199E+007, +2.97065581454E+001, +4.64906462539E+002
+3.69579298831E+007, +2.95301129536E+001, +4.67078105784E+002
+3.71247078464E+007, +2.95903633981E+001, +4.70052866570E+002
+3.72914858097E+007, +2.89943647152E+001, +4.73733299495E+002
+3.74582637730E+007, +2.99485484574E+001, +4.77889323347E+002
+3.76250417362E+007, +3.02670422159E+001, +4.81337425659E+002
+3.77918196995E+007, +3.02744780383E+001, +4.82967691525E+002
+3.79585976628E+007, +2.93636866377E+001, +4.86036829655E+002
+3.81253756260E+007, +3.17182246389E+001, +4.89929534581E+002
+3.82921535893E+007, +3.25299783880E+001, +4.92315642978E+002
+3.84589315526E+007, +3.18711539462E+001, +4.96020613317E+002
+3.86257095159E+007, +3.10133965357E+001, +4.99837738991E+002
+3.87924874791E+007, +3.18712191786E+001, +5.03577510168E+002
+3.89592654424E+007, +3.23627699604E+001, +5.05920134606E+002
+3.91260434057E+007, +3.30997622280E+001, +5.10790599021E+002
+3.92928213689E+007, +3.30213993156E+001, +5.13883300605E+002
+3.94595993322E+007, +3.37961414107E+001, +5.17418604678E+002
+3.96263772955E+007, +3.32976838209E+001, +5.20750392077E+002
+3.97931552588E+007, +3.29821820348E+001, +5.25288519124E+002
+3.99599332220E+007, +3.49245628228E+001, +5.28155325454E+002
+4.01267111853E+007, +3.48004440168E+001, +5.31394254189E+002
+4.02934891486E+007, +3.59588105124E+001, +5.34901102314E+002
+4.04602671119E+007, +3.69673608676E+001, +5.38269499790E+002
+4.06270450751E+007, +3.77221339834E+001, +5.42139838956E+002
+4.07938230384E+007, +3.83393815349E+001, +5.46398821419E+002
+4.09606010017E+007, +3.80087221846E+001, +5.49506244138E+002
+4.11273789649E+007, +3.96937569639E+001, +5.53033011032E+002
+4.12941569282E+007, +3.89689407974E+001, +5.57108084011E+002
+4.14609348915E+007, +4.03686969722E+001, +5.62699080686E+002
+4.16277128548E+007, +4.18094379894E+001, +5.65924656761E+002
+4.17944908180E+007, +4.13257305023E+001, +5.68636236696E+002
+4.19612687813E+007, +4.22819537526E+001, +5.74034142595E+002
+4.21280467446E+007, +4.19915411604E+001, +5.78177690165E+002
+4.22948247078E+007, +4.28639506975E+001, +5.81044340672E+002
+4.24616026711E+007, +4.38797878043E+001, +5.84985972729E+002
+4.26283806344E+007, +4.51127069679E+001, +5.90665429278E+002
+4.27951585977E+007, +4.36882886936E+001, +5.95366063083E+002
+4.29619365609E+007, +4.61858507600E+001, +5.99225190461E+002
+4.31287145242E+007, +4.79350508996E+001, +6.02609299665E+002
+4.32954924875E+007, +4.75299246972E+001, +6.06414724381E+002
+4.34622704508E+007, +4.63398776759E+001, +6.12579080539E+002
+4.36290484140E+007, +4.88460000832E+001, +6.17703671903E+002
+4.37958263773E+007, +4.76125347718E+001, +6.22454231233E+002
+4.39626043406E+007, +5.01712744953E+001, +6.26723805454E+002
+4.41293823038E+007, +5.16490185083E+001, +6.32669481826E+002
+4.42961602671E+007, +5.11214111400E+001, +6.36728386489E+002
+4.44629382304E+007, +5.19908834457E+001, +6.42167250385E+002
+4.46297161937E+007, +5.40028133128E+001, +6.46664517673E+002
+4.47964941569E+007, +5.43123192701E+001, +6.51161559197E+002
+4.49632721202E+007, +5.52187118944E+001, +6.58551562961E+002
+4.51300500835E+007, +5.78169652270E+001, +6.62024214022E+002
+4.52968280467E+007, +5.99817944067E+001, +6.68450072531E+002
+4.54636060100E+007, +6.05977808925E+001, +6.73791060605E+002
+4.56303839733E+007, +6.22890203002E+001, +6.82080229745E+002
+4.57971619366E+007, +6.36729987521E+001, +6.86596059168E+002
+4.59639398998E+007, +6.35394615313E+001, +6.95821497118E+002
+4.61307178631E+007, +6.71667315340E+001, +6.97582488877E+002
+4.62974958264E+007, +6.83783079869E+001, +7.03983777275E+002
+4.64642737896E+007, +6.96548283440E+001, +7.11445157227E+002
+4.66310517529E+007, +7.19171941200E+001, +7.16542704727E+002
+4.67978297162E+007, +7.58595563678E+001, +7.21538288082E+002
+4.69646076795E+007, +7.76031207744E+001, +7.29210453634E+002
+4.71313856427E+007, +8.07594376115E+001, +7.34230665779E+002
+4.72981636060E+007, +8.15554105468E+001, +7.43835657843E+002
+4.74649415693E+007, +8.32926397873E+001, +7.50123915833E+002
+4.76317195326E+007, +8.87316344922E+001, +7.53177197024E+002
+4.77984974958E+007, +9.22584903365E+001, +7.60862580350E+002
+4.79652754591E+007, +9.60171218646E+001, +7.68259137739E+002
+4.81320534224E+007, +1.00483003326E+002, +7.73178992881E+002
+4.82988313856E+007, +1.01335102497E+002, +7.80994403984E+002
+4.84656093489E+007, +1.05859210867E+002, +7.88785643386E+002
+4.86323873122E+007, +1.13430993538E+002, +7.93260238555E+002
+4.87991652755E+007, +1.16653999452E+002, +7.98856585114E+002
+4.89659432387E+007, +1.20853347307E+002, +8.03026857526E+002
+4.91327212020E+007, +1.23327124454E+002, +8.11652309146E+002
+4.92994991653E+007, +1.26574049129E+002, +8.17706289486E+002
+4.94662771285E+007, +1.33600801990E+002, +8.20704515098E+002
+4.96330550918E+007, +1.37698277041E+002, +8.30834457119E+002
+4.97998330551E+007, +1.41563178768E+002, +8.33253753518E+002
+4.99666110184E+007, +1.43657186294E+002, +8.37753093596E+002
+5.01333889816E+007, +1.45397255893E+002, +8.45762603584E+002
+5.03001669449E+007, +1.48878598577E+002, +8.51178121924E+002
+5.04669449082E+007, +1.55253801589E+002, +8.58242877302E+002
+5.06337228715E+007, +1.58038685642E+002, +8.61342313970E+002
+5.08005008347E+007, +1.60080803618E+002, +8.69520606077E+002
+5.09672787980E+007, +1.67197670646E+002, +8.72771100234E+002
+5.11340567613E+007, +1.67000752748E+002, +8.81354180274E+002
+5.13008347245E+007, +1.65786604878E+002, +8.88327641487E+002
+5.14676126878E+007, +1.67168880514E+002, +8.92987046852E+002
+5.16343906511E+007, +1.74462584654E+002, +9.03353459397E+002
+5.18011686144E+007, +1.71338191451E+002, +9.10533355409E+002
+5.19679465776E+007, +1.74489164384E+002, +9.21201830991E+002
+5.21347245409E+007, +1.78672085512E+002, +9.32814252439E+002
+5.23015025042E+007, +1.82829119235E+002, +9.47533483327E+002
+5.24682804674E+007, +1.80285970781E+002, +9.59764630509E+002
+5.26350584307E+007, +1.85045924935E+002, +9.70104984119E+002
+5.28018363940E+007, +1.89646573986E+002, +9.83405479755E+002
+5.29686143573E+007, +1.91713113390E+002, +9.99102696893E+002
+5.31353923205E+007, +1.92732042364E+002, +1.00727925230E+003
+5.33021702838E+007, +1.96267566395E+002, +1.02373247864E+003
+5.34689482471E+007, +2.07946825000E+002, +1.04444233114E+003
