"# Channel 1"
"# Trace 1"
Frequency, Formatted Data, Formatted Data
+1.00000000000E+005, +1.44936028103E+001, +1.10259106270E+000
+2.66777963272E+005, +1.44903390368E+001, +2.99296777948E+000
+4.33555926544E+005, +1.45073503571E+001, +4.88457449833E+000
+6.00333889816E+005, +1.45209485187E+001, +6.68666401056E+000
+7.67111853088E+005, +1.45244513774E+001, +8.55574003812E+000
+9.33889816361E+005, +1.45378481722E+001, +1.03827365100E+001
+1.10066777963E+006, +1.45386035068E+001, +1.22519688333E+001
+1.26744574290E+006, +1.45413186860E+001, +1.40905831248E+001
+1.43422370618E+006, +1.45340693525E+001, +1.59602963906E+001
+1.60100166945E+006, +1.45704012689E+001, +1.77772057652E+001
+1.76777963272E+006, +1.45898518394E+001, +1.95998874265E+001
+1.93455759599E+006, +1.45703947347E+001, +2.13945824120E+001
+2.10133555927E+006, +1.45554551487E+001, +2.32820972220E+001
+2.26811352254E+006, +1.46005158321E+001, +2.51062340599E+001
+2.43489148581E+006, +1.46316169458E+001, +2.69632956963E+001
+2.60166944908E+006, +1.45909843042E+001, +2.87929753766E+001
+2.76844741235E+006, +1.46172874156E+001, +3.06706210300E+001
+2.93522537563E+006, +1.45897970455E+001, +3.24515568056E+001
+3.10200333890E+006, +1.46751427527E+001, +3.42686158335E+001
+3.26878130217E+006, +1.45630973659E+001, +3.61497007547E+001
+3.43555926544E+006, +1.46249127675E+001, +3.79735673935E+001
+3.60233722871E+006, +1.46943397082E+001, +3.98235760361E+001
+3.76911519199E+006, +1.46492640607E+001, +4.17408583196E+001
+3.93589315526E+006, +1.45611201429E+001, +4.34833885477E+001
+4.10267111853E+006, +1.46678942305E+001, +4.54442634903E+001
+4.26944908180E+006, +1.46670465179E+001, +4.72734130742E+001
+4.43622704508E+006, +1.46144826252E+001, +4.90308671130E+001
+4.60300500835E+006, +1.46899123991E+001, +5.09707481639E+001
+4.76978297162E+006, +1.46727995206E+001, +5.27180689729E+001
+4.93656093489E+006, +1.47810778102E+001, +5.46338765914E+001
+5.10333889816E+006, +1.47086474903E+001, +5.64078454510E+001
+5.27011686144E+006, +1.47794091194E+001, +5.83692284541E+001
+5.43689482471E+006, +1.46633529903E+001, +6.02126826808E+001
+5.60367278798E+006, +1.47840034404E+001, +6.21246014950E+001
+5.77045075125E+006, +1.46974940870E+001, +6.38441274115E+001
+5.93722871452E+006, +1.48100922626E+001, +6.57288714641E+001
+6.10400667780E+006, +1.47360559238E+001, +6.76772532965E+001
+6.27078464107E+006, +1.48457524427E+001, +6.94604796079E+001
+6.43756260434E+006, +1.48563693432E+001, +7.13620662950E+001
+6.60434056761E+006, +1.48608427074E+001, +7.31861637065E+001
+6.77111853088E+006, +1.49773487991E+001, +7.50110435323E+001
+6.93789649416E+006, +1.49482591890E+001, +7.69246107341E+001
+7.10467445743E+006, +1.49209357007E+001, +7.87456516172E+001
+7.27145242070E+006, +1.49229704208E+001, +8.06132527079E+001
+7.43823038397E+006, +1.49817240425E+001, +8.24518071168E+001
+7.60500834725E+006, +1.49745449051E+001, +8.43001129436E+001
+7.77178631052E+006, +1.50708830012E+001, +8.62292418723E+001
+7.93856427379E+006, +1.50797078981E+001, +8.80475661047E+001
+8.10534223706E+006, +1.51209961836E+001, +8.99130141133E+001
+8.27212020033E+006, +1.50561250020E+001, +9.18025656278E+001
+8.43889816361E+006, +1.50457307893E+001, +9.36439016746E+001
+8.60567612688E+006, +1.50019162467E+001, +9.55186028915E+001
+8.77245409015E+006, +1.50592681351E+001, +9.73317231240E+001
+8.93923205342E+006, +1.50699584707E+001, +9.92106658366E+001
+9.10601001669E+006, +1.51309146988E+001, +1.01138617503E+002
+9.27278797997E+006, +1.51408700893E+001, +1.03034007998E+002
+9.43956594324E+006, +1.51600259795E+001, +1.04863579179E+002
+9.60634390651E+006, +1.51376897796E+001, +1.06755511023E+002
+9.77312186978E+006, +1.51284588149E+001, +1.08647623017E+002
+9.93989983306E+006, +1.51567327190E+001, +1.10557710901E+002
+1.01066777963E+007, +1.51456493173E+001, +1.12393787186E+002
+1.02734557596E+007, +1.51878202576E+001, +1.14289705776E+002
+1.04402337229E+007, +1.51631004450E+001, +1.16242979170E+002
+1.06070116861E+007, +1.51641633871E+001, +1.18068309448E+002
+1.07737896494E+007, +1.52563619724E+001, +1.19950474210E+002
+1.09405676127E+007, +1.52979932952E+001, +1.21905164852E+002
+1.11073455760E+007, +1.53225292982E+001, +1.23777817032E+002
+1.12741235392E+007, +1.53668374171E+001, +1.25628578480E+002
+1.14409015025E+007, +1.53593968147E+001, +1.27562682255E+002
+1.16076794658E+007, +1.53803372896E+001, +1.29466591484E+002
+1.17744574290E+007, +1.53593422252E+001, +1.31376504189E+002
+1.19412353923E+007, +1.53953365488E+001, +1.33367207277E+002
+1.21080133556E+007, +1.52299730801E+001, +1.35162107725E+002
+1.22747913189E+007, +1.53744002806E+001, +1.37162737105E+002
+1.24415692821E+007, +1.52823980801E+001, +1.38985833252E+002
+1.26083472454E+007, +1.53884071554E+001, +1.40921070965E+002
+1.27751252087E+007, +1.54850917123E+001, +1.42887717934E+002
+1.29419031720E+007, +1.54886882555E+001, +1.44750021768E+002
+1.31086811352E+007, +1.55112984259E+001, +1.46738299309E+002
+1.32754590985E+007, +1.55760477715E+001, +1.48687843708E+002
+1.34422370618E+007, +1.55473078184E+001, +1.50553968474E+002
+1.36090150250E+007, +1.58589849434E+001, +1.52470432771E+002
+1.37757929883E+007, +1.54716920274E+001, +1.54423458161E+002
+1.39425709516E+007, +1.57327883461E+001, +1.56243987108E+002
+1.41093489149E+007, +1.58353964919E+001, +1.58202297035E+002
+1.42761268781E+007, +1.59650993963E+001, +1.59978066645E+002
+1.44429048414E+007, +1.59523498019E+001, +1.61973107716E+002
+1.46096828047E+007, +1.58743110018E+001, +1.64067205096E+002
+1.47764607679E+007, +1.57946612606E+001, +1.65856343632E+002
+1.49432387312E+007, +1.57875763082E+001, +1.67845387490E+002
+1.51100166945E+007, +1.58570813235E+001, +1.69819234390E+002
+1.52767946578E+007, +1.60330600927E+001, +1.71722255219E+002
+1.54435726210E+007, +1.61294494890E+001, +1.73679236389E+002
+1.56103505843E+007, +1.60916752554E+001, +1.75637582674E+002
+1.57771285476E+007, +1.60212402935E+001, +1.77635081699E+002
+1.59439065109E+007, +1.61179691421E+001, +1.79572120079E+002
+1.61106844741E+007, +1.60552042300E+001, +1.81522626409E+002
+1.62774624374E+007, +1.61647074728E+001, +1.83491837247E+002
+1.64442404007E+007, +1.60626488713E+001, +1.85502955900E+002
+1.66110183639E+007, +1.62581552226E+001, +1.87411019399E+002
+1.67777963272E+007, +1.62607368858E+001, +1.89578540904E+002
+1.69445742905E+007, +1.64965044126E+001, +1.91489855657E+002
+1.71113522538E+007, +1.60700043335E+001, +1.93184503020E+002
+1.72781302170E+007, +1.62959586588E+001, +1.95534362715E+002
+1.74449081803E+007, +1.61599146982E+001, +1.97104328120E+002
+1.76116861436E+007, +1.66166860129E+001, +1.99369170228E+002
+1.77784641068E+007, +1.64055807646E+001, +2.01257803840E+002
+1.79452420701E+007, +1.63607466135E+001, +2.03341805611E+002
+1.81120200334E+007, +1.65017443984E+001, +2.05129721906E+002
+1.82787979967E+007, +1.67676467772E+001, +2.07288669553E+002
+1.84455759599E+007, +1.67484137823E+001, +2.09476982451E+002
+1.86123539232E+007, +1.70285372952E+001, +2.11405882458E+002
+1.87791318865E+007, +1.67960928514E+001, +2.13592989338E+002
+1.89459098497E+007, +1.69138244833E+001, +2.15583835002E+002
+1.91126878130E+007, +1.71115214180E+001, +2.17339463264E+002
+1.92794657763E+007, +1.71270776252E+001, +2.19541342413E+002
+1.94462437396E+007, +1.70283335356E+001, +2.21782977693E+002
+1.96130217028E+007, +1.69857591938E+001, +2.23730935314E+002
+1.97797996661E+007, +1.70898917598E+001, +2.25572386683E+002
+1.99465776294E+007, +1.72467263024E+001, +2.27565477873E+002
+2.01133555927E+007, +1.70973253040E+001, +2.29913791986E+002
+2.02801335559E+007, +1.71937148305E+001, +2.31906820309E+002
+2.04469115192E+007, +1.77444769154E+001, +2.33813095030E+002
+2.06136894825E+007, +1.74922624487E+001, +2.35937741244E+002
+2.07804674457E+007, +1.76703177035E+001, +2.38171006310E+002
+2.09472454090E+007, +1.75569390432E+001, +2.40077678370E+002
+2.11140233723E+007, +1.77065127000E+001, +2.41978166037E+002
+2.12808013356E+007, +1.83573771334E+001, +2.43986647020E+002
+2.14475792988E+007, +1.80577153527E+001, +2.46362753144E+002
+2.16143572621E+007, +1.84418991834E+001, +2.48142716458E+002
+2.17811352254E+007, +1.81956179581E+001, +2.50313949157E+002
+2.19479131886E+007, +1.84878045237E+001, +2.52375285636E+002
+2.21146911519E+007, +1.86218475382E+001, +2.54137085281E+002
+2.22814691152E+007, +1.86130731175E+001, +2.56727037103E+002
+2.24482470785E+007, +1.88560734474E+001, +2.59066748544E+002
+2.26150250417E+007, +1.92490348414E+001, +2.60919571349E+002
+2.27818030050E+007, +1.88236287316E+001, +2.63427737371E+002
+2.29485809683E+007, +1.95198387451E+001, +2.64910913210E+002
+2.31153589316E+007, +1.93517944531E+001, +2.67596982212E+002
+2.32821368948E+007, +1.98102143746E+001, +2.69586141881E+002
+2.34489148581E+007, +1.96661930319E+001, +2.71630612072E+002
+2.36156928214E+007, +1.99925707955E+001, +2.73914472464E+002
+2.37824707846E+007, +1.99527223031E+001, +2.75565875081E+002
+2.39492487479E+007, +2.01803453128E+001, +2.77876973715E+002
+2.41160267112E+007, +2.02065481440E+001, +2.79521365084E+002
+2.42828046745E+007, +2.03934519359E+001, +2.82055190771E+002
+2.44495826377E+007, +2.06842888026E+001, +2.84385469428E+002
+2.46163606010E+007, +2.04253897643E+001, +2.86251507671E+002
+2.47831385643E+007, +2.06222259698E+001, +2.88494739409E+002
+2.49499165275E+007, +2.13760203422E+001, +2.90660654592E+002
+2.51166944908E+007, +2.16690583844E+001, +2.92704312206E+002
+2.52834724541E+007, +2.15903634842E+001, +2.95121391412E+002
+2.54502504174E+007, +2.21037191498E+001, +2.97212162612E+002
+2.56170283806E+007, +2.23601809265E+001, +2.98978689811E+002
+2.57838063439E+007, +2.20895610085E+001, +3.01718357320E+002
+2.59505843072E+007, +2.25687290562E+001, +3.03481372423E+002
+2.61173622705E+007, +2.28748951827E+001, +3.05510233641E+002
+2.62841402337E+007, +2.25877704224E+001, +3.07773359447E+002
+2.64509181970E+007, +2.28384438584E+001, +3.09736189782E+002
+2.66176961603E+007, +2.35647964469E+001, +3.12118952263E+002
+2.67844741235E+007, +2.33284650002E+001, +3.14265642645E+002
+2.69512520868E+007, +2.40274091266E+001, +3.16248157882E+002
+2.71180300501E+007, +2.39372505274E+001, +3.17618875834E+002
+2.72848080134E+007, +2.40572226928E+001, +3.20159422862E+002
+2.74515859766E+007, +2.45712825885E+001, +3.22032800356E+002
+2.76183639399E+007, +2.38976489136E+001, +3.24246718449E+002
+2.77851419032E+007, +2.37049951352E+001, +3.26290514439E+002
+2.79519198664E+007, +2.41232844528E+001, +3.28708405222E+002
+2.81186978297E+007, +2.41638617872E+001, +3.30550550197E+002
+2.82854757930E+007, +2.47360213834E+001, +3.32224687631E+002
+2.84522537563E+007, +2.34947487987E+001, +3.35428283256E+002
+2.86190317195E+007, +2.39696822946E+001, +3.37134039840E+002
+2.87858096828E+007, +2.52157640514E+001, +3.38976934010E+002
+2.89525876461E+007, +2.48345184848E+001, +3.41469953840E+002
+2.91193656093E+007, +2.37233929645E+001, +3.43376437330E+002
+2.92861435726E+007, +2.39124715974E+001, +3.46057197532E+002
+2.94529215359E+007, +2.42186041456E+001, +3.48091199700E+002
+2.96196994992E+007, +2.43849605350E+001, +3.50286197846E+002
+2.97864774624E+007, +2.47721145772E+001, +3.52587742581E+002
+2.99532554257E+007, +2.46396929385E+001, +3.55767295624E+002
+3.01200333890E+007, +2.45064517118E+001, +3.57934482919E+002
+3.02868113523E+007, +2.46104028899E+001, +3.59868489230E+002
+3.04535893155E+007, +2.43094143596E+001, +3.62734828447E+002
+3.06203672788E+007, +2.47357112130E+001, +3.65614615591E+002
+3.07871452421E+007, +2.46693004827E+001, +3.67343164443E+002
+3.09539232053E+007, +2.47938206724E+001, +3.69601166213E+002
+3.11207011686E+007, +2.43203384876E+001, +3.73164096956E+002
+3.12874791319E+007, +2.48430305832E+001, +3.74650623715E+002
+3.14542570952E+007, +2.49412396692E+001, +3.77715685784E+002
+3.16210350584E+007, +2.45688712743E+001, +3.79751530854E+002
+3.17878130217E+007, +2.45516683955E+001, +3.82107653447E+002
+3.19545909850E+007, +2.54347098178E+001, +3.85097928759E+002
+3.21213689482E+007, +2.49856414418E+001, +3.88274324463E+002
+3.22881469115E+007, +2.46828815780E+001, +3.89780174716E+002
+3.24549248748E+007, +2.52034639755E+001, +3.93585597269E+002
+3.26217028381E+007, +2.50895693356E+001, +3.96067389530E+002
+3.27884808013E+007, +2.63628738596E+001, +3.98208375143E+002
+3.29552587646E+007, +2.61928996046E+001, +4.00784153355E+002
+3.31220367279E+007, +2.62497285125E+001, +4.03072784702E+002
+3.32888146912E+007, +2.60821218968E+001, +4.06208286000E+002
+3.34555926544E+007, +2.58853313237E+001, +4.08526638596E+002
+3.36223706177E+007, +2.74813688950E+001, +4.10943230524E+002
+3.37891485810E+007, +2.64911087799E+001, +4.13098471212E+002
+3.39559265442E+007, +2.67405625781E+001, +4.17073606435E+002
+3.41227045075E+007, +2.63903900227E+001, +4.18641374572E+002
+3.42894824708E+007, +2.73544287052E+001, +4.22676431963E+002
+3.44562604341E+007, +2.72275829310E+001, +4.24638280975E+002
+3.46230383973E+007, +2.72532391678E+001, +4.27402086160E+002
+3.47898163606E+007, +2.75088650691E+001, +4.30058828137E+002
+3.49565943239E+007, +2.89180616682E+001, +4.33590980056E+002
+3.51233722871E+007, +2.84546955929E+001, +4.36139039425E+002
+3.52901502504E+007, +2.91253224642E+001, +4.38273088390E+002
+3.54569282137E+007, +2.77323091182E+001, +4.41574319921E+002
+3.56237061770E+007, +2.86007323945E+001, +4.45023835471E+002
+3.57904841402E+007, +2.80377241939E+001, +4.47117709072E+002
+3.59572621035E+007, +2.95546071829E+001, +4.50301605915E+002
+3.61240400668E+007, +2.95433782490E+001, +4.53330577197E+002
+3.62908180301E+007, +2.98753658135E+001, +4.56935665901E+002
+3.64575959933E+007, +2.87993042980E+001, +4.59807649500E+002
+3.66243739566E+007, +3.04739434090E+001, +4.61091032846E+002
+3.67911519199E+007, +3.00211593016E+001, +4.65398450619E+002
+3.69579298831E+007, +3.03000854025E+001, +4.67814501745E+002
+3.71247078464E+007, +3.06078616926E+001, +4.72010185296E+002
+3.72914858097E+007, +3.06782821361E+001, +4.74585897845E+002
+3.74582637730E+007, +3.08960610952E+001, +4.78740791270E+002
+3.76250417362E+007, +3.16579974100E+001, +4.81179954003E+002
+3.77918196995E+007, +3.13424017727E+001, +4.84874039850E+002
+3.79585976628E+007, +3.05731023337E+001, +4.88296757649E+002
+3.81253756260E+007, +3.28223429513E+001, +4.91072579745E+002
+3.82921535893E+007, +3.30959127615E+001, +4.93779477095E+002
+3.84589315526E+007, +3.31595675150E+001, +4.98338171956E+002
+3.86257095159E+007, +3.31294126820E+001, +5.01644053295E+002
+3.87924874791E+007, +3.33011192116E+001, +5.04049269234E+002
+3.89592654424E+007, +3.41571030576E+001, +5.08034872903E+002
+3.91260434057E+007, +3.51175445556E+001, +5.12357344755E+002
+3.92928213689E+007, +3.60513154346E+001, +5.14779745802E+002
+3.94595993322E+007, +3.59733569014E+001, +5.19127189211E+002
+3.96263772955E+007, +3.49295042010E+001, +5.22573459136E+002
+3.97931552588E+007, +3.66357751321E+001, +5.25785290505E+002
+3.99599332220E+007, +3.61730969021E+001, +5.28062260225E+002
+4.01267111853E+007, +3.75159525348E+001, +5.32642091504E+002
+4.02934891486E+007, +3.81772201047E+001, +5.36046753479E+002
+4.04602671119E+007, +3.95307749649E+001, +5.39846231510E+002
+4.06270450751E+007, +3.99312202737E+001, +5.45298825134E+002
+4.07938230384E+007, +3.99100024982E+001, +5.47363723929E+002
+4.09606010017E+007, +4.04664623615E+001, +5.51088452654E+002
+4.11273789649E+007, +4.06133607955E+001, +5.55184130809E+002
+4.12941569282E+007, +4.16858127195E+001, +5.58345446028E+002
+4.14609348915E+007, +4.29462618742E+001, +5.63540127250E+002
+4.16277128548E+007, +4.38709573005E+001, +5.66641420699E+002
+4.17944908180E+007, +4.33741180164E+001, +5.68415550185E+002
+4.19612687813E+007, +4.32793634750E+001, +5.74486416324E+002
+4.21280467446E+007, +4.31069116844E+001, +5.78694398312E+002
+4.22948247078E+007, +4.57184363271E+001, +5.83014844035E+002
+4.24616026711E+007, +4.70554996467E+001, +5.85461113764E+002
+4.26283806344E+007, +4.71808764183E+001, +5.90760873021E+002
+4.27951585977E+007, +4.54340139234E+001, +5.96167323415E+002
+4.29619365609E+007, +4.81346997757E+001, +6.00900800353E+002
+4.31287145242E+007, +4.89620487656E+001, +6.06280497997E+002
+4.32954924875E+007, +4.99100083754E+001, +6.09362758013E+002
+4.34622704508E+007, +4.90997227378E+001, +6.14795234497E+002
+4.36290484140E+007, +5.09510113673E+001, +6.17975896191E+002
+4.37958263773E+007, +5.17188289016E+001, +6.24416170707E+002
+4.39626043406E+007, +5.32432204201E+001, +6.28726176385E+002
+4.41293823038E+007, +5.43452241383E+001, +6.34215419223E+002
+4.42961602671E+007, +5.36831590927E+001, +6.39024399042E+002
+4.44629382304E+007, +5.43571275431E+001, +6.43440207561E+002
+4.46297161937E+007, +5.60914361006E+001, +6.47331638348E+002
+4.47964941569E+007, +5.65241780069E+001, +6.55485771568E+002
+4.49632721202E+007, +5.92232476215E+001, +6.61620699729E+002
+4.51300500835E+007, +6.01969920044E+001, +6.64835165235E+002
+4.52968280467E+007, +6.29249386167E+001, +6.71609713875E+002
+4.54636060100E+007, +6.36844279426E+001, +6.76126312755E+002
+4.56303839733E+007, +6.45328328440E+001, +6.83893858962E+002
+4.57971619366E+007, +6.52141816114E+001, +6.90176378185E+002
+4.59639398998E+007, +6.54249527290E+001, +6.99455847244E+002
+4.61307178631E+007, +7.07676747441E+001, +7.02150870773E+002
+4.62974958264E+007, +7.37198048652E+001, +7.07161268183E+002
+4.64642737896E+007, +7.45218201153E+001, +7.14751474404E+002
+4.66310517529E+007, +7.85083657083E+001, +7.21923330954E+002
+4.67978297162E+007, +8.24424846918E+001, +7.25861049661E+002
+4.69646076795E+007, +8.28149748726E+001, +7.35232404462E+002
+4.71313856427E+007, +8.50603239953E+001, +7.41065957984E+002
+4.72981636060E+007, +8.89030167848E+001, +7.46803029248E+002
+4.74649415693E+007, +9.14263636158E+001, +7.56583030679E+002
+4.76317195326E+007, +9.56647056441E+001, +7.62895934887E+002
+4.77984974958E+007, +1.02973081949E+002, +7.67479262838E+002
+4.79652754591E+007, +1.04027026794E+002, +7.73132528930E+002
+4.81320534224E+007, +1.11148880666E+002, +7.80600708093E+002
+4.82988313856E+007, +1.13684104669E+002, +7.86467106938E+002
+4.84656093489E+007, +1.19456608019E+002, +7.90224865009E+002
+4.86323873122E+007, +1.22210874398E+002, +7.96491511288E+002
+4.87991652755E+007, +1.29232108233E+002, +8.01068260154E+002
+4.89659432387E+007, +1.32137532149E+002, +8.05768222197E+002
+4.91327212020E+007, +1.39063526688E+002, +8.13639483392E+002
+4.92994991653E+007, +1.41898167820E+002, +8.15028545864E+002
+4.94662771285E+007, +1.44555491322E+002, +8.24225699425E+002
+4.96330550918E+007, +1.50142132075E+002, +8.29160606722E+002
+4.97998330551E+007, +1.52008467076E+002, +8.34024854156E+002
+4.99666110184E+007, +1.60735818889E+002, +8.39436255272E+002
+5.01333889816E+007, +1.60691760135E+002, +8.45271166343E+002
+5.03001669449E+007, +1.63500040896E+002, +8.52607695265E+002
+5.04669449082E+007, +1.67954472679E+002, +8.56039805502E+002
+5.06337228715E+007, +1.75670935987E+002, +8.62361785104E+002
+5.08005008347E+007, +1.76790243267E+002, +8.65386155464E+002
+5.09672787980E+007, +1.78376227683E+002, +8.71333525016E+002
+5.11340567613E+007, +1.82972985132E+002, +8.78513956426E+002
+5.13008347245E+007, +1.83007313662E+002, +8.86895575575E+002
+5.14676126878E+007, +1.85090746722E+002, +8.89935359810E+002
+5.16343906511E+007, +1.90427933167E+002, +8.99620502439E+002
+5.18011686144E+007, +1.89604317789E+002, +9.09871540222E+002
+5.19679465776E+007, +1.89842104249E+002, +9.16584361072E+002
+5.21347245409E+007, +1.92559582230E+002, +9.27937864042E+002
+5.23015025042E+007, +1.96248882854E+002, +9.43080351733E+002
+5.24682804674E+007, +1.94053315190E+002, +9.54584729564E+002
+5.26350584307E+007, +2.03817198568E+002, +9.64651462238E+002
+5.28018363940E+007, +2.04017710931E+002, +9.79821179095E+002
+5.29686143573E+007, +2.09653499125E+002, +9.94220843411E+002
+5.31353923205E+007, +2.09415393390E+002, +1.00269062568E+003
+5.33021702838E+007, +2.17287337863E+002, +1.01966272666E+003
+5.34689482471E+007, +2.29696977987E+002, +1.03687818883E+003
