"# Channel 1"
"# Trace 1"
Frequency, Formatted Data, Formatted Data
+1.00000000000E+005, +1.43533111958E+001, +1.10479386643E+000
+2.66777963272E+005, +1.43504152449E+001, +2.98275986423E+000
+4.33555926544E+005, +1.43574164224E+001, +4.86904482726E+000
+6.00333889816E+005, +1.43740677168E+001, +6.68027448335E+000
+7.67111853088E+005, +1.44193096232E+001, +8.58184604082E+000
+9.33889816361E+005, +1.44001181441E+001, +1.03855975969E+001
+1.10066777963E+006, +1.44061480989E+001, +1.22693824991E+001
+1.26744574290E+006, +1.44235790181E+001, +1.41003294184E+001
+1.43422370618E+006, +1.43864129306E+001, +1.59666643220E+001
+1.60100166945E+006, +1.44495064994E+001, +1.77731685801E+001
+1.76777963272E+006, +1.44284590076E+001, +1.96289404740E+001
+1.93455759599E+006, +1.44291564744E+001, +2.14316500395E+001
+2.10133555927E+006, +1.44413567178E+001, +2.32765606445E+001
+2.26811352254E+006, +1.44575734581E+001, +2.51132354851E+001
+2.43489148581E+006, +1.44456081047E+001, +2.69859194179E+001
+2.60166944908E+006, +1.44570382403E+001, +2.88154987088E+001
+2.76844741235E+006, +1.44493357468E+001, +3.06667522450E+001
+2.93522537563E+006, +1.44341330854E+001, +3.24890325011E+001
+3.10200333890E+006, +1.45074278836E+001, +3.42742090145E+001
+3.26878130217E+006, +1.44414688930E+001, +3.61898938872E+001
+3.43555926544E+006, +1.44725574436E+001, +3.79602882643E+001
+3.60233722871E+006, +1.45210560237E+001, +3.98553408326E+001
+3.76911519199E+006, +1.44532531277E+001, +4.17492541322E+001
+3.93589315526E+006, +1.44535347964E+001, +4.35060841068E+001
+4.10267111853E+006, +1.45156819447E+001, +4.54692950194E+001
+4.26944908180E+006, +1.44995700456E+001, +4.73197781313E+001
+4.43622704508E+006, +1.45083491381E+001, +4.90721725906E+001
+4.60300500835E+006, +1.45382246489E+001, +5.09898290938E+001
+4.76978297162E+006, +1.45392818970E+001, +5.27764007511E+001
+4.93656093489E+006, +1.45978187685E+001, +5.46921482760E+001
+5.10333889816E+006, +1.45822349153E+001, +5.64670355076E+001
+5.27011686144E+006, +1.46986374725E+001, +5.84381152541E+001
+5.43689482471E+006, +1.45943100815E+001, +6.02249711290E+001
+5.60367278798E+006, +1.46294921059E+001, +6.21620370949E+001
+5.77045075125E+006, +1.45582524655E+001, +6.39001051933E+001
+5.93722871452E+006, +1.46912352514E+001, +6.57383196969E+001
+6.10400667780E+006, +1.46513267241E+001, +6.76822166512E+001
+6.27078464107E+006, +1.47309103581E+001, +6.95122891234E+001
+6.43756260434E+006, +1.47692157904E+001, +7.13985745134E+001
+6.60434056761E+006, +1.47443174482E+001, +7.32433806096E+001
+6.77111853088E+006, +1.48480936771E+001, +7.50921218240E+001
+6.93789649416E+006, +1.48027045385E+001, +7.69600208985E+001
+7.10467445743E+006, +1.48108000771E+001, +7.87968230007E+001
+7.27145242070E+006, +1.48417197761E+001, +8.06375837415E+001
+7.43823038397E+006, +1.48938121166E+001, +8.24517711716E+001
+7.60500834725E+006, +1.48578592344E+001, +8.43330763455E+001
+7.77178631052E+006, +1.48936663387E+001, +8.62936174089E+001
+7.93856427379E+006, +1.49069094218E+001, +8.80404805591E+001
+8.10534223706E+006, +1.49519783997E+001, +8.99427208949E+001
+8.27212020033E+006, +1.49502173555E+001, +9.17670865853E+001
+8.43889816361E+006, +1.48814527263E+001, +9.36754945580E+001
+8.60567612688E+006, +1.48701086716E+001, +9.55708847085E+001
+8.77245409015E+006, +1.49254439291E+001, +9.73703237685E+001
+8.93923205342E+006, +1.49871637892E+001, +9.93229427128E+001
+9.10601001669E+006, +1.49637174563E+001, +1.01158561028E+002
+9.27278797997E+006, +1.50504349205E+001, +1.03039149826E+002
+9.43956594324E+006, +1.50306422479E+001, +1.04902472785E+002
+9.60634390651E+006, +1.50360117854E+001, +1.06771911120E+002
+9.77312186978E+006, +1.50068426472E+001, +1.08697970351E+002
+9.93989983306E+006, +1.51767172878E+001, +1.10616852917E+002
+1.01066777963E+007, +1.49575140694E+001, +1.12439538166E+002
+1.02734557596E+007, +1.51233407403E+001, +1.14365218753E+002
+1.04402337229E+007, +1.51214363772E+001, +1.16190119449E+002
+1.06070116861E+007, +1.51048026884E+001, +1.18085755542E+002
+1.07737896494E+007, +1.50957441194E+001, +1.20001260482E+002
+1.09405676127E+007, +1.51787298619E+001, +1.21924598659E+002
+1.11073455760E+007, +1.51968948961E+001, +1.23824971340E+002
+1.12741235392E+007, +1.52306486837E+001, +1.25655903885E+002
+1.14409015025E+007, +1.52079690187E+001, +1.27569426914E+002
+1.16076794658E+007, +1.53106520499E+001, +1.29470813528E+002
+1.17744574290E+007, +1.52946070091E+001, +1.31490948841E+002
+1.19412353923E+007, +1.52462093899E+001, +1.33369193030E+002
+1.21080133556E+007, +1.51359857297E+001, +1.35307798278E+002
+1.22747913189E+007, +1.53652974271E+001, +1.37227379115E+002
+1.24415692821E+007, +1.53013948469E+001, +1.39019893793E+002
+1.26083472454E+007, +1.53100422223E+001, +1.40929207070E+002
+1.27751252087E+007, +1.53813840587E+001, +1.42768736641E+002
+1.29419031720E+007, +1.53931885972E+001, +1.44809399502E+002
+1.31086811352E+007, +1.54048835845E+001, +1.46797251594E+002
+1.32754590985E+007, +1.54116831892E+001, +1.48651175610E+002
+1.34422370618E+007, +1.53646217564E+001, +1.50779927563E+002
+1.36090150250E+007, +1.56277697727E+001, +1.52634687640E+002
+1.37757929883E+007, +1.55526658099E+001, +1.54438976173E+002
+1.39425709516E+007, +1.55709269914E+001, +1.56321491103E+002
+1.41093489149E+007, +1.56269097478E+001, +1.58188248507E+002
+1.42761268781E+007, +1.57957299226E+001, +1.60184481405E+002
+1.44429048414E+007, +1.57991541769E+001, +1.62049394204E+002
+1.46096828047E+007, +1.57875198575E+001, +1.64019554573E+002
+1.47764607679E+007, +1.57850215727E+001, +1.65888140913E+002
+1.49432387312E+007, +1.56782989817E+001, +1.67836613974E+002
+1.51100166945E+007, +1.58626769851E+001, +1.69847580207E+002
+1.52767946578E+007, +1.59606646552E+001, +1.71713677730E+002
+1.54435726210E+007, +1.58329808167E+001, +1.73604094793E+002
+1.56103505843E+007, +1.58958367114E+001, +1.75674974806E+002
+1.57771285476E+007, +1.58818601860E+001, +1.77505065454E+002
+1.59439065109E+007, +1.59270514402E+001, +1.79577492125E+002
+1.61106844741E+007, +1.59566753276E+001, +1.81671421207E+002
+1.62774624374E+007, +1.60900367097E+001, +1.83581963589E+002
+1.64442404007E+007, +1.58519178667E+001, +1.85458325401E+002
+1.66110183639E+007, +1.62524032667E+001, +1.87407033396E+002
+1.67777963272E+007, +1.60669210275E+001, +1.89626126176E+002
+1.69445742905E+007, +1.61740653150E+001, +1.91462271049E+002
+1.71113522538E+007, +1.58757063016E+001, +1.93356817773E+002
+1.72781302170E+007, +1.60461928933E+001, +1.95373380372E+002
+1.74449081803E+007, +1.60128527505E+001, +1.97437864392E+002
+1.76116861436E+007, +1.62092615472E+001, +1.99410197311E+002
+1.77784641068E+007, +1.62354887292E+001, +2.01139677601E+002
+1.79452420701E+007, +1.64281331735E+001, +2.03333758197E+002
+1.81120200334E+007, +1.65711469005E+001, +2.05078067626E+002
+1.82787979967E+007, +1.65529056791E+001, +2.07486790467E+002
+1.84455759599E+007, +1.66173436217E+001, +2.09369556619E+002
+1.86123539232E+007, +1.68807924887E+001, +2.11401235222E+002
+1.87791318865E+007, +1.67073041678E+001, +2.13469945369E+002
+1.89459098497E+007, +1.67301347308E+001, +2.15406014560E+002
+1.91126878130E+007, +1.66809330346E+001, +2.17226214043E+002
+1.92794657763E+007, +1.71020141707E+001, +2.19548510988E+002
+1.94462437396E+007, +1.69203259357E+001, +2.21669363185E+002
+1.96130217028E+007, +1.70360976569E+001, +2.23741599459E+002
+1.97797996661E+007, +1.71008868477E+001, +2.25547051464E+002
+1.99465776294E+007, +1.69596441188E+001, +2.27391217362E+002
+2.01133555927E+007, +1.69139440456E+001, +2.29595314212E+002
+2.02801335559E+007, +1.72872382176E+001, +2.31690592202E+002
+2.04469115192E+007, +1.76521880397E+001, +2.33886580325E+002
+2.06136894825E+007, +1.75839516390E+001, +2.36033326464E+002
+2.07804674457E+007, +1.76678228080E+001, +2.38074378138E+002
+2.09472454090E+007, +1.77222710339E+001, +2.40101895323E+002
+2.11140233723E+007, +1.75930416928E+001, +2.42017212503E+002
+2.12808013356E+007, +1.78606940827E+001, +2.44007232553E+002
+2.14475792988E+007, +1.78233491793E+001, +2.46129776620E+002
+2.16143572621E+007, +1.81328311186E+001, +2.48279913288E+002
+2.17811352254E+007, +1.79992144949E+001, +2.50189515987E+002
+2.19479131886E+007, +1.84902795041E+001, +2.52542336902E+002
+2.21146911519E+007, +1.86178227427E+001, +2.54236967620E+002
+2.22814691152E+007, +1.81898327362E+001, +2.56310582204E+002
+2.24482470785E+007, +1.87559473431E+001, +2.58762872456E+002
+2.26150250417E+007, +1.92720008786E+001, +2.60948063583E+002
+2.27818030050E+007, +1.90297230259E+001, +2.62891077103E+002
+2.29485809683E+007, +1.95772887017E+001, +2.65031889430E+002
+2.31153589316E+007, +1.91594884046E+001, +2.67313817507E+002
+2.32821368948E+007, +1.95158674815E+001, +2.69280216619E+002
+2.34489148581E+007, +1.96368560235E+001, +2.71452418177E+002
+2.36156928214E+007, +1.99536243824E+001, +2.73841058528E+002
+2.37824707846E+007, +1.97854943071E+001, +2.75762943242E+002
+2.39492487479E+007, +1.98272864531E+001, +2.77655688675E+002
+2.41160267112E+007, +2.02018605646E+001, +2.79811387937E+002
+2.42828046745E+007, +2.02403498500E+001, +2.81780180538E+002
+2.44495826377E+007, +2.06629511042E+001, +2.84210421639E+002
+2.46163606010E+007, +2.06014395576E+001, +2.86079509120E+002
+2.47831385643E+007, +2.05360009254E+001, +2.88006885015E+002
+2.49499165275E+007, +2.12726067764E+001, +2.90376747376E+002
+2.51166944908E+007, +2.17330647049E+001, +2.92648222800E+002
+2.52834724541E+007, +2.18131338067E+001, +2.95015916816E+002
+2.54502504174E+007, +2.18208383527E+001, +2.96896117304E+002
+2.56170283806E+007, +2.16998811588E+001, +2.98954731540E+002
+2.57838063439E+007, +2.21818670871E+001, +3.01487115667E+002
+2.59505843072E+007, +2.21576118423E+001, +3.03379413717E+002
+2.61173622705E+007, +2.25923941312E+001, +3.05340577245E+002
+2.62841402337E+007, +2.31174530149E+001, +3.07164873018E+002
+2.64509181970E+007, +2.26046939421E+001, +3.09483671239E+002
+2.66176961603E+007, +2.28038542277E+001, +3.12108877575E+002
+2.67844741235E+007, +2.34146792972E+001, +3.14092556761E+002
+2.69512520868E+007, +2.38518273468E+001, +3.15950500606E+002
+2.71180300501E+007, +2.34461262422E+001, +3.17404795152E+002
+2.72848080134E+007, +2.38423304312E+001, +3.19918218546E+002
+2.74515859766E+007, +2.40064886313E+001, +3.21656899415E+002
+2.76183639399E+007, +2.37583398699E+001, +3.23991925098E+002
+2.77851419032E+007, +2.37305462280E+001, +3.26008512307E+002
+2.79519198664E+007, +2.43152732116E+001, +3.28206030876E+002
+2.81186978297E+007, +2.40012382032E+001, +3.29953495570E+002
+2.82854757930E+007, +2.43173650149E+001, +3.31845260411E+002
+2.84522537563E+007, +2.37100118945E+001, +3.34722386677E+002
+2.86190317195E+007, +2.36130467726E+001, +3.36672514632E+002
+2.87858096828E+007, +2.43921224568E+001, +3.38919918752E+002
+2.89525876461E+007, +2.41382557034E+001, +3.40638900765E+002
+2.91193656093E+007, +2.39344770172E+001, +3.43145611340E+002
+2.92861435726E+007, +2.30161645545E+001, +3.45726794035E+002
+2.94529215359E+007, +2.39900525694E+001, +3.48312097636E+002
+2.96196994992E+007, +2.44884324039E+001, +3.50379028461E+002
+2.97864774624E+007, +2.45650236572E+001, +3.52942267849E+002
+2.99532554257E+007, +2.44520938275E+001, +3.55333877788E+002
+3.01200333890E+007, +2.41668406501E+001, +3.57878521139E+002
+3.02868113523E+007, +2.39727514143E+001, +3.59963207028E+002
+3.04535893155E+007, +2.41989746792E+001, +3.62355171504E+002
+3.06203672788E+007, +2.44248426847E+001, +3.64356651683E+002
+3.07871452421E+007, +2.43707573558E+001, +3.67317344775E+002
+3.09539232053E+007, +2.43318006622E+001, +3.69692858592E+002
+3.11207011686E+007, +2.47178309539E+001, +3.72887232363E+002
+3.12874791319E+007, +2.47149909103E+001, +3.74211588978E+002
+3.14542570952E+007, +2.48552913732E+001, +3.77087721409E+002
+3.16210350584E+007, +2.43163742841E+001, +3.79518615303E+002
+3.17878130217E+007, +2.49229983402E+001, +3.81897296805E+002
+3.19545909850E+007, +2.50746206782E+001, +3.84376945649E+002
+3.21213689482E+007, +2.39186011540E+001, +3.87594562216E+002
+3.22881469115E+007, +2.50304347007E+001, +3.89395901279E+002
+3.24549248748E+007, +2.48700185848E+001, +3.92284221304E+002
+3.26217028381E+007, +2.48308626236E+001, +3.94667495319E+002
+3.27884808013E+007, +2.52640483594E+001, +3.97238524149E+002
+3.29552587646E+007, +2.58619759752E+001, +3.98864029343E+002
+3.31220367279E+007, +2.61484353703E+001, +4.02375370804E+002
+3.32888146912E+007, +2.53137856655E+001, +4.05569982518E+002
+3.34555926544E+007, +2.54103485882E+001, +4.07915663734E+002
+3.36223706177E+007, +2.59489469408E+001, +4.09516895628E+002
+3.37891485810E+007, +2.59594380321E+001, +4.12170604861E+002
+3.39559265442E+007, +2.62581845915E+001, +4.16402929272E+002
+3.41227045075E+007, +2.62028100605E+001, +4.17886481752E+002
+3.42894824708E+007, +2.68180620301E+001, +4.20811233717E+002
+3.44562604341E+007, +2.63492284679E+001, +4.23457393039E+002
+3.46230383973E+007, +2.67551951871E+001, +4.26976804819E+002
+3.47898163606E+007, +2.72056281596E+001, +4.28593901853E+002
+3.49565943239E+007, +2.78041549366E+001, +4.32671571248E+002
+3.51233722871E+007, +2.69786709738E+001, +4.35031336841E+002
+3.52901502504E+007, +2.79302172211E+001, +4.36651344428E+002
+3.54569282137E+007, +2.76086739486E+001, +4.40577990406E+002
+3.56237061770E+007, +2.70407377701E+001, +4.42839838002E+002
+3.57904841402E+007, +2.78973908655E+001, +4.45844136042E+002
+3.59572621035E+007, +2.82716799868E+001, +4.48567890645E+002
+3.61240400668E+007, +2.87993567929E+001, +4.51872597133E+002
+3.62908180301E+007, +2.83791900370E+001, +4.55342335163E+002
+3.64575959933E+007, +2.85205786105E+001, +4.57852540445E+002
+3.66243739566E+007, +2.92282465019E+001, +4.60568184562E+002
+3.67911519199E+007, +2.95410396201E+001, +4.63642556533E+002
+3.69579298831E+007, +2.94272150589E+001, +4.66555718780E+002
+3.71247078464E+007, +2.93040543527E+001, +4.70021673792E+002
+3.72914858097E+007, +2.97862042927E+001, +4.72882636075E+002
+3.74582637730E+007, +3.03163711386E+001, +4.77202825559E+002
+3.76250417362E+007, +3.03471398632E+001, +4.79288105793E+002
+3.77918196995E+007, +3.04641159266E+001, +4.83323757028E+002
+3.79585976628E+007, +3.02041247751E+001, +4.85215408808E+002
+3.81253756260E+007, +3.13713681938E+001, +4.88991267036E+002
+3.82921535893E+007, +3.18343157649E+001, +4.92162359495E+002
+3.84589315526E+007, +3.14759281612E+001, +4.95263169049E+002
+3.86257095159E+007, +3.14634481326E+001, +4.98769905860E+002
+3.87924874791E+007, +3.25033753150E+001, +5.02618703623E+002
+3.89592654424E+007, +3.22971507267E+001, +5.04968868048E+002
+3.91260434057E+007, +3.47989336535E+001, +5.09136455139E+002
+3.92928213689E+007, +3.35721977983E+001, +5.13323740643E+002
+3.94595993322E+007, +3.41565708880E+001, +5.16367481362E+002
+3.96263772955E+007, +3.42708798502E+001, +5.19094677697E+002
+3.97931552588E+007, +3.33621579771E+001, +5.22828140031E+002
+3.99599332220E+007, +3.52351225554E+001, +5.26431214034E+002
+4.01267111853E+007, +3.54805158625E+001, +5.31015493438E+002
+4.02934891486E+007, +3.53381995665E+001, +5.32438586407E+002
+4.04602671119E+007, +3.68063106892E+001, +5.37323347363E+002
+4.06270450751E+007, +3.72485387579E+001, +5.41072420499E+002
+4.07938230384E+007, +3.75818047941E+001, +5.44743893684E+002
+4.09606010017E+007, +3.85192233334E+001, +5.47993508240E+002
+4.11273789649E+007, +3.92552506628E+001, +5.51083656331E+002
+4.12941569282E+007, +4.00662796361E+001, +5.55669279490E+002
+4.14609348915E+007, +3.95223028378E+001, +5.59037490266E+002
+4.16277128548E+007, +4.18785674508E+001, +5.63787928782E+002
+4.17944908180E+007, +4.16697802944E+001, +5.67446442633E+002
+4.19612687813E+007, +4.08873973828E+001, +5.71242571385E+002
+4.21280467446E+007, +4.08278072528E+001, +5.74806484373E+002
+4.22948247078E+007, +4.19132137667E+001, +5.79325898324E+002
+4.24616026711E+007, +4.40262860770E+001, +5.83269736860E+002
+4.26283806344E+007, +4.46775145608E+001, +5.86602543410E+002
+4.27951585977E+007, +4.23192465193E+001, +5.93005798638E+002
+4.29619365609E+007, +4.61497228687E+001, +5.95229487702E+002
+4.31287145242E+007, +4.63736489668E+001, +6.01426800898E+002
+4.32954924875E+007, +4.60600172258E+001, +6.04896245200E+002
+4.34622704508E+007, +4.54868416846E+001, +6.10567212929E+002
+4.36290484140E+007, +4.68767195905E+001, +6.15085000030E+002
+4.37958263773E+007, +4.59058726895E+001, +6.20591843306E+002
+4.39626043406E+007, +5.01146770595E+001, +6.24538195601E+002
+4.41293823038E+007, +5.15095953623E+001, +6.30805862869E+002
+4.42961602671E+007, +4.93744015445E+001, +6.34547186961E+002
+4.44629382304E+007, +5.06617363986E+001, +6.39869473455E+002
+4.46297161937E+007, +5.25712390290E+001, +6.42875456742E+002
+4.47964941569E+007, +5.31333299121E+001, +6.47475547065E+002
+4.49632721202E+007, +5.47293477179E+001, +6.55617458439E+002
+4.51300500835E+007, +5.49660767420E+001, +6.57034263741E+002
+4.52968280467E+007, +5.91814145965E+001, +6.64657246857E+002
+4.54636060100E+007, +5.82735685823E+001, +6.73340390674E+002
+4.56303839733E+007, +5.76589718864E+001, +6.75909694697E+002
+4.57971619366E+007, +5.96046298494E+001, +6.81413239163E+002
+4.59639398998E+007, +6.34662476974E+001, +6.89824323003E+002
+4.61307178631E+007, +6.62625947524E+001, +6.92946334409E+002
+4.62974958264E+007, +6.85522293876E+001, +7.02029656918E+002
+4.64642737896E+007, +6.64217276252E+001, +7.06763449493E+002
+4.66310517529E+007, +6.90440574710E+001, +7.12423985595E+002
+4.67978297162E+007, +7.48123903690E+001, +7.15584175858E+002
+4.69646076795E+007, +7.42040339808E+001, +7.23413543074E+002
+4.71313856427E+007, +7.65262429210E+001, +7.29592221699E+002
+4.72981636060E+007, +7.82850503028E+001, +7.37563668759E+002
+4.74649415693E+007, +8.02005554078E+001, +7.44335671735E+002
+4.76317195326E+007, +8.35476818984E+001, +7.49114961302E+002
+4.77984974958E+007, +8.86438082190E+001, +7.54500832749E+002
+4.79652754591E+007, +9.01388657644E+001, +7.63510723963E+002
+4.81320534224E+007, +9.40618285373E+001, +7.68083703199E+002
+4.82988313856E+007, +9.63504878257E+001, +7.74825985485E+002
+4.84656093489E+007, +1.02531066496E+002, +7.81819172677E+002
+4.86323873122E+007, +1.06368733952E+002, +7.86422148017E+002
+4.87991652755E+007, +1.09709774316E+002, +7.94023318314E+002
+4.89659432387E+007, +1.10885064859E+002, +7.99922856122E+002
+4.91327212020E+007, +1.14403965893E+002, +8.07652071860E+002
+4.92994991653E+007, +1.22281512719E+002, +8.07193414382E+002
+4.94662771285E+007, +1.24256846965E+002, +8.16046515644E+002
+4.96330550918E+007, +1.26185708511E+002, +8.23671326371E+002
+4.97998330551E+007, +1.31072981328E+002, +8.26117289160E+002
+4.99666110184E+007, +1.38095516764E+002, +8.33171165159E+002
+5.01333889816E+007, +1.39363014434E+002, +8.38289000306E+002
+5.03001669449E+007, +1.37414305821E+002, +8.47894985672E+002
+5.04669449082E+007, +1.45951218709E+002, +8.51992035194E+002
+5.06337228715E+007, +1.49857628393E+002, +8.58869072722E+002
+5.08005008347E+007, +1.50676965981E+002, +8.62100332979E+002
+5.09672787980E+007, +1.56439145616E+002, +8.67627630220E+002
+5.11340567613E+007, +1.61587515019E+002, +8.78519417448E+002
+5.13008347245E+007, +1.61445926192E+002, +8.83215289081E+002
+5.14676126878E+007, +1.60500698386E+002, +8.89646664053E+002
+5.16343906511E+007, +1.65806621164E+002, +9.01665613896E+002
+5.18011686144E+007, +1.66309078383E+002, +9.09359338217E+002
+5.19679465776E+007, +1.65149945762E+002, +9.17267682493E+002
+5.21347245409E+007, +1.67920847510E+002, +9.27862325493E+002
+5.23015025042E+007, +1.73624556776E+002, +9.40754435183E+002
+5.24682804674E+007, +1.71782106934E+002, +9.50998380984E+002
+5.26350584307E+007, +1.74387762283E+002, +9.62771083857E+002
+5.28018363940E+007, +1.78234366686E+002, +9.76209549901E+002
+5.29686143573E+007, +1.82433006672E+002, +9.88124253329E+002
+5.31353923205E+007, +1.82152758904E+002, +9.96715675390E+002
+5.33021702838E+007, +1.86355715877E+002, +1.01639844074E+003
+5.34689482471E+007, +1.94987228040E+002, +1.02994331631E+003
