"# Channel 1"
"# Trace 1"
Frequency, Formatted Data, Formatted Data
+1.00000000000E+005, +2.37305519630E-001, +1.09409306085E+000
+2.66777963272E+005, +2.41760707390E-001, +2.89151454497E+000
+4.33555926544E+005, +2.80456848667E-001, +4.68380074848E+000
+6.00333889816E+005, +3.30037110986E-001, +6.43368244997E+000
+7.67111853088E+005, +3.73487104549E-001, +8.21883396687E+000
+9.33889816361E+005, +4.05126274295E-001, +9.93666092456E+000
+1.10066777963E+006, +3.78707135741E-001, +1.17014923966E+001
+1.26744574290E+006, +4.41924725068E-001, +1.34359538650E+001
+1.43422370618E+006, +3.98128951841E-001, +1.52072045036E+001
+1.60100166945E+006, +4.70774671063E-001, +1.69061906896E+001
+1.76777963272E+006, +4.84202731285E-001, +1.86431343960E+001
+1.93455759599E+006, +5.17270060752E-001, +2.03342666679E+001
+2.10133555927E+006, +5.38045841899E-001, +2.20908841905E+001
+2.26811352254E+006, +5.63337206845E-001, +2.38320500941E+001
+2.43489148581E+006, +5.47291682633E-001, +2.56204497391E+001
+2.60166944908E+006, +5.76700999644E-001, +2.72789048098E+001
+2.76844741235E+006, +5.64415021873E-001, +2.90568366444E+001
+2.93522537563E+006, +5.66413021041E-001, +3.07834040656E+001
+3.10200333890E+006, +6.60014749147E-001, +3.24982005979E+001
+3.26878130217E+006, +5.53025853847E-001, +3.42396698336E+001
+3.43555926544E+006, +6.01772186266E-001, +3.59531164271E+001
+3.60233722871E+006, +6.47187297442E-001, +3.77128990179E+001
+3.76911519199E+006, +5.99117436290E-001, +3.95078738798E+001
+3.93589315526E+006, +5.62166628005E-001, +4.11457986381E+001
+4.10267111853E+006, +6.11413738488E-001, +4.30386777465E+001
+4.26944908180E+006, +6.25007572374E-001, +4.47083129977E+001
+4.43622704508E+006, +6.38220601662E-001, +4.64129655850E+001
+4.60300500835E+006, +6.58624044348E-001, +4.81983912207E+001
+4.76978297162E+006, +6.66529014546E-001, +4.98347886312E+001
+4.93656093489E+006, +7.16251672565E-001, +5.16823055650E+001
+5.10333889816E+006, +7.30048559023E-001, +5.33484338533E+001
+5.27011686144E+006, +7.41372409014E-001, +5.52549338088E+001
+5.43689482471E+006, +6.51986710430E-001, +5.68899170496E+001
+5.60367278798E+006, +7.16518993185E-001, +5.87328107549E+001
+5.77045075125E+006, +6.84061663786E-001, +6.03655483483E+001
+5.93722871452E+006, +7.59674177525E-001, +6.21957713435E+001
+6.10400667780E+006, +7.30139690201E-001, +6.39570638542E+001
+6.27078464107E+006, +8.06043128717E-001, +6.56585883787E+001
+6.43756260434E+006, +7.95819645609E-001, +6.74513875956E+001
+6.60434056761E+006, +8.14187894679E-001, +6.92051998472E+001
+6.77111853088E+006, +9.13801277204E-001, +7.09009959557E+001
+6.93789649416E+006, +8.40534462679E-001, +7.26843640564E+001
+7.10467445743E+006, +8.16801660626E-001, +7.44200585504E+001
+7.27145242070E+006, +8.86277633817E-001, +7.61582391807E+001
+7.43823038397E+006, +9.46488957418E-001, +7.78995770350E+001
+7.60500834725E+006, +8.85698994163E-001, +7.96800437203E+001
+7.77178631052E+006, +9.24876179448E-001, +8.14640131997E+001
+7.93856427379E+006, +9.23651217114E-001, +8.31756980741E+001
+8.10534223706E+006, +9.54451274859E-001, +8.49187799631E+001
+8.27212020033E+006, +9.39730914567E-001, +8.66811956773E+001
+8.43889816361E+006, +9.31540964590E-001, +8.84406626245E+001
+8.60567612688E+006, +8.75867121422E-001, +9.01707197415E+001
+8.77245409015E+006, +9.07047323773E-001, +9.19059150249E+001
+8.93923205342E+006, +8.89367807045E-001, +9.37271514893E+001
+9.10601001669E+006, +9.39759533605E-001, +9.54885261521E+001
+9.27278797997E+006, +9.42213846991E-001, +9.72592312466E+001
+9.43956594324E+006, +9.72870863116E-001, +9.89813582993E+001
+9.60634390651E+006, +9.27856993276E-001, +1.00753188192E+002
+9.77312186978E+006, +8.70108090821E-001, +1.02507834947E+002
+9.93989983306E+006, +9.92794265847E-001, +1.04364863981E+002
+1.01066777963E+007, +9.09023314950E-001, +1.06066394053E+002
+1.02734557596E+007, +8.66406964919E-001, +1.07832432697E+002
+1.04402337229E+007, +9.28383085593E-001, +1.09653683523E+002
+1.06070116861E+007, +9.13069026452E-001, +1.11404627851E+002
+1.07737896494E+007, +9.01435688701E-001, +1.13199073697E+002
+1.09405676127E+007, +9.61343670248E-001, +1.14989832477E+002
+1.11073455760E+007, +9.41713654476E-001, +1.16799997790E+002
+1.12741235392E+007, +9.76020717070E-001, +1.18479402347E+002
+1.14409015025E+007, +9.65852767948E-001, +1.20293556132E+002
+1.16076794658E+007, +1.04915815347E+000, +1.22062370770E+002
+1.17744574290E+007, +9.64100475496E-001, +1.23925712901E+002
+1.19412353923E+007, +9.65875046761E-001, +1.25708682173E+002
+1.21080133556E+007, +8.58836249343E-001, +1.27491149706E+002
+1.22747913189E+007, +9.63549675062E-001, +1.29328129820E+002
+1.24415692821E+007, +8.55363046645E-001, +1.31079884889E+002
+1.26083472454E+007, +8.55236391025E-001, +1.32961228559E+002
+1.27751252087E+007, +1.00374371966E+000, +1.34646508574E+002
+1.29419031720E+007, +8.38880072921E-001, +1.36426905895E+002
+1.31086811352E+007, +9.73758891882E-001, +1.38332588451E+002
+1.32754590985E+007, +1.00741055858E+000, +1.40129205023E+002
+1.34422370618E+007, +9.40525399189E-001, +1.41935202080E+002
+1.36090150250E+007, +1.11962024076E+000, +1.43788922370E+002
+1.37757929883E+007, +1.00701373945E+000, +1.45524834437E+002
+1.39425709516E+007, +1.10860833697E+000, +1.47314042421E+002
+1.41093489149E+007, +1.07087270107E+000, +1.49029784738E+002
+1.42761268781E+007, +1.16094623983E+000, +1.50886587779E+002
+1.44429048414E+007, +1.16678363024E+000, +1.52770171706E+002
+1.46096828047E+007, +9.92347763364E-001, +1.54568539299E+002
+1.47764607679E+007, +1.12144660339E+000, +1.56255852916E+002
+1.49432387312E+007, +1.06777060150E+000, +1.58152518891E+002
+1.51100166945E+007, +1.11845906383E+000, +1.60017934510E+002
+1.52767946578E+007, +1.00652717943E+000, +1.61747639292E+002
+1.54435726210E+007, +1.16315942333E+000, +1.63584548548E+002
+1.56103505843E+007, +1.13143909759E+000, +1.65379115489E+002
+1.57771285476E+007, +1.07590271119E+000, +1.67210438482E+002
+1.59439065109E+007, +1.04707139479E+000, +1.69111451194E+002
+1.61106844741E+007, +1.09246444818E+000, +1.71034245751E+002
+1.62774624374E+007, +1.02655534813E+000, +1.72823873553E+002
+1.64442404007E+007, +1.07010804548E+000, +1.74655058067E+002
+1.66110183639E+007, +1.24521193725E+000, +1.76547544959E+002
+1.67777963272E+007, +1.11449442905E+000, +1.78544629607E+002
+1.69445742905E+007, +1.22122788381E+000, +1.80237383085E+002
+1.71113522538E+007, +8.16627643599E-001, +1.81923625825E+002
+1.72781302170E+007, +1.14661449716E+000, +1.84152436104E+002
+1.74449081803E+007, +8.97319671233E-001, +1.85700074246E+002
+1.76116861436E+007, +1.14673200313E+000, +1.87735183269E+002
+1.77784641068E+007, +1.02647711467E+000, +1.89482684525E+002
+1.79452420701E+007, +1.29693334705E+000, +1.91528500724E+002
+1.81120200334E+007, +1.18142572759E+000, +1.93357575455E+002
+1.82787979967E+007, +1.32435683738E+000, +1.95349199632E+002
+1.84455759599E+007, +1.11104207341E+000, +1.97151040238E+002
+1.86123539232E+007, +1.37854832171E+000, +1.99011549574E+002
+1.87791318865E+007, +1.27975258856E+000, +2.00999358482E+002
+1.89459098497E+007, +1.26238206093E+000, +2.02826261473E+002
+1.91126878130E+007, +1.42997656343E+000, +2.04632501615E+002
+1.92794657763E+007, +1.32646645287E+000, +2.06600546105E+002
+1.94462437396E+007, +1.43708410921E+000, +2.08785874829E+002
+1.96130217028E+007, +1.21945071051E+000, +2.10621958625E+002
+1.97797996661E+007, +1.62302620012E+000, +2.12133244769E+002
+1.99465776294E+007, +1.31655077552E+000, +2.14085669315E+002
+2.01133555927E+007, +1.55144991612E+000, +2.16187258625E+002
+2.02801335559E+007, +1.60166276258E+000, +2.18306281505E+002
+2.04469115192E+007, +1.57834679713E+000, +2.20042756216E+002
+2.06136894825E+007, +1.72480727438E+000, +2.22031928884E+002
+2.07804674457E+007, +1.61292696264E+000, +2.23923181310E+002
+2.09472454090E+007, +1.50470842317E+000, +2.25934066291E+002
+2.11140233723E+007, +1.90051173110E+000, +2.27635690757E+002
+2.12808013356E+007, +2.07255499335E+000, +2.29708681984E+002
+2.14475792988E+007, +1.68362205293E+000, +2.31693871565E+002
+2.16143572621E+007, +1.89045989394E+000, +2.33861184806E+002
+2.17811352254E+007, +1.99337524160E+000, +2.35567985572E+002
+2.19479131886E+007, +2.27978462732E+000, +2.37907222556E+002
+2.21146911519E+007, +2.40878745756E+000, +2.39563420983E+002
+2.22814691152E+007, +2.13803504368E+000, +2.41409437738E+002
+2.24482470785E+007, +2.42016196863E+000, +2.43792227725E+002
+2.26150250417E+007, +2.86356556303E+000, +2.45737734966E+002
+2.27818030050E+007, +2.42015247611E+000, +2.47718728377E+002
+2.29485809683E+007, +2.91122864128E+000, +2.49415834054E+002
+2.31153589316E+007, +2.23217346055E+000, +2.51712240140E+002
+2.32821368948E+007, +2.78709599919E+000, +2.53545803999E+002
+2.34489148581E+007, +2.90021052861E+000, +2.55269506013E+002
+2.36156928214E+007, +3.31702609484E+000, +2.57735068030E+002
+2.37824707846E+007, +3.00138581387E+000, +2.59541803609E+002
+2.39492487479E+007, +3.28694061725E+000, +2.61338064059E+002
+2.41160267112E+007, +3.11940009786E+000, +2.63557074886E+002
+2.42828046745E+007, +3.43524684363E+000, +2.65258061853E+002
+2.44495826377E+007, +3.28299334523E+000, +2.67504406145E+002
+2.46163606010E+007, +3.74411015183E+000, +2.69238327333E+002
+2.47831385643E+007, +3.39271874794E+000, +2.71576202109E+002
+2.49499165275E+007, +3.90942460421E+000, +2.73436467027E+002
+2.51166944908E+007, +4.39565576695E+000, +2.75638768231E+002
+2.52834724541E+007, +4.10621939972E+000, +2.77740735313E+002
+2.54502504174E+007, +4.60372864946E+000, +2.79778037342E+002
+2.56170283806E+007, +4.41813412701E+000, +2.81313848700E+002
+2.57838063439E+007, +4.51288942262E+000, +2.83789866267E+002
+2.59505843072E+007, +4.60365671280E+000, +2.85855513360E+002
+2.61173622705E+007, +4.78517169450E+000, +2.87416308783E+002
+2.62841402337E+007, +5.08586570066E+000, +2.89453844740E+002
+2.64509181970E+007, +5.05736997404E+000, +2.91563275434E+002
+2.66176961603E+007, +5.14923829086E+000, +2.93474119431E+002
+2.67844741235E+007, +5.30402771452E+000, +2.95286778823E+002
+2.69512520868E+007, +5.73284915038E+000, +2.97058658821E+002
+2.71180300501E+007, +5.62396661080E+000, +2.98971469388E+002
+2.72848080134E+007, +5.57206888164E+000, +3.01160758945E+002
+2.74515859766E+007, +6.07045823077E+000, +3.02762706446E+002
+2.76183639399E+007, +5.51876452052E+000, +3.04873528190E+002
+2.77851419032E+007, +5.88889023822E+000, +3.06643494188E+002
+2.79519198664E+007, +5.64662556923E+000, +3.08920582486E+002
+2.81186978297E+007, +5.92775327879E+000, +3.10740050959E+002
+2.82854757930E+007, +5.71546043051E+000, +3.12510735175E+002
+2.84522537563E+007, +5.04556136196E+000, +3.14684788379E+002
+2.86190317195E+007, +5.03018152970E+000, +3.17192194106E+002
+2.87858096828E+007, +5.65219762708E+000, +3.19007571651E+002
+2.89525876461E+007, +5.62336268507E+000, +3.20831885495E+002
+2.91193656093E+007, +4.93862341879E+000, +3.23011689954E+002
+2.92861435726E+007, +4.40381330360E+000, +3.25082013211E+002
+2.94529215359E+007, +5.00433900910E+000, +3.27133236573E+002
+2.96196994992E+007, +5.63536012298E+000, +3.29567608154E+002
+2.97864774624E+007, +5.39132398570E+000, +3.32422089251E+002
+2.99532554257E+007, +5.59484634890E+000, +3.34411546878E+002
+3.01200333890E+007, +4.95731179186E+000, +3.36557359312E+002
+3.02868113523E+007, +4.88966175135E+000, +3.39077978147E+002
+3.04535893155E+007, +4.84860908934E+000, +3.41164936486E+002
+3.06203672788E+007, +5.11755641910E+000, +3.43149585984E+002
+3.07871452421E+007, +4.60380111691E+000, +3.45363047897E+002
+3.09539232053E+007, +5.25869714377E+000, +3.47414594708E+002
+3.11207011686E+007, +4.30550338384E+000, +3.50840916614E+002
+3.12874791319E+007, +5.33434748238E+000, +3.52201128051E+002
+3.14542570952E+007, +4.72321028931E+000, +3.54820424807E+002
+3.16210350584E+007, +4.34885801769E+000, +3.56856529211E+002
+3.17878130217E+007, +4.47715876957E+000, +3.59353998058E+002
+3.19545909850E+007, +4.88028589321E+000, +3.61425118455E+002
+3.21213689482E+007, +4.71354527586E+000, +3.63868982481E+002
+3.22881469115E+007, +4.88872940894E+000, +3.66108563276E+002
+3.24549248748E+007, +5.19478609769E+000, +3.69024285493E+002
+3.26217028381E+007, +4.57361928202E+000, +3.70813242096E+002
+3.27884808013E+007, +4.78781978503E+000, +3.73421471723E+002
+3.29552587646E+007, +5.15143228300E+000, +3.75187836736E+002
+3.31220367279E+007, +5.41110901374E+000, +3.78069537694E+002
+3.32888146912E+007, +5.07979089049E+000, +3.80763985125E+002
+3.34555926544E+007, +4.17651642830E+000, +3.82986205969E+002
+3.36223706177E+007, +4.80894422411E+000, +3.85421545074E+002
+3.37891485810E+007, +5.13763523062E+000, +3.87703065817E+002
+3.39559265442E+007, +5.03811759102E+000, +3.91308191405E+002
+3.41227045075E+007, +4.94025133446E+000, +3.93334670624E+002
+3.42894824708E+007, +5.34196782108E+000, +3.96098914509E+002
+3.44562604341E+007, +5.25820414797E+000, +3.98481764977E+002
+3.46230383973E+007, +5.58683097830E+000, +4.01092776249E+002
+3.47898163606E+007, +5.69438952708E+000, +4.03171095054E+002
+3.49565943239E+007, +6.41765330267E+000, +4.06895375199E+002
+3.51233722871E+007, +5.82837269078E+000, +4.09037842040E+002
+3.52901502504E+007, +5.98166819538E+000, +4.11374094084E+002
+3.54569282137E+007, +5.22288559487E+000, +4.13295807181E+002
+3.56237061770E+007, +5.29189367187E+000, +4.16578685989E+002
+3.57904841402E+007, +5.62343312625E+000, +4.19338377128E+002
+3.59572621035E+007, +6.02236705946E+000, +4.21941553654E+002
+3.61240400668E+007, +6.06884041105E+000, +4.24426314605E+002
+3.62908180301E+007, +5.55100555611E+000, +4.28110105187E+002
+3.64575959933E+007, +5.40878341227E+000, +4.30669187894E+002
+3.66243739566E+007, +5.88136876807E+000, +4.33283468727E+002
+3.67911519199E+007, +6.19350727299E+000, +4.35743841010E+002
+3.69579298831E+007, +5.25920548087E+000, +4.37889356605E+002
+3.71247078464E+007, +5.71112736061E+000, +4.41541221113E+002
+3.72914858097E+007, +6.11108986766E+000, +4.45009686788E+002
+3.74582637730E+007, +6.49424653330E+000, +4.47759707723E+002
+3.76250417362E+007, +6.94949563862E+000, +4.50509513212E+002
+3.77918196995E+007, +6.04337703380E+000, +4.52953703013E+002
+3.79585976628E+007, +6.34036235073E+000, +4.56790470892E+002
+3.81253756260E+007, +7.15993394044E+000, +4.59397326371E+002
+3.82921535893E+007, +7.84135212402E+000, +4.62928309268E+002
+3.84589315526E+007, +8.41891144668E+000, +4.65455547020E+002
+3.86257095159E+007, +7.18482934375E+000, +4.69107864486E+002
+3.87924874791E+007, +7.23898187570E+000, +4.71926613715E+002
+3.89592654424E+007, +7.78139069826E+000, +4.74571604998E+002
+3.91260434057E+007, +7.83700081851E+000, +4.78930888651E+002
+3.92928213689E+007, +8.83391130406E+000, +4.82039571583E+002
+3.94595993322E+007, +8.57608111508E+000, +4.84841173662E+002
+3.96263772955E+007, +8.55895471659E+000, +4.88042831928E+002
+3.97931552588E+007, +8.06572184908E+000, +4.91568154914E+002
+3.99599332220E+007, +8.50494153791E+000, +4.94618881714E+002
+4.01267111853E+007, +9.96192044048E+000, +4.98493301840E+002
+4.02934891486E+007, +9.07818009060E+000, +5.00812184171E+002
+4.04602671119E+007, +1.09531220807E+001, +5.03255916399E+002
+4.06270450751E+007, +1.15880887995E+001, +5.08296496660E+002
+4.07938230384E+007, +9.94145033668E+000, +5.12114497697E+002
+4.09606010017E+007, +1.13305785046E+001, +5.14477512104E+002
+4.11273789649E+007, +1.17529951077E+001, +5.18072062026E+002
+4.12941569282E+007, +1.02372545061E+001, +5.21863664751E+002
+4.14609348915E+007, +1.18832937554E+001, +5.27503750474E+002
+4.16277128548E+007, +1.24872485812E+001, +5.29832741956E+002
+4.17944908180E+007, +1.14570385843E+001, +5.32249738538E+002
+4.19612687813E+007, +1.17297146537E+001, +5.36348631887E+002
+4.21280467446E+007, +1.16764205498E+001, +5.40617169463E+002
+4.22948247078E+007, +1.35785774329E+001, +5.43309289377E+002
+4.24616026711E+007, +1.41755813333E+001, +5.47958804150E+002
+4.26283806344E+007, +1.47417932096E+001, +5.51612902857E+002
+4.27951585977E+007, +1.17655985512E+001, +5.57420114396E+002
+4.29619365609E+007, +1.49119208881E+001, +5.60072635725E+002
+4.31287145242E+007, +1.48141089632E+001, +5.63498477061E+002
+4.32954924875E+007, +1.54586963083E+001, +5.68440533308E+002
+4.34622704508E+007, +1.41549417628E+001, +5.72820072203E+002
+4.36290484140E+007, +1.68128334399E+001, +5.76938300039E+002
+4.37958263773E+007, +1.57947532891E+001, +5.83167216251E+002
+4.39626043406E+007, +1.68270876002E+001, +5.87077399565E+002
+4.41293823038E+007, +1.81064399556E+001, +5.92753560284E+002
+4.42961602671E+007, +1.70760330033E+001, +5.94914455850E+002
+4.44629382304E+007, +1.85092715353E+001, +6.00381784283E+002
+4.46297161937E+007, +1.94725055326E+001, +6.05860760583E+002
+4.47964941569E+007, +1.94942943660E+001, +6.11152791586E+002
+4.49632721202E+007, +1.93457742599E+001, +6.16858979660E+002
+4.51300500835E+007, +2.08945299643E+001, +6.18368775934E+002
+4.52968280467E+007, +2.20035784382E+001, +6.26154477262E+002
+4.54636060100E+007, +2.05078159054E+001, +6.32440522888E+002
+4.56303839733E+007, +2.30032140654E+001, +6.36391020518E+002
+4.57971619366E+007, +2.49670926335E+001, +6.42596941724E+002
+4.59639398998E+007, +2.38473964709E+001, +6.51144752735E+002
+4.61307178631E+007, +2.67857447161E+001, +6.53993444728E+002
+4.62974958264E+007, +2.87362909967E+001, +6.60151147512E+002
+4.64642737896E+007, +2.86396859793E+001, +6.64337665685E+002
+4.66310517529E+007, +3.00343727058E+001, +6.72100504880E+002
+4.67978297162E+007, +3.55601072971E+001, +6.76147104348E+002
+4.69646076795E+007, +3.31825635646E+001, +6.84180453704E+002
+4.71313856427E+007, +3.60192376027E+001, +6.89393230084E+002
+4.72981636060E+007, +3.74719160173E+001, +6.96128726308E+002
+4.74649415693E+007, +3.83366104099E+001, +7.02171737793E+002
+4.76317195326E+007, +4.35242594721E+001, +7.08941476231E+002
+4.77984974958E+007, +4.60882539218E+001, +7.16801795393E+002
+4.79652754591E+007, +4.75717056030E+001, +7.21994688221E+002
+4.81320534224E+007, +5.19301178736E+001, +7.27838351427E+002
+4.82988313856E+007, +5.37345657203E+001, +7.35346056913E+002
+4.84656093489E+007, +5.62863815327E+001, +7.41572396972E+002
+4.86323873122E+007, +6.18289527423E+001, +7.47012221881E+002
+4.87991652755E+007, +6.48866120553E+001, +7.52437467452E+002
+4.89659432387E+007, +6.68145298651E+001, +7.56957677086E+002
+4.91327212020E+007, +7.00202898461E+001, +7.63731596436E+002
+4.92994991653E+007, +7.40944559764E+001, +7.69485613148E+002
+4.94662771285E+007, +7.78159303782E+001, +7.75972115497E+002
+4.96330550918E+007, +8.25183710089E+001, +7.82823728451E+002
+4.97998330551E+007, +8.60789789726E+001, +7.86170346014E+002
+4.99666110184E+007, +8.81784225302E+001, +7.92693594441E+002
+5.01333889816E+007, +9.14110985094E+001, +8.00877712990E+002
+5.03001669449E+007, +9.19717784470E+001, +8.04983767600E+002
+5.04669449082E+007, +9.96569347634E+001, +8.14750825638E+002
+5.06337228715E+007, +1.01752198708E+002, +8.19778720119E+002
+5.08005008347E+007, +1.02463947401E+002, +8.21435965484E+002
+5.09672787980E+007, +1.10101360980E+002, +8.29291400338E+002
+5.11340567613E+007, +1.08946985627E+002, +8.35653148541E+002
+5.13008347245E+007, +1.09142003247E+002, +8.40037956944E+002
+5.14676126878E+007, +1.08579676814E+002, +8.46086641622E+002
+5.16343906511E+007, +1.11414645948E+002, +8.54391406453E+002
+5.18011686144E+007, +1.11912567212E+002, +8.59409540027E+002
+5.19679465776E+007, +1.13109840199E+002, +8.69517358998E+002
+5.21347245409E+007, +1.14623964808E+002, +8.79264070887E+002
+5.23015025042E+007, +1.17956911647E+002, +8.93100358566E+002
+5.24682804674E+007, +1.13799524240E+002, +9.02366209225E+002
+5.26350584307E+007, +1.17436743703E+002, +9.15564413010E+002
+5.28018363940E+007, +1.17262660146E+002, +9.29517245700E+002
+5.29686143573E+007, +1.22685259218E+002, +9.43431574442E+002
+5.31353923205E+007, +1.25046807044E+002, +9.54736630644E+002
+5.33021702838E+007, +1.29113045333E+002, +9.64791784661E+002
+5.34689482471E+007, +1.32571779565E+002, +9.84627520615E+002
