"# Channel 1"
"# Trace 1"
Frequency, Formatted Data, Formatted Data
+1.00000000000E+005, +2.34598303730E-001, +1.09493379245E+000
+2.66777963272E+005, +2.59987894221E-001, +2.89154248955E+000
+4.33555926544E+005, +2.66355868931E-001, +4.70104069950E+000
+6.00333889816E+005, +3.42805921998E-001, +6.43724363341E+000
+7.67111853088E+005, +3.75171323325E-001, +8.22162142253E+000
+9.33889816361E+005, +4.00384867499E-001, +9.94916667811E+000
+1.10066777963E+006, +3.68900541424E-001, +1.17016356122E+001
+1.26744574290E+006, +4.37594403130E-001, +1.34514296144E+001
+1.43422370618E+006, +3.76353319994E-001, +1.52256786181E+001
+1.60100166945E+006, +4.78339731758E-001, +1.69363806076E+001
+1.76777963272E+006, +4.82616206931E-001, +1.86714693180E+001
+1.93455759599E+006, +5.22288447820E-001, +2.03645782186E+001
+2.10133555927E+006, +5.37140773819E-001, +2.21031676049E+001
+2.26811352254E+006, +5.86756310332E-001, +2.38753925967E+001
+2.43489148581E+006, +5.51050514557E-001, +2.56495152980E+001
+2.60166944908E+006, +5.68391221979E-001, +2.73224446248E+001
+2.76844741235E+006, +5.64883869118E-001, +2.90900619511E+001
+2.93522537563E+006, +5.70799404490E-001, +3.08135637574E+001
+3.10200333890E+006, +6.86690172822E-001, +3.25225053088E+001
+3.26878130217E+006, +5.40134686033E-001, +3.43020965726E+001
+3.43555926544E+006, +6.26253366799E-001, +3.60221405163E+001
+3.60233722871E+006, +6.23600260746E-001, +3.77814567522E+001
+3.76911519199E+006, +6.22109346269E-001, +3.95691393239E+001
+3.93589315526E+006, +5.86547569587E-001, +4.12094041901E+001
+4.10267111853E+006, +5.86346541494E-001, +4.31039440572E+001
+4.26944908180E+006, +5.99759907992E-001, +4.48122269136E+001
+4.43622704508E+006, +6.60265433156E-001, +4.64729271133E+001
+4.60300500835E+006, +6.54215675784E-001, +4.82460769583E+001
+4.76978297162E+006, +6.49485625883E-001, +4.99232044248E+001
+4.93656093489E+006, +7.06310754977E-001, +5.17379618285E+001
+5.10333889816E+006, +6.94545472369E-001, +5.34529289211E+001
+5.27011686144E+006, +7.74985150467E-001, +5.53211712988E+001
+5.43689482471E+006, +6.71783485152E-001, +5.70041925557E+001
+5.60367278798E+006, +6.89626628048E-001, +5.87910373367E+001
+5.77045075125E+006, +6.65929191287E-001, +6.04660119135E+001
+5.93722871452E+006, +7.47130316432E-001, +6.22767112902E+001
+6.10400667780E+006, +6.94487838257E-001, +6.40434130110E+001
+6.27078464107E+006, +8.07615561503E-001, +6.57783122147E+001
+6.43756260434E+006, +7.93344026147E-001, +6.75664327045E+001
+6.60434056761E+006, +8.06837715897E-001, +6.92897687454E+001
+6.77111853088E+006, +8.92317652494E-001, +7.10477343702E+001
+6.93789649416E+006, +8.32333405975E-001, +7.27860061411E+001
+7.10467445743E+006, +8.32913934805E-001, +7.45109972702E+001
+7.27145242070E+006, +8.80380156557E-001, +7.62974032747E+001
+7.43823038397E+006, +9.17897893230E-001, +7.80007847635E+001
+7.60500834725E+006, +8.36527902863E-001, +7.97795239970E+001
+7.77178631052E+006, +9.26427281049E-001, +8.16195588435E+001
+7.93856427379E+006, +9.47109649345E-001, +8.32806728081E+001
+8.10534223706E+006, +9.18361866135E-001, +8.50257664250E+001
+8.27212020033E+006, +9.62658475524E-001, +8.68013177728E+001
+8.43889816361E+006, +9.17425186210E-001, +8.85896523169E+001
+8.60567612688E+006, +8.63499262344E-001, +9.03307025904E+001
+8.77245409015E+006, +8.93917901554E-001, +9.20712478147E+001
+8.93923205342E+006, +8.90879651503E-001, +9.38429186180E+001
+9.10601001669E+006, +8.97374863204E-001, +9.56477200926E+001
+9.27278797997E+006, +9.47014081464E-001, +9.73796321490E+001
+9.43956594324E+006, +9.41622037966E-001, +9.91380521524E+001
+9.60634390651E+006, +9.22310439749E-001, +1.00920892765E+002
+9.77312186978E+006, +8.94698858884E-001, +1.02696653221E+002
+9.93989983306E+006, +9.42428631521E-001, +1.04490378331E+002
+1.01066777963E+007, +8.80827478171E-001, +1.06230648642E+002
+1.02734557596E+007, +9.38042373803E-001, +1.08113051188E+002
+1.04402337229E+007, +9.05786635554E-001, +1.09762203695E+002
+1.06070116861E+007, +8.93751794598E-001, +1.11585698747E+002
+1.07737896494E+007, +9.18813266933E-001, +1.13364371624E+002
+1.09405676127E+007, +9.15157416838E-001, +1.15245281527E+002
+1.11073455760E+007, +9.37844456169E-001, +1.16996475510E+002
+1.12741235392E+007, +9.25023786960E-001, +1.18708708073E+002
+1.14409015025E+007, +9.48021841538E-001, +1.20540112665E+002
+1.16076794658E+007, +9.97340981013E-001, +1.22297276828E+002
+1.17744574290E+007, +9.49782012302E-001, +1.24145932109E+002
+1.19412353923E+007, +9.03963869753E-001, +1.25941324365E+002
+1.21080133556E+007, +8.15399308916E-001, +1.27691203192E+002
+1.22747913189E+007, +9.99663718031E-001, +1.29593874427E+002
+1.24415692821E+007, +8.45407049116E-001, +1.31294643615E+002
+1.26083472454E+007, +8.77957696602E-001, +1.33164381949E+002
+1.27751252087E+007, +9.40687569618E-001, +1.34890457149E+002
+1.29419031720E+007, +8.43449047660E-001, +1.36715441266E+002
+1.31086811352E+007, +9.20723838793E-001, +1.38586567364E+002
+1.32754590985E+007, +1.01236220658E+000, +1.40359445544E+002
+1.34422370618E+007, +8.99473347114E-001, +1.42138715859E+002
+1.36090150250E+007, +1.07689624990E+000, +1.43977323943E+002
+1.37757929883E+007, +9.60370594043E-001, +1.45792062905E+002
+1.39425709516E+007, +1.05668944824E+000, +1.47631448274E+002
+1.41093489149E+007, +1.11899585353E+000, +1.49386535983E+002
+1.42761268781E+007, +1.10456937710E+000, +1.51154572032E+002
+1.44429048414E+007, +1.20164292938E+000, +1.52997857860E+002
+1.46096828047E+007, +1.08395202374E+000, +1.54883167932E+002
+1.47764607679E+007, +1.12731602241E+000, +1.56643553142E+002
+1.49432387312E+007, +1.06121528499E+000, +1.58450139409E+002
+1.51100166945E+007, +9.31987280290E-001, +1.60262251433E+002
+1.52767946578E+007, +1.12711241377E+000, +1.62085483506E+002
+1.54435726210E+007, +1.07354636025E+000, +1.63810678569E+002
+1.56103505843E+007, +1.12260806830E+000, +1.65833230977E+002
+1.57771285476E+007, +1.01661345956E+000, +1.67628304164E+002
+1.59439065109E+007, +9.55409609279E-001, +1.69498289864E+002
+1.61106844741E+007, +9.69464654744E-001, +1.71458008222E+002
+1.62774624374E+007, +1.14020761849E+000, +1.73222777497E+002
+1.64442404007E+007, +1.11409954713E+000, +1.75062735931E+002
+1.66110183639E+007, +1.12443302303E+000, +1.76923154393E+002
+1.67777963272E+007, +1.14500835798E+000, +1.78931599911E+002
+1.69445742905E+007, +1.07955454570E+000, +1.80588069758E+002
+1.71113522538E+007, +6.55719510251E-001, +1.82338215441E+002
+1.72781302170E+007, +1.03281401914E+000, +1.84288245931E+002
+1.74449081803E+007, +8.62257149859E-001, +1.86174827480E+002
+1.76116861436E+007, +1.07371621861E+000, +1.88222943360E+002
+1.77784641068E+007, +1.05427022234E+000, +1.89763993511E+002
+1.79452420701E+007, +1.07505144524E+000, +1.91988619843E+002
+1.81120200334E+007, +1.18970599946E+000, +1.93639090997E+002
+1.82787979967E+007, +1.22920043212E+000, +1.95645243607E+002
+1.84455759599E+007, +1.30148933606E+000, +1.97729125191E+002
+1.86123539232E+007, +1.41645307234E+000, +1.99537624800E+002
+1.87791318865E+007, +1.15048978725E+000, +2.01578054109E+002
+1.89459098497E+007, +1.36373002500E+000, +2.03391263870E+002
+1.91126878130E+007, +1.37397885896E+000, +2.05167714619E+002
+1.92794657763E+007, +1.38063070646E+000, +2.07136724738E+002
+1.94462437396E+007, +1.34607755605E+000, +2.09350336983E+002
+1.96130217028E+007, +1.48512112857E+000, +2.11081753261E+002
+1.97797996661E+007, +1.53837988342E+000, +2.12875862510E+002
+1.99465776294E+007, +1.44276792471E+000, +2.14720950899E+002
+2.01133555927E+007, +1.33485644582E+000, +2.16709250753E+002
+2.02801335559E+007, +1.58645722941E+000, +2.18893549340E+002
+2.04469115192E+007, +1.89922389120E+000, +2.20620761219E+002
+2.06136894825E+007, +1.57916500770E+000, +2.22598435157E+002
+2.07804674457E+007, +1.83874845029E+000, +2.24803113397E+002
+2.09472454090E+007, +1.47664955069E+000, +2.26501170504E+002
+2.11140233723E+007, +1.63917437672E+000, +2.28242503910E+002
+2.12808013356E+007, +1.95728243554E+000, +2.30204982446E+002
+2.14475792988E+007, +1.68076268218E+000, +2.32397626537E+002
+2.16143572621E+007, +2.07876221247E+000, +2.34269279303E+002
+2.17811352254E+007, +1.78731410273E+000, +2.36047056079E+002
+2.19479131886E+007, +2.16173893005E+000, +2.38313483083E+002
+2.21146911519E+007, +2.36152929228E+000, +2.40085680755E+002
+2.22814691152E+007, +1.99600007594E+000, +2.42223445033E+002
+2.24482470785E+007, +2.18788967271E+000, +2.44381115601E+002
+2.26150250417E+007, +2.65265929469E+000, +2.46156997164E+002
+2.27818030050E+007, +2.34225253133E+000, +2.48524071926E+002
+2.29485809683E+007, +2.99621686526E+000, +2.50035578752E+002
+2.31153589316E+007, +2.47990595865E+000, +2.52461116991E+002
+2.32821368948E+007, +3.05365726966E+000, +2.54391867887E+002
+2.34489148581E+007, +3.14806531115E+000, +2.55957860451E+002
+2.36156928214E+007, +3.16489068047E+000, +2.58726694654E+002
+2.37824707846E+007, +2.99426736021E+000, +2.60203313921E+002
+2.39492487479E+007, +3.02332909877E+000, +2.62006077698E+002
+2.41160267112E+007, +3.23185006325E+000, +2.64362287671E+002
+2.42828046745E+007, +3.49140610009E+000, +2.66221319622E+002
+2.44495826377E+007, +3.71244998155E+000, +2.68642856898E+002
+2.46163606010E+007, +3.53807697215E+000, +2.70160170943E+002
+2.47831385643E+007, +3.46137268339E+000, +2.72031555517E+002
+2.49499165275E+007, +4.03745466989E+000, +2.74437450576E+002
+2.51166944908E+007, +4.30412243772E+000, +2.76399281856E+002
+2.52834724541E+007, +4.48311667923E+000, +2.78657491604E+002
+2.54502504174E+007, +4.62672606819E+000, +2.80507524750E+002
+2.56170283806E+007, +4.64576273516E+000, +2.82087945814E+002
+2.57838063439E+007, +4.80789818052E+000, +2.84607003318E+002
+2.59505843072E+007, +5.18931986003E+000, +2.86442004439E+002
+2.61173622705E+007, +5.05673829327E+000, +2.88429858628E+002
+2.62841402337E+007, +5.19532127848E+000, +2.90355446983E+002
+2.64509181970E+007, +5.00536415299E+000, +2.92376060955E+002
+2.66176961603E+007, +4.93583218566E+000, +2.94699202296E+002
+2.67844741235E+007, +5.50934268725E+000, +2.96511443681E+002
+2.69512520868E+007, +5.48548531346E+000, +2.98438664015E+002
+2.71180300501E+007, +5.82155225094E+000, +2.99694894724E+002
+2.72848080134E+007, +5.80068891815E+000, +3.02109727759E+002
+2.74515859766E+007, +5.98508780114E+000, +3.03711074574E+002
+2.76183639399E+007, +5.88221549968E+000, +3.05652235096E+002
+2.77851419032E+007, +5.79504911100E+000, +3.07967817704E+002
+2.79519198664E+007, +5.86316861151E+000, +3.09880509313E+002
+2.81186978297E+007, +6.02678123028E+000, +3.11168246539E+002
+2.82854757930E+007, +5.69545945268E+000, +3.13629844747E+002
+2.84522537563E+007, +5.43968620724E+000, +3.15981779906E+002
+2.86190317195E+007, +5.46442524601E+000, +3.17989520694E+002
+2.87858096828E+007, +5.51842153704E+000, +3.20134059265E+002
+2.89525876461E+007, +5.70246851325E+000, +3.22113582943E+002
+2.91193656093E+007, +4.88554701080E+000, +3.23985619916E+002
+2.92861435726E+007, +4.52161763367E+000, +3.26249109723E+002
+2.94529215359E+007, +5.48646347799E+000, +3.28237626778E+002
+2.96196994992E+007, +5.33212454820E+000, +3.30667332883E+002
+2.97864774624E+007, +6.04190581792E+000, +3.32980218272E+002
+2.99532554257E+007, +5.77772603967E+000, +3.35954285439E+002
+3.01200333890E+007, +5.29694076943E+000, +3.37699784647E+002
+3.02868113523E+007, +5.20744881048E+000, +3.39825261899E+002
+3.04535893155E+007, +5.08043948640E+000, +3.42734681973E+002
+3.06203672788E+007, +5.48272842029E+000, +3.44579514211E+002
+3.07871452421E+007, +5.18963954058E+000, +3.46751641825E+002
+3.09539232053E+007, +5.46337015781E+000, +3.49396441564E+002
+3.11207011686E+007, +4.43214438053E+000, +3.51876793754E+002
+3.12874791319E+007, +5.39917078410E+000, +3.53475354049E+002
+3.14542570952E+007, +5.11574704470E+000, +3.55799374666E+002
+3.16210350584E+007, +4.92278562952E+000, +3.58491951139E+002
+3.17878130217E+007, +4.60833062533E+000, +3.61116838832E+002
+3.19545909850E+007, +4.58528207710E+000, +3.63599988244E+002
+3.21213689482E+007, +4.42990382935E+000, +3.65507359428E+002
+3.22881469115E+007, +4.31701946853E+000, +3.68059680442E+002
+3.24549248748E+007, +4.57637194483E+000, +3.70725985872E+002
+3.26217028381E+007, +4.26102582211E+000, +3.72993270028E+002
+3.27884808013E+007, +5.11199262830E+000, +3.75731917435E+002
+3.29552587646E+007, +4.68853957537E+000, +3.77817321050E+002
+3.31220367279E+007, +5.42667956834E+000, +3.79155823670E+002
+3.32888146912E+007, +5.22451052082E+000, +3.82783830039E+002
+3.34555926544E+007, +4.85012729809E+000, +3.84971271558E+002
+3.36223706177E+007, +5.56832687044E+000, +3.87261114583E+002
+3.37891485810E+007, +5.90743292979E+000, +3.89239962695E+002
+3.39559265442E+007, +5.07643916365E+000, +3.92856010235E+002
+3.41227045075E+007, +5.22035836290E+000, +3.95430753546E+002
+3.42894824708E+007, +5.17453576370E+000, +3.98023460502E+002
+3.44562604341E+007, +5.49110636058E+000, +4.00344361388E+002
+3.46230383973E+007, +6.10410934375E+000, +4.03244247965E+002
+3.47898163606E+007, +5.98863980800E+000, +4.05313527886E+002
+3.49565943239E+007, +6.32032184897E+000, +4.08431699216E+002
+3.51233722871E+007, +6.48467146964E+000, +4.11073084503E+002
+3.52901502504E+007, +6.84475259763E+000, +4.13548367979E+002
+3.54569282137E+007, +5.94125520646E+000, +4.15911629388E+002
+3.56237061770E+007, +5.68433914838E+000, +4.18873339359E+002
+3.57904841402E+007, +5.61755992474E+000, +4.21996802779E+002
+3.59572621035E+007, +5.73221590901E+000, +4.24496635218E+002
+3.61240400668E+007, +6.11559589899E+000, +4.26531434784E+002
+3.62908180301E+007, +6.55640500136E+000, +4.30218516302E+002
+3.64575959933E+007, +6.47497283839E+000, +4.33463539950E+002
+3.66243739566E+007, +6.34123462887E+000, +4.34855014163E+002
+3.67911519199E+007, +6.32890916141E+000, +4.38926919199E+002
+3.69579298831E+007, +6.43060735939E+000, +4.40746950093E+002
+3.71247078464E+007, +6.31989646108E+000, +4.44164804862E+002
+3.72914858097E+007, +5.89132787654E+000, +4.48293252100E+002
+3.74582637730E+007, +6.79179266693E+000, +4.50844642735E+002
+3.76250417362E+007, +7.42369690773E+000, +4.52951515283E+002
+3.77918196995E+007, +7.20351757480E+000, +4.55584391661E+002
+3.79585976628E+007, +7.23837897894E+000, +4.59502829001E+002
+3.81253756260E+007, +7.56168758289E+000, +4.62770536505E+002
+3.82921535893E+007, +7.89495467743E+000, +4.65455708486E+002
+3.84589315526E+007, +8.22552026258E+000, +4.68687772588E+002
+3.86257095159E+007, +7.94159805628E+000, +4.71582788784E+002
+3.87924874791E+007, +7.23699253997E+000, +4.75366856513E+002
+3.89592654424E+007, +8.52044684248E+000, +4.78140752082E+002
+3.91260434057E+007, +9.02458768475E+000, +4.81916235606E+002
+3.92928213689E+007, +8.46513552990E+000, +4.84454144795E+002
+3.94595993322E+007, +8.58635639642E+000, +4.88237469252E+002
+3.96263772955E+007, +8.41394458202E+000, +4.91412555508E+002
+3.97931552588E+007, +8.86772311837E+000, +4.95697200216E+002
+3.99599332220E+007, +9.44323138178E+000, +4.98403869492E+002
+4.01267111853E+007, +1.00393255901E+001, +5.01623787900E+002
+4.02934891486E+007, +9.50484535649E+000, +5.04485686613E+002
+4.04602671119E+007, +1.13539166553E+001, +5.07410903253E+002
+4.06270450751E+007, +1.14716606291E+001, +5.12252562875E+002
+4.07938230384E+007, +1.14209976913E+001, +5.16115433372E+002
+4.09606010017E+007, +1.13281569932E+001, +5.19038659115E+002
+4.11273789649E+007, +1.16260711080E+001, +5.21158408186E+002
+4.12941569282E+007, +1.15117163299E+001, +5.25967060082E+002
+4.14609348915E+007, +1.21347459403E+001, +5.30883561980E+002
+4.16277128548E+007, +1.39904659291E+001, +5.32518025285E+002
+4.17944908180E+007, +1.28102555121E+001, +5.36187659320E+002
+4.19612687813E+007, +1.22774193033E+001, +5.40348142525E+002
+4.21280467446E+007, +1.26802368168E+001, +5.44485974283E+002
+4.22948247078E+007, +1.40810195766E+001, +5.48570343178E+002
+4.24616026711E+007, +1.38957053670E+001, +5.50804940838E+002
+4.26283806344E+007, +1.43626208307E+001, +5.57633763545E+002
+4.27951585977E+007, +1.28542776080E+001, +5.61913190211E+002
+4.29619365609E+007, +1.53314701827E+001, +5.64603155958E+002
+4.31287145242E+007, +1.60679047101E+001, +5.69877010635E+002
+4.32954924875E+007, +1.65241451648E+001, +5.72924076734E+002
+4.34622704508E+007, +1.57479786061E+001, +5.79271942900E+002
+4.36290484140E+007, +1.76750781102E+001, +5.83566526201E+002
+4.37958263773E+007, +1.67734927631E+001, +5.88838396785E+002
+4.39626043406E+007, +1.78295163670E+001, +5.92839163382E+002
+4.41293823038E+007, +1.98993845148E+001, +5.98292485489E+002
+4.42961602671E+007, +1.80100969296E+001, +6.03178961200E+002
+4.44629382304E+007, +2.00205635695E+001, +6.06857767027E+002
+4.46297161937E+007, +2.06269476378E+001, +6.11747259281E+002
+4.47964941569E+007, +2.02526043954E+001, +6.16854087605E+002
+4.49632721202E+007, +2.06839816754E+001, +6.23133215161E+002
+4.51300500835E+007, +2.15182809866E+001, +6.27032841538E+002
+4.52968280467E+007, +2.40398772993E+001, +6.33755461259E+002
+4.54636060100E+007, +2.46709380415E+001, +6.41254546246E+002
+4.56303839733E+007, +2.50309718604E+001, +6.43557136618E+002
+4.57971619366E+007, +2.72145576281E+001, +6.49469627943E+002
+4.59639398998E+007, +2.92381085799E+001, +6.58964620900E+002
+4.61307178631E+007, +2.95912126113E+001, +6.62421202027E+002
+4.62974958264E+007, +3.08602666907E+001, +6.68937321095E+002
+4.64642737896E+007, +3.11821250157E+001, +6.72215892721E+002
+4.66310517529E+007, +3.26106199377E+001, +6.80960112469E+002
+4.67978297162E+007, +3.71993783461E+001, +6.84396310770E+002
+4.69646076795E+007, +3.71908801361E+001, +6.93164162512E+002
+4.71313856427E+007, +3.89164553582E+001, +6.99438331269E+002
+4.72981636060E+007, +4.17721230736E+001, +7.07380769672E+002
+4.74649415693E+007, +4.31247271954E+001, +7.11147130628E+002
+4.76317195326E+007, +4.95578281402E+001, +7.17984835707E+002
+4.77984974958E+007, +5.13677524709E+001, +7.25006633515E+002
+4.79652754591E+007, +5.21792217705E+001, +7.31641936093E+002
+4.81320534224E+007, +5.59530333777E+001, +7.36419863894E+002
+4.82988313856E+007, +6.20963233078E+001, +7.42795866797E+002
+4.84656093489E+007, +6.41777568898E+001, +7.48571885251E+002
+4.86323873122E+007, +6.91973929696E+001, +7.56338153927E+002
+4.87991652755E+007, +7.24964908517E+001, +7.62807129590E+002
+4.89659432387E+007, +7.33345916977E+001, +7.67522565388E+002
+4.91327212020E+007, +8.11609342892E+001, +7.73905117527E+002
+4.92994991653E+007, +8.33450295225E+001, +7.78540541343E+002
+4.94662771285E+007, +8.57414337457E+001, +7.86583753273E+002
+4.96330550918E+007, +9.14331786414E+001, +7.90260394845E+002
+4.97998330551E+007, +9.55053986486E+001, +7.98584242896E+002
+4.99666110184E+007, +9.72510112498E+001, +8.02897118010E+002
+5.01333889816E+007, +1.01089242559E+002, +8.07979009195E+002
+5.03001669449E+007, +1.01754336977E+002, +8.14735606232E+002
+5.04669449082E+007, +1.07232817477E+002, +8.23575869659E+002
+5.06337228715E+007, +1.12702716770E+002, +8.27013987780E+002
+5.08005008347E+007, +1.12363441952E+002, +8.28297372590E+002
+5.09672787980E+007, +1.16524996801E+002, +8.35265054951E+002
+5.11340567613E+007, +1.19844881428E+002, +8.41570570103E+002
+5.13008347245E+007, +1.17965178614E+002, +8.52541051052E+002
+5.14676126878E+007, +1.20298786244E+002, +8.55799411797E+002
+5.16343906511E+007, +1.25314004132E+002, +8.65315713284E+002
+5.18011686144E+007, +1.20406934863E+002, +8.71875461712E+002
+5.19679465776E+007, +1.24511475458E+002, +8.80943135167E+002
+5.21347245409E+007, +1.24856197880E+002, +8.93037419300E+002
+5.23015025042E+007, +1.26077603723E+002, +9.08951155545E+002
+5.24682804674E+007, +1.24049062883E+002, +9.17252293556E+002
+5.26350584307E+007, +1.31062124032E+002, +9.27999509941E+002
+5.28018363940E+007, +1.29887342456E+002, +9.39952937596E+002
+5.29686143573E+007, +1.34910468682E+002, +9.55195580014E+002
+5.31353923205E+007, +1.33956578863E+002, +9.67904394136E+002
+5.33021702838E+007, +1.38060732126E+002, +9.82103562232E+002
+5.34689482471E+007, +1.44898793008E+002, +9.99033078566E+002
