"# Channel 1"
"# Trace 1"
Frequency, Formatted Data, Formatted Data
+1.00000000000E+005, +1.80541333939E+001, +1.29731988843E+000
+2.66777963272E+005, +1.80572017569E+001, +3.59627856126E+000
+4.33555926544E+005, +1.80541572923E+001, +5.84878485007E+000
+6.00333889816E+005, +1.80934846475E+001, +8.07552901024E+000
+7.67111853088E+005, +1.81183472805E+001, +1.03505410135E+001
+9.33889816361E+005, +1.81238951679E+001, +1.25608449723E+001
+1.10066777963E+006, +1.81128633146E+001, +1.48136278595E+001
+1.26744574290E+006, +1.81318561542E+001, +1.70227693083E+001
+1.43422370618E+006, +1.81163301808E+001, +1.93352946431E+001
+1.60100166945E+006, +1.81524959244E+001, +2.14510922768E+001
+1.76777963272E+006, +1.81283144244E+001, +2.37244384008E+001
+1.93455759599E+006, +1.81456914108E+001, +2.59129663405E+001
+2.10133555927E+006, +1.81522045923E+001, +2.81433855188E+001
+2.26811352254E+006, +1.81598063043E+001, +3.03673674484E+001
+2.43489148581E+006, +1.81908916183E+001, +3.26583392274E+001
+2.60166944908E+006, +1.82025442529E+001, +3.48207886036E+001
+2.76844741235E+006, +1.81662477369E+001, +3.70999278558E+001
+2.93522537563E+006, +1.81717916786E+001, +3.93135116584E+001
+3.10200333890E+006, +1.82519107750E+001, +4.14841492587E+001
+3.26878130217E+006, +1.81421258609E+001, +4.37887251380E+001
+3.43555926544E+006, +1.82032383163E+001, +4.59642413172E+001
+3.60233722871E+006, +1.82688631497E+001, +4.82937275840E+001
+3.76911519199E+006, +1.82241145042E+001, +5.05477106456E+001
+3.93589315526E+006, +1.81755793065E+001, +5.26838297021E+001
+4.10267111853E+006, +1.82545568761E+001, +5.50844916186E+001
+4.26944908180E+006, +1.82645865826E+001, +5.72831689055E+001
+4.43622704508E+006, +1.82067581267E+001, +5.94467177988E+001
+4.60300500835E+006, +1.83249065618E+001, +6.17097855375E+001
+4.76978297162E+006, +1.83032185294E+001, +6.39728947306E+001
+4.93656093489E+006, +1.83787149587E+001, +6.62095285086E+001
+5.10333889816E+006, +1.83549019622E+001, +6.84077833211E+001
+5.27011686144E+006, +1.85024223945E+001, +7.07536704590E+001
+5.43689482471E+006, +1.83504913745E+001, +7.29448540394E+001
+5.60367278798E+006, +1.84427135016E+001, +7.53286334524E+001
+5.77045075125E+006, +1.83226595685E+001, +7.74774086129E+001
+5.93722871452E+006, +1.85036066859E+001, +7.97023008495E+001
+6.10400667780E+006, +1.84442147262E+001, +8.20119079117E+001
+6.27078464107E+006, +1.85708225479E+001, +8.42075019850E+001
+6.43756260434E+006, +1.86311003313E+001, +8.65183376156E+001
+6.60434056761E+006, +1.86121233615E+001, +8.87526615401E+001
+6.77111853088E+006, +1.87685958760E+001, +9.09892867245E+001
+6.93789649416E+006, +1.86732842267E+001, +9.32760045275E+001
+7.10467445743E+006, +1.86857813023E+001, +9.55102532810E+001
+7.27145242070E+006, +1.86858573665E+001, +9.77788588349E+001
+7.43823038397E+006, +1.88139663884E+001, +1.00002462639E+002
+7.60500834725E+006, +1.87586546580E+001, +1.02332695219E+002
+7.77178631052E+006, +1.88713450119E+001, +1.04702771013E+002
+7.93856427379E+006, +1.88688179985E+001, +1.06820093866E+002
+8.10534223706E+006, +1.89204230579E+001, +1.09158725843E+002
+8.27212020033E+006, +1.88968277522E+001, +1.11408977465E+002
+8.43889816361E+006, +1.89269614152E+001, +1.13692798088E+002
+8.60567612688E+006, +1.88413648891E+001, +1.16057791349E+002
+8.77245409015E+006, +1.88854808947E+001, +1.18275729650E+002
+8.93923205342E+006, +1.89243895899E+001, +1.20601579619E+002
+9.10601001669E+006, +1.90178544295E+001, +1.22843771423E+002
+9.27278797997E+006, +1.89900953037E+001, +1.25279865939E+002
+9.43956594324E+006, +1.89432975270E+001, +1.27474743431E+002
+9.60634390651E+006, +1.90126243321E+001, +1.29781871029E+002
+9.77312186978E+006, +1.90602496268E+001, +1.32126715388E+002
+9.93989983306E+006, +1.91531512549E+001, +1.34417203246E+002
+1.01066777963E+007, +1.89767345430E+001, +1.36697251487E+002
+1.02734557596E+007, +1.90058400055E+001, +1.39084891734E+002
+1.04402337229E+007, +1.91941604755E+001, +1.41357493487E+002
+1.06070116861E+007, +1.91631132506E+001, +1.43646681297E+002
+1.07737896494E+007, +1.90938676458E+001, +1.46140331089E+002
+1.09405676127E+007, +1.92576736340E+001, +1.48360384486E+002
+1.11073455760E+007, +1.91885489933E+001, +1.50813242154E+002
+1.12741235392E+007, +1.92767279642E+001, +1.53022391625E+002
+1.14409015025E+007, +1.94083357616E+001, +1.55408995445E+002
+1.16076794658E+007, +1.94462893393E+001, +1.57688204367E+002
+1.17744574290E+007, +1.94829760138E+001, +1.60279733814E+002
+1.19412353923E+007, +1.93775446124E+001, +1.62612044776E+002
+1.21080133556E+007, +1.92402911934E+001, +1.64891339120E+002
+1.22747913189E+007, +1.94766921231E+001, +1.67429169555E+002
+1.24415692821E+007, +1.94043958138E+001, +1.69703918257E+002
+1.26083472454E+007, +1.93963750577E+001, +1.72120380927E+002
+1.27751252087E+007, +1.95477014822E+001, +1.74391502474E+002
+1.29419031720E+007, +1.95308273674E+001, +1.76716913021E+002
+1.31086811352E+007, +1.95917729289E+001, +1.79257228804E+002
+1.32754590985E+007, +1.96897654868E+001, +1.81673680315E+002
+1.34422370618E+007, +1.97451549205E+001, +1.83973343634E+002
+1.36090150250E+007, +1.99498582827E+001, +1.86320962026E+002
+1.37757929883E+007, +1.98658910915E+001, +1.89018133070E+002
+1.39425709516E+007, +1.99556074805E+001, +1.91132030747E+002
+1.41093489149E+007, +2.00981140389E+001, +1.93520104088E+002
+1.42761268781E+007, +2.02716142290E+001, +1.95979930460E+002
+1.44429048414E+007, +2.01975203416E+001, +1.98241654704E+002
+1.46096828047E+007, +2.01384495305E+001, +2.00747460069E+002
+1.47764607679E+007, +2.03816765273E+001, +2.02904234051E+002
+1.49432387312E+007, +2.02168752905E+001, +2.05512561822E+002
+1.51100166945E+007, +2.01675846127E+001, +2.08136953469E+002
+1.52767946578E+007, +2.04125409009E+001, +2.10539313265E+002
+1.54435726210E+007, +2.05358829538E+001, +2.12842836687E+002
+1.56103505843E+007, +2.05183941008E+001, +2.15257929544E+002
+1.57771285476E+007, +2.04823227315E+001, +2.17658767732E+002
+1.59439065109E+007, +2.05408991914E+001, +2.20359916404E+002
+1.61106844741E+007, +2.04143061019E+001, +2.23021825667E+002
+1.62774624374E+007, +2.09915228441E+001, +2.25203109410E+002
+1.64442404007E+007, +2.06157310275E+001, +2.27951848152E+002
+1.66110183639E+007, +2.05408613297E+001, +2.30023374751E+002
+1.67777963272E+007, +2.08196964450E+001, +2.32884046962E+002
+1.69445742905E+007, +2.09684964496E+001, +2.35417436901E+002
+1.71113522538E+007, +2.05271244469E+001, +2.37686318237E+002
+1.72781302170E+007, +2.12413906049E+001, +2.40403650495E+002
+1.74449081803E+007, +2.07454596467E+001, +2.42943123019E+002
+1.76116861436E+007, +2.13006569217E+001, +2.45530981022E+002
+1.77784641068E+007, +2.09708514323E+001, +2.47463855344E+002
+1.79452420701E+007, +2.12816761785E+001, +2.50597067661E+002
+1.81120200334E+007, +2.14536779548E+001, +2.52899798204E+002
+1.82787979967E+007, +2.16507238768E+001, +2.55631026847E+002
+1.84455759599E+007, +2.19235020856E+001, +2.58293033984E+002
+1.86123539232E+007, +2.18964651273E+001, +2.60756471219E+002
+1.87791318865E+007, +2.19036112861E+001, +2.63767058726E+002
+1.89459098497E+007, +2.20462451723E+001, +2.66011491299E+002
+1.91126878130E+007, +2.23473342754E+001, +2.68239497070E+002
+1.92794657763E+007, +2.22191712088E+001, +2.71298688171E+002
+1.94462437396E+007, +2.25762033908E+001, +2.74391569747E+002
+1.96130217028E+007, +2.26169302544E+001, +2.76836320040E+002
+1.97797996661E+007, +2.27360156174E+001, +2.78904118459E+002
+1.99465776294E+007, +2.25223865483E+001, +2.81516818625E+002
+2.01133555927E+007, +2.27999571399E+001, +2.84558131900E+002
+2.02801335559E+007, +2.30986242377E+001, +2.87186003669E+002
+2.04469115192E+007, +2.34158251678E+001, +2.89888609393E+002
+2.06136894825E+007, +2.31152508117E+001, +2.92198610718E+002
+2.07804674457E+007, +2.36150883160E+001, +2.95109085640E+002
+2.09472454090E+007, +2.35007006662E+001, +2.97983474101E+002
+2.11140233723E+007, +2.36317286814E+001, +3.00061484584E+002
+2.12808013356E+007, +2.41240806544E+001, +3.03083041559E+002
+2.14475792988E+007, +2.41128322563E+001, +3.06050271601E+002
+2.16143572621E+007, +2.43470757721E+001, +3.08554228354E+002
+2.17811352254E+007, +2.37893900855E+001, +3.11239715506E+002
+2.19479131886E+007, +2.49600892918E+001, +3.14228703118E+002
+2.21146911519E+007, +2.50523777667E+001, +3.16626769383E+002
+2.22814691152E+007, +2.46814217525E+001, +3.19289315989E+002
+2.24482470785E+007, +2.51728645772E+001, +3.23053131491E+002
+2.26150250417E+007, +2.56896250688E+001, +3.25196844446E+002
+2.27818030050E+007, +2.54358410529E+001, +3.28444249204E+002
+2.29485809683E+007, +2.66161403441E+001, +3.31052248591E+002
+2.31153589316E+007, +2.59318358153E+001, +3.33739934982E+002
+2.32821368948E+007, +2.72294664659E+001, +3.36667138878E+002
+2.34489148581E+007, +2.69376196960E+001, +3.39277566720E+002
+2.36156928214E+007, +2.76780017449E+001, +3.42651539087E+002
+2.37824707846E+007, +2.79666866740E+001, +3.45104014012E+002
+2.39492487479E+007, +2.81929471468E+001, +3.48129840995E+002
+2.41160267112E+007, +2.82580454301E+001, +3.50511613404E+002
+2.42828046745E+007, +2.83315549415E+001, +3.53407272470E+002
+2.44495826377E+007, +2.94288398216E+001, +3.56840402819E+002
+2.46163606010E+007, +2.87723920062E+001, +3.59050386573E+002
+2.47831385643E+007, +2.94829843155E+001, +3.61975845226E+002
+2.49499165275E+007, +3.04538066234E+001, +3.64973621350E+002
+2.51166944908E+007, +3.04248748240E+001, +3.68074959166E+002
+2.52834724541E+007, +3.12965661952E+001, +3.70226173383E+002
+2.54502504174E+007, +3.17331658349E+001, +3.73834149789E+002
+2.56170283806E+007, +3.16005296899E+001, +3.76514516976E+002
+2.57838063439E+007, +3.21791588997E+001, +3.79082983347E+002
+2.59505843072E+007, +3.26913244835E+001, +3.82331518446E+002
+2.61173622705E+007, +3.26107931529E+001, +3.85201075111E+002
+2.62841402337E+007, +3.33929271557E+001, +3.87907402342E+002
+2.64509181970E+007, +3.34740608893E+001, +3.90588090112E+002
+2.66176961603E+007, +3.35685390088E+001, +3.94319183206E+002
+2.67844741235E+007, +3.43859097360E+001, +3.95987130014E+002
+2.69512520868E+007, +3.45274672553E+001, +3.99557694235E+002
+2.71180300501E+007, +3.49438520208E+001, +4.00367171220E+002
+2.72848080134E+007, +3.55306418817E+001, +4.03894282308E+002
+2.74515859766E+007, +3.53786450333E+001, +4.07370967219E+002
+2.76183639399E+007, +3.48193081575E+001, +4.09617391319E+002
+2.77851419032E+007, +3.52674982394E+001, +4.12510708987E+002
+2.79519198664E+007, +3.56594454718E+001, +4.15308768181E+002
+2.81186978297E+007, +3.56208941605E+001, +4.17463947263E+002
+2.82854757930E+007, +3.61279493078E+001, +4.21030690559E+002
+2.84522537563E+007, +3.48397402803E+001, +4.24825366204E+002
+2.86190317195E+007, +3.49469499505E+001, +4.27251581168E+002
+2.87858096828E+007, +3.65803716881E+001, +4.31124988809E+002
+2.89525876461E+007, +3.60812384985E+001, +4.33215290829E+002
+2.91193656093E+007, +3.54004679553E+001, +4.35805972177E+002
+2.92861435726E+007, +3.45966009523E+001, +4.39609108304E+002
+2.94529215359E+007, +3.59334499381E+001, +4.43049087396E+002
+2.96196994992E+007, +3.71450613768E+001, +4.46705930285E+002
+2.97864774624E+007, +3.69480260403E+001, +4.50604395098E+002
+2.99532554257E+007, +3.73580394960E+001, +4.53479229869E+002
+3.01200333890E+007, +3.59905293146E+001, +4.57778839525E+002
+3.02868113523E+007, +3.61270511281E+001, +4.60739588061E+002
+3.04535893155E+007, +3.64607391547E+001, +4.65188520730E+002
+3.06203672788E+007, +3.67296432539E+001, +4.67797321961E+002
+3.07871452421E+007, +3.76663060909E+001, +4.71148352082E+002
+3.09539232053E+007, +3.66191409607E+001, +4.74612024257E+002
+3.11207011686E+007, +3.64586187596E+001, +4.78379870194E+002
+3.12874791319E+007, +3.78303575118E+001, +4.81779585108E+002
+3.14542570952E+007, +3.71302484723E+001, +4.86295030676E+002
+3.16210350584E+007, +3.72102952868E+001, +4.90123579709E+002
+3.17878130217E+007, +3.72227263120E+001, +4.94032868178E+002
+3.19545909850E+007, +3.79411660136E+001, +4.97345821152E+002
+3.21213689482E+007, +3.74195811213E+001, +5.00474744587E+002
+3.22881469115E+007, +3.74020377379E+001, +5.04335990612E+002
+3.24549248748E+007, +3.86945324668E+001, +5.09575689929E+002
+3.26217028381E+007, +3.82385318286E+001, +5.13216394559E+002
+3.27884808013E+007, +3.88442459283E+001, +5.15930649011E+002
+3.29552587646E+007, +3.90657467013E+001, +5.20261403362E+002
+3.31220367279E+007, +4.04990446887E+001, +5.24575959552E+002
+3.32888146912E+007, +3.96023516606E+001, +5.29209220592E+002
+3.34555926544E+007, +4.00512973659E+001, +5.32037621008E+002
+3.36223706177E+007, +4.01248314815E+001, +5.35895940056E+002
+3.37891485810E+007, +4.12385115183E+001, +5.39710480541E+002
+3.39559265442E+007, +4.09495760248E+001, +5.46250878998E+002
+3.41227045075E+007, +4.12512204803E+001, +5.49118045404E+002
+3.42894824708E+007, +4.11689248834E+001, +5.53296137275E+002
+3.44562604341E+007, +4.31800890588E+001, +5.58124337810E+002
+3.46230383973E+007, +4.22742964256E+001, +5.63241251518E+002
+3.47898163606E+007, +4.33775062509E+001, +5.66082866570E+002
+3.49565943239E+007, +4.33979236527E+001, +5.71937752344E+002
+3.51233722871E+007, +4.54049232044E+001, +5.75345184622E+002
+3.52901502504E+007, +4.46429014110E+001, +5.78292691293E+002
+3.54569282137E+007, +4.49071729472E+001, +5.85628607367E+002
+3.56237061770E+007, +4.42393002703E+001, +5.89039625298E+002
+3.57904841402E+007, +4.52810142558E+001, +5.92951458484E+002
+3.59572621035E+007, +4.60039132254E+001, +5.97854452406E+002
+3.61240400668E+007, +4.71428177958E+001, +6.02821703216E+002
+3.62908180301E+007, +4.71635622979E+001, +6.10656943495E+002
+3.64575959933E+007, +4.88659307369E+001, +6.12833777479E+002
+3.66243739566E+007, +4.95250497114E+001, +6.16874862398E+002
+3.67911519199E+007, +5.05689360971E+001, +6.25362924923E+002
+3.69579298831E+007, +4.84872215360E+001, +6.28563211041E+002
+3.71247078464E+007, +4.78139515112E+001, +6.34701540040E+002
+3.72914858097E+007, +5.11804927866E+001, +6.39084325611E+002
+3.74582637730E+007, +5.15302986096E+001, +6.47066478434E+002
+3.76250417362E+007, +5.32938338998E+001, +6.50356004820E+002
+3.77918196995E+007, +5.17838492369E+001, +6.54924340572E+002
+3.79585976628E+007, +5.19793716104E+001, +6.60464524415E+002
+3.81253756260E+007, +5.55474496389E+001, +6.67589331709E+002
+3.82921535893E+007, +5.60406829963E+001, +6.72386016278E+002
+3.84589315526E+007, +5.73535188649E+001, +6.78994093323E+002
+3.86257095159E+007, +5.68257282147E+001, +6.85818736084E+002
+3.87924874791E+007, +5.71032940970E+001, +6.92815337057E+002
+3.89592654424E+007, +5.80079099375E+001, +6.97843190753E+002
+3.91260434057E+007, +5.87500633240E+001, +7.06391738631E+002
+3.92928213689E+007, +6.27719940632E+001, +7.08967531660E+002
+3.94595993322E+007, +6.17823731047E+001, +7.18208668965E+002
+3.96263772955E+007, +6.34723270378E+001, +7.25582419469E+002
+3.97931552588E+007, +6.26406042755E+001, +7.30808719986E+002
+3.99599332220E+007, +6.44125823148E+001, +7.37046166078E+002
+4.01267111853E+007, +6.73638049327E+001, +7.43690617480E+002
+4.02934891486E+007, +6.77511263021E+001, +7.49701404063E+002
+4.04602671119E+007, +7.08865621675E+001, +7.57196154824E+002
+4.06270450751E+007, +7.34698469744E+001, +7.66033943083E+002
+4.07938230384E+007, +7.40426305430E+001, +7.72580140646E+002
+4.09606010017E+007, +7.63712561924E+001, +7.81159675973E+002
+4.11273789649E+007, +7.54824625565E+001, +7.86043166635E+002
+4.12941569282E+007, +7.80997594762E+001, +7.96283269243E+002
+4.14609348915E+007, +8.00383961192E+001, +8.05826024706E+002
+4.16277128548E+007, +8.58906231461E+001, +8.09420085209E+002
+4.17944908180E+007, +8.40230218452E+001, +8.19800945811E+002
+4.19612687813E+007, +8.57186432691E+001, +8.25892114524E+002
+4.21280467446E+007, +8.67768552287E+001, +8.38900877630E+002
+4.22948247078E+007, +9.10383865883E+001, +8.44882605051E+002
+4.24616026711E+007, +9.40911556634E+001, +8.48894435011E+002
+4.26283806344E+007, +9.27258098033E+001, +8.62311974942E+002
+4.27951585977E+007, +9.25379595658E+001, +8.70865671152E+002
+4.29619365609E+007, +1.01613505222E+002, +8.83050180955E+002
+4.31287145242E+007, +1.04257808340E+002, +8.86976175473E+002
+4.32954924875E+007, +1.05824687095E+002, +9.01127164440E+002
+4.34622704508E+007, +1.06473573669E+002, +9.14673865395E+002
+4.36290484140E+007, +1.13802302440E+002, +9.21470643781E+002
+4.37958263773E+007, +1.13567612126E+002, +9.37050197987E+002
+4.39626043406E+007, +1.19319708166E+002, +9.44267785234E+002
+4.41293823038E+007, +1.27414929418E+002, +9.57826135863E+002
+4.42961602671E+007, +1.24727590477E+002, +9.68440800093E+002
+4.44629382304E+007, +1.28216574487E+002, +9.80729740342E+002
+4.46297161937E+007, +1.34912440097E+002, +9.91638333231E+002
+4.47964941569E+007, +1.38668328659E+002, +1.00293816117E+003
+4.49632721202E+007, +1.36569152806E+002, +1.01872416393E+003
+4.51300500835E+007, +1.46422397012E+002, +1.02605567440E+003
+4.52968280467E+007, +1.54660759956E+002, +1.04585235722E+003
+4.54636060100E+007, +1.62572758496E+002, +1.06536939280E+003
+4.56303839733E+007, +1.66134755524E+002, +1.08056403850E+003
+4.57971619366E+007, +1.76375504869E+002, +1.09007855697E+003
+4.59639398998E+007, +1.82649936073E+002, +1.11400514926E+003
+4.61307178631E+007, +1.90908815875E+002, +1.12457031833E+003
+4.62974958264E+007, +2.01041580797E+002, +1.14173684527E+003
+4.64642737896E+007, +2.05312317644E+002, +1.16394873731E+003
+4.66310517529E+007, +2.13735657219E+002, +1.17173769770E+003
+4.67978297162E+007, +2.36664942089E+002, +1.18365905002E+003
+4.69646076795E+007, +2.40167413455E+002, +1.21107753455E+003
+4.71313856427E+007, +2.59274125226E+002, +1.22186184745E+003
+4.72981636060E+007, +2.72757010915E+002, +1.24412882763E+003
+4.74649415693E+007, +2.82667575694E+002, +1.26477183623E+003
+4.76317195326E+007, +3.00477181914E+002, +1.28234182025E+003
+4.77984974958E+007, +3.19884116344E+002, +1.29877962383E+003
+4.79652754591E+007, +3.33903474870E+002, +1.30879448881E+003
+4.81320534224E+007, +3.59033381153E+002, +1.32566400918E+003
+4.82988313856E+007, +3.75257234817E+002, +1.34739340136E+003
+4.84656093489E+007, +3.93888197751E+002, +1.36797664899E+003
+4.86323873122E+007, +4.23329164493E+002, +1.37445730764E+003
+4.87991652755E+007, +4.51337364553E+002, +1.39031978525E+003
+4.89659432387E+007, +4.67568111979E+002, +1.39668992929E+003
+4.91327212020E+007, +4.91322691811E+002, +1.40974551877E+003
+4.92994991653E+007, +5.08065875518E+002, +1.42173754123E+003
+4.94662771285E+007, +5.45679329051E+002, +1.43407555412E+003
+4.96330550918E+007, +5.62273788229E+002, +1.45045186434E+003
+4.97998330551E+007, +5.92817843983E+002, +1.46648668663E+003
+4.99666110184E+007, +6.16851501915E+002, +1.48250027970E+003
+5.01333889816E+007, +6.39418917563E+002, +1.48033039774E+003
+5.03001669449E+007, +6.56813312697E+002, +1.49458740037E+003
+5.04669449082E+007, +6.90593861661E+002, +1.50564248009E+003
+5.06337228715E+007, +7.12143304946E+002, +1.51669627532E+003
+5.08005008347E+007, +7.23892087393E+002, +1.53372373964E+003
+5.09672787980E+007, +7.58689884900E+002, +1.52527219649E+003
+5.11340567613E+007, +7.86298318986E+002, +1.56335772894E+003
+5.13008347245E+007, +8.01580158874E+002, +1.59311035770E+003
+5.14676126878E+007, +8.18441936320E+002, +1.60662194949E+003
+5.16343906511E+007, +8.55749273274E+002, +1.62433812236E+003
+5.18011686144E+007, +8.73364765660E+002, +1.67186063408E+003
+5.19679465776E+007, +9.08216021864E+002, +1.69950224882E+003
+5.21347245409E+007, +9.56348034516E+002, +1.73355631746E+003
+5.23015025042E+007, +1.03377423738E+003, +1.78190218103E+003
+5.24682804674E+007, +1.07174065625E+003, +1.83459534606E+003
+5.26350584307E+007, +1.12689249771E+003, +1.86328064521E+003
+5.28018363940E+007, +1.20008273437E+003, +1.92853642007E+003
+5.29686143573E+007, +1.29770644879E+003, +1.97877691904E+003
+5.31353923205E+007, +1.35780151251E+003, +1.98961061184E+003
+5.33021702838E+007, +1.48533897440E+003, +2.04916742462E+003
+5.34689482471E+007, +1.62598594702E+003, +2.04375614205E+003
