"# Channel 1"
"# Trace 1"
Frequency, Formatted Data, Formatted Data
+1.00000000000E+005, +2.72059102277E-001, +1.30245095476E+000
+2.66777963272E+005, +2.76966567112E-001, +3.45906898110E+000
+4.33555926544E+005, +3.29001376822E-001, +5.62423230210E+000
+6.00333889816E+005, +3.80761107730E-001, +7.70043587076E+000
+7.67111853088E+005, +4.29041260887E-001, +9.84301962150E+000
+9.33889816361E+005, +4.57368115706E-001, +1.19090889249E+001
+1.10066777963E+006, +4.32242321928E-001, +1.40036530063E+001
+1.26744574290E+006, +4.94485197239E-001, +1.60928752412E+001
+1.43422370618E+006, +4.47465492279E-001, +1.82276997958E+001
+1.60100166945E+006, +5.52901010742E-001, +2.02557176999E+001
+1.76777963272E+006, +5.57851254974E-001, +2.23451416990E+001
+1.93455759599E+006, +5.84199434545E-001, +2.43761096808E+001
+2.10133555927E+006, +6.16226304178E-001, +2.64746233609E+001
+2.26811352254E+006, +6.43125438177E-001, +2.85661726148E+001
+2.43489148581E+006, +6.19376676311E-001, +3.06777861904E+001
+2.60166944908E+006, +6.41940993125E-001, +3.27237283913E+001
+2.76844741235E+006, +6.21738864094E-001, +3.48361129857E+001
+2.93522537563E+006, +6.35816587673E-001, +3.68921183856E+001
+3.10200333890E+006, +7.65971471618E-001, +3.89515930371E+001
+3.26878130217E+006, +6.18088304233E-001, +4.10716435131E+001
+3.43555926544E+006, +7.05036826472E-001, +4.31435774972E+001
+3.60233722871E+006, +7.46315240762E-001, +4.52378095314E+001
+3.76911519199E+006, +6.91798792856E-001, +4.73849066372E+001
+3.93589315526E+006, +6.48809857444E-001, +4.93354540427E+001
+4.10267111853E+006, +6.99200220536E-001, +5.16067164759E+001
+4.26944908180E+006, +7.30271833337E-001, +5.36355998653E+001
+4.43622704508E+006, +7.17093412026E-001, +5.56615700412E+001
+4.60300500835E+006, +7.42044813029E-001, +5.78148357982E+001
+4.76978297162E+006, +7.40913039590E-001, +5.98155808472E+001
+4.93656093489E+006, +7.94095369554E-001, +6.19885408354E+001
+5.10333889816E+006, +8.06352112661E-001, +6.40346338207E+001
+5.27011686144E+006, +8.51447816089E-001, +6.63043144423E+001
+5.43689482471E+006, +7.35043348812E-001, +6.82725957509E+001
+5.60367278798E+006, +7.80285584618E-001, +7.05291753195E+001
+5.77045075125E+006, +7.49526913398E-001, +7.24518839251E+001
+5.93722871452E+006, +8.79365657055E-001, +7.46480774953E+001
+6.10400667780E+006, +8.07601457290E-001, +7.68114730055E+001
+6.27078464107E+006, +9.14302899919E-001, +7.88288709736E+001
+6.43756260434E+006, +9.10603000924E-001, +8.09644566325E+001
+6.60434056761E+006, +9.11382595060E-001, +8.30546879843E+001
+6.77111853088E+006, +1.05373500453E+000, +8.51338191739E+001
+6.93789649416E+006, +9.63665862936E-001, +8.73075273673E+001
+7.10467445743E+006, +9.73525346870E-001, +8.93788605142E+001
+7.27145242070E+006, +1.01400509565E+000, +9.14335152448E+001
+7.43823038397E+006, +1.07637929031E+000, +9.35683656343E+001
+7.60500834725E+006, +1.04071313246E+000, +9.56878137576E+001
+7.77178631052E+006, +1.05928756515E+000, +9.78966263715E+001
+7.93856427379E+006, +1.08941293014E+000, +9.98890511436E+001
+8.10534223706E+006, +1.06077034306E+000, +1.01998965267E+002
+8.27212020033E+006, +1.09629210101E+000, +1.04116833109E+002
+8.43889816361E+006, +1.04474809246E+000, +1.06227772476E+002
+8.60567612688E+006, +1.01203435685E+000, +1.08422993753E+002
+8.77245409015E+006, +1.04377825767E+000, +1.10474467386E+002
+8.93923205342E+006, +1.02100856857E+000, +1.12640910021E+002
+9.10601001669E+006, +1.03660397720E+000, +1.14865676598E+002
+9.27278797997E+006, +1.06038083312E+000, +1.16925377643E+002
+9.43956594324E+006, +1.08891791296E+000, +1.18975131841E+002
+9.60634390651E+006, +1.05528789583E+000, +1.21114232948E+002
+9.77312186978E+006, +9.32332346015E-001, +1.23295610983E+002
+9.93989983306E+006, +1.16751994021E+000, +1.25516096131E+002
+1.01066777963E+007, +9.87052992787E-001, +1.27525460040E+002
+1.02734557596E+007, +1.01539263781E+000, +1.29789756316E+002
+1.04402337229E+007, +1.06454227901E+000, +1.31842919210E+002
+1.06070116861E+007, +1.00216817138E+000, +1.34067011184E+002
+1.07737896494E+007, +1.02831275769E+000, +1.36256139768E+002
+1.09405676127E+007, +1.21015485830E+000, +1.38413669951E+002
+1.11073455760E+007, +1.08348138237E+000, +1.40500790872E+002
+1.12741235392E+007, +1.08684979106E+000, +1.42707361554E+002
+1.14409015025E+007, +1.04782955239E+000, +1.44873993750E+002
+1.16076794658E+007, +1.06144464963E+000, +1.47003450645E+002
+1.17744574290E+007, +1.18746027057E+000, +1.49450325069E+002
+1.19412353923E+007, +1.05122942815E+000, +1.51472460612E+002
+1.21080133556E+007, +9.69914984977E-001, +1.53676068965E+002
+1.22747913189E+007, +1.03447069475E+000, +1.55976400955E+002
+1.24415692821E+007, +8.91115048749E-001, +1.57955789328E+002
+1.26083472454E+007, +9.10557312466E-001, +1.60280066686E+002
+1.27751252087E+007, +1.05133060985E+000, +1.62404041551E+002
+1.29419031720E+007, +8.88733867277E-001, +1.64574007805E+002
+1.31086811352E+007, +1.02109048199E+000, +1.66834080114E+002
+1.32754590985E+007, +1.11069946641E+000, +1.68922921036E+002
+1.34422370618E+007, +9.49702222215E-001, +1.71174192969E+002
+1.36090150250E+007, +1.28229182905E+000, +1.73550389067E+002
+1.37757929883E+007, +1.10596492150E+000, +1.75793520379E+002
+1.39425709516E+007, +1.18221578044E+000, +1.77975133968E+002
+1.41093489149E+007, +1.27343461719E+000, +1.80161382886E+002
+1.42761268781E+007, +1.32851768272E+000, +1.82405849225E+002
+1.44429048414E+007, +1.45706284275E+000, +1.84542452331E+002
+1.46096828047E+007, +1.25433192627E+000, +1.86674355325E+002
+1.47764607679E+007, +1.40646652070E+000, +1.88792099557E+002
+1.49432387312E+007, +1.17375797102E+000, +1.91052640007E+002
+1.51100166945E+007, +1.18919250951E+000, +1.93469190334E+002
+1.52767946578E+007, +1.41388497411E+000, +1.95490887308E+002
+1.54435726210E+007, +1.33906219711E+000, +1.97677221869E+002
+1.56103505843E+007, +1.31018476537E+000, +2.00142062597E+002
+1.57771285476E+007, +1.42178250009E+000, +2.02264678593E+002
+1.59439065109E+007, +1.35943750918E+000, +2.04473125133E+002
+1.61106844741E+007, +1.24211641500E+000, +2.06931398668E+002
+1.62774624374E+007, +1.39259331046E+000, +2.09194624550E+002
+1.64442404007E+007, +1.00356242023E+000, +2.11526412182E+002
+1.66110183639E+007, +1.21993347188E+000, +2.13905651053E+002
+1.67777963272E+007, +1.30918204804E+000, +2.16477617433E+002
+1.69445742905E+007, +1.29900163790E+000, +2.18437879043E+002
+1.71113522538E+007, +8.66067337601E-001, +2.20545935002E+002
+1.72781302170E+007, +1.06160746933E+000, +2.22917531132E+002
+1.74449081803E+007, +1.03937416827E+000, +2.25108776070E+002
+1.76116861436E+007, +1.27698081937E+000, +2.27767193700E+002
+1.77784641068E+007, +1.33033330132E+000, +2.29765573306E+002
+1.79452420701E+007, +1.19735238520E+000, +2.32416762847E+002
+1.81120200334E+007, +1.44109123315E+000, +2.34447917050E+002
+1.82787979967E+007, +1.34160570148E+000, +2.37067626418E+002
+1.84455759599E+007, +1.47857686903E+000, +2.39377550565E+002
+1.86123539232E+007, +1.80626875705E+000, +2.41678926860E+002
+1.87791318865E+007, +1.23675303999E+000, +2.44068706634E+002
+1.89459098497E+007, +1.31609312540E+000, +2.46561420720E+002
+1.91126878130E+007, +1.48550733008E+000, +2.48875984275E+002
+1.92794657763E+007, +1.41980779453E+000, +2.51207579196E+002
+1.94462437396E+007, +1.55431265882E+000, +2.53804263692E+002
+1.96130217028E+007, +1.50019570209E+000, +2.56243149270E+002
+1.97797996661E+007, +1.92370091688E+000, +2.58284576198E+002
+1.99465776294E+007, +1.55376362437E+000, +2.60728717465E+002
+2.01133555927E+007, +1.51424322381E+000, +2.63232989819E+002
+2.02801335559E+007, +1.62609246542E+000, +2.66125704042E+002
+2.04469115192E+007, +2.04095964803E+000, +2.68399657882E+002
+2.06136894825E+007, +1.76944333040E+000, +2.70898212995E+002
+2.07804674457E+007, +1.97115895201E+000, +2.73438347425E+002
+2.09472454090E+007, +1.67232268004E+000, +2.76174516854E+002
+2.11140233723E+007, +2.22556958847E+000, +2.77980729762E+002
+2.12808013356E+007, +2.26481465099E+000, +2.80782155962E+002
+2.14475792988E+007, +2.52293078502E+000, +2.83656741808E+002
+2.16143572621E+007, +2.85216050903E+000, +2.85400075667E+002
+2.17811352254E+007, +2.54371430604E+000, +2.88031596910E+002
+2.19479131886E+007, +3.46546799713E+000, +2.91022179044E+002
+2.21146911519E+007, +3.43450237314E+000, +2.92984088409E+002
+2.22814691152E+007, +3.21734108804E+000, +2.95314160600E+002
+2.24482470785E+007, +3.45486319678E+000, +2.98361618645E+002
+2.26150250417E+007, +4.16221441281E+000, +3.01085754204E+002
+2.27818030050E+007, +3.79876874780E+000, +3.03023365121E+002
+2.29485809683E+007, +4.35212144782E+000, +3.05510392666E+002
+2.31153589316E+007, +3.78061849275E+000, +3.08434762539E+002
+2.32821368948E+007, +4.62318061816E+000, +3.10995949560E+002
+2.34489148581E+007, +4.62684220391E+000, +3.12909806460E+002
+2.36156928214E+007, +5.06637791012E+000, +3.15951188051E+002
+2.37824707846E+007, +4.50288734085E+000, +3.17776537988E+002
+2.39492487479E+007, +4.49854485307E+000, +3.20797330212E+002
+2.41160267112E+007, +5.31291640870E+000, +3.22937662140E+002
+2.42828046745E+007, +5.18881833651E+000, +3.25635496592E+002
+2.44495826377E+007, +5.42222309736E+000, +3.28610169286E+002
+2.46163606010E+007, +5.39889698852E+000, +3.30381098767E+002
+2.47831385643E+007, +5.48677753395E+000, +3.33322456235E+002
+2.49499165275E+007, +6.40083675302E+000, +3.35867619651E+002
+2.51166944908E+007, +6.17386578778E+000, +3.38063193007E+002
+2.52834724541E+007, +6.30643790106E+000, +3.40985073359E+002
+2.54502504174E+007, +6.93933268230E+000, +3.43682090096E+002
+2.56170283806E+007, +6.76192634738E+000, +3.45810517803E+002
+2.57838063439E+007, +6.70087109347E+000, +3.48569680056E+002
+2.59505843072E+007, +7.54854826718E+000, +3.51775666345E+002
+2.61173622705E+007, +7.98758902875E+000, +3.54042030136E+002
+2.62841402337E+007, +7.43430976343E+000, +3.55637397271E+002
+2.64509181970E+007, +7.06999708550E+000, +3.59145592378E+002
+2.66176961603E+007, +7.89874636831E+000, +3.61600363154E+002
+2.67844741235E+007, +7.18254767832E+000, +3.64727973708E+002
+2.69512520868E+007, +8.26594396925E+000, +3.66799875259E+002
+2.71180300501E+007, +7.93509494369E+000, +3.68478524286E+002
+2.72848080134E+007, +8.39833178533E+000, +3.72051445159E+002
+2.74515859766E+007, +8.48735091203E+000, +3.74848117628E+002
+2.76183639399E+007, +8.58537673046E+000, +3.76638023205E+002
+2.77851419032E+007, +8.23449729718E+000, +3.79153281726E+002
+2.79519198664E+007, +8.32658034794E+000, +3.82004361303E+002
+2.81186978297E+007, +8.92142886861E+000, +3.84401813824E+002
+2.82854757930E+007, +8.63966396967E+000, +3.86506333235E+002
+2.84522537563E+007, +7.69466828674E+000, +3.90098181086E+002
+2.86190317195E+007, +8.02619419103E+000, +3.91920236868E+002
+2.87858096828E+007, +9.19970420624E+000, +3.95528255912E+002
+2.89525876461E+007, +8.76949263837E+000, +3.98727451508E+002
+2.91193656093E+007, +7.66427270124E+000, +4.00552314022E+002
+2.92861435726E+007, +7.83006169109E+000, +4.03141491015E+002
+2.94529215359E+007, +7.54842243820E+000, +4.07085221822E+002
+2.96196994992E+007, +8.45018041329E+000, +4.09950639471E+002
+2.97864774624E+007, +8.68045066004E+000, +4.13024947967E+002
+2.99532554257E+007, +8.51009635699E+000, +4.16145417892E+002
+3.01200333890E+007, +8.69518980121E+000, +4.18733331186E+002
+3.02868113523E+007, +8.53740488151E+000, +4.21808426512E+002
+3.04535893155E+007, +7.41350861294E+000, +4.24755418652E+002
+3.06203672788E+007, +8.41456726702E+000, +4.27399877854E+002
+3.07871452421E+007, +7.88370630626E+000, +4.30986747048E+002
+3.09539232053E+007, +8.18910091590E+000, +4.33814927819E+002
+3.11207011686E+007, +7.92052393425E+000, +4.37904666548E+002
+3.12874791319E+007, +8.16429084793E+000, +4.39836291441E+002
+3.14542570952E+007, +7.45709419877E+000, +4.42345959825E+002
+3.16210350584E+007, +7.75985296518E+000, +4.47189438535E+002
+3.17878130217E+007, +7.24125612506E+000, +4.48874404932E+002
+3.19545909850E+007, +8.11469086022E+000, +4.52958679830E+002
+3.21213689482E+007, +6.72934773074E+000, +4.57044059346E+002
+3.22881469115E+007, +8.12365798816E+000, +4.59014892929E+002
+3.24549248748E+007, +8.13462212069E+000, +4.63452322572E+002
+3.26217028381E+007, +8.13464148850E+000, +4.66043497718E+002
+3.27884808013E+007, +7.52361874721E+000, +4.70028389549E+002
+3.29552587646E+007, +8.04224033924E+000, +4.72892160929E+002
+3.31220367279E+007, +9.14667434099E+000, +4.76578667538E+002
+3.32888146912E+007, +8.07694936109E+000, +4.80562636230E+002
+3.34555926544E+007, +7.62440074047E+000, +4.83741602258E+002
+3.36223706177E+007, +9.04547526506E+000, +4.86432143306E+002
+3.37891485810E+007, +7.21558946393E+000, +4.89809627152E+002
+3.39559265442E+007, +9.03406939185E+000, +4.94479347640E+002
+3.41227045075E+007, +7.50247943830E+000, +4.97679766821E+002
+3.42894824708E+007, +8.67249001403E+000, +5.01106871255E+002
+3.44562604341E+007, +8.55598505400E+000, +5.05220203323E+002
+3.46230383973E+007, +9.31378436203E+000, +5.09663649093E+002
+3.47898163606E+007, +9.52875371639E+000, +5.12168844735E+002
+3.49565943239E+007, +1.08312592745E+001, +5.16388170095E+002
+3.51233722871E+007, +1.02004276965E+001, +5.19618029009E+002
+3.52901502504E+007, +1.01529494294E+001, +5.23044203316E+002
+3.54569282137E+007, +9.60185164264E+000, +5.28184110560E+002
+3.56237061770E+007, +9.24175613922E+000, +5.31185769114E+002
+3.57904841402E+007, +9.32174577034E+000, +5.36621960391E+002
+3.59572621035E+007, +1.00419226898E+001, +5.39429225343E+002
+3.61240400668E+007, +1.04941393642E+001, +5.43505061446E+002
+3.62908180301E+007, +1.04175261375E+001, +5.48953598327E+002
+3.64575959933E+007, +1.01826083096E+001, +5.52073660798E+002
+3.66243739566E+007, +1.09133987093E+001, +5.54754929731E+002
+3.67911519199E+007, +1.10935536630E+001, +5.61222434233E+002
+3.69579298831E+007, +1.04989149244E+001, +5.63425276339E+002
+3.71247078464E+007, +9.96686445366E+000, +5.69031247890E+002
+3.72914858097E+007, +1.16558724081E+001, +5.74259361379E+002
+3.74582637730E+007, +1.22552307695E+001, +5.79519318974E+002
+3.76250417362E+007, +1.21261945493E+001, +5.82424296589E+002
+3.77918196995E+007, +1.06378848689E+001, +5.88117227799E+002
+3.79585976628E+007, +1.24385913568E+001, +5.92787296449E+002
+3.81253756260E+007, +1.31390128964E+001, +5.96720695928E+002
+3.82921535893E+007, +1.35416611124E+001, +6.02475329301E+002
+3.84589315526E+007, +1.34729227467E+001, +6.07238661849E+002
+3.86257095159E+007, +1.37941433372E+001, +6.11572995509E+002
+3.87924874791E+007, +1.34641815080E+001, +6.16739294823E+002
+3.89592654424E+007, +1.52828417939E+001, +6.20825492265E+002
+3.91260434057E+007, +1.58100448462E+001, +6.26987391962E+002
+3.92928213689E+007, +1.59473869409E+001, +6.31912633206E+002
+3.94595993322E+007, +1.67287129154E+001, +6.36989021414E+002
+3.96263772955E+007, +1.62681906436E+001, +6.41729088474E+002
+3.97931552588E+007, +1.70803681126E+001, +6.47448302151E+002
+3.99599332220E+007, +1.72497169375E+001, +6.52475454815E+002
+4.01267111853E+007, +1.91333824568E+001, +6.59267725725E+002
+4.02934891486E+007, +1.79489518205E+001, +6.64980836466E+002
+4.04602671119E+007, +1.99569140438E+001, +6.70128929264E+002
+4.06270450751E+007, +2.07146232430E+001, +6.73824868214E+002
+4.07938230384E+007, +2.09918710301E+001, +6.79551960525E+002
+4.09606010017E+007, +2.16162753145E+001, +6.85682749259E+002
+4.11273789649E+007, +2.11083164583E+001, +6.91346012362E+002
+4.12941569282E+007, +2.17301144021E+001, +6.99254461778E+002
+4.14609348915E+007, +2.41773717844E+001, +7.06134660895E+002
+4.16277128548E+007, +2.62926687307E+001, +7.11703494650E+002
+4.17944908180E+007, +2.41897920382E+001, +7.16535364466E+002
+4.19612687813E+007, +2.44583114973E+001, +7.22532273586E+002
+4.21280467446E+007, +2.50146875866E+001, +7.31337759232E+002
+4.22948247078E+007, +2.72726039325E+001, +7.37819427898E+002
+4.24616026711E+007, +2.87502326656E+001, +7.43797988431E+002
+4.26283806344E+007, +2.97297858608E+001, +7.54295845514E+002
+4.27951585977E+007, +2.68458061395E+001, +7.57792399131E+002
+4.29619365609E+007, +3.28990334388E+001, +7.67414449610E+002
+4.31287145242E+007, +3.31592982387E+001, +7.76123593119E+002
+4.32954924875E+007, +3.22517332801E+001, +7.81347570441E+002
+4.34622704508E+007, +3.26019118253E+001, +7.90688168070E+002
+4.36290484140E+007, +3.63380694929E+001, +7.98391166267E+002
+4.37958263773E+007, +3.66786863618E+001, +8.07980570483E+002
+4.39626043406E+007, +3.82203978132E+001, +8.15276555934E+002
+4.41293823038E+007, +4.23341632311E+001, +8.27397687889E+002
+4.42961602671E+007, +4.01953080876E+001, +8.34608563369E+002
+4.44629382304E+007, +4.36014596574E+001, +8.44384933475E+002
+4.46297161937E+007, +4.50981679201E+001, +8.51939831319E+002
+4.47964941569E+007, +4.54087989318E+001, +8.61269113526E+002
+4.49632721202E+007, +4.67770887278E+001, +8.74716390135E+002
+4.51300500835E+007, +5.00592942171E+001, +8.81482983225E+002
+4.52968280467E+007, +5.67198066075E+001, +8.94420669218E+002
+4.54636060100E+007, +5.65954813190E+001, +9.06132047499E+002
+4.56303839733E+007, +6.25117644053E+001, +9.18464993220E+002
+4.57971619366E+007, +6.52898879568E+001, +9.29469541532E+002
+4.59639398998E+007, +6.42031263239E+001, +9.45448313313E+002
+4.61307178631E+007, +7.23317956773E+001, +9.52939722954E+002
+4.62974958264E+007, +7.89467902241E+001, +9.67496112647E+002
+4.64642737896E+007, +7.88012179669E+001, +9.77025871020E+002
+4.66310517529E+007, +8.65592957397E+001, +9.92277926859E+002
+4.67978297162E+007, +9.41636832001E+001, +1.00145407181E+003
+4.69646076795E+007, +9.83066295319E+001, +1.01986267504E+003
+4.71313856427E+007, +1.08312609070E+002, +1.03164701951E+003
+4.72981636060E+007, +1.10575710360E+002, +1.05081645853E+003
+4.74649415693E+007, +1.16627901574E+002, +1.05732841508E+003
+4.76317195326E+007, +1.33362177394E+002, +1.07036788049E+003
+4.77984974958E+007, +1.38004657856E+002, +1.08621286062E+003
+4.79652754591E+007, +1.49362662276E+002, +1.10324347092E+003
+4.81320534224E+007, +1.57357488097E+002, +1.10856066813E+003
+4.82988313856E+007, +1.61523962570E+002, +1.12766946750E+003
+4.84656093489E+007, +1.76534066736E+002, +1.13968588733E+003
+4.86323873122E+007, +1.89083233938E+002, +1.15356590504E+003
+4.87991652755E+007, +2.00117585747E+002, +1.17587340243E+003
+4.89659432387E+007, +2.09775099207E+002, +1.18122003970E+003
+4.91327212020E+007, +2.27402734279E+002, +1.20355873549E+003
+4.92994991653E+007, +2.39930837060E+002, +1.20789328666E+003
+4.94662771285E+007, +2.61967338928E+002, +1.22441601210E+003
+4.96330550918E+007, +2.71028110849E+002, +1.24205500949E+003
+4.97998330551E+007, +2.83019464331E+002, +1.25154804175E+003
+4.99666110184E+007, +3.04720182380E+002, +1.26032545475E+003
+5.01333889816E+007, +3.12969996101E+002, +1.27242309802E+003
+5.03001669449E+007, +3.24381705021E+002, +1.28002845578E+003
+5.04669449082E+007, +3.39766256881E+002, +1.30349280896E+003
+5.06337228715E+007, +3.55497141395E+002, +1.30845517954E+003
+5.08005008347E+007, +3.55861446464E+002, +1.31446643360E+003
+5.09672787980E+007, +3.81136752165E+002, +1.32477477511E+003
+5.11340567613E+007, +3.89877246303E+002, +1.34757352888E+003
+5.13008347245E+007, +3.90738562779E+002, +1.36782537848E+003
+5.14676126878E+007, +4.13289928886E+002, +1.38649323435E+003
+5.16343906511E+007, +4.30092070943E+002, +1.40295675546E+003
+5.18011686144E+007, +4.31004158430E+002, +1.42850301454E+003
+5.19679465776E+007, +4.41361856882E+002, +1.45322839469E+003
+5.21347245409E+007, +4.72325420300E+002, +1.47646617097E+003
+5.23015025042E+007, +5.00407748906E+002, +1.51142938723E+003
+5.24682804674E+007, +5.16461467484E+002, +1.53839282321E+003
+5.26350584307E+007, +5.30316888795E+002, +1.55456249729E+003
+5.28018363940E+007, +5.33382372403E+002, +1.60085857030E+003
+5.29686143573E+007, +5.57715171326E+002, +1.63199823670E+003
+5.31353923205E+007, +5.71893632084E+002, +1.68570223851E+003
+5.33021702838E+007, +6.06290709493E+002, +1.73914326964E+003
+5.34689482471E+007, +6.62522936602E+002, +1.79417679024E+003
