"# Channel 1"
"# Trace 1"
Frequency, Formatted Data, Formatted Data
+1.00000000000E+005, +2.72143878182E-001, +1.31298352771E+000
+2.66777963272E+005, +2.75377182799E-001, +3.46110879755E+000
+4.33555926544E+005, +3.21418718934E-001, +5.61513339138E+000
+6.00333889816E+005, +3.84192059064E-001, +7.71065126911E+000
+7.67111853088E+005, +4.18112222171E-001, +9.85645346134E+000
+9.33889816361E+005, +4.46268849426E-001, +1.19303069549E+001
+1.10066777963E+006, +4.15746076545E-001, +1.40354367397E+001
+1.26744574290E+006, +4.93680928254E-001, +1.61417368796E+001
+1.43422370618E+006, +4.31315129939E-001, +1.82490074715E+001
+1.60100166945E+006, +5.55623566067E-001, +2.02903965697E+001
+1.76777963272E+006, +5.53021713975E-001, +2.23899070768E+001
+1.93455759599E+006, +5.82038030522E-001, +2.44091895737E+001
+2.10133555927E+006, +6.03286898947E-001, +2.65158007745E+001
+2.26811352254E+006, +6.49264928398E-001, +2.86273144544E+001
+2.43489148581E+006, +6.20028881075E-001, +3.07402747251E+001
+2.60166944908E+006, +6.58468713241E-001, +3.27708285006E+001
+2.76844741235E+006, +6.22139960634E-001, +3.49116747343E+001
+2.93522537563E+006, +6.34953009381E-001, +3.69725141404E+001
+3.10200333890E+006, +7.56313928989E-001, +3.90213081899E+001
+3.26878130217E+006, +6.17538247882E-001, +4.11321808156E+001
+3.43555926544E+006, +6.82771274363E-001, +4.32017471223E+001
+3.60233722871E+006, +7.52152094759E-001, +4.53315068627E+001
+3.76911519199E+006, +6.69741092755E-001, +4.74475032098E+001
+3.93589315526E+006, +6.52591811376E-001, +4.94196175758E+001
+4.10267111853E+006, +7.13286239204E-001, +5.17284782639E+001
+4.26944908180E+006, +7.04211877969E-001, +5.37276452925E+001
+4.43622704508E+006, +7.11224258450E-001, +5.57540596246E+001
+4.60300500835E+006, +7.16215663851E-001, +5.79015307264E+001
+4.76978297162E+006, +7.23502570450E-001, +5.98709255938E+001
+4.93656093489E+006, +7.73128274962E-001, +6.20625504063E+001
+5.10333889816E+006, +8.07341326306E-001, +6.41617730538E+001
+5.27011686144E+006, +8.41632685760E-001, +6.64112831682E+001
+5.43689482471E+006, +7.63715238885E-001, +6.84130916207E+001
+5.60367278798E+006, +7.83176669325E-001, +7.06052873469E+001
+5.77045075125E+006, +6.99006147068E-001, +7.25735180530E+001
+5.93722871452E+006, +9.06711413930E-001, +7.47506965752E+001
+6.10400667780E+006, +7.99563570359E-001, +7.69013350195E+001
+6.27078464107E+006, +8.78252154696E-001, +7.89881886852E+001
+6.43756260434E+006, +9.36091528445E-001, +8.11329603614E+001
+6.60434056761E+006, +9.63139718286E-001, +8.32611402326E+001
+6.77111853088E+006, +1.05874717552E+000, +8.52954786171E+001
+6.93789649416E+006, +9.80877015692E-001, +8.74800043410E+001
+7.10467445743E+006, +9.84008547648E-001, +8.94945218598E+001
+7.27145242070E+006, +1.04816275086E+000, +9.16034314449E+001
+7.43823038397E+006, +1.09571234676E+000, +9.37123035324E+001
+7.60500834725E+006, +1.02019348754E+000, +9.58672092841E+001
+7.77178631052E+006, +1.10883749259E+000, +9.80733752340E+001
+7.93856427379E+006, +1.09940057281E+000, +1.00057731076E+002
+8.10534223706E+006, +1.13099450642E+000, +1.02221113084E+002
+8.27212020033E+006, +1.13062322955E+000, +1.04337794283E+002
+8.43889816361E+006, +1.02945730348E+000, +1.06450917596E+002
+8.60567612688E+006, +1.00419513090E+000, +1.08636819506E+002
+8.77245409015E+006, +1.04522221028E+000, +1.10654128637E+002
+8.93923205342E+006, +1.08224462278E+000, +1.12846890214E+002
+9.10601001669E+006, +1.06561140900E+000, +1.15034853092E+002
+9.27278797997E+006, +1.07884497405E+000, +1.17149296103E+002
+9.43956594324E+006, +1.04690022827E+000, +1.19246056048E+002
+9.60634390651E+006, +1.02864115638E+000, +1.21418202952E+002
+9.77312186978E+006, +1.03482513906E+000, +1.23550181879E+002
+9.93989983306E+006, +1.22067268892E+000, +1.25798731634E+002
+1.01066777963E+007, +9.91538924004E-001, +1.27762176861E+002
+1.02734557596E+007, +1.03133398705E+000, +1.30003044328E+002
+1.04402337229E+007, +1.06543143059E+000, +1.32214427554E+002
+1.06070116861E+007, +9.69175837597E-001, +1.34247583484E+002
+1.07737896494E+007, +1.04811293281E+000, +1.36548534540E+002
+1.09405676127E+007, +1.11182468919E+000, +1.38722160255E+002
+1.11073455760E+007, +1.08493605089E+000, +1.40792516657E+002
+1.12741235392E+007, +1.10061349382E+000, +1.43013148024E+002
+1.14409015025E+007, +1.08697394726E+000, +1.45219494408E+002
+1.16076794658E+007, +1.25400921394E+000, +1.47360654845E+002
+1.17744574290E+007, +1.20374022800E+000, +1.49653841178E+002
+1.19412353923E+007, +1.12075854164E+000, +1.51775535469E+002
+1.21080133556E+007, +9.61009373834E-001, +1.53991417359E+002
+1.22747913189E+007, +1.13413249359E+000, +1.56290049631E+002
+1.24415692821E+007, +1.02938276313E+000, +1.58325281975E+002
+1.26083472454E+007, +9.80932657362E-001, +1.60656223897E+002
+1.27751252087E+007, +1.12184433054E+000, +1.62735841880E+002
+1.29419031720E+007, +9.05923636509E-001, +1.64895492782E+002
+1.31086811352E+007, +1.06749540946E+000, +1.67149567726E+002
+1.32754590985E+007, +1.06845527500E+000, +1.69407342150E+002
+1.34422370618E+007, +1.06787079244E+000, +1.71693841075E+002
+1.36090150250E+007, +1.45015949293E+000, +1.73907774513E+002
+1.37757929883E+007, +1.11189357788E+000, +1.76096213058E+002
+1.39425709516E+007, +1.26924195571E+000, +1.78275715167E+002
+1.41093489149E+007, +1.39041482293E+000, +1.80368426897E+002
+1.42761268781E+007, +1.45693055640E+000, +1.82772481127E+002
+1.44429048414E+007, +1.42355084426E+000, +1.84814351180E+002
+1.46096828047E+007, +1.24114454171E+000, +1.87126217832E+002
+1.47764607679E+007, +1.34457997387E+000, +1.89175922671E+002
+1.49432387312E+007, +1.24319383532E+000, +1.91404416816E+002
+1.51100166945E+007, +1.14127603550E+000, +1.93942617045E+002
+1.52767946578E+007, +1.23667966428E+000, +1.95895529702E+002
+1.54435726210E+007, +1.36414412916E+000, +1.98305311421E+002
+1.56103505843E+007, +1.27670792285E+000, +2.00507944821E+002
+1.57771285476E+007, +1.32197536240E+000, +2.02896974314E+002
+1.59439065109E+007, +1.29592231308E+000, +2.05278650750E+002
+1.61106844741E+007, +1.27614696709E+000, +2.07577141401E+002
+1.62774624374E+007, +1.12541783689E+000, +2.09604158992E+002
+1.64442404007E+007, +1.10822979636E+000, +2.12091185798E+002
+1.66110183639E+007, +1.22543261682E+000, +2.14254276968E+002
+1.67777963272E+007, +1.24658940396E+000, +2.16647175209E+002
+1.69445742905E+007, +1.55692454514E+000, +2.19085408662E+002
+1.71113522538E+007, +7.47226013595E-001, +2.20875079296E+002
+1.72781302170E+007, +1.07712594989E+000, +2.23737836075E+002
+1.74449081803E+007, +9.70380667489E-001, +2.25605944312E+002
+1.76116861436E+007, +1.26998917471E+000, +2.28246143314E+002
+1.77784641068E+007, +1.09071361071E+000, +2.30408297060E+002
+1.79452420701E+007, +1.34217266517E+000, +2.32831591205E+002
+1.81120200334E+007, +1.30279317955E+000, +2.34921315863E+002
+1.82787979967E+007, +1.64961145555E+000, +2.37549170596E+002
+1.84455759599E+007, +1.67941663489E+000, +2.40035923413E+002
+1.86123539232E+007, +1.74237864038E+000, +2.42496103016E+002
+1.87791318865E+007, +1.50291770551E+000, +2.44816770185E+002
+1.89459098497E+007, +1.60429263524E+000, +2.47252199758E+002
+1.91126878130E+007, +1.62842296951E+000, +2.49380801061E+002
+1.92794657763E+007, +1.51612277600E+000, +2.52083328423E+002
+1.94462437396E+007, +1.76078372886E+000, +2.54561814430E+002
+1.96130217028E+007, +1.94014193847E+000, +2.56621569111E+002
+1.97797996661E+007, +1.79762342639E+000, +2.59270623782E+002
+1.99465776294E+007, +1.32431471399E+000, +2.61416065625E+002
+2.01133555927E+007, +1.82320519664E+000, +2.63911691857E+002
+2.02801335559E+007, +1.83227221208E+000, +2.66743156926E+002
+2.04469115192E+007, +2.31461922976E+000, +2.68840728374E+002
+2.06136894825E+007, +1.98766752825E+000, +2.71348168070E+002
+2.07804674457E+007, +2.37955802340E+000, +2.74056008992E+002
+2.09472454090E+007, +2.06951145673E+000, +2.76288337783E+002
+2.11140233723E+007, +2.17556195010E+000, +2.78255604103E+002
+2.12808013356E+007, +2.51615672294E+000, +2.81132884529E+002
+2.14475792988E+007, +2.23919186172E+000, +2.83673412414E+002
+2.16143572621E+007, +2.57035080405E+000, +2.86086475378E+002
+2.17811352254E+007, +2.63751767951E+000, +2.88256059634E+002
+2.19479131886E+007, +2.91991732173E+000, +2.91051677288E+002
+2.21146911519E+007, +3.20333446258E+000, +2.93353507510E+002
+2.22814691152E+007, +3.01004770834E+000, +2.96306031000E+002
+2.24482470785E+007, +3.02582335404E+000, +2.99154854972E+002
+2.26150250417E+007, +3.60010502781E+000, +3.01578924512E+002
+2.27818030050E+007, +3.54559413530E+000, +3.04177749419E+002
+2.29485809683E+007, +4.18027203852E+000, +3.06653157255E+002
+2.31153589316E+007, +3.66121917267E+000, +3.09505787176E+002
+2.32821368948E+007, +4.21557389721E+000, +3.11912119222E+002
+2.34489148581E+007, +4.46233235899E+000, +3.14227803003E+002
+2.36156928214E+007, +4.32686896492E+000, +3.17195025620E+002
+2.37824707846E+007, +4.35680815348E+000, +3.19113310809E+002
+2.39492487479E+007, +4.48661838465E+000, +3.21256596463E+002
+2.41160267112E+007, +4.68461320232E+000, +3.24057643586E+002
+2.42828046745E+007, +4.68848935432E+000, +3.26676558833E+002
+2.44495826377E+007, +4.73533507680E+000, +3.29652919946E+002
+2.46163606010E+007, +5.12984516389E+000, +3.31915856685E+002
+2.47831385643E+007, +5.45700006235E+000, +3.34837716278E+002
+2.49499165275E+007, +6.15236864098E+000, +3.37344097679E+002
+2.51166944908E+007, +6.48996167750E+000, +3.39642791999E+002
+2.52834724541E+007, +6.56546519241E+000, +3.42474132376E+002
+2.54502504174E+007, +6.86611160876E+000, +3.44654506851E+002
+2.56170283806E+007, +6.83792998882E+000, +3.47168347211E+002
+2.57838063439E+007, +6.98914842370E+000, +3.50582648540E+002
+2.59505843072E+007, +7.45794968653E+000, +3.53175165743E+002
+2.61173622705E+007, +7.54215126851E+000, +3.55109096550E+002
+2.62841402337E+007, +7.48848012297E+000, +3.58005745300E+002
+2.64509181970E+007, +7.69088145890E+000, +3.60542388813E+002
+2.66176961603E+007, +7.33127997408E+000, +3.64062050704E+002
+2.67844741235E+007, +8.39827382301E+000, +3.65249545053E+002
+2.69512520868E+007, +8.35295247818E+000, +3.68286457355E+002
+2.71180300501E+007, +8.65794434786E+000, +3.70429034291E+002
+2.72848080134E+007, +8.80948299111E+000, +3.73170102905E+002
+2.74515859766E+007, +9.68442172348E+000, +3.75590309490E+002
+2.76183639399E+007, +8.67255978192E+000, +3.77484556914E+002
+2.77851419032E+007, +8.17672021162E+000, +3.80815893751E+002
+2.79519198664E+007, +8.85424053647E+000, +3.83272698655E+002
+2.81186978297E+007, +9.24257970877E+000, +3.85771211712E+002
+2.82854757930E+007, +9.10820318940E+000, +3.87902330779E+002
+2.84522537563E+007, +7.73826398679E+000, +3.91770182492E+002
+2.86190317195E+007, +8.20142904597E+000, +3.94098388675E+002
+2.87858096828E+007, +8.77688090440E+000, +3.96939818194E+002
+2.89525876461E+007, +8.32327207265E+000, +3.99607900580E+002
+2.91193656093E+007, +8.08892049005E+000, +4.01901846806E+002
+2.92861435726E+007, +7.69684738782E+000, +4.05295142458E+002
+2.94529215359E+007, +7.55321040081E+000, +4.07892485726E+002
+2.96196994992E+007, +8.30659908521E+000, +4.11055400965E+002
+2.97864774624E+007, +9.75515496655E+000, +4.14570960501E+002
+2.99532554257E+007, +8.42494034563E+000, +4.17020655001E+002
+3.01200333890E+007, +7.79826148208E+000, +4.20575895986E+002
+3.02868113523E+007, +7.76908652037E+000, +4.22926914562E+002
+3.04535893155E+007, +7.73942145891E+000, +4.26237369718E+002
+3.06203672788E+007, +7.72902613327E+000, +4.29611578613E+002
+3.07871452421E+007, +7.84958832868E+000, +4.32666371655E+002
+3.09539232053E+007, +7.92308886391E+000, +4.36421384358E+002
+3.11207011686E+007, +7.77805855604E+000, +4.39644774743E+002
+3.12874791319E+007, +8.43586230921E+000, +4.42690603995E+002
+3.14542570952E+007, +7.84785819641E+000, +4.45358223563E+002
+3.16210350584E+007, +7.91133033884E+000, +4.49101245405E+002
+3.17878130217E+007, +8.15458783886E+000, +4.52564276669E+002
+3.19545909850E+007, +7.87777379304E+000, +4.56753806584E+002
+3.21213689482E+007, +6.41124353949E+000, +4.59188931515E+002
+3.22881469115E+007, +7.84587650931E+000, +4.61214908598E+002
+3.24549248748E+007, +7.89490888881E+000, +4.65504181765E+002
+3.26217028381E+007, +7.62901646894E+000, +4.69062828560E+002
+3.27884808013E+007, +8.43706911642E+000, +4.72502321722E+002
+3.29552587646E+007, +8.42519035624E+000, +4.75899153446E+002
+3.31220367279E+007, +8.57944843470E+000, +4.78681672320E+002
+3.32888146912E+007, +7.78446752021E+000, +4.83249893078E+002
+3.34555926544E+007, +7.76096346783E+000, +4.86510571037E+002
+3.36223706177E+007, +8.64869979620E+000, +4.89120270734E+002
+3.37891485810E+007, +8.66257933385E+000, +4.92465638208E+002
+3.39559265442E+007, +8.82753586423E+000, +4.97480854899E+002
+3.41227045075E+007, +7.91570927160E+000, +5.00675792667E+002
+3.42894824708E+007, +8.42785315035E+000, +5.04195447981E+002
+3.44562604341E+007, +8.51362862872E+000, +5.07996360326E+002
+3.46230383973E+007, +9.43846250458E+000, +5.13168518323E+002
+3.47898163606E+007, +9.37384582845E+000, +5.15149257575E+002
+3.49565943239E+007, +1.01770321689E+001, +5.20630816883E+002
+3.51233722871E+007, +1.01532521361E+001, +5.23594513971E+002
+3.52901502504E+007, +1.08204684308E+001, +5.26087035017E+002
+3.54569282137E+007, +9.28758911141E+000, +5.30935276432E+002
+3.56237061770E+007, +9.78483426526E+000, +5.35819717716E+002
+3.57904841402E+007, +9.85396887214E+000, +5.39989449349E+002
+3.59572621035E+007, +1.02139239579E+001, +5.43857395911E+002
+3.61240400668E+007, +1.04395689017E+001, +5.47048486892E+002
+3.62908180301E+007, +1.12657020148E+001, +5.51673647706E+002
+3.64575959933E+007, +9.95489242395E+000, +5.56372993428E+002
+3.66243739566E+007, +1.30343497649E+001, +5.60212049775E+002
+3.67911519199E+007, +1.21867254146E+001, +5.64924890490E+002
+3.69579298831E+007, +1.14581884878E+001, +5.67427008829E+002
+3.71247078464E+007, +1.10747070884E+001, +5.74074698592E+002
+3.72914858097E+007, +1.05060040772E+001, +5.79032752854E+002
+3.74582637730E+007, +1.19587179393E+001, +5.83960517122E+002
+3.76250417362E+007, +1.29299869797E+001, +5.88082526513E+002
+3.77918196995E+007, +1.30284164194E+001, +5.91475209366E+002
+3.79585976628E+007, +1.30002514082E+001, +5.96892073794E+002
+3.81253756260E+007, +1.31965517699E+001, +6.01691578311E+002
+3.82921535893E+007, +1.44076277508E+001, +6.06400386872E+002
+3.84589315526E+007, +1.47899094568E+001, +6.12693584446E+002
+3.86257095159E+007, +1.51455111339E+001, +6.17233693405E+002
+3.87924874791E+007, +1.44230689179E+001, +6.22092842720E+002
+3.89592654424E+007, +1.49137267024E+001, +6.26834324310E+002
+3.91260434057E+007, +1.71317983229E+001, +6.32664531248E+002
+3.92928213689E+007, +1.70613988619E+001, +6.37438653090E+002
+3.94595993322E+007, +1.75812696747E+001, +6.42963656932E+002
+3.96263772955E+007, +1.73299374112E+001, +6.48822786193E+002
+3.97931552588E+007, +1.68768285611E+001, +6.54299824153E+002
+3.99599332220E+007, +1.89045026476E+001, +6.59826064254E+002
+4.01267111853E+007, +1.96323563172E+001, +6.67361520111E+002
+4.02934891486E+007, +1.95762234940E+001, +6.70774190265E+002
+4.04602671119E+007, +2.00921378071E+001, +6.75940720331E+002
+4.06270450751E+007, +2.33207969697E+001, +6.82587781936E+002
+4.07938230384E+007, +2.26753909040E+001, +6.88697767989E+002
+4.09606010017E+007, +2.30614003278E+001, +6.95192701256E+002
+4.11273789649E+007, +2.37474381921E+001, +6.98853640142E+002
+4.12941569282E+007, +2.25105493325E+001, +7.06374628921E+002
+4.14609348915E+007, +2.61832028154E+001, +7.14829102897E+002
+4.16277128548E+007, +2.64560369661E+001, +7.20699378228E+002
+4.17944908180E+007, +2.73632689413E+001, +7.25966999591E+002
+4.19612687813E+007, +2.58981210392E+001, +7.34048946127E+002
+4.21280467446E+007, +2.33683248661E+001, +7.41734934566E+002
+4.22948247078E+007, +2.94596307898E+001, +7.47764662171E+002
+4.24616026711E+007, +2.84197017980E+001, +7.53462623877E+002
+4.26283806344E+007, +2.98159827801E+001, +7.62466645655E+002
+4.27951585977E+007, +2.84656913624E+001, +7.70821913486E+002
+4.29619365609E+007, +3.30378179009E+001, +7.77085767302E+002
+4.31287145242E+007, +3.19404435007E+001, +7.87616540648E+002
+4.32954924875E+007, +3.33858267759E+001, +7.93084592332E+002
+4.34622704508E+007, +3.30079116166E+001, +8.05330605217E+002
+4.36290484140E+007, +3.62847848945E+001, +8.08672332651E+002
+4.37958263773E+007, +3.60126088135E+001, +8.23946893267E+002
+4.39626043406E+007, +4.09701312675E+001, +8.28595075729E+002
+4.41293823038E+007, +4.22504442502E+001, +8.40221935514E+002
+4.42961602671E+007, +4.23886107937E+001, +8.49219820515E+002
+4.44629382304E+007, +4.51027226968E+001, +8.59917555232E+002
+4.46297161937E+007, +4.55027827933E+001, +8.69083646306E+002
+4.47964941569E+007, +4.67526107342E+001, +8.82276678767E+002
+4.49632721202E+007, +5.00611247590E+001, +8.91820640686E+002
+4.51300500835E+007, +5.41287626648E+001, +9.02045281098E+002
+4.52968280467E+007, +5.74768961721E+001, +9.14796855919E+002
+4.54636060100E+007, +6.05987470940E+001, +9.27268996370E+002
+4.56303839733E+007, +6.18737824456E+001, +9.37815821797E+002
+4.57971619366E+007, +6.56417721227E+001, +9.48856357383E+002
+4.59639398998E+007, +6.78217357297E+001, +9.68729801538E+002
+4.61307178631E+007, +7.68158695308E+001, +9.74545615562E+002
+4.62974958264E+007, +8.01215277659E+001, +9.88392939667E+002
+4.64642737896E+007, +8.30085464318E+001, +1.00263358445E+003
+4.66310517529E+007, +8.89147236909E+001, +1.01720496367E+003
+4.67978297162E+007, +9.84942051296E+001, +1.02533058910E+003
+4.69646076795E+007, +9.96946556239E+001, +1.04457129155E+003
+4.71313856427E+007, +1.07772230997E+002, +1.05698018111E+003
+4.72981636060E+007, +1.13753774451E+002, +1.07975952665E+003
+4.74649415693E+007, +1.18490815485E+002, +1.09241960840E+003
+4.76317195326E+007, +1.32308978989E+002, +1.10256024248E+003
+4.77984974958E+007, +1.43992466609E+002, +1.12124184445E+003
+4.79652754591E+007, +1.46193860434E+002, +1.13673109401E+003
+4.81320534224E+007, +1.61875598231E+002, +1.14861845155E+003
+4.82988313856E+007, +1.64099416169E+002, +1.16674635990E+003
+4.84656093489E+007, +1.87331459768E+002, +1.18149041515E+003
+4.86323873122E+007, +1.97481398616E+002, +1.19561234098E+003
+4.87991652755E+007, +2.08158469262E+002, +1.21946570033E+003
+4.89659432387E+007, +2.25365386941E+002, +1.22830447248E+003
+4.91327212020E+007, +2.45624552052E+002, +1.24989770601E+003
+4.92994991653E+007, +2.58208626843E+002, +1.25775377223E+003
+4.94662771285E+007, +2.79937185079E+002, +1.27091761222E+003
+4.96330550918E+007, +2.90797300575E+002, +1.29056330768E+003
+4.97998330551E+007, +3.04244260195E+002, +1.29329622639E+003
+4.99666110184E+007, +3.19977929759E+002, +1.31422136000E+003
+5.01333889816E+007, +3.32893557659E+002, +1.33272036161E+003
+5.03001669449E+007, +3.42065216824E+002, +1.34491832930E+003
+5.04669449082E+007, +3.60688358974E+002, +1.36704466148E+003
+5.06337228715E+007, +3.83100195959E+002, +1.37710601121E+003
+5.08005008347E+007, +3.82688613872E+002, +1.39489633389E+003
+5.09672787980E+007, +4.06916318300E+002, +1.40242808002E+003
+5.11340567613E+007, +4.25417251316E+002, +1.43247867204E+003
+5.13008347245E+007, +4.37729971030E+002, +1.44994907559E+003
+5.14676126878E+007, +4.51038757786E+002, +1.46730577784E+003
+5.16343906511E+007, +4.71272519583E+002, +1.49494365796E+003
+5.18011686144E+007, +4.88391243108E+002, +1.52156270441E+003
+5.19679465776E+007, +4.98801180954E+002, +1.54116705169E+003
+5.21347245409E+007, +5.20674209498E+002, +1.58269925748E+003
+5.23015025042E+007, +5.65039419256E+002, +1.63817329414E+003
+5.24682804674E+007, +5.75303396643E+002, +1.67234132120E+003
+5.26350584307E+007, +5.95983373834E+002, +1.71837771517E+003
+5.28018363940E+007, +6.37432207391E+002, +1.76481943873E+003
+5.29686143573E+007, +6.74071950380E+002, +1.82601914393E+003
+5.31353923205E+007, +7.22165462812E+002, +1.86827131311E+003
+5.33021702838E+007, +7.70175167943E+002, +1.94031263036E+003
+5.34689482471E+007, +8.71335058544E+002, +1.99640563494E+003
