"# Channel 1"
"# Trace 1"
Frequency, Formatted Data, Formatted Data
+1.00000000000E+005, +1.80752291100E+001, +1.31552679947E+000
+2.66777963272E+005, +1.80931280972E+001, +3.59511277288E+000
+4.33555926544E+005, +1.80779815054E+001, +5.86348382280E+000
+6.00333889816E+005, +1.80805287340E+001, +8.08007148164E+000
+7.67111853088E+005, +1.81231785840E+001, +1.03360761709E+001
+9.33889816361E+005, +1.81327140246E+001, +1.25440363201E+001
+1.10066777963E+006, +1.81162014134E+001, +1.48256320415E+001
+1.26744574290E+006, +1.81388183625E+001, +1.70196782171E+001
+1.43422370618E+006, +1.81164288562E+001, +1.93197627106E+001
+1.60100166945E+006, +1.81634480947E+001, +2.14735077635E+001
+1.76777963272E+006, +1.81537222463E+001, +2.37305550718E+001
+1.93455759599E+006, +1.81530227675E+001, +2.59215046249E+001
+2.10133555927E+006, +1.81369841409E+001, +2.81588429822E+001
+2.26811352254E+006, +1.81719727809E+001, +3.03752703603E+001
+2.43489148581E+006, +1.81744495017E+001, +3.26384059076E+001
+2.60166944908E+006, +1.81768350842E+001, +3.47982031453E+001
+2.76844741235E+006, +1.81940707657E+001, +3.71296061667E+001
+2.93522537563E+006, +1.81686556417E+001, +3.93510859069E+001
+3.10200333890E+006, +1.82443903229E+001, +4.14722855227E+001
+3.26878130217E+006, +1.81562343272E+001, +4.38153947571E+001
+3.43555926544E+006, +1.82072925890E+001, +4.59769759385E+001
+3.60233722871E+006, +1.82277912631E+001, +4.82918876825E+001
+3.76911519199E+006, +1.82647314657E+001, +5.05248536030E+001
+3.93589315526E+006, +1.81265681965E+001, +5.27130971865E+001
+4.10267111853E+006, +1.82411928348E+001, +5.50257735827E+001
+4.26944908180E+006, +1.82790648175E+001, +5.72829477088E+001
+4.43622704508E+006, +1.81988013711E+001, +5.94119756899E+001
+4.60300500835E+006, +1.82730958862E+001, +6.17110240667E+001
+4.76978297162E+006, +1.82554304369E+001, +6.39325813800E+001
+4.93656093489E+006, +1.83534918713E+001, +6.62264804146E+001
+5.10333889816E+006, +1.83372906937E+001, +6.83433658649E+001
+5.27011686144E+006, +1.84598211900E+001, +7.07466113892E+001
+5.43689482471E+006, +1.84004375253E+001, +7.29887690335E+001
+5.60367278798E+006, +1.84507578841E+001, +7.53448877180E+001
+5.77045075125E+006, +1.82897304393E+001, +7.74786752343E+001
+5.93722871452E+006, +1.85715177850E+001, +7.97282912809E+001
+6.10400667780E+006, +1.84665249761E+001, +8.20091225856E+001
+6.27078464107E+006, +1.85533952269E+001, +8.42492676605E+001
+6.43756260434E+006, +1.85687469407E+001, +8.65410730550E+001
+6.60434056761E+006, +1.86410507271E+001, +8.87785159640E+001
+6.77111853088E+006, +1.87047409640E+001, +9.10152979049E+001
+6.93789649416E+006, +1.86736637613E+001, +9.33152545767E+001
+7.10467445743E+006, +1.86263991209E+001, +9.55465722756E+001
+7.27145242070E+006, +1.87989307808E+001, +9.78202981888E+001
+7.43823038397E+006, +1.87697405176E+001, +1.00000819907E+002
+7.60500834725E+006, +1.87004846246E+001, +1.02316199565E+002
+7.77178631052E+006, +1.87616366349E+001, +1.04703424834E+002
+7.93856427379E+006, +1.88106599582E+001, +1.06848030179E+002
+8.10534223706E+006, +1.88410839486E+001, +1.09180789237E+002
+8.27212020033E+006, +1.88646099201E+001, +1.11447952521E+002
+8.43889816361E+006, +1.89169256558E+001, +1.13773001241E+002
+8.60567612688E+006, +1.88381060048E+001, +1.16043579708E+002
+8.77245409015E+006, +1.87906873994E+001, +1.18234045864E+002
+8.93923205342E+006, +1.88493041286E+001, +1.20597538219E+002
+9.10601001669E+006, +1.89715444022E+001, +1.22945590818E+002
+9.27278797997E+006, +1.89932730903E+001, +1.25275495711E+002
+9.43956594324E+006, +1.90100026211E+001, +1.27444392971E+002
+9.60634390651E+006, +1.88946915811E+001, +1.29773881939E+002
+9.77312186978E+006, +1.89593945962E+001, +1.32112278795E+002
+9.93989983306E+006, +1.90624188289E+001, +1.34452512029E+002
+1.01066777963E+007, +1.90320153139E+001, +1.36738344644E+002
+1.02734557596E+007, +1.90118788505E+001, +1.39067387513E+002
+1.04402337229E+007, +1.91057602128E+001, +1.41384852633E+002
+1.06070116861E+007, +1.90582303103E+001, +1.43755489981E+002
+1.07737896494E+007, +1.90970497768E+001, +1.46115323003E+002
+1.09405676127E+007, +1.93006424711E+001, +1.48330159995E+002
+1.11073455760E+007, +1.91815532691E+001, +1.50810929802E+002
+1.12741235392E+007, +1.91723890858E+001, +1.53116845150E+002
+1.14409015025E+007, +1.94391310973E+001, +1.55505411454E+002
+1.16076794658E+007, +1.94087131647E+001, +1.57797429446E+002
+1.17744574290E+007, +1.94118190477E+001, +1.60291203792E+002
+1.19412353923E+007, +1.93870387730E+001, +1.62518270839E+002
+1.21080133556E+007, +1.92968805490E+001, +1.64954428365E+002
+1.22747913189E+007, +1.94736618647E+001, +1.67316587089E+002
+1.24415692821E+007, +1.93818817219E+001, +1.69630749539E+002
+1.26083472454E+007, +1.94028722391E+001, +1.72029584096E+002
+1.27751252087E+007, +1.94393879742E+001, +1.74535353084E+002
+1.29419031720E+007, +1.95453923877E+001, +1.76813212827E+002
+1.31086811352E+007, +1.96902636867E+001, +1.79174941732E+002
+1.32754590985E+007, +1.95814659457E+001, +1.81635941357E+002
+1.34422370618E+007, +1.96206876229E+001, +1.83951323525E+002
+1.36090150250E+007, +1.98951319275E+001, +1.86539160439E+002
+1.37757929883E+007, +1.97000014700E+001, +1.88919138692E+002
+1.39425709516E+007, +2.00487518414E+001, +1.91280203906E+002
+1.41093489149E+007, +2.00923438353E+001, +1.93626003696E+002
+1.42761268781E+007, +2.02093275787E+001, +1.95978795273E+002
+1.44429048414E+007, +2.02437206266E+001, +1.98288019182E+002
+1.46096828047E+007, +2.00736338846E+001, +2.00878722094E+002
+1.47764607679E+007, +2.02362103342E+001, +2.03085420920E+002
+1.49432387312E+007, +2.00679170436E+001, +2.05354100109E+002
+1.51100166945E+007, +2.00096090267E+001, +2.08175258788E+002
+1.52767946578E+007, +2.04861492798E+001, +2.10332847561E+002
+1.54435726210E+007, +2.03144459749E+001, +2.12744236193E+002
+1.56103505843E+007, +2.05801706381E+001, +2.15252517110E+002
+1.57771285476E+007, +2.02925215622E+001, +2.18007982609E+002
+1.59439065109E+007, +2.06231783767E+001, +2.20324413372E+002
+1.61106844741E+007, +2.05891508477E+001, +2.22882288996E+002
+1.62774624374E+007, +2.07010339229E+001, +2.25082076430E+002
+1.64442404007E+007, +2.05260034887E+001, +2.27809174377E+002
+1.66110183639E+007, +2.06285363446E+001, +2.30240524737E+002
+1.67777963272E+007, +2.09652851955E+001, +2.33147124236E+002
+1.69445742905E+007, +2.09600488028E+001, +2.35445312540E+002
+1.71113522538E+007, +2.04157640284E+001, +2.37843164136E+002
+1.72781302170E+007, +2.07418532704E+001, +2.40545118469E+002
+1.74449081803E+007, +2.07829580521E+001, +2.42855360640E+002
+1.76116861436E+007, +2.11746096453E+001, +2.45582961493E+002
+1.77784641068E+007, +2.08784807366E+001, +2.47873559350E+002
+1.79452420701E+007, +2.10798790537E+001, +2.50487558107E+002
+1.81120200334E+007, +2.12221814523E+001, +2.52633604421E+002
+1.82787979967E+007, +2.15235233712E+001, +2.55634419570E+002
+1.84455759599E+007, +2.17386866440E+001, +2.58169136132E+002
+1.86123539232E+007, +2.20326889805E+001, +2.60961539699E+002
+1.87791318865E+007, +2.20170658612E+001, +2.63623141047E+002
+1.89459098497E+007, +2.19823383684E+001, +2.66088393626E+002
+1.91126878130E+007, +2.22103594585E+001, +2.68449758160E+002
+1.92794657763E+007, +2.22514323975E+001, +2.70943863729E+002
+1.94462437396E+007, +2.26245993988E+001, +2.73790917856E+002
+1.96130217028E+007, +2.23516236205E+001, +2.76788040953E+002
+1.97797996661E+007, +2.28723165759E+001, +2.78871953432E+002
+1.99465776294E+007, +2.22970965957E+001, +2.81794981817E+002
+2.01133555927E+007, +2.24618784386E+001, +2.84521583960E+002
+2.02801335559E+007, +2.28883532521E+001, +2.87346787357E+002
+2.04469115192E+007, +2.35376526966E+001, +2.89923874680E+002
+2.06136894825E+007, +2.31371577704E+001, +2.92581164390E+002
+2.07804674457E+007, +2.31327727441E+001, +2.95470916985E+002
+2.09472454090E+007, +2.34216597940E+001, +2.97931135568E+002
+2.11140233723E+007, +2.36738078600E+001, +3.00319680754E+002
+2.12808013356E+007, +2.39303859266E+001, +3.03650012858E+002
+2.14475792988E+007, +2.39311229659E+001, +3.05983789861E+002
+2.16143572621E+007, +2.44450386861E+001, +3.08687940629E+002
+2.17811352254E+007, +2.39376827816E+001, +3.11588768163E+002
+2.19479131886E+007, +2.47668218786E+001, +3.14322356514E+002
+2.21146911519E+007, +2.50761113753E+001, +3.16557235151E+002
+2.22814691152E+007, +2.45618960964E+001, +3.19653462708E+002
+2.24482470785E+007, +2.50193328893E+001, +3.22660008728E+002
+2.26150250417E+007, +2.61502701401E+001, +3.25401302251E+002
+2.27818030050E+007, +2.53775573300E+001, +3.28446580917E+002
+2.29485809683E+007, +2.70898420582E+001, +3.31053727480E+002
+2.31153589316E+007, +2.61045088214E+001, +3.34157853774E+002
+2.32821368948E+007, +2.70451091790E+001, +3.36753243705E+002
+2.34489148581E+007, +2.71830411844E+001, +3.39551178504E+002
+2.36156928214E+007, +2.77541996322E+001, +3.43189657171E+002
+2.37824707846E+007, +2.75789482697E+001, +3.45336385698E+002
+2.39492487479E+007, +2.78700379215E+001, +3.47907366728E+002
+2.41160267112E+007, +2.83549683457E+001, +3.50388475475E+002
+2.42828046745E+007, +2.79536131441E+001, +3.53584931922E+002
+2.44495826377E+007, +2.92160788254E+001, +3.56734860431E+002
+2.46163606010E+007, +2.93231947249E+001, +3.58661970903E+002
+2.47831385643E+007, +2.90482437409E+001, +3.62377223448E+002
+2.49499165275E+007, +3.02022620772E+001, +3.64814369375E+002
+2.51166944908E+007, +3.03191177719E+001, +3.67845219452E+002
+2.52834724541E+007, +3.09520107937E+001, +3.70886749673E+002
+2.54502504174E+007, +3.17595635875E+001, +3.73855313795E+002
+2.56170283806E+007, +3.12640422279E+001, +3.76462743340E+002
+2.57838063439E+007, +3.23171698128E+001, +3.79637688995E+002
+2.59505843072E+007, +3.28776533242E+001, +3.82802857394E+002
+2.61173622705E+007, +3.31829877242E+001, +3.84972278847E+002
+2.62841402337E+007, +3.30807376997E+001, +3.87894040604E+002
+2.64509181970E+007, +3.32240256361E+001, +3.90408692563E+002
+2.66176961603E+007, +3.37466543706E+001, +3.93693926509E+002
+2.67844741235E+007, +3.35064626920E+001, +3.96331392980E+002
+2.69512520868E+007, +3.42401513323E+001, +3.99063552000E+002
+2.71180300501E+007, +3.45280806712E+001, +4.00538823074E+002
+2.72848080134E+007, +3.50095736483E+001, +4.04783937938E+002
+2.74515859766E+007, +3.52114724981E+001, +4.07367861210E+002
+2.76183639399E+007, +3.43760349641E+001, +4.10543772386E+002
+2.77851419032E+007, +3.50633341249E+001, +4.12795174747E+002
+2.79519198664E+007, +3.53389597709E+001, +4.16050374452E+002
+2.81186978297E+007, +3.54207713027E+001, +4.17588828254E+002
+2.82854757930E+007, +3.51247039389E+001, +4.21178417395E+002
+2.84522537563E+007, +3.44427602975E+001, +4.24364345491E+002
+2.86190317195E+007, +3.44724067720E+001, +4.27363047794E+002
+2.87858096828E+007, +3.67373943936E+001, +4.30787880378E+002
+2.89525876461E+007, +3.63191782080E+001, +4.33608795247E+002
+2.91193656093E+007, +3.45744201517E+001, +4.36217085112E+002
+2.92861435726E+007, +3.51301853193E+001, +4.39636902728E+002
+2.94529215359E+007, +3.58763117063E+001, +4.43063170809E+002
+2.96196994992E+007, +3.59474449189E+001, +4.46504618457E+002
+2.97864774624E+007, +3.61534907999E+001, +4.50468915430E+002
+2.99532554257E+007, +3.61877197577E+001, +4.53538539857E+002
+3.01200333890E+007, +3.60156601233E+001, +4.56623294474E+002
+3.02868113523E+007, +3.56634133528E+001, +4.61671938470E+002
+3.04535893155E+007, +3.53492716903E+001, +4.64984063794E+002
+3.06203672788E+007, +3.63442624002E+001, +4.67581433328E+002
+3.07871452421E+007, +3.63965127959E+001, +4.70712730402E+002
+3.09539232053E+007, +3.72295879355E+001, +4.74635411123E+002
+3.11207011686E+007, +3.54247630665E+001, +4.79353228629E+002
+3.12874791319E+007, +3.58078750196E+001, +4.81433274489E+002
+3.14542570952E+007, +3.78244393469E+001, +4.85467604087E+002
+3.16210350584E+007, +3.65191849488E+001, +4.89174838837E+002
+3.17878130217E+007, +3.67242035870E+001, +4.93572628829E+002
+3.19545909850E+007, +3.78240313803E+001, +4.97369416875E+002
+3.21213689482E+007, +3.61751959437E+001, +5.02201511800E+002
+3.22881469115E+007, +3.79986346001E+001, +5.04286958516E+002
+3.24549248748E+007, +3.66577742096E+001, +5.08583540335E+002
+3.26217028381E+007, +3.74418134649E+001, +5.13418551241E+002
+3.27884808013E+007, +3.81862460645E+001, +5.16315650964E+002
+3.29552587646E+007, +3.95682101671E+001, +5.21011796865E+002
+3.31220367279E+007, +4.04225226148E+001, +5.23674844793E+002
+3.32888146912E+007, +4.09126748659E+001, +5.29596453131E+002
+3.34555926544E+007, +3.92846124849E+001, +5.31681513736E+002
+3.36223706177E+007, +3.98794013190E+001, +5.36036965959E+002
+3.37891485810E+007, +4.08097644900E+001, +5.39589341444E+002
+3.39559265442E+007, +4.10669279846E+001, +5.46423724108E+002
+3.41227045075E+007, +4.08156221277E+001, +5.48471191834E+002
+3.42894824708E+007, +4.10131719784E+001, +5.53164790059E+002
+3.44562604341E+007, +4.25752719487E+001, +5.58139314069E+002
+3.46230383973E+007, +4.30535382741E+001, +5.63323909216E+002
+3.47898163606E+007, +4.35377663189E+001, +5.65391477939E+002
+3.49565943239E+007, +4.54237143802E+001, +5.71704099144E+002
+3.51233722871E+007, +4.30708080952E+001, +5.76054233586E+002
+3.52901502504E+007, +4.47605411940E+001, +5.78980921007E+002
+3.54569282137E+007, +4.54730367112E+001, +5.85008224062E+002
+3.56237061770E+007, +4.30324156717E+001, +5.88453195485E+002
+3.57904841402E+007, +4.47116782915E+001, +5.93795501379E+002
+3.59572621035E+007, +4.63002194266E+001, +5.98669748331E+002
+3.61240400668E+007, +4.66903356448E+001, +6.03737511034E+002
+3.62908180301E+007, +4.85830684512E+001, +6.09510246026E+002
+3.64575959933E+007, +4.73278248755E+001, +6.13322959235E+002
+3.66243739566E+007, +4.85972540381E+001, +6.18042253394E+002
+3.67911519199E+007, +4.91859246056E+001, +6.24073573379E+002
+3.69579298831E+007, +4.77528129197E+001, +6.27978851563E+002
+3.71247078464E+007, +4.74519994011E+001, +6.34248657965E+002
+3.72914858097E+007, +4.90002108028E+001, +6.38671836937E+002
+3.74582637730E+007, +5.17137753868E+001, +6.46884688507E+002
+3.76250417362E+007, +5.39638508432E+001, +6.50319689342E+002
+3.77918196995E+007, +5.06537810389E+001, +6.56098559919E+002
+3.79585976628E+007, +5.23654768398E+001, +6.60600400671E+002
+3.81253756260E+007, +5.55957977633E+001, +6.66593861244E+002
+3.82921535893E+007, +5.54891154732E+001, +6.73166275021E+002
+3.84589315526E+007, +5.50582137882E+001, +6.80251429259E+002
+3.86257095159E+007, +5.73494238061E+001, +6.83200817329E+002
+3.87924874791E+007, +5.68896142144E+001, +6.91577933842E+002
+3.89592654424E+007, +5.73533973544E+001, +6.94712503499E+002
+3.91260434057E+007, +6.26035097762E+001, +7.04622686516E+002
+3.92928213689E+007, +5.96482542740E+001, +7.10785105087E+002
+3.94595993322E+007, +6.01393820978E+001, +7.19447305747E+002
+3.96263772955E+007, +6.40021470761E+001, +7.23821640493E+002
+3.97931552588E+007, +6.16456174645E+001, +7.30957572058E+002
+3.99599332220E+007, +6.53580435067E+001, +7.37675004870E+002
+4.01267111853E+007, +6.89487296615E+001, +7.45343318474E+002
+4.02934891486E+007, +6.69660531066E+001, +7.50606517386E+002
+4.04602671119E+007, +6.99175496372E+001, +7.56384261400E+002
+4.06270450751E+007, +7.23666674581E+001, +7.64056905236E+002
+4.07938230384E+007, +7.08624187888E+001, +7.73943544687E+002
+4.09606010017E+007, +7.39178950120E+001, +7.79365659039E+002
+4.11273789649E+007, +7.59768641241E+001, +7.85495419817E+002
+4.12941569282E+007, +7.82831154813E+001, +7.94524182657E+002
+4.14609348915E+007, +8.09529944643E+001, +8.04373500645E+002
+4.16277128548E+007, +8.19766946691E+001, +8.11829851116E+002
+4.17944908180E+007, +8.41542056413E+001, +8.16791106836E+002
+4.19612687813E+007, +8.36456924123E+001, +8.27191962665E+002
+4.21280467446E+007, +8.61342854209E+001, +8.37192131298E+002
+4.22948247078E+007, +8.69667081963E+001, +8.45848724305E+002
+4.24616026711E+007, +9.03458594523E+001, +8.49871651189E+002
+4.26283806344E+007, +9.48581871620E+001, +8.63997907120E+002
+4.27951585977E+007, +8.98088600244E+001, +8.74959672698E+002
+4.29619365609E+007, +1.00832909193E+002, +8.81893840596E+002
+4.31287145242E+007, +1.01380508790E+002, +8.90764451883E+002
+4.32954924875E+007, +1.01413803273E+002, +8.99751334883E+002
+4.34622704508E+007, +1.05010662394E+002, +9.12915378570E+002
+4.36290484140E+007, +1.10267671214E+002, +9.22382937136E+002
+4.37958263773E+007, +1.10312871346E+002, +9.33698964304E+002
+4.39626043406E+007, +1.17214109595E+002, +9.43023607102E+002
+4.41293823038E+007, +1.20878279161E+002, +9.57016181285E+002
+4.42961602671E+007, +1.19275550379E+002, +9.66369062222E+002
+4.44629382304E+007, +1.23875092815E+002, +9.82751110899E+002
+4.46297161937E+007, +1.28650730121E+002, +9.89186752173E+002
+4.47964941569E+007, +1.33917881729E+002, +1.00634179922E+003
+4.49632721202E+007, +1.35645657806E+002, +1.01835234817E+003
+4.51300500835E+007, +1.40032546766E+002, +1.03035562028E+003
+4.52968280467E+007, +1.54321663144E+002, +1.03989549048E+003
+4.54636060100E+007, +1.61774115776E+002, +1.06581441713E+003
+4.56303839733E+007, +1.61490612090E+002, +1.07525411056E+003
+4.57971619366E+007, +1.68012124281E+002, +1.09324546084E+003
+4.59639398998E+007, +1.75833410926E+002, +1.11577452981E+003
+4.61307178631E+007, +1.82614140517E+002, +1.12101932822E+003
+4.62974958264E+007, +1.97277720500E+002, +1.13769023261E+003
+4.64642737896E+007, +1.96654120036E+002, +1.15588603248E+003
+4.66310517529E+007, +2.12584087776E+002, +1.17460740418E+003
+4.67978297162E+007, +2.27558159552E+002, +1.18086397003E+003
+4.69646076795E+007, +2.34765116578E+002, +1.21122300075E+003
+4.71313856427E+007, +2.49118140348E+002, +1.22537854879E+003
+4.72981636060E+007, +2.57787045769E+002, +1.24938287810E+003
+4.74649415693E+007, +2.76578959233E+002, +1.26320643279E+003
+4.76317195326E+007, +2.98742300335E+002, +1.27733013725E+003
+4.77984974958E+007, +3.06354246022E+002, +1.30389982036E+003
+4.79652754591E+007, +3.29809989491E+002, +1.31510110387E+003
+4.81320534224E+007, +3.43342441394E+002, +1.33452876654E+003
+4.82988313856E+007, +3.68681963384E+002, +1.34843202806E+003
+4.84656093489E+007, +3.91792986293E+002, +1.36632071647E+003
+4.86323873122E+007, +4.15424875424E+002, +1.37958559218E+003
+4.87991652755E+007, +4.39934971930E+002, +1.39662468760E+003
+4.89659432387E+007, +4.62522871430E+002, +1.40438078120E+003
+4.91327212020E+007, +4.84544311440E+002, +1.42466739989E+003
+4.92994991653E+007, +5.05492962111E+002, +1.43035532772E+003
+4.94662771285E+007, +5.37573066818E+002, +1.45141819685E+003
+4.96330550918E+007, +5.55875567981E+002, +1.45478541253E+003
+4.97998330551E+007, +5.80905834514E+002, +1.47161479814E+003
+4.99666110184E+007, +6.06664836639E+002, +1.48346278758E+003
+5.01333889816E+007, +6.30611617009E+002, +1.50146184243E+003
+5.03001669449E+007, +6.48880847070E+002, +1.51351706684E+003
+5.04669449082E+007, +6.81218790364E+002, +1.52530260368E+003
+5.06337228715E+007, +7.12523130454E+002, +1.53300430283E+003
+5.08005008347E+007, +7.21488519324E+002, +1.54857576437E+003
+5.09672787980E+007, +7.54611162527E+002, +1.55768520508E+003
+5.11340567613E+007, +7.76244223742E+002, +1.57679172510E+003
+5.13008347245E+007, +8.09356384247E+002, +1.61033650709E+003
+5.14676126878E+007, +8.15248975342E+002, +1.61745865125E+003
+5.16343906511E+007, +8.56296487380E+002, +1.65010052981E+003
+5.18011686144E+007, +8.81726894535E+002, +1.68617178411E+003
+5.19679465776E+007, +9.18458038109E+002, +1.71456734879E+003
+5.21347245409E+007, +9.71191780408E+002, +1.75009736845E+003
+5.23015025042E+007, +1.03737790784E+003, +1.80529876077E+003
+5.24682804674E+007, +1.05755779723E+003, +1.85923707794E+003
+5.26350584307E+007, +1.11389099758E+003, +1.87966983158E+003
+5.28018363940E+007, +1.19593486228E+003, +1.94599712596E+003
+5.29686143573E+007, +1.30768178388E+003, +1.98205476508E+003
+5.31353923205E+007, +1.37992704134E+003, +2.02157049903E+003
+5.33021702838E+007, +1.49919894201E+003, +2.08206525054E+003
+5.34689482471E+007, +1.65248485357E+003, +2.09588155468E+003
