"# Channel 1"
"# Trace 1"
Frequency, Formatted Data, Formatted Data
+1.00000000000E+005, +1.77158959853E-001, +1.52740177963E+000
+2.66777963272E+005, +2.03174430290E-001, +4.00574591944E+000
+4.33555926544E+005, +2.22959162714E-001, +6.49469696766E+000
+6.00333889816E+005, +2.80460201885E-001, +8.93033150889E+000
+7.67111853088E+005, +2.98228929530E-001, +1.14068925747E+001
+9.33889816361E+005, +3.26813312477E-001, +1.38339739723E+001
+1.10066777963E+006, +2.72335263815E-001, +1.62917670250E+001
+1.26744574290E+006, +3.44385563674E-001, +1.87322615746E+001
+1.43422370618E+006, +2.68875241858E-001, +2.12225723767E+001
+1.60100166945E+006, +3.86380387445E-001, +2.36115234576E+001
+1.76777963272E+006, +3.70398643158E-001, +2.60574831626E+001
+1.93455759599E+006, +3.85494929726E-001, +2.84504946049E+001
+2.10133555927E+006, +4.02448927650E-001, +3.08868888643E+001
+2.26811352254E+006, +4.18824337917E-001, +3.33592852165E+001
+2.43489148581E+006, +3.92138248842E-001, +3.58533537179E+001
+2.60166944908E+006, +4.49050759449E-001, +3.82228161088E+001
+2.76844741235E+006, +3.90575985056E-001, +4.07379272437E+001
+2.93522537563E+006, +3.91547037583E-001, +4.31537716416E+001
+3.10200333890E+006, +4.81048252775E-001, +4.55513592122E+001
+3.26878130217E+006, +3.33669915340E-001, +4.80205263875E+001
+3.43555926544E+006, +4.16704475837E-001, +5.05056870532E+001
+3.60233722871E+006, +4.78850285305E-001, +5.30027058572E+001
+3.76911519199E+006, +3.89155710048E-001, +5.55031060803E+001
+3.93589315526E+006, +4.43094896571E-001, +5.78459855516E+001
+4.10267111853E+006, +2.01545281514E-001, +6.01706944231E+001
+4.26944908180E+006, +3.50271925680E-001, +6.30918990735E+001
+4.43622704508E+006, +4.55482831355E-001, +6.53130208532E+001
+4.60300500835E+006, +4.57683527820E-001, +6.78821550570E+001
+4.76978297162E+006, +4.15039398193E-001, +7.02257755432E+001
+4.93656093489E+006, +5.75486316383E-001, +7.27667428602E+001
+5.10333889816E+006, +4.87776385122E-001, +7.51825147867E+001
+5.27011686144E+006, +5.97487271599E-001, +7.78814647421E+001
+5.43689482471E+006, +4.54108765665E-001, +8.02413321112E+001
+5.60367278798E+006, +5.34798222695E-001, +8.29156933248E+001
+5.77045075125E+006, +5.22201754627E-001, +8.51837873580E+001
+5.93722871452E+006, +6.17898502069E-001, +8.77273390981E+001
+6.10400667780E+006, +5.61280074426E-001, +9.02921319845E+001
+6.27078464107E+006, +7.19842975562E-001, +9.27411370445E+001
+6.43756260434E+006, +7.16283786058E-001, +9.52413016372E+001
+6.60434056761E+006, +7.10567917931E-001, +9.77659043728E+001
+6.77111853088E+006, +8.56968040827E-001, +1.00210981316E+002
+6.93789649416E+006, +7.83887569779E-001, +1.02787797207E+002
+7.10467445743E+006, +7.85676815098E-001, +1.05249749945E+002
+7.27145242070E+006, +8.13701524523E-001, +1.07734336468E+002
+7.43823038397E+006, +8.54542136606E-001, +1.10141614418E+002
+7.60500834725E+006, +7.23435677058E-001, +1.12694684120E+002
+7.77178631052E+006, +8.04088924037E-001, +1.15388755246E+002
+7.93856427379E+006, +8.29140690755E-001, +1.17706722299E+002
+8.10534223706E+006, +8.04246196787E-001, +1.20252937256E+002
+8.27212020033E+006, +7.82341259489E-001, +1.22779855754E+002
+8.43889816361E+006, +7.23637497760E-001, +1.25352229632E+002
+8.60567612688E+006, +6.52444335322E-001, +1.27974201551E+002
+8.77245409015E+006, +6.23049442677E-001, +1.30409835304E+002
+8.93923205342E+006, +6.40811972349E-001, +1.33007842717E+002
+9.10601001669E+006, +6.73228506438E-001, +1.35736951759E+002
+9.27278797997E+006, +6.50213990746E-001, +1.38261881728E+002
+9.43956594324E+006, +6.04486328175E-001, +1.40823280086E+002
+9.60634390651E+006, +6.92066955242E-001, +1.43394644806E+002
+9.77312186978E+006, +5.95102703929E-001, +1.46041294751E+002
+9.93989983306E+006, +6.21873998074E-001, +1.48741787166E+002
+1.01066777963E+007, +4.07072201454E-001, +1.51188373784E+002
+1.02734557596E+007, +4.88523761890E-001, +1.53852454412E+002
+1.04402337229E+007, +4.19423451401E-001, +1.56407228901E+002
+1.06070116861E+007, +4.19097123723E-001, +1.59077094988E+002
+1.07737896494E+007, +4.74593895954E-001, +1.61829454057E+002
+1.09405676127E+007, +5.43175003430E-001, +1.64343337133E+002
+1.11073455760E+007, +4.70123660405E-001, +1.67155972031E+002
+1.12741235392E+007, +4.86429618384E-001, +1.69692980145E+002
+1.14409015025E+007, +6.61205949352E-001, +1.72459657529E+002
+1.16076794658E+007, +5.27430414327E-001, +1.75076765120E+002
+1.17744574290E+007, +6.46762096140E-001, +1.77946906701E+002
+1.19412353923E+007, +5.34016468597E-001, +1.80574393790E+002
+1.21080133556E+007, +3.24098630128E-001, +1.83189053868E+002
+1.22747913189E+007, +3.66779131286E-001, +1.86130973761E+002
+1.24415692821E+007, +2.85253781519E-001, +1.88553560270E+002
+1.26083472454E+007, +2.98146163900E-001, +1.91213295049E+002
+1.27751252087E+007, +4.92166153639E-001, +1.94078394386E+002
+1.29419031720E+007, +2.81178287625E-001, +1.96720763088E+002
+1.31086811352E+007, +5.27166998839E-001, +1.99687911228E+002
+1.32754590985E+007, +4.26164255006E-001, +2.02211972317E+002
+1.34422370618E+007, +3.76333386725E-001, +2.04929505177E+002
+1.36090150250E+007, +4.79131887963E-001, +2.07878897508E+002
+1.37757929883E+007, +4.70439105431E-001, +2.10618316338E+002
+1.39425709516E+007, +6.21136245787E-001, +2.13333985276E+002
+1.41093489149E+007, +5.92028043989E-001, +2.16128593021E+002
+1.42761268781E+007, +7.71198782561E-001, +2.18865604436E+002
+1.44429048414E+007, +6.06373868118E-001, +2.21578211709E+002
+1.46096828047E+007, +4.66182752056E-001, +2.24423186381E+002
+1.47764607679E+007, +5.61534424114E-001, +2.27073994364E+002
+1.49432387312E+007, +3.70514933043E-001, +2.30146322632E+002
+1.51100166945E+007, +3.62604794620E-001, +2.32960822994E+002
+1.52767946578E+007, +6.78855522310E-001, +2.35790229487E+002
+1.54435726210E+007, +4.03256487311E-001, +2.38817856918E+002
+1.56103505843E+007, +5.49384318991E-001, +2.41597276790E+002
+1.57771285476E+007, +6.54898707676E-001, +2.44233073997E+002
+1.59439065109E+007, +6.03978630433E-001, +2.47302627388E+002
+1.61106844741E+007, +5.10854792436E-001, +2.50125446127E+002
+1.62774624374E+007, +4.31699669887E-001, +2.53119130050E+002
+1.64442404007E+007, +6.32050484127E-001, +2.56096085414E+002
+1.66110183639E+007, +6.97731520550E-001, +2.59104537220E+002
+1.67777963272E+007, +6.68611769442E-001, +2.62250432311E+002
+1.69445742905E+007, +8.67499297403E-001, +2.64827260551E+002
+1.71113522538E+007, -1.63387261023E-001, +2.67558095608E+002
+1.72781302170E+007, +3.07365663260E-001, +2.70877012788E+002
+1.74449081803E+007, +2.82601310635E-001, +2.73661128914E+002
+1.76116861436E+007, +1.17332011362E+000, +2.76905987394E+002
+1.77784641068E+007, +5.03146267105E-001, +2.79814772639E+002
+1.79452420701E+007, +9.83752931549E-001, +2.82767636359E+002
+1.81120200334E+007, +8.96067940275E-001, +2.85604879736E+002
+1.82787979967E+007, +1.25214102138E+000, +2.88960318635E+002
+1.84455759599E+007, +1.19456459876E+000, +2.92231821718E+002
+1.86123539232E+007, +1.26919908205E+000, +2.95109827283E+002
+1.87791318865E+007, +1.19013511924E+000, +2.98396552195E+002
+1.89459098497E+007, +8.22167790695E-001, +3.01504071155E+002
+1.91126878130E+007, +1.17730287373E+000, +3.03966179917E+002
+1.92794657763E+007, +1.06853844738E+000, +3.07471249266E+002
+1.94462437396E+007, +1.22021298280E+000, +3.10779906073E+002
+1.96130217028E+007, +7.06291332514E-001, +3.14488038719E+002
+1.97797996661E+007, +1.69656207794E+000, +3.17071858187E+002
+1.99465776294E+007, +1.17060976476E+000, +3.20410554172E+002
+2.01133555927E+007, +1.22582826647E+000, +3.23398408788E+002
+2.02801335559E+007, +9.76909577394E-001, +3.26747329183E+002
+2.04469115192E+007, +1.73044570047E+000, +3.30063922158E+002
+2.06136894825E+007, +1.51266557098E+000, +3.33448127946E+002
+2.07804674457E+007, +1.49424665842E+000, +3.36931801233E+002
+2.09472454090E+007, +1.16070323920E+000, +3.40415477560E+002
+2.11140233723E+007, +1.88736227608E+000, +3.42922396159E+002
+2.12808013356E+007, +1.97958045568E+000, +3.46018871681E+002
+2.14475792988E+007, +1.44265016869E+000, +3.49898368588E+002
+2.16143572621E+007, +2.61425460746E+000, +3.52680458988E+002
+2.17811352254E+007, +1.89261802140E+000, +3.56140006202E+002
+2.19479131886E+007, +2.75440686851E+000, +3.60166906095E+002
+2.21146911519E+007, +3.01495949378E+000, +3.62597646988E+002
+2.22814691152E+007, +2.08004631728E+000, +3.66598562754E+002
+2.24482470785E+007, +2.61469020199E+000, +3.70167480480E+002
+2.26150250417E+007, +3.08226876923E+000, +3.73437024444E+002
+2.27818030050E+007, +2.63706752596E+000, +3.77192108748E+002
+2.29485809683E+007, +4.08182578235E+000, +3.79895552716E+002
+2.31153589316E+007, +2.61489277628E+000, +3.84199901674E+002
+2.32821368948E+007, +3.70541365181E+000, +3.87872170155E+002
+2.34489148581E+007, +4.03986648910E+000, +3.90096652396E+002
+2.36156928214E+007, +4.04091127967E+000, +3.94829228404E+002
+2.37824707846E+007, +3.69829568348E+000, +3.98070214376E+002
+2.39492487479E+007, +3.94129345080E+000, +4.00623501613E+002
+2.41160267112E+007, +3.73512556053E+000, +4.04201305278E+002
+2.42828046745E+007, +4.12192706217E+000, +4.08332945109E+002
+2.44495826377E+007, +4.89175100433E+000, +4.12602407206E+002
+2.46163606010E+007, +4.23955769721E+000, +4.15578610301E+002
+2.47831385643E+007, +4.33875293952E+000, +4.19192312628E+002
+2.49499165275E+007, +5.58075586248E+000, +4.23787210329E+002
+2.51166944908E+007, +5.54250575129E+000, +4.26245259684E+002
+2.52834724541E+007, +5.47574430096E+000, +4.30121847064E+002
+2.54502504174E+007, +5.63882823160E+000, +4.34730790857E+002
+2.56170283806E+007, +5.52154011297E+000, +4.38170321736E+002
+2.57838063439E+007, +5.83328880829E+000, +4.42353543417E+002
+2.59505843072E+007, +6.09672957372E+000, +4.46730610483E+002
+2.61173622705E+007, +6.32458350185E+000, +4.49228300717E+002
+2.62841402337E+007, +6.47703831026E+000, +4.52707496768E+002
+2.64509181970E+007, +5.30105708650E+000, +4.56796488644E+002
+2.66176961603E+007, +6.12552381016E+000, +4.61499851174E+002
+2.67844741235E+007, +6.14033072647E+000, +4.64728677122E+002
+2.69512520868E+007, +6.67502714592E+000, +4.68614290071E+002
+2.71180300501E+007, +7.06537929447E+000, +4.71053217538E+002
+2.72848080134E+007, +7.08079264468E+000, +4.76528999605E+002
+2.74515859766E+007, +8.04964346224E+000, +4.79937633019E+002
+2.76183639399E+007, +7.08908358946E+000, +4.83603174485E+002
+2.77851419032E+007, +6.61790046013E+000, +4.88372339776E+002
+2.79519198664E+007, +7.68100138176E+000, +4.91866827395E+002
+2.81186978297E+007, +8.80580145070E+000, +4.96460410741E+002
+2.82854757930E+007, +7.97973824128E+000, +5.00112340736E+002
+2.84522537563E+007, +5.41645125982E+000, +5.04813817369E+002
+2.86190317195E+007, +6.90090187307E+000, +5.07776745041E+002
+2.87858096828E+007, +8.68925515067E+000, +5.12939216914E+002
+2.89525876461E+007, +8.97189747670E+000, +5.16978445275E+002
+2.91193656093E+007, +8.02729603386E+000, +5.18210087821E+002
+2.92861435726E+007, +7.22213772721E+000, +5.24522360758E+002
+2.94529215359E+007, +7.28762724879E+000, +5.29020644611E+002
+2.96196994992E+007, +9.21838662690E+000, +5.33828077603E+002
+2.97864774624E+007, +8.09553744788E+000, +5.37770106601E+002
+2.99532554257E+007, +9.23269277540E+000, +5.43143923737E+002
+3.01200333890E+007, +7.99265181939E+000, +5.47836104675E+002
+3.02868113523E+007, +8.24891452997E+000, +5.51469703149E+002
+3.04535893155E+007, +7.64079061939E+000, +5.57535617169E+002
+3.06203672788E+007, +8.69174455688E+000, +5.62119787677E+002
+3.07871452421E+007, +8.24295111896E+000, +5.66055852588E+002
+3.09539232053E+007, +8.78921215380E+000, +5.70093151767E+002
+3.11207011686E+007, +6.51457768560E+000, +5.76582324842E+002
+3.12874791319E+007, +8.03245403511E+000, +5.78542561935E+002
+3.14542570952E+007, +9.45562770076E+000, +5.84266271106E+002
+3.16210350584E+007, +7.00225391369E+000, +5.89146389287E+002
+3.17878130217E+007, +7.20386495013E+000, +5.94047742917E+002
+3.19545909850E+007, +7.56843204104E+000, +6.00329553250E+002
+3.21213689482E+007, +5.80816880637E+000, +6.05186737948E+002
+3.22881469115E+007, +6.00442729597E+000, +6.09949932136E+002
+3.24549248748E+007, +6.91090221353E+000, +6.16120023558E+002
+3.26217028381E+007, +5.59680167562E+000, +6.21509868452E+002
+3.27884808013E+007, +7.67957815925E+000, +6.24930739718E+002
+3.29552587646E+007, +8.11579895962E+000, +6.29627331495E+002
+3.31220367279E+007, +8.20039174563E+000, +6.36628441116E+002
+3.32888146912E+007, +7.70748002060E+000, +6.41002600593E+002
+3.34555926544E+007, +6.26564644092E+000, +6.47103860193E+002
+3.36223706177E+007, +7.66935785945E+000, +6.52224779828E+002
+3.37891485810E+007, +7.85180961229E+000, +6.55271471534E+002
+3.39559265442E+007, +8.57585682891E+000, +6.64781361377E+002
+3.41227045075E+007, +8.07905110619E+000, +6.68696988156E+002
+3.42894824708E+007, +7.70700768585E+000, +6.76081724813E+002
+3.44562604341E+007, +7.82327329551E+000, +6.81104072837E+002
+3.46230383973E+007, +9.26751690676E+000, +6.88450514725E+002
+3.47898163606E+007, +1.06757165349E+001, +6.91939184023E+002
+3.49565943239E+007, +1.04129990591E+001, +6.99948932674E+002
+3.51233722871E+007, +9.78278529841E+000, +7.05611834108E+002
+3.52901502504E+007, +1.02730185383E+001, +7.09522662198E+002
+3.54569282137E+007, +9.32434919182E+000, +7.18797546637E+002
+3.56237061770E+007, +7.55998390180E+000, +7.23219967791E+002
+3.57904841402E+007, +7.83568284552E+000, +7.30135387277E+002
+3.59572621035E+007, +8.71927833466E+000, +7.37757379739E+002
+3.61240400668E+007, +8.07050831168E+000, +7.43675458525E+002
+3.62908180301E+007, +8.84102998592E+000, +7.50376430711E+002
+3.64575959933E+007, +9.64268227153E+000, +7.59854959820E+002
+3.66243739566E+007, +1.16513890231E+001, +7.62174306481E+002
+3.67911519199E+007, +1.00250513068E+001, +7.69894407634E+002
+3.69579298831E+007, +9.56348973867E+000, +7.75655367306E+002
+3.71247078464E+007, +8.93187845832E+000, +7.85691333400E+002
+3.72914858097E+007, +8.67537768832E+000, +7.95849600212E+002
+3.74582637730E+007, +1.09086663477E+001, +8.01097812095E+002
+3.76250417362E+007, +1.11189068341E+001, +8.07890584570E+002
+3.77918196995E+007, +1.02373888600E+001, +8.15796514744E+002
+3.79585976628E+007, +8.38093691581E+000, +8.21310723333E+002
+3.81253756260E+007, +1.45586693495E+001, +8.29237583219E+002
+3.82921535893E+007, +1.14062453697E+001, +8.33694815398E+002
+3.84589315526E+007, +1.10957562481E+001, +8.45074259750E+002
+3.86257095159E+007, +1.01515565466E+001, +8.52981917522E+002
+3.87924874791E+007, +1.13637102672E+001, +8.62045243518E+002
+3.89592654424E+007, +1.08699050126E+001, +8.68519905875E+002
+3.91260434057E+007, +1.22186555020E+001, +8.77291645283E+002
+3.92928213689E+007, +1.55044420131E+001, +8.88816759402E+002
+3.94595993322E+007, +1.24723853912E+001, +8.95245270267E+002
+3.96263772955E+007, +1.10623737778E+001, +9.04438263831E+002
+3.97931552588E+007, +1.14655198026E+001, +9.11720013857E+002
+3.99599332220E+007, +1.14027327780E+001, +9.20994566350E+002
+4.01267111853E+007, +1.35018810322E+001, +9.29770155066E+002
+4.02934891486E+007, +9.73493271317E+000, +9.39634614044E+002
+4.04602671119E+007, +1.56130117528E+001, +9.49598433670E+002
+4.06270450751E+007, +1.78657629976E+001, +9.58340237504E+002
+4.07938230384E+007, +1.44122949057E+001, +9.69450429366E+002
+4.09606010017E+007, +1.67871452085E+001, +9.76728499593E+002
+4.11273789649E+007, +1.38000124810E+001, +9.87966096490E+002
+4.12941569282E+007, +1.57491423647E+001, +9.99050165479E+002
+4.14609348915E+007, +1.67026830106E+001, +1.01121329203E+003
+4.16277128548E+007, +1.90832935913E+001, +1.02061244433E+003
+4.17944908180E+007, +1.81688436549E+001, +1.02955715472E+003
+4.19612687813E+007, +1.92762689356E+001, +1.04183199272E+003
+4.21280467446E+007, +1.72272219559E+001, +1.05022906138E+003
+4.22948247078E+007, +1.64135622599E+001, +1.06126352060E+003
+4.24616026711E+007, +2.03509478204E+001, +1.07274481851E+003
+4.26283806344E+007, +1.96905425124E+001, +1.08723447996E+003
+4.27951585977E+007, +1.00913713506E+001, +1.10368604722E+003
+4.29619365609E+007, +2.36082504729E+001, +1.11643591849E+003
+4.31287145242E+007, +2.43110447062E+001, +1.12317916114E+003
+4.32954924875E+007, +2.46322133476E+001, +1.13315952976E+003
+4.34622704508E+007, +1.78295200784E+001, +1.15259169994E+003
+4.36290484140E+007, +2.50080930265E+001, +1.15587918009E+003
+4.37958263773E+007, +2.41493931872E+001, +1.17760464446E+003
+4.39626043406E+007, +2.49915880130E+001, +1.18160952717E+003
+4.41293823038E+007, +3.10435144099E+001, +1.20558953530E+003
+4.42961602671E+007, +2.58723071397E+001, +1.21342943615E+003
+4.44629382304E+007, +2.95962996433E+001, +1.23005300039E+003
+4.46297161937E+007, +3.05946395886E+001, +1.23971886113E+003
+4.47964941569E+007, +2.93462414820E+001, +1.26420161965E+003
+4.49632721202E+007, +3.08138656188E+001, +1.27959970496E+003
+4.51300500835E+007, +3.37167553054E+001, +1.28798823166E+003
+4.52968280467E+007, +3.63428490516E+001, +1.30794104933E+003
+4.54636060100E+007, +4.30961762393E+001, +1.32784925023E+003
+4.56303839733E+007, +3.20342460244E+001, +1.34529176587E+003
+4.57971619366E+007, +3.58925526188E+001, +1.36636052020E+003
+4.59639398998E+007, +2.93911057469E+001, +1.39308988520E+003
+4.61307178631E+007, +3.96626584201E+001, +1.40550658397E+003
+4.62974958264E+007, +4.50906604482E+001, +1.42800148864E+003
+4.64642737896E+007, +4.56612579128E+001, +1.43569168927E+003
+4.66310517529E+007, +4.41725500561E+001, +1.46406927644E+003
+4.67978297162E+007, +5.50881672057E+001, +1.47332016155E+003
+4.69646076795E+007, +4.42422812798E+001, +1.50313133146E+003
+4.71313856427E+007, +5.98995343436E+001, +1.52395171671E+003
+4.72981636060E+007, +5.52589212709E+001, +1.56119402852E+003
+4.74649415693E+007, +5.73061385449E+001, +1.57260923285E+003
+4.76317195326E+007, +7.67759753211E+001, +1.60301305532E+003
+4.77984974958E+007, +6.95845009826E+001, +1.62891370238E+003
+4.79652754591E+007, +6.94863048016E+001, +1.65579939099E+003
+4.81320534224E+007, +7.54466729431E+001, +1.67341440616E+003
+4.82988313856E+007, +8.74048662737E+001, +1.69390991495E+003
+4.84656093489E+007, +9.75509609749E+001, +1.73004030934E+003
+4.86323873122E+007, +9.71547838679E+001, +1.73335619801E+003
+4.87991652755E+007, +1.12009066740E+002, +1.78554932339E+003
+4.89659432387E+007, +1.05375056376E+002, +1.80803981978E+003
+4.91327212020E+007, +1.09334789885E+002, +1.82905885553E+003
+4.92994991653E+007, +1.31157988442E+002, +1.85533542248E+003
+4.94662771285E+007, +1.47563589175E+002, +1.89550628059E+003
+4.96330550918E+007, +1.62572496952E+002, +1.93465680366E+003
+4.97998330551E+007, +1.59377744710E+002, +1.95396138075E+003
+4.99666110184E+007, +1.60916603220E+002, +1.99993091054E+003
+5.01333889816E+007, +1.83682635589E+002, +2.01411134032E+003
+5.03001669449E+007, +1.66726881227E+002, +2.06351419561E+003
+5.04669449082E+007, +1.83334922395E+002, +2.10496004225E+003
+5.06337228715E+007, +2.19965826005E+002, +2.13932889748E+003
+5.08005008347E+007, +1.81134949052E+002, +2.16156053006E+003
+5.09672787980E+007, +2.06479473366E+002, +2.21156243341E+003
+5.11340567613E+007, +2.27009940857E+002, +2.27187283286E+003
+5.13008347245E+007, +1.97696821583E+002, +2.33692181089E+003
+5.14676126878E+007, +2.27453217015E+002, +2.34744544618E+003
+5.16343906511E+007, +2.60380156763E+002, +2.41520110624E+003
+5.18011686144E+007, +2.56530723248E+002, +2.46630162839E+003
+5.19679465776E+007, +2.67757812605E+002, +2.54574861997E+003
+5.21347245409E+007, +3.00000262127E+002, +2.59139660232E+003
+5.23015025042E+007, +3.47604096879E+002, +2.70562794886E+003
+5.24682804674E+007, +3.18570642989E+002, +2.74943647113E+003
+5.26350584307E+007, +3.63728798279E+002, +2.80006032222E+003
+5.28018363940E+007, +3.51692595182E+002, +2.89476662652E+003
+5.29686143573E+007, +4.26908559615E+002, +2.99249666349E+003
+5.31353923205E+007, +4.24863929318E+002, +3.03003227325E+003
+5.33021702838E+007, +4.41062097206E+002, +3.13022477050E+003
+5.34689482471E+007, +5.31834073377E+002, +3.21192936670E+003
