"# Channel 1"
"# Trace 1"
Frequency, Formatted Data, Formatted Data
+1.00000000000E+005, +3.07757977377E+002, -6.09480361676E+000
+2.25031289111E+005, +3.05847493204E+002, +4.43889233249E+000
+3.50062578223E+005, +3.04198962728E+002, +6.36711735437E+000
+4.75093867334E+005, +3.05777506153E+002, +8.64269972532E+000
+6.00125156446E+005, +3.05183152036E+002, +1.02871089351E+001
+7.25156445557E+005, +3.04685197344E+002, +1.15455569052E+001
+8.50187734668E+005, +3.05166750848E+002, +1.53733758713E+001
+9.75219023780E+005, +3.06170822721E+002, +1.71106745539E+001
+1.10025031289E+006, +3.05711095856E+002, +1.81060413407E+001
+1.22528160200E+006, +3.06802418522E+002, +2.07324868823E+001
+1.35031289111E+006, +3.06442560740E+002, +2.32083966085E+001
+1.47534418023E+006, +3.06260475769E+002, +2.57793491188E+001
+1.60037546934E+006, +3.06841590546E+002, +2.60821227437E+001
+1.72540675845E+006, +3.07051944301E+002, +2.88602422338E+001
+1.85043804756E+006, +3.06686446783E+002, +3.10879073985E+001
+1.97546933667E+006, +3.07350640113E+002, +3.29831959695E+001
+2.10050062578E+006, +3.07300601004E+002, +3.56705430574E+001
+2.22553191489E+006, +3.07338993387E+002, +3.78074084324E+001
+2.35056320401E+006, +3.08212357312E+002, +3.99896112867E+001
+2.47559449312E+006, +3.08458198676E+002, +4.10256785631E+001
+2.60062578223E+006, +3.08445939838E+002, +4.37234859344E+001
+2.72565707134E+006, +3.07216204106E+002, +4.54257213511E+001
+2.85068836045E+006, +3.08204595951E+002, +4.74770490897E+001
+2.97571964956E+006, +3.07200943499E+002, +4.98475424512E+001
+3.10075093867E+006, +3.07803807974E+002, +5.09159034141E+001
+3.22578222778E+006, +3.07441684606E+002, +5.34907837307E+001
+3.35081351690E+006, +3.07635143727E+002, +5.59322091499E+001
+3.47584480601E+006, +3.07215476278E+002, +5.71893887628E+001
+3.60087609512E+006, +3.07971938146E+002, +5.92263440275E+001
+3.72590738423E+006, +3.06903041080E+002, +6.17779133166E+001
+3.85093867334E+006, +3.07367339684E+002, +6.27975239428E+001
+3.97596996245E+006, +3.06426814222E+002, +6.54295586943E+001
+4.10100125156E+006, +3.08475630595E+002, +7.04133845662E+001
+4.22603254068E+006, +3.08895603893E+002, +6.98894326370E+001
+4.35106382979E+006, +3.07996873086E+002, +7.14866590289E+001
+4.47609511890E+006, +3.09326396953E+002, +7.28369824276E+001
+4.60112640801E+006, +3.10548793713E+002, +7.50724308241E+001
+4.72615769712E+006, +3.10379725768E+002, +7.83054874505E+001
+4.85118898623E+006, +3.10000645769E+002, +8.01716141190E+001
+4.97622027534E+006, +3.09225168044E+002, +8.17419735420E+001
+5.10125156446E+006, +3.11025868162E+002, +8.43466414228E+001
+5.22628285357E+006, +3.10720848778E+002, +8.45651330642E+001
+5.35131414268E+006, +3.09992877286E+002, +8.69011950869E+001
+5.47634543179E+006, +3.10264636411E+002, +8.90873854034E+001
+5.60137672090E+006, +3.09383266973E+002, +9.20947735381E+001
+5.72640801001E+006, +3.10462999145E+002, +9.30072613157E+001
+5.85143929912E+006, +3.10606553946E+002, +9.58972227585E+001
+5.97647058824E+006, +3.09634907450E+002, +9.86028030746E+001
+6.10150187735E+006, +3.11188339999E+002, +9.99236013141E+001
+6.22653316646E+006, +3.10695292065E+002, +1.01760367330E+002
+6.35156445557E+006, +3.11333051045E+002, +1.03910698344E+002
+6.47659574468E+006, +3.10756834807E+002, +1.06075854874E+002
+6.60162703379E+006, +3.11926264910E+002, +1.07978680203E+002
+6.72665832290E+006, +3.11427280656E+002, +1.09793366868E+002
+6.85168961202E+006, +3.11293862634E+002, +1.11200445529E+002
+6.97672090113E+006, +3.11790429718E+002, +1.14018561317E+002
+7.10175219024E+006, +3.12358190802E+002, +1.15511014946E+002
+7.22678347935E+006, +3.12751415403E+002, +1.17994617159E+002
+7.35181476846E+006, +3.12439439603E+002, +1.19979937557E+002
+7.47684605757E+006, +3.12537494510E+002, +1.22161742987E+002
+7.60187734668E+006, +3.12510339445E+002, +1.23876983907E+002
+7.72690863579E+006, +3.13181925994E+002, +1.26750781008E+002
+7.85193992491E+006, +3.12418803126E+002, +1.28132474534E+002
+7.97697121402E+006, +3.13328750769E+002, +1.29768935004E+002
+8.10200250313E+006, +3.13167966052E+002, +1.32210682148E+002
+8.22703379224E+006, +3.13246783667E+002, +1.35177729405E+002
+8.35206508135E+006, +3.14105779011E+002, +1.36952796438E+002
+8.47709637046E+006, +3.14004739995E+002, +1.38606389581E+002
+8.60212765957E+006, +3.14544525594E+002, +1.41094936076E+002
+8.72715894869E+006, +3.14592199570E+002, +1.43248298151E+002
+8.85219023780E+006, +3.14519884112E+002, +1.45750730747E+002
+8.97722152691E+006, +3.14821698058E+002, +1.46990033670E+002
+9.10225281602E+006, +3.16025720444E+002, +1.49573282444E+002
+9.22728410513E+006, +3.15613582304E+002, +1.51394716981E+002
+9.35231539424E+006, +3.15822365447E+002, +1.53053507614E+002
+9.47734668335E+006, +3.15807646138E+002, +1.55664198177E+002
+9.60237797247E+006, +3.15997869469E+002, +1.57773367740E+002
+9.72740926158E+006, +3.16902278006E+002, +1.59416309634E+002
+9.85244055069E+006, +3.17615083736E+002, +1.61591936573E+002
+9.97747183980E+006, +3.17675647309E+002, +1.63913872731E+002
+1.01025031289E+007, +3.17864666343E+002, +1.66562330449E+002
+1.02275344180E+007, +3.18916524067E+002, +1.67839960437E+002
+1.03525657071E+007, +3.18789123419E+002, +1.71159148417E+002
+1.04775969962E+007, +3.18408773967E+002, +1.72976545108E+002
+1.06026282854E+007, +3.20098999621E+002, +1.74944413915E+002
+1.07276595745E+007, +3.20195488268E+002, +1.77191093420E+002
+1.08526908636E+007, +3.20669095195E+002, +1.79808139119E+002
+1.09777221527E+007, +3.20343921249E+002, +1.80122658430E+002
+1.11027534418E+007, +3.20364803958E+002, +1.83416810134E+002
+1.12277847309E+007, +3.22040112160E+002, +1.85343368120E+002
+1.13528160200E+007, +3.21827544087E+002, +1.87113943489E+002
+1.14778473091E+007, +3.22444043386E+002, +1.90097345529E+002
+1.16028785982E+007, +3.23159980835E+002, +1.92465315334E+002
+1.17279098874E+007, +3.23750913261E+002, +1.93663464453E+002
+1.18529411765E+007, +3.23215260010E+002, +1.95974482892E+002
+1.19779724656E+007, +3.23408445448E+002, +1.98922375682E+002
+1.21030037547E+007, +3.24021397312E+002, +2.00509471031E+002
+1.22280350438E+007, +3.25389114751E+002, +2.02744538029E+002
+1.23530663329E+007, +3.25083154822E+002, +2.04396763103E+002
+1.24780976220E+007, +3.25099867817E+002, +2.07212617814E+002
+1.26031289111E+007, +3.25487831136E+002, +2.09152609441E+002
+1.27281602003E+007, +3.26452807849E+002, +2.11676694001E+002
+1.28531914894E+007, +3.26175401343E+002, +2.13848204514E+002
+1.29782227785E+007, +3.26548171848E+002, +2.15557833051E+002
+1.31032540676E+007, +3.27186806254E+002, +2.17422877670E+002
+1.32282853567E+007, +3.27497087958E+002, +2.20513233166E+002
+1.33533166458E+007, +3.28120133606E+002, +2.22392202995E+002
+1.34783479349E+007, +3.29576263169E+002, +2.24765105398E+002
+1.36033792240E+007, +3.29895498948E+002, +2.26515219104E+002
+1.37284105131E+007, +3.29947815329E+002, +2.29404292667E+002
+1.38534418023E+007, +3.30796266363E+002, +2.30954645443E+002
+1.39784730914E+007, +3.30253719400E+002, +2.33936892274E+002
+1.41035043805E+007, +3.31056188298E+002, +2.35921450845E+002
+1.42285356696E+007, +3.31597373726E+002, +2.37531278539E+002
+1.43535669587E+007, +3.32171102053E+002, +2.39655635006E+002
+1.44785982478E+007, +3.32297572801E+002, +2.41977645843E+002
+1.46036295369E+007, +3.33110338793E+002, +2.44047942744E+002
+1.47286608260E+007, +3.33572852459E+002, +2.46537976995E+002
+1.48536921151E+007, +3.32950942305E+002, +2.49178714062E+002
+1.49787234043E+007, +3.33825449304E+002, +2.50962246516E+002
+1.51037546934E+007, +3.34723805110E+002, +2.54227442395E+002
+1.52287859825E+007, +3.35497103758E+002, +2.56938475839E+002
+1.53538172716E+007, +3.35665946565E+002, +2.57916805570E+002
+1.54788485607E+007, +3.37015579759E+002, +2.60145893313E+002
+1.56038798498E+007, +3.37267225500E+002, +2.62510847096E+002
+1.57289111389E+007, +3.36602118139E+002, +2.64973539885E+002
+1.58539424280E+007, +3.36411662590E+002, +2.67551590167E+002
+1.59789737171E+007, +3.38170413177E+002, +2.69601785358E+002
+1.61040050063E+007, +3.39442770569E+002, +2.71369647959E+002
+1.62290362954E+007, +3.40050139518E+002, +2.74298220689E+002
+1.63540675845E+007, +3.39326830762E+002, +2.76543909538E+002
+1.64790988736E+007, +3.39864823301E+002, +2.78820446649E+002
+1.66041301627E+007, +3.41073666632E+002, +2.82290978794E+002
+1.67291614518E+007, +3.42336664914E+002, +2.84660545003E+002
+1.68541927409E+007, +3.42717986730E+002, +2.85795355098E+002
+1.69792240300E+007, +3.42913352729E+002, +2.88824010664E+002
+1.71042553191E+007, +3.43309346787E+002, +2.92973941186E+002
+1.72292866083E+007, +3.44105954251E+002, +2.94887688603E+002
+1.73543178974E+007, +3.45065054694E+002, +2.95343828338E+002
+1.74793491865E+007, +3.46025863002E+002, +2.98382411004E+002
+1.76043804756E+007, +3.46305528007E+002, +3.00377506479E+002
+1.77294117647E+007, +3.47497840724E+002, +3.03791497008E+002
+1.78544430538E+007, +3.46799724313E+002, +3.05726784413E+002
+1.79794743429E+007, +3.46902290159E+002, +3.07904138834E+002
+1.81045056320E+007, +3.49028380250E+002, +3.09063711357E+002
+1.82295369212E+007, +3.49770537691E+002, +3.12294481883E+002
+1.83545682103E+007, +3.50838319291E+002, +3.14920333777E+002
+1.84795994994E+007, +3.50583925642E+002, +3.17235856188E+002
+1.86046307885E+007, +3.52045831670E+002, +3.18430889503E+002
+1.87296620776E+007, +3.51627748679E+002, +3.22100687450E+002
+1.88546933667E+007, +3.53362483780E+002, +3.24056019071E+002
+1.89797246558E+007, +3.54711839108E+002, +3.27495372998E+002
+1.91047559449E+007, +3.55107110398E+002, +3.27930771026E+002
+1.92297872340E+007, +3.54607010984E+002, +3.31413411456E+002
+1.93548185232E+007, +3.55375853130E+002, +3.34402013776E+002
+1.94798498123E+007, +3.57095073882E+002, +3.35817251966E+002
+1.96048811014E+007, +3.58607224012E+002, +3.39893341061E+002
+1.97299123905E+007, +3.58543119413E+002, +3.40468125443E+002
+1.98549436796E+007, +3.59745701565E+002, +3.44305136547E+002
+1.99799749687E+007, +3.60082981282E+002, +3.47270746648E+002
+2.01050062578E+007, +3.59591161094E+002, +3.48512449808E+002
+2.02300375469E+007, +3.61592313739E+002, +3.50163830978E+002
+2.03550688360E+007, +3.62417541895E+002, +3.53880984510E+002
+2.04801001252E+007, +3.64126046152E+002, +3.56387458338E+002
+2.06051314143E+007, +3.63294326380E+002, +3.59503248249E+002
+2.07301627034E+007, +3.63344146799E+002, +3.62033954230E+002
+2.08551939925E+007, +3.65472084897E+002, +3.63947103444E+002
+2.09802252816E+007, +3.64516014419E+002, +3.66141378080E+002
+2.11052565707E+007, +3.65191805788E+002, +3.68271782462E+002
+2.12302878598E+007, +3.67561971379E+002, +3.71451022147E+002
+2.13553191489E+007, +3.67626201571E+002, +3.73292639676E+002
+2.14803504380E+007, +3.68725800757E+002, +3.76908941799E+002
+2.16053817272E+007, +3.69453212120E+002, +3.79141580440E+002
+2.17304130163E+007, +3.70612203174E+002, +3.81013569322E+002
+2.18554443054E+007, +3.70988655570E+002, +3.84543190914E+002
+2.19804755945E+007, +3.72993607352E+002, +3.88782826467E+002
+2.21055068836E+007, +3.73955222712E+002, +3.89461191071E+002
+2.22305381727E+007, +3.74768736486E+002, +3.91087569584E+002
+2.23555694618E+007, +3.74580134836E+002, +3.95071050318E+002
+2.24806007509E+007, +3.75083853442E+002, +3.96875991621E+002
+2.26056320401E+007, +3.76866861367E+002, +4.00607110701E+002
+2.27306633292E+007, +3.78327515629E+002, +4.03169463434E+002
+2.28556946183E+007, +3.78839814708E+002, +4.06959412176E+002
+2.29807259074E+007, +3.80874959267E+002, +4.07246793795E+002
+2.31057571965E+007, +3.81955065161E+002, +4.10602448380E+002
+2.32307884856E+007, +3.82770948502E+002, +4.12051460732E+002
+2.33558197747E+007, +3.82356610824E+002, +4.14286750461E+002
+2.34808510638E+007, +3.82806237346E+002, +4.18291526625E+002
+2.36058823529E+007, +3.84921092782E+002, +4.20909822939E+002
+2.37309136421E+007, +3.86498096869E+002, +4.25842216122E+002
+2.38559449312E+007, +3.88060276269E+002, +4.26842452164E+002
+2.39809762203E+007, +3.88665675219E+002, +4.27602918692E+002
+2.41060075094E+007, +3.88376202168E+002, +4.32819718486E+002
+2.42310387985E+007, +3.89621112614E+002, +4.34143709308E+002
+2.43560700876E+007, +3.90911591544E+002, +4.38914590378E+002
+2.44811013767E+007, +3.93689109235E+002, +4.39466637081E+002
+2.46061326658E+007, +3.92097064317E+002, +4.42687496741E+002
+2.47311639549E+007, +3.95250436954E+002, +4.44431579724E+002
+2.48561952441E+007, +3.95253348353E+002, +4.48668420726E+002
+2.49812265332E+007, +3.97040016900E+002, +4.51786111071E+002
+2.51062578223E+007, +3.99052985459E+002, +4.55178815533E+002
+2.52312891114E+007, +4.00558617342E+002, +4.57559211061E+002
+2.53563204005E+007, +3.99786947848E+002, +4.60435192941E+002
+2.54813516896E+007, +4.01495636731E+002, +4.61958660996E+002
+2.56063829787E+007, +4.03084798866E+002, +4.65220151274E+002
+2.57314142678E+007, +4.03036784294E+002, +4.70409662376E+002
+2.58564455569E+007, +4.04796731271E+002, +4.72122167056E+002
+2.59814768461E+007, +4.07363131342E+002, +4.73184231993E+002
+2.61065081352E+007, +4.09226822478E+002, +4.76285198280E+002
+2.62315394243E+007, +4.12275717548E+002, +4.81953491756E+002
+2.63565707134E+007, +4.10409720147E+002, +4.83891271538E+002
+2.64816020025E+007, +4.11783069551E+002, +4.86442403407E+002
+2.66066332916E+007, +4.12151976506E+002, +4.88094849739E+002
+2.67316645807E+007, +4.13630373860E+002, +4.90847337683E+002
+2.68566958698E+007, +4.14759560747E+002, +4.95620319940E+002
+2.69817271589E+007, +4.14845077635E+002, +4.97307971052E+002
+2.71067584481E+007, +4.18615245638E+002, +5.01333866540E+002
+2.72317897372E+007, +4.20852198549E+002, +5.03833386190E+002
+2.73568210263E+007, +4.19929991489E+002, +5.08366004332E+002
+2.74818523154E+007, +4.21142972569E+002, +5.12222457985E+002
+2.76068836045E+007, +4.22943925260E+002, +5.09633546809E+002
+2.77319148936E+007, +4.24520999328E+002, +5.17422827163E+002
+2.78569461827E+007, +4.26606549533E+002, +5.17474700904E+002
+2.79819774718E+007, +4.27741425548E+002, +5.22045068668E+002
+2.81070087610E+007, +4.28814813900E+002, +5.27752003611E+002
+2.82320400501E+007, +4.31337534958E+002, +5.27696597067E+002
+2.83570713392E+007, +4.31311894904E+002, +5.29677766867E+002
+2.84821026283E+007, +4.33839191991E+002, +5.34437677620E+002
+2.86071339174E+007, +4.35357620648E+002, +5.36764397118E+002
+2.87321652065E+007, +4.36943532807E+002, +5.39253417209E+002
+2.88571964956E+007, +4.39849107351E+002, +5.45871867293E+002
+2.89822277847E+007, +4.40959746824E+002, +5.49674927315E+002
+2.91072590738E+007, +4.40717274642E+002, +5.51086232450E+002
+2.92322903630E+007, +4.41905922207E+002, +5.53124417615E+002
+2.93573216521E+007, +4.45494534505E+002, +5.59290820979E+002
+2.94823529412E+007, +4.44412677500E+002, +5.59544831884E+002
+2.96073842303E+007, +4.45297155580E+002, +5.62912876831E+002
+2.97324155194E+007, +4.48336260580E+002, +5.66247190018E+002
+2.98574468085E+007, +4.51175287188E+002, +5.73646959291E+002
+2.99824780976E+007, +4.52156679462E+002, +5.75211887479E+002
+3.01075093867E+007, +4.54667277525E+002, +5.76382288989E+002
+3.02325406758E+007, +4.56764410857E+002, +5.80673182544E+002
+3.03575719650E+007, +4.59204284249E+002, +5.83224451127E+002
+3.04826032541E+007, +4.57606363119E+002, +5.87185256728E+002
+3.06076345432E+007, +4.60905746241E+002, +5.91645091981E+002
+3.07326658323E+007, +4.65738243923E+002, +5.94986230582E+002
+3.08576971214E+007, +4.64527421545E+002, +5.96577385206E+002
+3.09827284105E+007, +4.68999091060E+002, +6.01501975298E+002
+3.11077596996E+007, +4.70543665594E+002, +6.04040065256E+002
+3.12327909887E+007, +4.69339281081E+002, +6.10334678906E+002
+3.13578222778E+007, +4.70666334659E+002, +6.11974154173E+002
+3.14828535670E+007, +4.74844304481E+002, +6.13288517968E+002
+3.16078848561E+007, +4.76016103466E+002, +6.21462622290E+002
+3.17329161452E+007, +4.79421435256E+002, +6.21775758983E+002
+3.18579474343E+007, +4.79486602769E+002, +6.24842029767E+002
+3.19829787234E+007, +4.81943678904E+002, +6.32191444744E+002
+3.21080100125E+007, +4.84889231029E+002, +6.31987061129E+002
+3.22330413016E+007, +4.85831068612E+002, +6.39243128215E+002
+3.23580725907E+007, +4.90296929234E+002, +6.43260509584E+002
+3.24831038798E+007, +4.91057562549E+002, +6.48222402191E+002
+3.26081351690E+007, +4.90441227097E+002, +6.50148682014E+002
+3.27331664581E+007, +4.93529215068E+002, +6.53528339549E+002
+3.28581977472E+007, +4.97555412984E+002, +6.56767184339E+002
+3.29832290363E+007, +4.99837267057E+002, +6.61582507709E+002
+3.31082603254E+007, +5.01129972118E+002, +6.63447389677E+002
+3.32332916145E+007, +5.03809523755E+002, +6.66929328496E+002
+3.33583229036E+007, +5.02531564456E+002, +6.69203716705E+002
+3.34833541927E+007, +5.06920469899E+002, +6.76283916926E+002
+3.36083854819E+007, +5.09478929872E+002, +6.77880394233E+002
+3.37334167710E+007, +5.13965728472E+002, +6.82719847107E+002
+3.38584480601E+007, +5.13732566366E+002, +6.86746616219E+002
+3.39834793492E+007, +5.18665068757E+002, +6.89652478422E+002
+3.41085106383E+007, +5.19932668578E+002, +6.94127132267E+002
+3.42335419274E+007, +5.21278512936E+002, +7.01447909018E+002
+3.43585732165E+007, +5.25805152393E+002, +7.00795458353E+002
+3.44836045056E+007, +5.24119523759E+002, +7.07739573055E+002
+3.46086357947E+007, +5.30828996595E+002, +7.13146330331E+002
+3.47336670839E+007, +5.34440016002E+002, +7.15634689896E+002
+3.48586983730E+007, +5.31549619173E+002, +7.22469984213E+002
+3.49837296621E+007, +5.40508969573E+002, +7.22156313384E+002
+3.51087609512E+007, +5.39917797356E+002, +7.28340863906E+002
+3.52337922403E+007, +5.47556479547E+002, +7.33398995729E+002
+3.53588235294E+007, +5.49051419132E+002, +7.30742060453E+002
+3.54838548185E+007, +5.48477327474E+002, +7.38364164717E+002
+3.56088861076E+007, +5.48840392274E+002, +7.42825083568E+002
+3.57339173967E+007, +5.54479423110E+002, +7.45496895579E+002
+3.58589486859E+007, +5.59735416135E+002, +7.50806733415E+002
+3.59839799750E+007, +5.60162731927E+002, +7.55193502916E+002
+3.61090112641E+007, +5.62855556604E+002, +7.59814661559E+002
+3.62340425532E+007, +5.67925777776E+002, +7.60806335114E+002
+3.63590738423E+007, +5.73168440369E+002, +7.68932684557E+002
+3.64841051314E+007, +5.71702633093E+002, +7.70029796706E+002
+3.66091364205E+007, +5.76695233078E+002, +7.75011316166E+002
+3.67341677096E+007, +5.80023576132E+002, +7.77479147250E+002
+3.68591989987E+007, +5.84207071584E+002, +7.88228688733E+002
+3.69842302879E+007, +5.85713585510E+002, +7.91390611665E+002
+3.71092615770E+007, +5.93203002374E+002, +7.94341679176E+002
+3.72342928661E+007, +5.91216869720E+002, +7.96465037879E+002
+3.73593241552E+007, +5.94519166005E+002, +8.05440714921E+002
+3.74843554443E+007, +5.98068992745E+002, +8.07491766701E+002
+3.76093867334E+007, +6.04318628474E+002, +8.10427681663E+002
+3.77344180225E+007, +6.06578948221E+002, +8.15696762838E+002
+3.78594493116E+007, +6.13648768220E+002, +8.21538470693E+002
+3.79844806008E+007, +6.15480282962E+002, +8.26691010440E+002
+3.81095118899E+007, +6.17152390570E+002, +8.33657809575E+002
+3.82345431790E+007, +6.23144416780E+002, +8.31621401669E+002
+3.83595744681E+007, +6.27339626323E+002, +8.42525489225E+002
+3.84846057572E+007, +6.28745563996E+002, +8.41726435218E+002
+3.86096370463E+007, +6.33004909161E+002, +8.50574577568E+002
+3.87346683354E+007, +6.37299143398E+002, +8.45659176042E+002
+3.88596996245E+007, +6.44870440107E+002, +8.56614736154E+002
+3.89847309136E+007, +6.48402429869E+002, +8.62245732860E+002
+3.91097622028E+007, +6.48229251792E+002, +8.62866453079E+002
+3.92347934919E+007, +6.51881855059E+002, +8.68777879354E+002
+3.93598247810E+007, +6.60524885780E+002, +8.77413806740E+002
+3.94848560701E+007, +6.62044016419E+002, +8.85215993250E+002
+3.96098873592E+007, +6.66028416982E+002, +8.85368939638E+002
+3.97349186483E+007, +6.75279644086E+002, +8.87254985306E+002
+3.98599499374E+007, +6.76834393172E+002, +8.98332740416E+002
+3.99849812265E+007, +6.82979395509E+002, +9.01619680411E+002
+4.01100125156E+007, +6.88148466252E+002, +9.06758759750E+002
