"# Channel 1"
"# Trace 1"
Frequency, Formatted Data, Formatted Data
+1.00000000000E+005, +3.29149336207E+001, +1.60594895545E+000
+2.25031289111E+005, +3.28702671046E+001, +3.83170563385E+000
+3.50062578223E+005, +3.28711367467E+001, +5.92276515328E+000
+4.75093867334E+005, +3.29091356855E+001, +8.03463449174E+000
+6.00125156446E+005, +3.28642922128E+001, +1.01544092147E+001
+7.25156445557E+005, +3.29195729187E+001, +1.22591096434E+001
+8.50187734668E+005, +3.29081260604E+001, +1.43861110083E+001
+9.75219023780E+005, +3.29096656310E+001, +1.64618252600E+001
+1.10025031289E+006, +3.28475225862E+001, +1.85835175218E+001
+1.22528160200E+006, +3.28994519992E+001, +2.06572797603E+001
+1.35031289111E+006, +3.29187392793E+001, +2.27812518360E+001
+1.47534418023E+006, +3.28985559710E+001, +2.48914210862E+001
+1.60037546934E+006, +3.29168241314E+001, +2.69603369517E+001
+1.72540675845E+006, +3.28547154725E+001, +2.90722625408E+001
+1.85043804756E+006, +3.28890817502E+001, +3.11292202589E+001
+1.97546933667E+006, +3.29159689926E+001, +3.32952539533E+001
+2.10050062578E+006, +3.28685675309E+001, +3.53101972459E+001
+2.22553191489E+006, +3.28572856931E+001, +3.74106359428E+001
+2.35056320401E+006, +3.28815532524E+001, +3.95023210638E+001
+2.47559449312E+006, +3.28967016380E+001, +4.16021346912E+001
+2.60062578223E+006, +3.27967569376E+001, +4.37117485384E+001
+2.72565707134E+006, +3.28205417928E+001, +4.57772317361E+001
+2.85068836045E+006, +3.27768184408E+001, +4.79501277262E+001
+2.97571964956E+006, +3.29248687195E+001, +4.99936960747E+001
+3.10075093867E+006, +3.28194747547E+001, +5.21524240034E+001
+3.22578222778E+006, +3.28706814918E+001, +5.42139801661E+001
+3.35081351690E+006, +3.29218923114E+001, +5.63133764464E+001
+3.47584480601E+006, +3.29829170218E+001, +5.83783256966E+001
+3.60087609512E+006, +3.28770713135E+001, +6.05721925180E+001
+3.72590738423E+006, +3.28829957484E+001, +6.26327397987E+001
+3.85093867334E+006, +3.29537497204E+001, +6.47117116882E+001
+3.97596996245E+006, +3.28686376738E+001, +6.67477172436E+001
+4.10100125156E+006, +3.29921004782E+001, +6.89170217984E+001
+4.22603254068E+006, +3.28442833693E+001, +7.10528145788E+001
+4.35106382979E+006, +3.27459016094E+001, +7.30555340550E+001
+4.47609511890E+006, +3.27436398986E+001, +7.52736417628E+001
+4.60112640801E+006, +3.27453385708E+001, +7.74129897913E+001
+4.72615769712E+006, +3.29791959506E+001, +7.93994257907E+001
+4.85118898623E+006, +3.29518627550E+001, +8.15792884026E+001
+4.97622027534E+006, +3.28946465615E+001, +8.37199513343E+001
+5.10125156446E+006, +3.29122919632E+001, +8.57739682930E+001
+5.22628285357E+006, +3.29672158752E+001, +8.78345874747E+001
+5.35131414268E+006, +3.28617144838E+001, +9.00400580851E+001
+5.47634543179E+006, +3.28404118953E+001, +9.22375978660E+001
+5.60137672090E+006, +3.29038334286E+001, +9.43329822780E+001
+5.72640801001E+006, +3.29564198546E+001, +9.63001482867E+001
+5.85143929912E+006, +3.30543113087E+001, +9.84728336660E+001
+5.97647058824E+006, +3.30611892819E+001, +1.00519736491E+002
+6.10150187735E+006, +3.30020301119E+001, +1.02557549031E+002
+6.22653316646E+006, +3.30348486688E+001, +1.04814600427E+002
+6.35156445557E+006, +3.29749576640E+001, +1.06858450667E+002
+6.47659574468E+006, +3.30131528946E+001, +1.09018438195E+002
+6.60162703379E+006, +3.30933150028E+001, +1.11128375296E+002
+6.72665832290E+006, +3.30611379695E+001, +1.13290054320E+002
+6.85168961202E+006, +3.31535538898E+001, +1.15407443354E+002
+6.97672090113E+006, +3.31177196012E+001, +1.17462111281E+002
+7.10175219024E+006, +3.31617772768E+001, +1.19596178256E+002
+7.22678347935E+006, +3.31270865632E+001, +1.21702829273E+002
+7.35181476846E+006, +3.32229613937E+001, +1.23882390580E+002
+7.47684605757E+006, +3.31664299400E+001, +1.25874673601E+002
+7.60187734668E+006, +3.31652052814E+001, +1.28067723562E+002
+7.72690863579E+006, +3.32713917140E+001, +1.30117852383E+002
+7.85193992491E+006, +3.30850740214E+001, +1.32265569849E+002
+7.97697121402E+006, +3.32365163511E+001, +1.34565280278E+002
+8.10200250313E+006, +3.33248172698E+001, +1.36533153068E+002
+8.22703379224E+006, +3.33233475831E+001, +1.38730793950E+002
+8.35206508135E+006, +3.33580702120E+001, +1.40787884113E+002
+8.47709637046E+006, +3.33490868943E+001, +1.42996298185E+002
+8.60212765957E+006, +3.32337078990E+001, +1.45073317513E+002
+8.72715894869E+006, +3.33073482727E+001, +1.47059830026E+002
+8.85219023780E+006, +3.31806119275E+001, +1.49252404187E+002
+8.97722152691E+006, +3.35461098170E+001, +1.51542684165E+002
+9.10225281602E+006, +3.32278566215E+001, +1.53667266694E+002
+9.22728410513E+006, +3.33781768348E+001, +1.55629704794E+002
+9.35231539424E+006, +3.32825788274E+001, +1.57816283183E+002
+9.47734668335E+006, +3.33993493131E+001, +1.60119849784E+002
+9.60237797247E+006, +3.33014366409E+001, +1.62213955269E+002
+9.72740926158E+006, +3.35333228084E+001, +1.64261818551E+002
+9.85244055069E+006, +3.35023590239E+001, +1.66321209701E+002
+9.97747183980E+006, +3.32920499444E+001, +1.68636813563E+002
+1.01025031289E+007, +3.35003369386E+001, +1.70547085895E+002
+1.02275344180E+007, +3.34635876096E+001, +1.72980733797E+002
+1.03525657071E+007, +3.33603430587E+001, +1.74858702341E+002
+1.04775969962E+007, +3.34796614007E+001, +1.77212236771E+002
+1.06026282854E+007, +3.34877778024E+001, +1.79235969874E+002
+1.07276595745E+007, +3.34987106024E+001, +1.81724385024E+002
+1.08526908636E+007, +3.33747848666E+001, +1.83552295312E+002
+1.09777221527E+007, +3.35657936936E+001, +1.85782992710E+002
+1.11027534418E+007, +3.36010268725E+001, +1.87896781783E+002
+1.12277847309E+007, +3.36328611217E+001, +1.90153712164E+002
+1.13528160200E+007, +3.34837239488E+001, +1.92206667284E+002
+1.14778473091E+007, +3.36382003747E+001, +1.94302306467E+002
+1.16028785982E+007, +3.36001190913E+001, +1.96355228513E+002
+1.17279098874E+007, +3.36051121312E+001, +1.98872122502E+002
+1.18529411765E+007, +3.36351539139E+001, +2.00786273308E+002
+1.19779724656E+007, +3.35951984454E+001, +2.02794322291E+002
+1.21030037547E+007, +3.35370854299E+001, +2.04967796773E+002
+1.22280350438E+007, +3.36401346266E+001, +2.07400373647E+002
+1.23530663329E+007, +3.37711983154E+001, +2.09545516152E+002
+1.24780976220E+007, +3.35834432031E+001, +2.11533403307E+002
+1.26031289111E+007, +3.38160120668E+001, +2.13854859327E+002
+1.27281602003E+007, +3.37116091714E+001, +2.15784951422E+002
+1.28531914894E+007, +3.35923781262E+001, +2.17917732599E+002
+1.29782227785E+007, +3.36102740644E+001, +2.20236839278E+002
+1.31032540676E+007, +3.38119991505E+001, +2.22371581580E+002
+1.32282853567E+007, +3.38891974127E+001, +2.24617830117E+002
+1.33533166458E+007, +3.39111147872E+001, +2.26944905624E+002
+1.34783479349E+007, +3.35832169011E+001, +2.29144323052E+002
+1.36033792240E+007, +3.36568376428E+001, +2.31338779384E+002
+1.37284105131E+007, +3.36214596082E+001, +2.33323747355E+002
+1.38534418023E+007, +3.37274808886E+001, +2.35570448389E+002
+1.39784730914E+007, +3.38677027760E+001, +2.37924948527E+002
+1.41035043805E+007, +3.35498160665E+001, +2.40244092768E+002
+1.42285356696E+007, +3.38915269354E+001, +2.42557009172E+002
+1.43535669587E+007, +3.41743449339E+001, +2.44535623291E+002
+1.44785982478E+007, +3.42329464019E+001, +2.46730956558E+002
+1.46036295369E+007, +3.39746630064E+001, +2.49149831997E+002
+1.47286608260E+007, +3.37912971315E+001, +2.50868774773E+002
+1.48536921151E+007, +3.43008457231E+001, +2.53139001881E+002
+1.49787234043E+007, +3.41065791247E+001, +2.55374801796E+002
+1.51037546934E+007, +3.43618327839E+001, +2.57368177967E+002
+1.52287859825E+007, +3.42140561153E+001, +2.60200183249E+002
+1.53538172716E+007, +3.43864610201E+001, +2.62060787419E+002
+1.54788485607E+007, +3.44547936332E+001, +2.64524282184E+002
+1.56038798498E+007, +3.42709889275E+001, +2.66881989023E+002
+1.57289111389E+007, +3.42942368303E+001, +2.68659043186E+002
+1.58539424280E+007, +3.43196186781E+001, +2.70168248643E+002
+1.59789737171E+007, +3.42510180308E+001, +2.73114434117E+002
+1.61040050063E+007, +3.45825228531E+001, +2.75149373272E+002
+1.62290362954E+007, +3.40897458869E+001, +2.77338556555E+002
+1.63540675845E+007, +3.44846403090E+001, +2.79751229239E+002
+1.64790988736E+007, +3.47070919108E+001, +2.82243762223E+002
+1.66041301627E+007, +3.50114335281E+001, +2.83963720492E+002
+1.67291614518E+007, +3.47972558212E+001, +2.86207995761E+002
+1.68541927409E+007, +3.43239845476E+001, +2.88165459113E+002
+1.69792240300E+007, +3.44613262784E+001, +2.90738896481E+002
+1.71042553191E+007, +3.41853566713E+001, +2.93150258760E+002
+1.72292866083E+007, +3.42865148064E+001, +2.95465704468E+002
+1.73543178974E+007, +3.48491534189E+001, +2.97375088427E+002
+1.74793491865E+007, +3.42059452618E+001, +2.99896493382E+002
+1.76043804756E+007, +3.43421106893E+001, +3.02393649041E+002
+1.77294117647E+007, +3.40724150226E+001, +3.04780462019E+002
+1.78544430538E+007, +3.39812260897E+001, +3.06452353956E+002
+1.79794743429E+007, +3.39926842684E+001, +3.08619982832E+002
+1.81045056320E+007, +3.41848601189E+001, +3.11603916930E+002
+1.82295369212E+007, +3.51114185795E+001, +3.12769729153E+002
+1.83545682103E+007, +3.45616214802E+001, +3.15933181154E+002
+1.84795994994E+007, +3.48920526544E+001, +3.18020260474E+002
+1.86046307885E+007, +3.39091563792E+001, +3.20467236924E+002
+1.87296620776E+007, +3.48861397478E+001, +3.22309641691E+002
+1.88546933667E+007, +3.47883609763E+001, +3.24122185185E+002
+1.89797246558E+007, +3.43328827475E+001, +3.27092201966E+002
+1.91047559449E+007, +3.46436877514E+001, +3.28945378187E+002
+1.92297872340E+007, +3.44758430850E+001, +3.31599030790E+002
+1.93548185232E+007, +3.49351761269E+001, +3.34311897548E+002
+1.94798498123E+007, +3.44991862937E+001, +3.36851671764E+002
+1.96048811014E+007, +3.54523687506E+001, +3.38655520757E+002
+1.97299123905E+007, +3.55522781565E+001, +3.41255883986E+002
+1.98549436796E+007, +3.51920046658E+001, +3.42860888109E+002
+1.99799749687E+007, +3.49157186568E+001, +3.45898347445E+002
+2.01050062578E+007, +3.50237563694E+001, +3.48466470586E+002
+2.02300375469E+007, +3.49276629794E+001, +3.49605749736E+002
+2.03550688360E+007, +3.53673632871E+001, +3.51753804036E+002
+2.04801001252E+007, +3.49977199275E+001, +3.54446588977E+002
+2.06051314143E+007, +3.51909699516E+001, +3.57317260454E+002
+2.07301627034E+007, +3.54026876780E+001, +3.59674504467E+002
+2.08551939925E+007, +3.56345187629E+001, +3.61721832616E+002
+2.09802252816E+007, +3.55573160147E+001, +3.64239895114E+002
+2.11052565707E+007, +3.55377989953E+001, +3.67109498354E+002
+2.12302878598E+007, +3.59236709617E+001, +3.68507884274E+002
+2.13553191489E+007, +3.52962668805E+001, +3.71679486018E+002
+2.14803504380E+007, +3.59500412077E+001, +3.73241626559E+002
+2.16053817272E+007, +3.63173719113E+001, +3.76424862643E+002
+2.17304130163E+007, +3.58228846392E+001, +3.78332338235E+002
+2.18554443054E+007, +3.58483256813E+001, +3.80362968341E+002
+2.19804755945E+007, +3.63260541575E+001, +3.82813553153E+002
+2.21055068836E+007, +3.64675547502E+001, +3.84665924449E+002
+2.22305381727E+007, +3.52476556875E+001, +3.87932565645E+002
+2.23555694618E+007, +3.62117683551E+001, +3.90118591966E+002
+2.24806007509E+007, +3.70356672590E+001, +3.93285993892E+002
+2.26056320401E+007, +3.71514162811E+001, +3.95298306489E+002
+2.27306633292E+007, +3.63949551329E+001, +3.97762150796E+002
+2.28556946183E+007, +3.73960586257E+001, +4.01260547929E+002
+2.29807259074E+007, +3.74916114426E+001, +4.02497694409E+002
+2.31057571965E+007, +3.79309296703E+001, +4.05093098941E+002
+2.32307884856E+007, +3.82082600833E+001, +4.07219094077E+002
+2.33558197747E+007, +3.63661884947E+001, +4.10114003190E+002
+2.34808510638E+007, +3.79150459682E+001, +4.11349268738E+002
+2.36058823529E+007, +3.81506353289E+001, +4.15017154993E+002
+2.37309136421E+007, +3.80164630529E+001, +4.16098530993E+002
+2.38559449312E+007, +3.82716821281E+001, +4.17688108404E+002
+2.39809762203E+007, +3.82357172888E+001, +4.21852385688E+002
+2.41060075094E+007, +3.72494822610E+001, +4.23848601125E+002
+2.42310387985E+007, +3.82472803601E+001, +4.26114510540E+002
+2.43560700876E+007, +3.81815576000E+001, +4.28055148794E+002
+2.44811013767E+007, +3.77187874687E+001, +4.31371428108E+002
+2.46061326658E+007, +3.87040280273E+001, +4.34096101792E+002
+2.47311639549E+007, +3.83510109167E+001, +4.35755241830E+002
+2.48561952441E+007, +3.84613586189E+001, +4.38433002952E+002
+2.49812265332E+007, +3.81747495475E+001, +4.41257450961E+002
+2.51062578223E+007, +3.87325429405E+001, +4.43788880993E+002
+2.52312891114E+007, +3.95811532945E+001, +4.45306250661E+002
+2.53563204005E+007, +3.88896254551E+001, +4.48317815585E+002
+2.54813516896E+007, +3.93582690766E+001, +4.51035898863E+002
+2.56063829787E+007, +3.95933212562E+001, +4.52082383667E+002
+2.57314142678E+007, +4.00722000059E+001, +4.55440152332E+002
+2.58564455569E+007, +3.94637609229E+001, +4.57633542836E+002
+2.59814768461E+007, +3.86302941927E+001, +4.59438517347E+002
+2.61065081352E+007, +3.88408658768E+001, +4.62051977256E+002
+2.62315394243E+007, +4.02782567924E+001, +4.66423370116E+002
+2.63565707134E+007, +4.08203410062E+001, +4.68281798777E+002
+2.64816020025E+007, +3.99143475858E+001, +4.70653159051E+002
+2.66066332916E+007, +3.98652262472E+001, +4.73082742336E+002
+2.67316645807E+007, +4.07130984139E+001, +4.74367585491E+002
+2.68566958698E+007, +4.02861869945E+001, +4.77716419556E+002
+2.69817271589E+007, +4.01460095180E+001, +4.81727252336E+002
+2.71067584481E+007, +4.16799114883E+001, +4.82581189101E+002
+2.72317897372E+007, +4.14346579240E+001, +4.85558052502E+002
+2.73568210263E+007, +4.18297072982E+001, +4.87800563235E+002
+2.74818523154E+007, +4.10107130479E+001, +4.91127399288E+002
+2.76068836045E+007, +4.12381823710E+001, +4.91937949663E+002
+2.77319148936E+007, +4.14884522577E+001, +4.94635426696E+002
+2.78569461827E+007, +4.06151632678E+001, +4.98181119962E+002
+2.79819774718E+007, +4.22260963366E+001, +5.01125379673E+002
+2.81070087610E+007, +4.24892726097E+001, +5.03046633403E+002
+2.82320400501E+007, +4.21151592388E+001, +5.06406119617E+002
+2.83570713392E+007, +4.23241537297E+001, +5.07213572126E+002
+2.84821026283E+007, +4.30303763305E+001, +5.10879784404E+002
+2.86071339174E+007, +4.14752078658E+001, +5.13936379096E+002
+2.87321652065E+007, +4.31862588657E+001, +5.16791611633E+002
+2.88571964956E+007, +4.26942112299E+001, +5.18604222601E+002
+2.89822277847E+007, +4.21945255963E+001, +5.20887536559E+002
+2.91072590738E+007, +4.26947525210E+001, +5.22778037603E+002
+2.92322903630E+007, +4.25784878314E+001, +5.26955079628E+002
+2.93573216521E+007, +4.44735354524E+001, +5.27782970414E+002
+2.94823529412E+007, +4.20480353766E+001, +5.32196489366E+002
+2.96073842303E+007, +4.32229209984E+001, +5.33350908332E+002
+2.97324155194E+007, +4.29050864995E+001, +5.36171618367E+002
+2.98574468085E+007, +4.39714250400E+001, +5.40472214274E+002
+2.99824780976E+007, +4.43195449711E+001, +5.41867835499E+002
+3.01075093867E+007, +4.50994654748E+001, +5.43944972657E+002
+3.02325406758E+007, +4.42160764951E+001, +5.46302072534E+002
+3.03575719650E+007, +4.34709812958E+001, +5.50827499359E+002
+3.04826032541E+007, +4.38103447562E+001, +5.52609771704E+002
+3.06076345432E+007, +4.33309394944E+001, +5.53880169075E+002
+3.07326658323E+007, +4.31979209277E+001, +5.58438152077E+002
+3.08576971214E+007, +4.43314438260E+001, +5.60381015531E+002
+3.09827284105E+007, +4.37420621168E+001, +5.64851177420E+002
+3.11077596996E+007, +4.26742431029E+001, +5.67080122381E+002
+3.12327909887E+007, +4.42506214969E+001, +5.68862938507E+002
+3.13578222778E+007, +4.40787950485E+001, +5.72671981597E+002
+3.14828535670E+007, +4.33416349638E+001, +5.73606476440E+002
+3.16078848561E+007, +4.43522570252E+001, +5.77842825484E+002
+3.17329161452E+007, +4.38968976061E+001, +5.78721785832E+002
+3.18579474343E+007, +4.44229868809E+001, +5.83319366032E+002
+3.19829787234E+007, +4.30524401898E+001, +5.85982758835E+002
+3.21080100125E+007, +4.50841285053E+001, +5.85857133030E+002
+3.22330413016E+007, +4.42806493038E+001, +5.91787153593E+002
+3.23580725907E+007, +4.39681084119E+001, +5.92626137817E+002
+3.24831038798E+007, +4.65106557461E+001, +5.96850406803E+002
+3.26081351690E+007, +4.61653442989E+001, +5.99016991109E+002
+3.27331664581E+007, +4.45518993426E+001, +6.02918723948E+002
+3.28581977472E+007, +4.55435017519E+001, +6.04612729151E+002
+3.29832290363E+007, +4.50034618979E+001, +6.07663296698E+002
+3.31082603254E+007, +4.58991492202E+001, +6.10171034687E+002
+3.32332916145E+007, +4.54873912370E+001, +6.13854689164E+002
+3.33583229036E+007, +4.61410022580E+001, +6.17300521952E+002
+3.34833541927E+007, +4.48937903916E+001, +6.17824373460E+002
+3.36083854819E+007, +4.61403697713E+001, +6.21967329848E+002
+3.37334167710E+007, +4.60057038507E+001, +6.24366046523E+002
+3.38584480601E+007, +4.50481272475E+001, +6.27635137974E+002
+3.39834793492E+007, +4.53848057688E+001, +6.29686099145E+002
+3.41085106383E+007, +4.62132913493E+001, +6.34562540917E+002
+3.42335419274E+007, +4.76335646310E+001, +6.36649437478E+002
+3.43585732165E+007, +4.58442053898E+001, +6.39482150683E+002
+3.44836045056E+007, +4.61893069656E+001, +6.41601000329E+002
+3.46086357947E+007, +4.75385855987E+001, +6.45802305712E+002
+3.47336670839E+007, +4.66472834866E+001, +6.49995612037E+002
+3.48586983730E+007, +4.59638291366E+001, +6.52616864956E+002
+3.49837296621E+007, +4.74124064450E+001, +6.55061903859E+002
+3.51087609512E+007, +4.50140481974E+001, +6.59285959804E+002
+3.52337922403E+007, +4.66984131381E+001, +6.62243039316E+002
+3.53588235294E+007, +4.69688765217E+001, +6.64549992533E+002
+3.54838548185E+007, +4.78597159204E+001, +6.69225372739E+002
+3.56088861076E+007, +4.84218550820E+001, +6.70980317924E+002
+3.57339173967E+007, +4.80813282746E+001, +6.73700592248E+002
+3.58589486859E+007, +4.86802697452E+001, +6.75632875592E+002
+3.59839799750E+007, +4.68334225521E+001, +6.80981936832E+002
+3.61090112641E+007, +4.61123201888E+001, +6.83816238191E+002
+3.62340425532E+007, +4.55652156635E+001, +6.87235967022E+002
+3.63590738423E+007, +4.99677679618E+001, +6.90037349899E+002
+3.64841051314E+007, +4.65401674464E+001, +6.93037610823E+002
+3.66091364205E+007, +4.82069597981E+001, +6.92539086896E+002
+3.67341677096E+007, +4.82475136240E+001, +7.00317285652E+002
+3.68591989987E+007, +5.04715601997E+001, +7.05094174181E+002
+3.69842302879E+007, +4.73465730378E+001, +7.08053478716E+002
+3.71092615770E+007, +4.78342271442E+001, +7.09008455690E+002
+3.72342928661E+007, +4.77512860086E+001, +7.13277054368E+002
+3.73593241552E+007, +4.71954880346E+001, +7.15989382921E+002
+3.74843554443E+007, +4.86608672914E+001, +7.21418775823E+002
+3.76093867334E+007, +4.57202082347E+001, +7.23350374691E+002
+3.77344180225E+007, +4.93798706392E+001, +7.28488738802E+002
+3.78594493116E+007, +4.92164507395E+001, +7.28986455805E+002
+3.79844806008E+007, +4.87750764762E+001, +7.34105033756E+002
+3.81095118899E+007, +4.94992085806E+001, +7.38125302776E+002
+3.82345431790E+007, +5.05624259701E+001, +7.42033732703E+002
+3.83595744681E+007, +4.79716694859E+001, +7.43079510567E+002
+3.84846057572E+007, +5.01778057295E+001, +7.46381474280E+002
+3.86096370463E+007, +4.70540201988E+001, +7.52834265412E+002
+3.87346683354E+007, +5.13944134953E+001, +7.52357589862E+002
+3.88596996245E+007, +5.24346947874E+001, +7.57623120605E+002
+3.89847309136E+007, +5.02532058929E+001, +7.64625214541E+002
+3.91097622028E+007, +4.82701797572E+001, +7.65990407556E+002
+3.92347934919E+007, +5.38849499423E+001, +7.70286321095E+002
+3.93598247810E+007, +5.20089385593E+001, +7.75926528784E+002
+3.94848560701E+007, +5.37664447517E+001, +7.73736382742E+002
+3.96098873592E+007, +5.09009733617E+001, +7.85515967218E+002
+3.97349186483E+007, +5.24341469905E+001, +7.82245053960E+002
+3.98599499374E+007, +5.41671663393E+001, +7.89135894792E+002
+3.99849812265E+007, +5.47616348058E+001, +7.92523165075E+002
+4.01100125156E+007, +5.29012319454E+001, +7.94683075034E+002
