"# Channel 1"
"# Trace 1"
Frequency, Formatted Data, Formatted Data
+1.00000000000E+005, +2.86556258224E-001, +1.62835194301E+000
+2.66777963272E+005, +2.88258426627E-001, +4.32366437740E+000
+4.33555926544E+005, +3.21095541618E-001, +7.00967227554E+000
+6.00333889816E+005, +3.94005420998E-001, +9.63730764980E+000
+7.67111853088E+005, +4.36256033363E-001, +1.23201050144E+001
+9.33889816361E+005, +4.58833569018E-001, +1.49216669118E+001
+1.10066777963E+006, +4.38699677298E-001, +1.75620673868E+001
+1.26744574290E+006, +5.10593309321E-001, +2.01830419245E+001
+1.43422370618E+006, +4.45328204747E-001, +2.28673804415E+001
+1.60100166945E+006, +5.57328310468E-001, +2.54221733344E+001
+1.76777963272E+006, +5.53042408692E-001, +2.80604975721E+001
+1.93455759599E+006, +5.83584893967E-001, +3.06165265051E+001
+2.10133555927E+006, +6.12332075070E-001, +3.32559671650E+001
+2.26811352254E+006, +6.26020300356E-001, +3.59032637603E+001
+2.43489148581E+006, +5.86251107477E-001, +3.85784224892E+001
+2.60166944908E+006, +6.53219862069E-001, +4.10969296873E+001
+2.76844741235E+006, +6.19180442705E-001, +4.38358260123E+001
+2.93522537563E+006, +6.14710918529E-001, +4.63947475994E+001
+3.10200333890E+006, +7.16018513402E-001, +4.90159565693E+001
+3.26878130217E+006, +5.93257195306E-001, +5.16593931632E+001
+3.43555926544E+006, +6.39860493766E-001, +5.42625195297E+001
+3.60233722871E+006, +6.59808186241E-001, +5.69365617216E+001
+3.76911519199E+006, +6.42534393476E-001, +5.95946583216E+001
+3.93589315526E+006, +5.58293406248E-001, +6.21908701514E+001
+4.10267111853E+006, +6.69277160654E-001, +6.49516915427E+001
+4.26944908180E+006, +6.36282547964E-001, +6.76133126815E+001
+4.43622704508E+006, +6.93944438127E-001, +7.01198159874E+001
+4.60300500835E+006, +6.04905456701E-001, +7.28815382064E+001
+4.76978297162E+006, +6.41374661157E-001, +7.54183014852E+001
+4.93656093489E+006, +7.37451498250E-001, +7.82019246093E+001
+5.10333889816E+006, +7.35261548684E-001, +8.07000685866E+001
+5.27011686144E+006, +8.64852207381E-001, +8.36480991328E+001
+5.43689482471E+006, +7.27585052166E-001, +8.62113485964E+001
+5.60367278798E+006, +6.69897010857E-001, +8.89762603121E+001
+5.77045075125E+006, +6.22758556569E-001, +9.14542403645E+001
+5.93722871452E+006, +8.10935305359E-001, +9.41835886248E+001
+6.10400667780E+006, +8.34667677458E-001, +9.69908911573E+001
+6.27078464107E+006, +9.11325894604E-001, +9.95998510841E+001
+6.43756260434E+006, +9.22675574693E-001, +1.02342632100E+002
+6.60434056761E+006, +9.45701873769E-001, +1.04946666207E+002
+6.77111853088E+006, +1.09232074315E+000, +1.07610356664E+002
+6.93789649416E+006, +1.00156231007E+000, +1.10342705089E+002
+7.10467445743E+006, +1.02212979051E+000, +1.13044230952E+002
+7.27145242070E+006, +9.88210795395E-001, +1.15651054398E+002
+7.43823038397E+006, +1.13088797833E+000, +1.18314899768E+002
+7.60500834725E+006, +1.03635099915E+000, +1.21027493314E+002
+7.77178631052E+006, +1.08783971896E+000, +1.23898205093E+002
+7.93856427379E+006, +1.11257411631E+000, +1.26467150345E+002
+8.10534223706E+006, +1.12202676462E+000, +1.29147782150E+002
+8.27212020033E+006, +1.10743629869E+000, +1.31909950847E+002
+8.43889816361E+006, +1.03578021698E+000, +1.34590784952E+002
+8.60567612688E+006, +8.78152155200E-001, +1.37460277668E+002
+8.77245409015E+006, +9.82937734369E-001, +1.40130128894E+002
+8.93923205342E+006, +9.49889267273E-001, +1.42844364082E+002
+9.10601001669E+006, +1.05557650676E+000, +1.45697635960E+002
+9.27278797997E+006, +1.04843377226E+000, +1.48436962479E+002
+9.43956594324E+006, +9.57245075096E-001, +1.51185836946E+002
+9.60634390651E+006, +9.14966315305E-001, +1.53888736141E+002
+9.77312186978E+006, +8.43628217544E-001, +1.56574225755E+002
+9.93989983306E+006, +1.15839523686E+000, +1.59537881389E+002
+1.01066777963E+007, +8.45935646365E-001, +1.62193575879E+002
+1.02734557596E+007, +8.33295141199E-001, +1.65077824654E+002
+1.04402337229E+007, +8.73673388607E-001, +1.67908546101E+002
+1.06070116861E+007, +7.21521549928E-001, +1.70551418526E+002
+1.07737896494E+007, +6.39598436345E-001, +1.73565811074E+002
+1.09405676127E+007, +1.00440336830E+000, +1.76459886578E+002
+1.11073455760E+007, +8.66066429313E-001, +1.79217168803E+002
+1.12741235392E+007, +8.20737443062E-001, +1.82003623315E+002
+1.14409015025E+007, +8.73739053588E-001, +1.84973181704E+002
+1.16076794658E+007, +9.41695931415E-001, +1.87745801372E+002
+1.17744574290E+007, +8.41420558424E-001, +1.90774062130E+002
+1.19412353923E+007, +8.68295919860E-001, +1.93499859957E+002
+1.21080133556E+007, +4.84619972756E-001, +1.96380478432E+002
+1.22747913189E+007, +7.52321953227E-001, +1.99348072131E+002
+1.24415692821E+007, +5.66360523220E-001, +2.02047806900E+002
+1.26083472454E+007, +5.50619189120E-001, +2.05119182333E+002
+1.27751252087E+007, +7.22880556713E-001, +2.07925321173E+002
+1.29419031720E+007, +6.03796383014E-001, +2.10852630827E+002
+1.31086811352E+007, +7.20178075427E-001, +2.13774847470E+002
+1.32754590985E+007, +7.62807853203E-001, +2.16739868315E+002
+1.34422370618E+007, +8.00111215578E-001, +2.19567177750E+002
+1.36090150250E+007, +6.96058246421E-001, +2.22610220563E+002
+1.37757929883E+007, +5.72351469682E-001, +2.25571790743E+002
+1.39425709516E+007, +7.74961700343E-001, +2.28580736664E+002
+1.41093489149E+007, +8.25789773951E-001, +2.31370558726E+002
+1.42761268781E+007, +7.92229007176E-001, +2.34780425112E+002
+1.44429048414E+007, +8.80163334255E-001, +2.37352255287E+002
+1.46096828047E+007, +5.85176948592E-001, +2.40725072641E+002
+1.47764607679E+007, +7.80893198834E-001, +2.43505899955E+002
+1.49432387312E+007, +7.55147261345E-001, +2.46307164608E+002
+1.51100166945E+007, +4.04758239627E-001, +2.49676798933E+002
+1.52767946578E+007, +7.64047867705E-001, +2.52549778376E+002
+1.54435726210E+007, +8.22874093238E-001, +2.55768194515E+002
+1.56103505843E+007, +1.05539383687E+000, +2.58882298452E+002
+1.57771285476E+007, +8.24574694670E-001, +2.61790883583E+002
+1.59439065109E+007, +8.68310052998E-001, +2.64803763893E+002
+1.61106844741E+007, +6.97770047459E-001, +2.67960168174E+002
+1.62774624374E+007, +1.18412998657E+000, +2.70835040330E+002
+1.64442404007E+007, +7.24602733069E-001, +2.74233123031E+002
+1.66110183639E+007, +9.81682521654E-001, +2.77361580014E+002
+1.67777963272E+007, +9.97307989088E-001, +2.80619626666E+002
+1.69445742905E+007, +1.08863979425E+000, +2.83678292028E+002
+1.71113522538E+007, +2.11054960886E-001, +2.86509452689E+002
+1.72781302170E+007, +3.85362615794E-001, +2.90401047923E+002
+1.74449081803E+007, +9.29217189613E-002, +2.92798241236E+002
+1.76116861436E+007, +1.00005688867E+000, +2.96199816364E+002
+1.77784641068E+007, +5.15551680210E-001, +2.99081105926E+002
+1.79452420701E+007, +8.61813034497E-001, +3.02653729949E+002
+1.81120200334E+007, +8.47940190938E-001, +3.05418163401E+002
+1.82787979967E+007, +1.18061451230E+000, +3.09149135900E+002
+1.84455759599E+007, +8.39077049434E-001, +3.12111725122E+002
+1.86123539232E+007, +1.22002273706E+000, +3.15971496884E+002
+1.87791318865E+007, +5.82650245940E-001, +3.19234931514E+002
+1.89459098497E+007, +3.65089417520E-001, +3.22583975377E+002
+1.91126878130E+007, +7.39730161855E-001, +3.25358602896E+002
+1.92794657763E+007, +3.25749981981E-001, +3.29009530564E+002
+1.94462437396E+007, +8.85127784217E-001, +3.32919092626E+002
+1.96130217028E+007, +1.00381837743E+000, +3.36194777973E+002
+1.97797996661E+007, +1.21288622414E+000, +3.39229492413E+002
+1.99465776294E+007, +1.76590743633E-002, +3.42704968434E+002
+2.01133555927E+007, +5.77921008064E-001, +3.45927728955E+002
+2.02801335559E+007, +6.80801059007E-001, +3.50009316119E+002
+2.04469115192E+007, +1.19425443272E+000, +3.53745195955E+002
+2.06136894825E+007, +6.45893612638E-001, +3.56009422608E+002
+2.07804674457E+007, +1.66821392289E+000, +3.60623265015E+002
+2.09472454090E+007, +3.65507226001E-001, +3.64559310193E+002
+2.11140233723E+007, +1.53196136874E+000, +3.67002428361E+002
+2.12808013356E+007, +1.55328111068E+000, +3.70708925888E+002
+2.14475792988E+007, +1.05021851640E+000, +3.74440429559E+002
+2.16143572621E+007, +1.75840545743E+000, +3.78029578026E+002
+2.17811352254E+007, +9.82010834176E-001, +3.81294674703E+002
+2.19479131886E+007, +1.55596233037E+000, +3.85156379679E+002
+2.21146911519E+007, +2.10480462918E+000, +3.87762509714E+002
+2.22814691152E+007, +1.85101238770E+000, +3.92285017734E+002
+2.24482470785E+007, +1.97877545232E+000, +3.96553104248E+002
+2.26150250417E+007, +2.57534238619E+000, +3.99393649272E+002
+2.27818030050E+007, +1.79523922297E+000, +4.03011355658E+002
+2.29485809683E+007, +3.51034592950E+000, +4.07244015781E+002
+2.31153589316E+007, +1.90837941973E+000, +4.11511451343E+002
+2.32821368948E+007, +3.06926218095E+000, +4.14984093430E+002
+2.34489148581E+007, +3.40732842546E+000, +4.17173663510E+002
+2.36156928214E+007, +3.98588992485E+000, +4.22926805029E+002
+2.37824707846E+007, +3.12147438002E+000, +4.26083837269E+002
+2.39492487479E+007, +3.56732348234E+000, +4.29152331669E+002
+2.41160267112E+007, +3.14327586044E+000, +4.32807017041E+002
+2.42828046745E+007, +3.49717430905E+000, +4.37504638281E+002
+2.44495826377E+007, +4.31047432196E+000, +4.42063176797E+002
+2.46163606010E+007, +4.24269968491E+000, +4.45134135458E+002
+2.47831385643E+007, +3.80235035268E+000, +4.49739193716E+002
+2.49499165275E+007, +3.94176335700E+000, +4.53547931674E+002
+2.51166944908E+007, +5.99136910706E+000, +4.56744977390E+002
+2.52834724541E+007, +5.44269366538E+000, +4.60932121834E+002
+2.54502504174E+007, +5.24828474416E+000, +4.64470623808E+002
+2.56170283806E+007, +4.98570211871E+000, +4.68334383470E+002
+2.57838063439E+007, +5.11631235924E+000, +4.73934095236E+002
+2.59505843072E+007, +6.29369310884E+000, +4.77666097492E+002
+2.61173622705E+007, +5.83582078184E+000, +4.81075825255E+002
+2.62841402337E+007, +6.51314953909E+000, +4.85149063397E+002
+2.64509181970E+007, +5.16910489705E+000, +4.89644162918E+002
+2.66176961603E+007, +6.36695121157E+000, +4.94057746084E+002
+2.67844741235E+007, +6.44349094032E+000, +4.97126070766E+002
+2.69512520868E+007, +7.46056208180E+000, +5.00782163089E+002
+2.71180300501E+007, +6.08834592181E+000, +5.04277446225E+002
+2.72848080134E+007, +7.42986330495E+000, +5.09449674057E+002
+2.74515859766E+007, +7.27067346860E+000, +5.13645498412E+002
+2.76183639399E+007, +7.09964853390E+000, +5.16833865755E+002
+2.77851419032E+007, +6.80683027986E+000, +5.21501223527E+002
+2.79519198664E+007, +6.73719358542E+000, +5.26488713239E+002
+2.81186978297E+007, +8.49930433530E+000, +5.28502487955E+002
+2.82854757930E+007, +7.76387659628E+000, +5.34586431368E+002
+2.84522537563E+007, +5.66292424110E+000, +5.38210872484E+002
+2.86190317195E+007, +6.02433719136E+000, +5.42763212526E+002
+2.87858096828E+007, +7.52026067934E+000, +5.48139261974E+002
+2.89525876461E+007, +7.85303752395E+000, +5.52080569905E+002
+2.91193656093E+007, +5.27150364581E+000, +5.55936221566E+002
+2.92861435726E+007, +6.21074282326E+000, +5.60421803140E+002
+2.94529215359E+007, +6.60824606916E+000, +5.66507501957E+002
+2.96196994992E+007, +7.11879154539E+000, +5.70497518185E+002
+2.97864774624E+007, +7.64188264388E+000, +5.75129211901E+002
+2.99532554257E+007, +7.52178106706E+000, +5.80480536502E+002
+3.01200333890E+007, +7.26190525498E+000, +5.84567150422E+002
+3.02868113523E+007, +5.61262517406E+000, +5.90641902646E+002
+3.04535893155E+007, +6.24965836669E+000, +5.94481065270E+002
+3.06203672788E+007, +6.76151970973E+000, +5.99352165090E+002
+3.07871452421E+007, +7.88708269548E+000, +6.04362791315E+002
+3.09539232053E+007, +6.99724334630E+000, +6.08266824403E+002
+3.11207011686E+007, +5.77342379862E+000, +6.15386020239E+002
+3.12874791319E+007, +5.62442055693E+000, +6.19053456916E+002
+3.14542570952E+007, +7.23889816366E+000, +6.27005116709E+002
+3.16210350584E+007, +5.23212684637E+000, +6.31010834793E+002
+3.17878130217E+007, +5.12293630960E+000, +6.36457750618E+002
+3.19545909850E+007, +5.20615541881E+000, +6.42968879850E+002
+3.21213689482E+007, +3.86526749712E+000, +6.48085685343E+002
+3.22881469115E+007, +6.25338430967E+000, +6.52189369027E+002
+3.24549248748E+007, +5.47544393170E+000, +6.58075040083E+002
+3.26217028381E+007, +5.28072768852E+000, +6.62970619395E+002
+3.27884808013E+007, +4.74052379908E+000, +6.70504279158E+002
+3.29552587646E+007, +6.79966812093E+000, +6.74217279915E+002
+3.31220367279E+007, +7.31055456954E+000, +6.78723188316E+002
+3.32888146912E+007, +5.92700923118E+000, +6.85645816198E+002
+3.34555926544E+007, +4.92881725753E+000, +6.92079710418E+002
+3.36223706177E+007, +6.15171111409E+000, +6.97718045368E+002
+3.37891485810E+007, +6.31649741803E+000, +7.00302137903E+002
+3.39559265442E+007, +5.29937060239E+000, +7.11674470696E+002
+3.41227045075E+007, +7.45078618082E+000, +7.15881035348E+002
+3.42894824708E+007, +5.42974157812E+000, +7.21996321751E+002
+3.44562604341E+007, +4.86207096207E+000, +7.28596115877E+002
+3.46230383973E+007, +6.71725723452E+000, +7.35514600749E+002
+3.47898163606E+007, +4.32868563411E+000, +7.39604092929E+002
+3.49565943239E+007, +8.46157056808E+000, +7.47669834649E+002
+3.51233722871E+007, +7.49096675387E+000, +7.53239422266E+002
+3.52901502504E+007, +8.64010041590E+000, +7.59058138299E+002
+3.54569282137E+007, +6.81545182237E+000, +7.65650077691E+002
+3.56237061770E+007, +4.73347210089E+000, +7.75071237088E+002
+3.57904841402E+007, +6.76056943362E+000, +7.81768746525E+002
+3.59572621035E+007, +9.28641758944E+000, +7.86221631186E+002
+3.61240400668E+007, +6.84611314791E+000, +7.94000274373E+002
+3.62908180301E+007, +6.36239966515E+000, +8.04272716432E+002
+3.64575959933E+007, +6.63530796488E+000, +8.04715342473E+002
+3.66243739566E+007, +8.66054784558E+000, +8.14552382384E+002
+3.67911519199E+007, +7.90812723133E+000, +8.23361595765E+002
+3.69579298831E+007, +8.44320739941E+000, +8.27366037845E+002
+3.71247078464E+007, +4.17939343156E+000, +8.38802345937E+002
+3.72914858097E+007, +7.15438147424E+000, +8.47120495889E+002
+3.74582637730E+007, +7.87943974044E+000, +8.54377320224E+002
+3.76250417362E+007, +9.32815125384E+000, +8.61992670093E+002
+3.77918196995E+007, +5.07864920354E+000, +8.68935855776E+002
+3.79585976628E+007, +6.91223285500E+000, +8.74076128460E+002
+3.81253756260E+007, +1.12082841138E+001, +8.82678354652E+002
+3.82921535893E+007, +1.23542931449E+001, +8.93205867731E+002
+3.84589315526E+007, +1.06068351139E+001, +9.00185178385E+002
+3.86257095159E+007, +8.41994470881E+000, +9.09733898901E+002
+3.87924874791E+007, +8.91160524072E+000, +9.15284805172E+002
+3.89592654424E+007, +1.01618953979E+001, +9.25070944983E+002
+3.91260434057E+007, +9.95712343661E+000, +9.41827671600E+002
+3.92928213689E+007, +1.49283173596E+001, +9.45119275106E+002
+3.94595993322E+007, +1.16053759813E+001, +9.53022339126E+002
+3.96263772955E+007, +7.60784897774E+000, +9.62641228052E+002
+3.97931552588E+007, +8.95820263102E+000, +9.73874458372E+002
+3.99599332220E+007, +9.44550264150E+000, +9.81886959873E+002
+4.01267111853E+007, +1.46560356378E+001, +9.92211412679E+002
+4.02934891486E+007, +1.12159491080E+001, +1.00124617205E+003
+4.04602671119E+007, +1.26756361406E+001, +1.01035663318E+003
+4.06270450751E+007, +1.67360765539E+001, +1.01886595004E+003
+4.07938230384E+007, +1.31370412536E+001, +1.03120337901E+003
+4.09606010017E+007, +1.41273783475E+001, +1.04057771536E+003
+4.11273789649E+007, +1.68202671712E+001, +1.05142707704E+003
+4.12941569282E+007, +1.63429147594E+001, +1.06104828048E+003
+4.14609348915E+007, +1.79558001384E+001, +1.07846793602E+003
+4.16277128548E+007, +1.93069589632E+001, +1.08594907705E+003
+4.17944908180E+007, +1.65833411152E+001, +1.08810684359E+003
+4.19612687813E+007, +1.83542774603E+001, +1.10438240147E+003
+4.21280467446E+007, +1.19889584924E+001, +1.11960731277E+003
+4.22948247078E+007, +2.04709981155E+001, +1.12780022180E+003
+4.24616026711E+007, +2.41905859759E+001, +1.14193908131E+003
+4.26283806344E+007, +2.25284088080E+001, +1.15439148420E+003
+4.27951585977E+007, +1.24547114436E+001, +1.17014644507E+003
+4.29619365609E+007, +2.15934880027E+001, +1.18264697392E+003
+4.31287145242E+007, +2.32117350237E+001, +1.19630351262E+003
+4.32954924875E+007, +2.99860733446E+001, +1.20050928450E+003
+4.34622704508E+007, +2.27570234071E+001, +1.22061021309E+003
+4.36290484140E+007, +2.79922486140E+001, +1.23410440093E+003
+4.37958263773E+007, +2.34386110554E+001, +1.24975315377E+003
+4.39626043406E+007, +2.75067465890E+001, +1.26132991942E+003
+4.41293823038E+007, +2.82096583406E+001, +1.27789362290E+003
+4.42961602671E+007, +3.11091941120E+001, +1.29881250000E+003
+4.44629382304E+007, +3.00360563846E+001, +1.30008400243E+003
+4.46297161937E+007, +3.60539707406E+001, +1.31927177571E+003
+4.47964941569E+007, +2.79816913013E+001, +1.34058743643E+003
+4.49632721202E+007, +2.94002590573E+001, +1.36053544363E+003
+4.51300500835E+007, +3.09894544891E+001, +1.36452188582E+003
+4.52968280467E+007, +4.42234693553E+001, +1.38694862284E+003
+4.54636060100E+007, +4.37383360943E+001, +1.41590549815E+003
+4.56303839733E+007, +3.53302540965E+001, +1.42568469818E+003
+4.57971619366E+007, +4.78534770655E+001, +1.44088134859E+003
+4.59639398998E+007, +4.22149033542E+001, +1.48082800996E+003
+4.61307178631E+007, +5.51676226947E+001, +1.48834068679E+003
+4.62974958264E+007, +5.20407791663E+001, +1.50713548819E+003
+4.64642737896E+007, +4.30253604929E+001, +1.52516790510E+003
+4.66310517529E+007, +5.31145209332E+001, +1.56164928273E+003
+4.67978297162E+007, +6.68393656959E+001, +1.56406598967E+003
+4.69646076795E+007, +5.34643144628E+001, +1.59508535819E+003
+4.71313856427E+007, +6.88920504039E+001, +1.61517308906E+003
+4.72981636060E+007, +7.30998844149E+001, +1.64353347238E+003
+4.74649415693E+007, +6.66397802026E+001, +1.65664074585E+003
+4.76317195326E+007, +8.41425916214E+001, +1.69044110410E+003
+4.77984974958E+007, +9.85631409491E+001, +1.71325829331E+003
+4.79652754591E+007, +8.70053674240E+001, +1.73822180483E+003
+4.81320534224E+007, +9.33839406687E+001, +1.74653291265E+003
+4.82988313856E+007, +9.51330713674E+001, +1.79030600779E+003
+4.84656093489E+007, +1.17536864864E+002, +1.80592126923E+003
+4.86323873122E+007, +1.12957224068E+002, +1.84168924821E+003
+4.87991652755E+007, +1.35022070792E+002, +1.85964612589E+003
+4.89659432387E+007, +1.27375120450E+002, +1.89620812096E+003
+4.91327212020E+007, +1.38925130021E+002, +1.93684342196E+003
+4.92994991653E+007, +1.48887314982E+002, +1.94274743066E+003
+4.94662771285E+007, +1.68367603526E+002, +1.98229953047E+003
+4.96330550918E+007, +1.92096248715E+002, +2.00932730298E+003
+4.97998330551E+007, +1.98728169697E+002, +2.04142545609E+003
+4.99666110184E+007, +2.08502732855E+002, +2.05910529966E+003
+5.01333889816E+007, +2.10388272344E+002, +2.09716495458E+003
+5.03001669449E+007, +2.06909454418E+002, +2.12630925351E+003
+5.04669449082E+007, +2.21437083012E+002, +2.16830824748E+003
+5.06337228715E+007, +2.48268194915E+002, +2.19310493766E+003
+5.08005008347E+007, +2.36565601690E+002, +2.22868193071E+003
+5.09672787980E+007, +2.38984366816E+002, +2.24821223315E+003
+5.11340567613E+007, +2.58432220828E+002, +2.29240631884E+003
+5.13008347245E+007, +2.51604260626E+002, +2.33535151257E+003
+5.14676126878E+007, +2.69181507476E+002, +2.36426887046E+003
+5.16343906511E+007, +2.94384220941E+002, +2.44221130647E+003
+5.18011686144E+007, +3.08229346219E+002, +2.47755879297E+003
+5.19679465776E+007, +3.01796707629E+002, +2.52890051612E+003
+5.21347245409E+007, +3.00391107102E+002, +2.57478607528E+003
+5.23015025042E+007, +3.38980651779E+002, +2.67450412126E+003
+5.24682804674E+007, +3.33472649398E+002, +2.73146445913E+003
+5.26350584307E+007, +3.59511090428E+002, +2.75636291757E+003
+5.28018363940E+007, +3.46657625632E+002, +2.83351137442E+003
+5.29686143573E+007, +3.72556322545E+002, +2.92023196183E+003
+5.31353923205E+007, +3.63098880341E+002, +2.96000227443E+003
+5.33021702838E+007, +3.70337980533E+002, +3.06183131939E+003
+5.34689482471E+007, +4.45852676898E+002, +3.17047439170E+003
