"# Channel 1"
"# Trace 1"
Frequency, Formatted Data, Formatted Data
+1.00000000000E+005, +2.89318816641E-001, +1.63175690468E+000
+2.66777963272E+005, +2.93504169871E-001, +4.32543868764E+000
+4.33555926544E+005, +3.24621724145E-001, +7.02225807185E+000
+6.00333889816E+005, +4.03895354538E-001, +9.65690820792E+000
+7.67111853088E+005, +4.27041390267E-001, +1.23495302079E+001
+9.33889816361E+005, +4.72514433860E-001, +1.49604584426E+001
+1.10066777963E+006, +4.22785049176E-001, +1.76056538478E+001
+1.26744574290E+006, +5.04417053157E-001, +2.02340100640E+001
+1.43422370618E+006, +4.39421275919E-001, +2.29136758596E+001
+1.60100166945E+006, +5.69077018858E-001, +2.54900714373E+001
+1.76777963272E+006, +5.56504937528E-001, +2.81464323032E+001
+1.93455759599E+006, +5.76791526842E-001, +3.07024106728E+001
+2.10133555927E+006, +6.13138930090E-001, +3.33386235459E+001
+2.26811352254E+006, +6.37421893553E-001, +3.59984972099E+001
+2.43489148581E+006, +6.16154028275E-001, +3.86588675417E+001
+2.60166944908E+006, +6.22926215898E-001, +4.12189806802E+001
+2.76844741235E+006, +6.04886019496E-001, +4.39280057072E+001
+2.93522537563E+006, +6.23610260853E-001, +4.65210478523E+001
+3.10200333890E+006, +7.59247748926E-001, +4.90968432013E+001
+3.26878130217E+006, +5.52403872839E-001, +5.18295831010E+001
+3.43555926544E+006, +6.60823146585E-001, +5.44192979575E+001
+3.60233722871E+006, +7.11863314413E-001, +5.71309674020E+001
+3.76911519199E+006, +6.29254957684E-001, +5.98378702411E+001
+3.93589315526E+006, +5.73621442828E-001, +6.23577134800E+001
+4.10267111853E+006, +6.42791334771E-001, +6.52018773585E+001
+4.26944908180E+006, +6.13344410721E-001, +6.78070031189E+001
+4.43622704508E+006, +7.05608983842E-001, +7.03050871640E+001
+4.60300500835E+006, +7.06902805328E-001, +7.31018601875E+001
+4.76978297162E+006, +7.02635078958E-001, +7.56064605445E+001
+4.93656093489E+006, +7.05791304407E-001, +7.84018379778E+001
+5.10333889816E+006, +8.44291430717E-001, +8.09371843697E+001
+5.27011686144E+006, +9.08731144614E-001, +8.38554390399E+001
+5.43689482471E+006, +7.35819996224E-001, +8.63837388965E+001
+5.60367278798E+006, +7.75414254643E-001, +8.92198565390E+001
+5.77045075125E+006, +6.98980510323E-001, +9.17040785012E+001
+5.93722871452E+006, +8.50596790535E-001, +9.45078310778E+001
+6.10400667780E+006, +7.52047144260E-001, +9.72239953676E+001
+6.27078464107E+006, +9.33604424892E-001, +9.98226765301E+001
+6.43756260434E+006, +9.45864766378E-001, +1.02563841179E+002
+6.60434056761E+006, +9.69937222959E-001, +1.05266359501E+002
+6.77111853088E+006, +1.10498193334E+000, +1.07929881707E+002
+6.93789649416E+006, +1.01360997362E+000, +1.10679576582E+002
+7.10467445743E+006, +9.73545727184E-001, +1.13335043717E+002
+7.27145242070E+006, +1.13279937282E+000, +1.16013660570E+002
+7.43823038397E+006, +1.10048119216E+000, +1.18644305929E+002
+7.60500834725E+006, +1.05734298638E+000, +1.21425823028E+002
+7.77178631052E+006, +1.16865818747E+000, +1.24267327354E+002
+7.93856427379E+006, +1.15594568897E+000, +1.26890901041E+002
+8.10534223706E+006, +1.17944459762E+000, +1.29555586996E+002
+8.27212020033E+006, +1.13927792885E+000, +1.32294767364E+002
+8.43889816361E+006, +1.02715843974E+000, +1.35051361186E+002
+8.60567612688E+006, +1.00805702357E+000, +1.37711988963E+002
+8.77245409015E+006, +1.01460391826E+000, +1.40449922983E+002
+8.93923205342E+006, +1.07601256356E+000, +1.43240103078E+002
+9.10601001669E+006, +9.67750443289E-001, +1.46049385545E+002
+9.27278797997E+006, +1.05341231124E+000, +1.48860618285E+002
+9.43956594324E+006, +1.02631947014E+000, +1.51553794987E+002
+9.60634390651E+006, +9.30420920472E-001, +1.54372288984E+002
+9.77312186978E+006, +9.22098663501E-001, +1.57012052181E+002
+9.93989983306E+006, +1.16683168832E+000, +1.60059290940E+002
+1.01066777963E+007, +9.35276315524E-001, +1.62674589089E+002
+1.02734557596E+007, +8.56971618180E-001, +1.65596760572E+002
+1.04402337229E+007, +8.18228088716E-001, +1.68342924505E+002
+1.06070116861E+007, +8.16319286546E-001, +1.71161671477E+002
+1.07737896494E+007, +8.66132069475E-001, +1.73980454970E+002
+1.09405676127E+007, +9.27077271502E-001, +1.76761202919E+002
+1.11073455760E+007, +9.27473939195E-001, +1.79714467550E+002
+1.12741235392E+007, +9.64770938667E-001, +1.82409554497E+002
+1.14409015025E+007, +9.71186647685E-001, +1.85500543144E+002
+1.16076794658E+007, +9.84116210688E-001, +1.88292182290E+002
+1.17744574290E+007, +8.70883735291E-001, +1.91362006525E+002
+1.19412353923E+007, +7.87927182110E-001, +1.94075708381E+002
+1.21080133556E+007, +6.04976188669E-001, +1.97119845762E+002
+1.22747913189E+007, +7.13571928001E-001, +1.99940107763E+002
+1.24415692821E+007, +6.61625141984E-001, +2.02826438173E+002
+1.26083472454E+007, +6.66061367287E-001, +2.05781848832E+002
+1.27751252087E+007, +8.16138727716E-001, +2.08526006857E+002
+1.29419031720E+007, +4.88403422035E-001, +2.11403913796E+002
+1.31086811352E+007, +8.36414830117E-001, +2.14474144527E+002
+1.32754590985E+007, +6.69130821073E-001, +2.17522226853E+002
+1.34422370618E+007, +6.23115577348E-001, +2.20294016490E+002
+1.36090150250E+007, +1.12763205369E+000, +2.23306766041E+002
+1.37757929883E+007, +5.44556349612E-001, +2.26242913353E+002
+1.39425709516E+007, +8.52052114804E-001, +2.29307619241E+002
+1.41093489149E+007, +6.33457937492E-001, +2.32224986178E+002
+1.42761268781E+007, +7.48027515905E-001, +2.35343434296E+002
+1.44429048414E+007, +7.38378548119E-001, +2.38320190955E+002
+1.46096828047E+007, +7.12949558690E-001, +2.41247404302E+002
+1.47764607679E+007, +9.03654411676E-001, +2.44082149062E+002
+1.49432387312E+007, +6.43857537873E-001, +2.47285083966E+002
+1.51100166945E+007, +6.85155344431E-001, +2.50318011086E+002
+1.52767946578E+007, +8.81592712219E-001, +2.53553156927E+002
+1.54435726210E+007, +8.58128279571E-001, +2.56309918327E+002
+1.56103505843E+007, +1.23463110628E+000, +2.59863279476E+002
+1.57771285476E+007, +9.88181467312E-001, +2.62515387390E+002
+1.59439065109E+007, +1.15775901592E+000, +2.65453524618E+002
+1.61106844741E+007, +8.52149825272E-001, +2.68764055448E+002
+1.62774624374E+007, +1.05455031183E+000, +2.71608331461E+002
+1.64442404007E+007, +4.72119766893E-001, +2.74650548729E+002
+1.66110183639E+007, +1.06194399099E+000, +2.78014278179E+002
+1.67777963272E+007, +8.77701874887E-001, +2.81372090030E+002
+1.69445742905E+007, +1.14069148123E+000, +2.84349335931E+002
+1.71113522538E+007, +1.33656650436E-001, +2.87365087111E+002
+1.72781302170E+007, +7.38670580045E-001, +2.90717746837E+002
+1.74449081803E+007, -9.86664269615E-002, +2.93944155171E+002
+1.76116861436E+007, +7.35582158564E-001, +2.97583166149E+002
+1.77784641068E+007, +9.04918856105E-001, +2.99692495668E+002
+1.79452420701E+007, +9.10977909279E-001, +3.03410569523E+002
+1.81120200334E+007, +5.62706787035E-001, +3.06324780982E+002
+1.82787979967E+007, +8.10558641082E-001, +3.10027114991E+002
+1.84455759599E+007, +9.11297508811E-001, +3.13588994305E+002
+1.86123539232E+007, +1.09605418292E+000, +3.16550949570E+002
+1.87791318865E+007, +4.88361455625E-001, +3.20199248552E+002
+1.89459098497E+007, +6.09746101789E-001, +3.23704546241E+002
+1.91126878130E+007, +1.03067217907E+000, +3.26257036598E+002
+1.92794657763E+007, +6.91692541415E-001, +3.29964738089E+002
+1.94462437396E+007, +1.10344898310E+000, +3.33359588054E+002
+1.96130217028E+007, +1.03577032456E+000, +3.37128682572E+002
+1.97797996661E+007, +1.08128369758E+000, +3.39643647550E+002
+1.99465776294E+007, +2.96570721591E-001, +3.43363848764E+002
+2.01133555927E+007, +4.43016817255E-001, +3.46844265024E+002
+2.02801335559E+007, +1.06153248907E+000, +3.51073427787E+002
+2.04469115192E+007, +1.70535923504E+000, +3.53664857875E+002
+2.06136894825E+007, +7.82623186133E-001, +3.57718911970E+002
+2.07804674457E+007, +1.15199172980E+000, +3.61054566937E+002
+2.09472454090E+007, +7.71263578450E-001, +3.64752143730E+002
+2.11140233723E+007, +1.16114610768E+000, +3.67830543164E+002
+2.12808013356E+007, +2.01273302217E+000, +3.71781529182E+002
+2.14475792988E+007, +1.59704174410E+000, +3.76009991379E+002
+2.16143572621E+007, +2.22445808670E+000, +3.78543876505E+002
+2.17811352254E+007, +8.61692778997E-001, +3.81812093069E+002
+2.19479131886E+007, +2.41133276027E+000, +3.86278482007E+002
+2.21146911519E+007, +2.08498941969E+000, +3.88994146419E+002
+2.22814691152E+007, +2.05844207284E+000, +3.92952982464E+002
+2.24482470785E+007, +2.10646477050E+000, +3.96898024193E+002
+2.26150250417E+007, +2.77034132065E+000, +4.00594676484E+002
+2.27818030050E+007, +2.02041406332E+000, +4.04868422586E+002
+2.29485809683E+007, +3.57110095723E+000, +4.07755303682E+002
+2.31153589316E+007, +2.14144793075E+000, +4.12872791146E+002
+2.32821368948E+007, +3.07739539773E+000, +4.15554847542E+002
+2.34489148581E+007, +2.98982873438E+000, +4.18918996800E+002
+2.36156928214E+007, +2.67070759706E+000, +4.23484691384E+002
+2.37824707846E+007, +3.39167025123E+000, +4.27029831413E+002
+2.39492487479E+007, +3.38074832843E+000, +4.31016678405E+002
+2.41160267112E+007, +3.81793563070E+000, +4.34819509311E+002
+2.42828046745E+007, +2.55374148659E+000, +4.38541488603E+002
+2.44495826377E+007, +3.02089814437E+000, +4.43617522411E+002
+2.46163606010E+007, +3.43045913220E+000, +4.45794361220E+002
+2.47831385643E+007, +3.55919136103E+000, +4.50419518067E+002
+2.49499165275E+007, +5.61100088003E+000, +4.54654044854E+002
+2.51166944908E+007, +5.26841600692E+000, +4.57896485733E+002
+2.52834724541E+007, +5.38662271958E+000, +4.62303578893E+002
+2.54502504174E+007, +5.95410254097E+000, +4.66628980251E+002
+2.56170283806E+007, +4.89240766019E+000, +4.70910357439E+002
+2.57838063439E+007, +4.80047776445E+000, +4.74689002102E+002
+2.59505843072E+007, +6.45824663550E+000, +4.78634136578E+002
+2.61173622705E+007, +6.46204600381E+000, +4.82523271302E+002
+2.62841402337E+007, +6.09725820260E+000, +4.86900820649E+002
+2.64509181970E+007, +5.60104841780E+000, +4.90915535366E+002
+2.66176961603E+007, +6.41816013475E+000, +4.96273269304E+002
+2.67844741235E+007, +6.92478396758E+000, +4.99793274814E+002
+2.69512520868E+007, +6.76942478746E+000, +5.02104524132E+002
+2.71180300501E+007, +5.83208482562E+000, +5.06009392982E+002
+2.72848080134E+007, +7.67767719871E+000, +5.11670366134E+002
+2.74515859766E+007, +8.17345713765E+000, +5.14649261658E+002
+2.76183639399E+007, +6.46221070447E+000, +5.18047549218E+002
+2.77851419032E+007, +6.80043951539E+000, +5.23149879001E+002
+2.79519198664E+007, +7.66609907489E+000, +5.26820952130E+002
+2.81186978297E+007, +7.87541516448E+000, +5.30526281232E+002
+2.82854757930E+007, +7.76915276816E+000, +5.35680666898E+002
+2.84522537563E+007, +5.41293619366E+000, +5.39977371426E+002
+2.86190317195E+007, +7.44704956734E+000, +5.44800659670E+002
+2.87858096828E+007, +7.94940396768E+000, +5.49099264465E+002
+2.89525876461E+007, +6.66465509298E+000, +5.53803355512E+002
+2.91193656093E+007, +6.21981047764E+000, +5.55816593929E+002
+2.92861435726E+007, +5.94119591504E+000, +5.62707053362E+002
+2.94529215359E+007, +6.19278832813E+000, +5.67626203116E+002
+2.96196994992E+007, +7.50545828400E+000, +5.71648868889E+002
+2.97864774624E+007, +8.39383585636E+000, +5.75882725123E+002
+2.99532554257E+007, +9.26058687642E+000, +5.82202008104E+002
+3.01200333890E+007, +6.39465318175E+000, +5.86673026469E+002
+3.02868113523E+007, +6.80843955565E+000, +5.92457887197E+002
+3.04535893155E+007, +5.89397324310E+000, +5.96741935347E+002
+3.06203672788E+007, +5.65082881038E+000, +6.03310812596E+002
+3.07871452421E+007, +5.69860248315E+000, +6.04368683080E+002
+3.09539232053E+007, +5.94256691316E+000, +6.11266029973E+002
+3.11207011686E+007, +5.68492465671E+000, +6.18061034668E+002
+3.12874791319E+007, +5.68108407084E+000, +6.22014928855E+002
+3.14542570952E+007, +8.59607106652E+000, +6.28111018461E+002
+3.16210350584E+007, +6.06750457389E+000, +6.33298303337E+002
+3.17878130217E+007, +6.63280463530E+000, +6.39477207068E+002
+3.19545909850E+007, +7.43343252573E+000, +6.44036345076E+002
+3.21213689482E+007, +4.43970941923E+000, +6.49373488847E+002
+3.22881469115E+007, +4.61871669009E+000, +6.52215004319E+002
+3.24549248748E+007, +5.83193396255E+000, +6.59189512406E+002
+3.26217028381E+007, +4.16524429205E+000, +6.65627281197E+002
+3.27884808013E+007, +5.85016521522E+000, +6.70660965052E+002
+3.29552587646E+007, +6.97965289414E+000, +6.75214403263E+002
+3.31220367279E+007, +6.43796912546E+000, +6.82073318968E+002
+3.32888146912E+007, +5.71216529850E+000, +6.87635284506E+002
+3.34555926544E+007, +3.16794639501E+000, +6.94086780044E+002
+3.36223706177E+007, +6.11659593161E+000, +6.99523191180E+002
+3.37891485810E+007, +6.84901646077E+000, +7.03000727815E+002
+3.39559265442E+007, +6.24697431489E+000, +7.13385483205E+002
+3.41227045075E+007, +5.91419046484E+000, +7.16855139694E+002
+3.42894824708E+007, +6.85388007179E+000, +7.24734187452E+002
+3.44562604341E+007, +7.08336093203E+000, +7.27788134449E+002
+3.46230383973E+007, +9.11392602414E+000, +7.38222328736E+002
+3.47898163606E+007, +6.53053956535E+000, +7.43581039205E+002
+3.49565943239E+007, +1.00673847160E+001, +7.50922387642E+002
+3.51233722871E+007, +9.68255995740E+000, +7.58587888056E+002
+3.52901502504E+007, +9.36538421775E+000, +7.59758173047E+002
+3.54569282137E+007, +7.68704968419E+000, +7.67055422495E+002
+3.56237061770E+007, +3.89565531315E+000, +7.77934682458E+002
+3.57904841402E+007, +5.74315177466E+000, +7.82517615500E+002
+3.59572621035E+007, +6.56651290789E+000, +7.90197281150E+002
+3.61240400668E+007, +8.10986310083E+000, +7.95607332882E+002
+3.62908180301E+007, +6.80562263331E+000, +8.07054291068E+002
+3.64575959933E+007, +6.62763428742E+000, +8.13969436420E+002
+3.66243739566E+007, +1.05249092517E+001, +8.16776085440E+002
+3.67911519199E+007, +7.97865473884E+000, +8.25081350707E+002
+3.69579298831E+007, +9.11320237995E+000, +8.27607118663E+002
+3.71247078464E+007, +8.55962309061E+000, +8.42619729771E+002
+3.72914858097E+007, +7.28856620946E+000, +8.49912986648E+002
+3.74582637730E+007, +1.37032102175E+001, +8.60333595318E+002
+3.76250417362E+007, +1.23155354011E+001, +8.62197673263E+002
+3.77918196995E+007, +7.95328429537E+000, +8.71642390407E+002
+3.79585976628E+007, +9.17816775986E+000, +8.77691645308E+002
+3.81253756260E+007, +1.37685105309E+001, +8.86481759432E+002
+3.82921535893E+007, +1.14638076157E+001, +8.97254858704E+002
+3.84589315526E+007, +1.26571105709E+001, +9.03731231988E+002
+3.86257095159E+007, +7.90991516391E+000, +9.15649030972E+002
+3.87924874791E+007, +9.12628091682E+000, +9.21014482295E+002
+3.89592654424E+007, +1.32770235531E+001, +9.25473215353E+002
+3.91260434057E+007, +1.37745812566E+001, +9.41661260170E+002
+3.92928213689E+007, +1.10835984482E+001, +9.47541185452E+002
+3.94595993322E+007, +8.08886369862E+000, +9.58506379422E+002
+3.96263772955E+007, +1.31181485327E+001, +9.65749051208E+002
+3.97931552588E+007, +8.64515716922E+000, +9.73257393749E+002
+3.99599332220E+007, +1.38016933398E+001, +9.80735475723E+002
+4.01267111853E+007, +1.20174320793E+001, +9.97152216840E+002
+4.02934891486E+007, +1.17628677650E+001, +1.00232382253E+003
+4.04602671119E+007, +1.74010074960E+001, +1.00844416106E+003
+4.06270450751E+007, +1.73321963091E+001, +1.02411833935E+003
+4.07938230384E+007, +1.74535599383E+001, +1.03046764185E+003
+4.09606010017E+007, +1.21596018862E+001, +1.04322700727E+003
+4.11273789649E+007, +1.61092919873E+001, +1.05322950450E+003
+4.12941569282E+007, +1.91025225065E+001, +1.06701331678E+003
+4.14609348915E+007, +2.23986292195E+001, +1.08190580053E+003
+4.16277128548E+007, +2.41311860907E+001, +1.08737690542E+003
+4.17944908180E+007, +1.80221249228E+001, +1.09518525534E+003
+4.19612687813E+007, +2.09559262913E+001, +1.11173898577E+003
+4.21280467446E+007, +1.99082274843E+001, +1.12334779008E+003
+4.22948247078E+007, +2.01053725186E+001, +1.13093476741E+003
+4.24616026711E+007, +2.18394537681E+001, +1.14447328985E+003
+4.26283806344E+007, +2.60145028255E+001, +1.15776738648E+003
+4.27951585977E+007, +1.57481380218E+001, +1.17442082778E+003
+4.29619365609E+007, +2.93078378223E+001, +1.18517545494E+003
+4.31287145242E+007, +2.67441127062E+001, +1.19907457835E+003
+4.32954924875E+007, +2.90580429824E+001, +1.21051930645E+003
+4.34622704508E+007, +2.49476924151E+001, +1.22620092467E+003
+4.36290484140E+007, +2.81621906994E+001, +1.23942983532E+003
+4.37958263773E+007, +2.12944579172E+001, +1.25733499920E+003
+4.39626043406E+007, +2.98721871151E+001, +1.26618893940E+003
+4.41293823038E+007, +3.21733340586E+001, +1.28530213192E+003
+4.42961602671E+007, +3.86908004327E+001, +1.29744026407E+003
+4.44629382304E+007, +3.27218711369E+001, +1.31520949201E+003
+4.46297161937E+007, +3.21503676042E+001, +1.32425659065E+003
+4.47964941569E+007, +3.12203220212E+001, +1.34361340902E+003
+4.49632721202E+007, +2.96772523356E+001, +1.36279228910E+003
+4.51300500835E+007, +4.12448068765E+001, +1.37034017011E+003
+4.52968280467E+007, +4.42268263396E+001, +1.39139712806E+003
+4.54636060100E+007, +4.05966575164E+001, +1.42423947370E+003
+4.56303839733E+007, +3.84627077545E+001, +1.43255936411E+003
+4.57971619366E+007, +4.59676575796E+001, +1.44621241443E+003
+4.59639398998E+007, +4.07583259536E+001, +1.48304143535E+003
+4.61307178631E+007, +5.62426148116E+001, +1.48371251659E+003
+4.62974958264E+007, +5.64643918480E+001, +1.51407530433E+003
+4.64642737896E+007, +4.72068450921E+001, +1.53069772090E+003
+4.66310517529E+007, +5.19282050878E+001, +1.56060087032E+003
+4.67978297162E+007, +7.23419838955E+001, +1.56435414543E+003
+4.69646076795E+007, +6.57754960883E+001, +1.60968298457E+003
+4.71313856427E+007, +7.09113913090E+001, +1.61586188598E+003
+4.72981636060E+007, +7.92069138723E+001, +1.65413863696E+003
+4.74649415693E+007, +7.02888214219E+001, +1.66461057290E+003
+4.76317195326E+007, +8.56543146965E+001, +1.68587843199E+003
+4.77984974958E+007, +9.47063324122E+001, +1.71343898834E+003
+4.79652754591E+007, +1.06829529357E+002, +1.74396994551E+003
+4.81320534224E+007, +1.15706303528E+002, +1.75944619822E+003
+4.82988313856E+007, +1.01065205184E+002, +1.79075703265E+003
+4.84656093489E+007, +1.10881794065E+002, +1.81918760208E+003
+4.86323873122E+007, +1.27620576619E+002, +1.84733681298E+003
+4.87991652755E+007, +1.33577119286E+002, +1.88134924531E+003
+4.89659432387E+007, +1.33833870790E+002, +1.89787819185E+003
+4.91327212020E+007, +1.58697495638E+002, +1.93637601759E+003
+4.92994991653E+007, +1.69561933780E+002, +1.94905902333E+003
+4.94662771285E+007, +1.90405194095E+002, +1.99344817581E+003
+4.96330550918E+007, +1.95318286741E+002, +2.01181935861E+003
+4.97998330551E+007, +2.05864148417E+002, +2.03486188853E+003
+4.99666110184E+007, +2.19137788725E+002, +2.06442437025E+003
+5.01333889816E+007, +2.20418383227E+002, +2.08972088485E+003
+5.03001669449E+007, +2.28025912524E+002, +2.11951129497E+003
+5.04669449082E+007, +2.42524687560E+002, +2.16503533533E+003
+5.06337228715E+007, +2.78648572104E+002, +2.19665976873E+003
+5.08005008347E+007, +2.71139124395E+002, +2.21194458689E+003
+5.09672787980E+007, +2.79450278899E+002, +2.26188773550E+003
+5.11340567613E+007, +2.87275195030E+002, +2.32119290069E+003
+5.13008347245E+007, +2.70947063590E+002, +2.35566220919E+003
+5.14676126878E+007, +2.98262026669E+002, +2.37373905318E+003
+5.16343906511E+007, +3.27845660776E+002, +2.43868659005E+003
+5.18011686144E+007, +3.02521298618E+002, +2.47327489777E+003
+5.19679465776E+007, +3.13880557966E+002, +2.53217965048E+003
+5.21347245409E+007, +3.41070841065E+002, +2.57540848677E+003
+5.23015025042E+007, +3.52941450918E+002, +2.66476034888E+003
+5.24682804674E+007, +3.48775505132E+002, +2.72864302313E+003
+5.26350584307E+007, +3.93411107523E+002, +2.77287793841E+003
+5.28018363940E+007, +3.64587803732E+002, +2.83610697042E+003
+5.29686143573E+007, +3.78736122437E+002, +2.90474326546E+003
+5.31353923205E+007, +4.07657819826E+002, +2.95630825147E+003
+5.33021702838E+007, +4.51258384917E+002, +3.04940658226E+003
+5.34689482471E+007, +4.82800093374E+002, +3.13757833023E+003
