"# Channel 1"
"# Trace 1"
Frequency, Formatted Data, Formatted Data
+1.00000000000E+006, +5.16410790194E+000, +1.71584432061E+001
+1.16527545910E+006, +5.19569555722E+000, +2.00304290250E+001
+1.33055091820E+006, +5.25449680118E+000, +2.27812535222E+001
+1.49582637730E+006, +5.19602648467E+000, +2.56089928639E+001
+1.66110183639E+006, +5.22967298879E+000, +2.84414475634E+001
+1.82637729549E+006, +5.22433280278E+000, +3.12185025694E+001
+1.99165275459E+006, +5.26301583445E+000, +3.40530549424E+001
+2.15692821369E+006, +5.26233071842E+000, +3.68741027194E+001
+2.32220367279E+006, +5.20769281225E+000, +3.96860912054E+001
+2.48747913189E+006, +5.23486105116E+000, +4.25300358625E+001
+2.65275459098E+006, +5.16433379996E+000, +4.53493132403E+001
+2.81803005008E+006, +5.21206630300E+000, +4.82223404850E+001
+2.98330550918E+006, +5.16407386435E+000, +5.09178632415E+001
+3.14858096828E+006, +5.28148826318E+000, +5.37544412805E+001
+3.31385642738E+006, +5.34762404150E+000, +5.65937123295E+001
+3.47913188648E+006, +5.25132123324E+000, +5.94993719469E+001
+3.64440734558E+006, +5.30828221421E+000, +6.21943527168E+001
+3.80968280467E+006, +5.43088834138E+000, +6.50646316842E+001
+3.97495826377E+006, +5.43706305470E+000, +6.79417911699E+001
+4.14023372287E+006, +5.50887137656E+000, +7.09513931099E+001
+4.30550918197E+006, +5.46049520639E+000, +7.34280722240E+001
+4.47078464107E+006, +5.40302336275E+000, +7.63899422329E+001
+4.63606010017E+006, +5.36517270874E+000, +7.91493274714E+001
+4.80133555927E+006, +5.32801341179E+000, +8.20980596711E+001
+4.96661101836E+006, +5.43377543386E+000, +8.48990454493E+001
+5.13188647746E+006, +5.43498863441E+000, +8.77474811741E+001
+5.29716193656E+006, +5.43530980280E+000, +9.04473342429E+001
+5.46243739566E+006, +5.50976231400E+000, +9.33675231497E+001
+5.62771285476E+006, +5.75801630383E+000, +9.61922028514E+001
+5.79298831386E+006, +5.77408632728E+000, +9.92128505006E+001
+5.95826377295E+006, +5.76255346437E+000, +1.01983752393E+002
+6.12353923205E+006, +5.98340613707E+000, +1.04826760287E+002
+6.28881469115E+006, +5.78609576994E+000, +1.07628660264E+002
+6.45409015025E+006, +5.98598346382E+000, +1.10431812525E+002
+6.61936560935E+006, +5.93817861566E+000, +1.13243542838E+002
+6.78464106845E+006, +5.97103025502E+000, +1.16136326789E+002
+6.94991652755E+006, +6.04055715635E+000, +1.18896675025E+002
+7.11519198664E+006, +6.13044159208E+000, +1.21746214070E+002
+7.28046744574E+006, +6.18588549600E+000, +1.24534578465E+002
+7.44574290484E+006, +6.27294129987E+000, +1.27503956501E+002
+7.61101836394E+006, +6.29635146391E+000, +1.30327813582E+002
+7.77629382304E+006, +6.34705740306E+000, +1.33089184895E+002
+7.94156928214E+006, +6.23155454270E+000, +1.35963056280E+002
+8.10684474124E+006, +6.25695385440E+000, +1.38595415616E+002
+8.27212020033E+006, +6.41748303602E+000, +1.41631363245E+002
+8.43739565943E+006, +6.44959302500E+000, +1.44527048062E+002
+8.60267111853E+006, +6.16076628859E+000, +1.47347347500E+002
+8.76794657763E+006, +6.54855129611E+000, +1.50206285500E+002
+8.93322203673E+006, +6.37581687968E+000, +1.53066122668E+002
+9.09849749583E+006, +6.50676294195E+000, +1.55820737230E+002
+9.26377295492E+006, +6.39252341615E+000, +1.58910595627E+002
+9.42904841402E+006, +6.47067107749E+000, +1.61620421875E+002
+9.59432387312E+006, +6.47084233516E+000, +1.64307811931E+002
+9.75959933222E+006, +6.44500661481E+000, +1.67340937344E+002
+9.92487479132E+006, +6.53349659295E+000, +1.70067971169E+002
+1.00901502504E+007, +6.65055454592E+000, +1.72970460350E+002
+1.02554257095E+007, +6.46763265262E+000, +1.75832799961E+002
+1.04207011686E+007, +6.68593709763E+000, +1.78622780401E+002
+1.05859766277E+007, +6.69813651668E+000, +1.81708383405E+002
+1.07512520868E+007, +6.61836970194E+000, +1.84429729475E+002
+1.09165275459E+007, +6.47312874161E+000, +1.87344892714E+002
+1.10818030050E+007, +6.74625469379E+000, +1.90594302030E+002
+1.12470784641E+007, +6.73473060452E+000, +1.93002091681E+002
+1.14123539232E+007, +6.68672115524E+000, +1.95761313229E+002
+1.15776293823E+007, +6.95059875653E+000, +1.99010840565E+002
+1.17429048414E+007, +6.78351265117E+000, +2.01882406542E+002
+1.19081803005E+007, +6.80396802529E+000, +2.04904591602E+002
+1.20734557596E+007, +6.73403196990E+000, +2.07854804385E+002
+1.22387312187E+007, +6.70219299699E+000, +2.10487503996E+002
+1.24040066778E+007, +7.02023344797E+000, +2.13369043366E+002
+1.25692821369E+007, +6.89290602289E+000, +2.16270474703E+002
+1.27345575960E+007, +7.10902231739E+000, +2.19201546374E+002
+1.28998330551E+007, +7.07586725897E+000, +2.22108237045E+002
+1.30651085142E+007, +6.66777031005E+000, +2.24881685497E+002
+1.32303839733E+007, +7.19217262877E+000, +2.28069515863E+002
+1.33956594324E+007, +7.10001249032E+000, +2.31106286865E+002
+1.35609348915E+007, +7.10168796774E+000, +2.33643605630E+002
+1.37262103506E+007, +6.91401077056E+000, +2.36336991170E+002
+1.38914858097E+007, +7.34688244410E+000, +2.39400438727E+002
+1.40567612688E+007, +7.07623286043E+000, +2.42368204561E+002
+1.42220367279E+007, +7.09823330579E+000, +2.45596733731E+002
+1.43873121870E+007, +7.08986729131E+000, +2.48827222856E+002
+1.45525876461E+007, +7.14787165167E+000, +2.51606978712E+002
+1.47178631052E+007, +7.33649653334E+000, +2.54506302171E+002
+1.48831385643E+007, +7.29407988605E+000, +2.56929792573E+002
+1.50484140234E+007, +7.28185378191E+000, +2.60539753748E+002
+1.52136894825E+007, +7.08158973960E+000, +2.63161222966E+002
+1.53789649416E+007, +7.31416194405E+000, +2.66481785929E+002
+1.55442404007E+007, +7.28984809811E+000, +2.69272127087E+002
+1.57095158598E+007, +7.21786198135E+000, +2.72121250426E+002
+1.58747913189E+007, +7.61048801643E+000, +2.75346287936E+002
+1.60400667780E+007, +7.66544542667E+000, +2.77757171757E+002
+1.62053422371E+007, +7.64413303668E+000, +2.80541497920E+002
+1.63706176962E+007, +7.60507321790E+000, +2.83662284283E+002
+1.65358931553E+007, +7.65318283403E+000, +2.86588070972E+002
+1.67011686144E+007, +8.28380965593E+000, +2.89741973853E+002
+1.68664440735E+007, +7.66031299383E+000, +2.92582368264E+002
+1.70317195326E+007, +7.28210508368E+000, +2.96214955482E+002
+1.71969949917E+007, +6.87621058995E+000, +2.99084113894E+002
+1.73622704508E+007, +7.13974292987E+000, +3.02238327404E+002
+1.75275459098E+007, +7.29548399882E+000, +3.04842936812E+002
+1.76928213689E+007, +7.55301386696E+000, +3.08109960817E+002
+1.78580968280E+007, +7.63847857199E+000, +3.11590058572E+002
+1.80233722871E+007, +8.07671668093E+000, +3.14274978687E+002
+1.81886477462E+007, +7.89031477126E+000, +3.16952644157E+002
+1.83539232053E+007, +8.46157620650E+000, +3.20194495015E+002
+1.85191986644E+007, +8.21608253854E+000, +3.23709982029E+002
+1.86844741235E+007, +8.13351509898E+000, +3.25252720990E+002
+1.88497495826E+007, +8.65287823925E+000, +3.29092734197E+002
+1.90150250417E+007, +8.03845880517E+000, +3.32701671132E+002
+1.91803005008E+007, +8.14688596357E+000, +3.35114959923E+002
+1.93455759599E+007, +8.39838158066E+000, +3.37990513185E+002
+1.95108514190E+007, +9.53348362699E+000, +3.41771609843E+002
+1.96761268781E+007, +8.58043579490E+000, +3.44722825450E+002
+1.98414023372E+007, +9.09692794011E+000, +3.47961364332E+002
+2.00066777963E+007, +7.91109356651E+000, +3.49906756377E+002
+2.01719532554E+007, +8.40365472936E+000, +3.53657544021E+002
+2.03372287145E+007, +8.89690761726E+000, +3.57447500880E+002
+2.05025041736E+007, +9.11702145069E+000, +3.60315200876E+002
+2.06677796327E+007, +8.80792883820E+000, +3.63710985374E+002
+2.08330550918E+007, +8.25386654277E+000, +3.66410857681E+002
+2.09983305509E+007, +9.24557920568E+000, +3.69177182881E+002
+2.11636060100E+007, +9.26478545164E+000, +3.73150676476E+002
+2.13288814691E+007, +9.05675843407E+000, +3.75457640056E+002
+2.14941569282E+007, +9.35927927747E+000, +3.78432163428E+002
+2.16594323873E+007, +9.31569908290E+000, +3.82271054329E+002
+2.18247078464E+007, +9.81825246462E+000, +3.85191599964E+002
+2.19899833055E+007, +9.15873582693E+000, +3.89272859448E+002
+2.21552587646E+007, +9.07624114439E+000, +3.91553016813E+002
+2.23205342237E+007, +1.03137654336E+001, +3.94305100189E+002
+2.24858096828E+007, +9.28265010353E+000, +3.97807422239E+002
+2.26510851419E+007, +1.00057149366E+001, +4.01214622350E+002
+2.28163606010E+007, +1.01491296257E+001, +4.03830254331E+002
+2.29816360601E+007, +9.63336874887E+000, +4.07295584775E+002
+2.31469115192E+007, +1.09961276818E+001, +4.10820487445E+002
+2.33121869783E+007, +1.12198359207E+001, +4.14302660792E+002
+2.34774624374E+007, +1.14737629336E+001, +4.16852381888E+002
+2.36427378965E+007, +1.05747482039E+001, +4.20964181038E+002
+2.38080133556E+007, +1.14364583481E+001, +4.23976050649E+002
+2.39732888147E+007, +1.12506833103E+001, +4.28107381267E+002
+2.41385642738E+007, +1.12271209033E+001, +4.30350245806E+002
+2.43038397329E+007, +1.12393822503E+001, +4.33510973709E+002
+2.44691151920E+007, +1.10309547287E+001, +4.36711505736E+002
+2.46343906511E+007, +1.15572733249E+001, +4.39506449369E+002
+2.47996661102E+007, +1.11869346414E+001, +4.43274663509E+002
+2.49649415693E+007, +1.15163095770E+001, +4.47171314044E+002
+2.51302170284E+007, +1.07167667768E+001, +4.50727616561E+002
+2.52954924875E+007, +1.22957665664E+001, +4.52784282652E+002
+2.54607679466E+007, +1.23462991329E+001, +4.56230721082E+002
+2.56260434057E+007, +1.22574690908E+001, +4.59192219328E+002
+2.57913188648E+007, +1.23760254056E+001, +4.61821811184E+002
+2.59565943239E+007, +1.31702745666E+001, +4.66433074300E+002
+2.61218697830E+007, +1.30478252136E+001, +4.69563458912E+002
+2.62871452421E+007, +1.26238598513E+001, +4.72841447240E+002
+2.64524207012E+007, +1.23943148206E+001, +4.75803928607E+002
+2.66176961603E+007, +1.29653758307E+001, +4.79346603662E+002
+2.67829716194E+007, +1.22907084606E+001, +4.81712075325E+002
+2.69482470785E+007, +1.33811555119E+001, +4.86761006706E+002
+2.71135225376E+007, +1.36501465310E+001, +4.90588302590E+002
+2.72787979967E+007, +1.41412170456E+001, +4.93662810253E+002
+2.74440734558E+007, +1.41261769794E+001, +4.97158160129E+002
+2.76093489149E+007, +1.47102042136E+001, +4.99646730233E+002
+2.77746243740E+007, +1.40283024707E+001, +5.03025320560E+002
+2.79398998331E+007, +1.35572530434E+001, +5.07206233199E+002
+2.81051752922E+007, +1.47139940737E+001, +5.10566977557E+002
+2.82704507513E+007, +1.45624734416E+001, +5.14493214087E+002
+2.84357262104E+007, +1.52342937107E+001, +5.17366107486E+002
+2.86010016694E+007, +1.34313239872E+001, +5.21726215479E+002
+2.87662771285E+007, +1.48866130040E+001, +5.24195834158E+002
+2.89315525876E+007, +1.52858439396E+001, +5.28855202480E+002
+2.90968280467E+007, +1.56952364672E+001, +5.33114772198E+002
+2.92621035058E+007, +1.50953568013E+001, +5.34971828031E+002
+2.94273789649E+007, +1.60161728503E+001, +5.38408627312E+002
+2.95926544240E+007, +1.61334761316E+001, +5.41136205179E+002
+2.97579298831E+007, +1.54911970163E+001, +5.44912640117E+002
+2.99232053422E+007, +1.54113881758E+001, +5.49301240292E+002
+3.00884808013E+007, +1.71420421897E+001, +5.52454904175E+002
+3.02537562604E+007, +1.66357472172E+001, +5.55481262431E+002
+3.04190317195E+007, +1.62867239650E+001, +5.60496927833E+002
+3.05843071786E+007, +1.51763544176E+001, +5.62120170012E+002
+3.07495826377E+007, +1.34401672596E+001, +5.66861992483E+002
+3.09148580968E+007, +1.58537820950E+001, +5.69523531037E+002
+3.10801335559E+007, +1.71877842482E+001, +5.74687688360E+002
+3.12454090150E+007, +1.60956165866E+001, +5.77717295558E+002
+3.14106844741E+007, +1.59621557282E+001, +5.81124895146E+002
+3.15759599332E+007, +1.58522578528E+001, +5.84575236835E+002
+3.17412353923E+007, +1.61998322799E+001, +5.88757683988E+002
+3.19065108514E+007, +1.82003961037E+001, +5.91972700891E+002
+3.20717863105E+007, +1.38753454115E+001, +5.94873143256E+002
+3.22370617696E+007, +1.70862513853E+001, +5.99789601661E+002
+3.24023372287E+007, +1.48531235680E+001, +6.04919105043E+002
+3.25676126878E+007, +1.92983703986E+001, +6.06683711123E+002
+3.27328881469E+007, +1.73743087462E+001, +6.11428817950E+002
+3.28981636060E+007, +1.57087284390E+001, +6.11915937583E+002
+3.30634390651E+007, +1.82678942836E+001, +6.18407922477E+002
+3.32287145242E+007, +1.78129624257E+001, +6.24787315524E+002
+3.33939899833E+007, +1.75080590492E+001, +6.27383669972E+002
+3.35592654424E+007, +1.82667655352E+001, +6.30056768542E+002
+3.37245409015E+007, +1.91226879286E+001, +6.34529479441E+002
+3.38898163606E+007, +1.64589317147E+001, +6.38054036581E+002
+3.40550918197E+007, +1.77086304522E+001, +6.41758118395E+002
+3.42203672788E+007, +1.89436771368E+001, +6.45614024829E+002
+3.43856427379E+007, +1.61248287418E+001, +6.50920631774E+002
+3.45509181970E+007, +1.60830805874E+001, +6.54438730966E+002
+3.47161936561E+007, +1.77309350754E+001, +6.58456833644E+002
+3.48814691152E+007, +1.83663399447E+001, +6.59843908678E+002
+3.50467445743E+007, +2.03556201412E+001, +6.65210611966E+002
+3.52120200334E+007, +2.02987232195E+001, +6.69187026749E+002
+3.53772954925E+007, +1.83938155517E+001, +6.73511651290E+002
+3.55425709516E+007, +1.74725081182E+001, +6.78555950634E+002
+3.57078464107E+007, +1.95153011751E+001, +6.82449520402E+002
+3.58731218698E+007, +2.01598975602E+001, +6.86022229651E+002
+3.60383973289E+007, +1.95615276843E+001, +6.90621378688E+002
+3.62036727880E+007, +1.88489000370E+001, +6.93900461060E+002
+3.63689482471E+007, +2.09491478246E+001, +6.96422609327E+002
+3.65342237062E+007, +1.78986146212E+001, +7.02592980369E+002
+3.66994991653E+007, +1.75580697694E+001, +7.07891527153E+002
+3.68647746244E+007, +2.11422684624E+001, +7.10627290457E+002
+3.70300500835E+007, +1.78960877713E+001, +7.16015950546E+002
+3.71953255426E+007, +1.86603302851E+001, +7.21059241696E+002
+3.73606010017E+007, +2.06969131029E+001, +7.27452574322E+002
+3.75258764608E+007, +1.88610829384E+001, +7.32604833165E+002
+3.76911519199E+007, +2.12735887363E+001, +7.33703529781E+002
+3.78564273790E+007, +1.80700031647E+001, +7.37668437053E+002
+3.80217028381E+007, +2.06026472606E+001, +7.41806240009E+002
+3.81869782972E+007, +2.00238047370E+001, +7.47411176520E+002
+3.83522537563E+007, +1.74706145017E+001, +7.51893357660E+002
+3.85175292154E+007, +1.99762511612E+001, +7.57761180989E+002
+3.86828046745E+007, +1.88809787908E+001, +7.63158074964E+002
+3.88480801336E+007, +1.90283629502E+001, +7.70138666695E+002
+3.90133555927E+007, +1.92820881568E+001, +7.73661699042E+002
+3.91786310518E+007, +1.90814799716E+001, +7.78011715243E+002
+3.93439065109E+007, +1.99725313325E+001, +7.83421365240E+002
+3.95091819699E+007, +2.29138495355E+001, +7.85918890043E+002
+3.96744574290E+007, +2.31421571207E+001, +7.88862088189E+002
+3.98397328881E+007, +1.94044928354E+001, +7.95172895793E+002
+4.00050083472E+007, +1.98958490892E+001, +8.02058713709E+002
+4.01702838063E+007, +1.64917450906E+001, +8.03980051333E+002
+4.03355592654E+007, +2.13919557933E+001, +8.09601530124E+002
+4.05008347245E+007, +2.32635613562E+001, +8.15395415018E+002
+4.06661101836E+007, +1.99900028554E+001, +8.20009385428E+002
+4.08313856427E+007, +2.03717117339E+001, +8.30270580995E+002
+4.09966611018E+007, +1.95821492620E+001, +8.32383880410E+002
+4.11619365609E+007, +2.22323652222E+001, +8.37035575529E+002
+4.13272120200E+007, +2.50154018186E+001, +8.41377281449E+002
+4.14924874791E+007, +2.37336277388E+001, +8.46167656590E+002
+4.16577629382E+007, +2.13051983640E+001, +8.52901117794E+002
+4.18230383973E+007, +2.46400650558E+001, +8.57251028177E+002
+4.19883138564E+007, +2.10417369079E+001, +8.64379009255E+002
+4.21535893155E+007, +2.43713907350E+001, +8.68123314537E+002
+4.23188647746E+007, +2.15573293182E+001, +8.76341380897E+002
+4.24841402337E+007, +2.08713356069E+001, +8.84090358128E+002
+4.26494156928E+007, +1.79871869710E+001, +8.87008170318E+002
+4.28146911519E+007, +2.49063329058E+001, +8.91959130195E+002
+4.29799666110E+007, +2.16620890251E+001, +8.98648759304E+002
+4.31452420701E+007, +2.23980367565E+001, +9.08874858569E+002
+4.33105175292E+007, +2.39124601015E+001, +9.13616878587E+002
+4.34757929883E+007, +2.14934568848E+001, +9.18378045113E+002
+4.36410684474E+007, +1.98730843832E+001, +9.23539341035E+002
+4.38063439065E+007, +1.85110077797E+001, +9.31571925267E+002
+4.39716193656E+007, +2.90380437843E+001, +9.33618778021E+002
+4.41368948247E+007, +2.30902954527E+001, +9.43803999003E+002
+4.43021702838E+007, +2.54407138215E+001, +9.47686581372E+002
+4.44674457429E+007, +2.46854598219E+001, +9.53555865899E+002
+4.46327212020E+007, +2.50818097453E+001, +9.61400649595E+002
+4.47979966611E+007, +2.34343319280E+001, +9.75240731651E+002
+4.49632721202E+007, +2.76099449237E+001, +9.82115902027E+002
+4.51285475793E+007, +2.60957040315E+001, +9.86391852606E+002
+4.52938230384E+007, +2.99586610334E+001, +9.90804312718E+002
+4.54590984975E+007, +2.15413889294E+001, +9.96019228273E+002
+4.56243739566E+007, +3.02186567670E+001, +1.00365877559E+003
+4.57896494157E+007, +3.03029494933E+001, +1.00888144296E+003
+4.59549248748E+007, +2.88280958943E+001, +1.02203071476E+003
+4.61202003339E+007, +2.50857342751E+001, +1.02564862708E+003
+4.62854757930E+007, +3.48286047167E+001, +1.03350348953E+003
+4.64507512521E+007, +2.93739096347E+001, +1.04295085546E+003
+4.66160267112E+007, +3.02972444420E+001, +1.05176695284E+003
+4.67813021703E+007, +3.25011289689E+001, +1.05778367677E+003
+4.69465776294E+007, +3.35396036859E+001, +1.06098704578E+003
+4.71118530885E+007, +3.47350075252E+001, +1.07545566402E+003
+4.72771285476E+007, +3.37046168257E+001, +1.08357599973E+003
+4.74424040067E+007, +3.79610499947E+001, +1.09235711963E+003
+4.76076794658E+007, +3.53875268146E+001, +1.09823633741E+003
+4.77729549249E+007, +3.50125449091E+001, +1.10654506217E+003
+4.79382303840E+007, +3.72175678744E+001, +1.11311710542E+003
+4.81035058431E+007, +4.30747266081E+001, +1.12624607557E+003
+4.82687813022E+007, +4.24887617135E+001, +1.13504249789E+003
+4.84340567613E+007, +4.46416218269E+001, +1.14434166731E+003
+4.85993322204E+007, +4.30163154705E+001, +1.15083733706E+003
+4.87646076795E+007, +4.25332541148E+001, +1.15982693389E+003
+4.89298831386E+007, +4.29030390465E+001, +1.16595555180E+003
+4.90951585977E+007, +5.01940553687E+001, +1.17622941673E+003
+4.92604340568E+007, +4.86874070692E+001, +1.18438635237E+003
+4.94257095159E+007, +5.62637727547E+001, +1.19397888124E+003
+4.95909849750E+007, +4.99880987021E+001, +1.20809148556E+003
+4.97562604341E+007, +6.28675747619E+001, +1.20664853761E+003
+4.99215358932E+007, +6.22293863329E+001, +1.22333799137E+003
+5.00868113523E+007, +5.71283779045E+001, +1.23563125483E+003
+5.02520868114E+007, +6.43378470349E+001, +1.24904418690E+003
+5.04173622705E+007, +6.24820414605E+001, +1.25538264122E+003
+5.05826377295E+007, +6.01380270009E+001, +1.25908290865E+003
+5.07479131886E+007, +6.99926712180E+001, +1.26960430273E+003
+5.09131886477E+007, +7.31486614277E+001, +1.27892509269E+003
+5.10784641068E+007, +7.82322400525E+001, +1.29129216883E+003
+5.12437395659E+007, +7.32738554818E+001, +1.30973330706E+003
+5.14090150250E+007, +7.64136979231E+001, +1.30654021725E+003
+5.15742904841E+007, +7.85431949285E+001, +1.31673991292E+003
+5.17395659432E+007, +8.03300521461E+001, +1.32632815283E+003
+5.19048414023E+007, +8.84805731227E+001, +1.33984735855E+003
+5.20701168614E+007, +8.19632940072E+001, +1.35837923220E+003
+5.22353923205E+007, +7.53509445045E+001, +1.37011553036E+003
+5.24006677796E+007, +8.61003333476E+001, +1.36425144550E+003
+5.25659432387E+007, +8.68640188057E+001, +1.38419244758E+003
+5.27312186978E+007, +8.53442117289E+001, +1.39530025929E+003
+5.28964941569E+007, +8.45168397972E+001, +1.41353886562E+003
+5.30617696160E+007, +8.47477632131E+001, +1.42799589272E+003
+5.32270450751E+007, +8.67917132501E+001, +1.43626763932E+003
+5.33923205342E+007, +7.96986859662E+001, +1.45858443859E+003
+5.35575959933E+007, +7.88666378482E+001, +1.46770712452E+003
+5.37228714524E+007, +8.06740123309E+001, +1.49126198941E+003
+5.38881469115E+007, +8.66245047625E+001, +1.48543541193E+003
