"# Channel 1"
"# Trace 1"
Frequency, Formatted Data, Formatted Data
+1.00000000000E+005, +6.06383371325E-001, +1.61508971792E+000
+2.25031289111E+005, +6.25308110511E-001, +3.63554212518E+000
+3.50062578223E+005, +6.50790929039E-001, +5.65029195536E+000
+4.75093867334E+005, +6.35866208156E-001, +7.62884416324E+000
+6.00125156446E+005, +6.48374318134E-001, +9.63534354137E+000
+7.25156445557E+005, +7.37808527820E-001, +1.16073418259E+001
+8.50187734668E+005, +7.16141901053E-001, +1.35757598529E+001
+9.75219023780E+005, +7.27672926835E-001, +1.55751040390E+001
+1.10025031289E+006, +7.62299005867E-001, +1.75270815717E+001
+1.22528160200E+006, +8.03243369921E-001, +1.94818223216E+001
+1.35031289111E+006, +8.03092898080E-001, +2.14931329597E+001
+1.47534418023E+006, +8.75863202227E-001, +2.33951202306E+001
+1.60037546934E+006, +9.00642948915E-001, +2.53459826286E+001
+1.72540675845E+006, +9.36488971155E-001, +2.73435403420E+001
+1.85043804756E+006, +8.90690059966E-001, +2.92913207362E+001
+1.97546933667E+006, +9.51112820890E-001, +3.12451683655E+001
+2.10050062578E+006, +1.03942829370E+000, +3.32076534236E+001
+2.22553191489E+006, +9.63983091913E-001, +3.51204362821E+001
+2.35056320401E+006, +9.92266526794E-001, +3.70918160153E+001
+2.47559449312E+006, +1.06139913805E+000, +3.90723297770E+001
+2.60062578223E+006, +9.81935625559E-001, +4.10161802037E+001
+2.72565707134E+006, +1.04872807224E+000, +4.29894309751E+001
+2.85068836045E+006, +1.04187087701E+000, +4.49433332278E+001
+2.97571964956E+006, +1.03793411399E+000, +4.68668271182E+001
+3.10075093867E+006, +1.03692875220E+000, +4.88515387282E+001
+3.22578222778E+006, +1.12260162515E+000, +5.08146442902E+001
+3.35081351690E+006, +1.12578329257E+000, +5.27783341593E+001
+3.47584480601E+006, +1.08281475675E+000, +5.47163338126E+001
+3.60087609512E+006, +1.09640644061E+000, +5.66441518992E+001
+3.72590738423E+006, +1.12659052097E+000, +5.87370050555E+001
+3.85093867334E+006, +1.15242164155E+000, +6.05974809335E+001
+3.97596996245E+006, +1.15009767617E+000, +6.26258758930E+001
+4.10100125156E+006, +1.12488440167E+000, +6.47154337856E+001
+4.22603254068E+006, +1.17038357572E+000, +6.65350352394E+001
+4.35106382979E+006, +1.26060025204E+000, +6.84601566827E+001
+4.47609511890E+006, +1.28112478933E+000, +7.04503233710E+001
+4.60112640801E+006, +1.22073315531E+000, +7.24801167429E+001
+4.72615769712E+006, +1.29680716226E+000, +7.43958714442E+001
+4.85118898623E+006, +1.26994062920E+000, +7.63031599605E+001
+4.97622027534E+006, +1.29187976589E+000, +7.84882550101E+001
+5.10125156446E+006, +1.32788858326E+000, +8.03063853014E+001
+5.22628285357E+006, +1.34106250294E+000, +8.23934237830E+001
+5.35131414268E+006, +1.17040370712E+000, +8.42613227850E+001
+5.47634543179E+006, +1.26913292178E+000, +8.63297750024E+001
+5.60137672090E+006, +1.27084129722E+000, +8.81260819136E+001
+5.72640801001E+006, +1.25696532985E+000, +9.02030927288E+001
+5.85143929912E+006, +1.34202541169E+000, +9.21637081718E+001
+5.97647058824E+006, +1.15511273546E+000, +9.44096558698E+001
+6.10150187735E+006, +1.45423128062E+000, +9.63825084543E+001
+6.22653316646E+006, +1.28564319892E+000, +9.81825653383E+001
+6.35156445557E+006, +1.46745583499E+000, +1.00233028614E+002
+6.47659574468E+006, +1.43049272464E+000, +1.02359050014E+002
+6.60162703379E+006, +1.42557993364E+000, +1.04274757154E+002
+6.72665832290E+006, +1.41860905621E+000, +1.06338223464E+002
+6.85168961202E+006, +1.43348228187E+000, +1.08339728054E+002
+6.97672090113E+006, +1.36796366888E+000, +1.10323577653E+002
+7.10175219024E+006, +1.47604236425E+000, +1.12332262069E+002
+7.22678347935E+006, +1.42682454604E+000, +1.14282675652E+002
+7.35181476846E+006, +1.44858571618E+000, +1.16271647295E+002
+7.47684605757E+006, +1.49267724753E+000, +1.18323308484E+002
+7.60187734668E+006, +1.41544914143E+000, +1.20448500006E+002
+7.72690863579E+006, +1.42348967524E+000, +1.22315274958E+002
+7.85193992491E+006, +1.42666470169E+000, +1.24397406665E+002
+7.97697121402E+006, +1.50711521085E+000, +1.26438936793E+002
+8.10200250313E+006, +1.53560469456E+000, +1.28373230793E+002
+8.22703379224E+006, +1.52854801509E+000, +1.30427359996E+002
+8.35206508135E+006, +1.54768832643E+000, +1.32584455561E+002
+8.47709637046E+006, +1.51362456409E+000, +1.34618442217E+002
+8.60212765957E+006, +1.52144087449E+000, +1.36442495252E+002
+8.72715894869E+006, +1.48261919390E+000, +1.38644712203E+002
+8.85219023780E+006, +1.44202482748E+000, +1.40615309695E+002
+8.97722152691E+006, +1.56275172351E+000, +1.42688519601E+002
+9.10225281602E+006, +1.60406894917E+000, +1.44670087910E+002
+9.22728410513E+006, +1.64219515507E+000, +1.46863488369E+002
+9.35231539424E+006, +1.55390715212E+000, +1.48915966856E+002
+9.47734668335E+006, +1.65414827602E+000, +1.50850188732E+002
+9.60237797247E+006, +1.44831686328E+000, +1.52894965607E+002
+9.72740926158E+006, +1.59427446491E+000, +1.54865517490E+002
+9.85244055069E+006, +1.45222184998E+000, +1.56947702817E+002
+9.97747183980E+006, +1.40375717025E+000, +1.59046088454E+002
+1.01025031289E+007, +1.67598322409E+000, +1.61139824957E+002
+1.02275344180E+007, +1.40648331519E+000, +1.63218638550E+002
+1.03525657071E+007, +1.43653477534E+000, +1.65328816065E+002
+1.04775969962E+007, +1.55339109062E+000, +1.67305667789E+002
+1.06026282854E+007, +1.44365613182E+000, +1.69267080543E+002
+1.07276595745E+007, +1.39381284827E+000, +1.71345409770E+002
+1.08526908636E+007, +1.47986126438E+000, +1.73457937987E+002
+1.09777221527E+007, +1.51768948850E+000, +1.75545031852E+002
+1.11027534418E+007, +1.44840397919E+000, +1.77617462046E+002
+1.12277847309E+007, +1.65559198255E+000, +1.79553610683E+002
+1.13528160200E+007, +1.43856554239E+000, +1.81747118631E+002
+1.14778473091E+007, +1.42507354037E+000, +1.83726695837E+002
+1.16028785982E+007, +1.50086717631E+000, +1.86149608097E+002
+1.17279098874E+007, +1.29016800461E+000, +1.88249264848E+002
+1.18529411765E+007, +1.64534238533E+000, +1.90230120813E+002
+1.19779724656E+007, +1.56745006401E+000, +1.92206767166E+002
+1.21030037547E+007, +1.49256180840E+000, +1.94748893381E+002
+1.22280350438E+007, +1.32141620977E+000, +1.96688081679E+002
+1.23530663329E+007, +1.62258334896E+000, +1.98870908133E+002
+1.24780976220E+007, +1.50889157922E+000, +2.00632640392E+002
+1.26031289111E+007, +1.45805275097E+000, +2.03168127608E+002
+1.27281602003E+007, +1.50913419739E+000, +2.05184571849E+002
+1.28531914894E+007, +1.60575895433E+000, +2.07061348529E+002
+1.29782227785E+007, +1.45706794657E+000, +2.09544477905E+002
+1.31032540676E+007, +1.70636333328E+000, +2.11714835048E+002
+1.32282853567E+007, +1.40880897970E+000, +2.13572936778E+002
+1.33533166458E+007, +1.41786731028E+000, +2.15560532935E+002
+1.34783479349E+007, +1.27330260132E+000, +2.17972995992E+002
+1.36033792240E+007, +1.35856270729E+000, +2.20148170380E+002
+1.37284105131E+007, +1.05456395108E+000, +2.21977181654E+002
+1.38534418023E+007, +1.54940387803E+000, +2.24255314492E+002
+1.39784730914E+007, +1.42325565350E+000, +2.26707827933E+002
+1.41035043805E+007, +1.35045408362E+000, +2.28689320165E+002
+1.42285356696E+007, +1.31784143100E+000, +2.30972899982E+002
+1.43535669587E+007, +1.62134524362E+000, +2.33009253679E+002
+1.44785982478E+007, +1.19988647417E+000, +2.35305092230E+002
+1.46036295369E+007, +1.12477537295E+000, +2.37651640641E+002
+1.47286608260E+007, +1.31995139954E+000, +2.40114212997E+002
+1.48536921151E+007, +1.18785958455E+000, +2.41977230238E+002
+1.49787234043E+007, +1.17711453838E+000, +2.44146998003E+002
+1.51037546934E+007, +1.54126707659E+000, +2.46212843249E+002
+1.52287859825E+007, +1.37304252786E+000, +2.48728805524E+002
+1.53538172716E+007, +1.14234487294E+000, +2.50881015313E+002
+1.54788485607E+007, +9.20804270939E-001, +2.52665683733E+002
+1.56038798498E+007, +1.15071990915E+000, +2.54835619296E+002
+1.57289111389E+007, +8.60813369266E-001, +2.56976513047E+002
+1.58539424280E+007, +1.26962307174E+000, +2.59533950679E+002
+1.59789737171E+007, +1.56457640889E+000, +2.61852052621E+002
+1.61040050063E+007, +1.25094292626E+000, +2.64122733214E+002
+1.62290362954E+007, +1.73208219609E+000, +2.65991116957E+002
+1.63540675845E+007, +1.01377949457E+000, +2.68396042082E+002
+1.64790988736E+007, +1.01205870813E+000, +2.70650890732E+002
+1.66041301627E+007, +1.34497661137E+000, +2.73494511739E+002
+1.67291614518E+007, +1.41741786275E+000, +2.75621045484E+002
+1.68541927409E+007, +1.34934541568E+000, +2.77859432634E+002
+1.69792240300E+007, +1.26647893142E+000, +2.79964405530E+002
+1.71042553191E+007, +6.42627969316E-001, +2.82601277740E+002
+1.72292866083E+007, +9.24585770565E-001, +2.84943092680E+002
+1.73543178974E+007, +1.05535615355E+000, +2.86768252133E+002
+1.74793491865E+007, +6.01520232851E-001, +2.88970792118E+002
+1.76043804756E+007, +8.46468302988E-001, +2.92151278973E+002
+1.77294117647E+007, +1.07684790964E+000, +2.93927347293E+002
+1.78544430538E+007, +1.47976500862E+000, +2.96405065904E+002
+1.79794743429E+007, +1.07437079618E+000, +2.99050736687E+002
+1.81045056320E+007, +8.56038296095E-001, +3.00694839838E+002
+1.82295369212E+007, +6.49104607838E-001, +3.03260628223E+002
+1.83545682103E+007, +9.76820572498E-001, +3.05886950605E+002
+1.84795994994E+007, +6.60015946102E-001, +3.07792423220E+002
+1.86046307885E+007, +9.61268361114E-001, +3.10848654894E+002
+1.87296620776E+007, +7.68125621179E-001, +3.12869185956E+002
+1.88546933667E+007, +1.24893290320E+000, +3.14964207879E+002
+1.89797246558E+007, +8.34369177588E-001, +3.17180357111E+002
+1.91047559449E+007, +1.19520268260E+000, +3.19873612365E+002
+1.92297872340E+007, +1.35064071401E+000, +3.22350848797E+002
+1.93548185232E+007, +8.02672989290E-001, +3.24644414711E+002
+1.94798498123E+007, +7.86206556695E-001, +3.27119911827E+002
+1.96048811014E+007, +1.11718951214E+000, +3.29943038857E+002
+1.97299123905E+007, +8.25860619520E-001, +3.31610542967E+002
+1.98549436796E+007, +1.07922928686E+000, +3.34151107812E+002
+1.99799749687E+007, +1.05380400188E+000, +3.36053961014E+002
+2.01050062578E+007, +1.05561106999E+000, +3.39582839723E+002
+2.02300375469E+007, +9.07437971847E-001, +3.42122060819E+002
+2.03550688360E+007, +7.31345542705E-001, +3.44433372738E+002
+2.04801001252E+007, +1.50476377137E+000, +3.47654242637E+002
+2.06051314143E+007, +1.15391960465E+000, +3.48835717752E+002
+2.07301627034E+007, +1.29656767151E+000, +3.51449387770E+002
+2.08551939925E+007, +7.19501632628E-001, +3.54372760476E+002
+2.09802252816E+007, +1.57475013634E+000, +3.56796711187E+002
+2.11052565707E+007, +1.46103248053E+000, +3.59005141610E+002
+2.12302878598E+007, +1.21262875873E+000, +3.61794866830E+002
+2.13553191489E+007, +9.54241181168E-001, +3.64337974531E+002
+2.14803504380E+007, +1.72787999771E+000, +3.66313931212E+002
+2.16053817272E+007, +1.12093868526E+000, +3.69844615985E+002
+2.17304130163E+007, +1.10022106663E+000, +3.71975692706E+002
+2.18554443054E+007, +6.50373164313E-001, +3.74602266928E+002
+2.19804755945E+007, +8.68453243029E-001, +3.76826531463E+002
+2.21055068836E+007, +9.35618663645E-001, +3.80573641905E+002
+2.22305381727E+007, +9.66647917556E-001, +3.82430925513E+002
+2.23555694618E+007, +1.74499817793E+000, +3.84840583779E+002
+2.24806007509E+007, +2.30650799455E+000, +3.86804623003E+002
+2.26056320401E+007, +1.98415516615E+000, +3.89511860905E+002
+2.27306633292E+007, +8.60536556828E-001, +3.93068441118E+002
+2.28556946183E+007, +1.54898411713E+000, +3.94973392135E+002
+2.29807259074E+007, +1.78763694341E+000, +3.98545924107E+002
+2.31057571965E+007, +1.22984410797E+000, +4.00241622085E+002
+2.32307884856E+007, +2.05363635483E+000, +4.03481048401E+002
+2.33558197747E+007, +1.95512176284E+000, +4.07375480501E+002
+2.34808510638E+007, +1.15026498048E+000, +4.08739182673E+002
+2.36058823529E+007, +1.90246342774E+000, +4.10734763001E+002
+2.37309136421E+007, +2.36467952854E+000, +4.12913914519E+002
+2.38559449312E+007, +1.83810112482E+000, +4.16150208759E+002
+2.39809762203E+007, +2.05608030973E+000, +4.18163125011E+002
+2.41060075094E+007, +2.44269671094E+000, +4.20497064393E+002
+2.42310387985E+007, +2.24207383647E+000, +4.23662862586E+002
+2.43560700876E+007, +1.30317170729E+000, +4.25767758523E+002
+2.44811013767E+007, +2.04944553030E+000, +4.28693734492E+002
+2.46061326658E+007, +2.50165210017E+000, +4.31433146861E+002
+2.47311639549E+007, +2.29640064962E+000, +4.34663026915E+002
+2.48561952441E+007, +2.03322639518E+000, +4.36962974618E+002
+2.49812265332E+007, +1.92555219050E+000, +4.38974951730E+002
+2.51062578223E+007, +1.61914511082E+000, +4.41595366200E+002
+2.52312891114E+007, +1.77887506648E+000, +4.44166119879E+002
+2.53563204005E+007, +1.39032440259E+000, +4.48769039548E+002
+2.54813516896E+007, +1.83887167442E+000, +4.49998094694E+002
+2.56063829787E+007, +1.31436034607E+000, +4.53412245053E+002
+2.57314142678E+007, +2.45640526805E+000, +4.56418270681E+002
+2.58564455569E+007, +2.16360423214E+000, +4.60254235429E+002
+2.59814768461E+007, +1.19380360875E+000, +4.61798623110E+002
+2.61065081352E+007, +1.42511934741E+000, +4.65529435530E+002
+2.62315394243E+007, +2.37586861057E+000, +4.68158024457E+002
+2.63565707134E+007, +3.03325733066E-001, +4.70647885767E+002
+2.64816020025E+007, +2.04534621777E+000, +4.73243869251E+002
+2.66066332916E+007, +1.49432167471E+000, +4.75756240599E+002
+2.67316645807E+007, +2.37006227033E+000, +4.80063471660E+002
+2.68566958698E+007, +2.60656722087E+000, +4.83286493841E+002
+2.69817271589E+007, +1.30615659134E+000, +4.86260773604E+002
+2.71067584481E+007, +1.90327176144E+000, +4.89024073435E+002
+2.72317897372E+007, +1.37522471379E+000, +4.91444948457E+002
+2.73568210263E+007, +3.90683699651E-001, +4.94759939165E+002
+2.74818523154E+007, +1.17392640661E+000, +4.98029223926E+002
+2.76068836045E+007, +2.42857506589E+000, +4.99783973235E+002
+2.77319148936E+007, +8.90159733794E-001, +5.02752851696E+002
+2.78569461827E+007, +4.74745462976E-001, +5.05765474245E+002
+2.79819774718E+007, +1.70290534515E+000, +5.09502616203E+002
+2.81070087610E+007, +8.21860031437E-001, +5.12035987453E+002
+2.82320400501E+007, +1.04967659279E+000, +5.13285965316E+002
+2.83570713392E+007, +1.10540409458E+000, +5.18917538541E+002
+2.84821026283E+007, +2.71503463150E+000, +5.22284531825E+002
+2.86071339174E+007, +1.40061729669E+000, +5.24407636173E+002
+2.87321652065E+007, +6.64246739606E-001, +5.28234223214E+002
+2.88571964956E+007, -1.69746419165E-001, +5.31425777424E+002
+2.89822277847E+007, +8.96237746370E-001, +5.34228979850E+002
+2.91072590738E+007, +1.29557230745E+000, +5.38233234844E+002
+2.92322903630E+007, +8.55795277787E-001, +5.39723101439E+002
+2.93573216521E+007, +9.35242797133E-002, +5.43448012495E+002
+2.94823529412E+007, -2.19616722206E-001, +5.47394302002E+002
+2.96073842303E+007, +1.82768524477E-002, +5.50209808368E+002
+2.97324155194E+007, +1.23758861866E+000, +5.53403812945E+002
+2.98574468085E+007, +1.75105952899E+000, +5.56559715853E+002
+2.99824780976E+007, -1.13282200849E+000, +5.62463082542E+002
+3.01075093867E+007, +3.67783567837E-002, +5.64086039557E+002
+3.02325406758E+007, -1.34156056753E+000, +5.68528440533E+002
+3.03575719650E+007, -1.93185379673E+000, +5.71800908427E+002
+3.04826032541E+007, +9.62262015151E-001, +5.72554456629E+002
+3.06076345432E+007, -3.67435480497E-001, +5.76659741462E+002
+3.07326658323E+007, +2.47476452051E+000, +5.78918706926E+002
+3.08576971214E+007, +1.55597076055E-001, +5.84379143314E+002
+3.09827284105E+007, -7.18162272451E-001, +5.87217386960E+002
+3.11077596996E+007, -2.32000323082E+000, +5.91194787241E+002
+3.12327909887E+007, +1.39348758790E+000, +5.94318801181E+002
+3.13578222778E+007, +7.26624867941E-001, +5.97248960577E+002
+3.14828535670E+007, -2.33922900220E+000, +6.02028515209E+002
+3.16078848561E+007, +2.57580632548E-001, +6.05405834603E+002
+3.17329161452E+007, -4.19077764846E-001, +6.07722347481E+002
+3.18579474343E+007, +8.02147862102E-001, +6.10120248365E+002
+3.19829787234E+007, -1.42063174023E+000, +6.15374651757E+002
+3.21080100125E+007, +9.20965153932E-002, +6.19116689871E+002
+3.22330413016E+007, +1.17334987571E+000, +6.22093700343E+002
+3.23580725907E+007, +2.86744845449E+000, +6.24859810380E+002
+3.24831038798E+007, -2.11310319273E-001, +6.32213831165E+002
+3.26081351690E+007, -1.67095383609E-001, +6.34670542916E+002
+3.27331664581E+007, +1.98615717798E+000, +6.35528634377E+002
+3.28581977472E+007, +2.74081275783E+000, +6.40622981153E+002
+3.29832290363E+007, +4.24098800776E-001, +6.44810295663E+002
+3.31082603254E+007, +2.09677967611E+000, +6.48761574739E+002
+3.32332916145E+007, -1.03252145704E+000, +6.49960837604E+002
+3.33583229036E+007, +6.24226917317E-001, +6.55231486195E+002
+3.34833541927E+007, +4.74736121009E-001, +6.59704938841E+002
+3.36083854819E+007, +1.04294349310E+000, +6.62981772186E+002
+3.37334167710E+007, -5.66807042583E-002, +6.68047467870E+002
+3.38584480601E+007, -4.35544034528E-001, +6.69839611115E+002
+3.39834793492E+007, +8.67674097268E-001, +6.73655407843E+002
+3.41085106383E+007, -2.12758432761E+000, +6.77052080634E+002
+3.42335419274E+007, -3.47316790253E-001, +6.82340480343E+002
+3.43585732165E+007, +2.73198098001E+000, +6.86059717771E+002
+3.44836045056E+007, -1.03409686169E+000, +6.90961748910E+002
+3.46086357947E+007, -2.60734814354E+000, +6.97481093773E+002
+3.47336670839E+007, -2.00119688854E+000, +6.97786373676E+002
+3.48586983730E+007, -3.44377534735E+000, +7.03009196591E+002
+3.49837296621E+007, +1.78780479922E+000, +7.08511805872E+002
+3.51087609512E+007, -9.33348748810E-001, +7.10638113355E+002
+3.52337922403E+007, +3.14151198544E+000, +7.15318012000E+002
+3.53588235294E+007, +4.49546462508E-002, +7.15931977103E+002
+3.54838548185E+007, -4.64954302279E-001, +7.22842447439E+002
+3.56088861076E+007, -1.05894481757E-001, +7.28446690217E+002
+3.57339173967E+007, -4.17311913387E+000, +7.33327892071E+002
+3.58589486859E+007, +1.86207840506E+000, +7.35473682098E+002
+3.59839799750E+007, -1.48445438091E+000, +7.42242781042E+002
+3.61090112641E+007, -2.44296383720E+000, +7.45669534470E+002
+3.62340425532E+007, -8.75787679727E-001, +7.49950277993E+002
+3.63590738423E+007, +1.14107671783E-001, +7.52557384524E+002
+3.64841051314E+007, -1.40954111539E+000, +7.59047919508E+002
+3.66091364205E+007, +1.57004317149E+000, +7.62907711694E+002
+3.67341677096E+007, +2.26869269474E+000, +7.69470255313E+002
+3.68591989987E+007, -1.51679878022E+000, +7.69876666060E+002
+3.69842302879E+007, -5.14845508904E-002, +7.74884093887E+002
+3.71092615770E+007, -2.39682584744E+000, +7.78781072360E+002
+3.72342928661E+007, -2.35515057004E+000, +7.85928786036E+002
+3.73593241552E+007, +1.19587900019E+000, +7.88882705406E+002
+3.74843554443E+007, +5.42885117337E-001, +7.92465306191E+002
+3.76093867334E+007, +1.93027579483E-001, +7.98556055025E+002
+3.77344180225E+007, +8.00938874533E-001, +8.02169331816E+002
+3.78594493116E+007, +2.80174229202E-001, +8.06697078496E+002
+3.79844806008E+007, -1.90007231636E+000, +8.11268464298E+002
+3.81095118899E+007, +3.41515129427E+000, +8.20127696816E+002
+3.82345431790E+007, +3.96344870749E-001, +8.19787649260E+002
+3.83595744681E+007, -1.53011208804E+000, +8.25447100531E+002
+3.84846057572E+007, -3.25435668741E+000, +8.34629550869E+002
+3.86096370463E+007, +1.52225211531E+000, +8.40493574702E+002
+3.87346683354E+007, +7.17422334178E-002, +8.43658989859E+002
+3.88596996245E+007, -1.15015216018E+000, +8.44588542805E+002
+3.89847309136E+007, +7.23784002401E-001, +8.54591093192E+002
+3.91097622028E+007, -1.51743726664E-001, +8.58716324594E+002
+3.92347934919E+007, -1.29160527842E+000, +8.61642147962E+002
+3.93598247810E+007, -7.76173368977E-001, +8.73498347287E+002
+3.94848560701E+007, -4.59549562518E-001, +8.73049291696E+002
+3.96098873592E+007, -2.67123878290E+000, +8.78600117837E+002
+3.97349186483E+007, -4.03555221471E+000, +8.84887432389E+002
+3.98599499374E+007, -2.96851527989E+000, +8.92714871229E+002
+3.99849812265E+007, +2.55574877404E+000, +8.98217373280E+002
+4.01100125156E+007, +2.13035701985E+000, +8.99719592837E+002
