"# Channel 1"
"# Trace 1"
Frequency, Formatted Data, Formatted Data
+1.00000000000E+005, +2.18460725861E+001, +1.63700972666E+000
+2.66777963272E+005, +2.18471432377E+001, +4.42693759744E+000
+4.33555926544E+005, +2.18619130743E+001, +7.21737110837E+000
+6.00333889816E+005, +2.18742573508E+001, +9.93113545998E+000
+7.67111853088E+005, +2.18900608790E+001, +1.26991928907E+001
+9.33889816361E+005, +2.18882756598E+001, +1.54581946782E+001
+1.10066777963E+006, +2.18701091729E+001, +1.82558678759E+001
+1.26744574290E+006, +2.18936750936E+001, +2.09953648114E+001
+1.43422370618E+006, +2.18510692142E+001, +2.38156883386E+001
+1.60100166945E+006, +2.19047971213E+001, +2.64760528717E+001
+1.76777963272E+006, +2.18851794539E+001, +2.92760172671E+001
+1.93455759599E+006, +2.18148800315E+001, +3.20141533637E+001
+2.10133555927E+006, +2.18470869831E+001, +3.47510782884E+001
+2.26811352254E+006, +2.19259213919E+001, +3.75220463948E+001
+2.43489148581E+006, +2.19438532581E+001, +4.03772111560E+001
+2.60166944908E+006, +2.19038734156E+001, +4.30226807060E+001
+2.76844741235E+006, +2.19037064323E+001, +4.59065090769E+001
+2.93522537563E+006, +2.18840631178E+001, +4.85907843994E+001
+3.10200333890E+006, +2.20114565495E+001, +5.13065141581E+001
+3.26878130217E+006, +2.18393058308E+001, +5.41504292362E+001
+3.43555926544E+006, +2.19388644056E+001, +5.68778511681E+001
+3.60233722871E+006, +2.19840578432E+001, +5.97108605695E+001
+3.76911519199E+006, +2.19884807613E+001, +6.25688707882E+001
+3.93589315526E+006, +2.18600386823E+001, +6.52556028883E+001
+4.10267111853E+006, +2.19611261416E+001, +6.81188122892E+001
+4.26944908180E+006, +2.19928885898E+001, +7.09479823982E+001
+4.43622704508E+006, +2.19679775910E+001, +7.35295178314E+001
+4.60300500835E+006, +2.20440884971E+001, +7.64875278686E+001
+4.76978297162E+006, +2.19642052151E+001, +7.91632571473E+001
+4.93656093489E+006, +2.20736300706E+001, +8.20344665255E+001
+5.10333889816E+006, +2.21179902014E+001, +8.47591764636E+001
+5.27011686144E+006, +2.22879377795E+001, +8.77394027769E+001
+5.43689482471E+006, +2.21464048329E+001, +9.04175561477E+001
+5.60367278798E+006, +2.22170449325E+001, +9.33897445330E+001
+5.77045075125E+006, +2.21159903798E+001, +9.60247980644E+001
+5.93722871452E+006, +2.23450158902E+001, +9.88508362970E+001
+6.10400667780E+006, +2.22549713765E+001, +1.01819173645E+002
+6.27078464107E+006, +2.23938104115E+001, +1.04525213646E+002
+6.43756260434E+006, +2.24291792567E+001, +1.07477210403E+002
+6.60434056761E+006, +2.25028262206E+001, +1.10235699012E+002
+6.77111853088E+006, +2.25632759838E+001, +1.12993995543E+002
+6.93789649416E+006, +2.25328254826E+001, +1.15863219554E+002
+7.10467445743E+006, +2.25215222077E+001, +1.18742736123E+002
+7.27145242070E+006, +2.26567677406E+001, +1.21496279628E+002
+7.43823038397E+006, +2.26691097427E+001, +1.24317264597E+002
+7.60500834725E+006, +2.26160663649E+001, +1.27194838727E+002
+7.77178631052E+006, +2.27451283551E+001, +1.30302183066E+002
+7.93856427379E+006, +2.26552711946E+001, +1.32874701452E+002
+8.10534223706E+006, +2.27855552418E+001, +1.35729768000E+002
+8.27212020033E+006, +2.28211698710E+001, +1.38601109820E+002
+8.43889816361E+006, +2.27486868159E+001, +1.41603137916E+002
+8.60567612688E+006, +2.27660396648E+001, +1.44580907657E+002
+8.77245409015E+006, +2.28213632695E+001, +1.47201314493E+002
+8.93923205342E+006, +2.28852553477E+001, +1.50349655841E+002
+9.10601001669E+006, +2.28751336540E+001, +1.53258570649E+002
+9.27278797997E+006, +2.28633967929E+001, +1.56186911407E+002
+9.43956594324E+006, +2.29119568624E+001, +1.59040128782E+002
+9.60634390651E+006, +2.29380303213E+001, +1.61920239336E+002
+9.77312186978E+006, +2.28005872521E+001, +1.64964655882E+002
+9.93989983306E+006, +2.31027760283E+001, +1.67914542204E+002
+1.01066777963E+007, +2.28114539917E+001, +1.70814714947E+002
+1.02734557596E+007, +2.30865348140E+001, +1.73938268354E+002
+1.04402337229E+007, +2.30096800397E+001, +1.76825933600E+002
+1.06070116861E+007, +2.28956309675E+001, +1.79647288137E+002
+1.07737896494E+007, +2.28818324145E+001, +1.82843467751E+002
+1.09405676127E+007, +2.33348967192E+001, +1.85667406012E+002
+1.11073455760E+007, +2.33722169872E+001, +1.88701414808E+002
+1.12741235392E+007, +2.32932346922E+001, +1.91702599747E+002
+1.14409015025E+007, +2.33161964136E+001, +1.95007327284E+002
+1.16076794658E+007, +2.34814984162E+001, +1.97962576806E+002
+1.17744574290E+007, +2.34373481588E+001, +2.01228778446E+002
+1.19412353923E+007, +2.35669062536E+001, +2.04025534881E+002
+1.21080133556E+007, +2.32066359980E+001, +2.07263655987E+002
+1.22747913189E+007, +2.33622245305E+001, +2.10095743920E+002
+1.24415692821E+007, +2.34806641078E+001, +2.13161092132E+002
+1.26083472454E+007, +2.36443841397E+001, +2.16471001742E+002
+1.27751252087E+007, +2.36076323916E+001, +2.19371608609E+002
+1.29419031720E+007, +2.36701388903E+001, +2.22267431595E+002
+1.31086811352E+007, +2.38412238671E+001, +2.25545624857E+002
+1.32754590985E+007, +2.36907386962E+001, +2.28721778477E+002
+1.34422370618E+007, +2.36149274087E+001, +2.31995051193E+002
+1.36090150250E+007, +2.38798502461E+001, +2.34982612696E+002
+1.37757929883E+007, +2.39558467635E+001, +2.38143241331E+002
+1.39425709516E+007, +2.41899810790E+001, +2.41181164336E+002
+1.41093489149E+007, +2.40815840122E+001, +2.44193593550E+002
+1.42761268781E+007, +2.44575049498E+001, +2.47341225143E+002
+1.44429048414E+007, +2.40783916124E+001, +2.50651781288E+002
+1.46096828047E+007, +2.41947516680E+001, +2.53900125985E+002
+1.47764607679E+007, +2.47085515478E+001, +2.56900535706E+002
+1.49432387312E+007, +2.40523386301E+001, +2.60138203603E+002
+1.51100166945E+007, +2.41494586215E+001, +2.63715251718E+002
+1.52767946578E+007, +2.46426123462E+001, +2.66645301457E+002
+1.54435726210E+007, +2.45860189592E+001, +2.69838055366E+002
+1.56103505843E+007, +2.47609985684E+001, +2.73145004570E+002
+1.57771285476E+007, +2.46484923383E+001, +2.76216948082E+002
+1.59439065109E+007, +2.46697739675E+001, +2.79992515861E+002
+1.61106844741E+007, +2.52666651607E+001, +2.82986201290E+002
+1.62774624374E+007, +2.51154569152E+001, +2.86560834388E+002
+1.64442404007E+007, +2.50286632749E+001, +2.89523911704E+002
+1.66110183639E+007, +2.53556615311E+001, +2.93317786253E+002
+1.67777963272E+007, +2.53202948423E+001, +2.96781118394E+002
+1.69445742905E+007, +2.56915970973E+001, +2.99780392858E+002
+1.71113522538E+007, +2.44069759928E+001, +3.02877631782E+002
+1.72781302170E+007, +2.53156222162E+001, +3.06645296261E+002
+1.74449081803E+007, +2.49481603887E+001, +3.10175394304E+002
+1.76116861436E+007, +2.52607455490E+001, +3.13534618695E+002
+1.77784641068E+007, +2.51853447417E+001, +3.16774972927E+002
+1.79452420701E+007, +2.58250147215E+001, +3.20279125660E+002
+1.81120200334E+007, +2.59556800013E+001, +3.23399358083E+002
+1.82787979967E+007, +2.62240226675E+001, +3.27019554492E+002
+1.84455759599E+007, +2.64785517686E+001, +3.31285831962E+002
+1.86123539232E+007, +2.67725720795E+001, +3.34253553525E+002
+1.87791318865E+007, +2.67163097485E+001, +3.38073308468E+002
+1.89459098497E+007, +2.65768743695E+001, +3.41717054192E+002
+1.91126878130E+007, +2.68859273615E+001, +3.44992229636E+002
+1.92794657763E+007, +2.72823774077E+001, +3.48617866242E+002
+1.94462437396E+007, +2.75901701919E+001, +3.52863755764E+002
+1.96130217028E+007, +2.70633438957E+001, +3.56645670656E+002
+1.97797996661E+007, +2.77079308738E+001, +3.59078625179E+002
+1.99465776294E+007, +2.68657776456E+001, +3.62952549689E+002
+2.01133555927E+007, +2.72649851440E+001, +3.66662906954E+002
+2.02801335559E+007, +2.78184856314E+001, +3.70194561563E+002
+2.04469115192E+007, +2.82624379596E+001, +3.73891581549E+002
+2.06136894825E+007, +2.82217327439E+001, +3.78012584559E+002
+2.07804674457E+007, +2.86357676733E+001, +3.82326538210E+002
+2.09472454090E+007, +2.78737042344E+001, +3.86121602043E+002
+2.11140233723E+007, +2.90771636852E+001, +3.88653101726E+002
+2.12808013356E+007, +2.91935872650E+001, +3.93034631278E+002
+2.14475792988E+007, +2.93607694904E+001, +3.97026835011E+002
+2.16143572621E+007, +3.00945220523E+001, +4.00101973910E+002
+2.17811352254E+007, +2.90041698476E+001, +4.04082084965E+002
+2.19479131886E+007, +3.09975907756E+001, +4.09069986401E+002
+2.21146911519E+007, +3.02629785481E+001, +4.11700755963E+002
+2.22814691152E+007, +3.00145055810E+001, +4.16662909971E+002
+2.24482470785E+007, +3.08828506712E+001, +4.20564463648E+002
+2.26150250417E+007, +3.18217588259E+001, +4.23585135267E+002
+2.27818030050E+007, +3.07897478902E+001, +4.28103780935E+002
+2.29485809683E+007, +3.25838362250E+001, +4.30918902254E+002
+2.31153589316E+007, +3.17466946538E+001, +4.36603473570E+002
+2.32821368948E+007, +3.26767552667E+001, +4.39993748464E+002
+2.34489148581E+007, +3.19492426787E+001, +4.43579446837E+002
+2.36156928214E+007, +3.35903035835E+001, +4.47981616847E+002
+2.37824707846E+007, +3.33980296193E+001, +4.50984934376E+002
+2.39492487479E+007, +3.23438539081E+001, +4.56022108355E+002
+2.41160267112E+007, +3.36084235892E+001, +4.59813004998E+002
+2.42828046745E+007, +3.38027026104E+001, +4.64402634662E+002
+2.44495826377E+007, +3.47926412977E+001, +4.69250626937E+002
+2.46163606010E+007, +3.42086926037E+001, +4.71758118418E+002
+2.47831385643E+007, +3.39113163803E+001, +4.76533133317E+002
+2.49499165275E+007, +3.61465806269E+001, +4.80853532960E+002
+2.51166944908E+007, +3.66698599948E+001, +4.84583036187E+002
+2.52834724541E+007, +3.58818170427E+001, +4.88544553449E+002
+2.54502504174E+007, +3.76310880762E+001, +4.94258075795E+002
+2.56170283806E+007, +3.59681571545E+001, +4.97548061809E+002
+2.57838063439E+007, +3.71918042802E+001, +5.03555868848E+002
+2.59505843072E+007, +3.74672628852E+001, +5.07890155063E+002
+2.61173622705E+007, +3.80142407978E+001, +5.11147087251E+002
+2.62841402337E+007, +3.78258381117E+001, +5.15942154820E+002
+2.64509181970E+007, +3.74058392565E+001, +5.19721262638E+002
+2.66176961603E+007, +3.82437280350E+001, +5.25971676943E+002
+2.67844741235E+007, +3.86701116557E+001, +5.30413539289E+002
+2.69512520868E+007, +3.98307327031E+001, +5.34726536748E+002
+2.71180300501E+007, +4.07974425615E+001, +5.37414607564E+002
+2.72848080134E+007, +4.03299190622E+001, +5.43414581165E+002
+2.74515859766E+007, +4.07569451033E+001, +5.47324898663E+002
+2.76183639399E+007, +4.05309360374E+001, +5.51473026871E+002
+2.77851419032E+007, +4.01094540352E+001, +5.56736848934E+002
+2.79519198664E+007, +4.22702836190E+001, +5.61229204695E+002
+2.81186978297E+007, +4.24642304440E+001, +5.66239332554E+002
+2.82854757930E+007, +4.09745118127E+001, +5.70215192252E+002
+2.84522537563E+007, +4.07750539212E+001, +5.75036046082E+002
+2.86190317195E+007, +4.21076276692E+001, +5.80780747824E+002
+2.87858096828E+007, +4.50776364495E+001, +5.85303080037E+002
+2.89525876461E+007, +4.40854279726E+001, +5.90192345852E+002
+2.91193656093E+007, +4.29084011693E+001, +5.94117275212E+002
+2.92861435726E+007, +4.18356647976E+001, +5.99349117920E+002
+2.94529215359E+007, +4.39326151962E+001, +6.05047060855E+002
+2.96196994992E+007, +4.60232796374E+001, +6.10684457598E+002
+2.97864774624E+007, +4.64968430391E+001, +6.14709639390E+002
+2.99532554257E+007, +4.61082508244E+001, +6.22159610347E+002
+3.01200333890E+007, +4.52746384910E+001, +6.25721099326E+002
+3.02868113523E+007, +4.53317435050E+001, +6.31256306499E+002
+3.04535893155E+007, +4.46103512748E+001, +6.36734148986E+002
+3.06203672788E+007, +4.82298955707E+001, +6.42233435113E+002
+3.07871452421E+007, +4.63686477475E+001, +6.47863129866E+002
+3.09539232053E+007, +4.71405888009E+001, +6.52268825681E+002
+3.11207011686E+007, +4.65258680111E+001, +6.60037488655E+002
+3.12874791319E+007, +4.70095620208E+001, +6.63513913683E+002
+3.14542570952E+007, +4.92390289822E+001, +6.69950129121E+002
+3.16210350584E+007, +4.89901169312E+001, +6.76331389726E+002
+3.17878130217E+007, +4.84690169590E+001, +6.81537443878E+002
+3.19545909850E+007, +4.81293933621E+001, +6.87203243495E+002
+3.21213689482E+007, +4.93060478666E+001, +6.94780961499E+002
+3.22881469115E+007, +4.77557469382E+001, +7.00423328216E+002
+3.24549248748E+007, +4.93664730826E+001, +7.05050499994E+002
+3.26217028381E+007, +4.86643516240E+001, +7.12446176144E+002
+3.27884808013E+007, +5.13555936358E+001, +7.18469703652E+002
+3.29552587646E+007, +5.22369274357E+001, +7.22793552759E+002
+3.31220367279E+007, +5.31303998745E+001, +7.29866170001E+002
+3.32888146912E+007, +4.96843873454E+001, +7.36455602234E+002
+3.34555926544E+007, +5.01047731416E+001, +7.44793128355E+002
+3.36223706177E+007, +5.18446377211E+001, +7.46942767951E+002
+3.37891485810E+007, +5.27444727548E+001, +7.54497110077E+002
+3.39559265442E+007, +5.41813148978E+001, +7.64340574257E+002
+3.41227045075E+007, +5.34492651012E+001, +7.68754599430E+002
+3.42894824708E+007, +5.38493627678E+001, +7.73816322950E+002
+3.44562604341E+007, +5.52054556021E+001, +7.81346320707E+002
+3.46230383973E+007, +5.54362168214E+001, +7.89925198848E+002
+3.47898163606E+007, +5.57209718753E+001, +7.95777751853E+002
+3.49565943239E+007, +5.89541402916E+001, +8.03192457547E+002
+3.51233722871E+007, +5.99155016332E+001, +8.11275691077E+002
+3.52901502504E+007, +5.77582759044E+001, +8.13055666505E+002
+3.54569282137E+007, +5.66869830686E+001, +8.26510867331E+002
+3.56237061770E+007, +5.73562896046E+001, +8.34601142596E+002
+3.57904841402E+007, +5.93103727229E+001, +8.43666484492E+002
+3.59572621035E+007, +6.19795474416E+001, +8.50131217299E+002
+3.61240400668E+007, +6.24236515261E+001, +8.56697447778E+002
+3.62908180301E+007, +6.52271481175E+001, +8.67523856180E+002
+3.64575959933E+007, +5.93821928879E+001, +8.71800260746E+002
+3.66243739566E+007, +6.68985284201E+001, +8.78584085271E+002
+3.67911519199E+007, +6.39492617350E+001, +8.91275442687E+002
+3.69579298831E+007, +6.62428358202E+001, +8.96422924494E+002
+3.71247078464E+007, +6.53849272212E+001, +9.01223146283E+002
+3.72914858097E+007, +6.46292915138E+001, +9.16849708433E+002
+3.74582637730E+007, +6.91955629579E+001, +9.29610415279E+002
+3.76250417362E+007, +7.24184040419E+001, +9.31356267171E+002
+3.77918196995E+007, +7.00879633245E+001, +9.42152125776E+002
+3.79585976628E+007, +6.87803337592E+001, +9.50157237431E+002
+3.81253756260E+007, +7.49337188138E+001, +9.60576760233E+002
+3.82921535893E+007, +7.72149967066E+001, +9.67994056297E+002
+3.84589315526E+007, +7.52700480687E+001, +9.78039405373E+002
+3.86257095159E+007, +7.61700304139E+001, +9.85763855057E+002
+3.87924874791E+007, +7.37030118692E+001, +9.98517670612E+002
+3.89592654424E+007, +7.87570783925E+001, +1.00416778404E+003
+3.91260434057E+007, +8.01891063658E+001, +1.02222691022E+003
+3.92928213689E+007, +8.18010198636E+001, +1.02493906998E+003
+3.94595993322E+007, +7.82330337706E+001, +1.03990618574E+003
+3.96263772955E+007, +8.16863599123E+001, +1.04515983512E+003
+3.97931552588E+007, +7.76022117483E+001, +1.05846324076E+003
+3.99599332220E+007, +8.45183139940E+001, +1.07393424750E+003
+4.01267111853E+007, +8.63426649804E+001, +1.08110665557E+003
+4.02934891486E+007, +8.69169833025E+001, +1.09026679428E+003
+4.04602671119E+007, +9.09227038331E+001, +1.09874753782E+003
+4.06270450751E+007, +9.13953636152E+001, +1.11242554535E+003
+4.07938230384E+007, +9.29000218839E+001, +1.12481748465E+003
+4.09606010017E+007, +9.65894750464E+001, +1.13573363205E+003
+4.11273789649E+007, +9.98600304838E+001, +1.14686982873E+003
+4.12941569282E+007, +9.73762708630E+001, +1.16294788618E+003
+4.14609348915E+007, +1.00369883410E+002, +1.17762656594E+003
+4.16277128548E+007, +1.01147802391E+002, +1.18033506232E+003
+4.17944908180E+007, +1.01434078549E+002, +1.19066077320E+003
+4.19612687813E+007, +1.04513512213E+002, +1.21249364769E+003
+4.21280467446E+007, +1.01542089588E+002, +1.22625543357E+003
+4.22948247078E+007, +1.03745231307E+002, +1.24059581088E+003
+4.24616026711E+007, +1.14561600261E+002, +1.25109732943E+003
+4.26283806344E+007, +1.13080528727E+002, +1.26816575433E+003
+4.27951585977E+007, +1.09322002114E+002, +1.28235286063E+003
+4.29619365609E+007, +1.22230727778E+002, +1.30239555064E+003
+4.31287145242E+007, +1.24206623912E+002, +1.31386395022E+003
+4.32954924875E+007, +1.21918230594E+002, +1.32291186873E+003
+4.34622704508E+007, +1.17075124480E+002, +1.34302894086E+003
+4.36290484140E+007, +1.32047451943E+002, +1.36481179709E+003
+4.37958263773E+007, +1.22985952390E+002, +1.38329036613E+003
+4.39626043406E+007, +1.35399686421E+002, +1.39268452495E+003
+4.41293823038E+007, +1.47093661429E+002, +1.41458360767E+003
+4.42961602671E+007, +1.36303429152E+002, +1.43164419714E+003
+4.44629382304E+007, +1.46647810791E+002, +1.44891771279E+003
+4.46297161937E+007, +1.42189080420E+002, +1.46771558528E+003
+4.47964941569E+007, +1.49356417385E+002, +1.48842212970E+003
+4.49632721202E+007, +1.45501113979E+002, +1.50335143964E+003
+4.51300500835E+007, +1.54364554004E+002, +1.52028858908E+003
+4.52968280467E+007, +1.71296708491E+002, +1.55142457061E+003
+4.54636060100E+007, +1.75642187636E+002, +1.57652948602E+003
+4.56303839733E+007, +1.71217262684E+002, +1.58713678681E+003
+4.57971619366E+007, +1.77192276636E+002, +1.61745884198E+003
+4.59639398998E+007, +1.78492218864E+002, +1.67000501985E+003
+4.61307178631E+007, +1.88056850719E+002, +1.65839938289E+003
+4.62974958264E+007, +1.96923008417E+002, +1.68696974096E+003
+4.64642737896E+007, +1.91486876172E+002, +1.70065520994E+003
+4.66310517529E+007, +2.03108946282E+002, +1.75997459150E+003
+4.67978297162E+007, +2.25047331749E+002, +1.75099888861E+003
+4.69646076795E+007, +2.15345154042E+002, +1.80129316135E+003
+4.71313856427E+007, +2.48915086518E+002, +1.82573910305E+003
+4.72981636060E+007, +2.45145693991E+002, +1.86377521874E+003
+4.74649415693E+007, +2.57910844446E+002, +1.88645009311E+003
+4.76317195326E+007, +2.83143335601E+002, +1.89609070464E+003
+4.77984974958E+007, +2.91312209408E+002, +1.93409811003E+003
+4.79652754591E+007, +2.92353344280E+002, +1.97844734453E+003
+4.81320534224E+007, +3.02179539141E+002, +1.99054396159E+003
+4.82988313856E+007, +3.12101155890E+002, +2.02154961180E+003
+4.84656093489E+007, +3.33701450917E+002, +2.06471650632E+003
+4.86323873122E+007, +3.52055684385E+002, +2.09604180870E+003
+4.87991652755E+007, +3.54583509707E+002, +2.13093494339E+003
+4.89659432387E+007, +3.88919437298E+002, +2.15007357618E+003
+4.91327212020E+007, +4.02270531222E+002, +2.19610862320E+003
+4.92994991653E+007, +4.26270027537E+002, +2.22827764880E+003
+4.94662771285E+007, +4.90154614839E+002, +2.27960140028E+003
+4.96330550918E+007, +5.01944090278E+002, +2.29522259456E+003
+4.97998330551E+007, +5.24202538661E+002, +2.31239551992E+003
+4.99666110184E+007, +5.49230649028E+002, +2.38338622533E+003
+5.01333889816E+007, +5.59706114464E+002, +2.40592864376E+003
+5.03001669449E+007, +5.69281776108E+002, +2.43856501699E+003
+5.04669449082E+007, +5.90270222022E+002, +2.49088626776E+003
+5.06337228715E+007, +6.30412714869E+002, +2.53385422869E+003
+5.08005008347E+007, +6.44872757926E+002, +2.55231128707E+003
+5.09672787980E+007, +6.85470593032E+002, +2.57955688324E+003
+5.11340567613E+007, +7.04952779677E+002, +2.65922166746E+003
+5.13008347245E+007, +7.30597217758E+002, +2.71043607840E+003
+5.14676126878E+007, +7.42579479759E+002, +2.73016615214E+003
+5.16343906511E+007, +7.88783839841E+002, +2.79650993490E+003
+5.18011686144E+007, +7.92023779690E+002, +2.83084662166E+003
+5.19679465776E+007, +7.80782354440E+002, +2.89551759535E+003
+5.21347245409E+007, +8.50906936833E+002, +2.94290687445E+003
+5.23015025042E+007, +9.37335253522E+002, +3.07371505251E+003
+5.24682804674E+007, +8.96415084253E+002, +3.17431799137E+003
+5.26350584307E+007, +9.84784960229E+002, +3.20808669404E+003
+5.28018363940E+007, +1.01499319582E+003, +3.29876021073E+003
+5.29686143573E+007, +1.04891852941E+003, +3.40918812525E+003
+5.31353923205E+007, +1.12057055145E+003, +3.41806210782E+003
+5.33021702838E+007, +1.18291430470E+003, +3.56567076344E+003
+5.34689482471E+007, +1.30141041280E+003, +3.70659037569E+003
