"# Channel 1"
"# Trace 1"
Frequency, Formatted Data, Formatted Data
+1.00000000000E+005, +5.01444432656E+001, +2.20306514641E+000
+3.18898623279E+005, +5.02782670699E+001, +5.42839466687E+000
+5.37797246558E+005, +5.03219467677E+001, +9.19215585911E+000
+7.56695869837E+005, +5.03030889565E+001, +1.28546267444E+001
+9.75594493116E+005, +5.04516419208E+001, +1.66179554454E+001
+1.19449311640E+006, +5.04718182304E+001, +2.01751332022E+001
+1.41339173967E+006, +5.03076869024E+001, +2.38908983714E+001
+1.63229036295E+006, +5.04586359707E+001, +2.75016232607E+001
+1.85118898623E+006, +5.04259561177E+001, +3.13199364212E+001
+2.07008760951E+006, +5.04907141401E+001, +3.50272087304E+001
+2.28898623279E+006, +5.06012310036E+001, +3.88237981873E+001
+2.50788485607E+006, +5.07084085197E+001, +4.23330017476E+001
+2.72678347935E+006, +5.04433919814E+001, +4.62301264453E+001
+2.94568210263E+006, +5.06026097600E+001, +4.98243168162E+001
+3.16458072591E+006, +5.05297733844E+001, +5.36040854546E+001
+3.38347934919E+006, +5.07455322497E+001, +5.73193500610E+001
+3.60237797247E+006, +5.07607576945E+001, +6.07066910704E+001
+3.82127659574E+006, +5.08108066002E+001, +6.43845913651E+001
+4.04017521902E+006, +5.09921650333E+001, +6.81964007359E+001
+4.25907384230E+006, +5.08244350204E+001, +7.18496671319E+001
+4.47797246558E+006, +5.09637502683E+001, +7.55588488082E+001
+4.69687108886E+006, +5.08078056208E+001, +7.94515404186E+001
+4.91576971214E+006, +5.08341809861E+001, +8.30838404204E+001
+5.13466833542E+006, +5.09669075697E+001, +8.68097091559E+001
+5.35356695870E+006, +5.11775251299E+001, +9.04871245979E+001
+5.57246558198E+006, +5.09716080402E+001, +9.42060223682E+001
+5.79136420526E+006, +5.12829152716E+001, +9.80556595784E+001
+6.01026282854E+006, +5.13702129309E+001, +1.01675782968E+002
+6.22916145181E+006, +5.13391408026E+001, +1.05706273659E+002
+6.44806007509E+006, +5.14515095777E+001, +1.09065761081E+002
+6.66695869837E+006, +5.16807080901E+001, +1.12809333832E+002
+6.88585732165E+006, +5.15498345235E+001, +1.16733189511E+002
+7.10475594493E+006, +5.17476235660E+001, +1.20294943059E+002
+7.32365456821E+006, +5.17444434523E+001, +1.24167565689E+002
+7.54255319149E+006, +5.18515130096E+001, +1.27690544336E+002
+7.76145181477E+006, +5.20245855967E+001, +1.31636701819E+002
+7.98035043805E+006, +5.22496098030E+001, +1.35378443043E+002
+8.19924906133E+006, +5.21111548410E+001, +1.39106892421E+002
+8.41814768461E+006, +5.23896729675E+001, +1.42946251108E+002
+8.63704630788E+006, +5.23578917579E+001, +1.46598800746E+002
+8.85594493116E+006, +5.24586115001E+001, +1.50439852742E+002
+9.07484355444E+006, +5.24570791476E+001, +1.54300289224E+002
+9.29374217772E+006, +5.25808384044E+001, +1.58316832725E+002
+9.51264080100E+006, +5.26703469863E+001, +1.61990750894E+002
+9.73153942428E+006, +5.27437238154E+001, +1.65849258435E+002
+9.95043804756E+006, +5.26235488219E+001, +1.69411505129E+002
+1.01693366708E+007, +5.29677889912E+001, +1.73537646799E+002
+1.03882352941E+007, +5.29617129501E+001, +1.77170793988E+002
+1.06071339174E+007, +5.28265991520E+001, +1.81037557414E+002
+1.08260325407E+007, +5.29983979155E+001, +1.84816366306E+002
+1.10449311640E+007, +5.32097188684E+001, +1.88591577129E+002
+1.12638297872E+007, +5.31140674313E+001, +1.92831841122E+002
+1.14827284105E+007, +5.32631717765E+001, +1.96420111429E+002
+1.17016270338E+007, +5.34977275443E+001, +2.00275539780E+002
+1.19205256571E+007, +5.37975693167E+001, +2.04091140291E+002
+1.21394242804E+007, +5.39268951926E+001, +2.08021911333E+002
+1.23583229036E+007, +5.41316393442E+001, +2.12288694261E+002
+1.25772215269E+007, +5.38213498071E+001, +2.16228726922E+002
+1.27961201502E+007, +5.38444607924E+001, +2.20131150822E+002
+1.30150187735E+007, +5.40867478120E+001, +2.23629299315E+002
+1.32339173967E+007, +5.42594475314E+001, +2.27882687457E+002
+1.34528160200E+007, +5.41051583164E+001, +2.31757250413E+002
+1.36717146433E+007, +5.44068354757E+001, +2.35771570298E+002
+1.38906132666E+007, +5.45283885346E+001, +2.39828782891E+002
+1.41095118899E+007, +5.46801499693E+001, +2.44072638298E+002
+1.43284105131E+007, +5.45228264525E+001, +2.48158671574E+002
+1.45473091364E+007, +5.49557313388E+001, +2.52067321294E+002
+1.47662077597E+007, +5.50347550431E+001, +2.55999831604E+002
+1.49851063830E+007, +5.51636361824E+001, +2.59847830422E+002
+1.52040050063E+007, +5.52211098846E+001, +2.64535656704E+002
+1.54229036295E+007, +5.54982031389E+001, +2.68322084942E+002
+1.56418022528E+007, +5.51099731587E+001, +2.72722701214E+002
+1.58607008761E+007, +5.55694503042E+001, +2.76348415991E+002
+1.60795994994E+007, +5.56322690150E+001, +2.80920679194E+002
+1.62984981227E+007, +5.60027344321E+001, +2.84928588370E+002
+1.65173967459E+007, +5.59154015173E+001, +2.89354321859E+002
+1.67362953692E+007, +5.59345788302E+001, +2.93298165710E+002
+1.69551939925E+007, +5.62929927317E+001, +2.97168839201E+002
+1.71740926158E+007, +5.56638663663E+001, +3.02019145623E+002
+1.73929912390E+007, +5.62051959820E+001, +3.05726325563E+002
+1.76118898623E+007, +5.61164901806E+001, +3.10269260669E+002
+1.78307884856E+007, +5.72916121731E+001, +3.14425106351E+002
+1.80496871089E+007, +5.69014973544E+001, +3.18246124211E+002
+1.82685857322E+007, +5.70680596318E+001, +3.23494619190E+002
+1.84874843554E+007, +5.78144464745E+001, +3.27078090247E+002
+1.87063829787E+007, +5.71793169906E+001, +3.32066675938E+002
+1.89252816020E+007, +5.76752533385E+001, +3.36426499221E+002
+1.91441802253E+007, +5.81681475135E+001, +3.39906769843E+002
+1.93630788486E+007, +5.70721794367E+001, +3.44896048560E+002
+1.95819774718E+007, +5.87508803999E+001, +3.48691188437E+002
+1.98008760951E+007, +5.84356027352E+001, +3.52941304243E+002
+2.00197747184E+007, +5.83313848603E+001, +3.57630814455E+002
+2.02386733417E+007, +5.84261125118E+001, +3.61873308673E+002
+2.04575719650E+007, +5.92954700958E+001, +3.66547271511E+002
+2.06764705882E+007, +5.88089935142E+001, +3.71317797173E+002
+2.08953692115E+007, +5.95032370805E+001, +3.75711621520E+002
+2.11142678348E+007, +5.94272855159E+001, +3.79744562738E+002
+2.13331664581E+007, +6.03117983312E+001, +3.85260887824E+002
+2.15520650814E+007, +6.00345806791E+001, +3.88830836462E+002
+2.17709637046E+007, +5.99534788027E+001, +3.93883377201E+002
+2.19898623279E+007, +6.11073710493E+001, +3.98963337693E+002
+2.22087609512E+007, +6.02748836793E+001, +4.02859078520E+002
+2.24276595745E+007, +6.18769431390E+001, +4.08527329517E+002
+2.26465581977E+007, +6.18868178700E+001, +4.12071113405E+002
+2.28654568210E+007, +6.21326295017E+001, +4.16533736016E+002
+2.30843554443E+007, +6.24383965483E+001, +4.21818662049E+002
+2.33032540676E+007, +6.31044285425E+001, +4.25174820273E+002
+2.35221526909E+007, +6.28597933272E+001, +4.31161856195E+002
+2.37410513141E+007, +6.31028912639E+001, +4.35072528637E+002
+2.39599499374E+007, +6.31447217229E+001, +4.40914055985E+002
+2.41788485607E+007, +6.35474188267E+001, +4.45136552082E+002
+2.43977471840E+007, +6.38519414115E+001, +4.49890761228E+002
+2.46166458073E+007, +6.41125432145E+001, +4.54934576232E+002
+2.48355444305E+007, +6.53999885952E+001, +4.59342348650E+002
+2.50544430538E+007, +6.56348356073E+001, +4.63792716663E+002
+2.52733416771E+007, +6.61718168605E+001, +4.70023496445E+002
+2.54922403004E+007, +6.55408312460E+001, +4.75413995945E+002
+2.57111389237E+007, +6.67590123160E+001, +4.79287837189E+002
+2.59300375469E+007, +6.64156492049E+001, +4.85159064880E+002
+2.61489361702E+007, +6.56944296172E+001, +4.89845315293E+002
+2.63678347935E+007, +6.60328282032E+001, +4.96297636212E+002
+2.65867334168E+007, +6.74596520618E+001, +4.99809326544E+002
+2.68056320401E+007, +6.82900975019E+001, +5.04765930712E+002
+2.70245306633E+007, +6.70987923270E+001, +5.09826882795E+002
+2.72434292866E+007, +6.76187254123E+001, +5.14055027590E+002
+2.74623279099E+007, +6.80747740261E+001, +5.20557641902E+002
+2.76812265332E+007, +6.82285850890E+001, +5.26187978809E+002
+2.79001251564E+007, +6.81858003638E+001, +5.31035703884E+002
+2.81190237797E+007, +6.90393973638E+001, +5.35783917236E+002
+2.83379224030E+007, +6.96183842752E+001, +5.40275993408E+002
+2.85568210263E+007, +6.87643290348E+001, +5.46121884620E+002
+2.87757196496E+007, +6.93076353559E+001, +5.54128702233E+002
+2.89946182728E+007, +6.83182896683E+001, +5.58164612052E+002
+2.92135168961E+007, +6.87257168517E+001, +5.65081397334E+002
+2.94324155194E+007, +7.02215743442E+001, +5.71822920983E+002
+2.96513141427E+007, +7.01588142376E+001, +5.76210074577E+002
+2.98702127660E+007, +7.05269186321E+001, +5.80645181694E+002
+3.00891113892E+007, +7.07772073593E+001, +5.87806191123E+002
+3.03080100125E+007, +7.26782143991E+001, +5.91409665241E+002
+3.05269086358E+007, +7.30314108049E+001, +5.99723773142E+002
+3.07458072591E+007, +7.34133934916E+001, +6.02859743033E+002
+3.09647058824E+007, +7.36921206469E+001, +6.09226823931E+002
+3.11836045056E+007, +7.40465537957E+001, +6.16121623308E+002
+3.14025031289E+007, +7.29358199193E+001, +6.22406017153E+002
+3.16214017522E+007, +7.53723627703E+001, +6.27290572425E+002
+3.18403003755E+007, +7.45708525290E+001, +6.34454455082E+002
+3.20591989987E+007, +7.47390660116E+001, +6.40593099243E+002
+3.22780976220E+007, +7.51462469826E+001, +6.46260199051E+002
+3.24969962453E+007, +7.64146597442E+001, +6.53009626121E+002
+3.27158948686E+007, +7.62054725243E+001, +6.57720714349E+002
+3.29347934919E+007, +7.54742446586E+001, +6.64050196072E+002
+3.31536921151E+007, +7.68384047541E+001, +6.70514839290E+002
+3.33725907384E+007, +7.81763810344E+001, +6.79024562633E+002
+3.35914893617E+007, +7.73323328391E+001, +6.85086252271E+002
+3.38103879850E+007, +7.60680714250E+001, +6.91873678941E+002
+3.40292866083E+007, +7.58090160223E+001, +6.99941024654E+002
+3.42481852315E+007, +7.75785427571E+001, +7.06171833602E+002
+3.44670838548E+007, +8.09443249093E+001, +7.10516063065E+002
+3.46859824781E+007, +8.01650781069E+001, +7.18815246016E+002
+3.49048811014E+007, +8.29936303250E+001, +7.26995357554E+002
+3.51237797247E+007, +8.12330218972E+001, +7.32387595292E+002
+3.53426783479E+007, +8.39748136086E+001, +7.39992847547E+002
+3.55615769712E+007, +8.32023674039E+001, +7.46433329202E+002
+3.57804755945E+007, +8.60710881280E+001, +7.50850680542E+002
+3.59993742178E+007, +8.26073035175E+001, +7.64609712514E+002
+3.62182728411E+007, +8.38668936110E+001, +7.63348548157E+002
+3.64371714643E+007, +8.51960440880E+001, +7.73741800001E+002
+3.66560700876E+007, +8.48862794286E+001, +7.83130755337E+002
+3.68749687109E+007, +8.55829301231E+001, +7.93259999243E+002
+3.70938673342E+007, +8.94699361056E+001, +7.97400898946E+002
+3.73127659574E+007, +9.07941319373E+001, +8.06343450239E+002
+3.75316645807E+007, +8.87605494426E+001, +8.12025473187E+002
+3.77505632040E+007, +8.74306252250E+001, +8.20963674391E+002
+3.79694618273E+007, +9.20234607423E+001, +8.29664072328E+002
+3.81883604506E+007, +8.81506978202E+001, +8.38040936060E+002
+3.84072590738E+007, +9.00381416191E+001, +8.43515391775E+002
+3.86261576971E+007, +9.20151280288E+001, +8.52177949838E+002
+3.88450563204E+007, +9.29350674905E+001, +8.60872250561E+002
+3.90639549437E+007, +9.79892827922E+001, +8.64875524184E+002
+3.92828535670E+007, +9.32887186390E+001, +8.77989171842E+002
+3.95017521902E+007, +9.71897197218E+001, +8.83253614200E+002
+3.97206508135E+007, +9.67355245395E+001, +8.97055221813E+002
+3.99395494368E+007, +9.85515380147E+001, +9.03748443488E+002
+4.01584480601E+007, +9.97614454592E+001, +9.12869885627E+002
+4.03773466834E+007, +1.01193606100E+002, +9.24921623580E+002
+4.05962453066E+007, +9.56597583864E+001, +9.35879651025E+002
+4.08151439299E+007, +1.02483857700E+002, +9.39404022391E+002
+4.10340425532E+007, +1.01089300396E+002, +9.47187502701E+002
+4.12529411765E+007, +9.72068193113E+001, +9.56882592899E+002
+4.14718397997E+007, +1.02719604339E+002, +9.71706381208E+002
+4.16907384230E+007, +1.02331663655E+002, +9.77632764798E+002
+4.19096370463E+007, +1.05725320854E+002, +9.86789660175E+002
+4.21285356696E+007, +1.08471751447E+002, +9.96897477005E+002
+4.23474342929E+007, +1.03394484324E+002, +1.00875694453E+003
+4.25663329161E+007, +1.12950861003E+002, +1.01608221331E+003
+4.27852315394E+007, +1.09450553990E+002, +1.02756216452E+003
+4.30041301627E+007, +1.15235925407E+002, +1.03716654302E+003
+4.32230287860E+007, +1.16007445664E+002, +1.04861759411E+003
+4.34419274093E+007, +1.15515915473E+002, +1.06327605117E+003
+4.36608260325E+007, +1.11047835351E+002, +1.06784597265E+003
+4.38797246558E+007, +1.16324911372E+002, +1.08420070431E+003
+4.40986232791E+007, +1.17603416520E+002, +1.09275217983E+003
+4.43175219024E+007, +1.17203736671E+002, +1.10687495894E+003
+4.45364205257E+007, +1.22126508635E+002, +1.11980107417E+003
+4.47553191489E+007, +1.22310285311E+002, +1.12678052457E+003
+4.49742177722E+007, +1.20790520023E+002, +1.13647353874E+003
+4.51931163955E+007, +1.23954795688E+002, +1.15099115504E+003
+4.54120150188E+007, +1.26115285609E+002, +1.16254983390E+003
+4.56309136421E+007, +1.34560525060E+002, +1.17319608869E+003
+4.58498122653E+007, +1.27430715887E+002, +1.18106820337E+003
+4.60687108886E+007, +1.30788764264E+002, +1.19931992003E+003
+4.62876095119E+007, +1.33840108485E+002, +1.21426587108E+003
+4.65065081352E+007, +1.38903937625E+002, +1.21712716808E+003
+4.67254067584E+007, +1.37338412950E+002, +1.23281906783E+003
+4.69443053817E+007, +1.39733001166E+002, +1.23928852470E+003
+4.71632040050E+007, +1.39443701473E+002, +1.26264543622E+003
+4.73821026283E+007, +1.45062247049E+002, +1.27812960751E+003
+4.76010012516E+007, +1.47616766580E+002, +1.29033426043E+003
+4.78198998748E+007, +1.42055864881E+002, +1.30583456007E+003
+4.80387984981E+007, +1.52463188791E+002, +1.31744941524E+003
+4.82576971214E+007, +1.52850074267E+002, +1.33646494643E+003
+4.84765957447E+007, +1.58883616075E+002, +1.34544255203E+003
+4.86954943680E+007, +1.54572477242E+002, +1.36609320568E+003
+4.89143929912E+007, +1.54771273196E+002, +1.38725563471E+003
+4.91332916145E+007, +1.62546408249E+002, +1.39499979887E+003
+4.93521902378E+007, +1.63798467423E+002, +1.40892246947E+003
+4.95710888611E+007, +1.73520556705E+002, +1.42838842631E+003
+4.97899874844E+007, +1.73215791036E+002, +1.44020526187E+003
+5.00088861076E+007, +1.58410950697E+002, +1.45401122245E+003
+5.02277847309E+007, +1.83996921838E+002, +1.48091122735E+003
+5.04466833542E+007, +1.85996396758E+002, +1.49934451056E+003
+5.06655819775E+007, +1.86451848331E+002, +1.51203317832E+003
+5.08844806008E+007, +1.96828038905E+002, +1.52693408162E+003
+5.11033792240E+007, +1.95025588043E+002, +1.55451024302E+003
+5.13222778473E+007, +1.96412635691E+002, +1.57051542673E+003
+5.15411764706E+007, +2.03125799563E+002, +1.58432353312E+003
+5.17600750939E+007, +2.00647363195E+002, +1.61295938730E+003
+5.19789737171E+007, +2.08557791452E+002, +1.63215890319E+003
+5.21978723404E+007, +2.11396375097E+002, +1.65322965332E+003
+5.24167709637E+007, +2.05210846871E+002, +1.66851403078E+003
+5.26356695870E+007, +2.29176795243E+002, +1.68325458540E+003
+5.28545682103E+007, +2.38997073853E+002, +1.71222622722E+003
+5.30734668335E+007, +2.33792842075E+002, +1.74463896789E+003
+5.32923654568E+007, +2.30491632139E+002, +1.77159357166E+003
+5.35112640801E+007, +2.46800094843E+002, +1.77660145301E+003
+5.37301627034E+007, +2.45363815402E+002, +1.81110634555E+003
+5.39490613267E+007, +2.55186390638E+002, +1.83870719645E+003
+5.41679599499E+007, +2.62909427376E+002, +1.86142778748E+003
+5.43868585732E+007, +2.62809739051E+002, +1.88727015054E+003
+5.46057571965E+007, +2.80447146704E+002, +1.91717208652E+003
+5.48246558198E+007, +2.74884350119E+002, +1.93723283888E+003
+5.50435544431E+007, +2.87553945325E+002, +1.98547160396E+003
+5.52624530663E+007, +2.94424403542E+002, +2.01787209832E+003
+5.54813516896E+007, +3.16307224494E+002, +2.01734380812E+003
+5.57002503129E+007, +3.28948173396E+002, +2.04810089726E+003
+5.59191489362E+007, +3.28657442613E+002, +2.10815556021E+003
+5.61380475594E+007, +3.37882906115E+002, +2.14397547942E+003
+5.63569461827E+007, +3.41147113715E+002, +2.17346107417E+003
+5.65758448060E+007, +3.46422780556E+002, +2.19816617213E+003
+5.67947434293E+007, +3.78507168121E+002, +2.22331158181E+003
+5.70136420526E+007, +4.00343377536E+002, +2.25894653829E+003
+5.72325406758E+007, +4.00388482377E+002, +2.29203020152E+003
+5.74514392991E+007, +3.94124754943E+002, +2.34442725572E+003
+5.76703379224E+007, +4.13400916354E+002, +2.35744957230E+003
+5.78892365457E+007, +4.17094467943E+002, +2.41510344489E+003
+5.81081351690E+007, +4.72873730314E+002, +2.45517135125E+003
+5.83270337922E+007, +4.83038751243E+002, +2.52176103054E+003
+5.85459324155E+007, +5.05088512666E+002, +2.53808545187E+003
+5.87648310388E+007, +5.01686894797E+002, +2.59387133398E+003
+5.89837296621E+007, +5.27837812472E+002, +2.62412337608E+003
+5.92026282854E+007, +5.96022699810E+002, +2.68034730019E+003
+5.94215269086E+007, +5.57155472507E+002, +2.71974784383E+003
+5.96404255319E+007, +5.71027967554E+002, +2.80923528230E+003
+5.98593241552E+007, +6.36076682599E+002, +2.83804845831E+003
+6.00782227785E+007, +6.68905543806E+002, +2.91545487147E+003
+6.02971214018E+007, +6.84170536077E+002, +2.94099694545E+003
+6.05160200250E+007, +7.19830423204E+002, +3.01727010752E+003
+6.07349186483E+007, +7.30326942225E+002, +3.01949909073E+003
+6.09538172716E+007, +7.96712929014E+002, +3.20865278013E+003
+6.11727158949E+007, +8.60335016714E+002, +3.18359316390E+003
+6.13916145181E+007, +8.21009942459E+002, +3.31914682008E+003
+6.16105131414E+007, +8.86418986920E+002, +3.35454684263E+003
+6.18294117647E+007, +9.51525004329E+002, +3.42281645594E+003
+6.20483103880E+007, +9.57949626289E+002, +3.49102008469E+003
+6.22672090113E+007, +1.04653012846E+003, +3.56350076990E+003
+6.24861076345E+007, +1.07932102075E+003, +3.63620009967E+003
+6.27050062578E+007, +1.18752104789E+003, +3.67807147618E+003
+6.29239048811E+007, +1.12117451735E+003, +3.81527823487E+003
+6.31428035044E+007, +1.22989186510E+003, +3.88860694603E+003
+6.33617021277E+007, +1.29202488244E+003, +3.98945065440E+003
+6.35806007509E+007, +1.43657123502E+003, +4.17048133219E+003
+6.37994993742E+007, +1.40222402629E+003, +4.26723668476E+003
+6.40183979975E+007, +1.63021567087E+003, +4.32817919466E+003
+6.42372966208E+007, +1.68967530113E+003, +4.49442413537E+003
+6.44561952441E+007, +1.76000041331E+003, +4.53071068985E+003
+6.46750938673E+007, +2.04141531119E+003, +4.74233685345E+003
+6.48939924906E+007, +2.13325374297E+003, +4.84864060770E+003
+6.51128911139E+007, +2.36631696965E+003, +5.00635092893E+003
+6.53317897372E+007, +2.51042131310E+003, +4.97290071186E+003
+6.55506883605E+007, +2.66364693976E+003, +5.23940830796E+003
+6.57695869837E+007, +2.74640535367E+003, +5.34947889667E+003
+6.59884856070E+007, +3.16803257639E+003, +5.39757703132E+003
+6.62073842303E+007, +3.42376963424E+003, +5.72990461188E+003
+6.64262828536E+007, +3.50915462266E+003, +5.73927651256E+003
+6.66451814768E+007, +3.83958958506E+003, +5.97344490568E+003
+6.68640801001E+007, +4.32187990122E+003, +5.97057879649E+003
+6.70829787234E+007, +4.76499106364E+003, +6.17304911084E+003
+6.73018773467E+007, +4.90454124372E+003, +5.83158536792E+003
+6.75207759700E+007, +5.70156230927E+003, +5.85719480168E+003
+6.77396745932E+007, +5.92881083325E+003, +6.00135810516E+003
+6.79585732165E+007, +6.58011451074E+003, +5.72944470272E+003
+6.81774718398E+007, +7.06245963725E+003, +5.92380185030E+003
+6.83963704631E+007, +7.33564419461E+003, +5.32151388811E+003
+6.86152690864E+007, +8.15703428138E+003, +4.91065612788E+003
+6.88341677096E+007, +8.62573894295E+003, +4.87446402163E+003
+6.90530663329E+007, +9.04644083973E+003, +4.51904223067E+003
+6.92719649562E+007, +9.32024137371E+003, +3.58686742912E+003
+6.94908635795E+007, +9.73109403916E+003, +3.21582405743E+003
+6.97097622028E+007, +9.91909457219E+003, +2.52435380691E+003
+6.99286608260E+007, +1.03540792342E+004, +1.57948273370E+003
+7.01475594493E+007, +1.06175154494E+004, +6.03164914774E+002
