"# Channel 1"
"# Trace 1"
Frequency, Formatted Data, Formatted Data
+1.00000000000E+006, +6.50320813036E+000, +1.57982333161E+001
+1.16527545910E+006, +6.54045342799E+000, +1.84135541711E+001
+1.33055091820E+006, +6.57716783640E+000, +2.09308823068E+001
+1.49582637730E+006, +6.54703088900E+000, +2.35629146012E+001
+1.66110183639E+006, +6.56416899797E+000, +2.61532991751E+001
+1.82637729549E+006, +6.57457281560E+000, +2.87170597106E+001
+1.99165275459E+006, +6.59439734728E+000, +3.13243890666E+001
+2.15692821369E+006, +6.56055797254E+000, +3.38986337493E+001
+2.32220367279E+006, +6.55591514917E+000, +3.64891041341E+001
+2.48747913189E+006, +6.59089302532E+000, +3.91226439178E+001
+2.65275459098E+006, +6.49162680576E+000, +4.16965449611E+001
+2.81803005008E+006, +6.55500845228E+000, +4.43381509535E+001
+2.98330550918E+006, +6.54626884478E+000, +4.68570017175E+001
+3.14858096828E+006, +6.62248203344E+000, +4.94449046863E+001
+3.31385642738E+006, +6.70341643178E+000, +5.20835988091E+001
+3.47913188648E+006, +6.56842591742E+000, +5.47293645448E+001
+3.64440734558E+006, +6.58384834178E+000, +5.72536003436E+001
+3.80968280467E+006, +6.70700890392E+000, +5.98294727814E+001
+3.97495826377E+006, +6.75012491844E+000, +6.24791865934E+001
+4.14023372287E+006, +6.75998031497E+000, +6.52288324441E+001
+4.30550918197E+006, +6.75364471998E+000, +6.75146374041E+001
+4.47078464107E+006, +6.73994471509E+000, +7.02670698432E+001
+4.63606010017E+006, +6.66993628932E+000, +7.28102055124E+001
+4.80133555927E+006, +6.65620004732E+000, +7.55079705916E+001
+4.96661101836E+006, +6.73918442329E+000, +7.81295052146E+001
+5.13188647746E+006, +6.77336004341E+000, +8.07283422690E+001
+5.29716193656E+006, +6.76721475882E+000, +8.31703959562E+001
+5.46243739566E+006, +6.85615989281E+000, +8.59152943634E+001
+5.62771285476E+006, +6.92297288979E+000, +8.84906129623E+001
+5.79298831386E+006, +7.00604669819E+000, +9.12756691617E+001
+5.95826377295E+006, +6.97907127495E+000, +9.37770009589E+001
+6.12353923205E+006, +7.25811428483E+000, +9.63778015691E+001
+6.28881469115E+006, +7.09678719921E+000, +9.89488689624E+001
+6.45409015025E+006, +7.18207311995E+000, +1.01589294355E+002
+6.61936560935E+006, +7.15668865268E+000, +1.04199919138E+002
+6.78464106845E+006, +7.24931039010E+000, +1.06810773488E+002
+6.94991652755E+006, +7.27302202245E+000, +1.09415387439E+002
+7.11519198664E+006, +7.39315334706E+000, +1.12036406810E+002
+7.28046744574E+006, +7.37882344653E+000, +1.14730952905E+002
+7.44574290484E+006, +7.42793194974E+000, +1.17256779570E+002
+7.61101836394E+006, +7.42068302733E+000, +1.19888162817E+002
+7.77629382304E+006, +7.56024973897E+000, +1.22437001549E+002
+7.94156928214E+006, +7.43237391294E+000, +1.25059672844E+002
+8.10684474124E+006, +7.50203342314E+000, +1.27541047603E+002
+8.27212020033E+006, +7.56166604326E+000, +1.30178637029E+002
+8.43739565943E+006, +7.59539185104E+000, +1.33017719199E+002
+8.60267111853E+006, +7.50065598585E+000, +1.35529135817E+002
+8.76794657763E+006, +7.72707909984E+000, +1.38096809656E+002
+8.93322203673E+006, +7.53363630238E+000, +1.40836157432E+002
+9.09849749583E+006, +7.64068610043E+000, +1.43280277527E+002
+9.26377295492E+006, +7.59331961497E+000, +1.46231570101E+002
+9.42904841402E+006, +7.79848035555E+000, +1.48706280923E+002
+9.59432387312E+006, +7.74585722534E+000, +1.51248929507E+002
+9.75959933222E+006, +7.55318580938E+000, +1.53982889264E+002
+9.92487479132E+006, +7.65614272602E+000, +1.56462031050E+002
+1.00901502504E+007, +7.78471571598E+000, +1.59053157682E+002
+1.02554257095E+007, +7.67000959390E+000, +1.61681058846E+002
+1.04207011686E+007, +7.77300939619E+000, +1.64321533258E+002
+1.05859766277E+007, +7.72817881845E+000, +1.67272847066E+002
+1.07512520868E+007, +7.92346487311E+000, +1.69750908721E+002
+1.09165275459E+007, +7.77498797072E+000, +1.72432759458E+002
+1.10818030050E+007, +7.87425369416E+000, +1.75300790095E+002
+1.12470784641E+007, +7.90138655191E+000, +1.77670426518E+002
+1.14123539232E+007, +7.89803691507E+000, +1.80293819197E+002
+1.15776293823E+007, +8.05607618408E+000, +1.83098202244E+002
+1.17429048414E+007, +8.00781922837E+000, +1.85629540478E+002
+1.19081803005E+007, +8.07166223669E+000, +1.88329364442E+002
+1.20734557596E+007, +8.07564670775E+000, +1.91070961220E+002
+1.22387312187E+007, +7.90450765460E+000, +1.93627141391E+002
+1.24040066778E+007, +8.01119673997E+000, +1.96355788460E+002
+1.25692821369E+007, +8.07333984628E+000, +1.98864358883E+002
+1.27345575960E+007, +8.24783455076E+000, +2.01558275876E+002
+1.28998330551E+007, +8.17964218269E+000, +2.04362730642E+002
+1.30651085142E+007, +7.92950550635E+000, +2.07128278100E+002
+1.32303839733E+007, +8.48320145350E+000, +2.09807885944E+002
+1.33956594324E+007, +8.07074411300E+000, +2.12543230601E+002
+1.35609348915E+007, +8.27716735842E+000, +2.15219298786E+002
+1.37262103506E+007, +8.30997265118E+000, +2.17535303369E+002
+1.38914858097E+007, +8.53399569135E+000, +2.20253489342E+002
+1.40567612688E+007, +8.52706044086E+000, +2.23089185250E+002
+1.42220367279E+007, +8.45842789595E+000, +2.25947069015E+002
+1.43873121870E+007, +8.20494768472E+000, +2.28706914804E+002
+1.45525876461E+007, +8.30141421172E+000, +2.31326890543E+002
+1.47178631052E+007, +8.35115498973E+000, +2.34209556005E+002
+1.48831385643E+007, +8.52385123098E+000, +2.36509239363E+002
+1.50484140234E+007, +8.69476813354E+000, +2.39247532052E+002
+1.52136894825E+007, +8.46100860051E+000, +2.42096352683E+002
+1.53789649416E+007, +8.56766583318E+000, +2.44883382537E+002
+1.55442404007E+007, +8.43170484490E+000, +2.47549364619E+002
+1.57095158598E+007, +8.46349059763E+000, +2.50230648380E+002
+1.58747913189E+007, +9.02814346083E+000, +2.53139049311E+002
+1.60400667780E+007, +8.80542816857E+000, +2.55750359211E+002
+1.62053422371E+007, +8.76285855541E+000, +2.58484378856E+002
+1.63706176962E+007, +8.92011394136E+000, +2.61000138199E+002
+1.65358931553E+007, +8.95885592709E+000, +2.63671618412E+002
+1.67011686144E+007, +9.12677438267E+000, +2.66693137983E+002
+1.68664440735E+007, +9.09014617558E+000, +2.69109897394E+002
+1.70317195326E+007, +8.39857844491E+000, +2.72340392937E+002
+1.71969949917E+007, +8.33129464014E+000, +2.75103444368E+002
+1.73622704508E+007, +8.41039257294E+000, +2.77856153037E+002
+1.75275459098E+007, +8.40618347046E+000, +2.80597306876E+002
+1.76928213689E+007, +8.89470281484E+000, +2.83536927647E+002
+1.78580968280E+007, +8.98208781894E+000, +2.86307566052E+002
+1.80233722871E+007, +9.32998456279E+000, +2.88782198960E+002
+1.81886477462E+007, +9.12089913894E+000, +2.91854963385E+002
+1.83539232053E+007, +9.35438709660E+000, +2.94658129421E+002
+1.85191986644E+007, +9.67498664242E+000, +2.97549615684E+002
+1.86844741235E+007, +9.49273327661E+000, +2.99567731274E+002
+1.88497495826E+007, +9.36318823590E+000, +3.02599358099E+002
+1.90150250417E+007, +9.21403995171E+000, +3.06092571909E+002
+1.91803005008E+007, +9.51923526513E+000, +3.08205967527E+002
+1.93455759599E+007, +9.75198610007E+000, +3.10919359537E+002
+1.95108514190E+007, +1.00885415731E+001, +3.14272335884E+002
+1.96761268781E+007, +9.78881231528E+000, +3.16817112107E+002
+1.98414023372E+007, +1.01771378994E+001, +3.19440881083E+002
+2.00066777963E+007, +9.86184601272E+000, +3.22287545237E+002
+2.01719532554E+007, +9.87576013655E+000, +3.25198347020E+002
+2.03372287145E+007, +1.00064178338E+001, +3.28390514026E+002
+2.05025041736E+007, +1.00351193430E+001, +3.31503123284E+002
+2.06677796327E+007, +9.98076531341E+000, +3.34164361859E+002
+2.08330550918E+007, +9.86134456235E+000, +3.37323487580E+002
+2.09983305509E+007, +1.04299120172E+001, +3.40008377478E+002
+2.11636060100E+007, +1.02650562821E+001, +3.42563939917E+002
+2.13288814691E+007, +1.02773248751E+001, +3.45719518431E+002
+2.14941569282E+007, +1.07254769236E+001, +3.48123625549E+002
+2.16594323873E+007, +1.12149335698E+001, +3.51363349138E+002
+2.18247078464E+007, +1.10497367401E+001, +3.54542261701E+002
+2.19899833055E+007, +1.03799880263E+001, +3.57070396278E+002
+2.21552587646E+007, +1.02959545498E+001, +3.59688883923E+002
+2.23205342237E+007, +1.08343009846E+001, +3.63015912298E+002
+2.24858096828E+007, +1.11460556457E+001, +3.65861263578E+002
+2.26510851419E+007, +1.15253976663E+001, +3.68519698083E+002
+2.28163606010E+007, +1.17186961762E+001, +3.71952767592E+002
+2.29816360601E+007, +1.10997062273E+001, +3.74185398814E+002
+2.31469115192E+007, +1.20082769763E+001, +3.77163963255E+002
+2.33121869783E+007, +1.24941217135E+001, +3.81333583433E+002
+2.34774624374E+007, +1.22644354197E+001, +3.84198568251E+002
+2.36427378965E+007, +1.24063173126E+001, +3.86089572573E+002
+2.38080133556E+007, +1.20459338684E+001, +3.89210889923E+002
+2.39732888147E+007, +1.36198407581E+001, +3.93078965973E+002
+2.41385642738E+007, +1.29717644666E+001, +3.95649214136E+002
+2.43038397329E+007, +1.23793866579E+001, +3.98148229713E+002
+2.44691151920E+007, +1.29611140737E+001, +4.01298018247E+002
+2.46343906511E+007, +1.25222774010E+001, +4.04362295919E+002
+2.47996661102E+007, +1.25949941766E+001, +4.06758009020E+002
+2.49649415693E+007, +1.30645481775E+001, +4.10925987889E+002
+2.51302170284E+007, +1.31104575232E+001, +4.13707809523E+002
+2.52954924875E+007, +1.39543898693E+001, +4.16566193310E+002
+2.54607679466E+007, +1.39289787298E+001, +4.19269671932E+002
+2.56260434057E+007, +1.39566284609E+001, +4.21639511509E+002
+2.57913188648E+007, +1.33847971532E+001, +4.24864933382E+002
+2.59565943239E+007, +1.38800859981E+001, +4.27984894755E+002
+2.61218697830E+007, +1.49665728451E+001, +4.31048873845E+002
+2.62871452421E+007, +1.49489036275E+001, +4.34067325244E+002
+2.64524207012E+007, +1.49569241545E+001, +4.36686077338E+002
+2.66176961603E+007, +1.43665729859E+001, +4.40786422849E+002
+2.67829716194E+007, +1.40318037801E+001, +4.42540856221E+002
+2.69482470785E+007, +1.48627783757E+001, +4.46771670672E+002
+2.71135225376E+007, +1.49687016528E+001, +4.49711992530E+002
+2.72787979967E+007, +1.55277746688E+001, +4.53563510999E+002
+2.74440734558E+007, +1.56425839316E+001, +4.56029017178E+002
+2.76093489149E+007, +1.61526419588E+001, +4.57911064744E+002
+2.77746243740E+007, +1.51447720640E+001, +4.61405351927E+002
+2.79398998331E+007, +1.58751451172E+001, +4.64182727094E+002
+2.81051752922E+007, +1.67842429162E+001, +4.67772339046E+002
+2.82704507513E+007, +1.61803062846E+001, +4.70367087373E+002
+2.84357262104E+007, +1.57138103759E+001, +4.73226809201E+002
+2.86010016694E+007, +1.49893955029E+001, +4.77379734944E+002
+2.87662771285E+007, +1.73309554337E+001, +4.79657128351E+002
+2.89315525876E+007, +1.60221262598E+001, +4.83708260716E+002
+2.90968280467E+007, +1.64962872876E+001, +4.86389591950E+002
+2.92621035058E+007, +1.62245891976E+001, +4.88675588174E+002
+2.94273789649E+007, +1.76099740715E+001, +4.91657240872E+002
+2.95926544240E+007, +1.48870542619E+001, +4.95336232939E+002
+2.97579298831E+007, +1.65612578964E+001, +4.99022956217E+002
+2.99232053422E+007, +1.65016681341E+001, +5.02566291837E+002
+3.00884808013E+007, +1.69121603475E+001, +5.05419257974E+002
+3.02537562604E+007, +1.62662557418E+001, +5.07818591615E+002
+3.04190317195E+007, +1.60022093509E+001, +5.11666745592E+002
+3.05843071786E+007, +1.59039869659E+001, +5.14994212478E+002
+3.07495826377E+007, +1.67916632474E+001, +5.19199991127E+002
+3.09148580968E+007, +1.59809985505E+001, +5.21791563585E+002
+3.10801335559E+007, +1.66444008744E+001, +5.25815890158E+002
+3.12454090150E+007, +1.68765194835E+001, +5.28971995192E+002
+3.14106844741E+007, +1.69857849425E+001, +5.31547965786E+002
+3.15759599332E+007, +1.67999170779E+001, +5.36024850193E+002
+3.17412353923E+007, +1.68883407097E+001, +5.38765236015E+002
+3.19065108514E+007, +1.76406671236E+001, +5.42696060210E+002
+3.20717863105E+007, +1.54929968141E+001, +5.46782831539E+002
+3.22370617696E+007, +1.70571769634E+001, +5.47331819886E+002
+3.24023372287E+007, +1.58832449016E+001, +5.51986715685E+002
+3.25676126878E+007, +1.79639780050E+001, +5.55512940981E+002
+3.27328881469E+007, +1.70558887160E+001, +5.58575274008E+002
+3.28981636060E+007, +1.61299523427E+001, +5.61618701201E+002
+3.30634390651E+007, +1.69718716705E+001, +5.66718625182E+002
+3.32287145242E+007, +1.61240561015E+001, +5.70766351514E+002
+3.33939899833E+007, +1.73355593026E+001, +5.74639288238E+002
+3.35592654424E+007, +1.84744636211E+001, +5.77513521093E+002
+3.37245409015E+007, +1.76995235991E+001, +5.81321219133E+002
+3.38898163606E+007, +1.74571170024E+001, +5.84472608007E+002
+3.40550918197E+007, +1.65100612305E+001, +5.88771847262E+002
+3.42203672788E+007, +1.65040416816E+001, +5.91314330149E+002
+3.43856427379E+007, +1.71860728361E+001, +5.95278552020E+002
+3.45509181970E+007, +1.72821877954E+001, +5.99067082851E+002
+3.47161936561E+007, +1.71086500324E+001, +6.02967401610E+002
+3.48814691152E+007, +1.85761163194E+001, +6.04212933933E+002
+3.50467445743E+007, +1.94354177394E+001, +6.09314719947E+002
+3.52120200334E+007, +2.01691983057E+001, +6.13533386243E+002
+3.53772954925E+007, +1.78260136469E+001, +6.16849920600E+002
+3.55425709516E+007, +1.75400141612E+001, +6.22077009585E+002
+3.57078464107E+007, +2.01955132380E+001, +6.24557959857E+002
+3.58731218698E+007, +1.84864715389E+001, +6.28491697433E+002
+3.60383973289E+007, +1.84353256665E+001, +6.31014977694E+002
+3.62036727880E+007, +1.89190311065E+001, +6.35928185735E+002
+3.63689482471E+007, +2.19366016597E+001, +6.39580001863E+002
+3.65342237062E+007, +1.86130075082E+001, +6.43598646099E+002
+3.66994991653E+007, +1.84897213941E+001, +6.48480479919E+002
+3.68647746244E+007, +2.03041347006E+001, +6.50626144560E+002
+3.70300500835E+007, +1.88035836721E+001, +6.57129911388E+002
+3.71953255426E+007, +1.98754930678E+001, +6.62138907594E+002
+3.73606010017E+007, +2.04313037897E+001, +6.65552386065E+002
+3.75258764608E+007, +2.09711762220E+001, +6.70263522389E+002
+3.76911519199E+007, +1.98838364591E+001, +6.72480871296E+002
+3.78564273790E+007, +1.95984811568E+001, +6.77382902631E+002
+3.80217028381E+007, +1.99361497455E+001, +6.81568355489E+002
+3.81869782972E+007, +1.97315605377E+001, +6.85008247318E+002
+3.83522537563E+007, +1.98964389082E+001, +6.90100521782E+002
+3.85175292154E+007, +2.12139831723E+001, +6.93870178069E+002
+3.86828046745E+007, +2.05055961955E+001, +6.96829693248E+002
+3.88480801336E+007, +2.03661220905E+001, +7.04034907021E+002
+3.90133555927E+007, +2.16915360857E+001, +7.07968396285E+002
+3.91786310518E+007, +2.06661627010E+001, +7.14233041965E+002
+3.93439065109E+007, +1.98316301085E+001, +7.18035750618E+002
+3.95091819699E+007, +2.43533725101E+001, +7.21378297496E+002
+3.96744574290E+007, +2.53457301773E+001, +7.23398011696E+002
+3.98397328881E+007, +2.08875093508E+001, +7.32432355901E+002
+4.00050083472E+007, +1.89069958367E+001, +7.35372295702E+002
+4.01702838063E+007, +1.94252782195E+001, +7.38254057560E+002
+4.03355592654E+007, +2.27422454913E+001, +7.42875475451E+002
+4.05008347245E+007, +2.40971208124E+001, +7.49671924566E+002
+4.06661101836E+007, +2.17453586782E+001, +7.50228869866E+002
+4.08313856427E+007, +2.23587216430E+001, +7.57666570420E+002
+4.09966611018E+007, +2.18824173130E+001, +7.59346927441E+002
+4.11619365609E+007, +2.50689113562E+001, +7.64906095720E+002
+4.13272120200E+007, +2.48957847622E+001, +7.70964850205E+002
+4.14924874791E+007, +2.22314179062E+001, +7.74807747262E+002
+4.16577629382E+007, +2.24080810587E+001, +7.82872732855E+002
+4.18230383973E+007, +2.26136006197E+001, +7.84546120481E+002
+4.19883138564E+007, +2.21238864786E+001, +7.91198354201E+002
+4.21535893155E+007, +2.62502930970E+001, +7.95056045704E+002
+4.23188647746E+007, +2.64183650805E+001, +8.00701652685E+002
+4.24841402337E+007, +2.67553262452E+001, +8.07773222979E+002
+4.26494156928E+007, +2.43706110265E+001, +8.09845215734E+002
+4.28146911519E+007, +2.79366777458E+001, +8.15943215847E+002
+4.29799666110E+007, +2.42802483286E+001, +8.21184579698E+002
+4.31452420701E+007, +2.50787883426E+001, +8.28579430686E+002
+4.33105175292E+007, +2.95579986023E+001, +8.32293077946E+002
+4.34757929883E+007, +2.36675512080E+001, +8.39557944170E+002
+4.36410684474E+007, +2.48227027753E+001, +8.41958792026E+002
+4.38063439065E+007, +2.55041038576E+001, +8.49990564778E+002
+4.39716193656E+007, +2.77454814013E+001, +8.54045225112E+002
+4.41368948247E+007, +2.56548889304E+001, +8.64189499687E+002
+4.43021702838E+007, +2.60717003767E+001, +8.67998997973E+002
+4.44674457429E+007, +2.66427470835E+001, +8.72078103016E+002
+4.46327212020E+007, +2.90392542739E+001, +8.79028589614E+002
+4.47979966611E+007, +2.85564788011E+001, +8.83361377735E+002
+4.49632721202E+007, +3.19582093450E+001, +8.95927746518E+002
+4.51285475793E+007, +2.65828556347E+001, +8.99584933332E+002
+4.52938230384E+007, +3.26788220799E+001, +9.06325154035E+002
+4.54590984975E+007, +2.80717859950E+001, +9.10647002449E+002
+4.56243739566E+007, +3.18491060025E+001, +9.16370833606E+002
+4.57896494157E+007, +3.58555768917E+001, +9.21883561779E+002
+4.59549248748E+007, +3.12544448022E+001, +9.33773654497E+002
+4.61202003339E+007, +2.85127567886E+001, +9.38638528613E+002
+4.62854757930E+007, +3.43792299660E+001, +9.47827748116E+002
+4.64507512521E+007, +3.69925335808E+001, +9.50399554234E+002
+4.66160267112E+007, +3.71395895594E+001, +9.58757169223E+002
+4.67813021703E+007, +3.88732403193E+001, +9.65469022501E+002
+4.69465776294E+007, +3.78006794926E+001, +9.70337130398E+002
+4.71118530885E+007, +4.24844589970E+001, +9.79862761606E+002
+4.72771285476E+007, +4.36744862857E+001, +9.88492061636E+002
+4.74424040067E+007, +4.30693637348E+001, +9.95524593512E+002
+4.76076794658E+007, +4.07784415019E+001, +1.00092584683E+003
+4.77729549249E+007, +4.71216778263E+001, +1.00663801414E+003
+4.79382303840E+007, +4.70880080112E+001, +1.01316395387E+003
+4.81035058431E+007, +4.64150653137E+001, +1.02660740599E+003
+4.82687813022E+007, +5.07794959621E+001, +1.03068573144E+003
+4.84340567613E+007, +5.24239360932E+001, +1.04082370238E+003
+4.85993322204E+007, +5.55371778015E+001, +1.05100536572E+003
+4.87646076795E+007, +6.39313196643E+001, +1.05603656176E+003
+4.89298831386E+007, +6.10391223597E+001, +1.06316924809E+003
+4.90951585977E+007, +6.21428789323E+001, +1.06672833908E+003
+4.92604340568E+007, +6.73734089365E+001, +1.07748118032E+003
+4.94257095159E+007, +7.30326164260E+001, +1.08453928759E+003
+4.95909849750E+007, +7.11153735348E+001, +1.09295402090E+003
+4.97562604341E+007, +7.87412808829E+001, +1.09459229783E+003
+4.99215358932E+007, +7.31923905376E+001, +1.10734508750E+003
+5.00868113523E+007, +7.65644167484E+001, +1.11756154019E+003
+5.02520868114E+007, +8.53396782586E+001, +1.12535654910E+003
+5.04173622705E+007, +8.54925546272E+001, +1.13176628565E+003
+5.05826377295E+007, +8.32228974415E+001, +1.13358938466E+003
+5.07479131886E+007, +8.86009634577E+001, +1.14078703892E+003
+5.09131886477E+007, +8.35633555868E+001, +1.14532938017E+003
+5.10784641068E+007, +9.70902177508E+001, +1.15327195952E+003
+5.12437395659E+007, +9.13583435621E+001, +1.16050629838E+003
+5.14090150250E+007, +8.91559072901E+001, +1.16560671653E+003
+5.15742904841E+007, +9.39318252537E+001, +1.17229507898E+003
+5.17395659432E+007, +9.44726208775E+001, +1.17339385516E+003
+5.19048414023E+007, +9.35603517011E+001, +1.19556492362E+003
+5.20701168614E+007, +8.94477337765E+001, +1.20271834819E+003
+5.22353923205E+007, +8.50603143431E+001, +1.21018888828E+003
+5.24006677796E+007, +8.87975292863E+001, +1.20922800086E+003
+5.25659432387E+007, +9.35439861493E+001, +1.23079922478E+003
+5.27312186978E+007, +9.39841202898E+001, +1.23568174595E+003
+5.28964941569E+007, +8.69810444452E+001, +1.25401294741E+003
+5.30617696160E+007, +8.49489132397E+001, +1.26853807052E+003
+5.32270450751E+007, +9.04317090161E+001, +1.27513744995E+003
+5.33923205342E+007, +8.49908672790E+001, +1.28956257196E+003
+5.35575959933E+007, +8.73273462725E+001, +1.30494443208E+003
+5.37228714524E+007, +8.63607822823E+001, +1.32565799724E+003
+5.38881469115E+007, +9.92152754071E+001, +1.32844296511E+003
