"# Channel 1"
"# Trace 1"
Frequency, Formatted Data, Formatted Data
+1.00000000000E+005, +3.88250972949E+001, +1.55305618259E+000
+2.66777963272E+005, +3.88000614319E+001, +4.62489332515E+000
+4.33555926544E+005, +3.88208162725E+001, +7.46853399334E+000
+6.00333889816E+005, +3.87923525953E+001, +1.03105375664E+001
+7.67111853088E+005, +3.88434103626E+001, +1.32151398301E+001
+9.33889816361E+005, +3.88066442038E+001, +1.59931351987E+001
+1.10066777963E+006, +3.88755544233E+001, +1.90265313920E+001
+1.26744574290E+006, +3.88814116697E+001, +2.17998783597E+001
+1.43422370618E+006, +3.88612576925E+001, +2.47434440308E+001
+1.60100166945E+006, +3.88399473831E+001, +2.75520861976E+001
+1.76777963272E+006, +3.88616184504E+001, +3.04345824943E+001
+1.93455759599E+006, +3.88265429392E+001, +3.32648673641E+001
+2.10133555927E+006, +3.88581691858E+001, +3.61614656493E+001
+2.26811352254E+006, +3.89184607182E+001, +3.90404931431E+001
+2.43489148581E+006, +3.89151152975E+001, +4.19134825549E+001
+2.60166944908E+006, +3.88539972486E+001, +4.47493346887E+001
+2.76844741235E+006, +3.89697848387E+001, +4.77421967479E+001
+2.93522537563E+006, +3.89186006522E+001, +5.05704133154E+001
+3.10200333890E+006, +3.89655658629E+001, +5.34054126801E+001
+3.26878130217E+006, +3.88975122591E+001, +5.63808904681E+001
+3.43555926544E+006, +3.89733977509E+001, +5.91665153177E+001
+3.60233722871E+006, +3.90522114025E+001, +6.20685630665E+001
+3.76911519199E+006, +3.91239614796E+001, +6.49593640291E+001
+3.93589315526E+006, +3.89982422236E+001, +6.77578463272E+001
+4.10267111853E+006, +3.84797435239E+001, +7.08402596858E+001
+4.26944908180E+006, +3.92608733788E+001, +7.39827192846E+001
+4.43622704508E+006, +3.91560139148E+001, +7.66115690543E+001
+4.60300500835E+006, +3.91793716071E+001, +7.95419484716E+001
+4.76978297162E+006, +3.91482995873E+001, +8.23677170094E+001
+4.93656093489E+006, +3.92786688978E+001, +8.53277979885E+001
+5.10333889816E+006, +3.92608200754E+001, +8.82785493736E+001
+5.27011686144E+006, +3.95356592903E+001, +9.12134448436E+001
+5.43689482471E+006, +3.94006919097E+001, +9.40879162510E+001
+5.60367278798E+006, +3.96041843997E+001, +9.71013624252E+001
+5.77045075125E+006, +3.94224902045E+001, +9.98876856453E+001
+5.93722871452E+006, +3.97485382996E+001, +1.02841616795E+002
+6.10400667780E+006, +3.96182469150E+001, +1.05919716120E+002
+6.27078464107E+006, +3.97691851660E+001, +1.08641260900E+002
+6.43756260434E+006, +3.97937024668E+001, +1.11606481272E+002
+6.60434056761E+006, +3.98999322322E+001, +1.14381830866E+002
+6.77111853088E+006, +3.99568049928E+001, +1.17366553864E+002
+6.93789649416E+006, +4.00025586826E+001, +1.20301256318E+002
+7.10467445743E+006, +3.99956203716E+001, +1.23296988170E+002
+7.27145242070E+006, +4.00219674571E+001, +1.26130284166E+002
+7.43823038397E+006, +4.00281234212E+001, +1.28978152413E+002
+7.60500834725E+006, +4.00874064226E+001, +1.32058137968E+002
+7.77178631052E+006, +4.02643293055E+001, +1.35122256377E+002
+7.93856427379E+006, +4.01259849428E+001, +1.38054760989E+002
+8.10534223706E+006, +4.01858051524E+001, +1.40922124968E+002
+8.27212020033E+006, +4.02762583984E+001, +1.44026956548E+002
+8.43889816361E+006, +4.02234705387E+001, +1.46965502100E+002
+8.60567612688E+006, +4.00590422676E+001, +1.50181899641E+002
+8.77245409015E+006, +4.01774766458E+001, +1.53012460067E+002
+8.93923205342E+006, +4.03062391508E+001, +1.56144005229E+002
+9.10601001669E+006, +4.04360474985E+001, +1.59331439217E+002
+9.27278797997E+006, +4.03679666964E+001, +1.62254818713E+002
+9.43956594324E+006, +4.04843585172E+001, +1.65204814871E+002
+9.60634390651E+006, +4.04911181520E+001, +1.68425597157E+002
+9.77312186978E+006, +4.03894325135E+001, +1.71524226548E+002
+9.93989983306E+006, +4.07813746518E+001, +1.74459330378E+002
+1.01066777963E+007, +4.05407419141E+001, +1.77647415596E+002
+1.02734557596E+007, +4.05949139669E+001, +1.80841504105E+002
+1.04402337229E+007, +4.07378335539E+001, +1.83896400459E+002
+1.06070116861E+007, +4.06056830569E+001, +1.86919384361E+002
+1.07737896494E+007, +4.07747997092E+001, +1.90062793724E+002
+1.09405676127E+007, +4.11530197675E+001, +1.93128810850E+002
+1.11073455760E+007, +4.10457589256E+001, +1.96482254609E+002
+1.12741235392E+007, +4.11973912633E+001, +1.99461037491E+002
+1.14409015025E+007, +4.12574480208E+001, +2.02864046198E+002
+1.16076794658E+007, +4.13207013420E+001, +2.05954442798E+002
+1.17744574290E+007, +4.12952681182E+001, +2.09243078862E+002
+1.19412353923E+007, +4.14248994480E+001, +2.12436105033E+002
+1.21080133556E+007, +4.14533727349E+001, +2.15457253832E+002
+1.22747913189E+007, +4.14907480492E+001, +2.18762240613E+002
+1.24415692821E+007, +4.14246135258E+001, +2.21974366793E+002
+1.26083472454E+007, +4.15088026032E+001, +2.25388961762E+002
+1.27751252087E+007, +4.19202438403E+001, +2.28422942084E+002
+1.29419031720E+007, +4.18791069606E+001, +2.31562868929E+002
+1.31086811352E+007, +4.21819894535E+001, +2.35049388755E+002
+1.32754590985E+007, +4.21666495047E+001, +2.38141573025E+002
+1.34422370618E+007, +4.20669887151E+001, +2.41493098559E+002
+1.36090150250E+007, +4.26738656205E+001, +2.44689486943E+002
+1.37757929883E+007, +4.25192439903E+001, +2.47873061408E+002
+1.39425709516E+007, +4.23606891959E+001, +2.51337274118E+002
+1.41093489149E+007, +4.27411667592E+001, +2.54579560419E+002
+1.42761268781E+007, +4.28834697732E+001, +2.57902992088E+002
+1.44429048414E+007, +4.30859731530E+001, +2.60993635128E+002
+1.46096828047E+007, +4.29439029053E+001, +2.64857029080E+002
+1.47764607679E+007, +4.32514424292E+001, +2.67811334068E+002
+1.49432387312E+007, +4.34509476620E+001, +2.71616603230E+002
+1.51100166945E+007, +4.33928620288E+001, +2.74550448023E+002
+1.52767946578E+007, +4.38282494027E+001, +2.78097543093E+002
+1.54435726210E+007, +4.40033723210E+001, +2.81438498124E+002
+1.56103505843E+007, +4.41726842190E+001, +2.84680687491E+002
+1.57771285476E+007, +4.39284043732E+001, +2.88016305826E+002
+1.59439065109E+007, +4.43600007680E+001, +2.91519177463E+002
+1.61106844741E+007, +4.42065211123E+001, +2.95207058809E+002
+1.62774624374E+007, +4.45790415307E+001, +2.98050022953E+002
+1.64442404007E+007, +4.48068935299E+001, +3.01884433307E+002
+1.66110183639E+007, +4.49543278262E+001, +3.05460686634E+002
+1.67777963272E+007, +4.48822951260E+001, +3.08940106814E+002
+1.69445742905E+007, +4.54734741418E+001, +3.12568832040E+002
+1.71113522538E+007, +4.41532509654E+001, +3.15962683193E+002
+1.72781302170E+007, +4.51800946792E+001, +3.19755347901E+002
+1.74449081803E+007, +4.48299099052E+001, +3.22837935482E+002
+1.76116861436E+007, +4.61606444377E+001, +3.27039934805E+002
+1.77784641068E+007, +4.49534208852E+001, +3.30598666584E+002
+1.79452420701E+007, +4.58055743239E+001, +3.34039470546E+002
+1.81120200334E+007, +4.61302454527E+001, +3.36537242854E+002
+1.82787979967E+007, +4.62622227802E+001, +3.41601634489E+002
+1.84455759599E+007, +4.67114512798E+001, +3.44976863561E+002
+1.86123539232E+007, +4.65628078133E+001, +3.48517423621E+002
+1.87791318865E+007, +4.72372975425E+001, +3.52170173602E+002
+1.89459098497E+007, +4.68904322110E+001, +3.55894333364E+002
+1.91126878130E+007, +4.79857522402E+001, +3.58936494813E+002
+1.92794657763E+007, +4.73399662161E+001, +3.63138233414E+002
+1.94462437396E+007, +4.79291572444E+001, +3.67400925472E+002
+1.96130217028E+007, +4.83548309536E+001, +3.70817030333E+002
+1.97797996661E+007, +4.83794374793E+001, +3.73831910690E+002
+1.99465776294E+007, +4.76422238397E+001, +3.78124951548E+002
+2.01133555927E+007, +4.85861193139E+001, +3.82629785513E+002
+2.02801335559E+007, +4.86008016918E+001, +3.86576790268E+002
+2.04469115192E+007, +4.92993743219E+001, +3.90552063644E+002
+2.06136894825E+007, +4.95115515523E+001, +3.94919395118E+002
+2.07804674457E+007, +5.00237258408E+001, +3.98865540818E+002
+2.09472454090E+007, +5.05036011506E+001, +4.02870767634E+002
+2.11140233723E+007, +5.02844907875E+001, +4.05417686858E+002
+2.12808013356E+007, +5.06540362838E+001, +4.09444297918E+002
+2.14475792988E+007, +5.07545349516E+001, +4.13702034315E+002
+2.16143572621E+007, +5.18653514171E+001, +4.17181135599E+002
+2.17811352254E+007, +5.11450519540E+001, +4.21849265630E+002
+2.19479131886E+007, +5.30385985581E+001, +4.25724333575E+002
+2.21146911519E+007, +5.35282469967E+001, +4.29138636424E+002
+2.22814691152E+007, +5.25959104293E+001, +4.34027270721E+002
+2.24482470785E+007, +5.38745151928E+001, +4.38851125470E+002
+2.26150250417E+007, +5.47640823474E+001, +4.43088001157E+002
+2.27818030050E+007, +5.37585941668E+001, +4.46800403225E+002
+2.29485809683E+007, +5.60776118605E+001, +4.50367498026E+002
+2.31153589316E+007, +5.34606849041E+001, +4.55463567434E+002
+2.32821368948E+007, +5.53612089260E+001, +4.59235610414E+002
+2.34489148581E+007, +5.57561106700E+001, +4.62619919161E+002
+2.36156928214E+007, +5.72720871030E+001, +4.66871874624E+002
+2.37824707846E+007, +5.72843835571E+001, +4.72448114871E+002
+2.39492487479E+007, +5.62080988161E+001, +4.76918112973E+002
+2.41160267112E+007, +5.77320311857E+001, +4.80620699473E+002
+2.42828046745E+007, +5.78841528134E+001, +4.84563853886E+002
+2.44495826377E+007, +5.92715905895E+001, +4.89420462580E+002
+2.46163606010E+007, +5.85157456892E+001, +4.92820771742E+002
+2.47831385643E+007, +5.96954290912E+001, +4.97652453613E+002
+2.49499165275E+007, +6.16843760137E+001, +5.02176811512E+002
+2.51166944908E+007, +6.17277578346E+001, +5.06387070092E+002
+2.52834724541E+007, +6.16591498802E+001, +5.10887461316E+002
+2.54502504174E+007, +6.14663514216E+001, +5.15230203724E+002
+2.56170283806E+007, +6.33603327213E+001, +5.19254786847E+002
+2.57838063439E+007, +6.37662655593E+001, +5.24862985313E+002
+2.59505843072E+007, +6.36497281755E+001, +5.30698810941E+002
+2.61173622705E+007, +6.53085694700E+001, +5.35040548705E+002
+2.62841402337E+007, +6.44440347858E+001, +5.39229005388E+002
+2.64509181970E+007, +6.45375477839E+001, +5.42929951603E+002
+2.66176961603E+007, +6.69278652986E+001, +5.49524013139E+002
+2.67844741235E+007, +6.62789580884E+001, +5.51740441517E+002
+2.69512520868E+007, +6.72793250385E+001, +5.56701732563E+002
+2.71180300501E+007, +6.76036324459E+001, +5.60163405115E+002
+2.72848080134E+007, +6.85830425775E+001, +5.65301653733E+002
+2.74515859766E+007, +6.92548236741E+001, +5.70720187672E+002
+2.76183639399E+007, +6.98685842976E+001, +5.74821608316E+002
+2.77851419032E+007, +6.93338057863E+001, +5.78749854181E+002
+2.79519198664E+007, +6.96922038272E+001, +5.84807997023E+002
+2.81186978297E+007, +6.90039748391E+001, +5.88475908503E+002
+2.82854757930E+007, +7.07316989110E+001, +5.93487306409E+002
+2.84522537563E+007, +6.81168567734E+001, +5.99372730095E+002
+2.86190317195E+007, +7.07141707022E+001, +6.03849072630E+002
+2.87858096828E+007, +7.34578050917E+001, +6.10136131625E+002
+2.89525876461E+007, +7.27987255977E+001, +6.15516706618E+002
+2.91193656093E+007, +7.14499113255E+001, +6.16210009797E+002
+2.92861435726E+007, +7.10201462421E+001, +6.24570188617E+002
+2.94529215359E+007, +7.33248475933E+001, +6.29368167382E+002
+2.96196994992E+007, +7.24305612300E+001, +6.34868485935E+002
+2.97864774624E+007, +7.55512675032E+001, +6.42220406938E+002
+2.99532554257E+007, +7.54505250573E+001, +6.45833897447E+002
+3.01200333890E+007, +7.48200372242E+001, +6.52099172705E+002
+3.02868113523E+007, +7.44574742098E+001, +6.58470454041E+002
+3.04535893155E+007, +7.57272511677E+001, +6.64519335606E+002
+3.06203672788E+007, +7.71206581490E+001, +6.70263684637E+002
+3.07871452421E+007, +7.70551962473E+001, +6.75239941140E+002
+3.09539232053E+007, +7.77584416099E+001, +6.80466759764E+002
+3.11207011686E+007, +7.56996764054E+001, +6.89479100609E+002
+3.12874791319E+007, +7.77893404577E+001, +6.92329291048E+002
+3.14542570952E+007, +7.92676361759E+001, +6.98176586787E+002
+3.16210350584E+007, +7.88357204011E+001, +7.04947317705E+002
+3.17878130217E+007, +7.76623698905E+001, +7.11998064195E+002
+3.19545909850E+007, +8.10073693289E+001, +7.16345635883E+002
+3.21213689482E+007, +7.85304630789E+001, +7.24740311540E+002
+3.22881469115E+007, +7.93045849153E+001, +7.29685475742E+002
+3.24549248748E+007, +8.20041801103E+001, +7.37610623745E+002
+3.26217028381E+007, +8.01491737440E+001, +7.42918194162E+002
+3.27884808013E+007, +8.16659751235E+001, +7.49619233682E+002
+3.29552587646E+007, +8.34306605751E+001, +7.55425022496E+002
+3.31220367279E+007, +8.62369626265E+001, +7.60596705317E+002
+3.32888146912E+007, +8.17364515458E+001, +7.70697816787E+002
+3.34555926544E+007, +8.44223131052E+001, +7.75695796980E+002
+3.36223706177E+007, +8.67070499458E+001, +7.82273667291E+002
+3.37891485810E+007, +8.64375269176E+001, +7.88309676838E+002
+3.39559265442E+007, +8.62610621622E+001, +8.00046093924E+002
+3.41227045075E+007, +8.92797290301E+001, +8.05159144109E+002
+3.42894824708E+007, +8.90007806924E+001, +8.11812879615E+002
+3.44562604341E+007, +8.90017210478E+001, +8.19607524624E+002
+3.46230383973E+007, +8.91963109936E+001, +8.28344303144E+002
+3.47898163606E+007, +9.05608424762E+001, +8.30635217857E+002
+3.49565943239E+007, +9.71127180598E+001, +8.41364621899E+002
+3.51233722871E+007, +9.45845524224E+001, +8.48070899718E+002
+3.52901502504E+007, +9.63917686860E+001, +8.53228638210E+002
+3.54569282137E+007, +9.50037896638E+001, +8.64274750630E+002
+3.56237061770E+007, +9.43867510288E+001, +8.71440037635E+002
+3.57904841402E+007, +9.67107490974E+001, +8.79405470487E+002
+3.59572621035E+007, +1.00455007308E+002, +8.92062302240E+002
+3.61240400668E+007, +9.87145385342E+001, +8.96779725453E+002
+3.62908180301E+007, +1.02550872196E+002, +9.09331633596E+002
+3.64575959933E+007, +1.01048666832E+002, +9.18051722998E+002
+3.66243739566E+007, +1.04993908386E+002, +9.20010903356E+002
+3.67911519199E+007, +1.07203368841E+002, +9.33842348506E+002
+3.69579298831E+007, +1.01709970839E+002, +9.40404928945E+002
+3.71247078464E+007, +1.02725185134E+002, +9.52479356768E+002
+3.72914858097E+007, +1.09784167934E+002, +9.61554751748E+002
+3.74582637730E+007, +1.12291151724E+002, +9.73738923935E+002
+3.76250417362E+007, +1.09872319315E+002, +9.77000115561E+002
+3.77918196995E+007, +1.09865905542E+002, +9.86733308893E+002
+3.79585976628E+007, +1.14050771068E+002, +9.99040364375E+002
+3.81253756260E+007, +1.18272197516E+002, +1.00942716070E+003
+3.82921535893E+007, +1.20767186592E+002, +1.01796073903E+003
+3.84589315526E+007, +1.22228336933E+002, +1.02894279656E+003
+3.86257095159E+007, +1.21820427785E+002, +1.04004990403E+003
+3.87924874791E+007, +1.23853136401E+002, +1.04906106861E+003
+3.89592654424E+007, +1.24703701460E+002, +1.05631556304E+003
+3.91260434057E+007, +1.27045606958E+002, +1.06719251577E+003
+3.92928213689E+007, +1.30571854495E+002, +1.07947186394E+003
+3.94595993322E+007, +1.30673811427E+002, +1.09571730845E+003
+3.96263772955E+007, +1.28115314730E+002, +1.10693896526E+003
+3.97931552588E+007, +1.31304519274E+002, +1.11001293467E+003
+3.99599332220E+007, +1.35084476440E+002, +1.12567224745E+003
+4.01267111853E+007, +1.39067090587E+002, +1.13929215882E+003
+4.02934891486E+007, +1.33338353602E+002, +1.14411220857E+003
+4.04602671119E+007, +1.38119336544E+002, +1.16139513235E+003
+4.06270450751E+007, +1.42319707061E+002, +1.17892745288E+003
+4.07938230384E+007, +1.44746948114E+002, +1.19006424491E+003
+4.09606010017E+007, +1.46189909738E+002, +1.20223727275E+003
+4.11273789649E+007, +1.56422049384E+002, +1.20740365150E+003
+4.12941569282E+007, +1.50667365381E+002, +1.22862281991E+003
+4.14609348915E+007, +1.59488999059E+002, +1.24427053747E+003
+4.16277128548E+007, +1.58770792914E+002, +1.25495906322E+003
+4.17944908180E+007, +1.59259117132E+002, +1.26629492702E+003
+4.19612687813E+007, +1.59972845040E+002, +1.28599793550E+003
+4.21280467446E+007, +1.61599064708E+002, +1.30101958658E+003
+4.22948247078E+007, +1.68935075496E+002, +1.31557091551E+003
+4.24616026711E+007, +1.78279350959E+002, +1.32564181428E+003
+4.26283806344E+007, +1.79275723430E+002, +1.34338309871E+003
+4.27951585977E+007, +1.77550892673E+002, +1.36399225024E+003
+4.29619365609E+007, +1.90321923932E+002, +1.37547259288E+003
+4.31287145242E+007, +1.89444848619E+002, +1.38986038163E+003
+4.32954924875E+007, +1.95625459692E+002, +1.40483858998E+003
+4.34622704508E+007, +1.88918291054E+002, +1.42922172847E+003
+4.36290484140E+007, +2.06616434621E+002, +1.44051285238E+003
+4.37958263773E+007, +2.01322276932E+002, +1.46495909057E+003
+4.39626043406E+007, +2.11594726980E+002, +1.48214862635E+003
+4.41293823038E+007, +2.19025804556E+002, +1.50499861538E+003
+4.42961602671E+007, +2.19968259178E+002, +1.51776079024E+003
+4.44629382304E+007, +2.21624432625E+002, +1.53769603773E+003
+4.46297161937E+007, +2.30851940039E+002, +1.55322016884E+003
+4.47964941569E+007, +2.26492816496E+002, +1.58314054850E+003
+4.49632721202E+007, +2.36960815756E+002, +1.61304176201E+003
+4.51300500835E+007, +2.47968020749E+002, +1.61545250806E+003
+4.52968280467E+007, +2.65838386461E+002, +1.63114614188E+003
+4.54636060100E+007, +2.70730931769E+002, +1.68203581160E+003
+4.56303839733E+007, +2.70058887841E+002, +1.70090840776E+003
+4.57971619366E+007, +2.74720948227E+002, +1.71118412983E+003
+4.59639398998E+007, +2.76336203940E+002, +1.76146405666E+003
+4.61307178631E+007, +2.98572305878E+002, +1.78249905834E+003
+4.62974958264E+007, +3.18778715130E+002, +1.80055952682E+003
+4.64642737896E+007, +2.98572966371E+002, +1.83151619312E+003
+4.66310517529E+007, +3.24861313561E+002, +1.86221787180E+003
+4.67978297162E+007, +3.41238822160E+002, +1.87184297269E+003
+4.69646076795E+007, +3.40674722331E+002, +1.93154001199E+003
+4.71313856427E+007, +3.51313369464E+002, +1.95024579240E+003
+4.72981636060E+007, +3.70516836415E+002, +1.99456697218E+003
+4.74649415693E+007, +3.72803089754E+002, +2.02514028606E+003
+4.76317195326E+007, +4.11204225420E+002, +2.04278020001E+003
+4.77984974958E+007, +4.16307315775E+002, +2.06993726673E+003
+4.79652754591E+007, +4.29613287087E+002, +2.12104140587E+003
+4.81320534224E+007, +4.55683653588E+002, +2.13353041988E+003
+4.82988313856E+007, +4.59823339942E+002, +2.17651705641E+003
+4.84656093489E+007, +4.89116570101E+002, +2.20748778367E+003
+4.86323873122E+007, +4.96001454669E+002, +2.23890137875E+003
+4.87991652755E+007, +5.27158375985E+002, +2.28929137715E+003
+4.89659432387E+007, +5.38606683428E+002, +2.30285531284E+003
+4.91327212020E+007, +5.95621799739E+002, +2.39339154499E+003
+4.92994991653E+007, +5.98335843942E+002, +2.40802389788E+003
+4.94662771285E+007, +6.48107113643E+002, +2.46024535296E+003
+4.96330550918E+007, +6.55715803468E+002, +2.49219417189E+003
+4.97998330551E+007, +7.11876632263E+002, +2.51359005956E+003
+4.99666110184E+007, +7.37310735404E+002, +2.57155825826E+003
+5.01333889816E+007, +7.53235980437E+002, +2.60616532694E+003
+5.03001669449E+007, +7.74860130186E+002, +2.67656464650E+003
+5.04669449082E+007, +8.45807635354E+002, +2.73646387173E+003
+5.06337228715E+007, +9.04710646845E+002, +2.77226226058E+003
+5.08005008347E+007, +8.71014690035E+002, +2.81631699580E+003
+5.09672787980E+007, +9.24830330969E+002, +2.87125623523E+003
+5.11340567613E+007, +9.79736102152E+002, +2.93028288826E+003
+5.13008347245E+007, +1.01193203375E+003, +3.05953561924E+003
+5.14676126878E+007, +1.06549710428E+003, +3.08306705251E+003
+5.16343906511E+007, +1.15678025895E+003, +3.14791587793E+003
+5.18011686144E+007, +1.18328114691E+003, +3.21390410747E+003
+5.19679465776E+007, +1.22967289194E+003, +3.29058744899E+003
+5.21347245409E+007, +1.35403427954E+003, +3.41786558055E+003
+5.23015025042E+007, +1.48963785686E+003, +3.52032443082E+003
+5.24682804674E+007, +1.54895200989E+003, +3.62964169271E+003
+5.26350584307E+007, +1.65096273307E+003, +3.66405246342E+003
+5.28018363940E+007, +1.72568475805E+003, +3.84980577996E+003
+5.29686143573E+007, +1.87860627204E+003, +3.96722492962E+003
+5.31353923205E+007, +1.97541058006E+003, +3.94784277915E+003
+5.33021702838E+007, +2.10421868566E+003, +4.16337449954E+003
+5.34689482471E+007, +2.37840060398E+003, +4.14043061321E+003
