"# Channel 1"
"# Trace 1"
Frequency, Formatted Data, Formatted Data
+1.00000000000E+005, +2.18597669559E+001, +1.62399836040E+000
+2.66777963272E+005, +2.18557221252E+001, +4.41424545512E+000
+4.33555926544E+005, +2.18096359255E+001, +7.21997047838E+000
+6.00333889816E+005, +2.18614723127E+001, +9.98018205150E+000
+7.67111853088E+005, +2.18769623027E+001, +1.27281015170E+001
+9.33889816361E+005, +2.18811648415E+001, +1.54545493566E+001
+1.10066777963E+006, +2.18569090480E+001, +1.82652140781E+001
+1.26744574290E+006, +2.18587683380E+001, +2.10123445305E+001
+1.43422370618E+006, +2.18822121490E+001, +2.38027384734E+001
+1.60100166945E+006, +2.18919156702E+001, +2.65356359894E+001
+1.76777963272E+006, +2.18719246619E+001, +2.92641880099E+001
+1.93455759599E+006, +2.18451212630E+001, +3.19857278739E+001
+2.10133555927E+006, +2.18691798761E+001, +3.47572137091E+001
+2.26811352254E+006, +2.18708763509E+001, +3.75287778669E+001
+2.43489148581E+006, +2.19024184297E+001, +4.03583704536E+001
+2.60166944908E+006, +2.18865275373E+001, +4.29769090522E+001
+2.76844741235E+006, +2.19193078782E+001, +4.58810495321E+001
+2.93522537563E+006, +2.18872146625E+001, +4.86264981540E+001
+3.10200333890E+006, +2.19524337256E+001, +5.12820895468E+001
+3.26878130217E+006, +2.18274921207E+001, +5.41741579514E+001
+3.43555926544E+006, +2.18960551384E+001, +5.68468901603E+001
+3.60233722871E+006, +2.20153326517E+001, +5.97127585884E+001
+3.76911519199E+006, +2.19756198927E+001, +6.25268927202E+001
+3.93589315526E+006, +2.18429344827E+001, +6.51963926435E+001
+4.10267111853E+006, +2.19937502745E+001, +6.81369830972E+001
+4.26944908180E+006, +2.19939046760E+001, +7.09475613347E+001
+4.43622704508E+006, +2.19889528799E+001, +7.36130607033E+001
+4.60300500835E+006, +2.20287932844E+001, +7.65331747886E+001
+4.76978297162E+006, +2.19474527083E+001, +7.92033882880E+001
+4.93656093489E+006, +2.21059403784E+001, +8.20647724254E+001
+5.10333889816E+006, +2.20446398160E+001, +8.46856541679E+001
+5.27011686144E+006, +2.21813098591E+001, +8.76308956116E+001
+5.43689482471E+006, +2.20380223253E+001, +9.05068446540E+001
+5.60367278798E+006, +2.21879084675E+001, +9.34762905747E+001
+5.77045075125E+006, +2.21026336560E+001, +9.59602579441E+001
+5.93722871452E+006, +2.23107802721E+001, +9.89424787603E+001
+6.10400667780E+006, +2.22327093066E+001, +1.01800058161E+002
+6.27078464107E+006, +2.23434973869E+001, +1.04537837599E+002
+6.43756260434E+006, +2.24112699588E+001, +1.07474755980E+002
+6.60434056761E+006, +2.24533983211E+001, +1.10240637411E+002
+6.77111853088E+006, +2.25974905514E+001, +1.12983045413E+002
+6.93789649416E+006, +2.25587518162E+001, +1.15892679933E+002
+7.10467445743E+006, +2.25620701621E+001, +1.18676332280E+002
+7.27145242070E+006, +2.26191083509E+001, +1.21592860452E+002
+7.43823038397E+006, +2.26489190965E+001, +1.24364152432E+002
+7.60500834725E+006, +2.26048268077E+001, +1.27169722010E+002
+7.77178631052E+006, +2.27228811737E+001, +1.30225370596E+002
+7.93856427379E+006, +2.27452760247E+001, +1.32838604481E+002
+8.10534223706E+006, +2.27578724217E+001, +1.35735623344E+002
+8.27212020033E+006, +2.27924860991E+001, +1.38714828329E+002
+8.43889816361E+006, +2.28494631619E+001, +1.41491867797E+002
+8.60567612688E+006, +2.26581534186E+001, +1.44482452984E+002
+8.77245409015E+006, +2.27552058125E+001, +1.47355134014E+002
+8.93923205342E+006, +2.27873484555E+001, +1.50360417481E+002
+9.10601001669E+006, +2.28421945998E+001, +1.53279276737E+002
+9.27278797997E+006, +2.28490597406E+001, +1.56186325706E+002
+9.43956594324E+006, +2.29208914304E+001, +1.59091132750E+002
+9.60634390651E+006, +2.28638061257E+001, +1.61923895062E+002
+9.77312186978E+006, +2.29040332162E+001, +1.64793006387E+002
+9.93989983306E+006, +2.31197679880E+001, +1.67848875712E+002
+1.01066777963E+007, +2.28592411935E+001, +1.70866587291E+002
+1.02734557596E+007, +2.30439452127E+001, +1.73877193672E+002
+1.04402337229E+007, +2.29262253252E+001, +1.76814702867E+002
+1.06070116861E+007, +2.29092093301E+001, +1.79957989502E+002
+1.07737896494E+007, +2.31603521285E+001, +1.82893285068E+002
+1.09405676127E+007, +2.31474653957E+001, +1.85695634588E+002
+1.11073455760E+007, +2.31106392558E+001, +1.88824682228E+002
+1.12741235392E+007, +2.31358727841E+001, +1.91721633141E+002
+1.14409015025E+007, +2.33456151789E+001, +1.94748031682E+002
+1.16076794658E+007, +2.34505291765E+001, +1.97826772446E+002
+1.17744574290E+007, +2.33290632234E+001, +2.00982375781E+002
+1.19412353923E+007, +2.33951710149E+001, +2.04023813056E+002
+1.21080133556E+007, +2.31909684426E+001, +2.07051388585E+002
+1.22747913189E+007, +2.34603317517E+001, +2.10196709869E+002
+1.24415692821E+007, +2.34573318571E+001, +2.13265660459E+002
+1.26083472454E+007, +2.34770392665E+001, +2.16382802091E+002
+1.27751252087E+007, +2.34922888473E+001, +2.19165609425E+002
+1.29419031720E+007, +2.34058578089E+001, +2.22305521110E+002
+1.31086811352E+007, +2.34752936565E+001, +2.25558318781E+002
+1.32754590985E+007, +2.35184051537E+001, +2.28661142535E+002
+1.34422370618E+007, +2.34822640050E+001, +2.31791649255E+002
+1.36090150250E+007, +2.41421557779E+001, +2.34977888522E+002
+1.37757929883E+007, +2.37598984530E+001, +2.38081239582E+002
+1.39425709516E+007, +2.38543576990E+001, +2.41146466277E+002
+1.41093489149E+007, +2.42890037251E+001, +2.44492643367E+002
+1.42761268781E+007, +2.42327800418E+001, +2.47742695310E+002
+1.44429048414E+007, +2.42414639474E+001, +2.50750010451E+002
+1.46096828047E+007, +2.41235457506E+001, +2.53828846760E+002
+1.47764607679E+007, +2.43618828720E+001, +2.56852804010E+002
+1.49432387312E+007, +2.41692217051E+001, +2.60166954572E+002
+1.51100166945E+007, +2.43761132065E+001, +2.63531921465E+002
+1.52767946578E+007, +2.47463079375E+001, +2.66666811857E+002
+1.54435726210E+007, +2.42561617117E+001, +2.70360034852E+002
+1.56103505843E+007, +2.48158578302E+001, +2.73392729817E+002
+1.57771285476E+007, +2.51763125105E+001, +2.76348306576E+002
+1.59439065109E+007, +2.47517139813E+001, +2.79548300838E+002
+1.61106844741E+007, +2.46210399143E+001, +2.83322914979E+002
+1.62774624374E+007, +2.52079187076E+001, +2.86361701779E+002
+1.64442404007E+007, +2.51270304867E+001, +2.90177956658E+002
+1.66110183639E+007, +2.50904088497E+001, +2.92999401565E+002
+1.67777963272E+007, +2.54555372402E+001, +2.97152195208E+002
+1.69445742905E+007, +2.59469684221E+001, +2.99927258974E+002
+1.71113522538E+007, +2.44007942498E+001, +3.02968239479E+002
+1.72781302170E+007, +2.52169734765E+001, +3.06981460402E+002
+1.74449081803E+007, +2.50146001340E+001, +3.10092706634E+002
+1.76116861436E+007, +2.58492740940E+001, +3.13937694692E+002
+1.77784641068E+007, +2.52549838816E+001, +3.16750528650E+002
+1.79452420701E+007, +2.57188852669E+001, +3.20420144981E+002
+1.81120200334E+007, +2.59500631377E+001, +3.23593702822E+002
+1.82787979967E+007, +2.61248798151E+001, +3.27127479633E+002
+1.84455759599E+007, +2.66043973335E+001, +3.31013468032E+002
+1.86123539232E+007, +2.62068007960E+001, +3.33971182692E+002
+1.87791318865E+007, +2.66195470905E+001, +3.38013905933E+002
+1.89459098497E+007, +2.66274477499E+001, +3.41746614974E+002
+1.91126878130E+007, +2.66826481919E+001, +3.45293887435E+002
+1.92794657763E+007, +2.68587152348E+001, +3.48965426918E+002
+1.94462437396E+007, +2.73587363171E+001, +3.52302459250E+002
+1.96130217028E+007, +2.73482829267E+001, +3.56121991540E+002
+1.97797996661E+007, +2.73958935719E+001, +3.59218556533E+002
+1.99465776294E+007, +2.70470765360E+001, +3.62584468359E+002
+2.01133555927E+007, +2.72287394654E+001, +3.66897799509E+002
+2.02801335559E+007, +2.73148815321E+001, +3.70755460233E+002
+2.04469115192E+007, +2.85409243876E+001, +3.74610885814E+002
+2.06136894825E+007, +2.77307476854E+001, +3.77938619604E+002
+2.07804674457E+007, +2.87007277113E+001, +3.82083798188E+002
+2.09472454090E+007, +2.81716228443E+001, +3.85897348179E+002
+2.11140233723E+007, +2.86437839016E+001, +3.89475848669E+002
+2.12808013356E+007, +2.89190206527E+001, +3.92714958263E+002
+2.14475792988E+007, +2.95308111873E+001, +3.97506806484E+002
+2.16143572621E+007, +2.97562525735E+001, +4.00056574423E+002
+2.17811352254E+007, +2.89923088344E+001, +4.04296768253E+002
+2.19479131886E+007, +3.01060061043E+001, +4.08626343153E+002
+2.21146911519E+007, +3.03842684630E+001, +4.11827096903E+002
+2.22814691152E+007, +2.97656942285E+001, +4.15946949599E+002
+2.24482470785E+007, +3.00653309514E+001, +4.20942498955E+002
+2.26150250417E+007, +3.20695797104E+001, +4.24062413942E+002
+2.27818030050E+007, +3.11612747809E+001, +4.28307467693E+002
+2.29485809683E+007, +3.24514625313E+001, +4.31939349746E+002
+2.31153589316E+007, +3.16358758459E+001, +4.36479426981E+002
+2.32821368948E+007, +3.25428766855E+001, +4.40362451443E+002
+2.34489148581E+007, +3.22941739168E+001, +4.43159104402E+002
+2.36156928214E+007, +3.37430291646E+001, +4.48293151588E+002
+2.37824707846E+007, +3.29133617776E+001, +4.52285347031E+002
+2.39492487479E+007, +3.31984969190E+001, +4.55842172444E+002
+2.41160267112E+007, +3.37783161137E+001, +4.60251392948E+002
+2.42828046745E+007, +3.35267314828E+001, +4.63927179945E+002
+2.44495826377E+007, +3.48374589077E+001, +4.68885602672E+002
+2.46163606010E+007, +3.41063531096E+001, +4.72438247354E+002
+2.47831385643E+007, +3.42475081497E+001, +4.76824144573E+002
+2.49499165275E+007, +3.64819946920E+001, +4.81244460120E+002
+2.51166944908E+007, +3.55928049292E+001, +4.85047954371E+002
+2.52834724541E+007, +3.60254832904E+001, +4.89858947709E+002
+2.54502504174E+007, +3.66796039365E+001, +4.94111991242E+002
+2.56170283806E+007, +3.68382556575E+001, +4.97741445853E+002
+2.57838063439E+007, +3.72417394046E+001, +5.03079275228E+002
+2.59505843072E+007, +3.69408751233E+001, +5.08114019879E+002
+2.61173622705E+007, +3.84519864016E+001, +5.12330124858E+002
+2.62841402337E+007, +3.79665329657E+001, +5.15954045123E+002
+2.64509181970E+007, +3.81482130570E+001, +5.20983655164E+002
+2.66176961603E+007, +3.80096493799E+001, +5.27117120295E+002
+2.67844741235E+007, +3.86353357131E+001, +5.30367809069E+002
+2.69512520868E+007, +3.98200181047E+001, +5.33880886332E+002
+2.71180300501E+007, +4.05018507617E+001, +5.37052828332E+002
+2.72848080134E+007, +3.91936924861E+001, +5.42771939171E+002
+2.74515859766E+007, +4.15982950256E+001, +5.47450625278E+002
+2.76183639399E+007, +3.96491577367E+001, +5.52565015553E+002
+2.77851419032E+007, +3.89696814730E+001, +5.56352858473E+002
+2.79519198664E+007, +4.20014291408E+001, +5.61982013336E+002
+2.81186978297E+007, +4.22145098522E+001, +5.66079252729E+002
+2.82854757930E+007, +4.25732032086E+001, +5.70324351278E+002
+2.84522537563E+007, +4.02960145228E+001, +5.76854345077E+002
+2.86190317195E+007, +4.13702186589E+001, +5.82000824544E+002
+2.87858096828E+007, +4.48472729228E+001, +5.86998556872E+002
+2.89525876461E+007, +4.42680650559E+001, +5.91464017811E+002
+2.91193656093E+007, +4.33458651803E+001, +5.96626633807E+002
+2.92861435726E+007, +4.33802681390E+001, +5.99977655792E+002
+2.94529215359E+007, +4.44442003166E+001, +6.04648735432E+002
+2.96196994992E+007, +4.62461773518E+001, +6.10302197449E+002
+2.97864774624E+007, +4.69268320614E+001, +6.15798797066E+002
+2.99532554257E+007, +4.71615615165E+001, +6.21027862217E+002
+3.01200333890E+007, +4.65831097970E+001, +6.27766834488E+002
+3.02868113523E+007, +4.56737543748E+001, +6.32489032150E+002
+3.04535893155E+007, +4.65521343160E+001, +6.38964846146E+002
+3.06203672788E+007, +4.80221794325E+001, +6.43298646778E+002
+3.07871452421E+007, +4.73613883693E+001, +6.48483377116E+002
+3.09539232053E+007, +4.77953898785E+001, +6.52508264173E+002
+3.11207011686E+007, +4.80657721128E+001, +6.58317632149E+002
+3.12874791319E+007, +5.05628428803E+001, +6.64022391370E+002
+3.14542570952E+007, +4.97398847207E+001, +6.68566988479E+002
+3.16210350584E+007, +4.79129483595E+001, +6.76043912467E+002
+3.17878130217E+007, +4.77647806358E+001, +6.82676130487E+002
+3.19545909850E+007, +4.96496037899E+001, +6.87264254672E+002
+3.21213689482E+007, +4.89108708590E+001, +6.94577409967E+002
+3.22881469115E+007, +4.94941046488E+001, +6.98909118336E+002
+3.24549248748E+007, +5.11907979977E+001, +7.07539502141E+002
+3.26217028381E+007, +4.96851574292E+001, +7.10358741159E+002
+3.27884808013E+007, +5.18337128159E+001, +7.16446680652E+002
+3.29552587646E+007, +5.26904231010E+001, +7.23458481655E+002
+3.31220367279E+007, +5.02551870878E+001, +7.28825630504E+002
+3.32888146912E+007, +5.22805395988E+001, +7.37698527396E+002
+3.34555926544E+007, +5.08857873892E+001, +7.44472592243E+002
+3.36223706177E+007, +5.74839753764E+001, +7.50125218939E+002
+3.37891485810E+007, +5.32349496265E+001, +7.54812339964E+002
+3.39559265442E+007, +5.42799682151E+001, +7.63619191459E+002
+3.41227045075E+007, +5.21566102582E+001, +7.65351821109E+002
+3.42894824708E+007, +5.61498049723E+001, +7.76341615818E+002
+3.44562604341E+007, +5.40515088552E+001, +7.82708779428E+002
+3.46230383973E+007, +5.41899178660E+001, +7.91194793063E+002
+3.47898163606E+007, +5.58453548188E+001, +7.95876242079E+002
+3.49565943239E+007, +6.06134006378E+001, +8.03342545280E+002
+3.51233722871E+007, +5.77053691403E+001, +8.10950778257E+002
+3.52901502504E+007, +5.91714631558E+001, +8.15427893040E+002
+3.54569282137E+007, +5.76363751247E+001, +8.23765879848E+002
+3.56237061770E+007, +5.80040170566E+001, +8.33931380273E+002
+3.57904841402E+007, +5.84505820080E+001, +8.41942012507E+002
+3.59572621035E+007, +6.37501034602E+001, +8.50671537788E+002
+3.61240400668E+007, +6.29325041486E+001, +8.57585553194E+002
+3.62908180301E+007, +6.18390415464E+001, +8.67853069575E+002
+3.64575959933E+007, +6.29466597191E+001, +8.72869728900E+002
+3.66243739566E+007, +6.54551947403E+001, +8.79612941804E+002
+3.67911519199E+007, +6.48519399695E+001, +8.92285899710E+002
+3.69579298831E+007, +6.40016995133E+001, +8.94631502179E+002
+3.71247078464E+007, +6.47143525857E+001, +9.09414391322E+002
+3.72914858097E+007, +6.44852789112E+001, +9.13363669427E+002
+3.74582637730E+007, +6.92262868128E+001, +9.27433909077E+002
+3.76250417362E+007, +7.10358448871E+001, +9.33687307029E+002
+3.77918196995E+007, +6.91785085452E+001, +9.40249615873E+002
+3.79585976628E+007, +6.95854708483E+001, +9.50059555572E+002
+3.81253756260E+007, +7.53867617558E+001, +9.60839325515E+002
+3.82921535893E+007, +7.66563540178E+001, +9.66052816141E+002
+3.84589315526E+007, +7.75512756196E+001, +9.76448462378E+002
+3.86257095159E+007, +7.51110358137E+001, +9.87513870890E+002
+3.87924874791E+007, +7.37255558131E+001, +9.95304257466E+002
+3.89592654424E+007, +7.71818093179E+001, +1.00371284619E+003
+3.91260434057E+007, +8.20926022122E+001, +1.02134579402E+003
+3.92928213689E+007, +8.20087979067E+001, +1.02683618730E+003
+3.94595993322E+007, +8.03413391642E+001, +1.03777887214E+003
+3.96263772955E+007, +8.07504895889E+001, +1.04711798464E+003
+3.97931552588E+007, +8.04854263339E+001, +1.05493196672E+003
+3.99599332220E+007, +8.45118861816E+001, +1.06748637967E+003
+4.01267111853E+007, +8.69790843929E+001, +1.07605423122E+003
+4.02934891486E+007, +8.27207734314E+001, +1.08863025168E+003
+4.04602671119E+007, +9.00768531234E+001, +1.09641537535E+003
+4.06270450751E+007, +9.01003728114E+001, +1.10946432792E+003
+4.07938230384E+007, +9.38789605043E+001, +1.12269452827E+003
+4.09606010017E+007, +9.42696797609E+001, +1.13457167129E+003
+4.11273789649E+007, +9.80658479389E+001, +1.14561264448E+003
+4.12941569282E+007, +9.76659905574E+001, +1.16210292983E+003
+4.14609348915E+007, +9.38752551487E+001, +1.17971150956E+003
+4.16277128548E+007, +1.07059201055E+002, +1.19043949388E+003
+4.17944908180E+007, +1.02771572817E+002, +1.19596382894E+003
+4.19612687813E+007, +1.05045331242E+002, +1.21350803686E+003
+4.21280467446E+007, +1.02878651347E+002, +1.22841612829E+003
+4.22948247078E+007, +1.09308034230E+002, +1.24105973817E+003
+4.24616026711E+007, +1.16532789176E+002, +1.24562453545E+003
+4.26283806344E+007, +1.14093238269E+002, +1.26591140776E+003
+4.27951585977E+007, +1.03154145987E+002, +1.28288990748E+003
+4.29619365609E+007, +1.18060828064E+002, +1.30005757763E+003
+4.31287145242E+007, +1.24480432045E+002, +1.31146622877E+003
+4.32954924875E+007, +1.20888077695E+002, +1.32177364051E+003
+4.34622704508E+007, +1.20189970575E+002, +1.34745596279E+003
+4.36290484140E+007, +1.25999406807E+002, +1.35384728242E+003
+4.37958263773E+007, +1.28276318238E+002, +1.37856383110E+003
+4.39626043406E+007, +1.33148517714E+002, +1.38950408454E+003
+4.41293823038E+007, +1.38772913042E+002, +1.41355037013E+003
+4.42961602671E+007, +1.43262296248E+002, +1.43352078176E+003
+4.44629382304E+007, +1.35886320422E+002, +1.44270380771E+003
+4.46297161937E+007, +1.44659550264E+002, +1.45946014079E+003
+4.47964941569E+007, +1.47328772288E+002, +1.48491615832E+003
+4.49632721202E+007, +1.45542063131E+002, +1.50878774625E+003
+4.51300500835E+007, +1.52514582836E+002, +1.51486259371E+003
+4.52968280467E+007, +1.66192893650E+002, +1.54189493614E+003
+4.54636060100E+007, +1.68486336223E+002, +1.57196095662E+003
+4.56303839733E+007, +1.69823590039E+002, +1.59942345910E+003
+4.57971619366E+007, +1.76773745351E+002, +1.61837618478E+003
+4.59639398998E+007, +1.79911187836E+002, +1.65203115008E+003
+4.61307178631E+007, +1.87088691503E+002, +1.66785580376E+003
+4.62974958264E+007, +1.97748687014E+002, +1.69190465991E+003
+4.64642737896E+007, +1.87164201507E+002, +1.70348270536E+003
+4.66310517529E+007, +2.01249835933E+002, +1.74109813832E+003
+4.67978297162E+007, +2.28526613266E+002, +1.75059488207E+003
+4.69646076795E+007, +2.23988046871E+002, +1.80449332656E+003
+4.71313856427E+007, +2.33889852888E+002, +1.81883979151E+003
+4.72981636060E+007, +2.40702153548E+002, +1.85937223399E+003
+4.74649415693E+007, +2.45302815720E+002, +1.87605251335E+003
+4.76317195326E+007, +2.63067250672E+002, +1.90567818604E+003
+4.77984974958E+007, +2.86901962831E+002, +1.94297749500E+003
+4.79652754591E+007, +2.87329485301E+002, +1.97638450962E+003
+4.81320534224E+007, +3.12004960964E+002, +1.98542440997E+003
+4.82988313856E+007, +3.10931498477E+002, +2.03687501789E+003
+4.84656093489E+007, +3.27607866405E+002, +2.05343063558E+003
+4.86323873122E+007, +3.55374684623E+002, +2.09415487460E+003
+4.87991652755E+007, +3.69113225543E+002, +2.12908054659E+003
+4.89659432387E+007, +3.81695985169E+002, +2.15008863819E+003
+4.91327212020E+007, +4.04649445321E+002, +2.22365716097E+003
+4.92994991653E+007, +4.51800021457E+002, +2.23116888662E+003
+4.94662771285E+007, +4.41980256966E+002, +2.27443934531E+003
+4.96330550918E+007, +4.70567194851E+002, +2.29110599529E+003
+4.97998330551E+007, +5.07436120915E+002, +2.35699568170E+003
+4.99666110184E+007, +5.31553513668E+002, +2.36806216294E+003
+5.01333889816E+007, +5.44830675824E+002, +2.39805295322E+003
+5.03001669449E+007, +5.39907794053E+002, +2.44025292703E+003
+5.04669449082E+007, +5.90406823607E+002, +2.51449445338E+003
+5.06337228715E+007, +6.21460225114E+002, +2.51524970769E+003
+5.08005008347E+007, +6.33193755106E+002, +2.54503484626E+003
+5.09672787980E+007, +6.77084997623E+002, +2.59390076433E+003
+5.11340567613E+007, +6.77655088332E+002, +2.62623199433E+003
+5.13008347245E+007, +6.89736961990E+002, +2.69471306384E+003
+5.14676126878E+007, +7.03504287771E+002, +2.74129423715E+003
+5.16343906511E+007, +8.20026886928E+002, +2.80138539846E+003
+5.18011686144E+007, +7.76591931688E+002, +2.84731399617E+003
+5.19679465776E+007, +8.09477486241E+002, +2.90838821402E+003
+5.21347245409E+007, +8.79644610830E+002, +2.99834944762E+003
+5.23015025042E+007, +8.96541086903E+002, +3.11890932117E+003
+5.24682804674E+007, +9.15932730012E+002, +3.15829203192E+003
+5.26350584307E+007, +9.31366596873E+002, +3.20972166997E+003
+5.28018363940E+007, +9.74936409871E+002, +3.35853553207E+003
+5.29686143573E+007, +1.07469457264E+003, +3.41719670155E+003
+5.31353923205E+007, +1.13766503517E+003, +3.43307593316E+003
+5.33021702838E+007, +1.17178906913E+003, +3.61923411280E+003
+5.34689482471E+007, +1.24841785709E+003, +3.73500215052E+003
