"# Channel 1"
"# Trace 1"
Frequency, Formatted Data, Formatted Data
+1.00000000000E+005, +1.76759635829E-001, +1.54058610558E+000
+2.66777963272E+005, +1.92514933380E-001, +4.01520283957E+000
+4.33555926544E+005, +2.31918957420E-001, +6.52291193582E+000
+6.00333889816E+005, +2.60548752279E-001, +8.96504605965E+000
+7.67111853088E+005, +3.05315641229E-001, +1.14605313615E+001
+9.33889816361E+005, +3.17319291676E-001, +1.38992095563E+001
+1.10066777963E+006, +2.88740452769E-001, +1.63687803916E+001
+1.26744574290E+006, +3.28492487459E-001, +1.88084875241E+001
+1.43422370618E+006, +2.64657428835E-001, +2.13181249249E+001
+1.60100166945E+006, +3.65224157904E-001, +2.37189101163E+001
+1.76777963272E+006, +3.44139054862E-001, +2.61747699345E+001
+1.93455759599E+006, +3.79160014316E-001, +2.85579921859E+001
+2.10133555927E+006, +4.13809153361E-001, +3.10370109433E+001
+2.26811352254E+006, +3.95245960194E-001, +3.35105198415E+001
+2.43489148581E+006, +4.00210304125E-001, +3.59984743254E+001
+2.60166944908E+006, +4.07340895723E-001, +3.83834286401E+001
+2.76844741235E+006, +3.74551527357E-001, +4.09129613053E+001
+2.93522537563E+006, +3.79730903179E-001, +4.33463613493E+001
+3.10200333890E+006, +4.84152134223E-001, +4.57699584723E+001
+3.26878130217E+006, +3.65311254401E-001, +4.82785214956E+001
+3.43555926544E+006, +4.25503643100E-001, +5.07100401410E+001
+3.60233722871E+006, +4.59693697652E-001, +5.32252310926E+001
+3.76911519199E+006, +4.27907723639E-001, +5.57673376337E+001
+3.93589315526E+006, +4.04491323114E-001, +5.81125019267E+001
+4.10267111853E+006, +2.33920981629E-001, +6.04090197328E+001
+4.26944908180E+006, +3.52137619923E-001, +6.33813243165E+001
+4.43622704508E+006, +4.03461408394E-001, +6.56160647776E+001
+4.60300500835E+006, +4.63618717321E-001, +6.81791709866E+001
+4.76978297162E+006, +4.66153328663E-001, +7.05923164433E+001
+4.93656093489E+006, +5.38153468097E-001, +7.31252501473E+001
+5.10333889816E+006, +4.93562812083E-001, +7.54700220744E+001
+5.27011686144E+006, +5.99863182207E-001, +7.82274365372E+001
+5.43689482471E+006, +5.00251273723E-001, +8.06021751759E+001
+5.60367278798E+006, +5.55937471037E-001, +8.32350597026E+001
+5.77045075125E+006, +4.84101150157E-001, +8.55832146420E+001
+5.93722871452E+006, +6.41677250176E-001, +8.81361319985E+001
+6.10400667780E+006, +6.43453495455E-001, +9.06921051661E+001
+6.27078464107E+006, +6.94911492405E-001, +9.31363687456E+001
+6.43756260434E+006, +6.67482387777E-001, +9.56730697956E+001
+6.60434056761E+006, +7.16102212005E-001, +9.81967865777E+001
+6.77111853088E+006, +8.42973776889E-001, +1.00651501301E+002
+6.93789649416E+006, +7.68766738433E-001, +1.03162800061E+002
+7.10467445743E+006, +6.88425820883E-001, +1.05673467057E+002
+7.27145242070E+006, +7.66447871750E-001, +1.08176664035E+002
+7.43823038397E+006, +8.16331695669E-001, +1.10661297298E+002
+7.60500834725E+006, +7.52823425374E-001, +1.13209739320E+002
+7.77178631052E+006, +8.18943226761E-001, +1.15842854019E+002
+7.93856427379E+006, +7.27155342303E-001, +1.18134153405E+002
+8.10534223706E+006, +7.82592179489E-001, +1.20776676868E+002
+8.27212020033E+006, +8.02143607609E-001, +1.23252693165E+002
+8.43889816361E+006, +6.59956902122E-001, +1.25952639170E+002
+8.60567612688E+006, +5.82852298670E-001, +1.28328084046E+002
+8.77245409015E+006, +5.93932605776E-001, +1.30868348168E+002
+8.93923205342E+006, +6.45888718992E-001, +1.33593885702E+002
+9.10601001669E+006, +6.25312744797E-001, +1.36222708286E+002
+9.27278797997E+006, +6.41591304490E-001, +1.38776360874E+002
+9.43956594324E+006, +6.32826836220E-001, +1.41327414038E+002
+9.60634390651E+006, +4.25587109362E-001, +1.43961496196E+002
+9.77312186978E+006, +5.07560361444E-001, +1.46531172044E+002
+9.93989983306E+006, +6.15074386631E-001, +1.49270971805E+002
+1.01066777963E+007, +4.20064628007E-001, +1.51785252409E+002
+1.02734557596E+007, +3.70920659028E-001, +1.54526552062E+002
+1.04402337229E+007, +4.83913035638E-001, +1.57068424257E+002
+1.06070116861E+007, +3.51004222373E-001, +1.59657373179E+002
+1.07737896494E+007, +4.03624539037E-001, +1.62424978059E+002
+1.09405676127E+007, +5.38307688407E-001, +1.64966729471E+002
+1.11073455760E+007, +3.72364426077E-001, +1.67773142534E+002
+1.12741235392E+007, +3.91356870580E-001, +1.70421997873E+002
+1.14409015025E+007, +4.24743772211E-001, +1.73062736301E+002
+1.16076794658E+007, +6.50465188209E-001, +1.75749229077E+002
+1.17744574290E+007, +5.20669897562E-001, +1.78662367789E+002
+1.19412353923E+007, +3.69037311961E-001, +1.81272925209E+002
+1.21080133556E+007, +1.91368866442E-001, +1.84141578868E+002
+1.22747913189E+007, +5.01977314906E-001, +1.86765406170E+002
+1.24415692821E+007, +3.45800866242E-001, +1.89352016767E+002
+1.26083472454E+007, +1.41845166041E-001, +1.92012191431E+002
+1.27751252087E+007, +3.88857562772E-001, +1.94683046916E+002
+1.29419031720E+007, +2.67687264250E-001, +1.97433026657E+002
+1.31086811352E+007, +4.73523332872E-001, +2.00380194786E+002
+1.32754590985E+007, +4.13239270747E-001, +2.02946747833E+002
+1.34422370618E+007, +2.91804794827E-001, +2.05897073896E+002
+1.36090150250E+007, +6.94557392200E-001, +2.08631245371E+002
+1.37757929883E+007, +4.19243896814E-001, +2.11487914854E+002
+1.39425709516E+007, +5.40136015152E-001, +2.14018064299E+002
+1.41093489149E+007, +4.45968761426E-001, +2.16706841280E+002
+1.42761268781E+007, +6.11773782230E-001, +2.19816829778E+002
+1.44429048414E+007, +6.12337970371E-001, +2.22309524253E+002
+1.46096828047E+007, +7.12503310020E-001, +2.25413134276E+002
+1.47764607679E+007, +5.03943570460E-001, +2.27968505261E+002
+1.49432387312E+007, +3.30554835325E-001, +2.30735516435E+002
+1.51100166945E+007, +4.75835979806E-001, +2.33797797864E+002
+1.52767946578E+007, +4.97379048769E-001, +2.36792151923E+002
+1.54435726210E+007, +5.64162094001E-001, +2.39429152648E+002
+1.56103505843E+007, +8.10692933375E-001, +2.42507735003E+002
+1.57771285476E+007, +4.75427790657E-001, +2.45170538263E+002
+1.59439065109E+007, +6.85277681549E-001, +2.48284806834E+002
+1.61106844741E+007, +2.95524831809E-001, +2.51241756234E+002
+1.62774624374E+007, +6.58402717510E-001, +2.54109873636E+002
+1.64442404007E+007, +3.14145360069E-001, +2.57000377681E+002
+1.66110183639E+007, +7.71416865123E-001, +2.59652506505E+002
+1.67777963272E+007, +4.03272776154E-001, +2.62798446776E+002
+1.69445742905E+007, +7.99420541237E-001, +2.65750727004E+002
+1.71113522538E+007, +9.04882678758E-003, +2.68414940393E+002
+1.72781302170E+007, +4.46826767846E-001, +2.72355226196E+002
+1.74449081803E+007, +8.18529565464E-002, +2.74274767520E+002
+1.76116861436E+007, +7.42140355291E-001, +2.77786633369E+002
+1.77784641068E+007, +6.15515301543E-001, +2.80672682383E+002
+1.79452420701E+007, +7.42423620982E-001, +2.83677707421E+002
+1.81120200334E+007, +9.88249382201E-001, +2.86360841284E+002
+1.82787979967E+007, +9.25696259062E-001, +2.89765928862E+002
+1.84455759599E+007, +1.21031855068E+000, +2.93010021030E+002
+1.86123539232E+007, +1.13750048342E+000, +2.95865877782E+002
+1.87791318865E+007, +1.20336596596E+000, +2.99114001658E+002
+1.89459098497E+007, +8.72464059649E-001, +3.02660829854E+002
+1.91126878130E+007, +1.02328992418E+000, +3.04761290557E+002
+1.92794657763E+007, +1.16276634732E+000, +3.08365686232E+002
+1.94462437396E+007, +1.58440075992E+000, +3.12068281051E+002
+1.96130217028E+007, +1.02743375829E+000, +3.15297079291E+002
+1.97797996661E+007, +1.42493583015E+000, +3.17412440407E+002
+1.99465776294E+007, +5.68360455690E-001, +3.20439069211E+002
+2.01133555927E+007, +9.80885777069E-001, +3.24303471473E+002
+2.02801335559E+007, +1.35399013100E+000, +3.27691781519E+002
+2.04469115192E+007, +1.68725794586E+000, +3.31005173460E+002
+2.06136894825E+007, +1.60513770473E+000, +3.34260294322E+002
+2.07804674457E+007, +1.88076963389E+000, +3.37617191521E+002
+2.09472454090E+007, +1.34965620626E+000, +3.40953059835E+002
+2.11140233723E+007, +2.26247301372E+000, +3.43571159412E+002
+2.12808013356E+007, +1.44587729610E+000, +3.47243577920E+002
+2.14475792988E+007, +1.82583581173E+000, +3.50657686337E+002
+2.16143572621E+007, +2.43705111673E+000, +3.53589132477E+002
+2.17811352254E+007, +2.01776999258E+000, +3.56978266876E+002
+2.19479131886E+007, +2.47527478858E+000, +3.60185223638E+002
+2.21146911519E+007, +2.65071431512E+000, +3.62852381206E+002
+2.22814691152E+007, +1.66506609874E+000, +3.67415354811E+002
+2.24482470785E+007, +2.12774726539E+000, +3.70605036925E+002
+2.26150250417E+007, +3.05284132507E+000, +3.74166034657E+002
+2.27818030050E+007, +2.33870368266E+000, +3.77416969292E+002
+2.29485809683E+007, +3.69462999587E+000, +3.81010878863E+002
+2.31153589316E+007, +2.55318496125E+000, +3.85274847877E+002
+2.32821368948E+007, +3.52872319447E+000, +3.88132644637E+002
+2.34489148581E+007, +3.43807101109E+000, +3.91487858329E+002
+2.36156928214E+007, +3.76754904228E+000, +3.95041711761E+002
+2.37824707846E+007, +3.42990076387E+000, +3.98383677101E+002
+2.39492487479E+007, +2.79597036358E+000, +4.01310403756E+002
+2.41160267112E+007, +3.66565526122E+000, +4.05311434783E+002
+2.42828046745E+007, +3.53186765158E+000, +4.09466055071E+002
+2.44495826377E+007, +4.43790652794E+000, +4.12993839768E+002
+2.46163606010E+007, +3.80532158627E+000, +4.16211052587E+002
+2.47831385643E+007, +4.48581582582E+000, +4.20172817044E+002
+2.49499165275E+007, +4.86269204608E+000, +4.23967470006E+002
+2.51166944908E+007, +5.70840855109E+000, +4.26659560149E+002
+2.52834724541E+007, +4.81103261851E+000, +4.31171758972E+002
+2.54502504174E+007, +6.32130472361E+000, +4.35406987169E+002
+2.56170283806E+007, +5.76341077238E+000, +4.37108501631E+002
+2.57838063439E+007, +6.20135591280E+000, +4.43142878239E+002
+2.59505843072E+007, +5.86998329886E+000, +4.46851537124E+002
+2.61173622705E+007, +6.42991580171E+000, +4.50245248089E+002
+2.62841402337E+007, +5.57605366056E+000, +4.53684777464E+002
+2.64509181970E+007, +6.00661848883E+000, +4.57677829061E+002
+2.66176961603E+007, +6.18495324632E+000, +4.61939067395E+002
+2.67844741235E+007, +5.82961647018E+000, +4.65103985022E+002
+2.69512520868E+007, +6.89295089534E+000, +4.69328485188E+002
+2.71180300501E+007, +7.46419897000E+000, +4.71299158162E+002
+2.72848080134E+007, +6.35775392719E+000, +4.78145724025E+002
+2.74515859766E+007, +8.24522614107E+000, +4.80369085789E+002
+2.76183639399E+007, +6.70771025161E+000, +4.83946259319E+002
+2.77851419032E+007, +6.68321266731E+000, +4.87583780715E+002
+2.79519198664E+007, +7.12470495091E+000, +4.92924070288E+002
+2.81186978297E+007, +8.10945829213E+000, +4.95310147863E+002
+2.82854757930E+007, +6.90017019912E+000, +5.00042077192E+002
+2.84522537563E+007, +6.66059537254E+000, +5.04178128495E+002
+2.86190317195E+007, +6.50478912711E+000, +5.08093856777E+002
+2.87858096828E+007, +9.28281650594E+000, +5.13095280764E+002
+2.89525876461E+007, +8.07763942820E+000, +5.15852910183E+002
+2.91193656093E+007, +6.79767888407E+000, +5.19365599506E+002
+2.92861435726E+007, +5.81566773474E+000, +5.23998769176E+002
+2.94529215359E+007, +7.69232419716E+000, +5.29551022133E+002
+2.96196994992E+007, +8.02148300629E+000, +5.33409399091E+002
+2.97864774624E+007, +8.84735903150E+000, +5.37470397565E+002
+2.99532554257E+007, +9.88082518577E+000, +5.43788224092E+002
+3.01200333890E+007, +7.59609265203E+000, +5.48090145760E+002
+3.02868113523E+007, +7.39527869643E+000, +5.52546082854E+002
+3.04535893155E+007, +8.20198143132E+000, +5.55987779340E+002
+3.06203672788E+007, +8.64922241125E+000, +5.59964320992E+002
+3.07871452421E+007, +8.16646801781E+000, +5.64662361992E+002
+3.09539232053E+007, +7.35258332572E+000, +5.70258077359E+002
+3.11207011686E+007, +7.01817276281E+000, +5.76258556420E+002
+3.12874791319E+007, +6.97533509057E+000, +5.78724775378E+002
+3.14542570952E+007, +7.92608664727E+000, +5.85012220388E+002
+3.16210350584E+007, +8.82230766702E+000, +5.89948172496E+002
+3.17878130217E+007, +6.93378658470E+000, +5.93827882005E+002
+3.19545909850E+007, +7.55778756848E+000, +6.00143824061E+002
+3.21213689482E+007, +4.77400776239E+000, +6.03741158595E+002
+3.22881469115E+007, +7.13561161852E+000, +6.08448288096E+002
+3.24549248748E+007, +6.87330670123E+000, +6.15985960288E+002
+3.26217028381E+007, +6.51024698395E+000, +6.20610713946E+002
+3.27884808013E+007, +6.43249354625E+000, +6.25120834165E+002
+3.29552587646E+007, +7.66325779721E+000, +6.30612292616E+002
+3.31220367279E+007, +7.77881791559E+000, +6.33919793788E+002
+3.32888146912E+007, +6.86382285650E+000, +6.42780272183E+002
+3.34555926544E+007, +5.35067891763E+000, +6.46534310860E+002
+3.36223706177E+007, +8.87815920043E+000, +6.51131682370E+002
+3.37891485810E+007, +6.62881176076E+000, +6.55656207484E+002
+3.39559265442E+007, +7.13335398985E+000, +6.63494584177E+002
+3.41227045075E+007, +8.96762512477E+000, +6.67127809177E+002
+3.42894824708E+007, +7.85736991396E+000, +6.73828788070E+002
+3.44562604341E+007, +7.83216517573E+000, +6.79583202738E+002
+3.46230383973E+007, +8.06503975356E+000, +6.85520575265E+002
+3.47898163606E+007, +9.29276770969E+000, +6.90745278368E+002
+3.49565943239E+007, +9.34015484461E+000, +6.98020723775E+002
+3.51233722871E+007, +9.55250793817E+000, +7.04037755936E+002
+3.52901502504E+007, +1.05044301020E+001, +7.06506065983E+002
+3.54569282137E+007, +8.62053248622E+000, +7.14174848890E+002
+3.56237061770E+007, +7.46121801546E+000, +7.20905408782E+002
+3.57904841402E+007, +6.92217075113E+000, +7.27618423243E+002
+3.59572621035E+007, +1.08463774833E+001, +7.32922895463E+002
+3.61240400668E+007, +7.49383074440E+000, +7.41294468343E+002
+3.62908180301E+007, +8.86898396087E+000, +7.48834028388E+002
+3.64575959933E+007, +9.04532271669E+000, +7.54151663743E+002
+3.66243739566E+007, +1.01165707139E+001, +7.58857033068E+002
+3.67911519199E+007, +1.31678572249E+001, +7.69503550816E+002
+3.69579298831E+007, +9.54344009326E+000, +7.73080122737E+002
+3.71247078464E+007, +9.14117053919E+000, +7.80281488652E+002
+3.72914858097E+007, +7.96403423629E+000, +7.86995587643E+002
+3.74582637730E+007, +1.14370151782E+001, +7.96207260455E+002
+3.76250417362E+007, +1.29396329559E+001, +8.01252756184E+002
+3.77918196995E+007, +9.94550990735E+000, +8.08655247564E+002
+3.79585976628E+007, +7.55544936630E+000, +8.17601340709E+002
+3.81253756260E+007, +1.13205257343E+001, +8.24726063970E+002
+3.82921535893E+007, +1.14790132819E+001, +8.32610465692E+002
+3.84589315526E+007, +1.50800715482E+001, +8.40284461090E+002
+3.86257095159E+007, +1.07867428964E+001, +8.48048649774E+002
+3.87924874791E+007, +1.05284801769E+001, +8.56106745714E+002
+3.89592654424E+007, +1.34581611652E+001, +8.63648630223E+002
+3.91260434057E+007, +9.52299502498E+000, +8.76848043880E+002
+3.92928213689E+007, +1.36307877487E+001, +8.78053013675E+002
+3.94595993322E+007, +1.13139705095E+001, +8.89517211972E+002
+3.96263772955E+007, +1.16619876173E+001, +8.94674897485E+002
+3.97931552588E+007, +1.15956146172E+001, +9.02411459765E+002
+3.99599332220E+007, +1.53365002285E+001, +9.14375195559E+002
+4.01267111853E+007, +8.70845541617E+000, +9.29572568748E+002
+4.02934891486E+007, +1.27093835341E+001, +9.31912834890E+002
+4.04602671119E+007, +1.54475275766E+001, +9.40345962739E+002
+4.06270450751E+007, +1.52293624798E+001, +9.51191941693E+002
+4.07938230384E+007, +1.27930671016E+001, +9.62152364000E+002
+4.09606010017E+007, +1.52966148528E+001, +9.70928004686E+002
+4.11273789649E+007, +9.22673318492E+000, +9.79411029198E+002
+4.12941569282E+007, +9.28285428675E+000, +9.89216163096E+002
+4.14609348915E+007, +1.66742295559E+001, +1.00470590465E+003
+4.16277128548E+007, +1.86397420074E+001, +1.01147238263E+003
+4.17944908180E+007, +1.61780190464E+001, +1.01845725820E+003
+4.19612687813E+007, +1.97738870044E+001, +1.02844485587E+003
+4.21280467446E+007, +1.68314538834E+001, +1.03907855196E+003
+4.22948247078E+007, +1.99973391004E+001, +1.05240375755E+003
+4.24616026711E+007, +2.29903549247E+001, +1.06084717127E+003
+4.26283806344E+007, +2.31277353812E+001, +1.07318714824E+003
+4.27951585977E+007, +1.43995280969E+001, +1.08681209852E+003
+4.29619365609E+007, +2.39933445411E+001, +1.09820178260E+003
+4.31287145242E+007, +2.07334672619E+001, +1.10793052179E+003
+4.32954924875E+007, +2.58905092658E+001, +1.11599584542E+003
+4.34622704508E+007, +1.47211172418E+001, +1.13510607331E+003
+4.36290484140E+007, +2.58117672937E+001, +1.14553738179E+003
+4.37958263773E+007, +2.44092201657E+001, +1.17062440589E+003
+4.39626043406E+007, +2.53188482381E+001, +1.17458688226E+003
+4.41293823038E+007, +2.42321636114E+001, +1.19182780654E+003
+4.42961602671E+007, +2.59750113295E+001, +1.19924539659E+003
+4.44629382304E+007, +2.41761074693E+001, +1.21685278714E+003
+4.46297161937E+007, +2.64045453816E+001, +1.22724579874E+003
+4.47964941569E+007, +2.61618812620E+001, +1.24990584550E+003
+4.49632721202E+007, +2.73550520521E+001, +1.26219147053E+003
+4.51300500835E+007, +3.08923755933E+001, +1.27076859978E+003
+4.52968280467E+007, +3.12301865493E+001, +1.28947608082E+003
+4.54636060100E+007, +3.10081243148E+001, +1.31198978763E+003
+4.56303839733E+007, +3.18327660480E+001, +1.33245918719E+003
+4.57971619366E+007, +4.02261535785E+001, +1.34158593713E+003
+4.59639398998E+007, +3.37216209538E+001, +1.37512929656E+003
+4.61307178631E+007, +3.72780713768E+001, +1.38233762542E+003
+4.62974958264E+007, +4.60522451413E+001, +1.40228307575E+003
+4.64642737896E+007, +2.96624528283E+001, +1.42312444581E+003
+4.66310517529E+007, +3.20058497232E+001, +1.43700872976E+003
+4.67978297162E+007, +4.99194225275E+001, +1.44228864893E+003
+4.69646076795E+007, +4.38508913007E+001, +1.46956726508E+003
+4.71313856427E+007, +4.72667759826E+001, +1.50218688814E+003
+4.72981636060E+007, +5.38216491125E+001, +1.53099072013E+003
+4.74649415693E+007, +5.37615490844E+001, +1.54234482339E+003
+4.76317195326E+007, +7.22556289569E+001, +1.55777142085E+003
+4.77984974958E+007, +6.71520604161E+001, +1.58942085972E+003
+4.79652754591E+007, +6.75152049444E+001, +1.60716117050E+003
+4.81320534224E+007, +7.61235636602E+001, +1.63222818201E+003
+4.82988313856E+007, +6.97629510045E+001, +1.66080951519E+003
+4.84656093489E+007, +7.07251028768E+001, +1.68781447211E+003
+4.86323873122E+007, +8.97538452465E+001, +1.70982852631E+003
+4.87991652755E+007, +9.16180252166E+001, +1.73671285533E+003
+4.89659432387E+007, +9.76997914994E+001, +1.75852900253E+003
+4.91327212020E+007, +1.03961205512E+002, +1.79377594189E+003
+4.92994991653E+007, +1.25568169051E+002, +1.81811366770E+003
+4.94662771285E+007, +1.21057382086E+002, +1.85035318122E+003
+4.96330550918E+007, +1.25181566222E+002, +1.88285494201E+003
+4.97998330551E+007, +1.34851032832E+002, +1.90814500618E+003
+4.99666110184E+007, +1.48275915913E+002, +1.94370119908E+003
+5.01333889816E+007, +1.44639138263E+002, +1.96855333302E+003
+5.03001669449E+007, +1.55132571608E+002, +2.00224284998E+003
+5.04669449082E+007, +1.68385589154E+002, +2.04080988390E+003
+5.06337228715E+007, +1.77649630305E+002, +2.08340048702E+003
+5.08005008347E+007, +1.71432532809E+002, +2.09087920171E+003
+5.09672787980E+007, +1.89902101382E+002, +2.15109332065E+003
+5.11340567613E+007, +2.07684249878E+002, +2.19443711322E+003
+5.13008347245E+007, +2.00226202685E+002, +2.23822725801E+003
+5.14676126878E+007, +2.10327373023E+002, +2.26656796926E+003
+5.16343906511E+007, +2.18616121861E+002, +2.35206887726E+003
+5.18011686144E+007, +2.31062180210E+002, +2.36656180493E+003
+5.19679465776E+007, +2.35301130307E+002, +2.43118691201E+003
+5.21347245409E+007, +2.78385805964E+002, +2.49403248056E+003
+5.23015025042E+007, +3.04621125136E+002, +2.59576457229E+003
+5.24682804674E+007, +2.73115282333E+002, +2.62306917791E+003
+5.26350584307E+007, +3.29781360147E+002, +2.67039240761E+003
+5.28018363940E+007, +3.04219651232E+002, +2.76050024515E+003
+5.29686143573E+007, +3.53614525667E+002, +2.85141954339E+003
+5.31353923205E+007, +3.52486046826E+002, +2.85312766040E+003
+5.33021702838E+007, +3.60945289048E+002, +2.95428726448E+003
+5.34689482471E+007, +4.34895000625E+002, +3.05234101907E+003
