"# Channel 1"
"# Trace 1"
Frequency, Formatted Data, Formatted Data
+1.00000000000E+005, +5.40771012710E+000, +1.89758964961E+000
+2.25031289111E+005, +5.52148145750E+000, +4.05882138216E+000
+3.50062578223E+005, +5.63190755712E+000, +6.25456940734E+000
+4.75093867334E+005, +5.66466709332E+000, +8.35066088627E+000
+6.00125156446E+005, +5.77187731829E+000, +1.04696322592E+001
+7.25156445557E+005, +5.82926945996E+000, +1.25682960657E+001
+8.50187734668E+005, +5.93420333908E+000, +1.46378247427E+001
+9.75219023780E+005, +5.95506748722E+000, +1.67359426625E+001
+1.10025031289E+006, +6.03509249742E+000, +1.87887510029E+001
+1.22528160200E+006, +6.13805674009E+000, +2.08958490300E+001
+1.35031289111E+006, +6.17771519113E+000, +2.29701779436E+001
+1.47534418023E+006, +6.19001214548E+000, +2.50635632565E+001
+1.60037546934E+006, +6.22791204594E+000, +2.71785357691E+001
+1.72540675845E+006, +6.31733373471E+000, +2.91749638918E+001
+1.85043804756E+006, +6.33115406724E+000, +3.12068264361E+001
+1.97546933667E+006, +6.35287628305E+000, +3.32833324162E+001
+2.10050062578E+006, +6.39755184357E+000, +3.53819403469E+001
+2.22553191489E+006, +6.39728334525E+000, +3.74514127493E+001
+2.35056320401E+006, +6.44332671127E+000, +3.95176152868E+001
+2.47559449312E+006, +6.50116284898E+000, +4.16572839977E+001
+2.60062578223E+006, +6.53065315495E+000, +4.36362842083E+001
+2.72565707134E+006, +6.53789368337E+000, +4.57400005782E+001
+2.85068836045E+006, +6.56871954396E+000, +4.78254277109E+001
+2.97571964956E+006, +6.55673661775E+000, +4.98183804352E+001
+3.10075093867E+006, +6.60985491345E+000, +5.19232568262E+001
+3.22578222778E+006, +6.77204975393E+000, +5.39578783037E+001
+3.35081351690E+006, +6.67215815501E+000, +5.61034540544E+001
+3.47584480601E+006, +6.76098517290E+000, +5.82065682385E+001
+3.60087609512E+006, +6.78490737184E+000, +6.03045603243E+001
+3.72590738423E+006, +6.91082918947E+000, +6.22519497273E+001
+3.85093867334E+006, +6.79256479320E+000, +6.44124849684E+001
+3.97596996245E+006, +6.98004010874E+000, +6.65205753633E+001
+4.10100125156E+006, +6.86653543753E+000, +6.84306042983E+001
+4.22603254068E+006, +6.95277073275E+000, +7.07918569317E+001
+4.35106382979E+006, +7.05108323562E+000, +7.27958959944E+001
+4.47609511890E+006, +7.00565666419E+000, +7.47432549090E+001
+4.60112640801E+006, +7.04247484167E+000, +7.69028467023E+001
+4.72615769712E+006, +7.12893023881E+000, +7.90691939032E+001
+4.85118898623E+006, +7.27489651493E+000, +8.11726172489E+001
+4.97622027534E+006, +7.22450750868E+000, +8.30789629905E+001
+5.10125156446E+006, +7.25964175409E+000, +8.52181691875E+001
+5.22628285357E+006, +7.31454469983E+000, +8.73432398393E+001
+5.35131414268E+006, +7.37917020289E+000, +8.95730244295E+001
+5.47634543179E+006, +7.39221193013E+000, +9.16143190636E+001
+5.60137672090E+006, +7.27691482710E+000, +9.38508045396E+001
+5.72640801001E+006, +7.49784256368E+000, +9.58875025748E+001
+5.85143929912E+006, +7.49024808558E+000, +9.78934925847E+001
+5.97647058824E+006, +7.54900938678E+000, +1.00023095916E+002
+6.10150187735E+006, +7.55437302056E+000, +1.02250540575E+002
+6.22653316646E+006, +7.65165539096E+000, +1.04194658715E+002
+6.35156445557E+006, +7.75784127923E+000, +1.06407888137E+002
+6.47659574468E+006, +7.82896290566E+000, +1.08283289710E+002
+6.60162703379E+006, +7.84284875698E+000, +1.10541965074E+002
+6.72665832290E+006, +7.96511103258E+000, +1.12689907881E+002
+6.85168961202E+006, +7.93454495606E+000, +1.14757156979E+002
+6.97672090113E+006, +7.94469841802E+000, +1.16786199080E+002
+7.10175219024E+006, +8.00412688082E+000, +1.18861311843E+002
+7.22678347935E+006, +8.20645485096E+000, +1.21057057464E+002
+7.35181476846E+006, +8.16995109377E+000, +1.23196785664E+002
+7.47684605757E+006, +8.21966304433E+000, +1.25314325215E+002
+7.60187734668E+006, +8.26791526104E+000, +1.27513819526E+002
+7.72690863579E+006, +8.25218837486E+000, +1.29541707456E+002
+7.85193992491E+006, +8.39621395532E+000, +1.31685508632E+002
+7.97697121402E+006, +8.28853957064E+000, +1.33856282167E+002
+8.10200250313E+006, +8.29045553978E+000, +1.35985380500E+002
+8.22703379224E+006, +8.44750204138E+000, +1.38133097307E+002
+8.35206508135E+006, +8.30808791022E+000, +1.40323956057E+002
+8.47709637046E+006, +8.50309505104E+000, +1.42504695198E+002
+8.60212765957E+006, +8.53974881832E+000, +1.44552220301E+002
+8.72715894869E+006, +8.52105094574E+000, +1.46778518762E+002
+8.85219023780E+006, +8.66309398720E+000, +1.48979121257E+002
+8.97722152691E+006, +8.48856085581E+000, +1.51142037697E+002
+9.10225281602E+006, +8.49577473218E+000, +1.53215076465E+002
+9.22728410513E+006, +8.68317735887E+000, +1.55319830814E+002
+9.35231539424E+006, +8.80649777343E+000, +1.57492322696E+002
+9.47734668335E+006, +8.63984628985E+000, +1.59568819149E+002
+9.60237797247E+006, +8.71328468544E+000, +1.61850087366E+002
+9.72740926158E+006, +8.76433466734E+000, +1.63911125546E+002
+9.85244055069E+006, +8.94590875789E+000, +1.66489082481E+002
+9.97747183980E+006, +8.90811658151E+000, +1.68432604705E+002
+1.01025031289E+007, +8.95889356112E+000, +1.70409413367E+002
+1.02275344180E+007, +8.95803775560E+000, +1.72639943749E+002
+1.03525657071E+007, +8.95463060721E+000, +1.74956405884E+002
+1.04775969962E+007, +8.77989770379E+000, +1.77166286129E+002
+1.06026282854E+007, +8.76724972093E+000, +1.79364736543E+002
+1.07276595745E+007, +9.02010745377E+000, +1.81563372858E+002
+1.08526908636E+007, +9.13605860885E+000, +1.83588654923E+002
+1.09777221527E+007, +8.96631373375E+000, +1.85798942009E+002
+1.11027534418E+007, +9.16816131713E+000, +1.88070284753E+002
+1.12277847309E+007, +9.00625384882E+000, +1.90299440102E+002
+1.13528160200E+007, +9.39602531732E+000, +1.92576110035E+002
+1.14778473091E+007, +9.02580182241E+000, +1.94941344052E+002
+1.16028785982E+007, +9.13939340182E+000, +1.97046204028E+002
+1.17279098874E+007, +9.50965371771E+000, +1.99556903322E+002
+1.18529411765E+007, +9.22356541870E+000, +2.01612973472E+002
+1.19779724656E+007, +9.27683559343E+000, +2.03612576508E+002
+1.21030037547E+007, +9.49856170600E+000, +2.06160750757E+002
+1.22280350438E+007, +9.24534128164E+000, +2.08337824043E+002
+1.23530663329E+007, +9.41820406598E+000, +2.10720445102E+002
+1.24780976220E+007, +9.39221031340E+000, +2.13070676618E+002
+1.26031289111E+007, +9.45538394821E+000, +2.15021586725E+002
+1.27281602003E+007, +9.42709059120E+000, +2.17297194948E+002
+1.28531914894E+007, +9.56720279435E+000, +2.19534647404E+002
+1.29782227785E+007, +9.60894273150E+000, +2.21939719468E+002
+1.31032540676E+007, +9.87980690456E+000, +2.24190311777E+002
+1.32282853567E+007, +9.45048049257E+000, +2.26563740818E+002
+1.33533166458E+007, +9.98531857169E+000, +2.28832581222E+002
+1.34783479349E+007, +9.95297545807E+000, +2.31026312134E+002
+1.36033792240E+007, +9.97107401329E+000, +2.33158859443E+002
+1.37284105131E+007, +9.99100235294E+000, +2.35818682029E+002
+1.38534418023E+007, +9.97212190799E+000, +2.37890136504E+002
+1.39784730914E+007, +9.57448956746E+000, +2.40208249251E+002
+1.41035043805E+007, +9.66822844722E+000, +2.42515138137E+002
+1.42285356696E+007, +1.02780471317E+001, +2.44972389118E+002
+1.43535669587E+007, +9.82255404105E+000, +2.47107753886E+002
+1.44785982478E+007, +9.65153565951E+000, +2.49794944552E+002
+1.46036295369E+007, +1.02284614586E+001, +2.51960975472E+002
+1.47286608260E+007, +9.73905178882E+000, +2.54246453417E+002
+1.48536921151E+007, +9.72515543500E+000, +2.56590265848E+002
+1.49787234043E+007, +1.02552238253E+001, +2.59693834688E+002
+1.51037546934E+007, +1.00802917515E+001, +2.61056737719E+002
+1.52287859825E+007, +1.00288604862E+001, +2.63639868492E+002
+1.53538172716E+007, +1.00127410007E+001, +2.66333354394E+002
+1.54788485607E+007, +1.03397885584E+001, +2.68837029692E+002
+1.56038798498E+007, +9.96012365712E+000, +2.71104788136E+002
+1.57289111389E+007, +1.04036045408E+001, +2.73586825751E+002
+1.58539424280E+007, +1.03980222380E+001, +2.75804364733E+002
+1.59789737171E+007, +1.03715309290E+001, +2.78450064409E+002
+1.61040050063E+007, +1.05285220906E+001, +2.80479132288E+002
+1.62290362954E+007, +1.05422997885E+001, +2.82680006387E+002
+1.63540675845E+007, +1.07152703391E+001, +2.85757288490E+002
+1.64790988736E+007, +1.06132179829E+001, +2.88113674703E+002
+1.66041301627E+007, +1.03999457581E+001, +2.90483619170E+002
+1.67291614518E+007, +1.06394410384E+001, +2.92269777851E+002
+1.68541927409E+007, +1.09327314876E+001, +2.95390730791E+002
+1.69792240300E+007, +1.10873923679E+001, +2.97982676395E+002
+1.71042553191E+007, +1.02159570642E+001, +3.00323471057E+002
+1.72292866083E+007, +1.05410354722E+001, +3.02761031362E+002
+1.73543178974E+007, +1.05713181469E+001, +3.05583734815E+002
+1.74793491865E+007, +1.04286035203E+001, +3.08505356954E+002
+1.76043804756E+007, +1.08348257353E+001, +3.10240476007E+002
+1.77294117647E+007, +1.05874832836E+001, +3.13142959702E+002
+1.78544430538E+007, +1.10700371763E+001, +3.15959778197E+002
+1.79794743429E+007, +1.10213136881E+001, +3.18454458213E+002
+1.81045056320E+007, +1.12423958240E+001, +3.20346649335E+002
+1.82295369212E+007, +1.08051852179E+001, +3.22659827105E+002
+1.83545682103E+007, +1.13724986830E+001, +3.25753117817E+002
+1.84795994994E+007, +1.12938876252E+001, +3.28017596340E+002
+1.86046307885E+007, +1.15468156511E+001, +3.30846193694E+002
+1.87296620776E+007, +1.15902867034E+001, +3.33145374380E+002
+1.88546933667E+007, +1.17027289834E+001, +3.36145722357E+002
+1.89797246558E+007, +1.18006031679E+001, +3.38769095605E+002
+1.91047559449E+007, +1.13770039309E+001, +3.40951852004E+002
+1.92297872340E+007, +1.17911027160E+001, +3.43895855194E+002
+1.93548185232E+007, +1.19861476227E+001, +3.46477069954E+002
+1.94798498123E+007, +1.18011910758E+001, +3.48544381305E+002
+1.96048811014E+007, +1.20583289449E+001, +3.52049847944E+002
+1.97299123905E+007, +1.25997871150E+001, +3.53804813598E+002
+1.98549436796E+007, +1.28415179675E+001, +3.57845555301E+002
+1.99799749687E+007, +1.22197926113E+001, +3.60036487703E+002
+2.01050062578E+007, +1.20820977005E+001, +3.62320380962E+002
+2.02300375469E+007, +1.24720496979E+001, +3.65325543367E+002
+2.03550688360E+007, +1.24668147575E+001, +3.68910477934E+002
+2.04801001252E+007, +1.34455831961E+001, +3.70693685303E+002
+2.06051314143E+007, +1.26759870737E+001, +3.73657488143E+002
+2.07301627034E+007, +1.26556712540E+001, +3.75987804259E+002
+2.08551939925E+007, +1.28479825885E+001, +3.79266366928E+002
+2.09802252816E+007, +1.30624546011E+001, +3.81369276155E+002
+2.11052565707E+007, +1.36683195318E+001, +3.84118337052E+002
+2.12302878598E+007, +1.27960572459E+001, +3.87084969803E+002
+2.13553191489E+007, +1.36233999070E+001, +3.89661315348E+002
+2.14803504380E+007, +1.34823282461E+001, +3.91817200236E+002
+2.16053817272E+007, +1.33437505521E+001, +3.95228863495E+002
+2.17304130163E+007, +1.35630028791E+001, +3.98604024528E+002
+2.18554443054E+007, +1.43902764831E+001, +4.01330296455E+002
+2.19804755945E+007, +1.37294105897E+001, +4.03086746034E+002
+2.21055068836E+007, +1.36319092773E+001, +4.06678104689E+002
+2.22305381727E+007, +1.46553139850E+001, +4.10519252397E+002
+2.23555694618E+007, +1.46074274753E+001, +4.12534946237E+002
+2.24806007509E+007, +1.48369187736E+001, +4.14783690805E+002
+2.26056320401E+007, +1.34073740539E+001, +4.19635331085E+002
+2.27306633292E+007, +1.50158419124E+001, +4.20755430195E+002
+2.28556946183E+007, +1.60056957833E+001, +4.24486580910E+002
+2.29807259074E+007, +1.54228177591E+001, +4.27147564330E+002
+2.31057571965E+007, +1.51095331606E+001, +4.29301989476E+002
+2.32307884856E+007, +1.68467275741E+001, +4.32551143742E+002
+2.33558197747E+007, +1.60965205660E+001, +4.33908533895E+002
+2.34808510638E+007, +1.71966864965E+001, +4.36976999550E+002
+2.36058823529E+007, +1.60673265133E+001, +4.40025765672E+002
+2.37309136421E+007, +1.58897740176E+001, +4.42369973364E+002
+2.38559449312E+007, +1.53859866367E+001, +4.46720011043E+002
+2.39809762203E+007, +1.61112900290E+001, +4.48517615537E+002
+2.41060075094E+007, +1.58612771690E+001, +4.52897937393E+002
+2.42310387985E+007, +1.66027788186E+001, +4.54668156567E+002
+2.43560700876E+007, +1.52456554925E+001, +4.58680060696E+002
+2.44811013767E+007, +1.72666208296E+001, +4.61138854718E+002
+2.46061326658E+007, +1.57781463574E+001, +4.63656539526E+002
+2.47311639549E+007, +1.60205295503E+001, +4.67540984698E+002
+2.48561952441E+007, +1.72086166380E+001, +4.70495182817E+002
+2.49812265332E+007, +1.64928915612E+001, +4.74274896054E+002
+2.51062578223E+007, +1.70688407689E+001, +4.76994870808E+002
+2.52312891114E+007, +1.62522828202E+001, +4.78762981992E+002
+2.53563204005E+007, +1.65160849410E+001, +4.82520086179E+002
+2.54813516896E+007, +1.68715998952E+001, +4.85337220639E+002
+2.56063829787E+007, +1.60946777469E+001, +4.86991178406E+002
+2.57314142678E+007, +1.62467799072E+001, +4.92309024219E+002
+2.58564455569E+007, +1.60300103571E+001, +4.94458015554E+002
+2.59814768461E+007, +1.84940373312E+001, +4.97869520535E+002
+2.61065081352E+007, +1.64769398158E+001, +5.01978118846E+002
+2.62315394243E+007, +1.73349132930E+001, +5.05500491069E+002
+2.63565707134E+007, +1.63070241572E+001, +5.07945183420E+002
+2.64816020025E+007, +1.67501246492E+001, +5.12669785035E+002
+2.66066332916E+007, +1.66808529578E+001, +5.15293198676E+002
+2.67316645807E+007, +1.77004314640E+001, +5.18150046948E+002
+2.68566958698E+007, +1.68307360926E+001, +5.22127252968E+002
+2.69817271589E+007, +1.65332573089E+001, +5.24910428884E+002
+2.71067584481E+007, +1.87045372055E+001, +5.28216964556E+002
+2.72317897372E+007, +1.76981371634E+001, +5.31112243856E+002
+2.73568210263E+007, +1.78550739701E+001, +5.35090965416E+002
+2.74818523154E+007, +1.69253876605E+001, +5.39011160262E+002
+2.76068836045E+007, +1.72617326435E+001, +5.41310839811E+002
+2.77319148936E+007, +1.69584692169E+001, +5.44944096348E+002
+2.78569461827E+007, +1.87771285704E+001, +5.49743703887E+002
+2.79819774718E+007, +1.65937689703E+001, +5.52553011577E+002
+2.81070087610E+007, +1.87320535172E+001, +5.57034019570E+002
+2.82320400501E+007, +1.85955736188E+001, +5.60700403534E+002
+2.83570713392E+007, +2.08563770524E+001, +5.62901322144E+002
+2.84821026283E+007, +1.81165452648E+001, +5.66394547475E+002
+2.86071339174E+007, +1.65647750218E+001, +5.69494945033E+002
+2.87321652065E+007, +1.93935802901E+001, +5.74614152336E+002
+2.88571964956E+007, +1.78737160899E+001, +5.75971089003E+002
+2.89822277847E+007, +1.91651520043E+001, +5.81874073396E+002
+2.91072590738E+007, +1.98138433525E+001, +5.85277408018E+002
+2.92322903630E+007, +2.02639882727E+001, +5.87748779503E+002
+2.93573216521E+007, +1.86640594241E+001, +5.91676969021E+002
+2.94823529412E+007, +2.04566051905E+001, +5.97877754031E+002
+2.96073842303E+007, +1.98823788795E+001, +6.00916879407E+002
+2.97324155194E+007, +1.85134228763E+001, +6.03843501308E+002
+2.98574468085E+007, +2.17956099840E+001, +6.07181931392E+002
+2.99824780976E+007, +2.03379451691E+001, +6.10710418318E+002
+3.01075093867E+007, +2.02889013963E+001, +6.13812795361E+002
+3.02325406758E+007, +2.00735958154E+001, +6.19842524991E+002
+3.03575719650E+007, +2.00548049588E+001, +6.21704427237E+002
+3.04826032541E+007, +2.11255532865E+001, +6.28280601953E+002
+3.06076345432E+007, +1.96575797834E+001, +6.30432753075E+002
+3.07326658323E+007, +1.92690587727E+001, +6.34831085931E+002
+3.08576971214E+007, +2.14867614049E+001, +6.41318611887E+002
+3.09827284105E+007, +2.23519119371E+001, +6.42595298922E+002
+3.11077596996E+007, +2.15261496772E+001, +6.47286548078E+002
+3.12327909887E+007, +2.13542900383E+001, +6.50661462480E+002
+3.13578222778E+007, +2.18760973241E+001, +6.56435261657E+002
+3.14828535670E+007, +2.14785361177E+001, +6.61048587634E+002
+3.16078848561E+007, +2.06316660470E+001, +6.61354060828E+002
+3.17329161452E+007, +2.25893000751E+001, +6.67318771872E+002
+3.18579474343E+007, +2.20872555914E+001, +6.71848376273E+002
+3.19829787234E+007, +2.26817801921E+001, +6.76702265023E+002
+3.21080100125E+007, +2.13719088069E+001, +6.78438831218E+002
+3.22330413016E+007, +2.14264822022E+001, +6.83110217398E+002
+3.23580725907E+007, +2.29658212171E+001, +6.90692444904E+002
+3.24831038798E+007, +2.20316325644E+001, +6.94380912084E+002
+3.26081351690E+007, +2.33236706080E+001, +6.98883646878E+002
+3.27331664581E+007, +2.13828393064E+001, +7.00408761653E+002
+3.28581977472E+007, +2.04531566057E+001, +7.04490375419E+002
+3.29832290363E+007, +2.31788339303E+001, +7.09191358938E+002
+3.31082603254E+007, +2.27297420719E+001, +7.16912440862E+002
+3.32332916145E+007, +1.97649151043E+001, +7.21896929635E+002
+3.33583229036E+007, +2.37021221132E+001, +7.26251104997E+002
+3.34833541927E+007, +2.48245872719E+001, +7.30839364204E+002
+3.36083854819E+007, +2.36299372821E+001, +7.31844227691E+002
+3.37334167710E+007, +2.30731813765E+001, +7.38922340757E+002
+3.38584480601E+007, +2.23344021986E+001, +7.45720179849E+002
+3.39834793492E+007, +2.30837092446E+001, +7.50058303486E+002
+3.41085106383E+007, +2.39825753708E+001, +7.53713811111E+002
+3.42335419274E+007, +2.33352769263E+001, +7.57832602137E+002
+3.43585732165E+007, +2.54916473928E+001, +7.63489429799E+002
+3.44836045056E+007, +2.40682131872E+001, +7.67342509078E+002
+3.46086357947E+007, +2.36696841897E+001, +7.72120613352E+002
+3.47336670839E+007, +2.31290704508E+001, +7.76007505803E+002
+3.48586983730E+007, +2.55724528035E+001, +7.85782605777E+002
+3.49837296621E+007, +2.00314765119E+001, +7.87162209856E+002
+3.51087609512E+007, +2.51492972472E+001, +7.91349269342E+002
+3.52337922403E+007, +2.38689763147E+001, +7.96763680298E+002
+3.53588235294E+007, +2.56317519345E+001, +8.02787052245E+002
+3.54838548185E+007, +2.62121726523E+001, +8.07138023842E+002
+3.56088861076E+007, +2.31162634852E+001, +8.14503036622E+002
+3.57339173967E+007, +3.01531577078E+001, +8.18035266936E+002
+3.58589486859E+007, +2.60794749170E+001, +8.22703431702E+002
+3.59839799750E+007, +2.82944546107E+001, +8.32455082189E+002
+3.61090112641E+007, +2.50336580953E+001, +8.38261170002E+002
+3.62340425532E+007, +2.95909316537E+001, +8.38730547610E+002
+3.63590738423E+007, +3.09867793321E+001, +8.44577009053E+002
+3.64841051314E+007, +2.57880367155E+001, +8.48748425622E+002
+3.66091364205E+007, +2.54947828339E+001, +8.57429630853E+002
+3.67341677096E+007, +3.35832824809E+001, +8.60116151346E+002
+3.68591989987E+007, +3.16328458639E+001, +8.68970512251E+002
+3.69842302879E+007, +3.06503533239E+001, +8.76062817292E+002
+3.71092615770E+007, +3.17611486066E+001, +8.78400138685E+002
+3.72342928661E+007, +3.01700536458E+001, +8.85784167204E+002
+3.73593241552E+007, +3.18227713900E+001, +8.90145220850E+002
+3.74843554443E+007, +2.99724802928E+001, +8.95827500073E+002
+3.76093867334E+007, +3.16633810951E+001, +9.00829427894E+002
+3.77344180225E+007, +3.62271930245E+001, +9.10618904588E+002
+3.78594493116E+007, +3.33547949093E+001, +9.15667305275E+002
+3.79844806008E+007, +3.30860413495E+001, +9.18254962409E+002
+3.81095118899E+007, +3.13701253194E+001, +9.28394549408E+002
+3.82345431790E+007, +3.38788582629E+001, +9.37115274101E+002
+3.83595744681E+007, +3.55225551436E+001, +9.42891246405E+002
+3.84846057572E+007, +3.41129397861E+001, +9.47251247842E+002
+3.86096370463E+007, +3.55307871737E+001, +9.55903703097E+002
+3.87346683354E+007, +3.58091448968E+001, +9.58191810750E+002
+3.88596996245E+007, +3.29846179074E+001, +9.67031402154E+002
+3.89847309136E+007, +4.05781976516E+001, +9.68858934421E+002
+3.91097622028E+007, +4.00558793164E+001, +9.82890363828E+002
+3.92347934919E+007, +3.02287043979E+001, +9.81416553290E+002
+3.93598247810E+007, +3.56668893457E+001, +9.95215478417E+002
+3.94848560701E+007, +3.77437770070E+001, +9.97470676699E+002
+3.96098873592E+007, +4.26462380900E+001, +1.00230803115E+003
+3.97349186483E+007, +3.80533674722E+001, +1.00740235713E+003
+3.98599499374E+007, +3.54005541689E+001, +1.02064189971E+003
+3.99849812265E+007, +4.23978754088E+001, +1.02555019166E+003
+4.01100125156E+007, +3.73898711913E+001, +1.03166437094E+003
