"# Channel 1"
"# Trace 1"
Frequency, Formatted Data, Formatted Data
+1.00000000000E+005, +2.99172787902E+002, -5.68905590143E+000
+2.25031289111E+005, +2.97605217923E+002, +3.71581718615E+000
+3.50062578223E+005, +2.96108276291E+002, +6.13161107821E+000
+4.75093867334E+005, +2.96622613585E+002, +8.03605241566E+000
+6.00125156446E+005, +2.97963254100E+002, +1.01329758692E+001
+7.25156445557E+005, +2.96436702534E+002, +1.30038342465E+001
+8.50187734668E+005, +2.96918099386E+002, +1.54092488864E+001
+9.75219023780E+005, +2.98447504765E+002, +1.67393174231E+001
+1.10025031289E+006, +2.97466903011E+002, +1.79716789175E+001
+1.22528160200E+006, +2.97966248607E+002, +2.02086582057E+001
+1.35031289111E+006, +2.97706329166E+002, +2.36861421078E+001
+1.47534418023E+006, +2.97427992315E+002, +2.50367883133E+001
+1.60037546934E+006, +2.98195624574E+002, +2.59016077939E+001
+1.72540675845E+006, +2.99022748078E+002, +2.85032051642E+001
+1.85043804756E+006, +2.97958361385E+002, +3.18929201124E+001
+1.97546933667E+006, +2.98821084210E+002, +3.35689256659E+001
+2.10050062578E+006, +2.99382981870E+002, +3.53630997291E+001
+2.22553191489E+006, +2.99611429697E+002, +3.79964391970E+001
+2.35056320401E+006, +2.99344985869E+002, +3.93174720152E+001
+2.47559449312E+006, +2.99444938041E+002, +4.12632237976E+001
+2.60062578223E+006, +2.98881007968E+002, +4.36799486905E+001
+2.72565707134E+006, +2.99833691797E+002, +4.55791410056E+001
+2.85068836045E+006, +2.99622414389E+002, +4.76786668620E+001
+2.97571964956E+006, +2.99201631517E+002, +4.98623852594E+001
+3.10075093867E+006, +2.99051240799E+002, +5.10619091907E+001
+3.22578222778E+006, +2.99216009329E+002, +5.36310763897E+001
+3.35081351690E+006, +2.99522419481E+002, +5.58259254367E+001
+3.47584480601E+006, +2.99344439897E+002, +5.75735741036E+001
+3.60087609512E+006, +2.98912610008E+002, +5.89055044172E+001
+3.72590738423E+006, +2.98710346379E+002, +6.13484851298E+001
+3.85093867334E+006, +2.98626563687E+002, +6.36114966762E+001
+3.97596996245E+006, +2.98551796975E+002, +6.63551329735E+001
+4.10100125156E+006, +2.99692801729E+002, +6.96573579181E+001
+4.22603254068E+006, +3.01340210267E+002, +6.99260784433E+001
+4.35106382979E+006, +3.00574315766E+002, +7.10251972203E+001
+4.47609511890E+006, +3.00351717972E+002, +7.27563118283E+001
+4.60112640801E+006, +3.00605904871E+002, +7.48127098778E+001
+4.72615769712E+006, +3.00088569950E+002, +7.82497506205E+001
+4.85118898623E+006, +2.99834037923E+002, +7.95229304363E+001
+4.97622027534E+006, +2.99363863608E+002, +8.15722807047E+001
+5.10125156446E+006, +3.01404392892E+002, +8.39489174199E+001
+5.22628285357E+006, +3.01097657696E+002, +8.53700233900E+001
+5.35131414268E+006, +2.99703520100E+002, +8.83848863616E+001
+5.47634543179E+006, +3.00531750840E+002, +8.93040725742E+001
+5.60137672090E+006, +3.01614648025E+002, +9.21283215433E+001
+5.72640801001E+006, +3.00531175417E+002, +9.27619338092E+001
+5.85143929912E+006, +3.00435119300E+002, +9.56813718428E+001
+5.97647058824E+006, +3.01593917591E+002, +9.81266183868E+001
+6.10150187735E+006, +3.01063271041E+002, +9.92710431132E+001
+6.22653316646E+006, +3.01469014741E+002, +1.01903491098E+002
+6.35156445557E+006, +3.01542782490E+002, +1.04010814044E+002
+6.47659574468E+006, +3.01223136773E+002, +1.05959260946E+002
+6.60162703379E+006, +3.01830664329E+002, +1.07824009895E+002
+6.72665832290E+006, +3.01363006302E+002, +1.09668318222E+002
+6.85168961202E+006, +3.01209538620E+002, +1.11613718747E+002
+6.97672090113E+006, +3.02525733617E+002, +1.13826664853E+002
+7.10175219024E+006, +3.02329283371E+002, +1.15938333567E+002
+7.22678347935E+006, +3.02694312556E+002, +1.17602792752E+002
+7.35181476846E+006, +3.02596046947E+002, +1.20003400697E+002
+7.47684605757E+006, +3.02736311657E+002, +1.22285231296E+002
+7.60187734668E+006, +3.03872255973E+002, +1.23934821223E+002
+7.72690863579E+006, +3.03430389797E+002, +1.26184760357E+002
+7.85193992491E+006, +3.03129932760E+002, +1.27928104228E+002
+7.97697121402E+006, +3.04161518640E+002, +1.29799433368E+002
+8.10200250313E+006, +3.03927842190E+002, +1.31986657732E+002
+8.22703379224E+006, +3.04253296158E+002, +1.34205822006E+002
+8.35206508135E+006, +3.04829361925E+002, +1.35764489576E+002
+8.47709637046E+006, +3.05116528084E+002, +1.38939910474E+002
+8.60212765957E+006, +3.04940152675E+002, +1.40744355287E+002
+8.72715894869E+006, +3.05120356326E+002, +1.42943106564E+002
+8.85219023780E+006, +3.05308801968E+002, +1.45094637220E+002
+8.97722152691E+006, +3.05616909259E+002, +1.46687784697E+002
+9.10225281602E+006, +3.06685587271E+002, +1.49316351054E+002
+9.22728410513E+006, +3.06195321347E+002, +1.50969114130E+002
+9.35231539424E+006, +3.07291278762E+002, +1.53253994327E+002
+9.47734668335E+006, +3.05927731179E+002, +1.55558682439E+002
+9.60237797247E+006, +3.07264803320E+002, +1.58044838807E+002
+9.72740926158E+006, +3.07251904641E+002, +1.59447024915E+002
+9.85244055069E+006, +3.07936144901E+002, +1.61833457874E+002
+9.97747183980E+006, +3.08593041837E+002, +1.63848038847E+002
+1.01025031289E+007, +3.08016917806E+002, +1.66325340288E+002
+1.02275344180E+007, +3.08915275755E+002, +1.67460541449E+002
+1.03525657071E+007, +3.08825209935E+002, +1.70457752745E+002
+1.04775969962E+007, +3.09612509507E+002, +1.72727952281E+002
+1.06026282854E+007, +3.10424675537E+002, +1.75085686708E+002
+1.07276595745E+007, +3.10594193555E+002, +1.76523028812E+002
+1.08526908636E+007, +3.10679991584E+002, +1.78678412508E+002
+1.09777221527E+007, +3.11321623731E+002, +1.80768132733E+002
+1.11027534418E+007, +3.11197295024E+002, +1.83213077662E+002
+1.12277847309E+007, +3.11395795288E+002, +1.85706249837E+002
+1.13528160200E+007, +3.12079690655E+002, +1.87586267893E+002
+1.14778473091E+007, +3.11792240943E+002, +1.89909509256E+002
+1.16028785982E+007, +3.12361068292E+002, +1.91941547721E+002
+1.17279098874E+007, +3.13415583196E+002, +1.93615658517E+002
+1.18529411765E+007, +3.14083110823E+002, +1.95956030515E+002
+1.19779724656E+007, +3.13396282003E+002, +1.98735657587E+002
+1.21030037547E+007, +3.14122331863E+002, +2.00372784224E+002
+1.22280350438E+007, +3.15408218438E+002, +2.02813946060E+002
+1.23530663329E+007, +3.14679488604E+002, +2.04203033310E+002
+1.24780976220E+007, +3.15288349797E+002, +2.06889564275E+002
+1.26031289111E+007, +3.15929367449E+002, +2.09370557530E+002
+1.27281602003E+007, +3.16776900672E+002, +2.11516298073E+002
+1.28531914894E+007, +3.16739670094E+002, +2.14152668979E+002
+1.29782227785E+007, +3.17184814548E+002, +2.16212213260E+002
+1.31032540676E+007, +3.17367061113E+002, +2.18049350310E+002
+1.32282853567E+007, +3.18080519436E+002, +2.20300177657E+002
+1.33533166458E+007, +3.18939373368E+002, +2.21922932480E+002
+1.34783479349E+007, +3.18897821097E+002, +2.24062771380E+002
+1.36033792240E+007, +3.19085400359E+002, +2.25878021109E+002
+1.37284105131E+007, +3.20313412905E+002, +2.29523614466E+002
+1.38534418023E+007, +3.20093023461E+002, +2.30853501755E+002
+1.39784730914E+007, +3.20768830341E+002, +2.34140976572E+002
+1.41035043805E+007, +3.21601824103E+002, +2.35461414201E+002
+1.42285356696E+007, +3.21705206650E+002, +2.37597309687E+002
+1.43535669587E+007, +3.21794053251E+002, +2.39754556197E+002
+1.44785982478E+007, +3.22116244911E+002, +2.42179577061E+002
+1.46036295369E+007, +3.24207326746E+002, +2.43554656393E+002
+1.47286608260E+007, +3.24198715988E+002, +2.46921869464E+002
+1.48536921151E+007, +3.24092438714E+002, +2.49145016541E+002
+1.49787234043E+007, +3.23769506442E+002, +2.51268268850E+002
+1.51037546934E+007, +3.25084040380E+002, +2.53392765018E+002
+1.52287859825E+007, +3.25937078454E+002, +2.55950229191E+002
+1.53538172716E+007, +3.26238712376E+002, +2.58043359916E+002
+1.54788485607E+007, +3.26236696547E+002, +2.60496440849E+002
+1.56038798498E+007, +3.26851281952E+002, +2.62679198148E+002
+1.57289111389E+007, +3.27404885683E+002, +2.64909657323E+002
+1.58539424280E+007, +3.27419097167E+002, +2.67510329489E+002
+1.59789737171E+007, +3.28753014547E+002, +2.69368719220E+002
+1.61040050063E+007, +3.29586050033E+002, +2.72129969228E+002
+1.62290362954E+007, +3.29941214325E+002, +2.74259201586E+002
+1.63540675845E+007, +3.30755482695E+002, +2.75944173661E+002
+1.64790988736E+007, +3.31150191320E+002, +2.78963048554E+002
+1.66041301627E+007, +3.31355311955E+002, +2.81195461659E+002
+1.67291614518E+007, +3.31889936682E+002, +2.83885672596E+002
+1.68541927409E+007, +3.32123439969E+002, +2.85881673144E+002
+1.69792240300E+007, +3.33072605658E+002, +2.88330933404E+002
+1.71042553191E+007, +3.33493468173E+002, +2.92339722164E+002
+1.72292866083E+007, +3.33434630873E+002, +2.94301005081E+002
+1.73543178974E+007, +3.36495814201E+002, +2.96644554518E+002
+1.74793491865E+007, +3.35988696841E+002, +2.98707578648E+002
+1.76043804756E+007, +3.37393571452E+002, +3.00415379111E+002
+1.77294117647E+007, +3.37948276931E+002, +3.03451095580E+002
+1.78544430538E+007, +3.37025214348E+002, +3.06025762206E+002
+1.79794743429E+007, +3.38578811105E+002, +3.07189853407E+002
+1.81045056320E+007, +3.38731749826E+002, +3.09920094955E+002
+1.82295369212E+007, +3.39466242308E+002, +3.11822689640E+002
+1.83545682103E+007, +3.41268568209E+002, +3.15618389647E+002
+1.84795994994E+007, +3.40605647732E+002, +3.17445856150E+002
+1.86046307885E+007, +3.41733253359E+002, +3.19051837562E+002
+1.87296620776E+007, +3.42281705666E+002, +3.20716124144E+002
+1.88546933667E+007, +3.43275527887E+002, +3.23964303446E+002
+1.89797246558E+007, +3.44233016741E+002, +3.26651871377E+002
+1.91047559449E+007, +3.45526831831E+002, +3.28562602122E+002
+1.92297872340E+007, +3.45144033257E+002, +3.31591147309E+002
+1.93548185232E+007, +3.45133308374E+002, +3.34322111555E+002
+1.94798498123E+007, +3.46037027971E+002, +3.35876942512E+002
+1.96048811014E+007, +3.46869016874E+002, +3.38350726562E+002
+1.97299123905E+007, +3.47739802473E+002, +3.40413348785E+002
+1.98549436796E+007, +3.48855866248E+002, +3.44197152460E+002
+1.99799749687E+007, +3.49254818813E+002, +3.47068230729E+002
+2.01050062578E+007, +3.49850665883E+002, +3.48931370168E+002
+2.02300375469E+007, +3.51319493685E+002, +3.50767024062E+002
+2.03550688360E+007, +3.51106849120E+002, +3.54283078024E+002
+2.04801001252E+007, +3.53063937978E+002, +3.56466854232E+002
+2.06051314143E+007, +3.54280718253E+002, +3.58803559471E+002
+2.07301627034E+007, +3.54694694306E+002, +3.62149502657E+002
+2.08551939925E+007, +3.55094902454E+002, +3.63146506981E+002
+2.09802252816E+007, +3.55444609588E+002, +3.65015709170E+002
+2.11052565707E+007, +3.55840783293E+002, +3.67962405873E+002
+2.12302878598E+007, +3.58824331130E+002, +3.71977798882E+002
+2.13553191489E+007, +3.57594476070E+002, +3.72411078034E+002
+2.14803504380E+007, +3.58646680594E+002, +3.75775632674E+002
+2.16053817272E+007, +3.60743641141E+002, +3.78366924269E+002
+2.17304130163E+007, +3.59752202613E+002, +3.80651532022E+002
+2.18554443054E+007, +3.60658085266E+002, +3.84721720726E+002
+2.19804755945E+007, +3.62032831649E+002, +3.86918657346E+002
+2.21055068836E+007, +3.63057819357E+002, +3.88906373228E+002
+2.22305381727E+007, +3.65365089595E+002, +3.91848968203E+002
+2.23555694618E+007, +3.65741092711E+002, +3.94986174774E+002
+2.24806007509E+007, +3.64561683105E+002, +3.95639017477E+002
+2.26056320401E+007, +3.67522744461E+002, +3.98308320084E+002
+2.27306633292E+007, +3.67257374696E+002, +4.02892061904E+002
+2.28556946183E+007, +3.69197397668E+002, +4.05196711797E+002
+2.29807259074E+007, +3.70778803137E+002, +4.08307616456E+002
+2.31057571965E+007, +3.71102051543E+002, +4.09855994697E+002
+2.32307884856E+007, +3.72460231342E+002, +4.12166760217E+002
+2.33558197747E+007, +3.72326501363E+002, +4.13449786807E+002
+2.34808510638E+007, +3.73974922289E+002, +4.16454330326E+002
+2.36058823529E+007, +3.76020905608E+002, +4.20596530187E+002
+2.37309136421E+007, +3.75186752393E+002, +4.24082372252E+002
+2.38559449312E+007, +3.79093099422E+002, +4.24867175734E+002
+2.39809762203E+007, +3.79376597263E+002, +4.28657929616E+002
+2.41060075094E+007, +3.77730214069E+002, +4.33405871406E+002
+2.42310387985E+007, +3.79274867525E+002, +4.34266514569E+002
+2.43560700876E+007, +3.81947714014E+002, +4.38573173169E+002
+2.44811013767E+007, +3.82547225781E+002, +4.39431671533E+002
+2.46061326658E+007, +3.84565665452E+002, +4.43447273695E+002
+2.47311639549E+007, +3.83868803532E+002, +4.45134079904E+002
+2.48561952441E+007, +3.86163649270E+002, +4.48504719802E+002
+2.49812265332E+007, +3.86510828025E+002, +4.52902969807E+002
+2.51062578223E+007, +3.89306661452E+002, +4.54155315992E+002
+2.52312891114E+007, +3.89768054322E+002, +4.55788914785E+002
+2.53563204005E+007, +3.90304898098E+002, +4.59388026842E+002
+2.54813516896E+007, +3.92425836063E+002, +4.63241112751E+002
+2.56063829787E+007, +3.93276150619E+002, +4.67156329689E+002
+2.57314142678E+007, +3.93405747626E+002, +4.69059393208E+002
+2.58564455569E+007, +3.94992433855E+002, +4.72235595956E+002
+2.59814768461E+007, +3.97183145987E+002, +4.74539525630E+002
+2.61065081352E+007, +3.98365207131E+002, +4.77050715344E+002
+2.62315394243E+007, +4.01227785064E+002, +4.80734665135E+002
+2.63565707134E+007, +4.01002661991E+002, +4.81657296970E+002
+2.64816020025E+007, +4.03079012940E+002, +4.85137568420E+002
+2.66066332916E+007, +4.02445368524E+002, +4.89003896469E+002
+2.67316645807E+007, +4.04080706202E+002, +4.90529262097E+002
+2.68566958698E+007, +4.05627001097E+002, +4.95721350626E+002
+2.69817271589E+007, +4.05268064468E+002, +4.97920377121E+002
+2.71067584481E+007, +4.07671170665E+002, +5.01699088107E+002
+2.72317897372E+007, +4.09830450530E+002, +5.04432295863E+002
+2.73568210263E+007, +4.10593575545E+002, +5.07353365576E+002
+2.74818523154E+007, +4.10649204700E+002, +5.10417183017E+002
+2.76068836045E+007, +4.13219665907E+002, +5.12324833867E+002
+2.77319148936E+007, +4.14986337437E+002, +5.16242364184E+002
+2.78569461827E+007, +4.16590325460E+002, +5.18109113062E+002
+2.79819774718E+007, +4.17982762651E+002, +5.22264443000E+002
+2.81070087610E+007, +4.19080730076E+002, +5.25465540739E+002
+2.82320400501E+007, +4.22597583336E+002, +5.28492124187E+002
+2.83570713392E+007, +4.21689061228E+002, +5.31210086891E+002
+2.84821026283E+007, +4.23436671941E+002, +5.33033887581E+002
+2.86071339174E+007, +4.25870272699E+002, +5.36502332935E+002
+2.87321652065E+007, +4.29143457176E+002, +5.39791384238E+002
+2.88571964956E+007, +4.28915284065E+002, +5.46416895683E+002
+2.89822277847E+007, +4.29235287344E+002, +5.47845562318E+002
+2.91072590738E+007, +4.32228667138E+002, +5.50450704809E+002
+2.92322903630E+007, +4.31614784237E+002, +5.56141004195E+002
+2.93573216521E+007, +4.34318505037E+002, +5.59119973137E+002
+2.94823529412E+007, +4.33236361326E+002, +5.59849120400E+002
+2.96073842303E+007, +4.37737498802E+002, +5.63149874931E+002
+2.97324155194E+007, +4.36803181224E+002, +5.67639947091E+002
+2.98574468085E+007, +4.40394171862E+002, +5.73092553719E+002
+2.99824780976E+007, +4.40825762805E+002, +5.75250517336E+002
+3.01075093867E+007, +4.44234188625E+002, +5.76797260367E+002
+3.02325406758E+007, +4.46472673202E+002, +5.80159595064E+002
+3.03575719650E+007, +4.48531668471E+002, +5.83695878116E+002
+3.04826032541E+007, +4.49574921639E+002, +5.86176643820E+002
+3.06076345432E+007, +4.53004383461E+002, +5.89593957047E+002
+3.07326658323E+007, +4.54442669959E+002, +5.95674372401E+002
+3.08576971214E+007, +4.57178686844E+002, +5.95974625310E+002
+3.09827284105E+007, +4.56124990786E+002, +6.00187781523E+002
+3.11077596996E+007, +4.61092959400E+002, +6.06339762188E+002
+3.12327909887E+007, +4.59049075057E+002, +6.10310671662E+002
+3.13578222778E+007, +4.60479131478E+002, +6.12812461672E+002
+3.14828535670E+007, +4.65125891850E+002, +6.13961234969E+002
+3.16078848561E+007, +4.65918503328E+002, +6.19347969968E+002
+3.17329161452E+007, +4.66357682311E+002, +6.21277989577E+002
+3.18579474343E+007, +4.71158315051E+002, +6.24259851051E+002
+3.19829787234E+007, +4.72325249807E+002, +6.31595993677E+002
+3.21080100125E+007, +4.73187791827E+002, +6.32844961724E+002
+3.22330413016E+007, +4.78649735131E+002, +6.40356171861E+002
+3.23580725907E+007, +4.78756270979E+002, +6.35343382477E+002
+3.24831038798E+007, +4.80279809585E+002, +6.47324479000E+002
+3.26081351690E+007, +4.82030267107E+002, +6.48756714422E+002
+3.27331664581E+007, +4.84476318199E+002, +6.50721385384E+002
+3.28581977472E+007, +4.87496240977E+002, +6.52995802975E+002
+3.29832290363E+007, +4.90650464654E+002, +6.60859236066E+002
+3.31082603254E+007, +4.90561417143E+002, +6.64431605261E+002
+3.32332916145E+007, +4.95383253240E+002, +6.65285816996E+002
+3.33583229036E+007, +4.95198713840E+002, +6.70898318439E+002
+3.34833541927E+007, +4.97398149042E+002, +6.73814259328E+002
+3.36083854819E+007, +4.99063410792E+002, +6.78327063819E+002
+3.37334167710E+007, +5.02043347623E+002, +6.78152068658E+002
+3.38584480601E+007, +5.01886953752E+002, +6.85951465990E+002
+3.39834793492E+007, +5.09026393632E+002, +6.89507906905E+002
+3.41085106383E+007, +5.10253700128E+002, +6.95111201407E+002
+3.42335419274E+007, +5.15211232776E+002, +6.98160470145E+002
+3.43585732165E+007, +5.15878448092E+002, +7.02121162929E+002
+3.44836045056E+007, +5.14932184283E+002, +7.03338143722E+002
+3.46086357947E+007, +5.17250479997E+002, +7.10292781984E+002
+3.47336670839E+007, +5.25196151850E+002, +7.14536270887E+002
+3.48586983730E+007, +5.22845024059E+002, +7.19403114386E+002
+3.49837296621E+007, +5.28487863006E+002, +7.19013778818E+002
+3.51087609512E+007, +5.32662546867E+002, +7.28026760060E+002
+3.52337922403E+007, +5.38427295396E+002, +7.31218593537E+002
+3.53588235294E+007, +5.32954094733E+002, +7.33202227415E+002
+3.54838548185E+007, +5.40492450622E+002, +7.36709770794E+002
+3.56088861076E+007, +5.42118697083E+002, +7.43237023955E+002
+3.57339173967E+007, +5.44366348920E+002, +7.44342933261E+002
+3.58589486859E+007, +5.47441091305E+002, +7.48879638591E+002
+3.59839799750E+007, +5.49975038609E+002, +7.52158487002E+002
+3.61090112641E+007, +5.52470336191E+002, +7.58441957940E+002
+3.62340425532E+007, +5.55453746791E+002, +7.63036137477E+002
+3.63590738423E+007, +5.59949749008E+002, +7.66705635592E+002
+3.64841051314E+007, +5.63693898707E+002, +7.69094290844E+002
+3.66091364205E+007, +5.66658466633E+002, +7.74325213367E+002
+3.67341677096E+007, +5.73181498703E+002, +7.80261922100E+002
+3.68591989987E+007, +5.77616036518E+002, +7.89297230483E+002
+3.69842302879E+007, +5.75982334066E+002, +7.85622494996E+002
+3.71092615770E+007, +5.83991085020E+002, +7.93273005329E+002
+3.72342928661E+007, +5.82820099063E+002, +7.94384894786E+002
+3.73593241552E+007, +5.89476775356E+002, +7.99363195284E+002
+3.74843554443E+007, +5.89263091742E+002, +8.08948081030E+002
+3.76093867334E+007, +5.92570097141E+002, +8.06880992626E+002
+3.77344180225E+007, +5.95030463719E+002, +8.14217038621E+002
+3.78594493116E+007, +6.02574136884E+002, +8.17779184342E+002
+3.79844806008E+007, +6.04835109033E+002, +8.26239928839E+002
+3.81095118899E+007, +6.10499534729E+002, +8.29168496613E+002
+3.82345431790E+007, +6.16251907762E+002, +8.31900191686E+002
+3.83595744681E+007, +6.18353720772E+002, +8.41081516840E+002
+3.84846057572E+007, +6.22169975964E+002, +8.39578646882E+002
+3.86096370463E+007, +6.22587673054E+002, +8.50603368377E+002
+3.87346683354E+007, +6.26562639756E+002, +8.41801145253E+002
+3.88596996245E+007, +6.36805589450E+002, +8.60744370211E+002
+3.89847309136E+007, +6.40521076218E+002, +8.59108135670E+002
+3.91097622028E+007, +6.39815424805E+002, +8.63057676845E+002
+3.92347934919E+007, +6.43147379150E+002, +8.70363385734E+002
+3.93598247810E+007, +6.51420304118E+002, +8.79285069130E+002
+3.94848560701E+007, +6.53292507542E+002, +8.86205071768E+002
+3.96098873592E+007, +6.58626175176E+002, +8.82953574838E+002
+3.97349186483E+007, +6.65506027112E+002, +8.94350925749E+002
+3.98599499374E+007, +6.64526885547E+002, +8.95830699396E+002
+3.99849812265E+007, +6.64390554816E+002, +9.03618360981E+002
+4.01100125156E+007, +6.74506012363E+002, +9.04997434051E+002
