"# Channel 1"
"# Trace 1"
Frequency, Formatted Data, Formatted Data
+1.00000000000E+005, +3.32182528972E+001, +1.61600833001E+000
+2.25031289111E+005, +3.32237363208E+001, +3.72279822104E+000
+3.50062578223E+005, +3.32323818812E+001, +5.76092463888E+000
+4.75093867334E+005, +3.32520715026E+001, +7.79536171490E+000
+6.00125156446E+005, +3.32504908792E+001, +9.83542178175E+000
+7.25156445557E+005, +3.32757483891E+001, +1.18345998570E+001
+8.50187734668E+005, +3.32894914827E+001, +1.38832714183E+001
+9.75219023780E+005, +3.32913171706E+001, +1.58972184982E+001
+1.10025031289E+006, +3.33070405170E+001, +1.79663149280E+001
+1.22528160200E+006, +3.33621241709E+001, +1.99864794635E+001
+1.35031289111E+006, +3.33556810522E+001, +2.19928375727E+001
+1.47534418023E+006, +3.33480753615E+001, +2.40483054432E+001
+1.60037546934E+006, +3.33950492073E+001, +2.60497169846E+001
+1.72540675845E+006, +3.33653208044E+001, +2.80656624504E+001
+1.85043804756E+006, +3.33949306139E+001, +3.00834819625E+001
+1.97546933667E+006, +3.33986899727E+001, +3.21323584158E+001
+2.10050062578E+006, +3.34164143600E+001, +3.41616419494E+001
+2.22553191489E+006, +3.34454574419E+001, +3.61690536185E+001
+2.35056320401E+006, +3.34654086464E+001, +3.82674586074E+001
+2.47559449312E+006, +3.34327153552E+001, +4.02259942552E+001
+2.60062578223E+006, +3.34588268960E+001, +4.22512518539E+001
+2.72565707134E+006, +3.34763044671E+001, +4.42791558244E+001
+2.85068836045E+006, +3.34810567539E+001, +4.62872012584E+001
+2.97571964956E+006, +3.34740707554E+001, +4.83235488265E+001
+3.10075093867E+006, +3.34468176725E+001, +5.04057825000E+001
+3.22578222778E+006, +3.35262153876E+001, +5.23284621118E+001
+3.35081351690E+006, +3.35236309379E+001, +5.43659165247E+001
+3.47584480601E+006, +3.35281544719E+001, +5.64638588158E+001
+3.60087609512E+006, +3.35878793803E+001, +5.84681409652E+001
+3.72590738423E+006, +3.35087940069E+001, +6.05106473863E+001
+3.85093867334E+006, +3.35681017926E+001, +6.27579081090E+001
+3.97596996245E+006, +3.36414450332E+001, +6.48866296333E+001
+4.10100125156E+006, +3.45337423993E+001, +6.55009465510E+001
+4.22603254068E+006, +3.36017585367E+001, +6.84494814234E+001
+4.35106382979E+006, +3.36312970741E+001, +7.05731520359E+001
+4.47609511890E+006, +3.36285581129E+001, +7.26546484959E+001
+4.60112640801E+006, +3.35469073347E+001, +7.47533860909E+001
+4.72615769712E+006, +3.37384636149E+001, +7.67250134472E+001
+4.85118898623E+006, +3.36600985938E+001, +7.87652973457E+001
+4.97622027534E+006, +3.37445774087E+001, +8.07788623245E+001
+5.10125156446E+006, +3.37582780646E+001, +8.28583753139E+001
+5.22628285357E+006, +3.37324131695E+001, +8.48791284851E+001
+5.35131414268E+006, +3.37120558857E+001, +8.69837995708E+001
+5.47634543179E+006, +3.37769892146E+001, +8.89669804128E+001
+5.60137672090E+006, +3.38146953393E+001, +9.10563330317E+001
+5.72640801001E+006, +3.38982766836E+001, +9.30449595576E+001
+5.85143929912E+006, +3.38910134731E+001, +9.51813600425E+001
+5.97647058824E+006, +3.38922126793E+001, +9.71755403912E+001
+6.10150187735E+006, +3.37338130618E+001, +9.93272570871E+001
+6.22653316646E+006, +3.37440828973E+001, +1.01309363247E+002
+6.35156445557E+006, +3.38817117069E+001, +1.03444533314E+002
+6.47659574468E+006, +3.39314180818E+001, +1.05446044266E+002
+6.60162703379E+006, +3.40620921274E+001, +1.07532710676E+002
+6.72665832290E+006, +3.40467828198E+001, +1.09666235847E+002
+6.85168961202E+006, +3.41355316484E+001, +1.11632304818E+002
+6.97672090113E+006, +3.40687437116E+001, +1.13717595441E+002
+7.10175219024E+006, +3.41546694200E+001, +1.15771113219E+002
+7.22678347935E+006, +3.42167244595E+001, +1.17860623321E+002
+7.35181476846E+006, +3.42427885224E+001, +1.19880448173E+002
+7.47684605757E+006, +3.42033867964E+001, +1.21984566091E+002
+7.60187734668E+006, +3.42492419884E+001, +1.24064356163E+002
+7.72690863579E+006, +3.42876627952E+001, +1.26047095151E+002
+7.85193992491E+006, +3.44032457150E+001, +1.28126623544E+002
+7.97697121402E+006, +3.42927353699E+001, +1.30224368706E+002
+8.10200250313E+006, +3.44697629079E+001, +1.32271970556E+002
+8.22703379224E+006, +3.44289507734E+001, +1.34226583782E+002
+8.35206508135E+006, +3.44363115890E+001, +1.36384070448E+002
+8.47709637046E+006, +3.44522717340E+001, +1.38510556847E+002
+8.60212765957E+006, +3.44561765937E+001, +1.40566079323E+002
+8.72715894869E+006, +3.47235050722E+001, +1.42505779625E+002
+8.85219023780E+006, +3.46416512220E+001, +1.44488917273E+002
+8.97722152691E+006, +3.45882460937E+001, +1.46622489382E+002
+9.10225281602E+006, +3.45524211436E+001, +1.48666013860E+002
+9.22728410513E+006, +3.45453720658E+001, +1.50904791017E+002
+9.35231539424E+006, +3.46306580117E+001, +1.53027471880E+002
+9.47734668335E+006, +3.47358406845E+001, +1.54938859090E+002
+9.60237797247E+006, +3.47914758072E+001, +1.56752489087E+002
+9.72740926158E+006, +3.47840803653E+001, +1.58571517460E+002
+9.85244055069E+006, +3.48418285215E+001, +1.60463184850E+002
+9.97747183980E+006, +3.48574661713E+001, +1.62501193667E+002
+1.01025031289E+007, +3.47702216788E+001, +1.64410688505E+002
+1.02275344180E+007, +3.48780885098E+001, +1.66342512916E+002
+1.03525657071E+007, +3.47375083289E+001, +1.68528212260E+002
+1.04775969962E+007, +3.49684031258E+001, +1.70541345762E+002
+1.06026282854E+007, +3.47823337362E+001, +1.72844977520E+002
+1.07276595745E+007, +3.48692974567E+001, +1.74933909713E+002
+1.08526908636E+007, +3.47986513744E+001, +1.77172933013E+002
+1.09777221527E+007, +3.48088504590E+001, +1.79337656509E+002
+1.11027534418E+007, +3.49358342979E+001, +1.81736227489E+002
+1.12277847309E+007, +3.49917332706E+001, +1.84204092457E+002
+1.13528160200E+007, +3.49695864046E+001, +1.86601710233E+002
+1.14778473091E+007, +3.50259489031E+001, +1.89120511126E+002
+1.16028785982E+007, +3.49068380865E+001, +1.91075448850E+002
+1.17279098874E+007, +3.49886805184E+001, +1.93194854920E+002
+1.18529411765E+007, +3.50317435929E+001, +1.95391544476E+002
+1.19779724656E+007, +3.50774528960E+001, +1.97457572566E+002
+1.21030037547E+007, +3.51276947470E+001, +1.99712416149E+002
+1.22280350438E+007, +3.50960222426E+001, +2.01954070429E+002
+1.23530663329E+007, +3.52723740308E+001, +2.04166173135E+002
+1.24780976220E+007, +3.53448684031E+001, +2.06371307582E+002
+1.26031289111E+007, +3.51450416625E+001, +2.08466294816E+002
+1.27281602003E+007, +3.52768889766E+001, +2.10367741777E+002
+1.28531914894E+007, +3.51641599007E+001, +2.12618353680E+002
+1.29782227785E+007, +3.51913446377E+001, +2.14670149318E+002
+1.31032540676E+007, +3.51803989391E+001, +2.17136423260E+002
+1.32282853567E+007, +3.49445544417E+001, +2.19085305093E+002
+1.33533166458E+007, +3.52877300187E+001, +2.21284642210E+002
+1.34783479349E+007, +3.53988890382E+001, +2.23434127922E+002
+1.36033792240E+007, +3.56245154306E+001, +2.25851333905E+002
+1.37284105131E+007, +3.55198720575E+001, +2.28054371207E+002
+1.38534418023E+007, +3.57343464020E+001, +2.30390187326E+002
+1.39784730914E+007, +3.57854646899E+001, +2.32719347353E+002
+1.41035043805E+007, +3.55944564658E+001, +2.34734659492E+002
+1.42285356696E+007, +3.56396679883E+001, +2.37014303343E+002
+1.43535669587E+007, +3.57185325058E+001, +2.39034456475E+002
+1.44785982478E+007, +3.58197319850E+001, +2.41459232120E+002
+1.46036295369E+007, +3.55800686446E+001, +2.43444473135E+002
+1.47286608260E+007, +3.57325671960E+001, +2.45793022940E+002
+1.48536921151E+007, +3.59290984413E+001, +2.48194614354E+002
+1.49787234043E+007, +3.54744617419E+001, +2.50172113506E+002
+1.51037546934E+007, +3.58968496357E+001, +2.52618593615E+002
+1.52287859825E+007, +3.59785716358E+001, +2.54879773195E+002
+1.53538172716E+007, +3.59562910690E+001, +2.57096727698E+002
+1.54788485607E+007, +3.62254609999E+001, +2.59342178817E+002
+1.56038798498E+007, +3.63785244131E+001, +2.61822752139E+002
+1.57289111389E+007, +3.61708646528E+001, +2.64059295120E+002
+1.58539424280E+007, +3.62708853734E+001, +2.66384700320E+002
+1.59789737171E+007, +3.62399161615E+001, +2.68611413714E+002
+1.61040050063E+007, +3.62560429175E+001, +2.70942152316E+002
+1.62290362954E+007, +3.61990531094E+001, +2.73311044857E+002
+1.63540675845E+007, +3.62901769520E+001, +2.75650976029E+002
+1.64790988736E+007, +3.63421869961E+001, +2.77905922488E+002
+1.66041301627E+007, +3.64118642167E+001, +2.80116779776E+002
+1.67291614518E+007, +3.65105694611E+001, +2.82303191172E+002
+1.68541927409E+007, +3.69764701661E+001, +2.84829189168E+002
+1.69792240300E+007, +3.68622180091E+001, +2.87261868820E+002
+1.71042553191E+007, +3.66023257517E+001, +2.89137411869E+002
+1.72292866083E+007, +3.67223706629E+001, +2.91635040812E+002
+1.73543178974E+007, +3.64499471382E+001, +2.93996270019E+002
+1.74793491865E+007, +3.68312010541E+001, +2.96248080558E+002
+1.76043804756E+007, +3.66566819852E+001, +2.98916174087E+002
+1.77294117647E+007, +3.68844835629E+001, +3.00851372669E+002
+1.78544430538E+007, +3.69867236654E+001, +3.03462990382E+002
+1.79794743429E+007, +3.69911872996E+001, +3.05856812983E+002
+1.81045056320E+007, +3.70134561628E+001, +3.08294945507E+002
+1.82295369212E+007, +3.69064151544E+001, +3.10524468104E+002
+1.83545682103E+007, +3.69787246617E+001, +3.12923129742E+002
+1.84795994994E+007, +3.76118941223E+001, +3.15745097762E+002
+1.86046307885E+007, +3.69736806344E+001, +3.17464138683E+002
+1.87296620776E+007, +3.76523239885E+001, +3.20081992025E+002
+1.88546933667E+007, +3.75334067461E+001, +3.22718452449E+002
+1.89797246558E+007, +3.76142499425E+001, +3.25191170027E+002
+1.91047559449E+007, +3.75824033493E+001, +3.27949077253E+002
+1.92297872340E+007, +3.81671851905E+001, +3.29941180843E+002
+1.93548185232E+007, +3.80057515654E+001, +3.32243682192E+002
+1.94798498123E+007, +3.77036330869E+001, +3.35212071117E+002
+1.96048811014E+007, +3.82063150868E+001, +3.37785010049E+002
+1.97299123905E+007, +3.81850127356E+001, +3.40352796282E+002
+1.98549436796E+007, +3.81616314367E+001, +3.42305987584E+002
+1.99799749687E+007, +3.78661098042E+001, +3.45271654872E+002
+2.01050062578E+007, +3.80277642119E+001, +3.47136717405E+002
+2.02300375469E+007, +3.79974743331E+001, +3.49911308540E+002
+2.03550688360E+007, +3.77308698921E+001, +3.52114833290E+002
+2.04801001252E+007, +3.79932740631E+001, +3.55306638512E+002
+2.06051314143E+007, +3.85211186602E+001, +3.57460269178E+002
+2.07301627034E+007, +3.87269329012E+001, +3.59519416784E+002
+2.08551939925E+007, +3.86776709580E+001, +3.62127673637E+002
+2.09802252816E+007, +3.90669694927E+001, +3.64909188447E+002
+2.11052565707E+007, +3.89918430497E+001, +3.67275198490E+002
+2.12302878598E+007, +3.91582144813E+001, +3.69861294737E+002
+2.13553191489E+007, +3.91130098603E+001, +3.72518416630E+002
+2.14803504380E+007, +3.92763858337E+001, +3.75234600865E+002
+2.16053817272E+007, +3.95111410072E+001, +3.77722017941E+002
+2.17304130163E+007, +3.97299607682E+001, +3.80554672878E+002
+2.18554443054E+007, +3.95386499509E+001, +3.82631081267E+002
+2.19804755945E+007, +3.96265484489E+001, +3.85660352758E+002
+2.21055068836E+007, +4.00825604354E+001, +3.88068743333E+002
+2.22305381727E+007, +3.99239792206E+001, +3.90584487837E+002
+2.23555694618E+007, +4.02950588729E+001, +3.93587729866E+002
+2.24806007509E+007, +4.05764250949E+001, +3.95868839217E+002
+2.26056320401E+007, +4.01830196985E+001, +3.99127665891E+002
+2.27306633292E+007, +4.04522963042E+001, +4.01333873564E+002
+2.28556946183E+007, +4.08848689113E+001, +4.04443232053E+002
+2.29807259074E+007, +4.10932530758E+001, +4.06698805927E+002
+2.31057571965E+007, +4.07206082790E+001, +4.09080427474E+002
+2.32307884856E+007, +4.07282297526E+001, +4.11954883887E+002
+2.33558197747E+007, +4.07985691424E+001, +4.15289432171E+002
+2.34808510638E+007, +4.06486508386E+001, +4.17792264322E+002
+2.36058823529E+007, +4.16761327803E+001, +4.20717495743E+002
+2.37309136421E+007, +4.12296730769E+001, +4.22236052949E+002
+2.38559449312E+007, +4.17197726929E+001, +4.25900462252E+002
+2.39809762203E+007, +4.20152429507E+001, +4.28564145830E+002
+2.41060075094E+007, +4.15450608293E+001, +4.30971664715E+002
+2.42310387985E+007, +4.22888456338E+001, +4.33026994997E+002
+2.43560700876E+007, +4.24022147271E+001, +4.36016175582E+002
+2.44811013767E+007, +4.29075424290E+001, +4.38635635428E+002
+2.46061326658E+007, +4.20637168579E+001, +4.40999227867E+002
+2.47311639549E+007, +4.22354401436E+001, +4.44171157960E+002
+2.48561952441E+007, +4.27809713207E+001, +4.46195645987E+002
+2.49812265332E+007, +4.29316720847E+001, +4.48998605378E+002
+2.51062578223E+007, +4.26996434957E+001, +4.51829475357E+002
+2.52312891114E+007, +4.22165901330E+001, +4.54782401159E+002
+2.53563204005E+007, +4.26158816195E+001, +4.57842773644E+002
+2.54813516896E+007, +4.24582016913E+001, +4.60751051966E+002
+2.56063829787E+007, +4.30053955391E+001, +4.63915218121E+002
+2.57314142678E+007, +4.20537414740E+001, +4.66779079496E+002
+2.58564455569E+007, +4.30282333293E+001, +4.70048663443E+002
+2.59814768461E+007, +4.18754284463E+001, +4.72826539696E+002
+2.61065081352E+007, +4.28696542111E+001, +4.75463249826E+002
+2.62315394243E+007, +4.27789842070E+001, +4.77616637907E+002
+2.63565707134E+007, +4.33194514655E+001, +4.81660123883E+002
+2.64816020025E+007, +4.23309404166E+001, +4.84455538883E+002
+2.66066332916E+007, +4.35802043644E+001, +4.87435694652E+002
+2.67316645807E+007, +4.31890483399E+001, +4.90110866395E+002
+2.68566958698E+007, +4.38208720873E+001, +4.94149526843E+002
+2.69817271589E+007, +4.33537135605E+001, +4.96043581479E+002
+2.71067584481E+007, +4.35061416254E+001, +4.99933763225E+002
+2.72317897372E+007, +4.50651219453E+001, +5.03489825738E+002
+2.73568210263E+007, +4.32474410258E+001, +5.05369761389E+002
+2.74818523154E+007, +4.43757127605E+001, +5.08958304385E+002
+2.76068836045E+007, +4.43802126566E+001, +5.11852245306E+002
+2.77319148936E+007, +4.59239974002E+001, +5.14782305578E+002
+2.78569461827E+007, +4.59496600600E+001, +5.17883329230E+002
+2.79819774718E+007, +4.60099425903E+001, +5.20020661172E+002
+2.81070087610E+007, +4.51746648584E+001, +5.23199222420E+002
+2.82320400501E+007, +4.48045807845E+001, +5.25992351685E+002
+2.83570713392E+007, +4.58896249891E+001, +5.30639984139E+002
+2.84821026283E+007, +4.56016915819E+001, +5.32636246031E+002
+2.86071339174E+007, +4.57493449988E+001, +5.37011806361E+002
+2.87321652065E+007, +4.62469489116E+001, +5.38806979187E+002
+2.88571964956E+007, +4.66934169037E+001, +5.41878716335E+002
+2.89822277847E+007, +4.60591081309E+001, +5.44723480415E+002
+2.91072590738E+007, +4.73951399571E+001, +5.48444928266E+002
+2.92322903630E+007, +4.67526572482E+001, +5.52596309106E+002
+2.93573216521E+007, +4.69949461665E+001, +5.56012860845E+002
+2.94823529412E+007, +4.79607683045E+001, +5.59341352076E+002
+2.96073842303E+007, +4.72353886184E+001, +5.63471796660E+002
+2.97324155194E+007, +4.84057162634E+001, +5.65486282557E+002
+2.98574468085E+007, +4.82977269893E+001, +5.68926394501E+002
+2.99824780976E+007, +4.91445033962E+001, +5.72056945253E+002
+3.01075093867E+007, +4.91355704998E+001, +5.75271032872E+002
+3.02325406758E+007, +4.84039505026E+001, +5.79933415661E+002
+3.03575719650E+007, +4.90582173989E+001, +5.82763429357E+002
+3.04826032541E+007, +5.04993485652E+001, +5.86235967256E+002
+3.06076345432E+007, +4.89629926455E+001, +5.89364272583E+002
+3.07326658323E+007, +5.02139087096E+001, +5.92281468956E+002
+3.08576971214E+007, +4.97312020488E+001, +5.97045171140E+002
+3.09827284105E+007, +5.00900300931E+001, +5.99337661518E+002
+3.11077596996E+007, +5.05789233460E+001, +6.02803357967E+002
+3.12327909887E+007, +5.08240792562E+001, +6.06123503694E+002
+3.13578222778E+007, +5.25855085511E+001, +6.08763278095E+002
+3.14828535670E+007, +5.19001886261E+001, +6.13155909040E+002
+3.16078848561E+007, +5.27957569633E+001, +6.16365519293E+002
+3.17329161452E+007, +5.28831841471E+001, +6.21345279357E+002
+3.18579474343E+007, +5.28739892388E+001, +6.23640900886E+002
+3.19829787234E+007, +5.37173276194E+001, +6.27702557525E+002
+3.21080100125E+007, +5.39559525121E+001, +6.31202446089E+002
+3.22330413016E+007, +5.41090176933E+001, +6.34931617635E+002
+3.23580725907E+007, +5.32821734701E+001, +6.37094637104E+002
+3.24831038798E+007, +5.31574049730E+001, +6.41453422732E+002
+3.26081351690E+007, +5.54652370913E+001, +6.46099885522E+002
+3.27331664581E+007, +5.51844688031E+001, +6.47958706286E+002
+3.28581977472E+007, +5.54566524621E+001, +6.51648441818E+002
+3.29832290363E+007, +5.50734671503E+001, +6.55897698351E+002
+3.31082603254E+007, +5.55141161063E+001, +6.60643458934E+002
+3.32332916145E+007, +5.59280722045E+001, +6.64025291788E+002
+3.33583229036E+007, +5.67243506572E+001, +6.68661204048E+002
+3.34833541927E+007, +5.69827405857E+001, +6.71720497444E+002
+3.36083854819E+007, +5.65967642048E+001, +6.76254556676E+002
+3.37334167710E+007, +5.79289843402E+001, +6.79354576500E+002
+3.38584480601E+007, +5.84609617617E+001, +6.82218793225E+002
+3.39834793492E+007, +5.81091564475E+001, +6.87012239650E+002
+3.41085106383E+007, +5.93262106225E+001, +6.92888276566E+002
+3.42335419274E+007, +5.79789925474E+001, +6.96667419475E+002
+3.43585732165E+007, +5.90293797773E+001, +6.99032080614E+002
+3.44836045056E+007, +5.85408616668E+001, +7.03685566170E+002
+3.46086357947E+007, +5.98382536890E+001, +7.06962405382E+002
+3.47336670839E+007, +6.05080459552E+001, +7.10759223440E+002
+3.48586983730E+007, +6.10845031168E+001, +7.16941019375E+002
+3.49837296621E+007, +6.22713645744E+001, +7.19738830817E+002
+3.51087609512E+007, +6.08561575186E+001, +7.24218033968E+002
+3.52337922403E+007, +5.87835612429E+001, +7.29358099857E+002
+3.53588235294E+007, +6.20331903202E+001, +7.32024686847E+002
+3.54838548185E+007, +6.49999408621E+001, +7.36304007957E+002
+3.56088861076E+007, +6.48245748785E+001, +7.39901836983E+002
+3.57339173967E+007, +6.29730224326E+001, +7.44650300805E+002
+3.58589486859E+007, +6.60668462282E+001, +7.49372936642E+002
+3.59839799750E+007, +6.66514723532E+001, +7.54008068986E+002
+3.61090112641E+007, +6.78641062230E+001, +7.57479656288E+002
+3.62340425532E+007, +6.48232729711E+001, +7.61781921278E+002
+3.63590738423E+007, +6.55263565597E+001, +7.68030105820E+002
+3.64841051314E+007, +6.71027844071E+001, +7.70318156618E+002
+3.66091364205E+007, +6.90662582556E+001, +7.74260842157E+002
+3.67341677096E+007, +6.68209360461E+001, +7.81003192640E+002
+3.68591989987E+007, +6.76602731007E+001, +7.85245313956E+002
+3.69842302879E+007, +6.74763504439E+001, +7.87581865915E+002
+3.71092615770E+007, +6.98677020424E+001, +7.93269587623E+002
+3.72342928661E+007, +6.81734439222E+001, +7.97875619500E+002
+3.73593241552E+007, +7.12460550460E+001, +8.02578044260E+002
+3.74843554443E+007, +7.01851421719E+001, +8.05919588983E+002
+3.76093867334E+007, +7.11110879674E+001, +8.11950532236E+002
+3.77344180225E+007, +7.37518461035E+001, +8.15467852783E+002
+3.78594493116E+007, +7.62261833537E+001, +8.23534712739E+002
+3.79844806008E+007, +7.32400834987E+001, +8.28830039197E+002
+3.81095118899E+007, +7.46352454396E+001, +8.32468831283E+002
+3.82345431790E+007, +7.46066110160E+001, +8.39087256855E+002
+3.83595744681E+007, +7.72151316569E+001, +8.43982730929E+002
+3.84846057572E+007, +7.79098857561E+001, +8.48785147824E+002
+3.86096370463E+007, +7.64568650669E+001, +8.55088256153E+002
+3.87346683354E+007, +7.79187405401E+001, +8.58943383740E+002
+3.88596996245E+007, +7.96641619152E+001, +8.61214287239E+002
+3.89847309136E+007, +8.08478549521E+001, +8.70348551773E+002
+3.91097622028E+007, +8.32012517417E+001, +8.74503333582E+002
+3.92347934919E+007, +7.95601569682E+001, +8.77195577893E+002
+3.93598247810E+007, +8.05970382986E+001, +8.80932596938E+002
+3.94848560701E+007, +8.50156873004E+001, +8.89872439904E+002
+3.96098873592E+007, +8.24481279971E+001, +8.97118309164E+002
+3.97349186483E+007, +8.21539213131E+001, +8.99289303053E+002
+3.98599499374E+007, +8.33066330572E+001, +9.05974207435E+002
+3.99849812265E+007, +8.71367670801E+001, +9.09510992317E+002
+4.01100125156E+007, +8.44266290366E+001, +9.18498095665E+002
