"# Channel 1"
"# Trace 1"
Frequency, Formatted Data, Formatted Data
+1.00000000000E+005, +7.70047046193E+000, +1.54826738880E+000
+2.66777963272E+005, +7.69354015484E+000, +4.16282268262E+000
+4.33555926544E+005, +7.67738210372E+000, +6.77380728563E+000
+6.00333889816E+005, +7.73238484153E+000, +9.36069157474E+000
+7.67111853088E+005, +7.72289264937E+000, +1.19675669989E+001
+9.33889816361E+005, +7.73607688917E+000, +1.45341763536E+001
+1.10066777963E+006, +7.68951063494E+000, +1.71415051342E+001
+1.26744574290E+006, +7.74490525686E+000, +1.97210805569E+001
+1.43422370618E+006, +7.68520299252E+000, +2.23789345411E+001
+1.60100166945E+006, +7.78259801165E+000, +2.49096921924E+001
+1.76777963272E+006, +7.76947241740E+000, +2.75145165125E+001
+1.93455759599E+006, +7.77122875427E+000, +3.00397693681E+001
+2.10133555927E+006, +7.78704027597E+000, +3.26167478832E+001
+2.26811352254E+006, +7.80428513570E+000, +3.52430997660E+001
+2.43489148581E+006, +7.79171622783E+000, +3.78862485601E+001
+2.60166944908E+006, +7.82460163137E+000, +4.03904635080E+001
+2.76844741235E+006, +7.79415032781E+000, +4.30679236913E+001
+2.93522537563E+006, +7.77811333225E+000, +4.56299769807E+001
+3.10200333890E+006, +7.91880039794E+000, +4.81814387995E+001
+3.26878130217E+006, +7.77152556035E+000, +5.08492335284E+001
+3.43555926544E+006, +7.84782134385E+000, +5.34263247165E+001
+3.60233722871E+006, +7.94293968342E+000, +5.60151965343E+001
+3.76911519199E+006, +7.88254645700E+000, +5.87366217003E+001
+3.93589315526E+006, +7.91793522116E+000, +6.12199430642E+001
+4.10267111853E+006, +7.71198931240E+000, +6.36960109411E+001
+4.26944908180E+006, +7.92501078917E+000, +6.67908583028E+001
+4.43622704508E+006, +7.96876548732E+000, +6.91323694561E+001
+4.60300500835E+006, +7.99076743760E+000, +7.18415430265E+001
+4.76978297162E+006, +7.96434658760E+000, +7.43202631496E+001
+4.93656093489E+006, +8.09298903967E+000, +7.70190923136E+001
+5.10333889816E+006, +8.10767965746E+000, +7.95648644798E+001
+5.27011686144E+006, +8.34153927418E+000, +8.24500016764E+001
+5.43689482471E+006, +8.11270846422E+000, +8.49258715197E+001
+5.60367278798E+006, +8.19481250698E+000, +8.76908969054E+001
+5.77045075125E+006, +8.17395616239E+000, +9.02507966237E+001
+5.93722871452E+006, +8.40591204502E+000, +9.28615149635E+001
+6.10400667780E+006, +8.36254396716E+000, +9.56025245525E+001
+6.27078464107E+006, +8.44479375458E+000, +9.81520966118E+001
+6.43756260434E+006, +8.50598457573E+000, +1.00864274963E+002
+6.60434056761E+006, +8.49660145312E+000, +1.03435614960E+002
+6.77111853088E+006, +8.67068381535E+000, +1.06090420828E+002
+6.93789649416E+006, +8.65737485031E+000, +1.08782874212E+002
+7.10467445743E+006, +8.62840482819E+000, +1.11360479444E+002
+7.27145242070E+006, +8.71386607233E+000, +1.14005377136E+002
+7.43823038397E+006, +8.82763819392E+000, +1.16626924965E+002
+7.60500834725E+006, +8.78252107168E+000, +1.19310182582E+002
+7.77178631052E+006, +8.87883533612E+000, +1.22145009210E+002
+7.93856427379E+006, +8.88566934972E+000, +1.24665517975E+002
+8.10534223706E+006, +8.84560603019E+000, +1.27300417812E+002
+8.27212020033E+006, +8.90373343326E+000, +1.30069168937E+002
+8.43889816361E+006, +8.85729658138E+000, +1.32758529234E+002
+8.60567612688E+006, +8.85355245797E+000, +1.35480298049E+002
+8.77245409015E+006, +8.90562608690E+000, +1.38113254129E+002
+8.93923205342E+006, +8.96659882636E+000, +1.40881871646E+002
+9.10601001669E+006, +8.97595379111E+000, +1.43705553343E+002
+9.27278797997E+006, +9.00814730991E+000, +1.46455029874E+002
+9.43956594324E+006, +9.07882352275E+000, +1.49033564045E+002
+9.60634390651E+006, +8.96472930928E+000, +1.51890897179E+002
+9.77312186978E+006, +8.94609578226E+000, +1.54697949093E+002
+9.93989983306E+006, +9.15698113386E+000, +1.57451741666E+002
+1.01066777963E+007, +9.03416620706E+000, +1.60090515401E+002
+1.02734557596E+007, +8.98452004497E+000, +1.63028736311E+002
+1.04402337229E+007, +9.02345794048E+000, +1.65697588029E+002
+1.06070116861E+007, +9.05339814371E+000, +1.68476391788E+002
+1.07737896494E+007, +9.19968148560E+000, +1.71345364803E+002
+1.09405676127E+007, +9.28184724653E+000, +1.74175652296E+002
+1.11073455760E+007, +9.35427797838E+000, +1.77125454129E+002
+1.12741235392E+007, +9.30460787929E+000, +1.79779954849E+002
+1.14409015025E+007, +9.42845417809E+000, +1.82794234746E+002
+1.16076794658E+007, +9.52178627132E+000, +1.85434508283E+002
+1.17744574290E+007, +9.49969190350E+000, +1.88461464997E+002
+1.19412353923E+007, +9.58362383625E+000, +1.91125249334E+002
+1.21080133556E+007, +9.29794030607E+000, +1.94269125758E+002
+1.22747913189E+007, +9.42157414234E+000, +1.96994269448E+002
+1.24415692821E+007, +9.49339974580E+000, +1.99889920263E+002
+1.26083472454E+007, +9.45083415019E+000, +2.02765434555E+002
+1.27751252087E+007, +9.54650938293E+000, +2.05384781783E+002
+1.29419031720E+007, +9.49294864380E+000, +2.08363530700E+002
+1.31086811352E+007, +9.78555605695E+000, +2.11208334756E+002
+1.32754590985E+007, +9.77599674768E+000, +2.14316258320E+002
+1.34422370618E+007, +9.72158261077E+000, +2.17124055221E+002
+1.36090150250E+007, +1.02440992896E+001, +2.20243266814E+002
+1.37757929883E+007, +9.85739599335E+000, +2.23220376078E+002
+1.39425709516E+007, +9.97616641071E+000, +2.26202825715E+002
+1.41093489149E+007, +9.98231070700E+000, +2.28955013839E+002
+1.42761268781E+007, +1.02929550724E+001, +2.31938826773E+002
+1.44429048414E+007, +1.02112550725E+001, +2.35024107764E+002
+1.46096828047E+007, +1.00837552315E+001, +2.38067825622E+002
+1.47764607679E+007, +1.06493256398E+001, +2.40801296983E+002
+1.49432387312E+007, +1.04466147911E+001, +2.44042179786E+002
+1.51100166945E+007, +1.03474581616E+001, +2.47313091725E+002
+1.52767946578E+007, +1.07459482185E+001, +2.50060538243E+002
+1.54435726210E+007, +1.07785348767E+001, +2.52839027370E+002
+1.56103505843E+007, +1.09207435125E+001, +2.55940479665E+002
+1.57771285476E+007, +1.10409209260E+001, +2.59091164169E+002
+1.59439065109E+007, +1.09331100413E+001, +2.62364772333E+002
+1.61106844741E+007, +1.09751878208E+001, +2.65507163211E+002
+1.62774624374E+007, +1.12589314831E+001, +2.68011155228E+002
+1.64442404007E+007, +1.09400031961E+001, +2.71536690007E+002
+1.66110183639E+007, +1.14361103961E+001, +2.74689892149E+002
+1.67777963272E+007, +1.11932676781E+001, +2.77947792933E+002
+1.69445742905E+007, +1.16794227075E+001, +2.80790693178E+002
+1.71113522538E+007, +1.07887323008E+001, +2.84057993836E+002
+1.72781302170E+007, +1.12653040183E+001, +2.87163420727E+002
+1.74449081803E+007, +1.09743503545E+001, +2.90408635278E+002
+1.76116861436E+007, +1.19614354044E+001, +2.93484626981E+002
+1.77784641068E+007, +1.15149515897E+001, +2.96444734024E+002
+1.79452420701E+007, +1.17766991412E+001, +3.00063223713E+002
+1.81120200334E+007, +1.19520353872E+001, +3.02809869225E+002
+1.82787979967E+007, +1.23340221859E+001, +3.06522722713E+002
+1.84455759599E+007, +1.26275799585E+001, +3.09657805830E+002
+1.86123539232E+007, +1.25624304316E+001, +3.12954457971E+002
+1.87791318865E+007, +1.23580983639E+001, +3.16087883439E+002
+1.89459098497E+007, +1.21360277151E+001, +3.19893350294E+002
+1.91126878130E+007, +1.29250318590E+001, +3.22686609785E+002
+1.92794657763E+007, +1.25309711826E+001, +3.26147780101E+002
+1.94462437396E+007, +1.29738505570E+001, +3.30046115314E+002
+1.96130217028E+007, +1.30192433328E+001, +3.33681175248E+002
+1.97797996661E+007, +1.28366635727E+001, +3.36453097217E+002
+1.99465776294E+007, +1.24131645799E+001, +3.39677127029E+002
+2.01133555927E+007, +1.25463579526E+001, +3.43363477982E+002
+2.02801335559E+007, +1.32166754575E+001, +3.47475212700E+002
+2.04469115192E+007, +1.33982057221E+001, +3.50032821909E+002
+2.06136894825E+007, +1.32731527456E+001, +3.54472350881E+002
+2.07804674457E+007, +1.37722260363E+001, +3.57833827111E+002
+2.09472454090E+007, +1.29725271388E+001, +3.61515923312E+002
+2.11140233723E+007, +1.39815250694E+001, +3.64036917152E+002
+2.12808013356E+007, +1.43347317827E+001, +3.67439650992E+002
+2.14475792988E+007, +1.41905801100E+001, +3.71618530240E+002
+2.16143572621E+007, +1.50382533392E+001, +3.75024022786E+002
+2.17811352254E+007, +1.53633566271E+001, +3.78518771311E+002
+2.19479131886E+007, +1.52312850868E+001, +3.82575273832E+002
+2.21146911519E+007, +1.55213528483E+001, +3.85466911199E+002
+2.22814691152E+007, +1.51431723849E+001, +3.89421154716E+002
+2.24482470785E+007, +1.50432067389E+001, +3.93619439128E+002
+2.26150250417E+007, +1.60437378917E+001, +3.98139626001E+002
+2.27818030050E+007, +1.57361905013E+001, +4.00557164804E+002
+2.29485809683E+007, +1.73948923529E+001, +4.05077454316E+002
+2.31153589316E+007, +1.61724786433E+001, +4.09110111068E+002
+2.32821368948E+007, +1.75113144737E+001, +4.12170692300E+002
+2.34489148581E+007, +1.77224711393E+001, +4.16125218668E+002
+2.36156928214E+007, +1.82662065389E+001, +4.20319888424E+002
+2.37824707846E+007, +1.81058896051E+001, +4.25284776735E+002
+2.39492487479E+007, +1.85410502324E+001, +4.27579125459E+002
+2.41160267112E+007, +1.89404709773E+001, +4.31612472565E+002
+2.42828046745E+007, +1.87134992773E+001, +4.35443213548E+002
+2.44495826377E+007, +1.99678592030E+001, +4.39993486296E+002
+2.46163606010E+007, +1.96884995303E+001, +4.43332351488E+002
+2.47831385643E+007, +1.98479748058E+001, +4.46714764328E+002
+2.49499165275E+007, +2.12659651063E+001, +4.51646664093E+002
+2.51166944908E+007, +2.22016056472E+001, +4.54768169638E+002
+2.52834724541E+007, +2.15288178396E+001, +4.58804475661E+002
+2.54502504174E+007, +2.27124843510E+001, +4.62774627694E+002
+2.56170283806E+007, +2.16638320423E+001, +4.67171250911E+002
+2.57838063439E+007, +2.25474126614E+001, +4.71943822035E+002
+2.59505843072E+007, +2.30111078090E+001, +4.76162079058E+002
+2.61173622705E+007, +2.30698578638E+001, +4.79093062319E+002
+2.62841402337E+007, +2.42342028229E+001, +4.82507491671E+002
+2.64509181970E+007, +2.30433802578E+001, +4.87888560273E+002
+2.66176961603E+007, +2.35264521636E+001, +4.92968784138E+002
+2.67844741235E+007, +2.53165936971E+001, +4.96365350787E+002
+2.69512520868E+007, +2.53170153789E+001, +5.00255335694E+002
+2.71180300501E+007, +2.48775952387E+001, +5.03070007817E+002
+2.72848080134E+007, +2.54256849455E+001, +5.08028354478E+002
+2.74515859766E+007, +2.60158027679E+001, +5.11976256063E+002
+2.76183639399E+007, +2.58561313058E+001, +5.17677347478E+002
+2.77851419032E+007, +2.55384754372E+001, +5.20439368474E+002
+2.79519198664E+007, +2.71525470028E+001, +5.24016521089E+002
+2.81186978297E+007, +2.70492290590E+001, +5.27517132921E+002
+2.82854757930E+007, +2.62631108957E+001, +5.32635141701E+002
+2.84522537563E+007, +2.51449725291E+001, +5.38091993800E+002
+2.86190317195E+007, +2.53769275712E+001, +5.42062714808E+002
+2.87858096828E+007, +2.77618504410E+001, +5.46223502034E+002
+2.89525876461E+007, +2.69542699713E+001, +5.50715968023E+002
+2.91193656093E+007, +2.69672548970E+001, +5.52811654535E+002
+2.92861435726E+007, +2.64543931640E+001, +5.60031118643E+002
+2.94529215359E+007, +2.70816431184E+001, +5.65395188650E+002
+2.96196994992E+007, +2.66780957237E+001, +5.69448171978E+002
+2.97864774624E+007, +2.85284597202E+001, +5.74439624387E+002
+2.99532554257E+007, +2.90537901934E+001, +5.79708212235E+002
+3.01200333890E+007, +2.73081426007E+001, +5.84585610151E+002
+3.02868113523E+007, +2.69043134836E+001, +5.90529331344E+002
+3.04535893155E+007, +2.76408382558E+001, +5.96425764533E+002
+3.06203672788E+007, +2.79501588515E+001, +6.00383333002E+002
+3.07871452421E+007, +2.69489365575E+001, +6.04092898404E+002
+3.09539232053E+007, +2.75432222398E+001, +6.09960170386E+002
+3.11207011686E+007, +2.64659636539E+001, +6.18030376779E+002
+3.12874791319E+007, +2.85143845707E+001, +6.19515643099E+002
+3.14542570952E+007, +2.78723354321E+001, +6.26986934449E+002
+3.16210350584E+007, +2.74099531277E+001, +6.32857511007E+002
+3.17878130217E+007, +2.77270283389E+001, +6.37159213041E+002
+3.19545909850E+007, +2.79000937927E+001, +6.44814343313E+002
+3.21213689482E+007, +2.72559611500E+001, +6.51639977261E+002
+3.22881469115E+007, +2.70190273853E+001, +6.54492206220E+002
+3.24549248748E+007, +2.84393215922E+001, +6.61382652863E+002
+3.26217028381E+007, +2.75925086199E+001, +6.68330936486E+002
+3.27884808013E+007, +2.96898029396E+001, +6.73036524361E+002
+3.29552587646E+007, +2.90983321278E+001, +6.79275027634E+002
+3.31220367279E+007, +3.06986072732E+001, +6.82225914684E+002
+3.32888146912E+007, +2.78980847323E+001, +6.94277029047E+002
+3.34555926544E+007, +2.86948214139E+001, +6.97270608646E+002
+3.36223706177E+007, +2.99997719948E+001, +7.02998359964E+002
+3.37891485810E+007, +2.87662368730E+001, +7.08105750534E+002
+3.39559265442E+007, +3.13825783443E+001, +7.16767244338E+002
+3.41227045075E+007, +3.11032676062E+001, +7.20178980248E+002
+3.42894824708E+007, +3.11481580916E+001, +7.28304686777E+002
+3.44562604341E+007, +3.18761060548E+001, +7.35100822598E+002
+3.46230383973E+007, +3.40213483780E+001, +7.45081964467E+002
+3.47898163606E+007, +3.36608898725E+001, +7.47496515207E+002
+3.49565943239E+007, +3.37888031920E+001, +7.54473320782E+002
+3.51233722871E+007, +3.40392872617E+001, +7.63164683835E+002
+3.52901502504E+007, +3.63431853531E+001, +7.68389753781E+002
+3.54569282137E+007, +3.39988492439E+001, +7.77306820905E+002
+3.56237061770E+007, +3.16819866307E+001, +7.84047071346E+002
+3.57904841402E+007, +3.27653020133E+001, +7.91087007351E+002
+3.59572621035E+007, +3.68718397119E+001, +7.97931179897E+002
+3.61240400668E+007, +3.78129722331E+001, +8.04916577003E+002
+3.62908180301E+007, +3.81943848388E+001, +8.15114299188E+002
+3.64575959933E+007, +3.64426614321E+001, +8.20485505543E+002
+3.66243739566E+007, +3.76701734843E+001, +8.28617440283E+002
+3.67911519199E+007, +3.97655937008E+001, +8.38486270499E+002
+3.69579298831E+007, +3.84461977280E+001, +8.42746668537E+002
+3.71247078464E+007, +3.95529189083E+001, +8.55608446206E+002
+3.72914858097E+007, +3.92678043988E+001, +8.64167573516E+002
+3.74582637730E+007, +4.21157713298E+001, +8.72235180625E+002
+3.76250417362E+007, +4.52910499555E+001, +8.82575027965E+002
+3.77918196995E+007, +4.25058168057E+001, +8.89794087153E+002
+3.79585976628E+007, +3.99045745774E+001, +8.96216035848E+002
+3.81253756260E+007, +4.28996522643E+001, +9.05161720102E+002
+3.82921535893E+007, +4.70405271618E+001, +9.13918675074E+002
+3.84589315526E+007, +4.43310833511E+001, +9.24562049830E+002
+3.86257095159E+007, +4.58898790481E+001, +9.36255160198E+002
+3.87924874791E+007, +4.67493448166E+001, +9.43711153666E+002
+3.89592654424E+007, +5.06250445360E+001, +9.51941518012E+002
+3.91260434057E+007, +4.81369365824E+001, +9.67563298546E+002
+3.92928213689E+007, +4.74171178781E+001, +9.72325556016E+002
+3.94595993322E+007, +4.86677566961E+001, +9.85406657586E+002
+3.96263772955E+007, +5.01509538435E+001, +9.94618970274E+002
+3.97931552588E+007, +4.99264378070E+001, +1.00471031258E+003
+3.99599332220E+007, +5.09366222745E+001, +1.01547668548E+003
+4.01267111853E+007, +5.20398371597E+001, +1.02854262222E+003
+4.02934891486E+007, +5.40365668088E+001, +1.03583275606E+003
+4.04602671119E+007, +5.66170369774E+001, +1.04339474342E+003
+4.06270450751E+007, +5.95900855696E+001, +1.06226340981E+003
+4.07938230384E+007, +6.11952538393E+001, +1.07198099912E+003
+4.09606010017E+007, +5.71377675863E+001, +1.08706579440E+003
+4.11273789649E+007, +6.28167590803E+001, +1.09133012681E+003
+4.12941569282E+007, +6.23412561267E+001, +1.10851365019E+003
+4.14609348915E+007, +6.58558856952E+001, +1.12763946368E+003
+4.16277128548E+007, +7.04972765803E+001, +1.13302029371E+003
+4.17944908180E+007, +7.06063691037E+001, +1.14319757359E+003
+4.19612687813E+007, +7.13444410578E+001, +1.15971732885E+003
+4.21280467446E+007, +7.47087871367E+001, +1.17699908924E+003
+4.22948247078E+007, +7.78075415904E+001, +1.18901911246E+003
+4.24616026711E+007, +8.19150986267E+001, +1.19894769991E+003
+4.26283806344E+007, +8.11490071642E+001, +1.21732191082E+003
+4.27951585977E+007, +7.34848392843E+001, +1.23519800498E+003
+4.29619365609E+007, +8.75339816427E+001, +1.24757883938E+003
+4.31287145242E+007, +9.11794100335E+001, +1.26314143350E+003
+4.32954924875E+007, +8.56041637437E+001, +1.27924485596E+003
+4.34622704508E+007, +8.81094726990E+001, +1.30364756881E+003
+4.36290484140E+007, +1.04129235282E+002, +1.31944518387E+003
+4.37958263773E+007, +9.92287623617E+001, +1.34378537114E+003
+4.39626043406E+007, +1.07493867662E+002, +1.34753271669E+003
+4.41293823038E+007, +1.11322195822E+002, +1.37158452041E+003
+4.42961602671E+007, +1.10801383673E+002, +1.39267776094E+003
+4.44629382304E+007, +1.13411632670E+002, +1.41405307507E+003
+4.46297161937E+007, +1.25586914236E+002, +1.42848607210E+003
+4.47964941569E+007, +1.22140247526E+002, +1.45470863471E+003
+4.49632721202E+007, +1.27714008995E+002, +1.47803367908E+003
+4.51300500835E+007, +1.41198371696E+002, +1.48455934942E+003
+4.52968280467E+007, +1.48600894332E+002, +1.51762946538E+003
+4.54636060100E+007, +1.51300186252E+002, +1.53570990633E+003
+4.56303839733E+007, +1.57422686027E+002, +1.54965939898E+003
+4.57971619366E+007, +1.60082157555E+002, +1.58325946393E+003
+4.59639398998E+007, +1.78632244070E+002, +1.62167693446E+003
+4.61307178631E+007, +1.98945535795E+002, +1.63874308190E+003
+4.62974958264E+007, +2.10052412159E+002, +1.65936097217E+003
+4.64642737896E+007, +2.00718684329E+002, +1.67950890479E+003
+4.66310517529E+007, +2.16950532223E+002, +1.71886978779E+003
+4.67978297162E+007, +2.46976923780E+002, +1.73263857544E+003
+4.69646076795E+007, +2.52513667276E+002, +1.76906217083E+003
+4.71313856427E+007, +2.71016921359E+002, +1.79210617718E+003
+4.72981636060E+007, +2.80290958605E+002, +1.83118679990E+003
+4.74649415693E+007, +3.00270671567E+002, +1.85460517340E+003
+4.76317195326E+007, +3.33832757896E+002, +1.87512538073E+003
+4.77984974958E+007, +3.46668213753E+002, +1.90721144822E+003
+4.79652754591E+007, +3.62070712014E+002, +1.92564023531E+003
+4.81320534224E+007, +3.94781195565E+002, +1.95004150668E+003
+4.82988313856E+007, +4.11817544755E+002, +1.98525760681E+003
+4.84656093489E+007, +4.45193204268E+002, +2.01660136829E+003
+4.86323873122E+007, +4.82800703095E+002, +2.02555004950E+003
+4.87991652755E+007, +5.01862761484E+002, +2.06211762805E+003
+4.89659432387E+007, +5.29748972952E+002, +2.06745970356E+003
+4.91327212020E+007, +5.76581239271E+002, +2.10243541886E+003
+4.92994991653E+007, +6.09412643189E+002, +2.09557784429E+003
+4.94662771285E+007, +6.38591019133E+002, +2.12979909911E+003
+4.96330550918E+007, +6.74978816578E+002, +2.11767858342E+003
+4.97998330551E+007, +6.86389774704E+002, +2.12444943638E+003
+4.99666110184E+007, +7.30246244211E+002, +2.13311421399E+003
+5.01333889816E+007, +7.32762600024E+002, +2.15487676510E+003
+5.03001669449E+007, +7.39962535582E+002, +2.16244360654E+003
+5.04669449082E+007, +7.63033391965E+002, +2.17682439541E+003
+5.06337228715E+007, +7.87154434665E+002, +2.15994042193E+003
+5.08005008347E+007, +7.53599174502E+002, +2.19395541141E+003
+5.09672787980E+007, +7.76556306750E+002, +2.18063269268E+003
+5.11340567613E+007, +7.78696859825E+002, +2.21388655926E+003
+5.13008347245E+007, +7.48740595956E+002, +2.26779028693E+003
+5.14676126878E+007, +7.57478955449E+002, +2.31240385205E+003
+5.16343906511E+007, +7.84199767575E+002, +2.35018184446E+003
+5.18011686144E+007, +7.59709000535E+002, +2.39997643937E+003
+5.19679465776E+007, +7.58540955837E+002, +2.44627562075E+003
+5.21347245409E+007, +7.81001376512E+002, +2.49802052472E+003
+5.23015025042E+007, +8.22569718332E+002, +2.60669775077E+003
+5.24682804674E+007, +7.80516533750E+002, +2.67122509154E+003
+5.26350584307E+007, +8.28353312224E+002, +2.72306997204E+003
+5.28018363940E+007, +8.52377880059E+002, +2.80076712431E+003
+5.29686143573E+007, +8.77837876401E+002, +2.92071033804E+003
+5.31353923205E+007, +8.94040871428E+002, +2.96267034923E+003
+5.33021702838E+007, +9.17131461180E+002, +3.11207695738E+003
+5.34689482471E+007, +9.99771089104E+002, +3.15339937049E+003
