"# Channel 1"
"# Trace 1"
Frequency, Formatted Data, Formatted Data
+1.00000000000E+005, +5.66597135790E-001, +1.72712220253E+000
+2.25031289111E+005, +5.30898569368E-001, +3.80955545213E+000
+3.50062578223E+005, +5.53304889654E-001, +5.97354897273E+000
+4.75093867334E+005, +6.01773916359E-001, +8.05036600301E+000
+6.00125156446E+005, +5.90924011045E-001, +1.01563481791E+001
+7.25156445557E+005, +5.86449438144E-001, +1.22989227363E+001
+8.50187734668E+005, +6.11844453601E-001, +1.43663661134E+001
+9.75219023780E+005, +6.78969714456E-001, +1.64620852257E+001
+1.10025031289E+006, +6.79698739424E-001, +1.85309586867E+001
+1.22528160200E+006, +7.12120686147E-001, +2.06479205279E+001
+1.35031289111E+006, +7.04886294943E-001, +2.27467136634E+001
+1.47534418023E+006, +7.40698285768E-001, +2.48024823603E+001
+1.60037546934E+006, +7.73669720045E-001, +2.68690214635E+001
+1.72540675845E+006, +7.61764748142E-001, +2.89495845438E+001
+1.85043804756E+006, +8.53232630934E-001, +3.10344100006E+001
+1.97546933667E+006, +8.50609395120E-001, +3.31467898054E+001
+2.10050062578E+006, +8.46624727248E-001, +3.51608235894E+001
+2.22553191489E+006, +8.55722808211E-001, +3.72115992280E+001
+2.35056320401E+006, +8.75955917871E-001, +3.93559363502E+001
+2.47559449312E+006, +8.89832416589E-001, +4.13585417343E+001
+2.60062578223E+006, +8.40954239780E-001, +4.34534271336E+001
+2.72565707134E+006, +8.77511317691E-001, +4.55288680701E+001
+2.85068836045E+006, +8.91075926518E-001, +4.75923211787E+001
+2.97571964956E+006, +9.94398640569E-001, +4.97102192004E+001
+3.10075093867E+006, +8.68797613326E-001, +5.17712879294E+001
+3.22578222778E+006, +9.34896782720E-001, +5.38440862636E+001
+3.35081351690E+006, +1.00089347910E+000, +5.59339117056E+001
+3.47584480601E+006, +1.01763693322E+000, +5.80334119728E+001
+3.60087609512E+006, +9.28875394535E-001, +6.01199891452E+001
+3.72590738423E+006, +9.25314934842E-001, +6.21236102482E+001
+3.85093867334E+006, +9.88309757550E-001, +6.43179095197E+001
+3.97596996245E+006, +9.86254452159E-001, +6.63183207496E+001
+4.10100125156E+006, +1.03577960473E+000, +6.84488016906E+001
+4.22603254068E+006, +9.14218987480E-001, +7.05220703543E+001
+4.35106382979E+006, +9.52343741815E-001, +7.25361482093E+001
+4.47609511890E+006, +8.87522977855E-001, +7.46272649934E+001
+4.60112640801E+006, +9.16131141825E-001, +7.67018027885E+001
+4.72615769712E+006, +1.01187278857E+000, +7.87576098084E+001
+4.85118898623E+006, +1.03365824493E+000, +8.08674386689E+001
+4.97622027534E+006, +1.02763308778E+000, +8.29884850476E+001
+5.10125156446E+006, +1.04301721472E+000, +8.49823900998E+001
+5.22628285357E+006, +1.05231150131E+000, +8.71334821002E+001
+5.35131414268E+006, +1.04584549071E+000, +8.90647028492E+001
+5.47634543179E+006, +9.72102895154E-001, +9.13113942230E+001
+5.60137672090E+006, +1.06122388315E+000, +9.34597745858E+001
+5.72640801001E+006, +1.09408498293E+000, +9.54672101767E+001
+5.85143929912E+006, +1.18744143532E+000, +9.76779308635E+001
+5.97647058824E+006, +1.20789100903E+000, +9.97360212174E+001
+6.10150187735E+006, +1.22346427250E+000, +1.01630245828E+002
+6.22653316646E+006, +1.16434016001E+000, +1.03943621183E+002
+6.35156445557E+006, +1.21050213007E+000, +1.05961032650E+002
+6.47659574468E+006, +1.15739702656E+000, +1.08046803616E+002
+6.60162703379E+006, +1.21827652151E+000, +1.10104438780E+002
+6.72665832290E+006, +1.20154896487E+000, +1.12186244005E+002
+6.85168961202E+006, +1.23599153299E+000, +1.14294373854E+002
+6.97672090113E+006, +1.26600140427E+000, +1.16476575741E+002
+7.10175219024E+006, +1.32571304684E+000, +1.18492070837E+002
+7.22678347935E+006, +1.30224732437E+000, +1.20691216031E+002
+7.35181476846E+006, +1.30172824318E+000, +1.22786453567E+002
+7.47684605757E+006, +1.35818976817E+000, +1.24745632348E+002
+7.60187734668E+006, +1.37502971936E+000, +1.26859177435E+002
+7.72690863579E+006, +1.36839283828E+000, +1.28912324662E+002
+7.85193992491E+006, +1.22320348802E+000, +1.31076248647E+002
+7.97697121402E+006, +1.32210857242E+000, +1.33205315890E+002
+8.10200250313E+006, +1.43306093045E+000, +1.35282928143E+002
+8.22703379224E+006, +1.35848665673E+000, +1.37367741065E+002
+8.35206508135E+006, +1.46014671524E+000, +1.39462383153E+002
+8.47709637046E+006, +1.35033347831E+000, +1.41580322587E+002
+8.60212765957E+006, +1.28827107656E+000, +1.43673771859E+002
+8.72715894869E+006, +1.34798105748E+000, +1.45674185969E+002
+8.85219023780E+006, +1.38056371348E+000, +1.47697121191E+002
+8.97722152691E+006, +1.41519729628E+000, +1.49979865005E+002
+9.10225281602E+006, +1.37399745125E+000, +1.52030790021E+002
+9.22728410513E+006, +1.32020580267E+000, +1.54121050223E+002
+9.35231539424E+006, +1.32109243878E+000, +1.56205516452E+002
+9.47734668335E+006, +1.54486212038E+000, +1.58417751920E+002
+9.60237797247E+006, +1.33512410517E+000, +1.60301492816E+002
+9.72740926158E+006, +1.50395479419E+000, +1.62435925111E+002
+9.85244055069E+006, +1.44845472143E+000, +1.64732339714E+002
+9.97747183980E+006, +1.33047215007E+000, +1.66790926460E+002
+1.01025031289E+007, +1.39307700341E+000, +1.68694587625E+002
+1.02275344180E+007, +1.38420672278E+000, +1.71033623965E+002
+1.03525657071E+007, +1.37384443396E+000, +1.72937586311E+002
+1.04775969962E+007, +1.39023229066E+000, +1.75110430060E+002
+1.06026282854E+007, +1.38164455740E+000, +1.77233700387E+002
+1.07276595745E+007, +1.48181628235E+000, +1.79584297238E+002
+1.08526908636E+007, +1.22472813406E+000, +1.81570695279E+002
+1.09777221527E+007, +1.26383034136E+000, +1.83704724393E+002
+1.11027534418E+007, +1.30539605868E+000, +1.85692349160E+002
+1.12277847309E+007, +1.43624777534E+000, +1.88055467763E+002
+1.13528160200E+007, +1.07565796207E+000, +1.89877995839E+002
+1.14778473091E+007, +1.55658086258E+000, +1.91808616769E+002
+1.16028785982E+007, +1.40501937504E+000, +1.93819067571E+002
+1.17279098874E+007, +1.34523651999E+000, +1.96409220548E+002
+1.18529411765E+007, +1.27002830763E+000, +1.98351298386E+002
+1.19779724656E+007, +1.30669591283E+000, +2.00510562314E+002
+1.21030037547E+007, +1.28941867677E+000, +2.02462201212E+002
+1.22280350438E+007, +1.34600327998E+000, +2.04981236059E+002
+1.23530663329E+007, +1.60709442221E+000, +2.07055572347E+002
+1.24780976220E+007, +1.51514173220E+000, +2.09081714756E+002
+1.26031289111E+007, +1.43559669511E+000, +2.10990190728E+002
+1.27281602003E+007, +1.39327912098E+000, +2.13087376698E+002
+1.28531914894E+007, +1.45836834789E+000, +2.14833277826E+002
+1.29782227785E+007, +1.23211274294E+000, +2.17337892613E+002
+1.31032540676E+007, +1.70409002533E+000, +2.19679527331E+002
+1.32282853567E+007, +1.66196014092E+000, +2.21650629625E+002
+1.33533166458E+007, +1.53653100377E+000, +2.23920351234E+002
+1.34783479349E+007, +1.41388271752E+000, +2.25844168902E+002
+1.36033792240E+007, +1.48660964354E+000, +2.28215870796E+002
+1.37284105131E+007, +1.33983647836E+000, +2.30280212814E+002
+1.38534418023E+007, +1.33591037122E+000, +2.32493824499E+002
+1.39784730914E+007, +1.32128324697E+000, +2.34508101020E+002
+1.41035043805E+007, +1.35568014749E+000, +2.36779053754E+002
+1.42285356696E+007, +1.43052180983E+000, +2.39276892862E+002
+1.43535669587E+007, +1.52157252312E+000, +2.40932266320E+002
+1.44785982478E+007, +1.51061093062E+000, +2.43226027799E+002
+1.46036295369E+007, +1.52672350122E+000, +2.45489432779E+002
+1.47286608260E+007, +1.46212802815E+000, +2.47348169938E+002
+1.48536921151E+007, +1.48350987648E+000, +2.49874055830E+002
+1.49787234043E+007, +1.41215083253E+000, +2.51774009102E+002
+1.51037546934E+007, +1.51324093574E+000, +2.53928145548E+002
+1.52287859825E+007, +1.36515588416E+000, +2.56408202901E+002
+1.53538172716E+007, +8.19520435927E-001, +2.58079561484E+002
+1.54788485607E+007, +1.57247404787E+000, +2.60459370356E+002
+1.56038798498E+007, +1.23697740038E+000, +2.62731041134E+002
+1.57289111389E+007, +1.43150579302E+000, +2.64433922051E+002
+1.58539424280E+007, +1.43243539869E+000, +2.66821741387E+002
+1.59789737171E+007, +1.19838912029E+000, +2.68954430764E+002
+1.61040050063E+007, +1.72818350750E+000, +2.71143473354E+002
+1.62290362954E+007, +1.30866512415E+000, +2.73212661710E+002
+1.63540675845E+007, +1.23788232638E+000, +2.75236783371E+002
+1.64790988736E+007, +1.87404548958E+000, +2.78194624756E+002
+1.66041301627E+007, +1.83948927522E+000, +2.80057135539E+002
+1.67291614518E+007, +1.59531928302E+000, +2.81795682342E+002
+1.68541927409E+007, +1.23692102309E+000, +2.84177228273E+002
+1.69792240300E+007, +1.29940674677E+000, +2.86532051610E+002
+1.71042553191E+007, +8.71495495468E-001, +2.88460846343E+002
+1.72292866083E+007, +1.08482368181E+000, +2.90799542438E+002
+1.73543178974E+007, +1.53097970858E+000, +2.92710549921E+002
+1.74793491865E+007, +1.19928910263E+000, +2.95257139163E+002
+1.76043804756E+007, +1.20902610709E+000, +2.97390313040E+002
+1.77294117647E+007, +1.39527302221E+000, +2.99928864747E+002
+1.78544430538E+007, +6.13505506166E-001, +3.01629375397E+002
+1.79794743429E+007, +1.08576824751E+000, +3.03701603406E+002
+1.81045056320E+007, +1.12652851328E+000, +3.06908876984E+002
+1.82295369212E+007, +1.18793500609E+000, +3.08449144673E+002
+1.83545682103E+007, +1.10194973620E+000, +3.10963522235E+002
+1.84795994994E+007, +1.51772343178E+000, +3.13510543721E+002
+1.86046307885E+007, +1.35971601815E+000, +3.15003937222E+002
+1.87296620776E+007, +1.32195547239E+000, +3.17112778075E+002
+1.88546933667E+007, +1.58421623270E+000, +3.19371513166E+002
+1.89797246558E+007, +1.87316694327E+000, +3.21588113142E+002
+1.91047559449E+007, +1.17923538317E+000, +3.23161933538E+002
+1.92297872340E+007, +1.34279701806E+000, +3.26289049672E+002
+1.93548185232E+007, +1.68289362072E+000, +3.28338229782E+002
+1.94798498123E+007, +1.05864290880E+000, +3.31437001673E+002
+1.96048811014E+007, +1.48280842978E+000, +3.33126685798E+002
+1.97299123905E+007, +1.54261329206E+000, +3.35232151664E+002
+1.98549436796E+007, +1.38700939176E+000, +3.36445327423E+002
+1.99799749687E+007, +1.15589717257E+000, +3.39454460495E+002
+2.01050062578E+007, +1.34632005899E+000, +3.41993411564E+002
+2.02300375469E+007, +1.17803124023E+000, +3.43643194637E+002
+2.03550688360E+007, +1.56711836733E+000, +3.46222029132E+002
+2.04801001252E+007, +1.38711413178E+000, +3.48565542499E+002
+2.06051314143E+007, +1.71268418753E+000, +3.50810596621E+002
+2.07301627034E+007, +1.61578249567E+000, +3.52572293408E+002
+2.08551939925E+007, +2.05459872914E+000, +3.55334483806E+002
+2.09802252816E+007, +2.09395390962E+000, +3.57554126576E+002
+2.11052565707E+007, +1.15931467489E+000, +3.60553304563E+002
+2.12302878598E+007, +1.82144057566E+000, +3.62291603193E+002
+2.13553191489E+007, +5.57876856437E-001, +3.64932888414E+002
+2.14803504380E+007, +1.48655470330E+000, +3.66966322426E+002
+2.16053817272E+007, +1.34512848482E+000, +3.69423509702E+002
+2.17304130163E+007, +1.01291544688E+000, +3.71081604256E+002
+2.18554443054E+007, +7.67140061869E-001, +3.73358542542E+002
+2.19804755945E+007, +1.37056131472E+000, +3.75713855193E+002
+2.21055068836E+007, +2.09661218478E+000, +3.77608611310E+002
+2.22305381727E+007, +8.65685949646E-001, +3.80632135322E+002
+2.23555694618E+007, +1.55368001357E+000, +3.82675121922E+002
+2.24806007509E+007, +1.95973935634E+000, +3.85441390505E+002
+2.26056320401E+007, +2.70672749687E+000, +3.87894412300E+002
+2.27306633292E+007, +1.27122868452E+000, +3.89989764737E+002
+2.28556946183E+007, +2.58239983958E+000, +3.92289451773E+002
+2.29807259074E+007, +2.27397471846E+000, +3.94549682999E+002
+2.31057571965E+007, +2.58656612996E+000, +3.96436910249E+002
+2.32307884856E+007, +2.84827666778E+000, +3.98544283626E+002
+2.33558197747E+007, +1.42112771004E+000, +4.01579878395E+002
+2.34808510638E+007, +2.44398103081E+000, +4.03003292051E+002
+2.36058823529E+007, +2.80525824976E+000, +4.06164746054E+002
+2.37309136421E+007, +2.76339272936E+000, +4.08133989241E+002
+2.38559449312E+007, +3.06613570706E+000, +4.10188671253E+002
+2.39809762203E+007, +3.09818923257E+000, +4.13262460655E+002
+2.41060075094E+007, +1.70498118561E+000, +4.14823121247E+002
+2.42310387985E+007, +2.41763506936E+000, +4.18025776267E+002
+2.43560700876E+007, +2.64215216211E+000, +4.19133145765E+002
+2.44811013767E+007, +2.05927545459E+000, +4.22690971949E+002
+2.46061326658E+007, +3.29751856274E+000, +4.23908362086E+002
+2.47311639549E+007, +2.30211409321E+000, +4.26470622051E+002
+2.48561952441E+007, +2.75343920370E+000, +4.29151570927E+002
+2.49812265332E+007, +2.43087199223E+000, +4.30984137517E+002
+2.51062578223E+007, +2.86374375267E+000, +4.33993382616E+002
+2.52312891114E+007, +3.36862756099E+000, +4.35776695898E+002
+2.53563204005E+007, +2.44611856085E+000, +4.38336582315E+002
+2.54813516896E+007, +2.56335320749E+000, +4.39961087775E+002
+2.56063829787E+007, +3.49159756935E+000, +4.42129575980E+002
+2.57314142678E+007, +2.92168155436E+000, +4.45134351968E+002
+2.58564455569E+007, +2.36835947117E+000, +4.46675537292E+002
+2.59814768461E+007, +2.26931288429E+000, +4.49546926520E+002
+2.61065081352E+007, +3.19281412137E+000, +4.51338445509E+002
+2.62315394243E+007, +2.77163613348E+000, +4.54791780625E+002
+2.63565707134E+007, +2.61975186969E+000, +4.57386643403E+002
+2.64816020025E+007, +1.30026945984E+000, +4.59614705365E+002
+2.66066332916E+007, +2.40189921609E+000, +4.61448306445E+002
+2.67316645807E+007, +2.73393546536E+000, +4.62720403550E+002
+2.68566958698E+007, +2.90617233833E+000, +4.67670361625E+002
+2.69817271589E+007, +1.97678632901E+000, +4.70196025013E+002
+2.71067584481E+007, +3.90337449769E+000, +4.71467503701E+002
+2.72317897372E+007, +3.23892526149E+000, +4.74978605955E+002
+2.73568210263E+007, +4.74809739792E+000, +4.75297629690E+002
+2.74818523154E+007, +3.62168355214E+000, +4.78935430689E+002
+2.76068836045E+007, +3.96756495725E+000, +4.80364393184E+002
+2.77319148936E+007, +4.02382980338E+000, +4.83224284233E+002
+2.78569461827E+007, +2.36458151561E+000, +4.86172526843E+002
+2.79819774718E+007, +3.12187590510E+000, +4.87818093862E+002
+2.81070087610E+007, +2.58039074621E+000, +4.90805460842E+002
+2.82320400501E+007, +2.86460957998E+000, +4.93835834512E+002
+2.83570713392E+007, +3.23050747073E+000, +4.96590765658E+002
+2.84821026283E+007, +3.26367840575E+000, +4.99042984532E+002
+2.86071339174E+007, +1.39461946577E+000, +5.01054760598E+002
+2.87321652065E+007, +3.38378446638E+000, +5.03759238693E+002
+2.88571964956E+007, +2.13100056374E+000, +5.04333733770E+002
+2.89822277847E+007, +2.86022442406E+000, +5.08158952368E+002
+2.91072590738E+007, +3.00586730150E+000, +5.10506270659E+002
+2.92322903630E+007, +2.00066592074E+000, +5.14872288215E+002
+2.93573216521E+007, +3.39200731914E+000, +5.15184454733E+002
+2.94823529412E+007, +1.92299952462E+000, +5.18848409973E+002
+2.96073842303E+007, +1.75817389818E+000, +5.21797547359E+002
+2.97324155194E+007, +2.20490732855E+000, +5.22306163635E+002
+2.98574468085E+007, +3.12916088019E+000, +5.26476044946E+002
+2.99824780976E+007, +3.83695633114E+000, +5.28301560888E+002
+3.01075093867E+007, +4.22476752914E+000, +5.31281860146E+002
+3.02325406758E+007, +3.01307480886E+000, +5.33914109708E+002
+3.03575719650E+007, +2.06761624613E+000, +5.35607110532E+002
+3.04826032541E+007, +2.54175312309E+000, +5.38454764838E+002
+3.06076345432E+007, +2.58399395101E+000, +5.42372672058E+002
+3.07326658323E+007, +2.20200284133E+000, +5.44890928991E+002
+3.08576971214E+007, +2.49137729464E+000, +5.47230168255E+002
+3.09827284105E+007, +2.65224706800E+000, +5.50023757451E+002
+3.11077596996E+007, +1.80146551835E+000, +5.52751232808E+002
+3.12327909887E+007, +2.66119059369E+000, +5.53742935994E+002
+3.13578222778E+007, +2.18395997199E+000, +5.58458047466E+002
+3.14828535670E+007, +2.14614318121E+000, +5.60409428154E+002
+3.16078848561E+007, +1.92024963962E+000, +5.63754926845E+002
+3.17329161452E+007, +3.75920216625E+000, +5.63583678796E+002
+3.18579474343E+007, +2.17893891114E+000, +5.66944770766E+002
+3.19829787234E+007, +1.25069582896E+000, +5.71076695258E+002
+3.21080100125E+007, +3.55582143148E+000, +5.73630369969E+002
+3.22330413016E+007, +2.94828614708E+000, +5.76695538593E+002
+3.23580725907E+007, +4.84039111323E-001, +5.78587401830E+002
+3.24831038798E+007, +3.64512389519E+000, +5.82183910408E+002
+3.26081351690E+007, +2.74179265901E+000, +5.83842283364E+002
+3.27331664581E+007, +1.66978799644E+000, +5.88128092994E+002
+3.28581977472E+007, +1.93821992701E+000, +5.90812742694E+002
+3.29832290363E+007, +1.52734780310E+000, +5.92748772200E+002
+3.31082603254E+007, +2.97976684925E+000, +5.95698630474E+002
+3.32332916145E+007, +1.49478832822E+000, +5.98313497125E+002
+3.33583229036E+007, +1.17320360894E+000, +6.01277030033E+002
+3.34833541927E+007, +1.72108934068E+000, +6.02501942975E+002
+3.36083854819E+007, +1.88654588091E+000, +6.08026136602E+002
+3.37334167710E+007, +1.91459266125E+000, +6.07407607526E+002
+3.38584480601E+007, +5.81027936895E-001, +6.12679698501E+002
+3.39834793492E+007, +1.48723381063E+000, +6.14516526587E+002
+3.41085106383E+007, +3.92541902442E+000, +6.17687927516E+002
+3.42335419274E+007, +2.98448406512E+000, +6.19399600836E+002
+3.43585732165E+007, +2.33156015358E+000, +6.23060226775E+002
+3.44836045056E+007, +1.13514974864E+000, +6.25759647451E+002
+3.46086357947E+007, +4.44200543611E+000, +6.28930147297E+002
+3.47336670839E+007, +1.47940203566E+000, +6.32308975774E+002
+3.48586983730E+007, +2.90814973178E+000, +6.33786094443E+002
+3.49837296621E+007, +2.74530537323E+000, +6.36572954102E+002
+3.51087609512E+007, +6.92496193377E-002, +6.41144846128E+002
+3.52337922403E+007, +2.76677458362E+000, +6.42863187683E+002
+3.53588235294E+007, +3.26946723969E+000, +6.46483075037E+002
+3.54838548185E+007, +3.14244304708E+000, +6.49504679890E+002
+3.56088861076E+007, +4.05780379426E+000, +6.52507014171E+002
+3.57339173967E+007, +2.70196311898E+000, +6.56035189268E+002
+3.58589486859E+007, +3.33280025116E+000, +6.56452821115E+002
+3.59839799750E+007, +8.96175583776E-001, +6.59499687299E+002
+3.61090112641E+007, +1.70735789461E+000, +6.64698969681E+002
+3.62340425532E+007, +1.96755526451E+000, +6.66643552592E+002
+3.63590738423E+007, +4.81422703785E+000, +6.70170667290E+002
+3.64841051314E+007, +1.70104612509E+000, +6.71487080142E+002
+3.66091364205E+007, +2.62678086082E+000, +6.75319305879E+002
+3.67341677096E+007, +2.90537471370E+000, +6.78652555074E+002
+3.68591989987E+007, +2.19768480840E+000, +6.85086531324E+002
+3.69842302879E+007, +2.12185148706E+000, +6.86265297668E+002
+3.71092615770E+007, -1.91871920147E-001, +6.89167133531E+002
+3.72342928661E+007, +1.43826484398E+000, +6.92738324838E+002
+3.73593241552E+007, +2.16796732488E+000, +6.93004324358E+002
+3.74843554443E+007, +2.11129038105E+000, +6.98611842621E+002
+3.76093867334E+007, +1.13948303810E+000, +7.01795606969E+002
+3.77344180225E+007, +4.55215667559E+000, +7.04765563089E+002
+3.78594493116E+007, +3.53022830447E+000, +7.06097916184E+002
+3.79844806008E+007, +2.20763600184E+000, +7.10055573537E+002
+3.81095118899E+007, +3.48388346679E+000, +7.13229411593E+002
+3.82345431790E+007, +2.51646641322E+000, +7.17654330983E+002
+3.83595744681E+007, +3.22838083978E+000, +7.19282953168E+002
+3.84846057572E+007, +3.75820253121E+000, +7.24257409894E+002
+3.86096370463E+007, +1.52292214368E+000, +7.27959648900E+002
+3.87346683354E+007, +3.16408168117E+000, +7.29278971084E+002
+3.88596996245E+007, +4.54033317392E+000, +7.33851432499E+002
+3.89847309136E+007, +3.13558229554E+000, +7.38742046137E+002
+3.91097622028E+007, +4.61785075113E-001, +7.38418673996E+002
+3.92347934919E+007, +5.86657520634E+000, +7.42883327736E+002
+3.93598247810E+007, +2.59360831835E+000, +7.50401225513E+002
+3.94848560701E+007, +3.70258397148E+000, +7.50453032500E+002
+3.96098873592E+007, +1.83207958831E+000, +7.55119869794E+002
+3.97349186483E+007, +1.31023398527E+000, +7.58574402798E+002
+3.98599499374E+007, +1.59451159018E+000, +7.60539417052E+002
+3.99849812265E+007, +3.75037262661E+000, +7.64152616441E+002
+4.01100125156E+007, +2.08961842092E+000, +7.63492013929E+002
