"# Channel 1"
"# Trace 1"
Frequency, Formatted Data, Formatted Data
+1.00000000000E+005, +7.67653839723E+000, +1.55809474182E+000
+2.66777963272E+005, +7.67721665397E+000, +4.16798482478E+000
+4.33555926544E+005, +7.68219892632E+000, +6.78566944635E+000
+6.00333889816E+005, +7.69070296585E+000, +9.37513112354E+000
+7.67111853088E+005, +7.70151238499E+000, +1.19856024409E+001
+9.33889816361E+005, +7.72279851419E+000, +1.45335112388E+001
+1.10066777963E+006, +7.68424259881E+000, +1.71717440985E+001
+1.26744574290E+006, +7.73369304473E+000, +1.97325910218E+001
+1.43422370618E+006, +7.67255813682E+000, +2.23845023203E+001
+1.60100166945E+006, +7.73057009108E+000, +2.49079552832E+001
+1.76777963272E+006, +7.73965824287E+000, +2.75031584916E+001
+1.93455759599E+006, +7.73369132518E+000, +3.00560839093E+001
+2.10133555927E+006, +7.76982751041E+000, +3.26314822097E+001
+2.26811352254E+006, +7.77623676323E+000, +3.52410387274E+001
+2.43489148581E+006, +7.76511723510E+000, +3.79090166321E+001
+2.60166944908E+006, +7.80492681251E+000, +4.04036156573E+001
+2.76844741235E+006, +7.76930779879E+000, +4.30930047225E+001
+2.93522537563E+006, +7.77458199900E+000, +4.56335010582E+001
+3.10200333890E+006, +7.86878913756E+000, +4.81835357928E+001
+3.26878130217E+006, +7.75584432356E+000, +5.08503447468E+001
+3.43555926544E+006, +7.79808321574E+000, +5.33934577279E+001
+3.60233722871E+006, +7.91646802325E+000, +5.60839409945E+001
+3.76911519199E+006, +7.86102832568E+000, +5.87386164325E+001
+3.93589315526E+006, +7.89495951295E+000, +6.11912457043E+001
+4.10267111853E+006, +7.68043008262E+000, +6.37394461290E+001
+4.26944908180E+006, +7.88117233832E+000, +6.67558277267E+001
+4.43622704508E+006, +7.90948772773E+000, +6.91505486726E+001
+4.60300500835E+006, +8.02901972085E+000, +7.18449334860E+001
+4.76978297162E+006, +7.89081004546E+000, +7.43650711225E+001
+4.93656093489E+006, +8.03824599619E+000, +7.70722774983E+001
+5.10333889816E+006, +8.12174508863E+000, +7.96087316979E+001
+5.27011686144E+006, +8.20141885343E+000, +8.24391059688E+001
+5.43689482471E+006, +8.08855647643E+000, +8.50179163701E+001
+5.60367278798E+006, +8.15646575004E+000, +8.78056028094E+001
+5.77045075125E+006, +8.14347196963E+000, +9.01698057129E+001
+5.93722871452E+006, +8.30345010273E+000, +9.29347363381E+001
+6.10400667780E+006, +8.32591892082E+000, +9.56496290542E+001
+6.27078464107E+006, +8.43638459248E+000, +9.81560780095E+001
+6.43756260434E+006, +8.50931755013E+000, +1.00834482490E+002
+6.60434056761E+006, +8.52123925095E+000, +1.03534390693E+002
+6.77111853088E+006, +8.66251074604E+000, +1.06100663886E+002
+6.93789649416E+006, +8.63115039397E+000, +1.08801487916E+002
+7.10467445743E+006, +8.66034619278E+000, +1.11448184812E+002
+7.27145242070E+006, +8.66994171164E+000, +1.14022353128E+002
+7.43823038397E+006, +8.69694968423E+000, +1.16718592887E+002
+7.60500834725E+006, +8.67688743476E+000, +1.19328017330E+002
+7.77178631052E+006, +8.87901687071E+000, +1.22054943621E+002
+7.93856427379E+006, +8.87190121739E+000, +1.24650331014E+002
+8.10534223706E+006, +8.85373329819E+000, +1.27438574063E+002
+8.27212020033E+006, +8.87237287151E+000, +1.30097308235E+002
+8.43889816361E+006, +8.87013170962E+000, +1.32883889855E+002
+8.60567612688E+006, +8.76850966345E+000, +1.35522968994E+002
+8.77245409015E+006, +8.95496801613E+000, +1.38197232600E+002
+8.93923205342E+006, +8.89493032506E+000, +1.40991222031E+002
+9.10601001669E+006, +8.98928993025E+000, +1.43706707074E+002
+9.27278797997E+006, +9.01893514350E+000, +1.46421115909E+002
+9.43956594324E+006, +8.80310575228E+000, +1.49160987644E+002
+9.60634390651E+006, +8.95241571750E+000, +1.51940783959E+002
+9.77312186978E+006, +8.96511421430E+000, +1.54709044987E+002
+9.93989983306E+006, +9.09724244412E+000, +1.57539466544E+002
+1.01066777963E+007, +9.00167003258E+000, +1.60252801237E+002
+1.02734557596E+007, +9.00532417380E+000, +1.63103935631E+002
+1.04402337229E+007, +8.97344512255E+000, +1.65753562322E+002
+1.06070116861E+007, +8.97655449845E+000, +1.68633309652E+002
+1.07737896494E+007, +9.16362040886E+000, +1.71548505097E+002
+1.09405676127E+007, +9.41309993591E+000, +1.74224668838E+002
+1.11073455760E+007, +9.27054262685E+000, +1.77092617407E+002
+1.12741235392E+007, +9.28654646387E+000, +1.79926421608E+002
+1.14409015025E+007, +9.58406301577E+000, +1.82711396549E+002
+1.16076794658E+007, +9.43328234354E+000, +1.85564156854E+002
+1.17744574290E+007, +9.63346429421E+000, +1.88470182967E+002
+1.19412353923E+007, +9.42925256489E+000, +1.91209138582E+002
+1.21080133556E+007, +9.32286836234E+000, +1.94259816009E+002
+1.22747913189E+007, +9.62250418884E+000, +1.97131138079E+002
+1.24415692821E+007, +9.41171186638E+000, +1.99954643279E+002
+1.26083472454E+007, +9.55507896181E+000, +2.02842506970E+002
+1.27751252087E+007, +9.63976838778E+000, +2.05463224407E+002
+1.29419031720E+007, +9.58713465401E+000, +2.08313733732E+002
+1.31086811352E+007, +9.71433089433E+000, +2.11405078904E+002
+1.32754590985E+007, +9.71907738425E+000, +2.14424011750E+002
+1.34422370618E+007, +9.77274885108E+000, +2.17284891457E+002
+1.36090150250E+007, +1.00395641787E+001, +2.20158486275E+002
+1.37757929883E+007, +9.75887882309E+000, +2.23104461332E+002
+1.39425709516E+007, +1.00793244112E+001, +2.26014171883E+002
+1.41093489149E+007, +1.00731097535E+001, +2.28930016877E+002
+1.42761268781E+007, +1.03328198914E+001, +2.32086960135E+002
+1.44429048414E+007, +1.02834709295E+001, +2.34846007752E+002
+1.46096828047E+007, +1.04649838840E+001, +2.37988095805E+002
+1.47764607679E+007, +1.03611074578E+001, +2.40916002658E+002
+1.49432387312E+007, +1.02241118726E+001, +2.44082748272E+002
+1.51100166945E+007, +1.05665642024E+001, +2.47111412276E+002
+1.52767946578E+007, +1.08200248691E+001, +2.50004449154E+002
+1.54435726210E+007, +1.07656080091E+001, +2.53079715368E+002
+1.56103505843E+007, +1.11503258700E+001, +2.56133910843E+002
+1.57771285476E+007, +1.08321471227E+001, +2.59023241522E+002
+1.59439065109E+007, +1.09933353048E+001, +2.62140963765E+002
+1.61106844741E+007, +1.09451018843E+001, +2.65088664518E+002
+1.62774624374E+007, +1.11979316131E+001, +2.68149474703E+002
+1.64442404007E+007, +1.10271683582E+001, +2.71368398977E+002
+1.66110183639E+007, +1.10083260946E+001, +2.74581882040E+002
+1.67777963272E+007, +1.14280240300E+001, +2.78113862593E+002
+1.69445742905E+007, +1.15070674419E+001, +2.80869950724E+002
+1.71113522538E+007, +1.09431869950E+001, +2.83452595325E+002
+1.72781302170E+007, +1.12864593378E+001, +2.87238482776E+002
+1.74449081803E+007, +1.10932216025E+001, +2.90238570134E+002
+1.76116861436E+007, +1.15494605237E+001, +2.94033036189E+002
+1.77784641068E+007, +1.14512808110E+001, +2.96711133429E+002
+1.79452420701E+007, +1.20370736254E+001, +2.99912552960E+002
+1.81120200334E+007, +1.22261467984E+001, +3.02741854033E+002
+1.82787979967E+007, +1.20071614230E+001, +3.06977282591E+002
+1.84455759599E+007, +1.27742120022E+001, +3.10094739539E+002
+1.86123539232E+007, +1.26394862492E+001, +3.13260862268E+002
+1.87791318865E+007, +1.22326121755E+001, +3.16471756137E+002
+1.89459098497E+007, +1.24591762650E+001, +3.20118410135E+002
+1.91126878130E+007, +1.25199342668E+001, +3.22989563861E+002
+1.92794657763E+007, +1.28232797104E+001, +3.26221419325E+002
+1.94462437396E+007, +1.30446946374E+001, +3.30024552184E+002
+1.96130217028E+007, +1.28849581643E+001, +3.33786498789E+002
+1.97797996661E+007, +1.31127413846E+001, +3.35880697337E+002
+1.99465776294E+007, +1.20863177371E+001, +3.39198994010E+002
+2.01133555927E+007, +1.28325533921E+001, +3.43612255128E+002
+2.02801335559E+007, +1.27909260786E+001, +3.47105039996E+002
+2.04469115192E+007, +1.34122437407E+001, +3.50302856641E+002
+2.06136894825E+007, +1.37662130101E+001, +3.54091514485E+002
+2.07804674457E+007, +1.38874507985E+001, +3.57746126856E+002
+2.09472454090E+007, +1.37803361901E+001, +3.61102660369E+002
+2.11140233723E+007, +1.34828364857E+001, +3.64215104864E+002
+2.12808013356E+007, +1.40179074008E+001, +3.68169246419E+002
+2.14475792988E+007, +1.45084485165E+001, +3.71471458294E+002
+2.16143572621E+007, +1.49702573345E+001, +3.75264212611E+002
+2.17811352254E+007, +1.41522455943E+001, +3.78290150944E+002
+2.19479131886E+007, +1.50930437381E+001, +3.82585942139E+002
+2.21146911519E+007, +1.56724016730E+001, +3.85447069210E+002
+2.22814691152E+007, +1.48594034621E+001, +3.89899324659E+002
+2.24482470785E+007, +1.49835676509E+001, +3.94345545791E+002
+2.26150250417E+007, +1.63192697679E+001, +3.96821018957E+002
+2.27818030050E+007, +1.64351308435E+001, +4.01557340117E+002
+2.29485809683E+007, +1.68500183891E+001, +4.04674872940E+002
+2.31153589316E+007, +1.66784793260E+001, +4.09095314320E+002
+2.32821368948E+007, +1.72539162635E+001, +4.12974979448E+002
+2.34489148581E+007, +1.76696602409E+001, +4.15921458507E+002
+2.36156928214E+007, +1.81171691085E+001, +4.20566496859E+002
+2.37824707846E+007, +1.81531093220E+001, +4.24473613263E+002
+2.39492487479E+007, +1.79606396133E+001, +4.28429239424E+002
+2.41160267112E+007, +1.79238692147E+001, +4.32032192227E+002
+2.42828046745E+007, +1.83593839031E+001, +4.34332649809E+002
+2.44495826377E+007, +1.92509116532E+001, +4.40319517992E+002
+2.46163606010E+007, +2.01606873030E+001, +4.43731462995E+002
+2.47831385643E+007, +1.93953220985E+001, +4.47670008150E+002
+2.49499165275E+007, +2.05596508698E+001, +4.51217285463E+002
+2.51166944908E+007, +2.13962231331E+001, +4.55882458149E+002
+2.52834724541E+007, +2.20666777717E+001, +4.59280930064E+002
+2.54502504174E+007, +2.15403066403E+001, +4.64200974991E+002
+2.56170283806E+007, +2.12567404853E+001, +4.66361911718E+002
+2.57838063439E+007, +2.24969089683E+001, +4.72661378537E+002
+2.59505843072E+007, +2.30611522761E+001, +4.75842931796E+002
+2.61173622705E+007, +2.38184719254E+001, +4.80047536260E+002
+2.62841402337E+007, +2.38829221933E+001, +4.83603889530E+002
+2.64509181970E+007, +2.37091764010E+001, +4.88043925072E+002
+2.66176961603E+007, +2.46270786936E+001, +4.92891172884E+002
+2.67844741235E+007, +2.45485051823E+001, +4.96356438976E+002
+2.69512520868E+007, +2.55525213124E+001, +4.99194339245E+002
+2.71180300501E+007, +2.58171567002E+001, +5.02795692081E+002
+2.72848080134E+007, +2.60652486884E+001, +5.08131934147E+002
+2.74515859766E+007, +2.56585820569E+001, +5.11615194848E+002
+2.76183639399E+007, +2.56337914249E+001, +5.15262176517E+002
+2.77851419032E+007, +2.55866319728E+001, +5.20282399048E+002
+2.79519198664E+007, +2.58460290034E+001, +5.23756421774E+002
+2.81186978297E+007, +2.64232443068E+001, +5.28258886939E+002
+2.82854757930E+007, +2.65399631265E+001, +5.32219553170E+002
+2.84522537563E+007, +2.44070990138E+001, +5.38092586714E+002
+2.86190317195E+007, +2.59519402702E+001, +5.41115161244E+002
+2.87858096828E+007, +2.81194272555E+001, +5.45873506896E+002
+2.89525876461E+007, +2.63948747762E+001, +5.50757330298E+002
+2.91193656093E+007, +2.60930777404E+001, +5.53898407970E+002
+2.92861435726E+007, +2.55895164827E+001, +5.58901522086E+002
+2.94529215359E+007, +2.75163303709E+001, +5.65240422928E+002
+2.96196994992E+007, +2.76320834765E+001, +5.68801099926E+002
+2.97864774624E+007, +2.77982405820E+001, +5.74073011588E+002
+2.99532554257E+007, +2.75107623691E+001, +5.81781720742E+002
+3.01200333890E+007, +2.74570926585E+001, +5.84000249250E+002
+3.02868113523E+007, +2.61908275903E+001, +5.90224474414E+002
+3.04535893155E+007, +2.64925645817E+001, +5.96075640468E+002
+3.06203672788E+007, +2.76482445332E+001, +6.00726374753E+002
+3.07871452421E+007, +2.69834662438E+001, +6.05752482051E+002
+3.09539232053E+007, +2.73161686621E+001, +6.10147164353E+002
+3.11207011686E+007, +2.76934640791E+001, +6.18125054923E+002
+3.12874791319E+007, +2.71491344181E+001, +6.19718519049E+002
+3.14542570952E+007, +2.79912170177E+001, +6.28020338953E+002
+3.16210350584E+007, +2.72432886691E+001, +6.33631666627E+002
+3.17878130217E+007, +2.76641119082E+001, +6.38905427396E+002
+3.19545909850E+007, +2.89591821652E+001, +6.44997279065E+002
+3.21213689482E+007, +2.69300873834E+001, +6.51916061536E+002
+3.22881469115E+007, +2.82941167431E+001, +6.54921679874E+002
+3.24549248748E+007, +2.97483256287E+001, +6.61750304676E+002
+3.26217028381E+007, +2.72047214231E+001, +6.67277212089E+002
+3.27884808013E+007, +2.97946118697E+001, +6.72473144559E+002
+3.29552587646E+007, +3.19458934070E+001, +6.78342610602E+002
+3.31220367279E+007, +3.16324429275E+001, +6.85141039231E+002
+3.32888146912E+007, +3.00812798894E+001, +6.94716791788E+002
+3.34555926544E+007, +2.91023638466E+001, +6.98432817457E+002
+3.36223706177E+007, +3.21284371275E+001, +7.03049013914E+002
+3.37891485810E+007, +2.87673898641E+001, +7.06416554174E+002
+3.39559265442E+007, +2.98590649082E+001, +7.16693227507E+002
+3.41227045075E+007, +3.08480099620E+001, +7.22650658651E+002
+3.42894824708E+007, +2.97323629664E+001, +7.29959481047E+002
+3.44562604341E+007, +3.11211102735E+001, +7.37582605457E+002
+3.46230383973E+007, +3.11092620486E+001, +7.43774431997E+002
+3.47898163606E+007, +3.20890793010E+001, +7.49524858168E+002
+3.49565943239E+007, +3.35497000355E+001, +7.55880270602E+002
+3.51233722871E+007, +3.33439482967E+001, +7.62125136255E+002
+3.52901502504E+007, +3.42972935467E+001, +7.67578968580E+002
+3.54569282137E+007, +3.24313978671E+001, +7.77238421232E+002
+3.56237061770E+007, +3.32291895209E+001, +7.84634967295E+002
+3.57904841402E+007, +3.17321589962E+001, +7.91605424756E+002
+3.59572621035E+007, +3.68002564722E+001, +8.00044063380E+002
+3.61240400668E+007, +3.89262835805E+001, +8.07569639628E+002
+3.62908180301E+007, +3.66338526388E+001, +8.16850124898E+002
+3.64575959933E+007, +3.80138229049E+001, +8.23018554153E+002
+3.66243739566E+007, +3.83811705654E+001, +8.27695587870E+002
+3.67911519199E+007, +3.84110417883E+001, +8.40458936658E+002
+3.69579298831E+007, +3.59291886998E+001, +8.45279716510E+002
+3.71247078464E+007, +3.70376540081E+001, +8.55134968730E+002
+3.72914858097E+007, +3.72183720778E+001, +8.65251850211E+002
+3.74582637730E+007, +4.24364989786E+001, +8.75996412926E+002
+3.76250417362E+007, +4.05302677873E+001, +8.80773347525E+002
+3.77918196995E+007, +3.94155058194E+001, +8.87853617061E+002
+3.79585976628E+007, +4.09097389097E+001, +9.00345630407E+002
+3.81253756260E+007, +4.66171341028E+001, +9.09092162562E+002
+3.82921535893E+007, +4.31744317546E+001, +9.17948905183E+002
+3.84589315526E+007, +4.96179593042E+001, +9.27159103351E+002
+3.86257095159E+007, +4.45946641247E+001, +9.36800585473E+002
+3.87924874791E+007, +4.47471684916E+001, +9.47304245256E+002
+3.89592654424E+007, +4.85712648297E+001, +9.55427545397E+002
+3.91260434057E+007, +5.02821512731E+001, +9.70630925747E+002
+3.92928213689E+007, +4.96973987182E+001, +9.77403372546E+002
+3.94595993322E+007, +4.49910478586E+001, +9.85324731082E+002
+3.96263772955E+007, +4.78030081575E+001, +9.97357585296E+002
+3.97931552588E+007, +4.81928323389E+001, +1.00470621193E+003
+3.99599332220E+007, +5.04465920243E+001, +1.01989587839E+003
+4.01267111853E+007, +5.07385488403E+001, +1.03163003653E+003
+4.02934891486E+007, +4.86177675031E+001, +1.04140475336E+003
+4.04602671119E+007, +5.64145643106E+001, +1.04816443354E+003
+4.06270450751E+007, +6.27686438632E+001, +1.06529573054E+003
+4.07938230384E+007, +5.84013188980E+001, +1.07568618602E+003
+4.09606010017E+007, +6.49908010224E+001, +1.08577622647E+003
+4.11273789649E+007, +6.67623957806E+001, +1.09713709510E+003
+4.12941569282E+007, +6.43559613283E+001, +1.11687530762E+003
+4.14609348915E+007, +6.58558469505E+001, +1.12884852605E+003
+4.16277128548E+007, +7.18276014290E+001, +1.14320114222E+003
+4.17944908180E+007, +6.79346528159E+001, +1.14793122580E+003
+4.19612687813E+007, +7.53480075548E+001, +1.16698810651E+003
+4.21280467446E+007, +7.28471249136E+001, +1.17678582816E+003
+4.22948247078E+007, +7.33981726051E+001, +1.18982912956E+003
+4.24616026711E+007, +8.22023400957E+001, +1.20454630370E+003
+4.26283806344E+007, +8.15409784586E+001, +1.22493913885E+003
+4.27951585977E+007, +6.72298314527E+001, +1.24507383572E+003
+4.29619365609E+007, +8.91353774545E+001, +1.25899860258E+003
+4.31287145242E+007, +8.97317242401E+001, +1.26856351437E+003
+4.32954924875E+007, +8.86501301813E+001, +1.28323625644E+003
+4.34622704508E+007, +8.46514289510E+001, +1.30703095228E+003
+4.36290484140E+007, +9.81793572084E+001, +1.32509041164E+003
+4.37958263773E+007, +1.05816406544E+002, +1.33568209398E+003
+4.39626043406E+007, +1.04213118773E+002, +1.35405492657E+003
+4.41293823038E+007, +1.07697698931E+002, +1.38349871018E+003
+4.42961602671E+007, +1.13977722858E+002, +1.39602337493E+003
+4.44629382304E+007, +1.12591527680E+002, +1.41569786023E+003
+4.46297161937E+007, +1.23997961350E+002, +1.43483513253E+003
+4.47964941569E+007, +1.17658632952E+002, +1.44882096959E+003
+4.49632721202E+007, +1.27863199822E+002, +1.48447132010E+003
+4.51300500835E+007, +1.35038659952E+002, +1.49421143149E+003
+4.52968280467E+007, +1.38134444167E+002, +1.51301442634E+003
+4.54636060100E+007, +1.60481835510E+002, +1.55548819048E+003
+4.56303839733E+007, +1.64247921621E+002, +1.57424076661E+003
+4.57971619366E+007, +1.71211733647E+002, +1.59481668799E+003
+4.59639398998E+007, +1.70250087791E+002, +1.63290174645E+003
+4.61307178631E+007, +1.89862320543E+002, +1.64461716229E+003
+4.62974958264E+007, +2.06867873252E+002, +1.67222047010E+003
+4.64642737896E+007, +1.87128736275E+002, +1.69463079879E+003
+4.66310517529E+007, +2.03341416498E+002, +1.73895910859E+003
+4.67978297162E+007, +2.44685006678E+002, +1.74329754880E+003
+4.69646076795E+007, +2.43768966177E+002, +1.78615094432E+003
+4.71313856427E+007, +2.71325997529E+002, +1.81302433014E+003
+4.72981636060E+007, +2.83367502554E+002, +1.84893595049E+003
+4.74649415693E+007, +2.87363804172E+002, +1.87819980948E+003
+4.76317195326E+007, +3.20719858720E+002, +1.90155162544E+003
+4.77984974958E+007, +3.57973785607E+002, +1.92078010227E+003
+4.79652754591E+007, +3.69349718242E+002, +1.94283089130E+003
+4.81320534224E+007, +4.02469703609E+002, +1.96096256740E+003
+4.82988313856E+007, +4.17835332533E+002, +1.99932900482E+003
+4.84656093489E+007, +4.59602028122E+002, +2.02442159526E+003
+4.86323873122E+007, +4.93511656648E+002, +2.05025858125E+003
+4.87991652755E+007, +5.18417000337E+002, +2.06516360610E+003
+4.89659432387E+007, +5.37420938552E+002, +2.09869754043E+003
+4.91327212020E+007, +5.91885719078E+002, +2.10582550131E+003
+4.92994991653E+007, +6.16243907975E+002, +2.12187224096E+003
+4.94662771285E+007, +6.56651491027E+002, +2.14991750112E+003
+4.96330550918E+007, +6.79254760653E+002, +2.14570539565E+003
+4.97998330551E+007, +6.98634589559E+002, +2.14370989628E+003
+4.99666110184E+007, +7.54730803441E+002, +2.15735948623E+003
+5.01333889816E+007, +7.45961517585E+002, +2.16428384361E+003
+5.03001669449E+007, +7.50853353754E+002, +2.18273548688E+003
+5.04669449082E+007, +7.75316678643E+002, +2.19956098326E+003
+5.06337228715E+007, +8.03545220041E+002, +2.18806868616E+003
+5.08005008347E+007, +7.72560848823E+002, +2.21095501769E+003
+5.09672787980E+007, +7.96826876574E+002, +2.21183322915E+003
+5.11340567613E+007, +8.05503957104E+002, +2.26550401426E+003
+5.13008347245E+007, +7.81474774582E+002, +2.30108022426E+003
+5.14676126878E+007, +7.58267590138E+002, +2.33269800493E+003
+5.16343906511E+007, +8.02779067682E+002, +2.38812624902E+003
+5.18011686144E+007, +7.62142141792E+002, +2.47065303533E+003
+5.19679465776E+007, +8.00514283918E+002, +2.50370770241E+003
+5.21347245409E+007, +8.14263505595E+002, +2.56846470881E+003
+5.23015025042E+007, +8.63603539742E+002, +2.62560411772E+003
+5.24682804674E+007, +8.40113333475E+002, +2.74082296254E+003
+5.26350584307E+007, +8.63787120781E+002, +2.79447273372E+003
+5.28018363940E+007, +8.72625660125E+002, +2.87739069973E+003
+5.29686143573E+007, +9.47801679228E+002, +2.97558446327E+003
+5.31353923205E+007, +9.61925686459E+002, +3.05802550605E+003
+5.33021702838E+007, +9.94078780388E+002, +3.16826714309E+003
+5.34689482471E+007, +1.07486873250E+003, +3.24888973434E+003
