"# Channel 1"
"# Trace 1"
Frequency, Formatted Data, Formatted Data
+1.00000000000E+005, +3.31938376503E+001, +1.59487153916E+000
+2.25031289111E+005, +3.32101786942E+001, +3.69371330705E+000
+3.50062578223E+005, +3.32166957658E+001, +5.79390146846E+000
+4.75093867334E+005, +3.32928974008E+001, +7.80379695580E+000
+6.00125156446E+005, +3.32674967824E+001, +9.84244709823E+000
+7.25156445557E+005, +3.32898200109E+001, +1.18535504964E+001
+8.50187734668E+005, +3.32702762658E+001, +1.39157871104E+001
+9.75219023780E+005, +3.33088088750E+001, +1.59164762769E+001
+1.10025031289E+006, +3.33138722927E+001, +1.79340133547E+001
+1.22528160200E+006, +3.33147243194E+001, +1.99874468110E+001
+1.35031289111E+006, +3.33521295730E+001, +2.19810090172E+001
+1.47534418023E+006, +3.33510467818E+001, +2.40712859876E+001
+1.60037546934E+006, +3.33778660750E+001, +2.60356740559E+001
+1.72540675845E+006, +3.33722897346E+001, +2.81073321921E+001
+1.85043804756E+006, +3.33976076686E+001, +3.01493112132E+001
+1.97546933667E+006, +3.33897926168E+001, +3.21383222743E+001
+2.10050062578E+006, +3.33985154924E+001, +3.41907009484E+001
+2.22553191489E+006, +3.34476353466E+001, +3.61997562406E+001
+2.35056320401E+006, +3.34964046298E+001, +3.82624612438E+001
+2.47559449312E+006, +3.34174572092E+001, +4.02311601077E+001
+2.60062578223E+006, +3.34806170382E+001, +4.22393411153E+001
+2.72565707134E+006, +3.35092736566E+001, +4.43362093440E+001
+2.85068836045E+006, +3.35063729703E+001, +4.63245671446E+001
+2.97571964956E+006, +3.35043457495E+001, +4.83795025760E+001
+3.10075093867E+006, +3.34843663064E+001, +5.03868511070E+001
+3.22578222778E+006, +3.35404157089E+001, +5.24272614042E+001
+3.35081351690E+006, +3.35873839190E+001, +5.44580079379E+001
+3.47584480601E+006, +3.35528175408E+001, +5.64691319888E+001
+3.60087609512E+006, +3.35510632904E+001, +5.84864104090E+001
+3.72590738423E+006, +3.35457337424E+001, +6.05485796925E+001
+3.85093867334E+006, +3.35574393353E+001, +6.27267596538E+001
+3.97596996245E+006, +3.36182393881E+001, +6.48964316788E+001
+4.10100125156E+006, +3.45054927726E+001, +6.55189984845E+001
+4.22603254068E+006, +3.35675123539E+001, +6.84748283341E+001
+4.35106382979E+006, +3.35619564846E+001, +7.05994512252E+001
+4.47609511890E+006, +3.37207887477E+001, +7.26421928711E+001
+4.60112640801E+006, +3.36717236251E+001, +7.47572957625E+001
+4.72615769712E+006, +3.37046467634E+001, +7.68148790739E+001
+4.85118898623E+006, +3.36295412995E+001, +7.87996160693E+001
+4.97622027534E+006, +3.37113661871E+001, +8.09173790117E+001
+5.10125156446E+006, +3.37123260373E+001, +8.29520627282E+001
+5.22628285357E+006, +3.37392338798E+001, +8.49465001281E+001
+5.35131414268E+006, +3.38145455306E+001, +8.69843743067E+001
+5.47634543179E+006, +3.38280056269E+001, +8.90287863213E+001
+5.60137672090E+006, +3.38083957272E+001, +9.11207717306E+001
+5.72640801001E+006, +3.38168426915E+001, +9.31774990588E+001
+5.85143929912E+006, +3.37788571686E+001, +9.52605889051E+001
+5.97647058824E+006, +3.37973742189E+001, +9.72430265978E+001
+6.10150187735E+006, +3.38522756578E+001, +9.92105088764E+001
+6.22653316646E+006, +3.38179121948E+001, +1.01554046626E+002
+6.35156445557E+006, +3.38617617462E+001, +1.03418219296E+002
+6.47659574468E+006, +3.39477228691E+001, +1.05519506824E+002
+6.60162703379E+006, +3.39740282701E+001, +1.07646255508E+002
+6.72665832290E+006, +3.40954746817E+001, +1.09683043095E+002
+6.85168961202E+006, +3.40923583831E+001, +1.11715055699E+002
+6.97672090113E+006, +3.40182327088E+001, +1.13669771800E+002
+7.10175219024E+006, +3.41306761738E+001, +1.15844865691E+002
+7.22678347935E+006, +3.42231406553E+001, +1.17861383373E+002
+7.35181476846E+006, +3.42334755001E+001, +1.20010745645E+002
+7.47684605757E+006, +3.42234537050E+001, +1.22023755526E+002
+7.60187734668E+006, +3.42765703473E+001, +1.24048337283E+002
+7.72690863579E+006, +3.43256541683E+001, +1.26173005545E+002
+7.85193992491E+006, +3.43786785986E+001, +1.28112944024E+002
+7.97697121402E+006, +3.43351433262E+001, +1.30344136814E+002
+8.10200250313E+006, +3.43596296061E+001, +1.32304006230E+002
+8.22703379224E+006, +3.45366666567E+001, +1.34389360026E+002
+8.35206508135E+006, +3.44737365568E+001, +1.36469578446E+002
+8.47709637046E+006, +3.44671111766E+001, +1.38606345079E+002
+8.60212765957E+006, +3.43482634789E+001, +1.40565641048E+002
+8.72715894869E+006, +3.46487873993E+001, +1.42516008586E+002
+8.85219023780E+006, +3.47148181748E+001, +1.44527872373E+002
+8.97722152691E+006, +3.46845070660E+001, +1.46722567328E+002
+9.10225281602E+006, +3.46283165371E+001, +1.48640550770E+002
+9.22728410513E+006, +3.46678519598E+001, +1.50984833069E+002
+9.35231539424E+006, +3.46181410615E+001, +1.53211854433E+002
+9.47734668335E+006, +3.45915490370E+001, +1.55014770581E+002
+9.60237797247E+006, +3.47099831176E+001, +1.56808274151E+002
+9.72740926158E+006, +3.48700315136E+001, +1.58647508759E+002
+9.85244055069E+006, +3.47990179140E+001, +1.60569839357E+002
+9.97747183980E+006, +3.47867724770E+001, +1.62425267615E+002
+1.01025031289E+007, +3.47934592854E+001, +1.64423848402E+002
+1.02275344180E+007, +3.49096325272E+001, +1.66439209452E+002
+1.03525657071E+007, +3.48831326376E+001, +1.68506219359E+002
+1.04775969962E+007, +3.48182622524E+001, +1.70642997402E+002
+1.06026282854E+007, +3.48152902494E+001, +1.72745537324E+002
+1.07276595745E+007, +3.48558203606E+001, +1.74969770257E+002
+1.08526908636E+007, +3.49439816915E+001, +1.77169045410E+002
+1.09777221527E+007, +3.49126364101E+001, +1.79540728986E+002
+1.11027534418E+007, +3.48140101398E+001, +1.81780571884E+002
+1.12277847309E+007, +3.50449945620E+001, +1.84120694476E+002
+1.13528160200E+007, +3.50767564654E+001, +1.86596225253E+002
+1.14778473091E+007, +3.48291288858E+001, +1.88937548219E+002
+1.16028785982E+007, +3.49938159896E+001, +1.91182913651E+002
+1.17279098874E+007, +3.50707323670E+001, +1.93214870939E+002
+1.18529411765E+007, +3.51088976330E+001, +1.95365205135E+002
+1.19779724656E+007, +3.53083588338E+001, +1.97725627357E+002
+1.21030037547E+007, +3.51798497417E+001, +1.99515127847E+002
+1.22280350438E+007, +3.51340594912E+001, +2.01829676510E+002
+1.23530663329E+007, +3.51127649039E+001, +2.03994553544E+002
+1.24780976220E+007, +3.54256337431E+001, +2.06320786035E+002
+1.26031289111E+007, +3.51615157548E+001, +2.08426255945E+002
+1.27281602003E+007, +3.52462792596E+001, +2.10477332342E+002
+1.28531914894E+007, +3.51358223355E+001, +2.12717554710E+002
+1.29782227785E+007, +3.51539296632E+001, +2.14712996822E+002
+1.31032540676E+007, +3.51211065474E+001, +2.17033604493E+002
+1.32282853567E+007, +3.49449377913E+001, +2.19117600812E+002
+1.33533166458E+007, +3.53712799449E+001, +2.21343001513E+002
+1.34783479349E+007, +3.53099519798E+001, +2.23469161145E+002
+1.36033792240E+007, +3.54426412021E+001, +2.25926252929E+002
+1.37284105131E+007, +3.54089525249E+001, +2.28401793680E+002
+1.38534418023E+007, +3.55120751035E+001, +2.30380427667E+002
+1.39784730914E+007, +3.56130561348E+001, +2.32820320594E+002
+1.41035043805E+007, +3.55550625471E+001, +2.34840889141E+002
+1.42285356696E+007, +3.54720419364E+001, +2.36887170892E+002
+1.43535669587E+007, +3.55633191010E+001, +2.39251535745E+002
+1.44785982478E+007, +3.55159488458E+001, +2.41537483092E+002
+1.46036295369E+007, +3.56137791775E+001, +2.43663085108E+002
+1.47286608260E+007, +3.57508554738E+001, +2.45879248067E+002
+1.48536921151E+007, +3.59673466298E+001, +2.48253241239E+002
+1.49787234043E+007, +3.56708591374E+001, +2.50059150952E+002
+1.51037546934E+007, +3.58085387312E+001, +2.52604574150E+002
+1.52287859825E+007, +3.58901735080E+001, +2.55067041764E+002
+1.53538172716E+007, +3.58973837005E+001, +2.56981356753E+002
+1.54788485607E+007, +3.56964627007E+001, +2.59419909261E+002
+1.56038798498E+007, +3.61085868722E+001, +2.61927656613E+002
+1.57289111389E+007, +3.59825993232E+001, +2.64261869440E+002
+1.58539424280E+007, +3.61997347988E+001, +2.66342719519E+002
+1.59789737171E+007, +3.60961459200E+001, +2.68975234386E+002
+1.61040050063E+007, +3.62129707130E+001, +2.70860965168E+002
+1.62290362954E+007, +3.61581825964E+001, +2.73217298089E+002
+1.63540675845E+007, +3.63228086642E+001, +2.75656357240E+002
+1.64790988736E+007, +3.63456371009E+001, +2.77857783436E+002
+1.66041301627E+007, +3.66091034218E+001, +2.80512768206E+002
+1.67291614518E+007, +3.63999219927E+001, +2.82336069908E+002
+1.68541927409E+007, +3.67577762075E+001, +2.85201696993E+002
+1.69792240300E+007, +3.69314264135E+001, +2.87176920500E+002
+1.71042553191E+007, +3.64803748661E+001, +2.89451406882E+002
+1.72292866083E+007, +3.65102083582E+001, +2.91961844854E+002
+1.73543178974E+007, +3.66062623021E+001, +2.93835530822E+002
+1.74793491865E+007, +3.63316541559E+001, +2.96454935313E+002
+1.76043804756E+007, +3.70166102436E+001, +2.98650357027E+002
+1.77294117647E+007, +3.68905973302E+001, +3.01251714601E+002
+1.78544430538E+007, +3.70859648151E+001, +3.03523585505E+002
+1.79794743429E+007, +3.68804203658E+001, +3.05983262652E+002
+1.81045056320E+007, +3.73878254782E+001, +3.08567411573E+002
+1.82295369212E+007, +3.70714801857E+001, +3.10758363129E+002
+1.83545682103E+007, +3.70281696895E+001, +3.13248023344E+002
+1.84795994994E+007, +3.68987749345E+001, +3.15048297462E+002
+1.86046307885E+007, +3.75591595343E+001, +3.17887825148E+002
+1.87296620776E+007, +3.74672193670E+001, +3.20104647965E+002
+1.88546933667E+007, +3.73498587118E+001, +3.22554948483E+002
+1.89797246558E+007, +3.76273107957E+001, +3.25086829144E+002
+1.91047559449E+007, +3.76550544462E+001, +3.27766768216E+002
+1.92297872340E+007, +3.81073552362E+001, +3.30071081149E+002
+1.93548185232E+007, +3.74910204593E+001, +3.32540670228E+002
+1.94798498123E+007, +3.80230977250E+001, +3.35426421741E+002
+1.96048811014E+007, +3.83289832765E+001, +3.37750668600E+002
+1.97299123905E+007, +3.78772956417E+001, +3.40368759156E+002
+1.98549436796E+007, +3.79955555324E+001, +3.42479297370E+002
+1.99799749687E+007, +3.81046950365E+001, +3.44864045967E+002
+2.01050062578E+007, +3.77516282356E+001, +3.47914444812E+002
+2.02300375469E+007, +3.81251863095E+001, +3.49849752685E+002
+2.03550688360E+007, +3.83561651757E+001, +3.52827184614E+002
+2.04801001252E+007, +3.86701711746E+001, +3.54384278401E+002
+2.06051314143E+007, +3.85015679396E+001, +3.57568089216E+002
+2.07301627034E+007, +3.81211174539E+001, +3.59653104008E+002
+2.08551939925E+007, +3.89178417076E+001, +3.62192480151E+002
+2.09802252816E+007, +3.86669239532E+001, +3.65490459021E+002
+2.11052565707E+007, +3.85230499742E+001, +3.67229413501E+002
+2.12302878598E+007, +3.92361423314E+001, +3.70270005534E+002
+2.13553191489E+007, +3.87921626671E+001, +3.72309765686E+002
+2.14803504380E+007, +3.95658237620E+001, +3.75137231860E+002
+2.16053817272E+007, +3.89073814428E+001, +3.78158266287E+002
+2.17304130163E+007, +3.93433211858E+001, +3.79861485685E+002
+2.18554443054E+007, +3.95666241503E+001, +3.83030603341E+002
+2.19804755945E+007, +3.94981462646E+001, +3.85620012738E+002
+2.21055068836E+007, +4.02332822013E+001, +3.88239594373E+002
+2.22305381727E+007, +3.96185836569E+001, +3.91287997766E+002
+2.23555694618E+007, +4.04273986895E+001, +3.93774775215E+002
+2.24806007509E+007, +4.02378081038E+001, +3.96674017212E+002
+2.26056320401E+007, +4.02242613325E+001, +3.99121747513E+002
+2.27306633292E+007, +4.04947262366E+001, +4.01602359469E+002
+2.28556946183E+007, +4.07022893065E+001, +4.04393223246E+002
+2.29807259074E+007, +4.07191596803E+001, +4.06743807803E+002
+2.31057571965E+007, +4.07346924839E+001, +4.09759994441E+002
+2.32307884856E+007, +4.11576593395E+001, +4.12001618773E+002
+2.33558197747E+007, +4.11257897514E+001, +4.14491420498E+002
+2.34808510638E+007, +4.13179526058E+001, +4.18454294503E+002
+2.36058823529E+007, +4.12928487509E+001, +4.20000608349E+002
+2.37309136421E+007, +4.13669656065E+001, +4.23462429296E+002
+2.38559449312E+007, +4.17795359597E+001, +4.26047265389E+002
+2.39809762203E+007, +4.20433408618E+001, +4.28584494985E+002
+2.41060075094E+007, +4.19031084212E+001, +4.31175928270E+002
+2.42310387985E+007, +4.24421940433E+001, +4.33592766288E+002
+2.43560700876E+007, +4.21981829646E+001, +4.35819904614E+002
+2.44811013767E+007, +4.25396480618E+001, +4.38943755183E+002
+2.46061326658E+007, +4.20236929722E+001, +4.41319591736E+002
+2.47311639549E+007, +4.25383868725E+001, +4.44290833043E+002
+2.48561952441E+007, +4.27904299551E+001, +4.46970393615E+002
+2.49812265332E+007, +4.26849414034E+001, +4.49642801778E+002
+2.51062578223E+007, +4.22611181162E+001, +4.51881962776E+002
+2.52312891114E+007, +4.34866942196E+001, +4.55184869130E+002
+2.53563204005E+007, +4.29994331628E+001, +4.57791118280E+002
+2.54813516896E+007, +4.18522573781E+001, +4.60229803309E+002
+2.56063829787E+007, +4.27860683260E+001, +4.63674740644E+002
+2.57314142678E+007, +4.27551400321E+001, +4.66871146012E+002
+2.58564455569E+007, +4.30373328924E+001, +4.69066038181E+002
+2.59814768461E+007, +4.34968302380E+001, +4.72805268685E+002
+2.61065081352E+007, +4.23135879952E+001, +4.75730235603E+002
+2.62315394243E+007, +4.32821936328E+001, +4.77742997139E+002
+2.63565707134E+007, +4.31419466151E+001, +4.81488968339E+002
+2.64816020025E+007, +4.36307073500E+001, +4.83629527177E+002
+2.66066332916E+007, +4.42201791552E+001, +4.87350807824E+002
+2.67316645807E+007, +4.39109635368E+001, +4.90235442063E+002
+2.68566958698E+007, +4.30258973529E+001, +4.92840268616E+002
+2.69817271589E+007, +4.37178491053E+001, +4.96887252952E+002
+2.71067584481E+007, +4.39195563769E+001, +4.99728771046E+002
+2.72317897372E+007, +4.42850054650E+001, +5.01229472574E+002
+2.73568210263E+007, +4.35802848717E+001, +5.05309487207E+002
+2.74818523154E+007, +4.50541097669E+001, +5.08746754223E+002
+2.76068836045E+007, +4.43832947367E+001, +5.11513740870E+002
+2.77319148936E+007, +4.57375738875E+001, +5.13983162044E+002
+2.78569461827E+007, +4.45630150578E+001, +5.18860018616E+002
+2.79819774718E+007, +4.57549205856E+001, +5.19801333010E+002
+2.81070087610E+007, +4.46805284899E+001, +5.24224627947E+002
+2.82320400501E+007, +4.59496202135E+001, +5.26196211597E+002
+2.83570713392E+007, +4.50424797749E+001, +5.29055627397E+002
+2.84821026283E+007, +4.61031719607E+001, +5.32759259339E+002
+2.86071339174E+007, +4.57846423216E+001, +5.36352000086E+002
+2.87321652065E+007, +4.66741105933E+001, +5.39577855470E+002
+2.88571964956E+007, +4.54973469532E+001, +5.41304107409E+002
+2.89822277847E+007, +4.54296612035E+001, +5.46174758854E+002
+2.91072590738E+007, +4.61203996885E+001, +5.48880564446E+002
+2.92322903630E+007, +4.75939682707E+001, +5.53225922095E+002
+2.93573216521E+007, +4.74144095218E+001, +5.55671071414E+002
+2.94823529412E+007, +4.74760704498E+001, +5.59361897976E+002
+2.96073842303E+007, +4.63827025725E+001, +5.61594436526E+002
+2.97324155194E+007, +4.76633133419E+001, +5.65714144396E+002
+2.98574468085E+007, +4.72837345449E+001, +5.68987051978E+002
+2.99824780976E+007, +4.78425549774E+001, +5.72445209447E+002
+3.01075093867E+007, +4.84565271823E+001, +5.76513858625E+002
+3.02325406758E+007, +4.90709577751E+001, +5.79968826005E+002
+3.03575719650E+007, +4.87341457812E+001, +5.81910283251E+002
+3.04826032541E+007, +4.88494336360E+001, +5.87391332706E+002
+3.06076345432E+007, +5.02070194236E+001, +5.88532383194E+002
+3.07326658323E+007, +5.00838332957E+001, +5.91974564229E+002
+3.08576971214E+007, +4.96999278583E+001, +5.96218256563E+002
+3.09827284105E+007, +5.07930510281E+001, +5.99613593383E+002
+3.11077596996E+007, +5.07934006048E+001, +6.03613336222E+002
+3.12327909887E+007, +4.97854704211E+001, +6.06341833080E+002
+3.13578222778E+007, +5.15237799768E+001, +6.09626711866E+002
+3.14828535670E+007, +5.06630474873E+001, +6.12847416612E+002
+3.16078848561E+007, +5.19813513995E+001, +6.16819299359E+002
+3.17329161452E+007, +5.29009162006E+001, +6.21534807258E+002
+3.18579474343E+007, +5.40004145949E+001, +6.24643269754E+002
+3.19829787234E+007, +5.32227563409E+001, +6.27208258538E+002
+3.21080100125E+007, +5.25486486397E+001, +6.29657665664E+002
+3.22330413016E+007, +5.34482056839E+001, +6.33642335997E+002
+3.23580725907E+007, +5.44108231235E+001, +6.38386774804E+002
+3.24831038798E+007, +5.28283565967E+001, +6.42096814574E+002
+3.26081351690E+007, +5.50266720924E+001, +6.45772671664E+002
+3.27331664581E+007, +5.70548124815E+001, +6.49411008104E+002
+3.28581977472E+007, +5.58383856367E+001, +6.53817059146E+002
+3.29832290363E+007, +5.46042485191E+001, +6.58657696624E+002
+3.31082603254E+007, +5.59748311842E+001, +6.61437114746E+002
+3.32332916145E+007, +5.54006286455E+001, +6.63958464370E+002
+3.33583229036E+007, +5.57467393921E+001, +6.67197205202E+002
+3.34833541927E+007, +5.68194516238E+001, +6.71942118533E+002
+3.36083854819E+007, +5.73311899147E+001, +6.76541442439E+002
+3.37334167710E+007, +5.83939560395E+001, +6.79515397998E+002
+3.38584480601E+007, +5.87006896968E+001, +6.84377098604E+002
+3.39834793492E+007, +5.81458225148E+001, +6.86689328292E+002
+3.41085106383E+007, +5.64273664418E+001, +6.91832378270E+002
+3.42335419274E+007, +5.89917914455E+001, +6.95949063415E+002
+3.43585732165E+007, +5.85528427169E+001, +6.98485767339E+002
+3.44836045056E+007, +5.85791968105E+001, +7.03782614957E+002
+3.46086357947E+007, +5.97340493739E+001, +7.08666081765E+002
+3.47336670839E+007, +6.01353988466E+001, +7.12232354195E+002
+3.48586983730E+007, +6.12269651297E+001, +7.13927600546E+002
+3.49837296621E+007, +6.19159071894E+001, +7.19978931149E+002
+3.51087609512E+007, +6.20902073972E+001, +7.23607388940E+002
+3.52337922403E+007, +6.28632232250E+001, +7.29520221211E+002
+3.53588235294E+007, +6.15725067161E+001, +7.32203261097E+002
+3.54838548185E+007, +6.30191338128E+001, +7.36484553487E+002
+3.56088861076E+007, +6.27871233615E+001, +7.42225581043E+002
+3.57339173967E+007, +6.55480738114E+001, +7.43413309001E+002
+3.58589486859E+007, +6.54270614951E+001, +7.50245278193E+002
+3.59839799750E+007, +6.46592114713E+001, +7.53589708485E+002
+3.61090112641E+007, +6.52021357809E+001, +7.58537955937E+002
+3.62340425532E+007, +6.46312198964E+001, +7.62108208310E+002
+3.63590738423E+007, +6.67851243277E+001, +7.66010154192E+002
+3.64841051314E+007, +6.73168064301E+001, +7.71800608584E+002
+3.66091364205E+007, +6.92866649814E+001, +7.75363217924E+002
+3.67341677096E+007, +6.71305044268E+001, +7.79860380127E+002
+3.68591989987E+007, +6.57135847740E+001, +7.85628356038E+002
+3.69842302879E+007, +6.97586485802E+001, +7.89322872973E+002
+3.71092615770E+007, +6.86974806001E+001, +7.92892526072E+002
+3.72342928661E+007, +6.84297855695E+001, +7.98950580163E+002
+3.73593241552E+007, +6.93558755556E+001, +8.02123350607E+002
+3.74843554443E+007, +7.09737902393E+001, +8.08703125454E+002
+3.76093867334E+007, +7.22978325929E+001, +8.12346574587E+002
+3.77344180225E+007, +7.26862508069E+001, +8.19461706019E+002
+3.78594493116E+007, +7.29244712686E+001, +8.21904175178E+002
+3.79844806008E+007, +7.34452420848E+001, +8.28373742813E+002
+3.81095118899E+007, +7.34869553053E+001, +8.31984467588E+002
+3.82345431790E+007, +7.60022996828E+001, +8.38069502882E+002
+3.83595744681E+007, +7.51074260007E+001, +8.43581276646E+002
+3.84846057572E+007, +7.45102186932E+001, +8.48059353935E+002
+3.86096370463E+007, +7.78393869122E+001, +8.51821787545E+002
+3.87346683354E+007, +7.99664518258E+001, +8.57991663738E+002
+3.88596996245E+007, +7.55219832835E+001, +8.61103561124E+002
+3.89847309136E+007, +7.83185002507E+001, +8.66317845977E+002
+3.91097622028E+007, +7.93948915418E+001, +8.72958711945E+002
+3.92347934919E+007, +8.03115814420E+001, +8.78326508571E+002
+3.93598247810E+007, +8.37107128698E+001, +8.83339515039E+002
+3.94848560701E+007, +8.17448723119E+001, +8.90663355725E+002
+3.96098873592E+007, +8.28405802693E+001, +8.96505816321E+002
+3.97349186483E+007, +8.44186743190E+001, +9.02115777320E+002
+3.98599499374E+007, +8.30806810719E+001, +9.07116636014E+002
+3.99849812265E+007, +8.46567113365E+001, +9.12268913568E+002
+4.01100125156E+007, +8.41415994445E+001, +9.17017327629E+002
