"# Channel 1"
"# Trace 1"
Frequency, Formatted Data, Formatted Data
+1.00000000000E+005, +7.61452986913E+000, +1.54803143795E+000
+2.66777963272E+005, +7.60970585722E+000, +4.15098530658E+000
+4.33555926544E+005, +7.60731961633E+000, +6.74394976964E+000
+6.00333889816E+005, +7.63655245213E+000, +9.30028325551E+000
+7.67111853088E+005, +7.65064112593E+000, +1.18995335410E+001
+9.33889816361E+005, +7.65642555332E+000, +1.44564640743E+001
+1.10066777963E+006, +7.60183086718E+000, +1.70572817269E+001
+1.26744574290E+006, +7.65618098391E+000, +1.96259656971E+001
+1.43422370618E+006, +7.59582333149E+000, +2.22445833469E+001
+1.60100166945E+006, +7.68153337116E+000, +2.47615543705E+001
+1.76777963272E+006, +7.65729721953E+000, +2.73424457495E+001
+1.93455759599E+006, +7.69049225316E+000, +2.98609170143E+001
+2.10133555927E+006, +7.68157462225E+000, +3.24357254041E+001
+2.26811352254E+006, +7.74542941241E+000, +3.50322414202E+001
+2.43489148581E+006, +7.72739795518E+000, +3.76584576665E+001
+2.60166944908E+006, +7.75847756831E+000, +4.01472930532E+001
+2.76844741235E+006, +7.71425784652E+000, +4.28339319258E+001
+2.93522537563E+006, +7.70637793042E+000, +4.53932836686E+001
+3.10200333890E+006, +7.88856276193E+000, +4.79237849309E+001
+3.26878130217E+006, +7.67351365308E+000, +5.05740230216E+001
+3.43555926544E+006, +7.77180780459E+000, +5.31070409552E+001
+3.60233722871E+006, +7.85950558249E+000, +5.57427138384E+001
+3.76911519199E+006, +7.78799302205E+000, +5.84359657474E+001
+3.93589315526E+006, +7.76900408326E+000, +6.08655854350E+001
+4.10267111853E+006, +7.66242661079E+000, +6.34353050449E+001
+4.26944908180E+006, +7.79918688746E+000, +6.63475964807E+001
+4.43622704508E+006, +7.83659594135E+000, +6.87305909884E+001
+4.60300500835E+006, +7.91611617605E+000, +7.14342962994E+001
+4.76978297162E+006, +7.89955179468E+000, +7.39256353273E+001
+4.93656093489E+006, +8.04081022724E+000, +7.65872447285E+001
+5.10333889816E+006, +8.03740294163E+000, +7.90978611778E+001
+5.27011686144E+006, +8.25657690521E+000, +8.18858347837E+001
+5.43689482471E+006, +8.06067203348E+000, +8.43941664736E+001
+5.60367278798E+006, +8.20585014623E+000, +8.72376142983E+001
+5.77045075125E+006, +8.08613429628E+000, +8.96312963818E+001
+5.93722871452E+006, +8.27218985000E+000, +9.22803315901E+001
+6.10400667780E+006, +8.25975866476E+000, +9.48810950074E+001
+6.27078464107E+006, +8.41025335314E+000, +9.75707524264E+001
+6.43756260434E+006, +8.42861282189E+000, +1.00185874489E+002
+6.60434056761E+006, +8.48928291481E+000, +1.02829641315E+002
+6.77111853088E+006, +8.63785633741E+000, +1.05409623371E+002
+6.93789649416E+006, +8.53803187367E+000, +1.08139919953E+002
+7.10467445743E+006, +8.59558680346E+000, +1.10675948320E+002
+7.27145242070E+006, +8.63824263889E+000, +1.13310384390E+002
+7.43823038397E+006, +8.71520054877E+000, +1.15865231801E+002
+7.60500834725E+006, +8.72108120359E+000, +1.18590675632E+002
+7.77178631052E+006, +8.77945859957E+000, +1.21343473125E+002
+7.93856427379E+006, +8.79214854781E+000, +1.23837633937E+002
+8.10534223706E+006, +8.81877356336E+000, +1.26533171937E+002
+8.27212020033E+006, +8.78614810792E+000, +1.29171964438E+002
+8.43889816361E+006, +8.81010443551E+000, +1.31918025018E+002
+8.60567612688E+006, +8.81135576521E+000, +1.34638072624E+002
+8.77245409015E+006, +8.86638366372E+000, +1.37195064178E+002
+8.93923205342E+006, +8.89621963190E+000, +1.40099810264E+002
+9.10601001669E+006, +8.96785704269E+000, +1.42671089975E+002
+9.27278797997E+006, +8.95382546407E+000, +1.45365418095E+002
+9.43956594324E+006, +8.95147292413E+000, +1.48194866278E+002
+9.60634390651E+006, +8.87529645844E+000, +1.50885182146E+002
+9.77312186978E+006, +8.85602482830E+000, +1.53585662158E+002
+9.93989983306E+006, +9.13132633467E+000, +1.56329903565E+002
+1.01066777963E+007, +8.93424978913E+000, +1.58985241828E+002
+1.02734557596E+007, +8.92456281088E+000, +1.61854404936E+002
+1.04402337229E+007, +9.06124191647E+000, +1.64618242731E+002
+1.06070116861E+007, +9.02116899710E+000, +1.67310436057E+002
+1.07737896494E+007, +9.06307911209E+000, +1.70225233685E+002
+1.09405676127E+007, +9.35611751138E+000, +1.72903653305E+002
+1.11073455760E+007, +9.22828596907E+000, +1.75725732702E+002
+1.12741235392E+007, +9.09692315125E+000, +1.78370238325E+002
+1.14409015025E+007, +9.40600183731E+000, +1.81340335165E+002
+1.16076794658E+007, +9.39050427299E+000, +1.84072237064E+002
+1.17744574290E+007, +9.40441515697E+000, +1.86909282845E+002
+1.19412353923E+007, +9.51296218814E+000, +1.89567201322E+002
+1.21080133556E+007, +9.31647770570E+000, +1.92705612492E+002
+1.22747913189E+007, +9.67268237925E+000, +1.95546662619E+002
+1.24415692821E+007, +9.47948778523E+000, +1.98147879753E+002
+1.26083472454E+007, +9.40198904859E+000, +2.01210590033E+002
+1.27751252087E+007, +9.55436776675E+000, +2.03974732341E+002
+1.29419031720E+007, +9.56514547801E+000, +2.06756420051E+002
+1.31086811352E+007, +9.73414477532E+000, +2.09686049009E+002
+1.32754590985E+007, +9.78877495641E+000, +2.12512074064E+002
+1.34422370618E+007, +9.50878635174E+000, +2.15323826221E+002
+1.36090150250E+007, +1.00690038904E+001, +2.18313390667E+002
+1.37757929883E+007, +9.84203608258E+000, +2.21294272407E+002
+1.39425709516E+007, +1.01811378164E+001, +2.24121808731E+002
+1.41093489149E+007, +9.92630429495E+000, +2.27074705940E+002
+1.42761268781E+007, +1.04707253885E+001, +2.30071268976E+002
+1.44429048414E+007, +1.01484497610E+001, +2.32726327703E+002
+1.46096828047E+007, +1.01769714172E+001, +2.36011594882E+002
+1.47764607679E+007, +1.03912138343E+001, +2.38817677853E+002
+1.49432387312E+007, +1.00848268245E+001, +2.41831774335E+002
+1.51100166945E+007, +1.03301897784E+001, +2.44968638217E+002
+1.52767946578E+007, +1.04098827375E+001, +2.47802455877E+002
+1.54435726210E+007, +1.04963545577E+001, +2.50795740768E+002
+1.56103505843E+007, +1.07122492437E+001, +2.53907826535E+002
+1.57771285476E+007, +1.07337794995E+001, +2.56855084345E+002
+1.59439065109E+007, +1.08451785679E+001, +2.60111208101E+002
+1.61106844741E+007, +1.07317146655E+001, +2.63167301019E+002
+1.62774624374E+007, +1.10693923032E+001, +2.65967494565E+002
+1.64442404007E+007, +1.06465529249E+001, +2.68941715942E+002
+1.66110183639E+007, +1.10104281897E+001, +2.72239058194E+002
+1.67777963272E+007, +1.09325036757E+001, +2.75633679660E+002
+1.69445742905E+007, +1.11595200029E+001, +2.78363686476E+002
+1.71113522538E+007, +1.04995998690E+001, +2.81283307019E+002
+1.72781302170E+007, +1.10257138587E+001, +2.85030291647E+002
+1.74449081803E+007, +1.08559572083E+001, +2.87763208207E+002
+1.76116861436E+007, +1.15577999811E+001, +2.91382926376E+002
+1.77784641068E+007, +1.13963498791E+001, +2.93862506714E+002
+1.79452420701E+007, +1.14930381939E+001, +2.97104428022E+002
+1.81120200334E+007, +1.18937186344E+001, +3.00101153075E+002
+1.82787979967E+007, +1.18825025833E+001, +3.03256457138E+002
+1.84455759599E+007, +1.19604603014E+001, +3.06861177831E+002
+1.86123539232E+007, +1.25913849906E+001, +3.10104791056E+002
+1.87791318865E+007, +1.21771026495E+001, +3.13455196710E+002
+1.89459098497E+007, +1.24796721083E+001, +3.17177467982E+002
+1.91126878130E+007, +1.22302577364E+001, +3.19694482148E+002
+1.92794657763E+007, +1.23396565519E+001, +3.23089498807E+002
+1.94462437396E+007, +1.26654554075E+001, +3.26908803540E+002
+1.96130217028E+007, +1.26012834944E+001, +3.29774047480E+002
+1.97797996661E+007, +1.26677141954E+001, +3.33506453242E+002
+1.99465776294E+007, +1.24954147796E+001, +3.36521746843E+002
+2.01133555927E+007, +1.29024674297E+001, +3.39603868481E+002
+2.02801335559E+007, +1.28636458438E+001, +3.43789785244E+002
+2.04469115192E+007, +1.36696631233E+001, +3.47598026119E+002
+2.06136894825E+007, +1.37445348444E+001, +3.50437454544E+002
+2.07804674457E+007, +1.36672739054E+001, +3.54159360208E+002
+2.09472454090E+007, +1.35116083419E+001, +3.57405929920E+002
+2.11140233723E+007, +1.37558098057E+001, +3.60829154143E+002
+2.12808013356E+007, +1.39455078867E+001, +3.64220874345E+002
+2.14475792988E+007, +1.39687919717E+001, +3.67733745127E+002
+2.16143572621E+007, +1.46859408660E+001, +3.71448249587E+002
+2.17811352254E+007, +1.44057834938E+001, +3.74740468316E+002
+2.19479131886E+007, +1.55438082156E+001, +3.78154955665E+002
+2.21146911519E+007, +1.55188875365E+001, +3.81056321169E+002
+2.22814691152E+007, +1.42044592378E+001, +3.85107069206E+002
+2.24482470785E+007, +1.52206069518E+001, +3.89136362083E+002
+2.26150250417E+007, +1.62748127272E+001, +3.92356883911E+002
+2.27818030050E+007, +1.56236110884E+001, +3.96818158093E+002
+2.29485809683E+007, +1.67748686211E+001, +3.99985218461E+002
+2.31153589316E+007, +1.54100359245E+001, +4.03941628996E+002
+2.32821368948E+007, +1.66881688383E+001, +4.08372409099E+002
+2.34489148581E+007, +1.66636462456E+001, +4.10421032758E+002
+2.36156928214E+007, +1.69590624362E+001, +4.15236691724E+002
+2.37824707846E+007, +1.68260569877E+001, +4.19045733818E+002
+2.39492487479E+007, +1.71523783371E+001, +4.21576368927E+002
+2.41160267112E+007, +1.75563277175E+001, +4.25770091631E+002
+2.42828046745E+007, +1.64216751069E+001, +4.30123498676E+002
+2.44495826377E+007, +1.79709141603E+001, +4.34599783548E+002
+2.46163606010E+007, +1.81115991223E+001, +4.37488950323E+002
+2.47831385643E+007, +1.79038947752E+001, +4.41393072539E+002
+2.49499165275E+007, +1.93104361520E+001, +4.44996597192E+002
+2.51166944908E+007, +1.92617526772E+001, +4.48914184500E+002
+2.52834724541E+007, +2.00002821640E+001, +4.52970128328E+002
+2.54502504174E+007, +2.02346429154E+001, +4.57383670038E+002
+2.56170283806E+007, +2.01400289196E+001, +4.61294168642E+002
+2.57838063439E+007, +2.07776211674E+001, +4.65941122853E+002
+2.59505843072E+007, +2.08275368216E+001, +4.69916077640E+002
+2.61173622705E+007, +2.11615712597E+001, +4.73448248999E+002
+2.62841402337E+007, +2.15900994918E+001, +4.77766707926E+002
+2.64509181970E+007, +2.08889980614E+001, +4.81127757144E+002
+2.66176961603E+007, +2.19050608153E+001, +4.86192319042E+002
+2.67844741235E+007, +2.15585395243E+001, +4.89465894015E+002
+2.69512520868E+007, +2.27504802565E+001, +4.92842164787E+002
+2.71180300501E+007, +2.26088778185E+001, +4.96746944613E+002
+2.72848080134E+007, +2.32624231094E+001, +5.01975454884E+002
+2.74515859766E+007, +2.38772323763E+001, +5.06399432648E+002
+2.76183639399E+007, +2.25323436858E+001, +5.10795935690E+002
+2.77851419032E+007, +2.23644930862E+001, +5.14168227416E+002
+2.79519198664E+007, +2.30321185882E+001, +5.18476533573E+002
+2.81186978297E+007, +2.36465320157E+001, +5.22595626314E+002
+2.82854757930E+007, +2.37324166279E+001, +5.26703570203E+002
+2.84522537563E+007, +2.27180232679E+001, +5.31712832235E+002
+2.86190317195E+007, +2.38393395309E+001, +5.35884197932E+002
+2.87858096828E+007, +2.53988661899E+001, +5.41476486074E+002
+2.89525876461E+007, +2.40697969872E+001, +5.44127861598E+002
+2.91193656093E+007, +2.43691392545E+001, +5.47867249725E+002
+2.92861435726E+007, +2.37343960654E+001, +5.53365769307E+002
+2.94529215359E+007, +2.40747373362E+001, +5.59087669791E+002
+2.96196994992E+007, +2.53145055663E+001, +5.63186236354E+002
+2.97864774624E+007, +2.63097971759E+001, +5.68163583665E+002
+2.99532554257E+007, +2.67308792541E+001, +5.73767073041E+002
+3.01200333890E+007, +2.55857114562E+001, +5.79100240331E+002
+3.02868113523E+007, +2.57618783081E+001, +5.83552782637E+002
+3.04535893155E+007, +2.47177612348E+001, +5.89490345092E+002
+3.06203672788E+007, +2.65413809234E+001, +5.92979029163E+002
+3.07871452421E+007, +2.66266388658E+001, +5.98416081212E+002
+3.09539232053E+007, +2.70166615158E+001, +6.02022454040E+002
+3.11207011686E+007, +2.58037651203E+001, +6.09248984828E+002
+3.12874791319E+007, +2.70901290517E+001, +6.12363153341E+002
+3.14542570952E+007, +2.66652855675E+001, +6.18288198943E+002
+3.16210350584E+007, +2.63051034172E+001, +6.23013153883E+002
+3.17878130217E+007, +2.66191716865E+001, +6.29964621369E+002
+3.19545909850E+007, +2.74379974856E+001, +6.34255189345E+002
+3.21213689482E+007, +2.56825016629E+001, +6.40842392554E+002
+3.22881469115E+007, +2.82795787100E+001, +6.44885487483E+002
+3.24549248748E+007, +2.77185265353E+001, +6.53330698939E+002
+3.26217028381E+007, +2.45752998076E+001, +6.58631460004E+002
+3.27884808013E+007, +2.86202297069E+001, +6.62958652567E+002
+3.29552587646E+007, +2.87559861542E+001, +6.68721561935E+002
+3.31220367279E+007, +2.95744020162E+001, +6.73911574163E+002
+3.32888146912E+007, +2.89362170704E+001, +6.80855981371E+002
+3.34555926544E+007, +2.85770376797E+001, +6.86300171479E+002
+3.36223706177E+007, +3.15836853193E+001, +6.92735859567E+002
+3.37891485810E+007, +2.99022565676E+001, +6.95867001335E+002
+3.39559265442E+007, +2.91727384105E+001, +7.05880439544E+002
+3.41227045075E+007, +2.91431901189E+001, +7.10849812322E+002
+3.42894824708E+007, +2.98973534410E+001, +7.18005484579E+002
+3.44562604341E+007, +3.18661085963E+001, +7.24170413577E+002
+3.46230383973E+007, +3.07777894236E+001, +7.31099787348E+002
+3.47898163606E+007, +3.27042157101E+001, +7.34792920625E+002
+3.49565943239E+007, +3.35830856622E+001, +7.42288891307E+002
+3.51233722871E+007, +3.39321330287E+001, +7.48900481118E+002
+3.52901502504E+007, +3.40966828863E+001, +7.52589526156E+002
+3.54569282137E+007, +3.38684157542E+001, +7.62289186417E+002
+3.56237061770E+007, +3.22407945753E+001, +7.66992188629E+002
+3.57904841402E+007, +3.36703111193E+001, +7.76560457151E+002
+3.59572621035E+007, +3.83663883551E+001, +7.82478505073E+002
+3.61240400668E+007, +3.60219987533E+001, +7.91065846840E+002
+3.62908180301E+007, +3.64157212058E+001, +8.00508315114E+002
+3.64575959933E+007, +3.29159504831E+001, +8.05667600607E+002
+3.66243739566E+007, +3.92042654428E+001, +8.10256174802E+002
+3.67911519199E+007, +3.82038297464E+001, +8.22712573566E+002
+3.69579298831E+007, +3.77825455073E+001, +8.24290497174E+002
+3.71247078464E+007, +3.89745476835E+001, +8.36209875545E+002
+3.72914858097E+007, +3.88031808910E+001, +8.44259363971E+002
+3.74582637730E+007, +3.98429825255E+001, +8.55633835115E+002
+3.76250417362E+007, +4.32714792709E+001, +8.58462157333E+002
+3.77918196995E+007, +4.07384915123E+001, +8.67839890500E+002
+3.79585976628E+007, +3.72695766844E+001, +8.75854868047E+002
+3.81253756260E+007, +4.36008155919E+001, +8.83045866111E+002
+3.82921535893E+007, +4.57761466967E+001, +8.91294895075E+002
+3.84589315526E+007, +4.60443858813E+001, +8.99995138578E+002
+3.86257095159E+007, +4.26851536748E+001, +9.07582672256E+002
+3.87924874791E+007, +4.21687233355E+001, +9.19605613245E+002
+3.89592654424E+007, +4.76324296827E+001, +9.28553749131E+002
+3.91260434057E+007, +4.66105280818E+001, +9.37883927425E+002
+3.92928213689E+007, +4.93206386051E+001, +9.41761066639E+002
+3.94595993322E+007, +4.66312559230E+001, +9.54647625523E+002
+3.96263772955E+007, +4.60460046146E+001, +9.63621847201E+002
+3.97931552588E+007, +4.83537380790E+001, +9.73598498027E+002
+3.99599332220E+007, +4.86443632428E+001, +9.83942751187E+002
+4.01267111853E+007, +4.97979670242E+001, +9.95621716286E+002
+4.02934891486E+007, +5.33609202140E+001, +1.00393474885E+003
+4.04602671119E+007, +5.39063529461E+001, +1.01176327372E+003
+4.06270450751E+007, +5.70543268192E+001, +1.02806820134E+003
+4.07938230384E+007, +5.59845696161E+001, +1.03421874250E+003
+4.09606010017E+007, +5.73073971594E+001, +1.04768789969E+003
+4.11273789649E+007, +5.66010168306E+001, +1.05531327356E+003
+4.12941569282E+007, +5.55492286817E+001, +1.07050116419E+003
+4.14609348915E+007, +5.75348122019E+001, +1.08619556579E+003
+4.16277128548E+007, +6.49471151182E+001, +1.09144249016E+003
+4.17944908180E+007, +6.34293331827E+001, +1.10168903773E+003
+4.19612687813E+007, +6.43511194696E+001, +1.11463179491E+003
+4.21280467446E+007, +6.49720670396E+001, +1.13132552853E+003
+4.22948247078E+007, +5.96597187834E+001, +1.14348138117E+003
+4.24616026711E+007, +6.91057591828E+001, +1.15111740618E+003
+4.26283806344E+007, +7.29397280860E+001, +1.16939217496E+003
+4.27951585977E+007, +6.73103957682E+001, +1.18145733404E+003
+4.29619365609E+007, +7.96934039823E+001, +1.19864936445E+003
+4.31287145242E+007, +8.06285817012E+001, +1.20649871530E+003
+4.32954924875E+007, +7.87579099677E+001, +1.21520947690E+003
+4.34622704508E+007, +7.95019941556E+001, +1.23866882308E+003
+4.36290484140E+007, +8.52013312749E+001, +1.25072270356E+003
+4.37958263773E+007, +7.99047609603E+001, +1.26889130836E+003
+4.39626043406E+007, +8.67435070310E+001, +1.28024510287E+003
+4.41293823038E+007, +9.21571163533E+001, +1.30046350459E+003
+4.42961602671E+007, +8.97456481164E+001, +1.30701038160E+003
+4.44629382304E+007, +9.11329142756E+001, +1.32263405104E+003
+4.46297161937E+007, +1.01116054100E+002, +1.33792462215E+003
+4.47964941569E+007, +9.02490674285E+001, +1.35645174581E+003
+4.49632721202E+007, +9.46703183777E+001, +1.38342491775E+003
+4.51300500835E+007, +9.91753529874E+001, +1.39062654027E+003
+4.52968280467E+007, +1.12052986329E+002, +1.41328545998E+003
+4.54636060100E+007, +1.09737391833E+002, +1.44438439248E+003
+4.56303839733E+007, +1.05875938545E+002, +1.45562642744E+003
+4.57971619366E+007, +1.15356633892E+002, +1.46896736530E+003
+4.59639398998E+007, +1.13151079988E+002, +1.50627114242E+003
+4.61307178631E+007, +1.23433176016E+002, +1.51523209226E+003
+4.62974958264E+007, +1.28215750386E+002, +1.54575643378E+003
+4.64642737896E+007, +1.23684041952E+002, +1.55633876227E+003
+4.66310517529E+007, +1.28789061986E+002, +1.59431092340E+003
+4.67978297162E+007, +1.49043483034E+002, +1.60516435192E+003
+4.69646076795E+007, +1.38978563842E+002, +1.64696600186E+003
+4.71313856427E+007, +1.52234215128E+002, +1.66564290930E+003
+4.72981636060E+007, +1.51202853778E+002, +1.70368339429E+003
+4.74649415693E+007, +1.57867152421E+002, +1.71202471808E+003
+4.76317195326E+007, +1.88375017930E+002, +1.73387734333E+003
+4.77984974958E+007, +1.88175025117E+002, +1.76946696253E+003
+4.79652754591E+007, +1.90494092203E+002, +1.79975360032E+003
+4.81320534224E+007, +2.01996897224E+002, +1.82071476745E+003
+4.82988313856E+007, +1.96503033583E+002, +1.85858156226E+003
+4.84656093489E+007, +2.32596844710E+002, +1.87992426957E+003
+4.86323873122E+007, +2.31135501254E+002, +1.90239028887E+003
+4.87991652755E+007, +2.44035270781E+002, +1.96714008439E+003
+4.89659432387E+007, +2.53334765486E+002, +1.96749378221E+003
+4.91327212020E+007, +2.54488466045E+002, +2.03074451036E+003
+4.92994991653E+007, +2.83646967151E+002, +2.03975013355E+003
+4.94662771285E+007, +3.07394753581E+002, +2.09299953889E+003
+4.96330550918E+007, +3.29870822664E+002, +2.11397229735E+003
+4.97998330551E+007, +3.37856021280E+002, +2.14402344877E+003
+4.99666110184E+007, +3.56859874257E+002, +2.18556314509E+003
+5.01333889816E+007, +3.56046224654E+002, +2.22600121248E+003
+5.03001669449E+007, +3.73934547889E+002, +2.28552912929E+003
+5.04669449082E+007, +4.04255783467E+002, +2.32930085909E+003
+5.06337228715E+007, +4.31365153340E+002, +2.36415056191E+003
+5.08005008347E+007, +4.17547320915E+002, +2.39846100784E+003
+5.09672787980E+007, +4.78826571396E+002, +2.43933605605E+003
+5.11340567613E+007, +4.91423731826E+002, +2.52197038170E+003
+5.13008347245E+007, +4.99928238631E+002, +2.56814497018E+003
+5.14676126878E+007, +5.26965542330E+002, +2.62300442621E+003
+5.16343906511E+007, +5.82286945694E+002, +2.67606763678E+003
+5.18011686144E+007, +5.60363284158E+002, +2.73804013224E+003
+5.19679465776E+007, +6.01477824689E+002, +2.82376355862E+003
+5.21347245409E+007, +6.70440143155E+002, +2.87659688889E+003
+5.23015025042E+007, +7.33499548149E+002, +2.96631497463E+003
+5.24682804674E+007, +7.17736757726E+002, +3.03541328879E+003
+5.26350584307E+007, +7.98057525006E+002, +3.08045685633E+003
+5.28018363940E+007, +8.10301202616E+002, +3.18213140911E+003
+5.29686143573E+007, +8.62079263145E+002, +3.26250736199E+003
+5.31353923205E+007, +9.02065768343E+002, +3.34371060920E+003
+5.33021702838E+007, +1.03230080209E+003, +3.43815733685E+003
+5.34689482471E+007, +1.06713633194E+003, +3.51436680882E+003
