"# Channel 1"
"# Trace 1"
Frequency, Formatted Data, Formatted Data
+1.00000000000E+005, +5.79977678902E-001, +1.61529301197E+000
+2.25031289111E+005, +5.87364551183E-001, +3.61377024594E+000
+3.50062578223E+005, +6.02598777434E-001, +5.64124280029E+000
+4.75093867334E+005, +6.04195070498E-001, +7.66806944859E+000
+6.00125156446E+005, +6.29310559673E-001, +9.68110590896E+000
+7.25156445557E+005, +6.52058644419E-001, +1.16640813320E+001
+8.50187734668E+005, +7.13208620854E-001, +1.36490975831E+001
+9.75219023780E+005, +7.19182755206E-001, +1.56324656394E+001
+1.10025031289E+006, +7.69847081375E-001, +1.76191363282E+001
+1.22528160200E+006, +8.05449168688E-001, +1.96194021554E+001
+1.35031289111E+006, +7.81614439786E-001, +2.16342062638E+001
+1.47534418023E+006, +8.30048248108E-001, +2.35865142923E+001
+1.60037546934E+006, +8.38970135041E-001, +2.54981648985E+001
+1.72540675845E+006, +9.17776146929E-001, +2.75079179874E+001
+1.85043804756E+006, +9.26752304252E-001, +2.94550695263E+001
+1.97546933667E+006, +9.26666544704E-001, +3.14163782686E+001
+2.10050062578E+006, +9.60263983372E-001, +3.34156675504E+001
+2.22553191489E+006, +9.34823393950E-001, +3.54358233226E+001
+2.35056320401E+006, +9.31000244011E-001, +3.73545571590E+001
+2.47559449312E+006, +9.83650403344E-001, +3.92637928515E+001
+2.60062578223E+006, +1.01727087985E+000, +4.12690772790E+001
+2.72565707134E+006, +1.03622541909E+000, +4.32090271949E+001
+2.85068836045E+006, +1.05771758995E+000, +4.51978049514E+001
+2.97571964956E+006, +1.05954824464E+000, +4.72181753755E+001
+3.10075093867E+006, +1.01956203604E+000, +4.91930153606E+001
+3.22578222778E+006, +1.06080618317E+000, +5.11100907043E+001
+3.35081351690E+006, +1.17474020873E+000, +5.31504827333E+001
+3.47584480601E+006, +1.17171469068E+000, +5.50423256006E+001
+3.60087609512E+006, +1.25660682658E+000, +5.70670927062E+001
+3.72590738423E+006, +1.16077104489E+000, +5.90894715168E+001
+3.85093867334E+006, +1.23476424464E+000, +6.10616314714E+001
+3.97596996245E+006, +1.17254476369E+000, +6.29641346446E+001
+4.10100125156E+006, +1.18929997655E+000, +6.50692692445E+001
+4.22603254068E+006, +1.25234148234E+000, +6.68270601967E+001
+4.35106382979E+006, +1.24206361190E+000, +6.89228367455E+001
+4.47609511890E+006, +1.31909913009E+000, +7.08616355325E+001
+4.60112640801E+006, +1.18933004214E+000, +7.28639231126E+001
+4.72615769712E+006, +1.19514524525E+000, +7.47483193380E+001
+4.85118898623E+006, +1.21850651938E+000, +7.67742415509E+001
+4.97622027534E+006, +1.28415939154E+000, +7.87846968434E+001
+5.10125156446E+006, +1.22823378534E+000, +8.06541509671E+001
+5.22628285357E+006, +1.32573598875E+000, +8.26471530296E+001
+5.35131414268E+006, +1.30221850836E+000, +8.47343338639E+001
+5.47634543179E+006, +1.27134939558E+000, +8.67545175243E+001
+5.60137672090E+006, +1.38916588663E+000, +8.88348993198E+001
+5.72640801001E+006, +1.29325167613E+000, +9.07146930079E+001
+5.85143929912E+006, +1.42161994225E+000, +9.28755337061E+001
+5.97647058824E+006, +1.41341518494E+000, +9.46907981940E+001
+6.10150187735E+006, +1.27444200392E+000, +9.67446056248E+001
+6.22653316646E+006, +1.53678076132E+000, +9.87656543610E+001
+6.35156445557E+006, +1.45091670726E+000, +1.00787545885E+002
+6.47659574468E+006, +1.55436045196E+000, +1.02880852049E+002
+6.60162703379E+006, +1.47779012088E+000, +1.04877075068E+002
+6.72665832290E+006, +1.49500685666E+000, +1.06823415835E+002
+6.85168961202E+006, +1.44499725707E+000, +1.08922662699E+002
+6.97672090113E+006, +1.55685447625E+000, +1.10857332500E+002
+7.10175219024E+006, +1.57531943566E+000, +1.12857808237E+002
+7.22678347935E+006, +1.53444800015E+000, +1.14846605562E+002
+7.35181476846E+006, +1.61463545709E+000, +1.16792746909E+002
+7.47684605757E+006, +1.65341822421E+000, +1.18893446068E+002
+7.60187734668E+006, +1.60162630537E+000, +1.20886488946E+002
+7.72690863579E+006, +1.64563164130E+000, +1.22835497644E+002
+7.85193992491E+006, +1.68689581430E+000, +1.25066277199E+002
+7.97697121402E+006, +1.81697925996E+000, +1.26984464520E+002
+8.10200250313E+006, +1.72655182786E+000, +1.29032915531E+002
+8.22703379224E+006, +1.72679828782E+000, +1.31096459353E+002
+8.35206508135E+006, +1.65635703743E+000, +1.33048594767E+002
+8.47709637046E+006, +1.73343953794E+000, +1.34968455793E+002
+8.60212765957E+006, +1.63124889782E+000, +1.37085986368E+002
+8.72715894869E+006, +1.66757459630E+000, +1.39267502859E+002
+8.85219023780E+006, +1.83367299058E+000, +1.41306470185E+002
+8.97722152691E+006, +1.79533169514E+000, +1.43324820596E+002
+9.10225281602E+006, +1.81358169926E+000, +1.45319701229E+002
+9.22728410513E+006, +1.85897965533E+000, +1.47380044168E+002
+9.35231539424E+006, +1.81691126365E+000, +1.49523861252E+002
+9.47734668335E+006, +1.76980468349E+000, +1.51309346761E+002
+9.60237797247E+006, +1.77327627407E+000, +1.53571012921E+002
+9.72740926158E+006, +1.85479795339E+000, +1.55593063831E+002
+9.85244055069E+006, +1.91693777668E+000, +1.57552159814E+002
+9.97747183980E+006, +1.76615406309E+000, +1.59629857965E+002
+1.01025031289E+007, +1.82972079926E+000, +1.61527926027E+002
+1.02275344180E+007, +1.95580946168E+000, +1.63813332967E+002
+1.03525657071E+007, +1.92336660484E+000, +1.65868482532E+002
+1.04775969962E+007, +1.89837556838E+000, +1.67903126031E+002
+1.06026282854E+007, +1.80851520145E+000, +1.69987853646E+002
+1.07276595745E+007, +1.92827675610E+000, +1.72177854742E+002
+1.08526908636E+007, +2.03154252290E+000, +1.74266958433E+002
+1.09777221527E+007, +2.00586636361E+000, +1.76312344789E+002
+1.11027534418E+007, +1.96979239788E+000, +1.78481924952E+002
+1.12277847309E+007, +1.91713685916E+000, +1.80493596625E+002
+1.13528160200E+007, +1.71735180805E+000, +1.82577945693E+002
+1.14778473091E+007, +2.01369677945E+000, +1.84530275856E+002
+1.16028785982E+007, +1.79684978869E+000, +1.86738779217E+002
+1.17279098874E+007, +1.86502325218E+000, +1.88897510718E+002
+1.18529411765E+007, +1.78358301913E+000, +1.90877265420E+002
+1.19779724656E+007, +1.87062947374E+000, +1.92996790522E+002
+1.21030037547E+007, +1.83281769586E+000, +1.95282303475E+002
+1.22280350438E+007, +1.80581020341E+000, +1.97105062456E+002
+1.23530663329E+007, +1.93307256820E+000, +1.99693684600E+002
+1.24780976220E+007, +1.75988080868E+000, +2.01544766533E+002
+1.26031289111E+007, +1.97214478974E+000, +2.03684511172E+002
+1.27281602003E+007, +2.01369605807E+000, +2.05886396835E+002
+1.28531914894E+007, +2.24210652693E+000, +2.08320050691E+002
+1.29782227785E+007, +1.83475700229E+000, +2.10050141787E+002
+1.31032540676E+007, +1.91803022970E+000, +2.12324201154E+002
+1.32282853567E+007, +1.69824976171E+000, +2.14502035208E+002
+1.33533166458E+007, +1.95446886470E+000, +2.16594436902E+002
+1.34783479349E+007, +1.51115570318E+000, +2.18917815244E+002
+1.36033792240E+007, +1.92784257328E+000, +2.20831671105E+002
+1.37284105131E+007, +1.73291622744E+000, +2.23283086570E+002
+1.38534418023E+007, +2.02422649429E+000, +2.25158925963E+002
+1.39784730914E+007, +2.07035445562E+000, +2.27164479204E+002
+1.41035043805E+007, +1.75285602048E+000, +2.29595726747E+002
+1.42285356696E+007, +2.09309184852E+000, +2.32027729035E+002
+1.43535669587E+007, +1.84614743256E+000, +2.34147617187E+002
+1.44785982478E+007, +1.77276127681E+000, +2.35928217522E+002
+1.46036295369E+007, +1.85420325428E+000, +2.37891684089E+002
+1.47286608260E+007, +1.67717224220E+000, +2.40762989757E+002
+1.48536921151E+007, +2.00939533233E+000, +2.42671775766E+002
+1.49787234043E+007, +2.21343581792E+000, +2.44761530375E+002
+1.51037546934E+007, +1.88663175610E+000, +2.46965940298E+002
+1.52287859825E+007, +1.96975135532E+000, +2.49169753498E+002
+1.53538172716E+007, +2.20566892779E+000, +2.51440854855E+002
+1.54788485607E+007, +1.83311187481E+000, +2.53833334314E+002
+1.56038798498E+007, +2.16043574709E+000, +2.55992012057E+002
+1.57289111389E+007, +1.61303161335E+000, +2.58542493452E+002
+1.58539424280E+007, +2.06239899722E+000, +2.60365238912E+002
+1.59789737171E+007, +1.90307761211E+000, +2.62808162542E+002
+1.61040050063E+007, +1.97421238999E+000, +2.64810316634E+002
+1.62290362954E+007, +1.73969670141E+000, +2.66989493935E+002
+1.63540675845E+007, +1.88760183516E+000, +2.69644132641E+002
+1.64790988736E+007, +1.92264110977E+000, +2.71871791619E+002
+1.66041301627E+007, +1.52814259191E+000, +2.73833646336E+002
+1.67291614518E+007, +1.82002088131E+000, +2.76848341207E+002
+1.68541927409E+007, +1.95683321312E+000, +2.78739480987E+002
+1.69792240300E+007, +1.56134005641E+000, +2.80909042313E+002
+1.71042553191E+007, +1.25843581906E+000, +2.83311026613E+002
+1.72292866083E+007, +1.36683672441E+000, +2.85395199063E+002
+1.73543178974E+007, +1.92695583483E+000, +2.88205707409E+002
+1.74793491865E+007, +1.55660432972E+000, +2.90068650078E+002
+1.76043804756E+007, +1.54819576581E+000, +2.92569170481E+002
+1.77294117647E+007, +1.39882022194E+000, +2.94812434264E+002
+1.78544430538E+007, +1.85259124111E+000, +2.97409929939E+002
+1.79794743429E+007, +1.97898954416E+000, +2.99782284366E+002
+1.81045056320E+007, +1.92793658926E+000, +3.02559145089E+002
+1.82295369212E+007, +1.53084835639E+000, +3.03852483814E+002
+1.83545682103E+007, +1.82789409869E+000, +3.06902963221E+002
+1.84795994994E+007, +2.08896248683E+000, +3.08949569458E+002
+1.86046307885E+007, +2.07980464561E+000, +3.10951459756E+002
+1.87296620776E+007, +1.63758525200E+000, +3.13905354054E+002
+1.88546933667E+007, +1.95235053382E+000, +3.15639747147E+002
+1.89797246558E+007, +1.79984345110E+000, +3.18341063676E+002
+1.91047559449E+007, +2.16167053751E+000, +3.20808115826E+002
+1.92297872340E+007, +1.79451343646E+000, +3.24070201186E+002
+1.93548185232E+007, +2.11439638811E+000, +3.25702628689E+002
+1.94798498123E+007, +1.63791926983E+000, +3.27993405142E+002
+1.96048811014E+007, +2.37707015286E+000, +3.30178388402E+002
+1.97299123905E+007, +1.81771888622E+000, +3.32695448120E+002
+1.98549436796E+007, +1.93417309547E+000, +3.35273039569E+002
+1.99799749687E+007, +2.06696884813E+000, +3.37875503172E+002
+2.01050062578E+007, +1.59821133395E+000, +3.40203912682E+002
+2.02300375469E+007, +2.64579804942E+000, +3.42580699992E+002
+2.03550688360E+007, +1.55367073564E+000, +3.45338404398E+002
+2.04801001252E+007, +1.90759578971E+000, +3.47669763312E+002
+2.06051314143E+007, +1.76904742627E+000, +3.51180918242E+002
+2.07301627034E+007, +1.66703032185E+000, +3.52800190147E+002
+2.08551939925E+007, +1.81583731254E+000, +3.56049998791E+002
+2.09802252816E+007, +1.98545487612E+000, +3.57189307877E+002
+2.11052565707E+007, +1.89967575651E+000, +3.60326605621E+002
+2.12302878598E+007, +1.67623051974E+000, +3.63084307944E+002
+2.13553191489E+007, +2.49368186076E+000, +3.64523165926E+002
+2.14803504380E+007, +2.12627155333E+000, +3.67400874449E+002
+2.16053817272E+007, +1.42342768175E+000, +3.69936717602E+002
+2.17304130163E+007, +2.13851474110E+000, +3.72595120836E+002
+2.18554443054E+007, +2.41388521036E+000, +3.75653846058E+002
+2.19804755945E+007, +2.03592870689E+000, +3.78457961319E+002
+2.21055068836E+007, +2.18303143314E+000, +3.81165682406E+002
+2.22305381727E+007, +2.02240911233E+000, +3.83367131412E+002
+2.23555694618E+007, +2.37214605264E+000, +3.86473300560E+002
+2.24806007509E+007, +2.92093081134E+000, +3.88382132421E+002
+2.26056320401E+007, +3.02659191023E+000, +3.91369223731E+002
+2.27306633292E+007, +2.68099768261E+000, +3.93446208941E+002
+2.28556946183E+007, +2.36725352963E+000, +3.96176066338E+002
+2.29807259074E+007, +3.01561133500E+000, +4.00296806196E+002
+2.31057571965E+007, +2.95202431283E+000, +4.01061758530E+002
+2.32307884856E+007, +2.37150390658E+000, +4.04970449846E+002
+2.33558197747E+007, +3.52869026907E+000, +4.07638909025E+002
+2.34808510638E+007, +2.84440795389E+000, +4.09939479433E+002
+2.36058823529E+007, +2.83709798867E+000, +4.12734420581E+002
+2.37309136421E+007, +3.08372662809E+000, +4.14975938914E+002
+2.38559449312E+007, +3.34104197491E+000, +4.19356285903E+002
+2.39809762203E+007, +3.88559307862E+000, +4.18962441393E+002
+2.41060075094E+007, +3.54005416946E+000, +4.22611946902E+002
+2.42310387985E+007, +4.50450115775E+000, +4.25628418156E+002
+2.43560700876E+007, +4.04234546993E+000, +4.28634966756E+002
+2.44811013767E+007, +3.92611933563E+000, +4.30838953695E+002
+2.46061326658E+007, +4.02025414780E+000, +4.33122043593E+002
+2.47311639549E+007, +3.11963176283E+000, +4.35882430869E+002
+2.48561952441E+007, +4.02060433165E+000, +4.39691797914E+002
+2.49812265332E+007, +2.76458835207E+000, +4.43110152757E+002
+2.51062578223E+007, +4.65208007916E+000, +4.44171342012E+002
+2.52312891114E+007, +3.83180400934E+000, +4.46909669883E+002
+2.53563204005E+007, +3.28266086675E+000, +4.51290749181E+002
+2.54813516896E+007, +3.28992837944E+000, +4.53138194946E+002
+2.56063829787E+007, +2.75612506200E+000, +4.55006724455E+002
+2.57314142678E+007, +3.51956374238E+000, +4.59153350916E+002
+2.58564455569E+007, +3.41009328006E+000, +4.60932696389E+002
+2.59814768461E+007, +4.04085814347E+000, +4.63804117932E+002
+2.61065081352E+007, +3.68107358154E+000, +4.66830649865E+002
+2.62315394243E+007, +2.57752608414E+000, +4.69647013328E+002
+2.63565707134E+007, +3.23430918475E+000, +4.73195548979E+002
+2.64816020025E+007, +2.75763892804E+000, +4.75815418278E+002
+2.66066332916E+007, +4.89116007313E+000, +4.78913832224E+002
+2.67316645807E+007, +2.47782815811E+000, +4.80900880635E+002
+2.68566958698E+007, +3.61198271461E+000, +4.84614217550E+002
+2.69817271589E+007, +3.25586249056E+000, +4.86885934269E+002
+2.71067584481E+007, +2.75442568400E+000, +4.90560720596E+002
+2.72317897372E+007, +4.48624469230E+000, +4.93402079115E+002
+2.73568210263E+007, +5.03559032571E+000, +4.96623155140E+002
+2.74818523154E+007, +2.62105664971E+000, +4.98897820968E+002
+2.76068836045E+007, +3.37854989627E+000, +5.02411060586E+002
+2.77319148936E+007, +4.03049505310E+000, +5.04744983270E+002
+2.78569461827E+007, +3.44436066453E+000, +5.07585183435E+002
+2.79819774718E+007, +2.92179102524E+000, +5.11607557392E+002
+2.81070087610E+007, +4.42078198406E+000, +5.14112970328E+002
+2.82320400501E+007, +1.43680858808E+000, +5.17251379863E+002
+2.83570713392E+007, +2.97289468600E+000, +5.19419332482E+002
+2.84821026283E+007, +4.14796863781E+000, +5.23439172716E+002
+2.86071339174E+007, +2.24065221256E+000, +5.25653103814E+002
+2.87321652065E+007, +3.60486519158E+000, +5.29743985105E+002
+2.88571964956E+007, +3.30763633776E+000, +5.32122040930E+002
+2.89822277847E+007, +2.63119043011E+000, +5.36305253558E+002
+2.91072590738E+007, +2.89833845806E+000, +5.39289491237E+002
+2.92322903630E+007, +2.39505571807E+000, +5.43166975161E+002
+2.93573216521E+007, +3.58708679811E+000, +5.46620517949E+002
+2.94823529412E+007, +3.29586029586E+000, +5.49406172923E+002
+2.96073842303E+007, +1.96518946856E+000, +5.52451369660E+002
+2.97324155194E+007, +1.50150392899E+000, +5.57228558834E+002
+2.98574468085E+007, +3.14860670155E+000, +5.59189512728E+002
+2.99824780976E+007, +1.62458866130E+000, +5.63804944767E+002
+3.01075093867E+007, +3.66117450144E+000, +5.65986742044E+002
+3.02325406758E+007, +2.56802720148E+000, +5.68067544644E+002
+3.03575719650E+007, +1.98764876454E+000, +5.73366792581E+002
+3.04826032541E+007, +1.80120714886E+000, +5.76263774922E+002
+3.06076345432E+007, +3.42807276034E+000, +5.78196595676E+002
+3.07326658323E+007, +2.21000195772E+000, +5.82266494534E+002
+3.08576971214E+007, +3.43667767507E+000, +5.86228604337E+002
+3.09827284105E+007, +1.51111744259E+000, +5.88871662988E+002
+3.11077596996E+007, +1.55931897007E+000, +5.93402837592E+002
+3.12327909887E+007, +2.77209068959E+000, +5.95817949211E+002
+3.13578222778E+007, +4.25964707384E+000, +6.00483600384E+002
+3.14828535670E+007, +2.44472219322E+000, +6.02081979761E+002
+3.16078848561E+007, +3.10284059462E+000, +6.06330539350E+002
+3.17329161452E+007, +2.44969955417E+000, +6.12381061163E+002
+3.18579474343E+007, +5.83446695888E-001, +6.16253916081E+002
+3.19829787234E+007, +1.25631635689E+000, +6.17746202398E+002
+3.21080100125E+007, +2.90314726054E+000, +6.21644023902E+002
+3.22330413016E+007, +1.68243577614E+000, +6.25393688003E+002
+3.23580725907E+007, +1.71023295077E+000, +6.30495118373E+002
+3.24831038798E+007, +3.65512041002E+000, +6.32153350747E+002
+3.26081351690E+007, +1.46998123035E+000, +6.36981832593E+002
+3.27331664581E+007, +2.28550523768E+000, +6.39358161011E+002
+3.28581977472E+007, +9.10675347510E-001, +6.45727051940E+002
+3.29832290363E+007, +2.69378112793E+000, +6.48840578385E+002
+3.31082603254E+007, +5.76786088221E-001, +6.48553291247E+002
+3.32332916145E+007, +2.85609411484E+000, +6.55608179195E+002
+3.33583229036E+007, +1.36205160218E+000, +6.57550916293E+002
+3.34833541927E+007, +1.74102146329E+000, +6.62394050160E+002
+3.36083854819E+007, +2.97735692147E+000, +6.64632720507E+002
+3.37334167710E+007, +2.77180618021E+000, +6.69208698665E+002
+3.38584480601E+007, +1.13465883217E+000, +6.73808244809E+002
+3.39834793492E+007, +1.26717999645E+000, +6.78856098424E+002
+3.41085106383E+007, +2.55679924827E+000, +6.83298244740E+002
+3.42335419274E+007, +2.96296963709E+000, +6.84797312833E+002
+3.43585732165E+007, +1.62794981466E+000, +6.92000571300E+002
+3.44836045056E+007, +4.62180590721E+000, +6.97940292405E+002
+3.46086357947E+007, +1.97768370869E+000, +6.97854613119E+002
+3.47336670839E+007, +2.96256844348E+000, +7.02249971220E+002
+3.48586983730E+007, +3.67559275096E+000, +7.07160230069E+002
+3.49837296621E+007, +4.24334392591E+000, +7.11802303600E+002
+3.51087609512E+007, +1.12401674128E+000, +7.15774914449E+002
+3.52337922403E+007, +3.64110454266E+000, +7.21444973762E+002
+3.53588235294E+007, +1.15345192559E+000, +7.23939676581E+002
+3.54838548185E+007, +3.78791713227E+000, +7.26830203963E+002
+3.56088861076E+007, +2.96817730941E+000, +7.33889802566E+002
+3.57339173967E+007, +4.08101488353E+000, +7.37891729625E+002
+3.58589486859E+007, +1.55709519775E-001, +7.39409606950E+002
+3.59839799750E+007, +3.95672810765E+000, +7.47130579709E+002
+3.61090112641E+007, +3.57884027195E+000, +7.51186137867E+002
+3.62340425532E+007, +1.13489229508E+000, +7.52152330286E+002
+3.63590738423E+007, +3.33043365315E+000, +7.59423232755E+002
+3.64841051314E+007, +4.86134960571E+000, +7.59619824965E+002
+3.66091364205E+007, +1.87176114043E+000, +7.67054015482E+002
+3.67341677096E+007, +5.24267119136E+000, +7.72079624774E+002
+3.68591989987E+007, +3.19144873453E+000, +7.76077201117E+002
+3.69842302879E+007, +5.08906061926E+000, +7.82006185389E+002
+3.71092615770E+007, +7.36652539871E+000, +7.87136712656E+002
+3.72342928661E+007, +4.43347563276E+000, +7.87973965051E+002
+3.73593241552E+007, -8.40038081695E-001, +7.97759766969E+002
+3.74843554443E+007, +1.57001163262E+000, +8.02712357087E+002
+3.76093867334E+007, +2.95267104229E+000, +8.04246993476E+002
+3.77344180225E+007, +4.22221951706E+000, +8.10190527904E+002
+3.78594493116E+007, +2.52110106724E+000, +8.15767821435E+002
+3.79844806008E+007, +3.93551449765E+000, +8.20197700977E+002
+3.81095118899E+007, +1.80447166714E+000, +8.23829453849E+002
+3.82345431790E+007, +3.93047379087E+000, +8.30195730835E+002
+3.83595744681E+007, +6.98704220075E+000, +8.32166091039E+002
+3.84846057572E+007, +2.07804100136E+000, +8.37677867325E+002
+3.86096370463E+007, +2.53866221553E+000, +8.43092504771E+002
+3.87346683354E+007, +4.49739905420E+000, +8.49531937006E+002
+3.88596996245E+007, +3.90932308494E+000, +8.56974562340E+002
+3.89847309136E+007, +9.19011822033E+000, +8.61264394954E+002
+3.91097622028E+007, +5.05506949498E+000, +8.65859802752E+002
+3.92347934919E+007, +6.69941202469E+000, +8.70035210755E+002
+3.93598247810E+007, +6.22948727823E+000, +8.72222678716E+002
+3.94848560701E+007, +3.86471652099E+000, +8.79429506879E+002
+3.96098873592E+007, +5.22841215646E+000, +8.85919064659E+002
+3.97349186483E+007, +9.45435500402E+000, +8.92593033644E+002
+3.98599499374E+007, +9.06227075311E+000, +8.97401023387E+002
+3.99849812265E+007, +6.56136637048E+000, +9.04233983844E+002
+4.01100125156E+007, +7.48702783959E+000, +9.07953375425E+002
