"# Channel 1"
"# Trace 1"
Frequency, Formatted Data, Formatted Data
+1.00000000000E+006, +6.50296723678E+000, +1.58037867769E+001
+1.16527545910E+006, +6.53758016040E+000, +1.84127181415E+001
+1.33055091820E+006, +6.58406809983E+000, +2.09651319667E+001
+1.49582637730E+006, +6.53284496111E+000, +2.35779811729E+001
+1.66110183639E+006, +6.56850981670E+000, +2.61899647886E+001
+1.82637729549E+006, +6.55474215660E+000, +2.87246309838E+001
+1.99165275459E+006, +6.59717075172E+000, +3.13281125168E+001
+2.15692821369E+006, +6.60165277898E+000, +3.39220908405E+001
+2.32220367279E+006, +6.55675087771E+000, +3.65385450381E+001
+2.48747913189E+006, +6.54160693289E+000, +3.91215207613E+001
+2.65275459098E+006, +6.52351740420E+000, +4.17084197803E+001
+2.81803005008E+006, +6.54801772242E+000, +4.43483935457E+001
+2.98330550918E+006, +6.52741266563E+000, +4.68357558570E+001
+3.14858096828E+006, +6.60762799873E+000, +4.94609149684E+001
+3.31385642738E+006, +6.72687234072E+000, +5.21027494341E+001
+3.47913188648E+006, +6.58705292902E+000, +5.47775838592E+001
+3.64440734558E+006, +6.65518421554E+000, +5.72576238844E+001
+3.80968280467E+006, +6.72732579384E+000, +5.98902425473E+001
+3.97495826377E+006, +6.73719951678E+000, +6.24408109585E+001
+4.14023372287E+006, +6.83640719129E+000, +6.52542409669E+001
+4.30550918197E+006, +6.79135137680E+000, +6.75495657493E+001
+4.47078464107E+006, +6.72335461590E+000, +7.02979338351E+001
+4.63606010017E+006, +6.68460641053E+000, +7.28588748065E+001
+4.80133555927E+006, +6.73779186266E+000, +7.55240795102E+001
+4.96661101836E+006, +6.76628334375E+000, +7.80608579401E+001
+5.13188647746E+006, +6.78372015859E+000, +8.07389976116E+001
+5.29716193656E+006, +6.73733289512E+000, +8.31545623727E+001
+5.46243739566E+006, +6.84574284671E+000, +8.59645001647E+001
+5.62771285476E+006, +6.92289319665E+000, +8.85586138945E+001
+5.79298831386E+006, +7.01190927257E+000, +9.11624611653E+001
+5.95826377295E+006, +7.10445056422E+000, +9.37689022309E+001
+6.12353923205E+006, +7.25296825913E+000, +9.62751530355E+001
+6.28881469115E+006, +7.07352203823E+000, +9.90098921094E+001
+6.45409015025E+006, +7.22806803403E+000, +1.01609904155E+002
+6.61936560935E+006, +7.14713169025E+000, +1.04188558206E+002
+6.78464106845E+006, +7.21655396300E+000, +1.06829802569E+002
+6.94991652755E+006, +7.28604496140E+000, +1.09431953481E+002
+7.11519198664E+006, +7.32544591309E+000, +1.12029067373E+002
+7.28046744574E+006, +7.37247298774E+000, +1.14711032270E+002
+7.44574290484E+006, +7.45822689450E+000, +1.17267443109E+002
+7.61101836394E+006, +7.46269835004E+000, +1.19886367704E+002
+7.77629382304E+006, +7.52035346967E+000, +1.22476205595E+002
+7.94156928214E+006, +7.47953994773E+000, +1.25106159900E+002
+8.10684474124E+006, +7.45034686370E+000, +1.27584186426E+002
+8.27212020033E+006, +7.56270487655E+000, +1.30281884103E+002
+8.43739565943E+006, +7.62157555231E+000, +1.33059626261E+002
+8.60267111853E+006, +7.51532981454E+000, +1.35539976111E+002
+8.76794657763E+006, +7.66149509116E+000, +1.38100817204E+002
+8.93322203673E+006, +7.57584472447E+000, +1.40836612674E+002
+9.09849749583E+006, +7.69705722990E+000, +1.43344963051E+002
+9.26377295492E+006, +7.68786844128E+000, +1.46220689837E+002
+9.42904841402E+006, +7.79274035701E+000, +1.48627530210E+002
+9.59432387312E+006, +7.77151067205E+000, +1.51278460708E+002
+9.75959933222E+006, +7.57468242617E+000, +1.53826630376E+002
+9.92487479132E+006, +7.62267752458E+000, +1.56497364837E+002
+1.00901502504E+007, +7.71092106978E+000, +1.59115874942E+002
+1.02554257095E+007, +7.67973419645E+000, +1.61589312619E+002
+1.04207011686E+007, +7.76948024984E+000, +1.64360084419E+002
+1.05859766277E+007, +7.78491883338E+000, +1.67219204823E+002
+1.07512520868E+007, +7.78476460327E+000, +1.69653028886E+002
+1.09165275459E+007, +7.73890204491E+000, +1.72332641542E+002
+1.10818030050E+007, +7.91753102811E+000, +1.75156074222E+002
+1.12470784641E+007, +7.96811802400E+000, +1.77471697314E+002
+1.14123539232E+007, +7.86148986624E+000, +1.80263783263E+002
+1.15776293823E+007, +8.09568823972E+000, +1.83124830603E+002
+1.17429048414E+007, +7.96805025815E+000, +1.85737212166E+002
+1.19081803005E+007, +8.04857175886E+000, +1.88529717476E+002
+1.20734557596E+007, +8.12755716045E+000, +1.91093304196E+002
+1.22387312187E+007, +7.93966759111E+000, +1.93537743512E+002
+1.24040066778E+007, +8.18465199476E+000, +1.96148517373E+002
+1.25692821369E+007, +8.11780597285E+000, +1.98711987292E+002
+1.27345575960E+007, +8.29179513384E+000, +2.01549543002E+002
+1.28998330551E+007, +8.02139622004E+000, +2.04365699923E+002
+1.30651085142E+007, +8.01848293888E+000, +2.07066555388E+002
+1.32303839733E+007, +8.42706895933E+000, +2.09801861196E+002
+1.33956594324E+007, +8.21290725996E+000, +2.12662883186E+002
+1.35609348915E+007, +8.33206688964E+000, +2.15079495925E+002
+1.37262103506E+007, +8.26361609404E+000, +2.17535386565E+002
+1.38914858097E+007, +8.55052704811E+000, +2.20131487205E+002
+1.40567612688E+007, +8.35762688848E+000, +2.23099407075E+002
+1.42220367279E+007, +8.52407307131E+000, +2.25701231700E+002
+1.43873121870E+007, +8.47988072417E+000, +2.28708996621E+002
+1.45525876461E+007, +8.52579756385E+000, +2.31325514379E+002
+1.47178631052E+007, +8.34648076599E+000, +2.34256244498E+002
+1.48831385643E+007, +8.47299764026E+000, +2.36453720941E+002
+1.50484140234E+007, +8.62894988361E+000, +2.39648197196E+002
+1.52136894825E+007, +8.38849978898E+000, +2.41859108824E+002
+1.53789649416E+007, +8.87542582595E+000, +2.44789691496E+002
+1.55442404007E+007, +8.52277628651E+000, +2.47385885044E+002
+1.57095158598E+007, +8.51385136176E+000, +2.50468437297E+002
+1.58747913189E+007, +8.91948835041E+000, +2.53178351075E+002
+1.60400667780E+007, +8.53123446408E+000, +2.55582351690E+002
+1.62053422371E+007, +8.69456536060E+000, +2.58248574432E+002
+1.63706176962E+007, +8.94941600710E+000, +2.60878016677E+002
+1.65358931553E+007, +8.64961274799E+000, +2.63930490039E+002
+1.67011686144E+007, +9.19709893937E+000, +2.66214000280E+002
+1.68664440735E+007, +9.15876016366E+000, +2.69158753967E+002
+1.70317195326E+007, +8.03191885790E+000, +2.72649955332E+002
+1.71969949917E+007, +8.38469548027E+000, +2.74672929124E+002
+1.73622704508E+007, +8.56847713280E+000, +2.77560338973E+002
+1.75275459098E+007, +8.36787408532E+000, +2.80239642327E+002
+1.76928213689E+007, +8.40824895537E+000, +2.83440193184E+002
+1.78580968280E+007, +9.03214613096E+000, +2.86239349223E+002
+1.80233722871E+007, +9.18875405316E+000, +2.88794606298E+002
+1.81886477462E+007, +8.58203692859E+000, +2.91878894242E+002
+1.83539232053E+007, +9.39031452880E+000, +2.94260870632E+002
+1.85191986644E+007, +9.17261117635E+000, +2.97304642061E+002
+1.86844741235E+007, +9.18468876681E+000, +2.99786798895E+002
+1.88497495826E+007, +9.42082003246E+000, +3.02564947926E+002
+1.90150250417E+007, +9.16342990766E+000, +3.05784733771E+002
+1.91803005008E+007, +9.30966276591E+000, +3.08529114518E+002
+1.93455759599E+007, +9.45277242812E+000, +3.10869810246E+002
+1.95108514190E+007, +1.03742678939E+001, +3.13910412282E+002
+1.96761268781E+007, +1.00013953387E+001, +3.16836917420E+002
+1.98414023372E+007, +9.69521180711E+000, +3.19582775670E+002
+2.00066777963E+007, +8.90906275475E+000, +3.22043050538E+002
+2.01719532554E+007, +9.61649553584E+000, +3.25399998676E+002
+2.03372287145E+007, +1.00229102161E+001, +3.28533128760E+002
+2.05025041736E+007, +9.68142397834E+000, +3.31023241767E+002
+2.06677796327E+007, +1.00822730559E+001, +3.34034491476E+002
+2.08330550918E+007, +1.01413487573E+001, +3.36810741534E+002
+2.09983305509E+007, +1.03326457895E+001, +3.39799201724E+002
+2.11636060100E+007, +1.02582842015E+001, +3.42584243413E+002
+2.13288814691E+007, +1.03625940289E+001, +3.45567714227E+002
+2.14941569282E+007, +1.00865768035E+001, +3.48095383117E+002
+2.16594323873E+007, +1.00920709457E+001, +3.51237317709E+002
+2.18247078464E+007, +1.10202207101E+001, +3.54279323241E+002
+2.19899833055E+007, +1.06411590488E+001, +3.57657256362E+002
+2.21552587646E+007, +1.02617460345E+001, +3.59642216505E+002
+2.23205342237E+007, +1.10945611812E+001, +3.62570762771E+002
+2.24858096828E+007, +1.11263515875E+001, +3.66124507552E+002
+2.26510851419E+007, +1.13171022988E+001, +3.68072107084E+002
+2.28163606010E+007, +1.08019598104E+001, +3.71951867354E+002
+2.29816360601E+007, +1.08611755290E+001, +3.74634230869E+002
+2.31469115192E+007, +1.22282040428E+001, +3.77620626405E+002
+2.33121869783E+007, +1.22021960319E+001, +3.80760247055E+002
+2.34774624374E+007, +1.22538491437E+001, +3.84431229428E+002
+2.36427378965E+007, +1.20799586353E+001, +3.86303608492E+002
+2.38080133556E+007, +1.19065875110E+001, +3.89376475267E+002
+2.39732888147E+007, +1.32676391718E+001, +3.93721759533E+002
+2.41385642738E+007, +1.22871735324E+001, +3.95860984101E+002
+2.43038397329E+007, +1.19190608822E+001, +3.98778639900E+002
+2.44691151920E+007, +1.27042086302E+001, +4.01729478425E+002
+2.46343906511E+007, +1.25119314458E+001, +4.04752110790E+002
+2.47996661102E+007, +1.25808272398E+001, +4.07209256702E+002
+2.49649415693E+007, +1.25607359533E+001, +4.10442059749E+002
+2.51302170284E+007, +1.27222494438E+001, +4.12665457051E+002
+2.52954924875E+007, +1.41085986889E+001, +4.16284382083E+002
+2.54607679466E+007, +1.35807278537E+001, +4.19773614327E+002
+2.56260434057E+007, +1.36686956835E+001, +4.22274642962E+002
+2.57913188648E+007, +1.37903326849E+001, +4.25738939403E+002
+2.59565943239E+007, +1.39959361129E+001, +4.27456945062E+002
+2.61218697830E+007, +1.43461513641E+001, +4.31094948518E+002
+2.62871452421E+007, +1.48925947999E+001, +4.34625271094E+002
+2.64524207012E+007, +1.42495962164E+001, +4.37865306714E+002
+2.66176961603E+007, +1.42752669340E+001, +4.40783441395E+002
+2.67829716194E+007, +1.44133192267E+001, +4.43637186547E+002
+2.69482470785E+007, +1.45580119691E+001, +4.46840745244E+002
+2.71135225376E+007, +1.54993445877E+001, +4.49839720150E+002
+2.72787979967E+007, +1.50723917095E+001, +4.53626812555E+002
+2.74440734558E+007, +1.55730424820E+001, +4.56552006257E+002
+2.76093489149E+007, +1.55518879037E+001, +4.57942918358E+002
+2.77746243740E+007, +1.51483202249E+001, +4.61883443108E+002
+2.79398998331E+007, +1.57104568676E+001, +4.66027520398E+002
+2.81051752922E+007, +1.67822312188E+001, +4.68163766427E+002
+2.82704507513E+007, +1.53145252843E+001, +4.71857169708E+002
+2.84357262104E+007, +1.61649759150E+001, +4.74004467015E+002
+2.86010016694E+007, +1.45082705454E+001, +4.78597526223E+002
+2.87662771285E+007, +1.53315213314E+001, +4.81398028349E+002
+2.89315525876E+007, +1.51396977032E+001, +4.84161209320E+002
+2.90968280467E+007, +1.63631379727E+001, +4.88472827053E+002
+2.92621035058E+007, +1.53144316081E+001, +4.89884102588E+002
+2.94273789649E+007, +1.74613117680E+001, +4.93565999557E+002
+2.95926544240E+007, +1.40511917288E+001, +4.97414074694E+002
+2.97579298831E+007, +1.60253108472E+001, +4.99497018727E+002
+2.99232053422E+007, +1.63243228398E+001, +5.03906611717E+002
+3.00884808013E+007, +1.67000310038E+001, +5.06675122554E+002
+3.02537562604E+007, +1.63906512922E+001, +5.09476940905E+002
+3.04190317195E+007, +1.82713931961E+001, +5.13560298014E+002
+3.05843071786E+007, +1.61779677934E+001, +5.16483656230E+002
+3.07495826377E+007, +1.58337162815E+001, +5.19934181642E+002
+3.09148580968E+007, +1.60878531818E+001, +5.22478696895E+002
+3.10801335559E+007, +1.76411167347E+001, +5.25761407330E+002
+3.12454090150E+007, +1.73451546843E+001, +5.30091635838E+002
+3.14106844741E+007, +1.70159717546E+001, +5.32079965169E+002
+3.15759599332E+007, +1.81896982874E+001, +5.36969396988E+002
+3.17412353923E+007, +1.62849648342E+001, +5.38952208757E+002
+3.19065108514E+007, +1.77662228299E+001, +5.44347488822E+002
+3.20717863105E+007, +1.59377634354E+001, +5.45457622453E+002
+3.22370617696E+007, +1.72879639268E+001, +5.49694017474E+002
+3.24023372287E+007, +1.67057043567E+001, +5.53746284297E+002
+3.25676126878E+007, +1.87169480912E+001, +5.56205333871E+002
+3.27328881469E+007, +1.75113274308E+001, +5.59531981183E+002
+3.28981636060E+007, +1.72068756853E+001, +5.63461649060E+002
+3.30634390651E+007, +1.82097491760E+001, +5.66854684040E+002
+3.32287145242E+007, +1.66726323855E+001, +5.72081377812E+002
+3.33939899833E+007, +1.74700809420E+001, +5.74789865129E+002
+3.35592654424E+007, +1.77687273946E+001, +5.77361077522E+002
+3.37245409015E+007, +1.85161783425E+001, +5.80994990575E+002
+3.38898163606E+007, +1.74866172416E+001, +5.85053703713E+002
+3.40550918197E+007, +1.75901134030E+001, +5.89411042650E+002
+3.42203672788E+007, +1.80061864350E+001, +5.92302973812E+002
+3.43856427379E+007, +1.86378698931E+001, +5.95383502341E+002
+3.45509181970E+007, +1.82593268607E+001, +6.01091356514E+002
+3.47161936561E+007, +1.89057532704E+001, +6.03966562323E+002
+3.48814691152E+007, +1.82114063027E+001, +6.04628005440E+002
+3.50467445743E+007, +1.94183086773E+001, +6.11707731346E+002
+3.52120200334E+007, +2.05800263120E+001, +6.13469008434E+002
+3.53772954925E+007, +1.78939333283E+001, +6.18505917745E+002
+3.55425709516E+007, +1.97212686125E+001, +6.23343882134E+002
+3.57078464107E+007, +1.97971282813E+001, +6.24049209632E+002
+3.58731218698E+007, +2.13148745710E+001, +6.28959896511E+002
+3.60383973289E+007, +1.84971607982E+001, +6.32456800084E+002
+3.62036727880E+007, +1.97850237023E+001, +6.36972156686E+002
+3.63689482471E+007, +2.06668187175E+001, +6.40512869729E+002
+3.65342237062E+007, +1.93598496744E+001, +6.42867088721E+002
+3.66994991653E+007, +1.83385489109E+001, +6.48790799243E+002
+3.68647746244E+007, +1.98386772307E+001, +6.52009772859E+002
+3.70300500835E+007, +1.85889244001E+001, +6.56319727443E+002
+3.71953255426E+007, +2.12407518628E+001, +6.61888094929E+002
+3.73606010017E+007, +2.12459196114E+001, +6.64814785298E+002
+3.75258764608E+007, +2.04132313251E+001, +6.69229261743E+002
+3.76911519199E+007, +2.19680721304E+001, +6.72849180426E+002
+3.78564273790E+007, +1.83140810272E+001, +6.75586082193E+002
+3.80217028381E+007, +2.03112539530E+001, +6.81540251650E+002
+3.81869782972E+007, +2.05073734729E+001, +6.82822240599E+002
+3.83522537563E+007, +2.04092410015E+001, +6.88853775802E+002
+3.85175292154E+007, +2.18309853002E+001, +6.93072805939E+002
+3.86828046745E+007, +2.03124373577E+001, +6.97106012124E+002
+3.88480801336E+007, +2.29380628763E+001, +7.04464420206E+002
+3.90133555927E+007, +1.94882031198E+001, +7.08061118369E+002
+3.91786310518E+007, +2.01195010055E+001, +7.11447556574E+002
+3.93439065109E+007, +2.05816168047E+001, +7.17749563085E+002
+3.95091819699E+007, +2.35571663798E+001, +7.21565288398E+002
+3.96744574290E+007, +2.45846932845E+001, +7.22906995155E+002
+3.98397328881E+007, +2.17661983217E+001, +7.27242343302E+002
+4.00050083472E+007, +2.05037133836E+001, +7.35108771780E+002
+4.01702838063E+007, +2.24562313321E+001, +7.35527252632E+002
+4.03355592654E+007, +2.23171201317E+001, +7.39935351348E+002
+4.05008347245E+007, +2.38438683047E+001, +7.50299203729E+002
+4.06661101836E+007, +2.38872552404E+001, +7.49168271234E+002
+4.08313856427E+007, +1.98383767976E+001, +7.58321190843E+002
+4.09966611018E+007, +2.17628963920E+001, +7.60433617723E+002
+4.11619365609E+007, +2.46707976584E+001, +7.65019268645E+002
+4.13272120200E+007, +2.68999821243E+001, +7.69313312487E+002
+4.14924874791E+007, +2.36954420386E+001, +7.74802560423E+002
+4.16577629382E+007, +2.35652229482E+001, +7.82525556192E+002
+4.18230383973E+007, +2.44124155238E+001, +7.85215147256E+002
+4.19883138564E+007, +2.32738097906E+001, +7.90418426594E+002
+4.21535893155E+007, +2.47222180866E+001, +7.95296271834E+002
+4.23188647746E+007, +2.48001378392E+001, +8.00589687354E+002
+4.24841402337E+007, +2.36925246796E+001, +8.09740928920E+002
+4.26494156928E+007, +2.25238241959E+001, +8.08768572605E+002
+4.28146911519E+007, +2.74515261744E+001, +8.17754184966E+002
+4.29799666110E+007, +2.62391036384E+001, +8.19559688730E+002
+4.31452420701E+007, +2.75378564951E+001, +8.28061133150E+002
+4.33105175292E+007, +2.69156440802E+001, +8.32122213440E+002
+4.34757929883E+007, +2.35705186894E+001, +8.38529208976E+002
+4.36410684474E+007, +2.37401896330E+001, +8.43639789849E+002
+4.38063439065E+007, +2.78508575133E+001, +8.48798822146E+002
+4.39716193656E+007, +2.99622154645E+001, +8.51755187017E+002
+4.41368948247E+007, +2.53551498019E+001, +8.59959617320E+002
+4.43021702838E+007, +2.60584080195E+001, +8.66648604091E+002
+4.44674457429E+007, +2.70375253015E+001, +8.71391422354E+002
+4.46327212020E+007, +2.91861151177E+001, +8.75140390561E+002
+4.47979966611E+007, +2.86173236003E+001, +8.85063073881E+002
+4.49632721202E+007, +2.98825534166E+001, +8.93818333322E+002
+4.51285475793E+007, +2.62407521413E+001, +8.94196239336E+002
+4.52938230384E+007, +3.40427948218E+001, +9.06355970856E+002
+4.54590984975E+007, +2.71201927716E+001, +9.05086060087E+002
+4.56243739566E+007, +3.22938910094E+001, +9.16331956973E+002
+4.57896494157E+007, +3.17771756019E+001, +9.21586235250E+002
+4.59549248748E+007, +2.97201212161E+001, +9.31992030311E+002
+4.61202003339E+007, +2.86518728867E+001, +9.33919809171E+002
+4.62854757930E+007, +3.44601829584E+001, +9.44662336215E+002
+4.64507512521E+007, +3.41425287561E+001, +9.48336382628E+002
+4.66160267112E+007, +3.45494039773E+001, +9.57939132825E+002
+4.67813021703E+007, +3.83510546930E+001, +9.63648807420E+002
+4.69465776294E+007, +3.61607271755E+001, +9.72631446164E+002
+4.71118530885E+007, +4.06472468668E+001, +9.78054726369E+002
+4.72771285476E+007, +4.14466970282E+001, +9.87880596780E+002
+4.74424040067E+007, +3.95808065043E+001, +9.96100934999E+002
+4.76076794658E+007, +4.40586636105E+001, +1.00231622008E+003
+4.77729549249E+007, +4.30285268427E+001, +1.01081792619E+003
+4.79382303840E+007, +4.60760176325E+001, +1.01365608676E+003
+4.81035058431E+007, +4.49496115928E+001, +1.02524900694E+003
+4.82687813022E+007, +4.66487889316E+001, +1.03423760282E+003
+4.84340567613E+007, +5.15321790203E+001, +1.04206525421E+003
+4.85993322204E+007, +5.41973952680E+001, +1.05063022041E+003
+4.87646076795E+007, +5.21098792566E+001, +1.05393122591E+003
+4.89298831386E+007, +5.61224549371E+001, +1.06014449489E+003
+4.90951585977E+007, +5.71615884952E+001, +1.07153808968E+003
+4.92604340568E+007, +6.06907088606E+001, +1.08245861301E+003
+4.94257095159E+007, +6.29756575186E+001, +1.08620936998E+003
+4.95909849750E+007, +6.66824249108E+001, +1.09879189331E+003
+4.97562604341E+007, +7.07911956279E+001, +1.10162558016E+003
+4.99215358932E+007, +6.82627690305E+001, +1.11514385421E+003
+5.00868113523E+007, +7.09158909614E+001, +1.12119558706E+003
+5.02520868114E+007, +8.03705061058E+001, +1.12942894718E+003
+5.04173622705E+007, +8.32480835734E+001, +1.13825806380E+003
+5.05826377295E+007, +7.88217809214E+001, +1.13652928586E+003
+5.07479131886E+007, +8.54714246784E+001, +1.14719480728E+003
+5.09131886477E+007, +8.36594530932E+001, +1.15342918584E+003
+5.10784641068E+007, +9.16572192073E+001, +1.16267891116E+003
+5.12437395659E+007, +9.09164537044E+001, +1.17420131703E+003
+5.14090150250E+007, +9.73253704357E+001, +1.17275662693E+003
+5.15742904841E+007, +9.66809190860E+001, +1.18218411551E+003
+5.17395659432E+007, +9.73798965175E+001, +1.18658740664E+003
+5.19048414023E+007, +1.01282799768E+002, +1.19839983283E+003
+5.20701168614E+007, +9.29229451806E+001, +1.20401628666E+003
+5.22353923205E+007, +9.41267012443E+001, +1.21645916124E+003
+5.24006677796E+007, +9.14128890326E+001, +1.22116052383E+003
+5.25659432387E+007, +9.74640651779E+001, +1.24097692273E+003
+5.27312186978E+007, +1.00686225782E+002, +1.24714686402E+003
+5.28964941569E+007, +9.45891680218E+001, +1.26054739808E+003
+5.30617696160E+007, +9.50138159992E+001, +1.27097997096E+003
+5.32270450751E+007, +9.78768526384E+001, +1.27422225355E+003
+5.33923205342E+007, +8.68482575689E+001, +1.29314590002E+003
+5.35575959933E+007, +9.46000672629E+001, +1.30576750848E+003
+5.37228714524E+007, +9.39042741079E+001, +1.32594531879E+003
+5.38881469115E+007, +1.02401633857E+002, +1.32890769020E+003
