"# Channel 1"
"# Trace 1"
Frequency, Formatted Data, Formatted Data
+1.00000000000E+005, +5.45429066939E+000, +1.90079900567E+000
+2.25031289111E+005, +5.57182101285E+000, +4.06609861777E+000
+3.50062578223E+005, +5.68251515375E+000, +6.27784167513E+000
+4.75093867334E+005, +5.73362240689E+000, +8.36971279346E+000
+6.00125156446E+005, +5.81669740691E+000, +1.05053108138E+001
+7.25156445557E+005, +5.87737500376E+000, +1.26234255080E+001
+8.50187734668E+005, +5.99366610718E+000, +1.46838115403E+001
+9.75219023780E+005, +6.02200080316E+000, +1.67735007851E+001
+1.10025031289E+006, +6.08469593237E+000, +1.88367365562E+001
+1.22528160200E+006, +6.21282643918E+000, +2.09523721766E+001
+1.35031289111E+006, +6.19689864363E+000, +2.30158361132E+001
+1.47534418023E+006, +6.24491923471E+000, +2.51000061087E+001
+1.60037546934E+006, +6.31128462304E+000, +2.72174679017E+001
+1.72540675845E+006, +6.36364538452E+000, +2.92282616403E+001
+1.85043804756E+006, +6.38315985128E+000, +3.12696612132E+001
+1.97546933667E+006, +6.41704415406E+000, +3.33513474174E+001
+2.10050062578E+006, +6.46627541835E+000, +3.54835021360E+001
+2.22553191489E+006, +6.48235721565E+000, +3.75148517413E+001
+2.35056320401E+006, +6.50089290690E+000, +3.95801762767E+001
+2.47559449312E+006, +6.60273595688E+000, +4.17211632447E+001
+2.60062578223E+006, +6.65047405075E+000, +4.37116799787E+001
+2.72565707134E+006, +6.58849730519E+000, +4.58572709440E+001
+2.85068836045E+006, +6.66477010467E+000, +4.79653284447E+001
+2.97571964956E+006, +6.65978990964E+000, +4.99285392364E+001
+3.10075093867E+006, +6.72681272355E+000, +5.20648167360E+001
+3.22578222778E+006, +6.79805724787E+000, +5.41266989349E+001
+3.35081351690E+006, +6.77334088832E+000, +5.62132501919E+001
+3.47584480601E+006, +6.88026067251E+000, +5.83849879046E+001
+3.60087609512E+006, +6.88395546567E+000, +6.04266213942E+001
+3.72590738423E+006, +6.94802931516E+000, +6.23831182355E+001
+3.85093867334E+006, +6.90053470442E+000, +6.45701010793E+001
+3.97596996245E+006, +7.00690900807E+000, +6.66219889286E+001
+4.10100125156E+006, +6.92174143835E+000, +6.86064958525E+001
+4.22603254068E+006, +7.02470190173E+000, +7.08451117471E+001
+4.35106382979E+006, +7.19503106976E+000, +7.28615238120E+001
+4.47609511890E+006, +7.11906706554E+000, +7.49722883032E+001
+4.60112640801E+006, +7.14719899965E+000, +7.70356789317E+001
+4.72615769712E+006, +7.10444026437E+000, +7.92022259456E+001
+4.85118898623E+006, +7.39807007311E+000, +8.12797898226E+001
+4.97622027534E+006, +7.32074345633E+000, +8.32170933005E+001
+5.10125156446E+006, +7.32394673737E+000, +8.54067266597E+001
+5.22628285357E+006, +7.37503770638E+000, +8.74662489629E+001
+5.35131414268E+006, +7.46990850914E+000, +8.96182650312E+001
+5.47634543179E+006, +7.45633052688E+000, +9.18177721970E+001
+5.60137672090E+006, +7.41911731277E+000, +9.39587139730E+001
+5.72640801001E+006, +7.62212201558E+000, +9.59969006681E+001
+5.85143929912E+006, +7.56451234244E+000, +9.81238603277E+001
+5.97647058824E+006, +7.66214966027E+000, +1.00248442242E+002
+6.10150187735E+006, +7.57807692643E+000, +1.02366150525E+002
+6.22653316646E+006, +7.63999613397E+000, +1.04246281197E+002
+6.35156445557E+006, +7.86080606273E+000, +1.06554552025E+002
+6.47659574468E+006, +7.90881768041E+000, +1.08499157553E+002
+6.60162703379E+006, +7.97583840467E+000, +1.10654208437E+002
+6.72665832290E+006, +7.99266902247E+000, +1.12810721125E+002
+6.85168961202E+006, +7.99503412219E+000, +1.15012104696E+002
+6.97672090113E+006, +8.02973530496E+000, +1.17002268765E+002
+7.10175219024E+006, +8.05712647197E+000, +1.19112488480E+002
+7.22678347935E+006, +8.31442698076E+000, +1.21344568490E+002
+7.35181476846E+006, +8.35179284209E+000, +1.23321357009E+002
+7.47684605757E+006, +8.29928385046E+000, +1.25498171947E+002
+7.60187734668E+006, +8.32223080046E+000, +1.27687586836E+002
+7.72690863579E+006, +8.38843750530E+000, +1.29748883305E+002
+7.85193992491E+006, +8.32528731523E+000, +1.31862487682E+002
+7.97697121402E+006, +8.39568643655E+000, +1.34037567249E+002
+8.10200250313E+006, +8.41959357629E+000, +1.36223495444E+002
+8.22703379224E+006, +8.53341880287E+000, +1.38314552859E+002
+8.35206508135E+006, +8.54822421445E+000, +1.40569699816E+002
+8.47709637046E+006, +8.60205812801E+000, +1.42686006541E+002
+8.60212765957E+006, +8.57946818667E+000, +1.44679320582E+002
+8.72715894869E+006, +8.59299636255E+000, +1.46984541900E+002
+8.85219023780E+006, +8.74191613095E+000, +1.49124008137E+002
+8.97722152691E+006, +8.72840195657E+000, +1.51349405227E+002
+9.10225281602E+006, +8.51195325825E+000, +1.53412530226E+002
+9.22728410513E+006, +8.80704388710E+000, +1.55483291720E+002
+9.35231539424E+006, +8.85602105586E+000, +1.57805613822E+002
+9.47734668335E+006, +8.83692093220E+000, +1.59867949241E+002
+9.60237797247E+006, +8.76985219313E+000, +1.61914076853E+002
+9.72740926158E+006, +8.83000423657E+000, +1.64151410328E+002
+9.85244055069E+006, +9.21042020816E+000, +1.66484406551E+002
+9.97747183980E+006, +9.00486365169E+000, +1.68545303168E+002
+1.01025031289E+007, +9.04579465044E+000, +1.70807699106E+002
+1.02275344180E+007, +9.02749713070E+000, +1.72973459183E+002
+1.03525657071E+007, +8.99238799996E+000, +1.75103123470E+002
+1.04775969962E+007, +8.95198857785E+000, +1.77317574667E+002
+1.06026282854E+007, +8.89455375892E+000, +1.79558704788E+002
+1.07276595745E+007, +9.06733487632E+000, +1.81753734908E+002
+1.08526908636E+007, +9.21338733383E+000, +1.83958763494E+002
+1.09777221527E+007, +8.99321900284E+000, +1.85944874182E+002
+1.11027534418E+007, +9.30035714425E+000, +1.88426284490E+002
+1.12277847309E+007, +9.19211312771E+000, +1.90561528533E+002
+1.13528160200E+007, +9.44671979390E+000, +1.92782302693E+002
+1.14778473091E+007, +9.09616566410E+000, +1.95070696280E+002
+1.16028785982E+007, +9.36734743135E+000, +1.97110605615E+002
+1.17279098874E+007, +9.65074898225E+000, +1.99563638460E+002
+1.18529411765E+007, +9.14490589602E+000, +2.01707370169E+002
+1.19779724656E+007, +9.46826451064E+000, +2.03961474552E+002
+1.21030037547E+007, +9.45368644501E+000, +2.06262050824E+002
+1.22280350438E+007, +9.35765846438E+000, +2.08574326048E+002
+1.23530663329E+007, +9.80554729071E+000, +2.10773133547E+002
+1.24780976220E+007, +9.50731594371E+000, +2.13023534147E+002
+1.26031289111E+007, +9.70848217495E+000, +2.15128873815E+002
+1.27281602003E+007, +9.43280998757E+000, +2.17585019826E+002
+1.28531914894E+007, +9.74577667316E+000, +2.19817803973E+002
+1.29782227785E+007, +9.73324898680E+000, +2.22245961567E+002
+1.31032540676E+007, +1.00410322751E+001, +2.24466589977E+002
+1.32282853567E+007, +9.45015417308E+000, +2.27082020924E+002
+1.33533166458E+007, +1.03208799918E+001, +2.29085074773E+002
+1.34783479349E+007, +1.01010870040E+001, +2.31195301267E+002
+1.36033792240E+007, +1.01508759969E+001, +2.33370712512E+002
+1.37284105131E+007, +1.00426682594E+001, +2.35884992758E+002
+1.38534418023E+007, +9.96418841809E+000, +2.38147005545E+002
+1.39784730914E+007, +9.99929858716E+000, +2.40288746519E+002
+1.41035043805E+007, +9.59112117655E+000, +2.42776070833E+002
+1.42285356696E+007, +1.03504637832E+001, +2.45241550609E+002
+1.43535669587E+007, +1.00548899401E+001, +2.47294972745E+002
+1.44785982478E+007, +9.95951165126E+000, +2.49946752594E+002
+1.46036295369E+007, +1.00158938000E+001, +2.52143670649E+002
+1.47286608260E+007, +9.99192234786E+000, +2.54664007739E+002
+1.48536921151E+007, +1.01060497194E+001, +2.57037366783E+002
+1.49787234043E+007, +1.03408531199E+001, +2.59572693026E+002
+1.51037546934E+007, +1.02358508341E+001, +2.61108486171E+002
+1.52287859825E+007, +1.01545300670E+001, +2.63994379551E+002
+1.53538172716E+007, +1.04253340552E+001, +2.66694366956E+002
+1.54788485607E+007, +1.03669949654E+001, +2.68779786830E+002
+1.56038798498E+007, +1.04429811655E+001, +2.71119569200E+002
+1.57289111389E+007, +1.04942070374E+001, +2.73563224711E+002
+1.58539424280E+007, +1.09779360096E+001, +2.75848479888E+002
+1.59789737171E+007, +1.02762252299E+001, +2.78346779687E+002
+1.61040050063E+007, +1.06480163426E+001, +2.81195254473E+002
+1.62290362954E+007, +1.07020899149E+001, +2.83476478554E+002
+1.63540675845E+007, +1.10931030925E+001, +2.85955224635E+002
+1.64790988736E+007, +1.09263096611E+001, +2.88136921278E+002
+1.66041301627E+007, +1.07727448136E+001, +2.90501778812E+002
+1.67291614518E+007, +1.06195001345E+001, +2.92684908972E+002
+1.68541927409E+007, +1.06060809893E+001, +2.95693861711E+002
+1.69792240300E+007, +1.11801630439E+001, +2.98087510020E+002
+1.71042553191E+007, +1.04329809836E+001, +3.00419453120E+002
+1.72292866083E+007, +1.04857074257E+001, +3.03134513920E+002
+1.73543178974E+007, +1.08330845037E+001, +3.05460356018E+002
+1.74793491865E+007, +1.08427205479E+001, +3.08495339012E+002
+1.76043804756E+007, +1.09885037052E+001, +3.10447240188E+002
+1.77294117647E+007, +1.07845973061E+001, +3.13542627027E+002
+1.78544430538E+007, +1.09924159066E+001, +3.15728441362E+002
+1.79794743429E+007, +1.15824790961E+001, +3.18419163657E+002
+1.81045056320E+007, +1.15173819154E+001, +3.20615652621E+002
+1.82295369212E+007, +1.09603124819E+001, +3.22563798528E+002
+1.83545682103E+007, +1.12304376216E+001, +3.26005699315E+002
+1.84795994994E+007, +1.16318069682E+001, +3.28314593373E+002
+1.86046307885E+007, +1.19474551255E+001, +3.31310724310E+002
+1.87296620776E+007, +1.13718127900E+001, +3.33264738570E+002
+1.88546933667E+007, +1.18684024668E+001, +3.36297907853E+002
+1.89797246558E+007, +1.14418669559E+001, +3.38303025640E+002
+1.91047559449E+007, +1.20077626592E+001, +3.40986535836E+002
+1.92297872340E+007, +1.21720960538E+001, +3.43892722089E+002
+1.93548185232E+007, +1.23527658726E+001, +3.46714219363E+002
+1.94798498123E+007, +1.22415067562E+001, +3.48057141750E+002
+1.96048811014E+007, +1.22881672966E+001, +3.52114497965E+002
+1.97299123905E+007, +1.22036531467E+001, +3.54103680252E+002
+1.98549436796E+007, +1.23797262680E+001, +3.57200614635E+002
+1.99799749687E+007, +1.23960451077E+001, +3.59431789801E+002
+2.01050062578E+007, +1.18029960920E+001, +3.62271338142E+002
+2.02300375469E+007, +1.25242111345E+001, +3.65470810147E+002
+2.03550688360E+007, +1.26363118804E+001, +3.68697553981E+002
+2.04801001252E+007, +1.30209616134E+001, +3.70121914652E+002
+2.06051314143E+007, +1.30125316744E+001, +3.72914784151E+002
+2.07301627034E+007, +1.31615676256E+001, +3.76176373373E+002
+2.08551939925E+007, +1.26992991174E+001, +3.78275768506E+002
+2.09802252816E+007, +1.30547870828E+001, +3.81951658627E+002
+2.11052565707E+007, +1.33869893679E+001, +3.84101422045E+002
+2.12302878598E+007, +1.30340261421E+001, +3.87521676575E+002
+2.13553191489E+007, +1.33963060008E+001, +3.89830292197E+002
+2.14803504380E+007, +1.36184260720E+001, +3.91929168609E+002
+2.16053817272E+007, +1.33117206939E+001, +3.95504417795E+002
+2.17304130163E+007, +1.39262819674E+001, +3.98192146312E+002
+2.18554443054E+007, +1.44783833342E+001, +4.01418152955E+002
+2.19804755945E+007, +1.33976666724E+001, +4.03071422949E+002
+2.21055068836E+007, +1.37024015122E+001, +4.06673077830E+002
+2.22305381727E+007, +1.41040732694E+001, +4.09603410293E+002
+2.23555694618E+007, +1.42665617004E+001, +4.12907607377E+002
+2.24806007509E+007, +1.47311417022E+001, +4.14697487413E+002
+2.26056320401E+007, +1.37108212455E+001, +4.18714935305E+002
+2.27306633292E+007, +1.51540143342E+001, +4.19657247313E+002
+2.28556946183E+007, +1.54285382089E+001, +4.23701095782E+002
+2.29807259074E+007, +1.50733245910E+001, +4.25834573587E+002
+2.31057571965E+007, +1.55943558727E+001, +4.29520052140E+002
+2.32307884856E+007, +1.69217606356E+001, +4.31326298365E+002
+2.33558197747E+007, +1.59759932744E+001, +4.33912952258E+002
+2.34808510638E+007, +1.64152338113E+001, +4.36242714910E+002
+2.36058823529E+007, +1.51525539880E+001, +4.40323829597E+002
+2.37309136421E+007, +1.64811501573E+001, +4.42794310847E+002
+2.38559449312E+007, +1.52133357473E+001, +4.47162193989E+002
+2.39809762203E+007, +1.62228131831E+001, +4.48483438394E+002
+2.41060075094E+007, +1.61570820173E+001, +4.51864920540E+002
+2.42310387985E+007, +1.67691445503E+001, +4.54276261471E+002
+2.43560700876E+007, +1.64327523758E+001, +4.57287872437E+002
+2.44811013767E+007, +1.63985294316E+001, +4.60655335451E+002
+2.46061326658E+007, +1.67854921571E+001, +4.62623604969E+002
+2.47311639549E+007, +1.68023365984E+001, +4.67759927367E+002
+2.48561952441E+007, +1.68063564611E+001, +4.68225077406E+002
+2.49812265332E+007, +1.63190393905E+001, +4.71878579143E+002
+2.51062578223E+007, +1.76403956516E+001, +4.78044727491E+002
+2.52312891114E+007, +1.62312263946E+001, +4.78379524559E+002
+2.53563204005E+007, +1.60298523608E+001, +4.81984475623E+002
+2.54813516896E+007, +1.72797847048E+001, +4.84453672481E+002
+2.56063829787E+007, +1.64269143457E+001, +4.86357238018E+002
+2.57314142678E+007, +1.70204803456E+001, +4.90890912042E+002
+2.58564455569E+007, +1.52272945839E+001, +4.93805534744E+002
+2.59814768461E+007, +1.85819359075E+001, +4.97703145667E+002
+2.61065081352E+007, +1.72878480113E+001, +5.00631956925E+002
+2.62315394243E+007, +1.71424599942E+001, +5.04316319156E+002
+2.63565707134E+007, +1.66355716957E+001, +5.06883882210E+002
+2.64816020025E+007, +1.65204853678E+001, +5.11291399027E+002
+2.66066332916E+007, +1.77671757548E+001, +5.14730604037E+002
+2.67316645807E+007, +1.73317538979E+001, +5.17756830648E+002
+2.68566958698E+007, +1.68198315539E+001, +5.21284313446E+002
+2.69817271589E+007, +1.70337224939E+001, +5.23997707643E+002
+2.71067584481E+007, +1.78346044223E+001, +5.27238590025E+002
+2.72317897372E+007, +1.72902396638E+001, +5.30761871339E+002
+2.73568210263E+007, +1.81601444777E+001, +5.33886470886E+002
+2.74818523154E+007, +1.75995259363E+001, +5.37129549002E+002
+2.76068836045E+007, +1.87187420000E+001, +5.40400187288E+002
+2.77319148936E+007, +1.81181007784E+001, +5.44502538732E+002
+2.78569461827E+007, +1.87327487721E+001, +5.48910586385E+002
+2.79819774718E+007, +1.83390369719E+001, +5.52091275639E+002
+2.81070087610E+007, +1.84416564321E+001, +5.55258636548E+002
+2.82320400501E+007, +1.87801205075E+001, +5.58950588563E+002
+2.83570713392E+007, +2.07824391569E+001, +5.61614083457E+002
+2.84821026283E+007, +1.87407018589E+001, +5.64578489929E+002
+2.86071339174E+007, +1.71171533447E+001, +5.68905904806E+002
+2.87321652065E+007, +1.84868176482E+001, +5.73716003835E+002
+2.88571964956E+007, +1.95320588277E+001, +5.76054998914E+002
+2.89822277847E+007, +1.95371222205E+001, +5.81634249731E+002
+2.91072590738E+007, +2.10740680789E+001, +5.83617499991E+002
+2.92322903630E+007, +2.05015967730E+001, +5.86261283361E+002
+2.93573216521E+007, +2.06321171305E+001, +5.92243880564E+002
+2.94823529412E+007, +2.24132540460E+001, +5.96992100362E+002
+2.96073842303E+007, +2.09416514344E+001, +5.98290977771E+002
+2.97324155194E+007, +1.95098188054E+001, +5.99936063580E+002
+2.98574468085E+007, +2.11112647402E+001, +6.06853821173E+002
+2.99824780976E+007, +1.93295364265E+001, +6.10035858420E+002
+3.01075093867E+007, +2.02397400966E+001, +6.12591105406E+002
+3.02325406758E+007, +1.91455868080E+001, +6.18040205942E+002
+3.03575719650E+007, +1.96608763916E+001, +6.21564479128E+002
+3.04826032541E+007, +1.96799487395E+001, +6.26717860684E+002
+3.06076345432E+007, +2.13602696924E+001, +6.27630409245E+002
+3.07326658323E+007, +2.22148044330E+001, +6.32381286510E+002
+3.08576971214E+007, +2.03828957464E+001, +6.36609107316E+002
+3.09827284105E+007, +2.19660697890E+001, +6.42786596667E+002
+3.11077596996E+007, +1.96060398254E+001, +6.45618167645E+002
+3.12327909887E+007, +1.96143080538E+001, +6.47289615421E+002
+3.13578222778E+007, +1.98347650850E+001, +6.52735368808E+002
+3.14828535670E+007, +1.94000242150E+001, +6.56790379783E+002
+3.16078848561E+007, +1.98164079445E+001, +6.58019050256E+002
+3.17329161452E+007, +2.21194959277E+001, +6.65122559626E+002
+3.18579474343E+007, +2.10621861145E+001, +6.68132128654E+002
+3.19829787234E+007, +2.21036492142E+001, +6.74016042499E+002
+3.21080100125E+007, +2.04975071737E+001, +6.77984395678E+002
+3.22330413016E+007, +2.23472897487E+001, +6.81621690059E+002
+3.23580725907E+007, +2.50284919619E+001, +6.86168767519E+002
+3.24831038798E+007, +2.30336118334E+001, +6.88828260315E+002
+3.26081351690E+007, +2.09036412269E+001, +6.93440041170E+002
+3.27331664581E+007, +2.19023839094E+001, +6.95610033421E+002
+3.28581977472E+007, +2.13181128137E+001, +7.01928078888E+002
+3.29832290363E+007, +2.09285977345E+001, +7.08616551444E+002
+3.31082603254E+007, +2.07070977011E+001, +7.12554028989E+002
+3.32332916145E+007, +2.13389540832E+001, +7.18926689648E+002
+3.33583229036E+007, +2.30391812076E+001, +7.20588587408E+002
+3.34833541927E+007, +2.34048156783E+001, +7.27147058639E+002
+3.36083854819E+007, +2.29162016699E+001, +7.30195179369E+002
+3.37334167710E+007, +2.49349376226E+001, +7.34938577122E+002
+3.38584480601E+007, +2.14397739863E+001, +7.41194666309E+002
+3.39834793492E+007, +2.26234189935E+001, +7.45335441899E+002
+3.41085106383E+007, +2.33585337022E+001, +7.51745035586E+002
+3.42335419274E+007, +2.01400229262E+001, +7.52273895854E+002
+3.43585732165E+007, +2.35009382157E+001, +7.59143859880E+002
+3.44836045056E+007, +2.40420723184E+001, +7.66961030170E+002
+3.46086357947E+007, +2.19070345224E+001, +7.68147264844E+002
+3.47336670839E+007, +2.31101661090E+001, +7.74077686339E+002
+3.48586983730E+007, +2.47241615748E+001, +7.80847045903E+002
+3.49837296621E+007, +2.14229683644E+001, +7.82030579170E+002
+3.51087609512E+007, +2.59235693325E+001, +7.87699329078E+002
+3.52337922403E+007, +2.53521535405E+001, +7.93496157759E+002
+3.53588235294E+007, +2.74587356208E+001, +8.00656972017E+002
+3.54838548185E+007, +2.58779463196E+001, +8.02904365332E+002
+3.56088861076E+007, +2.53197429510E+001, +8.10072911760E+002
+3.57339173967E+007, +2.65695780688E+001, +8.15463375248E+002
+3.58589486859E+007, +2.26723896609E+001, +8.17229531948E+002
+3.59839799750E+007, +2.65289780863E+001, +8.23885867305E+002
+3.61090112641E+007, +2.71127405200E+001, +8.32634123010E+002
+3.62340425532E+007, +2.52250169957E+001, +8.35718481410E+002
+3.63590738423E+007, +2.91416066793E+001, +8.39615870928E+002
+3.64841051314E+007, +2.54499629616E+001, +8.45842489067E+002
+3.66091364205E+007, +2.45359258209E+001, +8.52626181742E+002
+3.67341677096E+007, +3.18216484380E+001, +8.58776285540E+002
+3.68591989987E+007, +3.05100067380E+001, +8.61377157739E+002
+3.69842302879E+007, +2.97561978558E+001, +8.68444372269E+002
+3.71092615770E+007, +2.96273039294E+001, +8.75287590908E+002
+3.72342928661E+007, +2.80044308934E+001, +8.80132460664E+002
+3.73593241552E+007, +3.00652322511E+001, +8.87785200154E+002
+3.74843554443E+007, +3.19613714255E+001, +8.91000139525E+002
+3.76093867334E+007, +2.96354115976E+001, +8.95306189749E+002
+3.77344180225E+007, +3.30874330545E+001, +9.02726904839E+002
+3.78594493116E+007, +3.58504882891E+001, +9.09804961877E+002
+3.79844806008E+007, +3.49312343575E+001, +9.11448141446E+002
+3.81095118899E+007, +3.04651602045E+001, +9.20081761667E+002
+3.82345431790E+007, +3.49483959146E+001, +9.27109245652E+002
+3.83595744681E+007, +3.51288620387E+001, +9.33559606640E+002
+3.84846057572E+007, +3.40444772858E+001, +9.38566251005E+002
+3.86096370463E+007, +3.17950508966E+001, +9.47397128982E+002
+3.87346683354E+007, +3.29545165107E+001, +9.51884987932E+002
+3.88596996245E+007, +3.52925725994E+001, +9.58635543379E+002
+3.89847309136E+007, +4.21963814829E+001, +9.59945174199E+002
+3.91097622028E+007, +3.83297686659E+001, +9.72235078411E+002
+3.92347934919E+007, +3.36465903081E+001, +9.78045413073E+002
+3.93598247810E+007, +3.89828270214E+001, +9.84505528608E+002
+3.94848560701E+007, +3.65608401794E+001, +9.86678910604E+002
+3.96098873592E+007, +4.18619761926E+001, +9.98235676111E+002
+3.97349186483E+007, +3.64360163257E+001, +1.00109882545E+003
+3.98599499374E+007, +3.67751034381E+001, +1.00967323751E+003
+3.99849812265E+007, +3.60884049831E+001, +1.02008429849E+003
+4.01100125156E+007, +4.12899801404E+001, +1.02070138071E+003
