"# Channel 1"
"# Trace 1"
Frequency, Formatted Data, Formatted Data
+1.00000000000E+005, +1.86948077736E+001, +1.54911227408E+000
+2.66777963272E+005, +1.86793639121E+001, +4.39647046666E+000
+4.33555926544E+005, +1.86526027724E+001, +7.20609079045E+000
+6.00333889816E+005, +1.86617818517E+001, +1.00369539668E+001
+7.67111853088E+005, +1.86830055986E+001, +1.28542816481E+001
+9.33889816361E+005, +1.87161476181E+001, +1.56594194914E+001
+1.10066777963E+006, +1.87602746693E+001, +1.84291868833E+001
+1.26744574290E+006, +1.87746426294E+001, +2.11887375707E+001
+1.43422370618E+006, +1.87311651458E+001, +2.39723587513E+001
+1.60100166945E+006, +1.87287008725E+001, +2.67384576144E+001
+1.76777963272E+006, +1.87510917513E+001, +2.94950275874E+001
+1.93455759599E+006, +1.87108408916E+001, +3.22170425153E+001
+2.10133555927E+006, +1.87792638232E+001, +3.50318898535E+001
+2.26811352254E+006, +1.87073653434E+001, +3.78171303307E+001
+2.43489148581E+006, +1.87175484570E+001, +4.05577965113E+001
+2.60166944908E+006, +1.87113648854E+001, +4.34125920342E+001
+2.76844741235E+006, +1.86823087822E+001, +4.61647609753E+001
+2.93522537563E+006, +1.86560392747E+001, +4.88853841680E+001
+3.10200333890E+006, +1.87040141490E+001, +5.16668756523E+001
+3.26878130217E+006, +1.87923150963E+001, +5.44696580884E+001
+3.43555926544E+006, +1.87203627618E+001, +5.72903960499E+001
+3.60233722871E+006, +1.87097503795E+001, +6.00465045035E+001
+3.76911519199E+006, +1.88229226721E+001, +6.28193134508E+001
+3.93589315526E+006, +1.87796567286E+001, +6.56541134856E+001
+4.10267111853E+006, +1.95392368908E+001, +6.82701471051E+001
+4.26944908180E+006, +1.86800131269E+001, +7.12113478374E+001
+4.43622704508E+006, +1.87679123667E+001, +7.38808576959E+001
+4.60300500835E+006, +1.87707550970E+001, +7.66899817891E+001
+4.76978297162E+006, +1.86954710656E+001, +7.95457508548E+001
+4.93656093489E+006, +1.88464127583E+001, +8.23575114510E+001
+5.10333889816E+006, +1.88413562988E+001, +8.50737393284E+001
+5.27011686144E+006, +1.86734367918E+001, +8.78040386900E+001
+5.43689482471E+006, +1.88211042323E+001, +9.06739944022E+001
+5.60367278798E+006, +1.89487572052E+001, +9.34794622939E+001
+5.77045075125E+006, +1.90089407234E+001, +9.62854538341E+001
+5.93722871452E+006, +1.90663629261E+001, +9.91308797520E+001
+6.10400667780E+006, +1.91358245647E+001, +1.01748366234E+002
+6.27078464107E+006, +1.90293997492E+001, +1.04559113184E+002
+6.43756260434E+006, +1.91642087664E+001, +1.07373148976E+002
+6.60434056761E+006, +1.90901966332E+001, +1.10153617235E+002
+6.77111853088E+006, +1.91136627767E+001, +1.12972215294E+002
+6.93789649416E+006, +1.92346523000E+001, +1.15826363469E+002
+7.10467445743E+006, +1.91681645008E+001, +1.18514539901E+002
+7.27145242070E+006, +1.92596157761E+001, +1.21368103575E+002
+7.43823038397E+006, +1.92845596170E+001, +1.24127429875E+002
+7.60500834725E+006, +1.92799355941E+001, +1.26875632016E+002
+7.77178631052E+006, +1.93507759083E+001, +1.29701517877E+002
+7.93856427379E+006, +1.92251539475E+001, +1.32573627822E+002
+8.10534223706E+006, +1.92424086939E+001, +1.35231983226E+002
+8.27212020033E+006, +1.93404234133E+001, +1.38114847255E+002
+8.43889816361E+006, +1.93052051326E+001, +1.41068667015E+002
+8.60567612688E+006, +1.91911970950E+001, +1.43757512377E+002
+8.77245409015E+006, +1.93683760475E+001, +1.46434552185E+002
+8.93923205342E+006, +1.92737932352E+001, +1.49524622309E+002
+9.10601001669E+006, +1.93596462787E+001, +1.52118805935E+002
+9.27278797997E+006, +1.93869104092E+001, +1.55157560700E+002
+9.43956594324E+006, +1.92648329849E+001, +1.57724225143E+002
+9.60634390651E+006, +1.93022098869E+001, +1.60637653231E+002
+9.77312186978E+006, +1.92730416115E+001, +1.63488548885E+002
+9.93989983306E+006, +1.92926561117E+001, +1.66208614246E+002
+1.01066777963E+007, +1.92452023981E+001, +1.69236097971E+002
+1.02734557596E+007, +1.92914951951E+001, +1.71827396936E+002
+1.04402337229E+007, +1.93385950997E+001, +1.74831256725E+002
+1.06070116861E+007, +1.93374941840E+001, +1.77766456739E+002
+1.07737896494E+007, +1.92849640190E+001, +1.80466797741E+002
+1.09405676127E+007, +1.93276218066E+001, +1.83605675748E+002
+1.11073455760E+007, +1.92652612488E+001, +1.86506407367E+002
+1.12741235392E+007, +1.94214255241E+001, +1.89103595780E+002
+1.14409015025E+007, +1.94719315692E+001, +1.91817449458E+002
+1.16076794658E+007, +1.95816595161E+001, +1.94829659366E+002
+1.17744574290E+007, +1.95307493039E+001, +1.97706923039E+002
+1.19412353923E+007, +1.95336825337E+001, +2.00828705847E+002
+1.21080133556E+007, +1.96902757380E+001, +2.03367012185E+002
+1.22747913189E+007, +1.93848687363E+001, +2.06353890507E+002
+1.24415692821E+007, +1.95871574279E+001, +2.09118978153E+002
+1.26083472454E+007, +1.94756390608E+001, +2.11913087103E+002
+1.27751252087E+007, +1.95638499493E+001, +2.14757864075E+002
+1.29419031720E+007, +1.95397528246E+001, +2.17787732606E+002
+1.31086811352E+007, +1.95686168299E+001, +2.20566052418E+002
+1.32754590985E+007, +1.96743368417E+001, +2.23662010247E+002
+1.34422370618E+007, +1.95855942588E+001, +2.26693520768E+002
+1.36090150250E+007, +1.96653107331E+001, +2.29102945663E+002
+1.37757929883E+007, +1.96331596547E+001, +2.31818644379E+002
+1.39425709516E+007, +2.00587384242E+001, +2.34921803823E+002
+1.41093489149E+007, +1.97344964617E+001, +2.37940498009E+002
+1.42761268781E+007, +1.97296672723E+001, +2.40961708500E+002
+1.44429048414E+007, +1.96199514130E+001, +2.43989569270E+002
+1.46096828047E+007, +1.99748127956E+001, +2.46769357342E+002
+1.47764607679E+007, +1.99416659803E+001, +2.49563111846E+002
+1.49432387312E+007, +1.99145596266E+001, +2.52345090613E+002
+1.51100166945E+007, +2.01256276342E+001, +2.55498255485E+002
+1.52767946578E+007, +1.98453293935E+001, +2.58407708325E+002
+1.54435726210E+007, +1.97738803399E+001, +2.61496532077E+002
+1.56103505843E+007, +1.99301776057E+001, +2.64229661295E+002
+1.57771285476E+007, +1.98845146133E+001, +2.67184585323E+002
+1.59439065109E+007, +2.01220468681E+001, +2.69935020535E+002
+1.61106844741E+007, +2.01809924126E+001, +2.73116726196E+002
+1.62774624374E+007, +2.01953003353E+001, +2.75581600419E+002
+1.64442404007E+007, +2.03913427512E+001, +2.78527378741E+002
+1.66110183639E+007, +2.05825293675E+001, +2.81561159067E+002
+1.67777963272E+007, +2.04673829338E+001, +2.84274996104E+002
+1.69445742905E+007, +2.04993396354E+001, +2.87766674640E+002
+1.71113522538E+007, +1.93783713391E+001, +2.90683837378E+002
+1.72781302170E+007, +1.98523796277E+001, +2.93641593389E+002
+1.74449081803E+007, +1.97918617460E+001, +2.96360222585E+002
+1.76116861436E+007, +2.01496821834E+001, +2.99733362164E+002
+1.77784641068E+007, +2.01301059838E+001, +3.02773928716E+002
+1.79452420701E+007, +2.02526626325E+001, +3.05564169944E+002
+1.81120200334E+007, +2.05731035625E+001, +3.08644875445E+002
+1.82787979967E+007, +2.07177922214E+001, +3.11370599307E+002
+1.84455759599E+007, +2.08214272829E+001, +3.14529645935E+002
+1.86123539232E+007, +2.07314735493E+001, +3.17209164510E+002
+1.87791318865E+007, +2.08445003964E+001, +3.19865767045E+002
+1.89459098497E+007, +2.08711810317E+001, +3.23572985227E+002
+1.91126878130E+007, +2.06809841569E+001, +3.26672848012E+002
+1.92794657763E+007, +2.06563808951E+001, +3.28856586107E+002
+1.94462437396E+007, +2.11241347943E+001, +3.32903137005E+002
+1.96130217028E+007, +2.11557618915E+001, +3.35337918037E+002
+1.97797996661E+007, +2.10863304887E+001, +3.38355130135E+002
+1.99465776294E+007, +2.10496138901E+001, +3.40991195231E+002
+2.01133555927E+007, +2.12783708318E+001, +3.44329354035E+002
+2.02801335559E+007, +2.11910059910E+001, +3.47395964105E+002
+2.04469115192E+007, +2.17022705680E+001, +3.50687090978E+002
+2.06136894825E+007, +2.14166938536E+001, +3.54139070961E+002
+2.07804674457E+007, +2.12200141076E+001, +3.56757246565E+002
+2.09472454090E+007, +2.17676471883E+001, +3.59663789603E+002
+2.11140233723E+007, +2.11263833167E+001, +3.63254161823E+002
+2.12808013356E+007, +2.20244253173E+001, +3.65801354146E+002
+2.14475792988E+007, +2.17625583173E+001, +3.68914802915E+002
+2.16143572621E+007, +2.20048667117E+001, +3.71871952739E+002
+2.17811352254E+007, +2.22794057864E+001, +3.75656515291E+002
+2.19479131886E+007, +2.27384150221E+001, +3.78917286102E+002
+2.21146911519E+007, +2.18299972666E+001, +3.81429750745E+002
+2.22814691152E+007, +2.23273259437E+001, +3.83988783958E+002
+2.24482470785E+007, +2.22949745783E+001, +3.87397004244E+002
+2.26150250417E+007, +2.27810339596E+001, +3.90648474744E+002
+2.27818030050E+007, +2.32486942077E+001, +3.93711855322E+002
+2.29485809683E+007, +2.25596009640E+001, +3.96463513402E+002
+2.31153589316E+007, +2.34579892769E+001, +3.99892923779E+002
+2.32821368948E+007, +2.38738373605E+001, +4.03545856978E+002
+2.34489148581E+007, +2.33675232258E+001, +4.06678592573E+002
+2.36156928214E+007, +2.40412756628E+001, +4.09251257693E+002
+2.37824707846E+007, +2.41543105667E+001, +4.11924940071E+002
+2.39492487479E+007, +2.42430098088E+001, +4.16146751577E+002
+2.41160267112E+007, +2.45486781791E+001, +4.19019601802E+002
+2.42828046745E+007, +2.45959708789E+001, +4.21171838145E+002
+2.44495826377E+007, +2.54891068086E+001, +4.24110300510E+002
+2.46163606010E+007, +2.51280735105E+001, +4.27396041299E+002
+2.47831385643E+007, +2.36858557987E+001, +4.31294802320E+002
+2.49499165275E+007, +2.54452247816E+001, +4.35315054480E+002
+2.51166944908E+007, +2.47718901619E+001, +4.38355479106E+002
+2.52834724541E+007, +2.54498104201E+001, +4.39520360959E+002
+2.54502504174E+007, +2.52388532634E+001, +4.42810814462E+002
+2.56170283806E+007, +2.57648365567E+001, +4.46835226947E+002
+2.57838063439E+007, +2.47232811450E+001, +4.48660986169E+002
+2.59505843072E+007, +2.53287365759E+001, +4.51940204855E+002
+2.61173622705E+007, +2.54717522304E+001, +4.55643230127E+002
+2.62841402337E+007, +2.61513052053E+001, +4.59734245525E+002
+2.64509181970E+007, +2.55412187653E+001, +4.62199797568E+002
+2.66176961603E+007, +2.65587036983E+001, +4.65825206690E+002
+2.67844741235E+007, +2.43496935949E+001, +4.68506470360E+002
+2.69512520868E+007, +2.54890962978E+001, +4.72908180852E+002
+2.71180300501E+007, +2.52829736527E+001, +4.76422198297E+002
+2.72848080134E+007, +2.57424017188E+001, +4.79606409773E+002
+2.74515859766E+007, +2.61727594851E+001, +4.82179901222E+002
+2.76183639399E+007, +2.65865148633E+001, +4.84581570857E+002
+2.77851419032E+007, +2.65579414305E+001, +4.88372593071E+002
+2.79519198664E+007, +2.55561765937E+001, +4.92951329487E+002
+2.81186978297E+007, +2.73597911373E+001, +4.96111319161E+002
+2.82854757930E+007, +2.63244281365E+001, +4.99895738893E+002
+2.84522537563E+007, +2.56962385539E+001, +5.02033227464E+002
+2.86190317195E+007, +2.55844529942E+001, +5.06169761133E+002
+2.87858096828E+007, +2.63476878416E+001, +5.09242857291E+002
+2.89525876461E+007, +2.65281483711E+001, +5.13609462077E+002
+2.91193656093E+007, +2.69233082930E+001, +5.15760160887E+002
+2.92861435726E+007, +2.65908414674E+001, +5.19557553741E+002
+2.94529215359E+007, +2.70652628075E+001, +5.23195156183E+002
+2.96196994992E+007, +2.70782911760E+001, +5.25954924952E+002
+2.97864774624E+007, +2.63998113007E+001, +5.29759371153E+002
+2.99532554257E+007, +2.70784858029E+001, +5.33997834272E+002
+3.01200333890E+007, +2.79880490939E+001, +5.36564162958E+002
+3.02868113523E+007, +2.71678672619E+001, +5.40393060409E+002
+3.04535893155E+007, +2.86016787721E+001, +5.43809793969E+002
+3.06203672788E+007, +2.74273553931E+001, +5.46814651701E+002
+3.07871452421E+007, +2.71905280656E+001, +5.50916471794E+002
+3.09539232053E+007, +2.70547630970E+001, +5.53322484233E+002
+3.11207011686E+007, +2.73171837847E+001, +5.57700104527E+002
+3.12874791319E+007, +2.62690895855E+001, +5.60444697077E+002
+3.14542570952E+007, +2.71961932142E+001, +5.65471335602E+002
+3.16210350584E+007, +2.84584347072E+001, +5.68967017778E+002
+3.17878130217E+007, +2.79032883247E+001, +5.71643447882E+002
+3.19545909850E+007, +2.86589137663E+001, +5.75741143661E+002
+3.21213689482E+007, +2.76774962413E+001, +5.79287384373E+002
+3.22881469115E+007, +2.75341030573E+001, +5.82145164977E+002
+3.24549248748E+007, +2.79794215427E+001, +5.86863488211E+002
+3.26217028381E+007, +2.93529322003E+001, +5.89867240761E+002
+3.27884808013E+007, +2.78728957917E+001, +5.92736501882E+002
+3.29552587646E+007, +2.82672144052E+001, +5.95862347216E+002
+3.31220367279E+007, +2.70109176913E+001, +6.02463796163E+002
+3.32888146912E+007, +2.79315363856E+001, +6.06664719748E+002
+3.34555926544E+007, +2.99023006678E+001, +6.09291631305E+002
+3.36223706177E+007, +2.93622949850E+001, +6.12481581869E+002
+3.37891485810E+007, +2.88295689266E+001, +6.16173598535E+002
+3.39559265442E+007, +2.84198343912E+001, +6.20335469770E+002
+3.41227045075E+007, +2.87031084832E+001, +6.23491377361E+002
+3.42894824708E+007, +2.85075717491E+001, +6.26519815678E+002
+3.44562604341E+007, +2.79861046709E+001, +6.31721375780E+002
+3.46230383973E+007, +2.98238848789E+001, +6.35190655786E+002
+3.47898163606E+007, +2.96331839087E+001, +6.38731810435E+002
+3.49565943239E+007, +2.94354053292E+001, +6.41696912134E+002
+3.51233722871E+007, +2.95140459906E+001, +6.46129408667E+002
+3.52901502504E+007, +3.04051239260E+001, +6.50764593197E+002
+3.54569282137E+007, +3.04303513371E+001, +6.55830218035E+002
+3.56237061770E+007, +2.93610761581E+001, +6.58224667815E+002
+3.57904841402E+007, +3.02669255267E+001, +6.63511430892E+002
+3.59572621035E+007, +3.29257931854E+001, +6.66362902998E+002
+3.61240400668E+007, +2.86487910261E+001, +6.70660358526E+002
+3.62908180301E+007, +3.12780776861E+001, +6.75650473150E+002
+3.64575959933E+007, +3.08016130297E+001, +6.78749476148E+002
+3.66243739566E+007, +3.16816600262E+001, +6.85051052431E+002
+3.67911519199E+007, +3.25005282294E+001, +6.88146214379E+002
+3.69579298831E+007, +3.01764516183E+001, +6.90749064676E+002
+3.71247078464E+007, +2.85093289515E+001, +6.96802244023E+002
+3.72914858097E+007, +3.19411786779E+001, +7.01702161344E+002
+3.74582637730E+007, +3.19784986538E+001, +7.07193775219E+002
+3.76250417362E+007, +3.27504757255E+001, +7.09920775770E+002
+3.77918196995E+007, +3.04963954309E+001, +7.12467544380E+002
+3.79585976628E+007, +3.19961071433E+001, +7.17661948767E+002
+3.81253756260E+007, +3.07045682738E+001, +7.21870347200E+002
+3.82921535893E+007, +3.02870686146E+001, +7.26938433339E+002
+3.84589315526E+007, +3.28728995194E+001, +7.31302961111E+002
+3.86257095159E+007, +3.24950384606E+001, +7.35956126584E+002
+3.87924874791E+007, +3.15623622353E+001, +7.41004490730E+002
+3.89592654424E+007, +3.36259326235E+001, +7.47596866926E+002
+3.91260434057E+007, +3.40355505021E+001, +7.52156811432E+002
+3.92928213689E+007, +3.20383919117E+001, +7.53637476481E+002
+3.94595993322E+007, +3.59830359037E+001, +7.60612064705E+002
+3.96263772955E+007, +3.58125844994E+001, +7.62377222779E+002
+3.97931552588E+007, +3.22439703204E+001, +7.67751727454E+002
+3.99599332220E+007, +3.36093178225E+001, +7.74184165323E+002
+4.01267111853E+007, +3.13542000522E+001, +7.77788952559E+002
+4.02934891486E+007, +3.40471092619E+001, +7.79586646122E+002
+4.04602671119E+007, +3.50823072851E+001, +7.86436709397E+002
+4.06270450751E+007, +3.31670150216E+001, +7.90481826405E+002
+4.07938230384E+007, +3.54245167244E+001, +7.95671848761E+002
+4.09606010017E+007, +3.30141396073E+001, +8.00717657952E+002
+4.11273789649E+007, +3.56554409499E+001, +8.07001417779E+002
+4.12941569282E+007, +3.59140822850E+001, +8.11372259525E+002
+4.14609348915E+007, +3.75597352077E+001, +8.12148990700E+002
+4.16277128548E+007, +3.41213075920E+001, +8.20729118958E+002
+4.17944908180E+007, +3.40589718601E+001, +8.26789290976E+002
+4.19612687813E+007, +3.46534189982E+001, +8.30093339334E+002
+4.21280467446E+007, +3.59909774953E+001, +8.36576169627E+002
+4.22948247078E+007, +3.66947607020E+001, +8.42803660646E+002
+4.24616026711E+007, +3.55447127119E+001, +8.51329817824E+002
+4.26283806344E+007, +3.67035603323E+001, +8.50898748518E+002
+4.27951585977E+007, +3.84620560148E+001, +8.56319171598E+002
+4.29619365609E+007, +3.88073847669E+001, +8.63998881786E+002
+4.31287145242E+007, +3.65394634862E+001, +8.73743477540E+002
+4.32954924875E+007, +4.09130449948E+001, +8.75499398977E+002
+4.34622704508E+007, +3.84416377083E+001, +8.81823184356E+002
+4.36290484140E+007, +3.78341900455E+001, +8.86981094431E+002
+4.37958263773E+007, +3.67067678825E+001, +8.93148273028E+002
+4.39626043406E+007, +4.14278051849E+001, +8.98640699718E+002
+4.41293823038E+007, +4.02893503717E+001, +9.04093283622E+002
+4.42961602671E+007, +4.08956690492E+001, +9.11765124405E+002
+4.44629382304E+007, +4.31888881098E+001, +9.20394738149E+002
+4.46297161937E+007, +4.30031687780E+001, +9.22879303045E+002
+4.47964941569E+007, +3.86071014730E+001, +9.29314652549E+002
+4.49632721202E+007, +4.35322385859E+001, +9.40883577655E+002
+4.51300500835E+007, +4.11062600488E+001, +9.43269356857E+002
+4.52968280467E+007, +4.83118536023E+001, +9.51920258409E+002
+4.54636060100E+007, +3.91243006493E+001, +9.51056261393E+002
+4.56303839733E+007, +4.78728913269E+001, +9.62185209334E+002
+4.57971619366E+007, +4.86472955632E+001, +9.66441905427E+002
+4.59639398998E+007, +4.46875876968E+001, +9.76899477998E+002
+4.61307178631E+007, +4.33022883808E+001, +9.84493232005E+002
+4.62974958264E+007, +4.94419887450E+001, +9.89712126710E+002
+4.64642737896E+007, +4.75044379281E+001, +9.97957278950E+002
+4.66310517529E+007, +4.99588092184E+001, +1.00492287325E+003
+4.67978297162E+007, +5.56406683933E+001, +1.00993355172E+003
+4.69646076795E+007, +5.07619592251E+001, +1.01960263606E+003
+4.71313856427E+007, +5.29421807797E+001, +1.02800219835E+003
+4.72981636060E+007, +5.62117260685E+001, +1.03451180105E+003
+4.74649415693E+007, +5.22343710411E+001, +1.04262843780E+003
+4.76317195326E+007, +5.57080923046E+001, +1.04466433327E+003
+4.77984974958E+007, +5.56062838951E+001, +1.05710385749E+003
+4.79652754591E+007, +6.16090122288E+001, +1.06037792333E+003
+4.81320534224E+007, +5.80031309628E+001, +1.07093291489E+003
+4.82988313856E+007, +6.06216691905E+001, +1.07933059102E+003
+4.84656093489E+007, +6.28011515291E+001, +1.09124106754E+003
+4.86323873122E+007, +6.77317523084E+001, +1.09886713528E+003
+4.87991652755E+007, +6.78364814844E+001, +1.10422863163E+003
+4.89659432387E+007, +7.28795752623E+001, +1.10895818364E+003
+4.91327212020E+007, +7.10531329213E+001, +1.12122382379E+003
+4.92994991653E+007, +7.46030733586E+001, +1.12490034358E+003
+4.94662771285E+007, +7.58888499573E+001, +1.13266346384E+003
+4.96330550918E+007, +7.93611143727E+001, +1.13924162269E+003
+4.97998330551E+007, +8.44075488032E+001, +1.14872195493E+003
+4.99666110184E+007, +8.35917512750E+001, +1.16112596867E+003
+5.01333889816E+007, +8.28912616776E+001, +1.16926929334E+003
+5.03001669449E+007, +9.04375569204E+001, +1.17896668244E+003
+5.04669449082E+007, +8.30473646864E+001, +1.18280365432E+003
+5.06337228715E+007, +9.18794229024E+001, +1.18230711913E+003
+5.08005008347E+007, +9.53307216904E+001, +1.19292460207E+003
+5.09672787980E+007, +9.62948308614E+001, +1.20680456148E+003
+5.11340567613E+007, +9.86794832438E+001, +1.21658340537E+003
+5.13008347245E+007, +9.41570160846E+001, +1.22257191594E+003
+5.14676126878E+007, +9.89240066221E+001, +1.22821878538E+003
+5.16343906511E+007, +1.01669362531E+002, +1.23971348165E+003
+5.18011686144E+007, +1.00920039656E+002, +1.24670047299E+003
+5.19679465776E+007, +1.01187552556E+002, +1.25696459024E+003
+5.21347245409E+007, +9.90582756216E+001, +1.26978029266E+003
+5.23015025042E+007, +9.63298207089E+001, +1.28222605208E+003
+5.24682804674E+007, +9.33431322051E+001, +1.28283263500E+003
+5.26350584307E+007, +1.02897943211E+002, +1.29690133890E+003
+5.28018363940E+007, +1.07276309479E+002, +1.30364007095E+003
+5.29686143573E+007, +1.03578007851E+002, +1.32382379563E+003
+5.31353923205E+007, +1.04032837297E+002, +1.33193678910E+003
+5.33021702838E+007, +1.01711919158E+002, +1.34827332627E+003
+5.34689482471E+007, +1.07082870525E+002, +1.36599719656E+003
