"# Channel 1"
"# Trace 1"
Frequency, Formatted Data, Formatted Data
+1.00000000000E+005, +8.21459015255E+001, +1.63303573437E+000
+2.25031289111E+005, +8.21175985945E+001, +3.96536252110E+000
+3.50062578223E+005, +8.22352130974E+001, +6.36013407832E+000
+4.75093867334E+005, +8.23945960159E+001, +8.59942169902E+000
+6.00125156446E+005, +8.23832182431E+001, +1.08578257306E+001
+7.25156445557E+005, +8.22085082136E+001, +1.30478424896E+001
+8.50187734668E+005, +8.22887182380E+001, +1.52792333070E+001
+9.75219023780E+005, +8.24678771688E+001, +1.74713770706E+001
+1.10025031289E+006, +8.25539082423E+001, +1.98298137679E+001
+1.22528160200E+006, +8.23610084540E+001, +2.19669984911E+001
+1.35031289111E+006, +8.25503465835E+001, +2.42331128660E+001
+1.47534418023E+006, +8.25077400886E+001, +2.65436997472E+001
+1.60037546934E+006, +8.25587973407E+001, +2.85318748063E+001
+1.72540675845E+006, +8.24921471005E+001, +3.10147353250E+001
+1.85043804756E+006, +8.24503071774E+001, +3.33533758992E+001
+1.97546933667E+006, +8.25811466038E+001, +3.54198239530E+001
+2.10050062578E+006, +8.26827642622E+001, +3.79176265471E+001
+2.22553191489E+006, +8.25699371627E+001, +4.00354086930E+001
+2.35056320401E+006, +8.26360216727E+001, +4.21940590489E+001
+2.47559449312E+006, +8.25899166295E+001, +4.44893137027E+001
+2.60062578223E+006, +8.28394062190E+001, +4.66689106672E+001
+2.72565707134E+006, +8.27297692527E+001, +4.89647416098E+001
+2.85068836045E+006, +8.29089371502E+001, +5.11325876219E+001
+2.97571964956E+006, +8.29115681815E+001, +5.34853556703E+001
+3.10075093867E+006, +8.28968461106E+001, +5.58855639229E+001
+3.22578222778E+006, +8.28596624678E+001, +5.81635043659E+001
+3.35081351690E+006, +8.28718604532E+001, +6.03905893310E+001
+3.47584480601E+006, +8.28924395547E+001, +6.24714066108E+001
+3.60087609512E+006, +8.30442015679E+001, +6.47586464493E+001
+3.72590738423E+006, +8.34008482980E+001, +6.71408318537E+001
+3.85093867334E+006, +8.31971028386E+001, +6.92294843020E+001
+3.97596996245E+006, +8.30253476604E+001, +7.17312101268E+001
+4.10100125156E+006, +8.32140650541E+001, +7.38479904909E+001
+4.22603254068E+006, +8.29287494853E+001, +7.62002221876E+001
+4.35106382979E+006, +8.35199901274E+001, +7.81868371092E+001
+4.47609511890E+006, +8.33790086747E+001, +8.07642556451E+001
+4.60112640801E+006, +8.34317022617E+001, +8.29492893837E+001
+4.72615769712E+006, +8.34696862752E+001, +8.50622654414E+001
+4.85118898623E+006, +8.37403574107E+001, +8.75779050113E+001
+4.97622027534E+006, +8.36912989450E+001, +8.95491047801E+001
+5.10125156446E+006, +8.36383500031E+001, +9.18731060319E+001
+5.22628285357E+006, +8.40083148871E+001, +9.43893614499E+001
+5.35131414268E+006, +8.39519411525E+001, +9.67053412746E+001
+5.47634543179E+006, +8.40235019626E+001, +9.87303983455E+001
+5.60137672090E+006, +8.40959781951E+001, +1.00885468460E+002
+5.72640801001E+006, +8.40946922278E+001, +1.03416095474E+002
+5.85143929912E+006, +8.42433301237E+001, +1.05656390291E+002
+5.97647058824E+006, +8.45371605426E+001, +1.07989552854E+002
+6.10150187735E+006, +8.44138177124E+001, +1.10194690934E+002
+6.22653316646E+006, +8.44405290814E+001, +1.12810195919E+002
+6.35156445557E+006, +8.46034947562E+001, +1.14690234974E+002
+6.47659574468E+006, +8.46556811231E+001, +1.16980566390E+002
+6.60162703379E+006, +8.48114304617E+001, +1.19302749066E+002
+6.72665832290E+006, +8.49146311484E+001, +1.21523578740E+002
+6.85168961202E+006, +8.50181299608E+001, +1.23829251602E+002
+6.97672090113E+006, +8.50780992267E+001, +1.26162342054E+002
+7.10175219024E+006, +8.54505397982E+001, +1.28473508160E+002
+7.22678347935E+006, +8.53148249670E+001, +1.30652629527E+002
+7.35181476846E+006, +8.54111131833E+001, +1.33060884840E+002
+7.47684605757E+006, +8.54739641741E+001, +1.35290381996E+002
+7.60187734668E+006, +8.55131103385E+001, +1.37728395050E+002
+7.72690863579E+006, +8.56985027337E+001, +1.39912061374E+002
+7.85193992491E+006, +8.59207107273E+001, +1.42103091525E+002
+7.97697121402E+006, +8.58479588913E+001, +1.44521902699E+002
+8.10200250313E+006, +8.60350075123E+001, +1.46829859349E+002
+8.22703379224E+006, +8.60242803430E+001, +1.49127287723E+002
+8.35206508135E+006, +8.62721819294E+001, +1.51422623610E+002
+8.47709637046E+006, +8.64078370612E+001, +1.53733057366E+002
+8.60212765957E+006, +8.66558509400E+001, +1.56125737517E+002
+8.72715894869E+006, +8.65886361860E+001, +1.58441993562E+002
+8.85219023780E+006, +8.67152260728E+001, +1.60629442092E+002
+8.97722152691E+006, +8.69657715190E+001, +1.62975590750E+002
+9.10225281602E+006, +8.70659978802E+001, +1.65416429534E+002
+9.22728410513E+006, +8.71269995363E+001, +1.67903467694E+002
+9.35231539424E+006, +8.72708179792E+001, +1.70257676883E+002
+9.47734668335E+006, +8.71667230946E+001, +1.72452659021E+002
+9.60237797247E+006, +8.75736880957E+001, +1.74768934097E+002
+9.72740926158E+006, +8.73258418258E+001, +1.77163878425E+002
+9.85244055069E+006, +8.73905856716E+001, +1.79556974649E+002
+9.97747183980E+006, +8.76242108556E+001, +1.81864413791E+002
+1.01025031289E+007, +8.76671595996E+001, +1.84367736154E+002
+1.02275344180E+007, +8.74755090941E+001, +1.86528266305E+002
+1.03525657071E+007, +8.77383568330E+001, +1.89147512422E+002
+1.04775969962E+007, +8.78962214105E+001, +1.91390165679E+002
+1.06026282854E+007, +8.80741513582E+001, +1.93803193406E+002
+1.07276595745E+007, +8.83288443115E+001, +1.96355344771E+002
+1.08526908636E+007, +8.89432777444E+001, +1.98402053822E+002
+1.09777221527E+007, +8.86987569834E+001, +2.01132811361E+002
+1.11027534418E+007, +8.86664488569E+001, +2.03408204491E+002
+1.12277847309E+007, +8.91099846328E+001, +2.05724436487E+002
+1.13528160200E+007, +8.87079313757E+001, +2.07936986532E+002
+1.14778473091E+007, +8.91701042234E+001, +2.10285652874E+002
+1.16028785982E+007, +8.96311747139E+001, +2.12960275290E+002
+1.17279098874E+007, +8.96021195577E+001, +2.15334588631E+002
+1.18529411765E+007, +8.97875452476E+001, +2.17665712315E+002
+1.19779724656E+007, +8.97593341077E+001, +2.20275725928E+002
+1.21030037547E+007, +9.00137796165E+001, +2.22324481001E+002
+1.22280350438E+007, +8.97927334664E+001, +2.24812867165E+002
+1.23530663329E+007, +9.05715701597E+001, +2.27790618737E+002
+1.24780976220E+007, +9.02095506469E+001, +2.29555813706E+002
+1.26031289111E+007, +9.07035450556E+001, +2.32317187084E+002
+1.27281602003E+007, +9.06880883850E+001, +2.34647403374E+002
+1.28531914894E+007, +9.06616141193E+001, +2.36729069217E+002
+1.29782227785E+007, +9.06536076189E+001, +2.39885152274E+002
+1.31032540676E+007, +9.10411265815E+001, +2.41876473403E+002
+1.32282853567E+007, +9.11848961387E+001, +2.44284621174E+002
+1.33533166458E+007, +9.14023076391E+001, +2.47293474676E+002
+1.34783479349E+007, +9.16471869811E+001, +2.48970865053E+002
+1.36033792240E+007, +9.15763442004E+001, +2.51724245062E+002
+1.37284105131E+007, +9.18030124203E+001, +2.53756423263E+002
+1.38534418023E+007, +9.23300754734E+001, +2.56581649709E+002
+1.39784730914E+007, +9.17754128834E+001, +2.59207677135E+002
+1.41035043805E+007, +9.21682835314E+001, +2.61894743328E+002
+1.42285356696E+007, +9.25454010736E+001, +2.64123960357E+002
+1.43535669587E+007, +9.29044311202E+001, +2.66649004009E+002
+1.44785982478E+007, +9.28054705542E+001, +2.69212171625E+002
+1.46036295369E+007, +9.33766088830E+001, +2.71927451350E+002
+1.47286608260E+007, +9.29594975957E+001, +2.74458258517E+002
+1.48536921151E+007, +9.36384102573E+001, +2.76144929450E+002
+1.49787234043E+007, +9.34802528835E+001, +2.79291131427E+002
+1.51037546934E+007, +9.41587963243E+001, +2.81993393144E+002
+1.52287859825E+007, +9.43322041735E+001, +2.83955524997E+002
+1.53538172716E+007, +9.46607296643E+001, +2.86369458569E+002
+1.54788485607E+007, +9.44683575630E+001, +2.89109771694E+002
+1.56038798498E+007, +9.51238304283E+001, +2.91432372689E+002
+1.57289111389E+007, +9.43370022539E+001, +2.93735600988E+002
+1.58539424280E+007, +9.48987818481E+001, +2.96694606944E+002
+1.59789737171E+007, +9.55251260326E+001, +2.99832355874E+002
+1.61040050063E+007, +9.61257678889E+001, +3.01836639170E+002
+1.62290362954E+007, +9.54208162239E+001, +3.04412323580E+002
+1.63540675845E+007, +9.56135339396E+001, +3.07123000850E+002
+1.64790988736E+007, +9.52075692247E+001, +3.09742054820E+002
+1.66041301627E+007, +9.63991182864E+001, +3.11975794799E+002
+1.67291614518E+007, +9.62242241571E+001, +3.14480650443E+002
+1.68541927409E+007, +9.63265792422E+001, +3.16864673218E+002
+1.69792240300E+007, +9.69668417982E+001, +3.19814527971E+002
+1.71042553191E+007, +9.68403579816E+001, +3.23250751364E+002
+1.72292866083E+007, +9.67441258499E+001, +3.25092504077E+002
+1.73543178974E+007, +9.68816305720E+001, +3.28164786369E+002
+1.74793491865E+007, +9.74914364246E+001, +3.30501140600E+002
+1.76043804756E+007, +9.69392274372E+001, +3.33778620601E+002
+1.77294117647E+007, +9.81806314710E+001, +3.35711219491E+002
+1.78544430538E+007, +9.77731171645E+001, +3.38855591832E+002
+1.79794743429E+007, +9.84345976035E+001, +3.40190520659E+002
+1.81045056320E+007, +9.85754582079E+001, +3.43005435560E+002
+1.82295369212E+007, +9.95461738546E+001, +3.46468247387E+002
+1.83545682103E+007, +9.96882177999E+001, +3.48759730278E+002
+1.84795994994E+007, +9.95993196686E+001, +3.51519562977E+002
+1.86046307885E+007, +1.00521764452E+002, +3.54453047850E+002
+1.87296620776E+007, +1.00045107673E+002, +3.57021552890E+002
+1.88546933667E+007, +1.00276833649E+002, +3.58880766805E+002
+1.89797246558E+007, +1.00170668327E+002, +3.62230433333E+002
+1.91047559449E+007, +1.00833116071E+002, +3.64773181237E+002
+1.92297872340E+007, +1.00067772423E+002, +3.68444548943E+002
+1.93548185232E+007, +1.01383190862E+002, +3.70559487545E+002
+1.94798498123E+007, +1.01399954340E+002, +3.73319288775E+002
+1.96048811014E+007, +1.02502400835E+002, +3.75046872714E+002
+1.97299123905E+007, +1.02916002306E+002, +3.78844441467E+002
+1.98549436796E+007, +1.01692852552E+002, +3.81103528151E+002
+1.99799749687E+007, +1.02923251958E+002, +3.84195513154E+002
+2.01050062578E+007, +1.02804203572E+002, +3.86890550458E+002
+2.02300375469E+007, +1.03706739870E+002, +3.88956322259E+002
+2.03550688360E+007, +1.03758363780E+002, +3.91572227264E+002
+2.04801001252E+007, +1.03901114192E+002, +3.95522004635E+002
+2.06051314143E+007, +1.04265256624E+002, +3.97085352548E+002
+2.07301627034E+007, +1.04490337274E+002, +4.00571521320E+002
+2.08551939925E+007, +1.03748516580E+002, +4.03292012844E+002
+2.09802252816E+007, +1.04809936893E+002, +4.05826296331E+002
+2.11052565707E+007, +1.06189037878E+002, +4.08214454300E+002
+2.12302878598E+007, +1.05650350522E+002, +4.12160220921E+002
+2.13553191489E+007, +1.05478976367E+002, +4.13514058662E+002
+2.14803504380E+007, +1.06001355323E+002, +4.16833378087E+002
+2.16053817272E+007, +1.06930980556E+002, +4.20161731160E+002
+2.17304130163E+007, +1.06624001049E+002, +4.22609359271E+002
+2.18554443054E+007, +1.06583970016E+002, +4.25809880953E+002
+2.19804755945E+007, +1.07634457822E+002, +4.28852142776E+002
+2.21055068836E+007, +1.08367825477E+002, +4.31512009990E+002
+2.22305381727E+007, +1.08709422334E+002, +4.32873174946E+002
+2.23555694618E+007, +1.08678737909E+002, +4.36211503160E+002
+2.24806007509E+007, +1.08575805896E+002, +4.40229287876E+002
+2.26056320401E+007, +1.09467441530E+002, +4.43239497999E+002
+2.27306633292E+007, +1.09286144085E+002, +4.45890697017E+002
+2.28556946183E+007, +1.11239205082E+002, +4.47751999851E+002
+2.29807259074E+007, +1.10814323965E+002, +4.51445468983E+002
+2.31057571965E+007, +1.11452981496E+002, +4.53305506709E+002
+2.32307884856E+007, +1.10909854800E+002, +4.57114260062E+002
+2.33558197747E+007, +1.11792363806E+002, +4.60914910642E+002
+2.34808510638E+007, +1.11473094241E+002, +4.62733884518E+002
+2.36058823529E+007, +1.12607240089E+002, +4.66040765963E+002
+2.37309136421E+007, +1.12674128528E+002, +4.68847368402E+002
+2.38559449312E+007, +1.13383527309E+002, +4.72059482008E+002
+2.39809762203E+007, +1.15080393574E+002, +4.74077992592E+002
+2.41060075094E+007, +1.14340662492E+002, +4.77601084049E+002
+2.42310387985E+007, +1.15868810810E+002, +4.80190239667E+002
+2.43560700876E+007, +1.16278260416E+002, +4.82266937157E+002
+2.44811013767E+007, +1.16413250340E+002, +4.86538093234E+002
+2.46061326658E+007, +1.16818700439E+002, +4.89629901567E+002
+2.47311639549E+007, +1.17875200566E+002, +4.92924570669E+002
+2.48561952441E+007, +1.17491081940E+002, +4.93958956230E+002
+2.49812265332E+007, +1.17227812222E+002, +4.98647144560E+002
+2.51062578223E+007, +1.16897872089E+002, +5.00202678986E+002
+2.52312891114E+007, +1.18066727182E+002, +5.06454658582E+002
+2.53563204005E+007, +1.19159771523E+002, +5.05736650030E+002
+2.54813516896E+007, +1.19493413046E+002, +5.08783527669E+002
+2.56063829787E+007, +1.19469325933E+002, +5.12730788466E+002
+2.57314142678E+007, +1.18453281311E+002, +5.17227112706E+002
+2.58564455569E+007, +1.20926858125E+002, +5.19707867496E+002
+2.59814768461E+007, +1.18958857811E+002, +5.22475351354E+002
+2.61065081352E+007, +1.21007493020E+002, +5.27143231645E+002
+2.62315394243E+007, +1.21281532544E+002, +5.28346562657E+002
+2.63565707134E+007, +1.20625272553E+002, +5.30573355746E+002
+2.64816020025E+007, +1.22025624392E+002, +5.34292042232E+002
+2.66066332916E+007, +1.23012100093E+002, +5.37014926372E+002
+2.67316645807E+007, +1.23415985307E+002, +5.41731768475E+002
+2.68566958698E+007, +1.23465013054E+002, +5.43531331023E+002
+2.69817271589E+007, +1.23175082238E+002, +5.48379731468E+002
+2.71067584481E+007, +1.23707975784E+002, +5.51754568368E+002
+2.72317897372E+007, +1.24413728675E+002, +5.52849997721E+002
+2.73568210263E+007, +1.24450490409E+002, +5.57814579991E+002
+2.74818523154E+007, +1.25586106057E+002, +5.61436251083E+002
+2.76068836045E+007, +1.24968877356E+002, +5.62833469129E+002
+2.77319148936E+007, +1.24088216570E+002, +5.67460389359E+002
+2.78569461827E+007, +1.26405568533E+002, +5.72361576021E+002
+2.79819774718E+007, +1.26064263018E+002, +5.75053046946E+002
+2.81070087610E+007, +1.26863949194E+002, +5.77868015420E+002
+2.82320400501E+007, +1.27995996240E+002, +5.79293085998E+002
+2.83570713392E+007, +1.28697725417E+002, +5.85613402112E+002
+2.84821026283E+007, +1.29006448270E+002, +5.88857798424E+002
+2.86071339174E+007, +1.28110522341E+002, +5.88862438324E+002
+2.87321652065E+007, +1.28580564211E+002, +5.95230650687E+002
+2.88571964956E+007, +1.28909445666E+002, +5.96608776546E+002
+2.89822277847E+007, +1.31935287146E+002, +5.99910085279E+002
+2.91072590738E+007, +1.29988036503E+002, +6.05392773886E+002
+2.92322903630E+007, +1.31980381147E+002, +6.09484834842E+002
+2.93573216521E+007, +1.33634968127E+002, +6.09568139678E+002
+2.94823529412E+007, +1.32936872988E+002, +6.15886215302E+002
+2.96073842303E+007, +1.34079916880E+002, +6.18087722789E+002
+2.97324155194E+007, +1.31976913035E+002, +6.20315603472E+002
+2.98574468085E+007, +1.32799000390E+002, +6.26041617511E+002
+2.99824780976E+007, +1.34334468545E+002, +6.27635062678E+002
+3.01075093867E+007, +1.36033737117E+002, +6.33941934471E+002
+3.02325406758E+007, +1.34244548720E+002, +6.37045212680E+002
+3.03575719650E+007, +1.37361277761E+002, +6.40907513014E+002
+3.04826032541E+007, +1.37949707272E+002, +6.42849765638E+002
+3.06076345432E+007, +1.35056257443E+002, +6.45112634983E+002
+3.07326658323E+007, +1.38249342639E+002, +6.52386312344E+002
+3.08576971214E+007, +1.39887856731E+002, +6.56902795373E+002
+3.09827284105E+007, +1.40079056664E+002, +6.56724026622E+002
+3.11077596996E+007, +1.39167994768E+002, +6.62197671262E+002
+3.12327909887E+007, +1.38580772492E+002, +6.65748105639E+002
+3.13578222778E+007, +1.40950711410E+002, +6.70768989282E+002
+3.14828535670E+007, +1.41888676519E+002, +6.71218223400E+002
+3.16078848561E+007, +1.42565410777E+002, +6.77087893859E+002
+3.17329161452E+007, +1.42167346818E+002, +6.80233172426E+002
+3.18579474343E+007, +1.41238309430E+002, +6.81652168750E+002
+3.19829787234E+007, +1.42205039482E+002, +6.85355215659E+002
+3.21080100125E+007, +1.42785543929E+002, +6.91968767277E+002
+3.22330413016E+007, +1.45798054335E+002, +6.96626929287E+002
+3.23580725907E+007, +1.44939841034E+002, +6.98477749295E+002
+3.24831038798E+007, +1.45345307921E+002, +7.01501824059E+002
+3.26081351690E+007, +1.48013242891E+002, +7.08474062813E+002
+3.27331664581E+007, +1.48493579953E+002, +7.10340105647E+002
+3.28581977472E+007, +1.45960142850E+002, +7.15046414860E+002
+3.29832290363E+007, +1.47852533235E+002, +7.19715626757E+002
+3.31082603254E+007, +1.48493514350E+002, +7.23542890728E+002
+3.32332916145E+007, +1.49814875479E+002, +7.27424142702E+002
+3.33583229036E+007, +1.50730196089E+002, +7.30459488422E+002
+3.34833541927E+007, +1.50371977576E+002, +7.34548659457E+002
+3.36083854819E+007, +1.50117540453E+002, +7.38278590516E+002
+3.37334167710E+007, +1.52200569808E+002, +7.41801942133E+002
+3.38584480601E+007, +1.56071525544E+002, +7.49137555453E+002
+3.39834793492E+007, +1.53016777931E+002, +7.48910419324E+002
+3.41085106383E+007, +1.54207712537E+002, +7.55800344360E+002
+3.42335419274E+007, +1.55600381376E+002, +7.56365048913E+002
+3.43585732165E+007, +1.56040181505E+002, +7.64062829539E+002
+3.44836045056E+007, +1.56464365415E+002, +7.65746546115E+002
+3.46086357947E+007, +1.58488932190E+002, +7.71899220355E+002
+3.47336670839E+007, +1.61411233411E+002, +7.77541549689E+002
+3.48586983730E+007, +1.61748592802E+002, +7.81203400034E+002
+3.49837296621E+007, +1.61531621364E+002, +7.87116727359E+002
+3.51087609512E+007, +1.62747773306E+002, +7.90037672218E+002
+3.52337922403E+007, +1.60388356204E+002, +7.95585661344E+002
+3.53588235294E+007, +1.63990451670E+002, +7.97251733659E+002
+3.54838548185E+007, +1.66278347006E+002, +8.02120320790E+002
+3.56088861076E+007, +1.65139215659E+002, +8.08457269952E+002
+3.57339173967E+007, +1.64113740614E+002, +8.07797583563E+002
+3.58589486859E+007, +1.64828538288E+002, +8.14080654263E+002
+3.59839799750E+007, +1.69480562481E+002, +8.13738379792E+002
+3.61090112641E+007, +1.67769621454E+002, +8.23788178652E+002
+3.62340425532E+007, +1.67909796145E+002, +8.27048197495E+002
+3.63590738423E+007, +1.68925231261E+002, +8.30966177166E+002
+3.64841051314E+007, +1.69826856524E+002, +8.33244851991E+002
+3.66091364205E+007, +1.71140476167E+002, +8.38977717681E+002
+3.67341677096E+007, +1.76103724630E+002, +8.45787357183E+002
+3.68591989987E+007, +1.69327686018E+002, +8.46861945168E+002
+3.69842302879E+007, +1.76718846897E+002, +8.60125557438E+002
+3.71092615770E+007, +1.76340034320E+002, +8.59197483896E+002
+3.72342928661E+007, +1.75916374763E+002, +8.63124824992E+002
+3.73593241552E+007, +1.74911813633E+002, +8.69766393650E+002
+3.74843554443E+007, +1.77616201519E+002, +8.73312031519E+002
+3.76093867334E+007, +1.82796585583E+002, +8.79951008885E+002
+3.77344180225E+007, +1.83454415497E+002, +8.83757683956E+002
+3.78594493116E+007, +1.81459748913E+002, +8.88806213104E+002
+3.79844806008E+007, +1.81412229551E+002, +8.90412452031E+002
+3.81095118899E+007, +1.78386673110E+002, +8.97381378940E+002
+3.82345431790E+007, +1.85359218399E+002, +9.03319494801E+002
+3.83595744681E+007, +1.84731669626E+002, +9.03795574093E+002
+3.84846057572E+007, +1.84806820973E+002, +9.10544032032E+002
+3.86096370463E+007, +1.87907214408E+002, +9.22464124658E+002
+3.87346683354E+007, +1.94737051311E+002, +9.23566876367E+002
+3.88596996245E+007, +1.91917453711E+002, +9.29085839953E+002
+3.89847309136E+007, +1.91954710757E+002, +9.36085236834E+002
+3.91097622028E+007, +1.96528965733E+002, +9.35026803654E+002
+3.92347934919E+007, +1.94375933568E+002, +9.41254591497E+002
+3.93598247810E+007, +1.98748972145E+002, +9.46279011192E+002
+3.94848560701E+007, +1.98671147313E+002, +9.50841262311E+002
+3.96098873592E+007, +1.98995553606E+002, +9.57576821977E+002
+3.97349186483E+007, +1.99260282995E+002, +9.64723109032E+002
+3.98599499374E+007, +2.01716996530E+002, +9.66927994808E+002
+3.99849812265E+007, +2.00286179142E+002, +9.80592398354E+002
+4.01100125156E+007, +2.03567116803E+002, +9.81344356633E+002
