"# Channel 1"
"# Trace 1"
Frequency, Formatted Data, Formatted Data
+1.00000000000E+005, +3.88630031127E+001, +1.53765297640E+000
+2.66777963272E+005, +3.88200387068E+001, +4.62835230035E+000
+4.33555926544E+005, +3.88394414024E+001, +7.45589455735E+000
+6.00333889816E+005, +3.88342564201E+001, +1.03270770898E+001
+7.67111853088E+005, +3.88594229066E+001, +1.31764646405E+001
+9.33889816361E+005, +3.88267023312E+001, +1.60353973964E+001
+1.10066777963E+006, +3.88673887229E+001, +1.89833474539E+001
+1.26744574290E+006, +3.88704863425E+001, +2.18155109306E+001
+1.43422370618E+006, +3.88403136878E+001, +2.47798506506E+001
+1.60100166945E+006, +3.88323115985E+001, +2.75606648582E+001
+1.76777963272E+006, +3.88954993216E+001, +3.04085157109E+001
+1.93455759599E+006, +3.88266644258E+001, +3.32471487971E+001
+2.10133555927E+006, +3.88601091114E+001, +3.61495665760E+001
+2.26811352254E+006, +3.88827898134E+001, +3.89272500093E+001
+2.43489148581E+006, +3.89756808353E+001, +4.19340885869E+001
+2.60166944908E+006, +3.88754420037E+001, +4.47643376612E+001
+2.76844741235E+006, +3.89277633624E+001, +4.77121754534E+001
+2.93522537563E+006, +3.89001707522E+001, +5.05705244312E+001
+3.10200333890E+006, +3.89339721012E+001, +5.33098147834E+001
+3.26878130217E+006, +3.89345161021E+001, +5.64219669044E+001
+3.43555926544E+006, +3.89479041952E+001, +5.91207824181E+001
+3.60233722871E+006, +3.91120703544E+001, +6.20286434498E+001
+3.76911519199E+006, +3.90816487313E+001, +6.50440039252E+001
+3.93589315526E+006, +3.89879618468E+001, +6.76987552976E+001
+4.10267111853E+006, +3.83546885018E+001, +7.07786313324E+001
+4.26944908180E+006, +3.92099910349E+001, +7.40424159307E+001
+4.43622704508E+006, +3.90670355625E+001, +7.66033790718E+001
+4.60300500835E+006, +3.92379228083E+001, +7.95208010171E+001
+4.76978297162E+006, +3.92006402329E+001, +8.23822107473E+001
+4.93656093489E+006, +3.93664460090E+001, +8.52680822785E+001
+5.10333889816E+006, +3.93285837745E+001, +8.82261039675E+001
+5.27011686144E+006, +3.95557377869E+001, +9.10773211662E+001
+5.43689482471E+006, +3.93529340584E+001, +9.41056899625E+001
+5.60367278798E+006, +3.94714631498E+001, +9.69993800655E+001
+5.77045075125E+006, +3.93978153398E+001, +9.98538218139E+001
+5.93722871452E+006, +3.96830654406E+001, +1.02853029887E+002
+6.10400667780E+006, +3.95557986541E+001, +1.05716105367E+002
+6.27078464107E+006, +3.97300956418E+001, +1.08536155528E+002
+6.43756260434E+006, +3.97636284887E+001, +1.11563590718E+002
+6.60434056761E+006, +3.98083042743E+001, +1.14402694773E+002
+6.77111853088E+006, +3.99903334580E+001, +1.17291967834E+002
+6.93789649416E+006, +3.99498252912E+001, +1.20297158766E+002
+7.10467445743E+006, +3.98903370513E+001, +1.23215399775E+002
+7.27145242070E+006, +3.99744931341E+001, +1.26021017689E+002
+7.43823038397E+006, +4.00751231520E+001, +1.28950167991E+002
+7.60500834725E+006, +4.00478440542E+001, +1.32141157440E+002
+7.77178631052E+006, +4.01355506446E+001, +1.35090831097E+002
+7.93856427379E+006, +4.01172802942E+001, +1.37959972856E+002
+8.10534223706E+006, +4.01616716942E+001, +1.40930941332E+002
+8.27212020033E+006, +4.01856971482E+001, +1.44010227046E+002
+8.43889816361E+006, +4.02541059590E+001, +1.47019968415E+002
+8.60567612688E+006, +4.01505581729E+001, +1.50066905510E+002
+8.77245409015E+006, +4.03116443850E+001, +1.53007337577E+002
+8.93923205342E+006, +4.02807336716E+001, +1.56109085825E+002
+9.10601001669E+006, +4.04376070898E+001, +1.59202351627E+002
+9.27278797997E+006, +4.03679616403E+001, +1.62213426186E+002
+9.43956594324E+006, +4.03261801386E+001, +1.65244829222E+002
+9.60634390651E+006, +4.02943896247E+001, +1.68405718001E+002
+9.77312186978E+006, +4.02671762524E+001, +1.71444305932E+002
+9.93989983306E+006, +4.06025345165E+001, +1.74515485740E+002
+1.01066777963E+007, +4.04907194533E+001, +1.77728532773E+002
+1.02734557596E+007, +4.06336417192E+001, +1.80821346073E+002
+1.04402337229E+007, +4.07710520856E+001, +1.83837559125E+002
+1.06070116861E+007, +4.05950247267E+001, +1.87022836695E+002
+1.07737896494E+007, +4.07533997613E+001, +1.90264252817E+002
+1.09405676127E+007, +4.10573871885E+001, +1.93056219446E+002
+1.11073455760E+007, +4.09554715895E+001, +1.96517996982E+002
+1.12741235392E+007, +4.09940678145E+001, +1.99544915205E+002
+1.14409015025E+007, +4.10942216181E+001, +2.02584398492E+002
+1.16076794658E+007, +4.14478030126E+001, +2.05890283788E+002
+1.17744574290E+007, +4.13648715277E+001, +2.09169181813E+002
+1.19412353923E+007, +4.12944685765E+001, +2.12403486343E+002
+1.21080133556E+007, +4.11518778849E+001, +2.15646971291E+002
+1.22747913189E+007, +4.16417893055E+001, +2.18751669984E+002
+1.24415692821E+007, +4.14384787209E+001, +2.21806792041E+002
+1.26083472454E+007, +4.15102194232E+001, +2.24971240670E+002
+1.27751252087E+007, +4.18656683801E+001, +2.28067523138E+002
+1.29419031720E+007, +4.18257857422E+001, +2.31392021371E+002
+1.31086811352E+007, +4.19607979039E+001, +2.34863509595E+002
+1.32754590985E+007, +4.21358026388E+001, +2.38387406935E+002
+1.34422370618E+007, +4.20667963862E+001, +2.41467857938E+002
+1.36090150250E+007, +4.22285856478E+001, +2.44496625113E+002
+1.37757929883E+007, +4.20946257998E+001, +2.47882583477E+002
+1.39425709516E+007, +4.26983394456E+001, +2.51086544186E+002
+1.41093489149E+007, +4.27307009925E+001, +2.54462784784E+002
+1.42761268781E+007, +4.30577950941E+001, +2.58078539018E+002
+1.44429048414E+007, +4.30006991524E+001, +2.61105569258E+002
+1.46096828047E+007, +4.30298911837E+001, +2.64531829756E+002
+1.47764607679E+007, +4.32599047506E+001, +2.67827144729E+002
+1.49432387312E+007, +4.28915968512E+001, +2.71093853538E+002
+1.51100166945E+007, +4.34026409424E+001, +2.74543206898E+002
+1.52767946578E+007, +4.37615383718E+001, +2.78329650438E+002
+1.54435726210E+007, +4.36714455074E+001, +2.81025033388E+002
+1.56103505843E+007, +4.40485743028E+001, +2.84612888314E+002
+1.57771285476E+007, +4.39383921301E+001, +2.87816857830E+002
+1.59439065109E+007, +4.41353542612E+001, +2.91110272212E+002
+1.61106844741E+007, +4.40314669734E+001, +2.95442468264E+002
+1.62774624374E+007, +4.43950110011E+001, +2.98115423338E+002
+1.64442404007E+007, +4.44150812496E+001, +3.01973168267E+002
+1.66110183639E+007, +4.49009243236E+001, +3.05116285115E+002
+1.67777963272E+007, +4.51685641749E+001, +3.09373509149E+002
+1.69445742905E+007, +4.56783678057E+001, +3.12328448193E+002
+1.71113522538E+007, +4.38602234104E+001, +3.16208878777E+002
+1.72781302170E+007, +4.46739946941E+001, +3.19626963504E+002
+1.74449081803E+007, +4.46765521899E+001, +3.22730804127E+002
+1.76116861436E+007, +4.60837315635E+001, +3.26868121613E+002
+1.77784641068E+007, +4.52540385734E+001, +3.29755056981E+002
+1.79452420701E+007, +4.60933313372E+001, +3.33987540544E+002
+1.81120200334E+007, +4.60168620275E+001, +3.37493973100E+002
+1.82787979967E+007, +4.57123469304E+001, +3.40892275998E+002
+1.84455759599E+007, +4.69720686931E+001, +3.44279885507E+002
+1.86123539232E+007, +4.71588302127E+001, +3.48081757637E+002
+1.87791318865E+007, +4.64949818692E+001, +3.52244279382E+002
+1.89459098497E+007, +4.68969742234E+001, +3.56044587069E+002
+1.91126878130E+007, +4.73235601268E+001, +3.59645824869E+002
+1.92794657763E+007, +4.76182464765E+001, +3.62888299101E+002
+1.94462437396E+007, +4.80504181135E+001, +3.67563401641E+002
+1.96130217028E+007, +4.79981395605E+001, +3.70836973363E+002
+1.97797996661E+007, +4.85276461624E+001, +3.74113309796E+002
+1.99465776294E+007, +4.71377616257E+001, +3.78277267000E+002
+2.01133555927E+007, +4.80261384437E+001, +3.82225886098E+002
+2.02801335559E+007, +4.85744915431E+001, +3.86115673463E+002
+2.04469115192E+007, +4.94371343681E+001, +3.90401821033E+002
+2.06136894825E+007, +4.92675816939E+001, +3.94048257462E+002
+2.07804674457E+007, +5.00875081469E+001, +3.98412110813E+002
+2.09472454090E+007, +4.94462667842E+001, +4.02149447477E+002
+2.11140233723E+007, +4.99540014341E+001, +4.05586717781E+002
+2.12808013356E+007, +5.07616879049E+001, +4.10048563659E+002
+2.14475792988E+007, +5.08337553297E+001, +4.14043163604E+002
+2.16143572621E+007, +5.15823068732E+001, +4.17952383402E+002
+2.17811352254E+007, +5.11529270637E+001, +4.21762773954E+002
+2.19479131886E+007, +5.25362963288E+001, +4.26031054948E+002
+2.21146911519E+007, +5.18724307099E+001, +4.29430018538E+002
+2.22814691152E+007, +5.18474673603E+001, +4.34199234083E+002
+2.24482470785E+007, +5.31641230558E+001, +4.38967791298E+002
+2.26150250417E+007, +5.40740001503E+001, +4.42006532028E+002
+2.27818030050E+007, +5.40189302870E+001, +4.46444253089E+002
+2.29485809683E+007, +5.47414048717E+001, +4.50420854745E+002
+2.31153589316E+007, +5.40131567809E+001, +4.54936708157E+002
+2.32821368948E+007, +5.54492221616E+001, +4.58919886350E+002
+2.34489148581E+007, +5.55537663489E+001, +4.62841494671E+002
+2.36156928214E+007, +5.59621645661E+001, +4.67957329118E+002
+2.37824707846E+007, +5.62255290854E+001, +4.71654347187E+002
+2.39492487479E+007, +5.64315393179E+001, +4.75190137998E+002
+2.41160267112E+007, +5.63973517640E+001, +4.80630289388E+002
+2.42828046745E+007, +5.70531164511E+001, +4.84403013942E+002
+2.44495826377E+007, +5.83750581052E+001, +4.88958202479E+002
+2.46163606010E+007, +5.94672207779E+001, +4.93068973613E+002
+2.47831385643E+007, +5.82701322309E+001, +4.98742624940E+002
+2.49499165275E+007, +6.04841405523E+001, +5.01447240988E+002
+2.51166944908E+007, +6.19340301050E+001, +5.06564287331E+002
+2.52834724541E+007, +6.10683093105E+001, +5.12152198680E+002
+2.54502504174E+007, +6.33518181363E+001, +5.16574348038E+002
+2.56170283806E+007, +6.14412222669E+001, +5.20169158975E+002
+2.57838063439E+007, +6.34051397780E+001, +5.25771297430E+002
+2.59505843072E+007, +6.48181241793E+001, +5.30398889803E+002
+2.61173622705E+007, +6.38399617950E+001, +5.34649586107E+002
+2.62841402337E+007, +6.41209457099E+001, +5.38648290425E+002
+2.64509181970E+007, +6.38900875131E+001, +5.44323927795E+002
+2.66176961603E+007, +6.54764676229E+001, +5.48666233373E+002
+2.67844741235E+007, +6.65503371264E+001, +5.52503177325E+002
+2.69512520868E+007, +6.68224267878E+001, +5.57071202572E+002
+2.71180300501E+007, +6.82376741036E+001, +5.61387029353E+002
+2.72848080134E+007, +6.82030819083E+001, +5.68280095324E+002
+2.74515859766E+007, +6.90121370929E+001, +5.71916902905E+002
+2.76183639399E+007, +6.72964352623E+001, +5.74815213114E+002
+2.77851419032E+007, +6.88251518099E+001, +5.79377234117E+002
+2.79519198664E+007, +6.87618317761E+001, +5.85249997944E+002
+2.81186978297E+007, +7.12049397602E+001, +5.90044607583E+002
+2.82854757930E+007, +7.13292518347E+001, +5.94126126999E+002
+2.84522537563E+007, +6.97319684959E+001, +6.01248130849E+002
+2.86190317195E+007, +6.99605166784E+001, +6.04647518872E+002
+2.87858096828E+007, +7.35963668904E+001, +6.10069556338E+002
+2.89525876461E+007, +7.24126685954E+001, +6.14553512049E+002
+2.91193656093E+007, +7.25419304457E+001, +6.19451323409E+002
+2.92861435726E+007, +7.22023889827E+001, +6.24095260293E+002
+2.94529215359E+007, +7.32094409910E+001, +6.31073887445E+002
+2.96196994992E+007, +7.36592095151E+001, +6.35155281412E+002
+2.97864774624E+007, +7.47727560358E+001, +6.39989889237E+002
+2.99532554257E+007, +7.64232704424E+001, +6.47675627119E+002
+3.01200333890E+007, +7.55473441847E+001, +6.53908660492E+002
+3.02868113523E+007, +7.40971574290E+001, +6.57996946353E+002
+3.04535893155E+007, +7.49103281401E+001, +6.64450681719E+002
+3.06203672788E+007, +7.85285161687E+001, +6.70398996655E+002
+3.07871452421E+007, +7.68162812495E+001, +6.74412521293E+002
+3.09539232053E+007, +7.67995568745E+001, +6.81162300851E+002
+3.11207011686E+007, +7.69223685733E+001, +6.91461846601E+002
+3.12874791319E+007, +7.73494934681E+001, +6.89247006443E+002
+3.14542570952E+007, +7.82286353829E+001, +6.99124948935E+002
+3.16210350584E+007, +7.85971310481E+001, +7.06569141409E+002
+3.17878130217E+007, +7.76091350081E+001, +7.12576270700E+002
+3.19545909850E+007, +7.85025615672E+001, +7.17512409387E+002
+3.21213689482E+007, +7.91600972922E+001, +7.25789752280E+002
+3.22881469115E+007, +7.92271985234E+001, +7.29218360452E+002
+3.24549248748E+007, +8.22897834406E+001, +7.37328517641E+002
+3.26217028381E+007, +7.93878637396E+001, +7.43235985686E+002
+3.27884808013E+007, +8.39054701567E+001, +7.50029977776E+002
+3.29552587646E+007, +8.46694335257E+001, +7.55589788007E+002
+3.31220367279E+007, +8.31106523154E+001, +7.60662291883E+002
+3.32888146912E+007, +8.33643836634E+001, +7.72491429471E+002
+3.34555926544E+007, +8.30917521100E+001, +7.75780749550E+002
+3.36223706177E+007, +8.72206156407E+001, +7.83595897521E+002
+3.37891485810E+007, +8.46583450566E+001, +7.87678585088E+002
+3.39559265442E+007, +8.76667892691E+001, +7.99806854519E+002
+3.41227045075E+007, +8.76959175040E+001, +8.02308250048E+002
+3.42894824708E+007, +8.93202931889E+001, +8.12876862027E+002
+3.44562604341E+007, +8.94037585819E+001, +8.22801991093E+002
+3.46230383973E+007, +8.93524247577E+001, +8.28564873256E+002
+3.47898163606E+007, +9.20671000733E+001, +8.34716975885E+002
+3.49565943239E+007, +9.32362251843E+001, +8.43123063436E+002
+3.51233722871E+007, +9.46969811816E+001, +8.50969555920E+002
+3.52901502504E+007, +9.33636538782E+001, +8.55379840206E+002
+3.54569282137E+007, +9.42963950400E+001, +8.63022656070E+002
+3.56237061770E+007, +9.70621735807E+001, +8.76375116466E+002
+3.57904841402E+007, +9.46960725065E+001, +8.81450843637E+002
+3.59572621035E+007, +9.51005029046E+001, +8.92772931274E+002
+3.61240400668E+007, +9.96881465726E+001, +8.97641941310E+002
+3.62908180301E+007, +1.02939127168E+002, +9.10096366202E+002
+3.64575959933E+007, +9.99931618666E+001, +9.17273630619E+002
+3.66243739566E+007, +1.03208354300E+002, +9.23013526176E+002
+3.67911519199E+007, +1.03458177209E+002, +9.37085321750E+002
+3.69579298831E+007, +1.05125128726E+002, +9.38766328732E+002
+3.71247078464E+007, +1.04541134393E+002, +9.52063400128E+002
+3.72914858097E+007, +1.07927272791E+002, +9.57709674168E+002
+3.74582637730E+007, +1.10542104045E+002, +9.70518915181E+002
+3.76250417362E+007, +1.11948964332E+002, +9.78574878494E+002
+3.77918196995E+007, +1.10871820572E+002, +9.88063712646E+002
+3.79585976628E+007, +1.11724391438E+002, +9.97592376034E+002
+3.81253756260E+007, +1.14862616610E+002, +1.00751588573E+003
+3.82921535893E+007, +1.16844025041E+002, +1.01578557050E+003
+3.84589315526E+007, +1.20191010579E+002, +1.02923770035E+003
+3.86257095159E+007, +1.20691815580E+002, +1.03837548415E+003
+3.87924874791E+007, +1.19528761874E+002, +1.04713429389E+003
+3.89592654424E+007, +1.24792532734E+002, +1.05491259792E+003
+3.91260434057E+007, +1.29226974747E+002, +1.07473115903E+003
+3.92928213689E+007, +1.29170777245E+002, +1.08008112521E+003
+3.94595993322E+007, +1.27136609920E+002, +1.09368500306E+003
+3.96263772955E+007, +1.27196218994E+002, +1.10172012847E+003
+3.97931552588E+007, +1.30207826679E+002, +1.11383470021E+003
+3.99599332220E+007, +1.28913253625E+002, +1.12549947165E+003
+4.01267111853E+007, +1.36289668058E+002, +1.14512405536E+003
+4.02934891486E+007, +1.33385588201E+002, +1.15226441605E+003
+4.04602671119E+007, +1.37658397507E+002, +1.16095545783E+003
+4.06270450751E+007, +1.40221225843E+002, +1.17397889033E+003
+4.07938230384E+007, +1.45311350487E+002, +1.18797450446E+003
+4.09606010017E+007, +1.47232549291E+002, +1.20404213992E+003
+4.11273789649E+007, +1.50348701163E+002, +1.21117858652E+003
+4.12941569282E+007, +1.52149549099E+002, +1.22668213315E+003
+4.14609348915E+007, +1.56356714730E+002, +1.24669653904E+003
+4.16277128548E+007, +1.59989487860E+002, +1.25088584271E+003
+4.17944908180E+007, +1.63248045039E+002, +1.26799253144E+003
+4.19612687813E+007, +1.59127757082E+002, +1.28277901288E+003
+4.21280467446E+007, +1.65706297088E+002, +1.29712072501E+003
+4.22948247078E+007, +1.68004987597E+002, +1.31108149373E+003
+4.24616026711E+007, +1.78818904718E+002, +1.32507157477E+003
+4.26283806344E+007, +1.78513817789E+002, +1.34232461140E+003
+4.27951585977E+007, +1.67966489495E+002, +1.36617013759E+003
+4.29619365609E+007, +1.89257235125E+002, +1.37782068421E+003
+4.31287145242E+007, +1.90440311188E+002, +1.39045032006E+003
+4.32954924875E+007, +1.90920753747E+002, +1.40715348968E+003
+4.34622704508E+007, +1.91357302364E+002, +1.43732188610E+003
+4.36290484140E+007, +2.07783302628E+002, +1.44662496090E+003
+4.37958263773E+007, +2.00019156679E+002, +1.47277302729E+003
+4.39626043406E+007, +2.06233251567E+002, +1.47913011552E+003
+4.41293823038E+007, +2.16766592882E+002, +1.50330713288E+003
+4.42961602671E+007, +2.14127956852E+002, +1.52363975418E+003
+4.44629382304E+007, +2.28910110460E+002, +1.54302334176E+003
+4.46297161937E+007, +2.28640152238E+002, +1.55072948724E+003
+4.47964941569E+007, +2.33853902909E+002, +1.59438553268E+003
+4.49632721202E+007, +2.35821713419E+002, +1.60085909690E+003
+4.51300500835E+007, +2.44107824239E+002, +1.62919648801E+003
+4.52968280467E+007, +2.52498100001E+002, +1.63640495018E+003
+4.54636060100E+007, +2.61836477566E+002, +1.68482555858E+003
+4.56303839733E+007, +2.67741807947E+002, +1.70322033662E+003
+4.57971619366E+007, +2.71435275639E+002, +1.72154754594E+003
+4.59639398998E+007, +2.71991948993E+002, +1.76899523584E+003
+4.61307178631E+007, +2.96726914076E+002, +1.78296640936E+003
+4.62974958264E+007, +2.97838580823E+002, +1.81360201346E+003
+4.64642737896E+007, +3.01586988730E+002, +1.83735300893E+003
+4.66310517529E+007, +3.02535662432E+002, +1.86046126246E+003
+4.67978297162E+007, +3.41525311261E+002, +1.86948986210E+003
+4.69646076795E+007, +3.33122223656E+002, +1.93279558293E+003
+4.71313856427E+007, +3.46375366357E+002, +1.94411744312E+003
+4.72981636060E+007, +3.64893908329E+002, +1.98939097183E+003
+4.74649415693E+007, +3.71491187526E+002, +2.01335203127E+003
+4.76317195326E+007, +4.03186068997E+002, +2.04039973788E+003
+4.77984974958E+007, +4.13883937780E+002, +2.06598194340E+003
+4.79652754591E+007, +4.25288217886E+002, +2.10409376673E+003
+4.81320534224E+007, +4.41941101659E+002, +2.12320572796E+003
+4.82988313856E+007, +4.42993775836E+002, +2.17882590309E+003
+4.84656093489E+007, +4.91166465494E+002, +2.20993860721E+003
+4.86323873122E+007, +5.03038869775E+002, +2.23966614348E+003
+4.87991652755E+007, +5.32005306195E+002, +2.30823998134E+003
+4.89659432387E+007, +5.29638050871E+002, +2.32931057545E+003
+4.91327212020E+007, +5.69081941358E+002, +2.39194647104E+003
+4.92994991653E+007, +5.91565068078E+002, +2.40291849746E+003
+4.94662771285E+007, +6.45164316966E+002, +2.45104985826E+003
+4.96330550918E+007, +6.55158196096E+002, +2.49268019916E+003
+4.97998330551E+007, +6.99596497047E+002, +2.53578312075E+003
+4.99666110184E+007, +7.28591757470E+002, +2.55235349451E+003
+5.01333889816E+007, +7.47250146699E+002, +2.61790025395E+003
+5.03001669449E+007, +7.66850485574E+002, +2.68522862293E+003
+5.04669449082E+007, +7.89564524453E+002, +2.71426740800E+003
+5.06337228715E+007, +8.62344661035E+002, +2.75239499084E+003
+5.08005008347E+007, +8.80289862618E+002, +2.80352171345E+003
+5.09672787980E+007, +9.21299066488E+002, +2.86122198905E+003
+5.11340567613E+007, +1.00974018313E+003, +2.96386233081E+003
+5.13008347245E+007, +9.84848268238E+002, +3.04604644709E+003
+5.14676126878E+007, +1.02730243924E+003, +3.08172858166E+003
+5.16343906511E+007, +1.14532693538E+003, +3.13846540791E+003
+5.18011686144E+007, +1.15156469362E+003, +3.20770164006E+003
+5.19679465776E+007, +1.21838749245E+003, +3.31553067122E+003
+5.21347245409E+007, +1.29902388668E+003, +3.41178851396E+003
+5.23015025042E+007, +1.41726078172E+003, +3.51912355528E+003
+5.24682804674E+007, +1.45859384925E+003, +3.63331134414E+003
+5.26350584307E+007, +1.49473404687E+003, +3.64702405496E+003
+5.28018363940E+007, +1.60912425678E+003, +3.80801612344E+003
+5.29686143573E+007, +1.71742230563E+003, +3.90571219101E+003
+5.31353923205E+007, +1.81471680768E+003, +3.90772030241E+003
+5.33021702838E+007, +1.99440992301E+003, +4.13618937419E+003
+5.34689482471E+007, +2.18172926630E+003, +4.19409514171E+003
