"# Channel 1"
"# Trace 1"
Frequency, Formatted Data, Formatted Data
+1.00000000000E+005, +4.81019117249E-001, +1.60335594801E+000
+2.25031289111E+005, +4.66233581470E-001, +3.50912280078E+000
+3.50062578223E+005, +5.08310179811E-001, +5.42087578878E+000
+4.75093867334E+005, +5.39021693769E-001, +7.36123044134E+000
+6.00125156446E+005, +6.01578229317E-001, +9.21688986738E+000
+7.25156445557E+005, +6.10505095632E-001, +1.11463867871E+001
+8.50187734668E+005, +5.98071593436E-001, +1.29622161472E+001
+9.75219023780E+005, +5.95193041010E-001, +1.48822795736E+001
+1.10025031289E+006, +6.89274766221E-001, +1.67813490411E+001
+1.22528160200E+006, +6.73074079658E-001, +1.86449812495E+001
+1.35031289111E+006, +6.88574076538E-001, +2.04879147301E+001
+1.47534418023E+006, +7.38526573546E-001, +2.24048495065E+001
+1.60037546934E+006, +7.49539985001E-001, +2.42862242608E+001
+1.72540675845E+006, +7.59617236104E-001, +2.61018872302E+001
+1.85043804756E+006, +8.05215470877E-001, +2.80205593455E+001
+1.97546933667E+006, +8.40350764276E-001, +2.98904810142E+001
+2.10050062578E+006, +8.14212913337E-001, +3.17722368362E+001
+2.22553191489E+006, +7.55517569538E-001, +3.36631855103E+001
+2.35056320401E+006, +8.22699706994E-001, +3.54479426425E+001
+2.47559449312E+006, +8.12597488551E-001, +3.73906494429E+001
+2.60062578223E+006, +8.50113857706E-001, +3.93110623068E+001
+2.72565707134E+006, +8.03118473146E-001, +4.11574714638E+001
+2.85068836045E+006, +9.13665923432E-001, +4.30835672677E+001
+2.97571964956E+006, +8.30217467882E-001, +4.48960775843E+001
+3.10075093867E+006, +9.00589098128E-001, +4.68567408010E+001
+3.22578222778E+006, +8.45332377652E-001, +4.86288612077E+001
+3.35081351690E+006, +7.90771180192E-001, +5.06142528722E+001
+3.47584480601E+006, +9.40120354139E-001, +5.24617653200E+001
+3.60087609512E+006, +9.02482412934E-001, +5.43977311329E+001
+3.72590738423E+006, +9.72013470163E-001, +5.62332652581E+001
+3.85093867334E+006, +1.00872972828E+000, +5.80428950610E+001
+3.97596996245E+006, +8.63815001779E-001, +6.00627636046E+001
+4.10100125156E+006, +9.56075145031E-001, +6.19570064110E+001
+4.22603254068E+006, +9.38896995032E-001, +6.37532176392E+001
+4.35106382979E+006, +9.10010679537E-001, +6.56817849215E+001
+4.47609511890E+006, +9.44958586036E-001, +6.76262589675E+001
+4.60112640801E+006, +9.50398646812E-001, +6.93691345255E+001
+4.72615769712E+006, +9.06955280843E-001, +7.13631265526E+001
+4.85118898623E+006, +9.97560960436E-001, +7.31896931969E+001
+4.97622027534E+006, +1.05097261078E+000, +7.51459897637E+001
+5.10125156446E+006, +8.93805077875E-001, +7.69881740717E+001
+5.22628285357E+006, +1.00159339943E+000, +7.88720378873E+001
+5.35131414268E+006, +8.90409559730E-001, +8.07279263328E+001
+5.47634543179E+006, +8.85183465734E-001, +8.27755287217E+001
+5.60137672090E+006, +1.03915300231E+000, +8.46778256239E+001
+5.72640801001E+006, +1.03813311467E+000, +8.66563639634E+001
+5.85143929912E+006, +1.09514268386E+000, +8.84885270606E+001
+5.97647058824E+006, +1.15267813934E+000, +9.04530962395E+001
+6.10150187735E+006, +1.01707104002E+000, +9.22936117354E+001
+6.22653316646E+006, +1.09148519868E+000, +9.44016994948E+001
+6.35156445557E+006, +1.08291582405E+000, +9.61906378139E+001
+6.47659574468E+006, +1.04018816021E+000, +9.81141594018E+001
+6.60162703379E+006, +1.09510504301E+000, +1.00058480316E+002
+6.72665832290E+006, +1.17129290291E+000, +1.02035048085E+002
+6.85168961202E+006, +1.18526593665E+000, +1.03886357118E+002
+6.97672090113E+006, +1.16791844249E+000, +1.05873179484E+002
+7.10175219024E+006, +1.12199377014E+000, +1.07796841095E+002
+7.22678347935E+006, +1.16843682553E+000, +1.09747078609E+002
+7.35181476846E+006, +1.17051261138E+000, +1.11629299779E+002
+7.47684605757E+006, +1.14815554661E+000, +1.13679947432E+002
+7.60187734668E+006, +1.18474291604E+000, +1.15477713241E+002
+7.72690863579E+006, +1.15472919526E+000, +1.17459821841E+002
+7.85193992491E+006, +1.21039862447E+000, +1.19334311250E+002
+7.97697121402E+006, +1.34694301408E+000, +1.21300460888E+002
+8.10200250313E+006, +1.16538902739E+000, +1.23303799465E+002
+8.22703379224E+006, +1.23603243873E+000, +1.25191347323E+002
+8.35206508135E+006, +1.27265441353E+000, +1.27155646995E+002
+8.47709637046E+006, +1.34805016894E+000, +1.29179370681E+002
+8.60212765957E+006, +1.24775598588E+000, +1.31104719251E+002
+8.72715894869E+006, +1.24485025021E+000, +1.33105227849E+002
+8.85219023780E+006, +1.13078979792E+000, +1.34962690002E+002
+8.97722152691E+006, +1.40322274982E+000, +1.36933526891E+002
+9.10225281602E+006, +1.22977801368E+000, +1.38883583802E+002
+9.22728410513E+006, +1.24718497574E+000, +1.40772018703E+002
+9.35231539424E+006, +1.34667846663E+000, +1.42861667638E+002
+9.47734668335E+006, +1.31765145361E+000, +1.44708490235E+002
+9.60237797247E+006, +1.26061706293E+000, +1.46754055965E+002
+9.72740926158E+006, +1.09414975034E+000, +1.48746353273E+002
+9.85244055069E+006, +1.11918239942E+000, +1.50597067410E+002
+9.97747183980E+006, +1.27921604603E+000, +1.52652509260E+002
+1.01025031289E+007, +1.29158529320E+000, +1.54739483315E+002
+1.02275344180E+007, +1.13032341836E+000, +1.56673596410E+002
+1.03525657071E+007, +1.21647506166E+000, +1.58662177438E+002
+1.04775969962E+007, +1.16087341739E+000, +1.60547730516E+002
+1.06026282854E+007, +1.09810351969E+000, +1.62644161714E+002
+1.07276595745E+007, +1.04649245229E+000, +1.64416911286E+002
+1.08526908636E+007, +1.19350213399E+000, +1.66461095688E+002
+1.09777221527E+007, +1.16443137074E+000, +1.68474232544E+002
+1.11027534418E+007, +1.11959389539E+000, +1.70485828822E+002
+1.12277847309E+007, +1.06120861821E+000, +1.72610081788E+002
+1.13528160200E+007, +1.11470824454E+000, +1.74606089904E+002
+1.14778473091E+007, +1.35226362643E+000, +1.76445495604E+002
+1.16028785982E+007, +9.94454287866E-001, +1.78563285641E+002
+1.17279098874E+007, +1.28721645998E+000, +1.80582102321E+002
+1.18529411765E+007, +1.10139761975E+000, +1.82685935117E+002
+1.19779724656E+007, +1.20475975337E+000, +1.84755867659E+002
+1.21030037547E+007, +1.24549955989E+000, +1.86550308844E+002
+1.22280350438E+007, +1.07802289834E+000, +1.88781357968E+002
+1.23530663329E+007, +1.12658914432E+000, +1.90847160097E+002
+1.24780976220E+007, +1.05710643058E+000, +1.92898178182E+002
+1.26031289111E+007, +8.72873125470E-001, +1.94784394713E+002
+1.27281602003E+007, +1.10344407721E+000, +1.96968348205E+002
+1.28531914894E+007, +1.40577447023E+000, +1.99113355018E+002
+1.29782227785E+007, +1.36923090171E+000, +2.01058952899E+002
+1.31032540676E+007, +1.44669768795E+000, +2.03062561109E+002
+1.32282853567E+007, +1.23520099848E+000, +2.05043999151E+002
+1.33533166458E+007, +1.25159951051E+000, +2.07373489216E+002
+1.34783479349E+007, +1.16119238554E+000, +2.09204506041E+002
+1.36033792240E+007, +1.29814758833E+000, +2.10956553134E+002
+1.37284105131E+007, +1.31863761673E+000, +2.13407772984E+002
+1.38534418023E+007, +1.15987277594E+000, +2.15377752304E+002
+1.39784730914E+007, +1.39036501626E+000, +2.17768407733E+002
+1.41035043805E+007, +1.19637671125E+000, +2.19552206552E+002
+1.42285356696E+007, +9.66884729290E-001, +2.21890327028E+002
+1.43535669587E+007, +8.86017113460E-001, +2.23594261101E+002
+1.44785982478E+007, +1.40948863913E+000, +2.25815420201E+002
+1.46036295369E+007, +1.01233736931E+000, +2.28065756084E+002
+1.47286608260E+007, +1.12712445921E+000, +2.30143793717E+002
+1.48536921151E+007, +1.29564479064E+000, +2.32352557134E+002
+1.49787234043E+007, +9.38191251649E-001, +2.34649151770E+002
+1.51037546934E+007, +1.40253433568E+000, +2.36555564761E+002
+1.52287859825E+007, +9.31261758624E-001, +2.38475514979E+002
+1.53538172716E+007, +1.18783204843E+000, +2.40897910526E+002
+1.54788485607E+007, +1.17074967401E+000, +2.43103905113E+002
+1.56038798498E+007, +8.22313944079E-001, +2.45121687089E+002
+1.57289111389E+007, +1.29460817567E+000, +2.46902589001E+002
+1.58539424280E+007, +9.33907930333E-001, +2.49453545262E+002
+1.59789737171E+007, +1.19620090695E+000, +2.51753708239E+002
+1.61040050063E+007, +1.12295148515E+000, +2.53982667627E+002
+1.62290362954E+007, +9.65028916034E-001, +2.55639076662E+002
+1.63540675845E+007, +1.38013057717E+000, +2.57574643762E+002
+1.64790988736E+007, +8.08057383817E-001, +2.59932833997E+002
+1.66041301627E+007, +1.37756096859E+000, +2.62467084374E+002
+1.67291614518E+007, +9.57149111173E-001, +2.64413309766E+002
+1.68541927409E+007, +1.23111730931E+000, +2.66738701995E+002
+1.69792240300E+007, +1.10352173191E+000, +2.68970371236E+002
+1.71042553191E+007, +7.87784432480E-001, +2.70582904901E+002
+1.72292866083E+007, +7.90445642045E-001, +2.73344857582E+002
+1.73543178974E+007, +7.06633229296E-001, +2.75583833491E+002
+1.74793491865E+007, +8.44416096634E-001, +2.77620426638E+002
+1.76043804756E+007, +6.59129673291E-001, +2.80340092122E+002
+1.77294117647E+007, +8.52653214296E-001, +2.82621714721E+002
+1.78544430538E+007, +8.82378891756E-001, +2.84506398053E+002
+1.79794743429E+007, +6.00838933834E-001, +2.86627837211E+002
+1.81045056320E+007, +1.11511537349E+000, +2.88738827161E+002
+1.82295369212E+007, +6.52111009887E-001, +2.91463242670E+002
+1.83545682103E+007, +1.49613260735E+000, +2.93668491504E+002
+1.84795994994E+007, +9.52663454478E-001, +2.95752997490E+002
+1.86046307885E+007, +1.46245858923E+000, +2.98188233635E+002
+1.87296620776E+007, +8.15616971114E-001, +3.00532074174E+002
+1.88546933667E+007, +5.53477044336E-001, +3.02679844238E+002
+1.89797246558E+007, +1.06251613751E+000, +3.05212894053E+002
+1.91047559449E+007, +1.09392889541E+000, +3.07630354169E+002
+1.92297872340E+007, +8.00898697478E-001, +3.09622938424E+002
+1.93548185232E+007, +9.96036704828E-001, +3.12166003663E+002
+1.94798498123E+007, +1.26692865467E+000, +3.14563935367E+002
+1.96048811014E+007, +1.12061265216E+000, +3.16881943156E+002
+1.97299123905E+007, +1.00863916376E+000, +3.18840628336E+002
+1.98549436796E+007, +1.27632377545E+000, +3.21442265652E+002
+1.99799749687E+007, +1.61275677270E+000, +3.23501761683E+002
+2.01050062578E+007, +1.00777516085E+000, +3.26447200687E+002
+2.02300375469E+007, +6.93529423890E-001, +3.28686531045E+002
+2.03550688360E+007, +1.27967164236E+000, +3.30927059877E+002
+2.04801001252E+007, +7.70688815049E-001, +3.32949049387E+002
+2.06051314143E+007, +1.22694261701E+000, +3.36309483491E+002
+2.07301627034E+007, +5.81020375801E-001, +3.37936701577E+002
+2.08551939925E+007, +9.24453678056E-001, +3.39867386255E+002
+2.09802252816E+007, +1.15231266410E+000, +3.43856775879E+002
+2.11052565707E+007, +9.99771048733E-001, +3.45605299264E+002
+2.12302878598E+007, +1.06408548230E+000, +3.47960590869E+002
+2.13553191489E+007, +3.75715869514E-001, +3.49928660588E+002
+2.14803504380E+007, +2.13982043600E+000, +3.52981506172E+002
+2.16053817272E+007, +4.31942604771E-001, +3.54951981042E+002
+2.17304130163E+007, +1.72800699578E+000, +3.57571697065E+002
+2.18554443054E+007, +1.43342094916E+000, +3.59303627706E+002
+2.19804755945E+007, +1.33442395585E+000, +3.62797503576E+002
+2.21055068836E+007, +8.90340097043E-001, +3.64790890281E+002
+2.22305381727E+007, +7.02187842791E-001, +3.67481214774E+002
+2.23555694618E+007, +4.38133487065E-001, +3.69908473691E+002
+2.24806007509E+007, +1.45021913816E+000, +3.72640555286E+002
+2.26056320401E+007, +1.32507442635E+000, +3.74130403110E+002
+2.27306633292E+007, +1.49285204488E+000, +3.78085026830E+002
+2.28556946183E+007, +1.15989225234E+000, +3.79428881034E+002
+2.29807259074E+007, +1.44717622319E+000, +3.82499353963E+002
+2.31057571965E+007, +1.19258255949E+000, +3.84221520000E+002
+2.32307884856E+007, +1.54445600440E+000, +3.87660027399E+002
+2.33558197747E+007, +1.59090867789E+000, +3.89827935896E+002
+2.34808510638E+007, +1.84276167575E+000, +3.93633080544E+002
+2.36058823529E+007, +2.29595475019E+000, +3.95600984053E+002
+2.37309136421E+007, +1.92436177682E+000, +3.97950492254E+002
+2.38559449312E+007, +1.45027713852E+000, +4.00544108660E+002
+2.39809762203E+007, +2.46283567417E+000, +4.02940322572E+002
+2.41060075094E+007, +1.74170542600E+000, +4.05012836740E+002
+2.42310387985E+007, +2.02644487135E+000, +4.07295181758E+002
+2.43560700876E+007, +1.91289067171E+000, +4.09742209051E+002
+2.44811013767E+007, +2.14860776814E+000, +4.12534314391E+002
+2.46061326658E+007, +2.01700777096E+000, +4.15459328623E+002
+2.47311639549E+007, +1.59147636641E+000, +4.18930266077E+002
+2.48561952441E+007, +2.16862743631E+000, +4.20150579383E+002
+2.49812265332E+007, +1.18725185375E+000, +4.22860518514E+002
+2.51062578223E+007, +2.21705687790E+000, +4.26076602174E+002
+2.52312891114E+007, +1.40940539092E+000, +4.28218835658E+002
+2.53563204005E+007, +2.67656270677E+000, +4.32059002659E+002
+2.54813516896E+007, +1.35840539318E+000, +4.33436171216E+002
+2.56063829787E+007, +2.35467817485E+000, +4.37016413330E+002
+2.57314142678E+007, +1.99301896689E+000, +4.39668095453E+002
+2.58564455569E+007, +1.45087850408E+000, +4.42824156986E+002
+2.59814768461E+007, +2.19396008240E+000, +4.44651872337E+002
+2.61065081352E+007, +1.72348775552E+000, +4.48482577809E+002
+2.62315394243E+007, +2.13702975102E+000, +4.50993783272E+002
+2.63565707134E+007, +1.76323401149E+000, +4.53091188421E+002
+2.64816020025E+007, +9.92092048527E-001, +4.55962816971E+002
+2.66066332916E+007, +2.39620139894E+000, +4.58990075034E+002
+2.67316645807E+007, +1.73631480029E+000, +4.62548571024E+002
+2.68566958698E+007, +2.28118281989E+000, +4.65865774095E+002
+2.69817271589E+007, +1.71135727963E+000, +4.67201852363E+002
+2.71067584481E+007, +2.45617869816E+000, +4.70918264715E+002
+2.72317897372E+007, +1.62087730171E+000, +4.73021514916E+002
+2.73568210263E+007, +1.90376398253E+000, +4.75686418556E+002
+2.74818523154E+007, +1.44261025910E+000, +4.78620422687E+002
+2.76068836045E+007, +3.12962223512E+000, +4.81918926808E+002
+2.77319148936E+007, +1.93119706249E+000, +4.84183955210E+002
+2.78569461827E+007, +1.50782064053E+000, +4.88200261026E+002
+2.79819774718E+007, +1.52830720372E+000, +4.89747997982E+002
+2.81070087610E+007, +1.31987632632E+000, +4.93132636545E+002
+2.82320400501E+007, +1.92287273750E+000, +4.96957095303E+002
+2.83570713392E+007, +1.53183817958E+000, +4.99244274914E+002
+2.84821026283E+007, +1.82683644486E+000, +5.00443122466E+002
+2.86071339174E+007, +7.71195245232E-001, +5.04799210527E+002
+2.87321652065E+007, +1.73031204625E+000, +5.08261513213E+002
+2.88571964956E+007, +1.62658047581E+000, +5.13211437607E+002
+2.89822277847E+007, +2.37686532685E+000, +5.14558909796E+002
+2.91072590738E+007, +1.25459119236E+000, +5.17559564646E+002
+2.92322903630E+007, +9.57578074381E-001, +5.21315171821E+002
+2.93573216521E+007, +1.36033367812E+000, +5.24279179090E+002
+2.94823529412E+007, +8.32817749280E-001, +5.27313817787E+002
+2.96073842303E+007, +2.41524732654E+000, +5.30988906836E+002
+2.97324155194E+007, +1.11158452845E+000, +5.33560589335E+002
+2.98574468085E+007, -1.79183979920E-001, +5.38530122658E+002
+2.99824780976E+007, -2.44891414570E-001, +5.39885398701E+002
+3.01075093867E+007, +2.35946586924E+000, +5.42595327315E+002
+3.02325406758E+007, +1.67097631077E+000, +5.46458096255E+002
+3.03575719650E+007, +1.64796503504E-001, +5.49412141592E+002
+3.04826032541E+007, +1.16114128663E+000, +5.50675462303E+002
+3.06076345432E+007, +1.07722631721E+000, +5.55532834482E+002
+3.07326658323E+007, +1.47780854256E+000, +5.60504075373E+002
+3.08576971214E+007, +8.17586855628E-001, +5.62092919486E+002
+3.09827284105E+007, +1.45063862333E+000, +5.65300484443E+002
+3.11077596996E+007, -1.59003533928E-001, +5.68495998172E+002
+3.12327909887E+007, +1.96993842211E+000, +5.73802398086E+002
+3.13578222778E+007, +1.44671123648E+000, +5.77254061576E+002
+3.14828535670E+007, -1.56678557596E-001, +5.78336116131E+002
+3.16078848561E+007, +1.61152362649E+000, +5.80964247769E+002
+3.17329161452E+007, +1.59305464243E+000, +5.86573236293E+002
+3.18579474343E+007, -4.46221666768E-001, +5.89326156632E+002
+3.19829787234E+007, +1.06299475857E+000, +5.93280961552E+002
+3.21080100125E+007, -6.57921160236E-001, +5.96415601538E+002
+3.22330413016E+007, +9.85610782878E-001, +6.00872521363E+002
+3.23580725907E+007, +1.29900023237E+000, +6.03332055391E+002
+3.24831038798E+007, +2.05957567335E-001, +6.06424948545E+002
+3.26081351690E+007, +8.16452217643E-001, +6.11069722776E+002
+3.27331664581E+007, +1.94229815734E+000, +6.13461071426E+002
+3.28581977472E+007, -2.76900022367E-001, +6.17923440696E+002
+3.29832290363E+007, +1.05632629827E+000, +6.22592413610E+002
+3.31082603254E+007, +2.70787567544E+000, +6.25499029778E+002
+3.32332916145E+007, +2.30853340867E+000, +6.30547644927E+002
+3.33583229036E+007, +5.78822301603E-001, +6.34473048494E+002
+3.34833541927E+007, +1.94763445067E+000, +6.35942190214E+002
+3.36083854819E+007, -9.00360221858E-001, +6.38110419493E+002
+3.37334167710E+007, -6.32578793084E-001, +6.43607818131E+002
+3.38584480601E+007, -1.70129009133E-001, +6.47482201979E+002
+3.39834793492E+007, +4.12839608676E-001, +6.51955884246E+002
+3.41085106383E+007, -1.30330871846E+000, +6.52363725366E+002
+3.42335419274E+007, +1.48217340349E+000, +6.60304990744E+002
+3.43585732165E+007, +8.84889759777E-001, +6.62418796120E+002
+3.44836045056E+007, -9.34814198648E-002, +6.65883799605E+002
+3.46086357947E+007, +3.23210381897E+000, +6.70265812958E+002
+3.47336670839E+007, +2.62509631135E+000, +6.75750095868E+002
+3.48586983730E+007, +4.38772947176E-002, +6.77238349681E+002
+3.49837296621E+007, +1.67289449428E-001, +6.79590446863E+002
+3.51087609512E+007, +3.35363732522E-001, +6.86989459131E+002
+3.52337922403E+007, +7.75733773766E-001, +6.89608498633E+002
+3.53588235294E+007, +1.67897394169E+000, +6.92978349186E+002
+3.54838548185E+007, +2.66820309409E+000, +6.99498866411E+002
+3.56088861076E+007, +2.06892697416E+000, +7.03474555212E+002
+3.57339173967E+007, +5.42090185115E-001, +7.05317672655E+002
+3.58589486859E+007, +1.01618803421E+000, +7.06834266381E+002
+3.59839799750E+007, -3.11448952610E-001, +7.12393044967E+002
+3.61090112641E+007, +2.79994913061E+000, +7.15816819848E+002
+3.62340425532E+007, -4.53332336807E-001, +7.22984610558E+002
+3.63590738423E+007, +9.67728760143E-001, +7.24667044222E+002
+3.64841051314E+007, +2.08430085297E+000, +7.30765522649E+002
+3.66091364205E+007, +2.11267272052E+000, +7.34472696459E+002
+3.67341677096E+007, +1.56005431424E+000, +7.41353675962E+002
+3.68591989987E+007, +2.65227667966E+000, +7.42147424198E+002
+3.69842302879E+007, +6.86955228793E-001, +7.45060119669E+002
+3.71092615770E+007, +1.67959506486E+000, +7.54615355962E+002
+3.72342928661E+007, +1.42049985924E+000, +7.56285464661E+002
+3.73593241552E+007, +7.10712628658E-001, +7.61975886096E+002
+3.74843554443E+007, -7.19423467316E-001, +7.66489273507E+002
+3.76093867334E+007, +2.45671132121E+000, +7.70403720190E+002
+3.77344180225E+007, +1.01853940497E+000, +7.76123184130E+002
+3.78594493116E+007, +9.20755974004E-002, +7.77875040736E+002
+3.79844806008E+007, -7.68886851018E-001, +7.81859126714E+002
+3.81095118899E+007, -2.21508618168E-001, +7.88573106551E+002
+3.82345431790E+007, +8.16788156600E-001, +7.95675126597E+002
+3.83595744681E+007, -1.23155095539E+000, +7.99646198304E+002
+3.84846057572E+007, +5.71733880374E+000, +8.04921228771E+002
+3.86096370463E+007, -1.56864424952E+000, +8.10760365663E+002
+3.87346683354E+007, +2.29422169300E+000, +8.12417176570E+002
+3.88596996245E+007, +7.65771091660E-001, +8.18110441946E+002
+3.89847309136E+007, +1.60026206927E+000, +8.22512551505E+002
+3.91097622028E+007, +1.51951842222E+000, +8.27974021530E+002
+3.92347934919E+007, -1.03852355962E+000, +8.36906192243E+002
+3.93598247810E+007, +5.15063721819E+000, +8.38339050990E+002
+3.94848560701E+007, +2.15802816309E+000, +8.44171178632E+002
+3.96098873592E+007, +1.12723980652E+000, +8.52366323611E+002
+3.97349186483E+007, +1.48919599060E+000, +8.52401143471E+002
+3.98599499374E+007, +2.03200324978E-001, +8.60483845671E+002
+3.99849812265E+007, +3.62866196820E+000, +8.66143825620E+002
+4.01100125156E+007, +2.24443473922E+000, +8.68796737640E+002
