"# Channel 1"
"# Trace 1"
Frequency, Formatted Data, Formatted Data
+1.00000000000E+005, +1.84544716088E+001, +1.46007544059E+000
+2.87609511890E+005, +1.84429471135E+001, +4.29032411545E+000
+4.75219023780E+005, +1.84369503133E+001, +7.06274846055E+000
+6.62828535670E+005, +1.84376983803E+001, +9.83774709561E+000
+8.50438047559E+005, +1.84156495276E+001, +1.25860910875E+001
+1.03804755945E+006, +1.84179109693E+001, +1.53518460560E+001
+1.22565707134E+006, +1.83897681155E+001, +1.81575794245E+001
+1.41326658323E+006, +1.84088004961E+001, +2.09233392959E+001
+1.60087609512E+006, +1.84042223099E+001, +2.37018836536E+001
+1.78848560701E+006, +1.83745621691E+001, +2.65175267182E+001
+1.97609511890E+006, +1.83861487207E+001, +2.92920888521E+001
+2.16370463079E+006, +1.83351615806E+001, +3.20393175129E+001
+2.35131414268E+006, +1.83108338923E+001, +3.47786636600E+001
+2.53892365457E+006, +1.83484766448E+001, +3.76297651263E+001
+2.72653316646E+006, +1.83137761178E+001, +4.04468550355E+001
+2.91414267835E+006, +1.83364163001E+001, +4.32080590886E+001
+3.10175219024E+006, +1.84452224650E+001, +4.60247176778E+001
+3.28936170213E+006, +1.84386567693E+001, +4.88258550077E+001
+3.47697121402E+006, +1.82791641997E+001, +5.15938936963E+001
+3.66458072591E+006, +1.84007203164E+001, +5.43649575786E+001
+3.85219023780E+006, +1.83621015248E+001, +5.71465013114E+001
+4.03979974969E+006, +1.84483109917E+001, +6.00207385427E+001
+4.22740926158E+006, +1.85375722393E+001, +6.27103900182E+001
+4.41501877347E+006, +1.83619287694E+001, +6.54545456170E+001
+4.60262828536E+006, +1.83452312820E+001, +6.82477475335E+001
+4.79023779725E+006, +1.84215528063E+001, +7.11750325678E+001
+4.97784730914E+006, +1.84026560472E+001, +7.39153925842E+001
+5.16545682103E+006, +1.84237174517E+001, +7.67181114936E+001
+5.35306633292E+006, +1.84954715423E+001, +7.95883285341E+001
+5.54067584481E+006, +1.84695448200E+001, +8.24488401498E+001
+5.72828535670E+006, +1.83143729937E+001, +8.53547056324E+001
+5.91589486859E+006, +1.84440884943E+001, +8.81806742311E+001
+6.10350438048E+006, +1.83485980571E+001, +9.11814272833E+001
+6.29111389237E+006, +1.85816472048E+001, +9.37969337338E+001
+6.47872340426E+006, +1.85557332214E+001, +9.67034643854E+001
+6.66633291615E+006, +1.86261988420E+001, +9.94778802430E+001
+6.85394242804E+006, +1.86787113673E+001, +1.02509384208E+002
+7.04155193992E+006, +1.88053820080E+001, +1.05153861049E+002
+7.22916145181E+006, +1.87769230070E+001, +1.08025646839E+002
+7.41677096370E+006, +1.88100648212E+001, +1.11010236965E+002
+7.60438047559E+006, +1.87878716364E+001, +1.13845396553E+002
+7.79198998748E+006, +1.88562410760E+001, +1.16737863856E+002
+7.97959949937E+006, +1.88089874666E+001, +1.19637875569E+002
+8.16720901126E+006, +1.88796258649E+001, +1.22568544589E+002
+8.35481852315E+006, +1.88529650889E+001, +1.25439735302E+002
+8.54242803504E+006, +1.88908903740E+001, +1.28251277431E+002
+8.73003754693E+006, +1.89789273061E+001, +1.31252701427E+002
+8.91764705882E+006, +1.90395375828E+001, +1.34079364975E+002
+9.10525657071E+006, +1.90100980629E+001, +1.36951699527E+002
+9.29286608260E+006, +1.90059536527E+001, +1.39893983437E+002
+9.48047559449E+006, +1.90291403356E+001, +1.42753567846E+002
+9.66808510638E+006, +1.91216731577E+001, +1.45853127834E+002
+9.85569461827E+006, +1.90725076906E+001, +1.48647774555E+002
+1.00433041302E+007, +1.91582691095E+001, +1.51610265411E+002
+1.02309136421E+007, +1.91419825780E+001, +1.54615012198E+002
+1.04185231539E+007, +1.92542598919E+001, +1.57426839680E+002
+1.06061326658E+007, +1.93545046861E+001, +1.60435485396E+002
+1.07937421777E+007, +1.93278735258E+001, +1.63368341581E+002
+1.09813516896E+007, +1.93355314495E+001, +1.66456516566E+002
+1.11689612015E+007, +1.93803975774E+001, +1.69302914369E+002
+1.13565707134E+007, +1.94823538905E+001, +1.72447147192E+002
+1.15441802253E+007, +1.94369008588E+001, +1.75444354451E+002
+1.17317897372E+007, +1.92536660988E+001, +1.78332720711E+002
+1.19193992491E+007, +1.94902537178E+001, +1.81522405201E+002
+1.21070087610E+007, +1.95944535662E+001, +1.84288933074E+002
+1.22946182728E+007, +1.96786926631E+001, +1.87322699684E+002
+1.24822277847E+007, +1.93273478902E+001, +1.90558096851E+002
+1.26698372966E+007, +1.95196350619E+001, +1.93425725507E+002
+1.28574468085E+007, +1.94673606313E+001, +1.96283810581E+002
+1.30450563204E+007, +1.97434793553E+001, +1.99467686634E+002
+1.32326658323E+007, +1.95034247363E+001, +2.02692970651E+002
+1.34202753442E+007, +1.96097500126E+001, +2.05804475279E+002
+1.36078848561E+007, +1.96012018897E+001, +2.08994110748E+002
+1.37954943680E+007, +1.98070898641E+001, +2.12030257386E+002
+1.39831038798E+007, +1.97116196056E+001, +2.15090651594E+002
+1.41707133917E+007, +1.97447976405E+001, +2.18149370406E+002
+1.43583229036E+007, +1.98307086074E+001, +2.21135950549E+002
+1.45459324155E+007, +2.00588572655E+001, +2.24412271095E+002
+1.47335419274E+007, +2.00890201887E+001, +2.27545539236E+002
+1.49211514393E+007, +2.00123786996E+001, +2.30290139080E+002
+1.51087609512E+007, +2.01000611380E+001, +2.33765004946E+002
+1.52963704631E+007, +2.02882871753E+001, +2.36994166411E+002
+1.54839799750E+007, +2.00094516358E+001, +2.40216893024E+002
+1.56715894869E+007, +2.04170354264E+001, +2.43475783797E+002
+1.58591989987E+007, +2.03680991637E+001, +2.46496616518E+002
+1.60468085106E+007, +2.04184518788E+001, +2.49760777431E+002
+1.62344180225E+007, +2.01227088118E+001, +2.53371512151E+002
+1.64220275344E+007, +1.98538237970E+001, +2.56214038176E+002
+1.66096370463E+007, +2.05753289155E+001, +2.59775487178E+002
+1.67972465582E+007, +2.01379200733E+001, +2.62930209230E+002
+1.69848560701E+007, +2.06496704509E+001, +2.66008637132E+002
+1.71724655820E+007, +2.03119495765E+001, +2.69671704195E+002
+1.73600750939E+007, +2.02856972279E+001, +2.73137749358E+002
+1.75476846058E+007, +2.00227971981E+001, +2.75990225283E+002
+1.77352941176E+007, +2.05217287911E+001, +2.78913007559E+002
+1.79229036295E+007, +2.03298812367E+001, +2.82709181127E+002
+1.81105131414E+007, +2.07978136999E+001, +2.85869936788E+002
+1.82981226533E+007, +2.09772305534E+001, +2.89475883977E+002
+1.84857321652E+007, +2.11925642756E+001, +2.92940131562E+002
+1.86733416771E+007, +2.08707022517E+001, +2.96139465287E+002
+1.88609511890E+007, +2.10950914997E+001, +2.99798448604E+002
+1.90485607009E+007, +2.17841658959E+001, +3.03362261656E+002
+1.92361702128E+007, +2.12281261043E+001, +3.06532031520E+002
+1.94237797247E+007, +2.10607156218E+001, +3.10066544829E+002
+1.96113892365E+007, +2.14960689714E+001, +3.13579402359E+002
+1.97989987484E+007, +2.13325911729E+001, +3.17310980593E+002
+1.99866082603E+007, +2.11960481695E+001, +3.20311771912E+002
+2.01742177722E+007, +2.15560162752E+001, +3.23704013245E+002
+2.03618272841E+007, +2.12651911585E+001, +3.27469085584E+002
+2.05494367960E+007, +2.14913670331E+001, +3.31633073974E+002
+2.07370463079E+007, +2.18973915132E+001, +3.35121038995E+002
+2.09246558198E+007, +2.20201253813E+001, +3.38581527329E+002
+2.11122653317E+007, +2.26332398457E+001, +3.41939765663E+002
+2.12998748436E+007, +2.21497065820E+001, +3.45407242850E+002
+2.14874843554E+007, +2.19192697665E+001, +3.49918685610E+002
+2.16750938673E+007, +2.25082555331E+001, +3.53389091865E+002
+2.18627033792E+007, +2.29285801875E+001, +3.56836859345E+002
+2.20503128911E+007, +2.25409528940E+001, +3.59894921979E+002
+2.22379224030E+007, +2.24224644898E+001, +3.63853686492E+002
+2.24255319149E+007, +2.28727357505E+001, +3.67380467478E+002
+2.26131414268E+007, +2.28381846151E+001, +3.71238149287E+002
+2.28007509387E+007, +2.34354301102E+001, +3.75001669208E+002
+2.29883604506E+007, +2.35740063802E+001, +3.79478169771E+002
+2.31759699625E+007, +2.32741092137E+001, +3.82890739472E+002
+2.33635794743E+007, +2.43308347676E+001, +3.87205678704E+002
+2.35511889862E+007, +2.35769556138E+001, +3.90808872218E+002
+2.37387984981E+007, +2.33944573744E+001, +3.94945689256E+002
+2.39264080100E+007, +2.41240827252E+001, +3.98602131798E+002
+2.41140175219E+007, +2.39373531935E+001, +4.02082433701E+002
+2.43016270338E+007, +2.43810601679E+001, +4.06969424895E+002
+2.44892365457E+007, +2.50962534052E+001, +4.09472824640E+002
+2.46768460576E+007, +2.45789020491E+001, +4.14124438550E+002
+2.48644555695E+007, +2.40334605839E+001, +4.18106624616E+002
+2.50520650814E+007, +2.44089138553E+001, +4.22332285311E+002
+2.52396745932E+007, +2.56786635887E+001, +4.26462721989E+002
+2.54272841051E+007, +2.51737966605E+001, +4.30780971140E+002
+2.56148936170E+007, +2.52971839031E+001, +4.34336669885E+002
+2.58025031289E+007, +2.59057003573E+001, +4.38745465956E+002
+2.59901126408E+007, +2.53608844189E+001, +4.41846716527E+002
+2.61777221527E+007, +2.57718091446E+001, +4.46498086175E+002
+2.63653316646E+007, +2.54096230740E+001, +4.50222023772E+002
+2.65529411765E+007, +2.58408620439E+001, +4.53159771241E+002
+2.67405506884E+007, +2.59817520647E+001, +4.59407446359E+002
+2.69281602003E+007, +2.66686343662E+001, +4.63388612952E+002
+2.71157697121E+007, +2.63762244066E+001, +4.67731104794E+002
+2.73033792240E+007, +2.55031108014E+001, +4.71647842894E+002
+2.74909887359E+007, +2.67188179419E+001, +4.77586366283E+002
+2.76785982478E+007, +2.74644112773E+001, +4.81495796681E+002
+2.78662077597E+007, +2.62193477074E+001, +4.84163172729E+002
+2.80538172716E+007, +2.83781746614E+001, +4.89625005961E+002
+2.82414267835E+007, +2.69950305082E+001, +4.93300191127E+002
+2.84290362954E+007, +2.69551691943E+001, +4.98249906914E+002
+2.86166458073E+007, +2.74488416973E+001, +5.03729909078E+002
+2.88042553191E+007, +2.65488239816E+001, +5.06185470833E+002
+2.89918648310E+007, +2.69830633647E+001, +5.11142521089E+002
+2.91794743429E+007, +2.73540947481E+001, +5.16761824470E+002
+2.93670838548E+007, +2.72104546089E+001, +5.21104346803E+002
+2.95546933667E+007, +2.65082067827E+001, +5.26099650933E+002
+2.97423028786E+007, +2.77991690291E+001, +5.31746946371E+002
+2.99299123905E+007, +2.66717235154E+001, +5.36401965466E+002
+3.01175219024E+007, +2.93648015037E+001, +5.40774500471E+002
+3.03051314143E+007, +2.86476124595E+001, +5.47275757846E+002
+3.04927409262E+007, +2.86702497860E+001, +5.50215137533E+002
+3.06803504380E+007, +2.82902321646E+001, +5.55724427907E+002
+3.08679599499E+007, +2.75676111577E+001, +5.61163895878E+002
+3.10555694618E+007, +2.77505173497E+001, +5.66877437521E+002
+3.12431789737E+007, +2.90135750782E+001, +5.71269789396E+002
+3.14307884856E+007, +2.86521902813E+001, +5.77040359723E+002
+3.16183979975E+007, +2.87433074496E+001, +5.82935233431E+002
+3.18060075094E+007, +2.86760654595E+001, +5.88062309697E+002
+3.19936170213E+007, +2.97003738520E+001, +5.92064924495E+002
+3.21812265332E+007, +2.81869642868E+001, +5.97359883025E+002
+3.23688360451E+007, +2.81116796156E+001, +6.04411330450E+002
+3.25564455569E+007, +2.97205261285E+001, +6.06429940922E+002
+3.27440550688E+007, +2.80107329132E+001, +6.14131109334E+002
+3.29316645807E+007, +2.85442842852E+001, +6.17148156872E+002
+3.31192740926E+007, +3.07998943262E+001, +6.25184062538E+002
+3.33068836045E+007, +3.01611775787E+001, +6.28767674745E+002
+3.34944931164E+007, +3.19135368501E+001, +6.37297746112E+002
+3.36821026283E+007, +3.08552346643E+001, +6.40569921983E+002
+3.38697121402E+007, +2.83040255586E+001, +6.46344264788E+002
+3.40573216521E+007, +3.07723421723E+001, +6.52406741507E+002
+3.42449311640E+007, +3.09157687054E+001, +6.59225606528E+002
+3.44325406758E+007, +3.04830605071E+001, +6.66721351757E+002
+3.46201501877E+007, +3.20871431085E+001, +6.69428539459E+002
+3.48077596996E+007, +3.24001907593E+001, +6.76609436317E+002
+3.49953692115E+007, +3.14497057782E+001, +6.81698571479E+002
+3.51829787234E+007, +3.23644819686E+001, +6.89737798386E+002
+3.53705882353E+007, +3.49731135171E+001, +6.97906363975E+002
+3.55581977472E+007, +3.27272708795E+001, +7.01049939529E+002
+3.57458072591E+007, +3.04420896221E+001, +7.07873784858E+002
+3.59334167710E+007, +3.12724222006E+001, +7.14019379944E+002
+3.61210262829E+007, +3.51804325696E+001, +7.19391614237E+002
+3.63086357947E+007, +3.55233480246E+001, +7.28052270401E+002
+3.64962453066E+007, +3.39889193459E+001, +7.35038160647E+002
+3.66838548185E+007, +3.19414312932E+001, +7.38297099464E+002
+3.68714643304E+007, +3.23878612785E+001, +7.47832146228E+002
+3.70590738423E+007, +3.83966641343E+001, +7.53360744185E+002
+3.72466833542E+007, +3.46591250865E+001, +7.62181423148E+002
+3.74342928661E+007, +3.64775422743E+001, +7.65996511471E+002
+3.76219023780E+007, +3.50524131230E+001, +7.76607599469E+002
+3.78095118899E+007, +3.46882851858E+001, +7.81197269740E+002
+3.79971214018E+007, +3.38558307026E+001, +7.90585855511E+002
+3.81847309136E+007, +3.78990956420E+001, +7.94261970655E+002
+3.83723404255E+007, +3.37731096020E+001, +8.01723858854E+002
+3.85599499374E+007, +3.80764447736E+001, +8.11523659374E+002
+3.87475594493E+007, +3.76218476445E+001, +8.19852710085E+002
+3.89351689612E+007, +3.72497191894E+001, +8.25712480832E+002
+3.91227784731E+007, +3.45394941408E+001, +8.31168811822E+002
+3.93103879850E+007, +3.62770707565E+001, +8.44346225992E+002
+3.94979974969E+007, +3.85270027552E+001, +8.51937965253E+002
+3.96856070088E+007, +3.56723662452E+001, +8.60580155333E+002
+3.98732165207E+007, +3.61350041614E+001, +8.68176686020E+002
+4.00608260325E+007, +4.26953601417E+001, +8.73755279443E+002
+4.02484355444E+007, +3.83717277682E+001, +8.83588082171E+002
+4.04360450563E+007, +3.88368721239E+001, +8.91616418319E+002
+4.06236545682E+007, +3.98427740919E+001, +8.94291746159E+002
+4.08112640801E+007, +4.14605008181E+001, +9.08067972322E+002
+4.09988735920E+007, +4.30427945191E+001, +9.15324121522E+002
+4.11864831039E+007, +4.57395185183E+001, +9.26139593119E+002
+4.13740926158E+007, +4.69166967641E+001, +9.37745646603E+002
+4.15617021277E+007, +4.56481384122E+001, +9.48130285219E+002
+4.17493116395E+007, +4.63599390241E+001, +9.53832438188E+002
+4.19369211514E+007, +5.12043438881E+001, +9.64890350886E+002
+4.21245306633E+007, +4.47746991570E+001, +9.73848189689E+002
+4.23121401752E+007, +4.10560578029E+001, +9.81942062065E+002
+4.24997496871E+007, +4.91963575585E+001, +9.93573274978E+002
+4.26873591990E+007, +5.06179470447E+001, +1.00281514803E+003
+4.28749687109E+007, +5.17862762481E+001, +1.00840736470E+003
+4.30625782228E+007, +4.84247544104E+001, +1.02476714002E+003
+4.32501877347E+007, +5.41967726017E+001, +1.03001669555E+003
+4.34377972466E+007, +4.78079403783E+001, +1.04031140682E+003
+4.36254067584E+007, +5.03078151985E+001, +1.05828173917E+003
+4.38130162703E+007, +5.01334112057E+001, +1.06324535974E+003
+4.40006257822E+007, +5.82650821094E+001, +1.07301225411E+003
+4.41882352941E+007, +5.22572324090E+001, +1.08313301960E+003
+4.43758448060E+007, +5.20198402397E+001, +1.09456167153E+003
+4.45634543179E+007, +5.85598832038E+001, +1.11329858010E+003
+4.47510638298E+007, +4.64619738010E+001, +1.12149139120E+003
+4.49386733417E+007, +5.16643842552E+001, +1.13409233221E+003
+4.51262828536E+007, +5.28951390456E+001, +1.14425417354E+003
+4.53138923655E+007, +5.79999407475E+001, +1.15483432496E+003
+4.55015018773E+007, +5.39808953361E+001, +1.16865092329E+003
+4.56891113892E+007, +5.79092389860E+001, +1.18935014965E+003
+4.58767209011E+007, +6.27127376588E+001, +1.18751853884E+003
+4.60643304130E+007, +6.09387646654E+001, +1.21055348660E+003
+4.62519399249E+007, +6.52564539178E+001, +1.22519198819E+003
+4.64395494368E+007, +5.82602460307E+001, +1.23098971443E+003
+4.66271589487E+007, +6.52815312694E+001, +1.26060620767E+003
+4.68147684606E+007, +6.40154280269E+001, +1.26655610465E+003
+4.70023779725E+007, +6.92504276498E+001, +1.28065132502E+003
+4.71899874844E+007, +6.62658384010E+001, +1.29369891427E+003
+4.73775969962E+007, +6.83125928697E+001, +1.30536245869E+003
+4.75652065081E+007, +7.04842056545E+001, +1.32756614513E+003
+4.77528160200E+007, +7.02608187817E+001, +1.33453113863E+003
+4.79404255319E+007, +7.44646070004E+001, +1.36967807620E+003
+4.81280350438E+007, +7.85958752324E+001, +1.37508750201E+003
+4.83156445557E+007, +7.70026277219E+001, +1.39697305056E+003
+4.85032540676E+007, +7.60215509294E+001, +1.41237139477E+003
+4.86908635795E+007, +8.08636793202E+001, +1.42288255352E+003
+4.88784730914E+007, +7.88781826224E+001, +1.43276183275E+003
+4.90660826033E+007, +8.30210311234E+001, +1.46188237347E+003
+4.92536921151E+007, +9.75819708072E+001, +1.46944245852E+003
+4.94413016270E+007, +9.30508615205E+001, +1.50123968668E+003
+4.96289111389E+007, +9.54286143441E+001, +1.51937489378E+003
+4.98165206508E+007, +9.66641940059E+001, +1.53752543301E+003
+5.00041301627E+007, +1.00459850093E+002, +1.55992221378E+003
+5.01917396746E+007, +1.08464986886E+002, +1.57372306720E+003
+5.03793491865E+007, +1.06376046341E+002, +1.58482275190E+003
+5.05669586984E+007, +1.04495548929E+002, +1.61233242869E+003
+5.07545682103E+007, +1.03836568242E+002, +1.63352232737E+003
+5.09421777222E+007, +1.22529364259E+002, +1.65735758761E+003
+5.11297872340E+007, +1.28143059866E+002, +1.68158395713E+003
+5.13173967459E+007, +1.18257116120E+002, +1.69892378171E+003
+5.15050062578E+007, +1.15103486934E+002, +1.71491830629E+003
+5.16926157697E+007, +1.20264373050E+002, +1.73714785708E+003
+5.18802252816E+007, +1.22179810788E+002, +1.76808150592E+003
+5.20678347935E+007, +1.18144614044E+002, +1.79019091107E+003
+5.22554443054E+007, +1.22678102540E+002, +1.82766665756E+003
+5.24430538173E+007, +1.34705244852E+002, +1.84435540902E+003
+5.26306633292E+007, +1.38210389766E+002, +1.86577064317E+003
+5.28182728411E+007, +1.47463872289E+002, +1.89811209189E+003
+5.30058823529E+007, +1.55527665987E+002, +1.92286121578E+003
+5.31934918648E+007, +1.39233859481E+002, +1.96371241660E+003
+5.33811013767E+007, +1.56902558297E+002, +1.99264986872E+003
+5.35687108886E+007, +1.49114847823E+002, +2.03349388425E+003
+5.37563204005E+007, +1.60865341930E+002, +2.05978551506E+003
+5.39439299124E+007, +1.90153198417E+002, +2.10441176641E+003
+5.41315394243E+007, +1.70506415743E+002, +2.12884443677E+003
+5.43191489362E+007, +1.60491044124E+002, +2.14544218873E+003
+5.45067584481E+007, +1.81870536673E+002, +2.21345291761E+003
+5.46943679599E+007, +2.13419945265E+002, +2.23012647953E+003
+5.48819774718E+007, +1.94343996141E+002, +2.26912650249E+003
+5.50695869837E+007, +2.07326677137E+002, +2.33083421843E+003
+5.52571964956E+007, +2.09144507514E+002, +2.37450595844E+003
+5.54448060075E+007, +2.32536395162E+002, +2.39569105935E+003
+5.56324155194E+007, +2.38664147392E+002, +2.46613904875E+003
+5.58200250313E+007, +2.28096068695E+002, +2.50405207417E+003
+5.60076345432E+007, +2.34196573547E+002, +2.56061968573E+003
+5.61952440551E+007, +2.44605193562E+002, +2.63290073489E+003
+5.63828535670E+007, +2.58654214216E+002, +2.64714476240E+003
+5.65704630788E+007, +2.68757132885E+002, +2.68122409572E+003
+5.67580725907E+007, +2.64761547761E+002, +2.74472972545E+003
+5.69456821026E+007, +3.02492660967E+002, +2.82737417224E+003
+5.71332916145E+007, +3.18812067273E+002, +2.86619772648E+003
+5.73209011264E+007, +3.44021086453E+002, +2.96691902799E+003
+5.75085106383E+007, +3.15581276505E+002, +3.07673392335E+003
+5.76961201502E+007, +3.76968093155E+002, +3.08579162092E+003
+5.78837296621E+007, +3.90453743214E+002, +3.25374697120E+003
+5.80713391740E+007, +3.90550007948E+002, +3.31873783976E+003
+5.82589486859E+007, +4.12008695992E+002, +3.34278492556E+003
+5.84465581977E+007, +4.61367087183E+002, +3.47682712865E+003
+5.86341677096E+007, +4.89920835263E+002, +3.57169682669E+003
+5.88217772215E+007, +5.16413079975E+002, +3.67116489382E+003
+5.90093867334E+007, +5.77719884948E+002, +3.83173103893E+003
+5.91969962453E+007, +6.84209606391E+002, +3.87666922149E+003
+5.93846057572E+007, +7.72761868760E+002, +4.00467766566E+003
+5.95722152691E+007, +7.41970457817E+002, +4.12394653758E+003
+5.97598247810E+007, +8.12068612719E+002, +4.31779203460E+003
+5.99474342929E+007, +8.94754883922E+002, +4.29585791880E+003
+6.01350438048E+007, +9.91663817395E+002, +4.34977981340E+003
