"# Channel 1"
"# Trace 1"
Frequency, Formatted Data, Formatted Data
+1.00000000000E+006, +3.50118943995E+001, +1.74871358858E+001
+1.16527545910E+006, +3.50219908888E+001, +2.04271295721E+001
+1.33055091820E+006, +3.50374320762E+001, +2.32823647333E+001
+1.49582637730E+006, +3.50749977828E+001, +2.61933751443E+001
+1.66110183639E+006, +3.51441289850E+001, +2.91483933339E+001
+1.82637729549E+006, +3.51253865866E+001, +3.20187437263E+001
+1.99165275459E+006, +3.51653694829E+001, +3.48809869400E+001
+2.15692821369E+006, +3.51841267074E+001, +3.78539299063E+001
+2.32220367279E+006, +3.52237973348E+001, +4.07027597686E+001
+2.48747913189E+006, +3.52271697931E+001, +4.36159543688E+001
+2.65275459098E+006, +3.52890627759E+001, +4.66001916369E+001
+2.81803005008E+006, +3.53777298877E+001, +4.94993136489E+001
+2.98330550918E+006, +3.53449374208E+001, +5.23574831512E+001
+3.14858096828E+006, +3.54075264549E+001, +5.53250474669E+001
+3.31385642738E+006, +3.54887906461E+001, +5.82425321063E+001
+3.47913188648E+006, +3.54801438852E+001, +6.12187464663E+001
+3.64440734558E+006, +3.54956179576E+001, +6.41724543471E+001
+3.80968280467E+006, +3.55740564371E+001, +6.72337477375E+001
+3.97495826377E+006, +3.56569247937E+001, +7.01830235135E+001
+4.14023372287E+006, +3.55839426788E+001, +7.19483135071E+001
+4.30550918197E+006, +3.56114446180E+001, +7.62474294394E+001
+4.47078464107E+006, +3.58174303581E+001, +7.90681425569E+001
+4.63606010017E+006, +3.58703710903E+001, +8.20726675900E+001
+4.80133555927E+006, +3.59040078633E+001, +8.50638451884E+001
+4.96661101836E+006, +3.59772371403E+001, +8.79973775535E+001
+5.13188647746E+006, +3.60205225447E+001, +9.10759670900E+001
+5.29716193656E+006, +3.60889585041E+001, +9.41168592320E+001
+5.46243739566E+006, +3.62190765192E+001, +9.72614147655E+001
+5.62771285476E+006, +3.62617866408E+001, +1.00217687696E+002
+5.79298831386E+006, +3.63845534367E+001, +1.03195003197E+002
+5.95826377295E+006, +3.62709432467E+001, +1.06217481738E+002
+6.12353923205E+006, +3.63992552945E+001, +1.09355609220E+002
+6.28881469115E+006, +3.64296695155E+001, +1.12492334727E+002
+6.45409015025E+006, +3.65517714703E+001, +1.15620277608E+002
+6.61936560935E+006, +3.66752193886E+001, +1.18729936026E+002
+6.78464106845E+006, +3.67409375570E+001, +1.21958018899E+002
+6.94991652755E+006, +3.67759105408E+001, +1.24974734816E+002
+7.11519198664E+006, +3.68978560009E+001, +1.28182593057E+002
+7.28046744574E+006, +3.70467742227E+001, +1.31364684703E+002
+7.44574290484E+006, +3.70814192297E+001, +1.34472179404E+002
+7.61101836394E+006, +3.72274209068E+001, +1.37663624450E+002
+7.77629382304E+006, +3.72464765117E+001, +1.40921293480E+002
+7.94156928214E+006, +3.72226609052E+001, +1.44231016295E+002
+8.10684474124E+006, +3.73450875463E+001, +1.47397640745E+002
+8.27212020033E+006, +3.74889978009E+001, +1.50657204378E+002
+8.43739565943E+006, +3.74809065865E+001, +1.54001822278E+002
+8.60267111853E+006, +3.75019310708E+001, +1.57243039664E+002
+8.76794657763E+006, +3.76258848836E+001, +1.60452450656E+002
+8.93322203673E+006, +3.78927748139E+001, +1.63768982512E+002
+9.09849749583E+006, +3.77729971555E+001, +1.67124249553E+002
+9.26377295492E+006, +3.78318309549E+001, +1.70706776495E+002
+9.42904841402E+006, +3.77743713429E+001, +1.74109803662E+002
+9.59432387312E+006, +3.80154560346E+001, +1.77123332372E+002
+9.75959933222E+006, +3.82359725150E+001, +1.80121239863E+002
+9.92487479132E+006, +3.81695615642E+001, +1.83313591854E+002
+1.00901502504E+007, +3.82157275700E+001, +1.86611206005E+002
+1.02554257095E+007, +3.83861847832E+001, +1.89865523464E+002
+1.04207011686E+007, +3.84843489951E+001, +1.93380716705E+002
+1.05859766277E+007, +3.83851273019E+001, +1.97095588659E+002
+1.07512520868E+007, +3.86206736533E+001, +2.00750543824E+002
+1.09165275459E+007, +3.87477901822E+001, +2.04712929595E+002
+1.10818030050E+007, +3.87537515105E+001, +2.08560408393E+002
+1.12470784641E+007, +3.88693726652E+001, +2.12948818990E+002
+1.14123539232E+007, +3.88964888386E+001, +2.17225189443E+002
+1.15776293823E+007, +3.90934034690E+001, +2.21186164529E+002
+1.17429048414E+007, +3.94829324012E+001, +2.24838379671E+002
+1.19081803005E+007, +3.93283155139E+001, +2.28541833689E+002
+1.20734557596E+007, +3.95143787663E+001, +2.32251925454E+002
+1.22387312187E+007, +3.98172177437E+001, +2.36399744183E+002
+1.24040066778E+007, +3.97998909135E+001, +2.40186224852E+002
+1.25692821369E+007, +3.98576819793E+001, +2.44940631223E+002
+1.27345575960E+007, +3.98537424786E+001, +2.48501408020E+002
+1.28998330551E+007, +3.99984615094E+001, +2.52111145379E+002
+1.30651085142E+007, +4.02097783099E+001, +2.56082953619E+002
+1.32303839733E+007, +4.03556901519E+001, +2.60102190253E+002
+1.33956594324E+007, +4.02298634948E+001, +2.64584163377E+002
+1.35609348915E+007, +4.04354019459E+001, +2.68858078709E+002
+1.37262103506E+007, +4.05637701537E+001, +2.73236266836E+002
+1.38914858097E+007, +4.11385192152E+001, +2.77590306234E+002
+1.40567612688E+007, +4.09655668309E+001, +2.81537734935E+002
+1.42220367279E+007, +4.15422436683E+001, +2.86088533981E+002
+1.43873121870E+007, +4.14089444370E+001, +2.90428130406E+002
+1.45525876461E+007, +4.16318057364E+001, +2.94858953369E+002
+1.47178631052E+007, +4.16916006805E+001, +2.99158420826E+002
+1.48831385643E+007, +4.21953936094E+001, +3.03590558495E+002
+1.50484140234E+007, +4.18431377881E+001, +3.08601504593E+002
+1.52136894825E+007, +4.25214164104E+001, +3.13066395723E+002
+1.53789649416E+007, +4.27846722970E+001, +3.18161482646E+002
+1.55442404007E+007, +4.32470053182E+001, +3.22780751809E+002
+1.57095158598E+007, +4.34713093953E+001, +3.27580049901E+002
+1.58747913189E+007, +4.37836501334E+001, +3.32277458089E+002
+1.60400667780E+007, +4.38705844799E+001, +3.37014886639E+002
+1.62053422371E+007, +4.40931575166E+001, +3.42541636697E+002
+1.63706176962E+007, +4.40519740670E+001, +3.47116246057E+002
+1.65358931553E+007, +4.51100144382E+001, +3.52714976700E+002
+1.67011686144E+007, +4.51067210320E+001, +3.57749219217E+002
+1.68664440735E+007, +4.56147129088E+001, +3.62534959648E+002
+1.70317195326E+007, +4.53200540396E+001, +3.68200003669E+002
+1.71969949917E+007, +4.55778721347E+001, +3.74046195317E+002
+1.73622704508E+007, +4.56561346578E+001, +3.79200618745E+002
+1.75275459098E+007, +4.63679753583E+001, +3.83985266236E+002
+1.76928213689E+007, +4.66882762474E+001, +3.90246428275E+002
+1.78580968280E+007, +4.67479705171E+001, +3.95889146856E+002
+1.80233722871E+007, +4.74535648625E+001, +4.01168343293E+002
+1.81886477462E+007, +4.73635768959E+001, +4.07025709238E+002
+1.83539232053E+007, +4.79984366372E+001, +4.13161906995E+002
+1.85191986644E+007, +4.84790533199E+001, +4.19432149177E+002
+1.86844741235E+007, +4.95301622369E+001, +4.25554556500E+002
+1.88497495826E+007, +4.88070926984E+001, +4.30820330964E+002
+1.90150250417E+007, +5.02738776709E+001, +4.37440210432E+002
+1.91803005008E+007, +4.98843000570E+001, +4.43556013234E+002
+1.93455759599E+007, +4.98498221815E+001, +4.50779511609E+002
+1.95108514190E+007, +5.12246003254E+001, +4.56587064953E+002
+1.96761268781E+007, +5.08962665564E+001, +4.63568049424E+002
+1.98414023372E+007, +5.21762176216E+001, +4.70635831754E+002
+2.00066777963E+007, +5.14931490116E+001, +4.77352916430E+002
+2.01719532554E+007, +5.24250176433E+001, +4.83916598049E+002
+2.03372287145E+007, +5.27246019533E+001, +4.90170672737E+002
+2.05025041736E+007, +5.39136781678E+001, +4.98610363923E+002
+2.06677796327E+007, +5.33180359460E+001, +5.06212336652E+002
+2.08330550918E+007, +5.45497076747E+001, +5.13737872128E+002
+2.09983305509E+007, +5.61399389664E+001, +5.20712099443E+002
+2.11636060100E+007, +5.54002231714E+001, +5.28821963708E+002
+2.13288814691E+007, +5.61832069939E+001, +5.35203231792E+002
+2.14941569282E+007, +5.77035271417E+001, +5.44469423047E+002
+2.16594323873E+007, +5.74307169953E+001, +5.52741439319E+002
+2.18247078464E+007, +5.84957658025E+001, +5.61631530670E+002
+2.19899833055E+007, +5.87606900931E+001, +5.68447470356E+002
+2.21552587646E+007, +5.98652677542E+001, +5.77053078103E+002
+2.23205342237E+007, +6.03482698464E+001, +5.85690712524E+002
+2.24858096828E+007, +6.13892931231E+001, +5.95304543719E+002
+2.26510851419E+007, +6.36018680737E+001, +6.06731973077E+002
+2.28163606010E+007, +6.26289405249E+001, +6.14120464216E+002
+2.29816360601E+007, +6.39124346093E+001, +6.24240417048E+002
+2.31469115192E+007, +6.38331241720E+001, +6.34498851071E+002
+2.33121869783E+007, +6.55578557832E+001, +6.44654373798E+002
+2.34774624374E+007, +6.50904909040E+001, +6.54101974732E+002
+2.36427378965E+007, +6.84177719231E+001, +6.63176415496E+002
+2.38080133556E+007, +6.78825868678E+001, +6.74966800181E+002
+2.39732888147E+007, +7.01969682430E+001, +6.84131040125E+002
+2.41385642738E+007, +6.82854694688E+001, +6.96412443265E+002
+2.43038397329E+007, +6.94305071563E+001, +7.06343244835E+002
+2.44691151920E+007, +7.30907147175E+001, +7.18684075412E+002
+2.46343906511E+007, +7.30488038794E+001, +7.27717893644E+002
+2.47996661102E+007, +7.31390210979E+001, +7.41468364916E+002
+2.49649415693E+007, +7.50245158969E+001, +7.56759316684E+002
+2.51302170284E+007, +7.74354956634E+001, +7.65501815276E+002
+2.52954924875E+007, +8.03733093352E+001, +7.77747147415E+002
+2.54607679466E+007, +8.06495145223E+001, +7.92588869994E+002
+2.56260434057E+007, +8.02652344804E+001, +8.07269445139E+002
+2.57913188648E+007, +8.47566214503E+001, +8.19258206135E+002
+2.59565943239E+007, +8.40749044612E+001, +8.33491142395E+002
+2.61218697830E+007, +8.50948597950E+001, +8.47411595491E+002
+2.62871452421E+007, +9.15256500646E+001, +8.60991087094E+002
+2.64524207012E+007, +9.07439084317E+001, +8.81105953512E+002
+2.66176961603E+007, +9.00742369595E+001, +8.94707426615E+002
+2.67829716194E+007, +9.35630110914E+001, +9.08776347246E+002
+2.69482470785E+007, +9.40713205417E+001, +9.25885443120E+002
+2.71135225376E+007, +9.79128936988E+001, +9.44667712166E+002
+2.72787979967E+007, +9.93468948870E+001, +9.59805398690E+002
+2.74440734558E+007, +1.02122236068E+002, +9.82868305709E+002
+2.76093489149E+007, +1.05927519256E+002, +9.97515462299E+002
+2.77746243740E+007, +1.08108824495E+002, +1.01742785880E+003
+2.79398998331E+007, +1.13841039793E+002, +1.04012351070E+003
+2.81051752922E+007, +1.15389541468E+002, +1.05595612164E+003
+2.82704507513E+007, +1.16849105177E+002, +1.08142034353E+003
+2.84357262104E+007, +1.19706875654E+002, +1.09801820554E+003
+2.86010016694E+007, +1.23999279648E+002, +1.11696415755E+003
+2.87662771285E+007, +1.29155390278E+002, +1.15155175395E+003
+2.89315525876E+007, +1.32440292736E+002, +1.17203528060E+003
+2.90968280467E+007, +1.43255971402E+002, +1.19784567338E+003
+2.92621035058E+007, +1.45648032744E+002, +1.21636582620E+003
+2.94273789649E+007, +1.52494134867E+002, +1.24825913801E+003
+2.95926544240E+007, +1.56626172324E+002, +1.27199420785E+003
+2.97579298831E+007, +1.65015195035E+002, +1.29736927548E+003
+2.99232053422E+007, +1.70857829133E+002, +1.33148864697E+003
+3.00884808013E+007, +1.74327427825E+002, +1.36332337780E+003
+3.02537562604E+007, +1.85676036435E+002, +1.38670531919E+003
+3.04190317195E+007, +1.91291629078E+002, +1.41977923327E+003
+3.05843071786E+007, +2.02585997794E+002, +1.46100088289E+003
+3.07495826377E+007, +2.09028762969E+002, +1.49499629890E+003
+3.09148580968E+007, +2.13129316411E+002, +1.52484850311E+003
+3.10801335559E+007, +2.21291550746E+002, +1.56937863897E+003
+3.12454090150E+007, +2.26166700150E+002, +1.61470601156E+003
+3.14106844741E+007, +2.40709504772E+002, +1.64764905729E+003
+3.15759599332E+007, +2.57322086578E+002, +1.69019607188E+003
+3.17412353923E+007, +2.63787428233E+002, +1.72860553033E+003
+3.19065108514E+007, +2.76419909077E+002, +1.78151077768E+003
+3.20717863105E+007, +2.82316478131E+002, +1.84068239883E+003
+3.22370617696E+007, +3.16302997055E+002, +1.89058247146E+003
+3.24023372287E+007, +3.24993641693E+002, +1.95507937709E+003
+3.25676126878E+007, +3.33266224308E+002, +1.98953528663E+003
+3.27328881469E+007, +3.49166986509E+002, +2.07198076284E+003
+3.28981636060E+007, +3.88627406373E+002, +2.12786681425E+003
+3.30634390651E+007, +4.10622638120E+002, +2.18999637413E+003
+3.32287145242E+007, +4.31143913423E+002, +2.27468262192E+003
+3.33939899833E+007, +4.65193445862E+002, +2.32957318054E+003
+3.35592654424E+007, +4.83173666619E+002, +2.44602403891E+003
+3.37245409015E+007, +4.92061006480E+002, +2.51882698717E+003
+3.38898163606E+007, +5.75564252399E+002, +2.59967198227E+003
+3.40550918197E+007, +5.89415095171E+002, +2.70770253658E+003
+3.42203672788E+007, +6.51243335064E+002, +2.82177906298E+003
+3.43856427379E+007, +6.97013965443E+002, +2.94004542094E+003
+3.45509181970E+007, +7.83690886601E+002, +3.06398057542E+003
+3.47161936561E+007, +8.67361341118E+002, +3.15243274616E+003
+3.48814691152E+007, +9.12862415557E+002, +3.31034739686E+003
+3.50467445743E+007, +9.73714775003E+002, +3.44591345467E+003
+3.52120200334E+007, +1.07098381555E+003, +3.66050529697E+003
+3.53772954925E+007, +1.24200026665E+003, +3.83030997645E+003
+3.55425709516E+007, +1.38417996838E+003, +4.02044136965E+003
+3.57078464107E+007, +1.52085180396E+003, +4.22594611424E+003
+3.58731218698E+007, +1.76571813956E+003, +4.44871270225E+003
+3.60383973289E+007, +1.84596179723E+003, +4.60964202445E+003
+3.62036727880E+007, +2.18149751153E+003, +5.00614575377E+003
+3.63689482471E+007, +2.60131999928E+003, +5.18005189140E+003
+3.65342237062E+007, +2.90128868501E+003, +5.43443518348E+003
+3.66994991653E+007, +3.28871219724E+003, +5.99773075200E+003
+3.68647746244E+007, +3.73549586079E+003, +6.02456127185E+003
+3.70300500835E+007, +4.50272146511E+003, +6.68315600762E+003
+3.71953255426E+007, +5.11920315829E+003, +6.65118100215E+003
+3.73606010017E+007, +6.64271355664E+003, +6.73907874876E+003
+3.75258764608E+007, +8.17151763048E+003, +6.75923867409E+003
+3.76911519199E+007, +9.39042037851E+003, +6.83030752142E+003
+3.78564273790E+007, +1.07856012456E+004, +5.42155154597E+003
+3.80217028381E+007, +1.26495299270E+004, +3.96344769180E+003
+3.81869782972E+007, +1.35003178795E+004, +2.59723872293E+003
+3.83522537563E+007, +1.42414593786E+004, -2.46270475533E+002
+3.85175292154E+007, +1.38792717271E+004, -2.77054874812E+003
+3.86828046745E+007, +1.26801467901E+004, -4.47874543703E+003
+3.88480801336E+007, +1.05664007562E+004, -6.50201746857E+003
+3.90133555927E+007, +9.66897184730E+003, -6.43746958767E+003
+3.91786310518E+007, +7.60883816083E+003, -7.31062262941E+003
+3.93439065109E+007, +6.07749736586E+003, -7.36428491315E+003
+3.95091819699E+007, +5.17210192905E+003, -7.02075363543E+003
+3.96744574290E+007, +4.53179787403E+003, -6.93456603081E+003
+3.98397328881E+007, +3.79480205564E+003, -6.37709937997E+003
+4.00050083472E+007, +3.35962459253E+003, -6.25844997798E+003
+4.01702838063E+007, +2.79062812963E+003, -5.91871958349E+003
+4.03355592654E+007, +2.46324309982E+003, -5.63268885693E+003
+4.05008347245E+007, +2.18233850935E+003, -5.27430575071E+003
+4.06661101836E+007, +1.86905242860E+003, -4.89996472057E+003
+4.08313856427E+007, +1.68219843318E+003, -4.73745599613E+003
+4.09966611018E+007, +1.59280848186E+003, -4.51118945899E+003
+4.11619365609E+007, +1.37904623473E+003, -4.24089187646E+003
+4.13272120200E+007, +1.22042201150E+003, -4.06720955679E+003
+4.14924874791E+007, +1.05227657799E+003, -3.91446388103E+003
+4.16577629382E+007, +1.01106367687E+003, -3.72142396942E+003
+4.18230383973E+007, +9.00491209659E+002, -3.57250583563E+003
+4.19883138564E+007, +8.89945704861E+002, -3.49111456550E+003
+4.21535893155E+007, +7.68129071291E+002, -3.36429077745E+003
+4.23188647746E+007, +7.22613355053E+002, -3.21562211126E+003
+4.24841402337E+007, +6.46807969967E+002, -3.13652771289E+003
+4.26494156928E+007, +6.33157085554E+002, -3.00725871518E+003
+4.28146911519E+007, +5.64115835973E+002, -2.90262791534E+003
+4.29799666110E+007, +5.23924035316E+002, -2.83226908150E+003
+4.31452420701E+007, +4.79065492274E+002, -2.72799037970E+003
+4.33105175292E+007, +4.59349272963E+002, -2.66688245552E+003
+4.34757929883E+007, +4.21880376650E+002, -2.56465518010E+003
+4.36410684474E+007, +3.73384877934E+002, -2.50854414186E+003
+4.38063439065E+007, +3.69163934940E+002, -2.41932613772E+003
+4.39716193656E+007, +3.46598322002E+002, -2.33173367750E+003
+4.41368948247E+007, +3.34565471701E+002, -2.29198998013E+003
+4.43021702838E+007, +3.07140036042E+002, -2.24610684114E+003
+4.44674457429E+007, +3.02353270372E+002, -2.18943981126E+003
+4.46327212020E+007, +2.55799329347E+002, -2.11862544832E+003
+4.47979966611E+007, +2.62943618197E+002, -2.05592443229E+003
+4.49632721202E+007, +2.41969358281E+002, -2.02661542600E+003
+4.51285475793E+007, +2.27867529178E+002, -1.97223411195E+003
+4.52938230384E+007, +2.20120389856E+002, -1.92098346041E+003
+4.54590984975E+007, +2.10418229088E+002, -1.90434976770E+003
+4.56243739566E+007, +1.98713130618E+002, -1.85636069668E+003
+4.57896494157E+007, +1.78740803105E+002, -1.81318601497E+003
+4.59549248748E+007, +1.68971081717E+002, -1.76927986425E+003
+4.61202003339E+007, +1.61135265706E+002, -1.73003434892E+003
+4.62854757930E+007, +1.53602466314E+002, -1.69725517560E+003
+4.64507512521E+007, +1.52499663430E+002, -1.66165035698E+003
+4.66160267112E+007, +1.44924846869E+002, -1.63450810377E+003
+4.67813021703E+007, +1.36496888216E+002, -1.60060061529E+003
+4.69465776294E+007, +1.31937385018E+002, -1.56590832024E+003
+4.71118530885E+007, +1.27191021513E+002, -1.54350977003E+003
+4.72771285476E+007, +1.18226762596E+002, -1.51297002784E+003
+4.74424040067E+007, +1.12492313781E+002, -1.48418801782E+003
+4.76076794658E+007, +1.11641022528E+002, -1.46231339984E+003
+4.77729549249E+007, +1.03890375265E+002, -1.44314337000E+003
+4.79382303840E+007, +9.96590522780E+001, -1.41211685814E+003
+4.81035058431E+007, +9.55829613889E+001, -1.38868437686E+003
+4.82687813022E+007, +1.00202564422E+002, -1.37656444042E+003
+4.84340567613E+007, +8.85577006763E+001, -1.35033369156E+003
+4.85993322204E+007, +9.24735598432E+001, -1.33062293908E+003
+4.87646076795E+007, +8.57003406367E+001, -1.30748391976E+003
+4.89298831386E+007, +8.10887174670E+001, -1.28586847764E+003
+4.90951585977E+007, +8.08549586292E+001, -1.26656164011E+003
+4.92604340568E+007, +7.63521920890E+001, -1.25243762283E+003
+4.94257095159E+007, +7.34903057115E+001, -1.22779319477E+003
+4.95909849750E+007, +7.64955232497E+001, -1.21420173192E+003
+4.97562604341E+007, +7.94800803080E+001, -1.19575507889E+003
+4.99215358932E+007, +6.81496045270E+001, -1.17676120064E+003
+5.00868113523E+007, +7.16768231425E+001, -1.16296787627E+003
+5.02520868114E+007, +7.59385446445E+001, -1.14756146862E+003
+5.04173622705E+007, +7.07603820862E+001, -1.13662749527E+003
+5.05826377295E+007, +7.12204199886E+001, -1.11700016755E+003
+5.07479131886E+007, +6.83397496700E+001, -1.10555681160E+003
+5.09131886477E+007, +6.48905176397E+001, -1.09587638047E+003
+5.10784641068E+007, +6.65209113855E+001, -1.08469261195E+003
+5.12437395659E+007, +6.38070284800E+001, -1.06893234019E+003
+5.14090150250E+007, +6.55864496914E+001, -1.05833434036E+003
+5.15742904841E+007, +6.29335628535E+001, -1.04647415825E+003
+5.17395659432E+007, +6.26815155945E+001, -1.03090828170E+003
+5.19048414023E+007, +5.66406312100E+001, -1.01917174949E+003
+5.20701168614E+007, +5.57837229702E+001, -1.01079150299E+003
+5.22353923205E+007, +5.64931853711E+001, -1.00014623629E+003
+5.24006677796E+007, +5.87947942973E+001, -9.86482484442E+002
+5.25659432387E+007, +5.21976948193E+001, -9.77701219894E+002
+5.27312186978E+007, +5.09069829379E+001, -9.67668370987E+002
+5.28964941569E+007, +5.33796679590E+001, -9.56364087034E+002
+5.30617696160E+007, +4.76446307207E+001, -9.47509375820E+002
+5.32270450751E+007, +4.90467457723E+001, -9.37213656411E+002
+5.33923205342E+007, +4.41796987358E+001, -9.26639744785E+002
+5.35575959933E+007, +4.26086547926E+001, -9.21136070810E+002
+5.37228714524E+007, +4.16374132695E+001, -9.10476406843E+002
+5.38881469115E+007, +4.09038173334E+001, -8.99736997915E+002
