"# Channel 1"
"# Trace 1"
Frequency, Formatted Data, Formatted Data
+1.00000000000E+005, +1.86279481926E+001, +1.60254920495E+000
+2.25031289111E+005, +1.86168209938E+001, +3.64578950977E+000
+3.50062578223E+005, +1.86324349165E+001, +5.66556047320E+000
+4.75093867334E+005, +1.86319408692E+001, +7.67116358403E+000
+6.00125156446E+005, +1.86790956341E+001, +9.63113026723E+000
+7.25156445557E+005, +1.86611355323E+001, +1.17027212007E+001
+8.50187734668E+005, +1.86955970797E+001, +1.36621661058E+001
+9.75219023780E+005, +1.86725987225E+001, +1.56479594414E+001
+1.10025031289E+006, +1.86913424839E+001, +1.76135522280E+001
+1.22528160200E+006, +1.87228491647E+001, +1.96565493614E+001
+1.35031289111E+006, +1.87120430657E+001, +2.16355054488E+001
+1.47534418023E+006, +1.87184499778E+001, +2.36119318154E+001
+1.60037546934E+006, +1.87136219537E+001, +2.56166435144E+001
+1.72540675845E+006, +1.87205231728E+001, +2.76038104067E+001
+1.85043804756E+006, +1.86746522319E+001, +2.95854640310E+001
+1.97546933667E+006, +1.87059433713E+001, +3.15857517507E+001
+2.10050062578E+006, +1.87101258963E+001, +3.36217120531E+001
+2.22553191489E+006, +1.87155141681E+001, +3.55861887967E+001
+2.35056320401E+006, +1.86642142560E+001, +3.75907041582E+001
+2.47559449312E+006, +1.87561671380E+001, +3.96216838580E+001
+2.60062578223E+006, +1.87686979822E+001, +4.15891140336E+001
+2.72565707134E+006, +1.87683350171E+001, +4.36048128853E+001
+2.85068836045E+006, +1.87849016650E+001, +4.56269790803E+001
+2.97571964956E+006, +1.86954699533E+001, +4.75516584747E+001
+3.10075093867E+006, +1.87907037800E+001, +4.96795502236E+001
+3.22578222778E+006, +1.87949400530E+001, +5.15872530660E+001
+3.35081351690E+006, +1.87623389851E+001, +5.35649309867E+001
+3.47584480601E+006, +1.87119308091E+001, +5.55908291320E+001
+3.60087609512E+006, +1.87829766869E+001, +5.76696052253E+001
+3.72590738423E+006, +1.88170451883E+001, +5.97027997206E+001
+3.85093867334E+006, +1.87827709933E+001, +6.16034860218E+001
+3.97596996245E+006, +1.88376288127E+001, +6.35446499501E+001
+4.10100125156E+006, +1.88641947067E+001, +6.56899760344E+001
+4.22603254068E+006, +1.88317876583E+001, +6.75882454463E+001
+4.35106382979E+006, +1.89024720592E+001, +6.96821009637E+001
+4.47609511890E+006, +1.87878642371E+001, +7.17259224078E+001
+4.60112640801E+006, +1.87334370423E+001, +7.36172205822E+001
+4.72615769712E+006, +1.89124246167E+001, +7.57415379211E+001
+4.85118898623E+006, +1.88935718895E+001, +7.76501474005E+001
+4.97622027534E+006, +1.88253461775E+001, +7.96474304490E+001
+5.10125156446E+006, +1.88587812024E+001, +8.16697755518E+001
+5.22628285357E+006, +1.89312048376E+001, +8.36324654190E+001
+5.35131414268E+006, +1.89714404572E+001, +8.57991160723E+001
+5.47634543179E+006, +1.88410578826E+001, +8.77819404202E+001
+5.60137672090E+006, +1.88970676512E+001, +8.99191111623E+001
+5.72640801001E+006, +1.88828745881E+001, +9.19612229949E+001
+5.85143929912E+006, +1.87369626498E+001, +9.37256880449E+001
+5.97647058824E+006, +1.89470424645E+001, +9.59912626973E+001
+6.10150187735E+006, +1.90143387486E+001, +9.79985786805E+001
+6.22653316646E+006, +1.90667707321E+001, +9.99336517357E+001
+6.35156445557E+006, +1.91172511089E+001, +1.02117872955E+002
+6.47659574468E+006, +1.91021911913E+001, +1.04084439576E+002
+6.60162703379E+006, +1.91953535997E+001, +1.06195445635E+002
+6.72665832290E+006, +1.91201964904E+001, +1.08208717817E+002
+6.85168961202E+006, +1.92427179425E+001, +1.10223380913E+002
+6.97672090113E+006, +1.92618044586E+001, +1.12503375546E+002
+7.10175219024E+006, +1.91686671974E+001, +1.14369728997E+002
+7.22678347935E+006, +1.92218983868E+001, +1.16336761865E+002
+7.35181476846E+006, +1.92367155956E+001, +1.18466108560E+002
+7.47684605757E+006, +1.92579457980E+001, +1.20448027344E+002
+7.60187734668E+006, +1.92391349150E+001, +1.22513816447E+002
+7.72690863579E+006, +1.92834778429E+001, +1.24674789523E+002
+7.85193992491E+006, +1.92648237510E+001, +1.26737542485E+002
+7.97697121402E+006, +1.93507238559E+001, +1.28776159569E+002
+8.10200250313E+006, +1.93886140543E+001, +1.30950713708E+002
+8.22703379224E+006, +1.90947423405E+001, +1.32933870655E+002
+8.35206508135E+006, +1.93748252382E+001, +1.35136111537E+002
+8.47709637046E+006, +1.93434246339E+001, +1.37043843290E+002
+8.60212765957E+006, +1.94736562637E+001, +1.39149425694E+002
+8.72715894869E+006, +1.93669406855E+001, +1.41306653069E+002
+8.85219023780E+006, +1.95335111913E+001, +1.43425381269E+002
+8.97722152691E+006, +1.95626614738E+001, +1.45452108923E+002
+9.10225281602E+006, +1.93571376659E+001, +1.47537084909E+002
+9.22728410513E+006, +1.94342842419E+001, +1.49613550141E+002
+9.35231539424E+006, +1.95203157665E+001, +1.51490216075E+002
+9.47734668335E+006, +1.95564424747E+001, +1.53666061089E+002
+9.60237797247E+006, +1.95019105572E+001, +1.55868742018E+002
+9.72740926158E+006, +1.96410341900E+001, +1.57872230957E+002
+9.85244055069E+006, +1.95515444450E+001, +1.60006728214E+002
+9.97747183980E+006, +1.95634694096E+001, +1.62117578254E+002
+1.01025031289E+007, +1.95643337737E+001, +1.64251359457E+002
+1.02275344180E+007, +1.96769217279E+001, +1.66386741630E+002
+1.03525657071E+007, +1.95258481437E+001, +1.68469389788E+002
+1.04775969962E+007, +1.95592760515E+001, +1.70542561883E+002
+1.06026282854E+007, +1.97322583386E+001, +1.72689548018E+002
+1.07276595745E+007, +1.96845061839E+001, +1.74817964585E+002
+1.08526908636E+007, +1.96227776244E+001, +1.76950186317E+002
+1.09777221527E+007, +1.98260541619E+001, +1.79123391465E+002
+1.11027534418E+007, +1.94926057750E+001, +1.81370734493E+002
+1.12277847309E+007, +1.97636472158E+001, +1.83196602482E+002
+1.13528160200E+007, +1.98571731911E+001, +1.85434531163E+002
+1.14778473091E+007, +1.98460696034E+001, +1.87430527031E+002
+1.16028785982E+007, +1.98740882004E+001, +1.89729774094E+002
+1.17279098874E+007, +1.99660267387E+001, +1.92129169547E+002
+1.18529411765E+007, +1.99949439136E+001, +1.94186041756E+002
+1.19779724656E+007, +1.96159151400E+001, +1.96248902391E+002
+1.21030037547E+007, +2.00035360648E+001, +1.98326477835E+002
+1.22280350438E+007, +1.98359986440E+001, +2.00650106154E+002
+1.23530663329E+007, +1.99453353935E+001, +2.02645449136E+002
+1.24780976220E+007, +1.96897416359E+001, +2.04991397897E+002
+1.26031289111E+007, +1.99331690682E+001, +2.06785761875E+002
+1.27281602003E+007, +1.99882676075E+001, +2.09188434833E+002
+1.28531914894E+007, +2.02237770066E+001, +2.11552579611E+002
+1.29782227785E+007, +1.97610205466E+001, +2.13733578455E+002
+1.31032540676E+007, +1.96066409239E+001, +2.16102637219E+002
+1.32282853567E+007, +2.01100828024E+001, +2.17897061196E+002
+1.33533166458E+007, +2.00530807662E+001, +2.20339890403E+002
+1.34783479349E+007, +1.98809544007E+001, +2.22900637955E+002
+1.36033792240E+007, +1.97496232633E+001, +2.24374908029E+002
+1.37284105131E+007, +2.02247933261E+001, +2.26846733288E+002
+1.38534418023E+007, +2.01481845333E+001, +2.28971113386E+002
+1.39784730914E+007, +1.99426151992E+001, +2.31434979209E+002
+1.41035043805E+007, +2.03186169141E+001, +2.33559550139E+002
+1.42285356696E+007, +2.01211395884E+001, +2.35706243282E+002
+1.43535669587E+007, +2.00507437618E+001, +2.38051497625E+002
+1.44785982478E+007, +2.01382039836E+001, +2.40174342822E+002
+1.46036295369E+007, +2.05035282657E+001, +2.42488920533E+002
+1.47286608260E+007, +1.99208805314E+001, +2.44683241478E+002
+1.48536921151E+007, +2.02743724644E+001, +2.46905389941E+002
+1.49787234043E+007, +2.00604411614E+001, +2.49176877460E+002
+1.51037546934E+007, +2.05283845835E+001, +2.51466864508E+002
+1.52287859825E+007, +2.02730811821E+001, +2.53606126538E+002
+1.53538172716E+007, +2.05694978222E+001, +2.56169916076E+002
+1.54788485607E+007, +2.04500789229E+001, +2.58172428022E+002
+1.56038798498E+007, +2.06071397538E+001, +2.60597177036E+002
+1.57289111389E+007, +2.07428141868E+001, +2.62922166481E+002
+1.58539424280E+007, +2.03476945731E+001, +2.64727133663E+002
+1.59789737171E+007, +2.06878576877E+001, +2.67093501941E+002
+1.61040050063E+007, +2.05706679007E+001, +2.70151876592E+002
+1.62290362954E+007, +2.04796915152E+001, +2.71962076027E+002
+1.63540675845E+007, +2.07890967671E+001, +2.74387404554E+002
+1.64790988736E+007, +2.04772620333E+001, +2.76606185056E+002
+1.66041301627E+007, +2.08746376592E+001, +2.78501729047E+002
+1.67291614518E+007, +2.06809483885E+001, +2.81238449756E+002
+1.68541927409E+007, +2.10481505946E+001, +2.83587231757E+002
+1.69792240300E+007, +2.09041316515E+001, +2.85705511905E+002
+1.71042553191E+007, +2.02859907685E+001, +2.88728576924E+002
+1.72292866083E+007, +2.03426214382E+001, +2.90828733833E+002
+1.73543178974E+007, +2.00635655398E+001, +2.93148035634E+002
+1.74793491865E+007, +2.06849998181E+001, +2.95253208157E+002
+1.76043804756E+007, +2.03939561292E+001, +2.97762194654E+002
+1.77294117647E+007, +2.02575354109E+001, +3.00622245403E+002
+1.78544430538E+007, +2.06777198835E+001, +3.02813417648E+002
+1.79794743429E+007, +2.11613374137E+001, +3.05205129901E+002
+1.81045056320E+007, +2.07165180415E+001, +3.07955822677E+002
+1.82295369212E+007, +2.09163598535E+001, +3.09692647708E+002
+1.83545682103E+007, +2.17596947113E+001, +3.12694568515E+002
+1.84795994994E+007, +2.14367204490E+001, +3.14602285333E+002
+1.86046307885E+007, +2.12229655555E+001, +3.16480909075E+002
+1.87296620776E+007, +2.11616521386E+001, +3.19586766952E+002
+1.88546933667E+007, +2.14592716263E+001, +3.22209362277E+002
+1.89797246558E+007, +2.14166748857E+001, +3.25051803528E+002
+1.91047559449E+007, +2.12895107370E+001, +3.26769665765E+002
+1.92297872340E+007, +2.10994775711E+001, +3.28600273541E+002
+1.93548185232E+007, +2.19751434188E+001, +3.32364035196E+002
+1.94798498123E+007, +2.19175705124E+001, +3.34617057141E+002
+1.96048811014E+007, +2.17359618519E+001, +3.36688741220E+002
+1.97299123905E+007, +2.12060700880E+001, +3.39080115819E+002
+1.98549436796E+007, +2.20711214573E+001, +3.41732808658E+002
+1.99799749687E+007, +2.15446364598E+001, +3.44499408889E+002
+2.01050062578E+007, +2.16651052400E+001, +3.47013052898E+002
+2.02300375469E+007, +2.15909543956E+001, +3.49119170609E+002
+2.03550688360E+007, +2.19973258603E+001, +3.51467052559E+002
+2.04801001252E+007, +2.17726224750E+001, +3.53951994712E+002
+2.06051314143E+007, +2.16007559624E+001, +3.56349046433E+002
+2.07301627034E+007, +2.22610440109E+001, +3.59287214384E+002
+2.08551939925E+007, +2.21335295847E+001, +3.61722536297E+002
+2.09802252816E+007, +2.29412819115E+001, +3.64392067004E+002
+2.11052565707E+007, +2.25885868671E+001, +3.67943273230E+002
+2.12302878598E+007, +2.16861529071E+001, +3.69408105009E+002
+2.13553191489E+007, +2.29958984971E+001, +3.72569786495E+002
+2.14803504380E+007, +2.24443679234E+001, +3.74382514439E+002
+2.16053817272E+007, +2.23113986379E+001, +3.77318700896E+002
+2.17304130163E+007, +2.26053792432E+001, +3.80318466983E+002
+2.18554443054E+007, +2.19769263180E+001, +3.82868795086E+002
+2.19804755945E+007, +2.24107436453E+001, +3.85598393641E+002
+2.21055068836E+007, +2.23412771848E+001, +3.88477220288E+002
+2.22305381727E+007, +2.31526027250E+001, +3.91348858154E+002
+2.23555694618E+007, +2.31717799935E+001, +3.93684252269E+002
+2.24806007509E+007, +2.32635506288E+001, +3.95285008027E+002
+2.26056320401E+007, +2.31781481839E+001, +3.98837859194E+002
+2.27306633292E+007, +2.33621977465E+001, +4.01420125099E+002
+2.28556946183E+007, +2.40684823384E+001, +4.03839518205E+002
+2.29807259074E+007, +2.33422591800E+001, +4.07249918029E+002
+2.31057571965E+007, +2.39456707730E+001, +4.09421692005E+002
+2.32307884856E+007, +2.45260392737E+001, +4.11835217843E+002
+2.33558197747E+007, +2.35568836052E+001, +4.14997163938E+002
+2.34808510638E+007, +2.54639154452E+001, +4.16481001541E+002
+2.36058823529E+007, +2.40706105463E+001, +4.19742410607E+002
+2.37309136421E+007, +2.40642940523E+001, +4.23482811499E+002
+2.38559449312E+007, +2.42687419547E+001, +4.26070411874E+002
+2.39809762203E+007, +2.61394647963E+001, +4.27471569659E+002
+2.41060075094E+007, +2.56035001515E+001, +4.30718605325E+002
+2.42310387985E+007, +2.48650234107E+001, +4.33020024034E+002
+2.43560700876E+007, +2.47661664442E+001, +4.35711932353E+002
+2.44811013767E+007, +2.57554701596E+001, +4.38675031822E+002
+2.46061326658E+007, +2.55311206684E+001, +4.40982912843E+002
+2.47311639549E+007, +2.52181284687E+001, +4.44465483559E+002
+2.48561952441E+007, +2.56558980094E+001, +4.46475713787E+002
+2.49812265332E+007, +2.54767143669E+001, +4.49372329288E+002
+2.51062578223E+007, +2.55084825348E+001, +4.51742989501E+002
+2.52312891114E+007, +2.56414381373E+001, +4.54639938012E+002
+2.53563204005E+007, +2.64231409636E+001, +4.58470903710E+002
+2.54813516896E+007, +2.55722010073E+001, +4.61215492929E+002
+2.56063829787E+007, +2.50294095893E+001, +4.62719716030E+002
+2.57314142678E+007, +2.46071655512E+001, +4.65428930533E+002
+2.58564455569E+007, +2.53014829292E+001, +4.69538064388E+002
+2.59814768461E+007, +2.61404441785E+001, +4.71638426117E+002
+2.61065081352E+007, +2.52641398617E+001, +4.76595697769E+002
+2.62315394243E+007, +2.58992765421E+001, +4.78315280571E+002
+2.63565707134E+007, +2.56587028145E+001, +4.80650464668E+002
+2.64816020025E+007, +2.56070490077E+001, +4.84849274233E+002
+2.66066332916E+007, +2.58530672522E+001, +4.86280280672E+002
+2.67316645807E+007, +2.73702597696E+001, +4.90729264205E+002
+2.68566958698E+007, +2.46269095142E+001, +4.92207140912E+002
+2.69817271589E+007, +2.60578146529E+001, +4.96720301948E+002
+2.71067584481E+007, +2.61712293736E+001, +4.99984259498E+002
+2.72317897372E+007, +2.66116273909E+001, +5.03401002931E+002
+2.73568210263E+007, +2.63680267481E+001, +5.06393688528E+002
+2.74818523154E+007, +2.59987332389E+001, +5.09535731826E+002
+2.76068836045E+007, +2.71095289029E+001, +5.11525303144E+002
+2.77319148936E+007, +2.73018791302E+001, +5.12356057484E+002
+2.78569461827E+007, +2.74473914661E+001, +5.17152653656E+002
+2.79819774718E+007, +2.69266595917E+001, +5.21169666982E+002
+2.81070087610E+007, +2.69392290098E+001, +5.24581289586E+002
+2.82320400501E+007, +2.67836686491E+001, +5.25922952038E+002
+2.83570713392E+007, +2.53834012266E+001, +5.30662007297E+002
+2.84821026283E+007, +2.60859428284E+001, +5.34487063089E+002
+2.86071339174E+007, +2.64399378641E+001, +5.37193138306E+002
+2.87321652065E+007, +2.57486426858E+001, +5.39979202255E+002
+2.88571964956E+007, +2.61780572490E+001, +5.42935127723E+002
+2.89822277847E+007, +2.59868671604E+001, +5.46173800971E+002
+2.91072590738E+007, +2.79250672744E+001, +5.51623321741E+002
+2.92322903630E+007, +2.71757714927E+001, +5.51469483205E+002
+2.93573216521E+007, +2.86668072034E+001, +5.56507764619E+002
+2.94823529412E+007, +2.66377008124E+001, +5.60798147799E+002
+2.96073842303E+007, +2.76531122607E+001, +5.63701582259E+002
+2.97324155194E+007, +2.62627300012E+001, +5.64544022328E+002
+2.98574468085E+007, +2.60499144241E+001, +5.68701911985E+002
+2.99824780976E+007, +2.75419039908E+001, +5.72547312190E+002
+3.01075093867E+007, +2.69583513587E+001, +5.77073799154E+002
+3.02325406758E+007, +2.68193022302E+001, +5.79088134274E+002
+3.03575719650E+007, +2.77525726782E+001, +5.82818380389E+002
+3.04826032541E+007, +2.60234822542E+001, +5.87705378427E+002
+3.06076345432E+007, +2.76557454410E+001, +5.89643381588E+002
+3.07326658323E+007, +2.83393571599E+001, +5.93827611710E+002
+3.08576971214E+007, +2.81547297154E+001, +5.98265119041E+002
+3.09827284105E+007, +2.75675976347E+001, +6.00400528763E+002
+3.11077596996E+007, +2.91341466679E+001, +6.03734824806E+002
+3.12327909887E+007, +2.97417720653E+001, +6.06811592004E+002
+3.13578222778E+007, +2.89420784798E+001, +6.09686471215E+002
+3.14828535670E+007, +2.85959625577E+001, +6.15264459362E+002
+3.16078848561E+007, +2.85261440674E+001, +6.18710459597E+002
+3.17329161452E+007, +2.73967845094E+001, +6.21093842478E+002
+3.18579474343E+007, +2.72993434532E+001, +6.29721665720E+002
+3.19829787234E+007, +2.94135513021E+001, +6.29366074938E+002
+3.21080100125E+007, +2.82850292922E+001, +6.31547148190E+002
+3.22330413016E+007, +2.91930009258E+001, +6.37142363264E+002
+3.23580725907E+007, +3.05757046007E+001, +6.41684024836E+002
+3.24831038798E+007, +2.91435613278E+001, +6.42806729535E+002
+3.26081351690E+007, +3.23290525692E+001, +6.46739855129E+002
+3.27331664581E+007, +2.79332920489E+001, +6.52227832140E+002
+3.28581977472E+007, +3.15072944916E+001, +6.56520227772E+002
+3.29832290363E+007, +2.99952960866E+001, +6.60687978583E+002
+3.31082603254E+007, +2.97348955373E+001, +6.62632828219E+002
+3.32332916145E+007, +3.30545206979E+001, +6.67300027199E+002
+3.33583229036E+007, +3.08316713923E+001, +6.71901416829E+002
+3.34833541927E+007, +3.02691855568E+001, +6.76230534700E+002
+3.36083854819E+007, +3.27283928269E+001, +6.79734474196E+002
+3.37334167710E+007, +3.13825470293E+001, +6.83223337573E+002
+3.38584480601E+007, +3.04631465699E+001, +6.88538883706E+002
+3.39834793492E+007, +3.25615171954E+001, +6.88768914679E+002
+3.41085106383E+007, +3.03292205039E+001, +6.94627498901E+002
+3.42335419274E+007, +3.16157561839E+001, +6.99225411401E+002
+3.43585732165E+007, +3.36468046736E+001, +7.02466371883E+002
+3.44836045056E+007, +3.32774789506E+001, +7.05397725455E+002
+3.46086357947E+007, +3.30108944346E+001, +7.09034294019E+002
+3.47336670839E+007, +3.20552173307E+001, +7.13272116086E+002
+3.48586983730E+007, +3.29785637728E+001, +7.21289152389E+002
+3.49837296621E+007, +3.30498539255E+001, +7.23893097294E+002
+3.51087609512E+007, +3.29602600086E+001, +7.29950280700E+002
+3.52337922403E+007, +3.39708697701E+001, +7.34684782987E+002
+3.53588235294E+007, +3.55987031523E+001, +7.34918343854E+002
+3.54838548185E+007, +3.28643589107E+001, +7.38585888636E+002
+3.56088861076E+007, +3.11905554804E+001, +7.45275534456E+002
+3.57339173967E+007, +3.12275227276E+001, +7.48271942500E+002
+3.58589486859E+007, +3.18970153081E+001, +7.51556557422E+002
+3.59839799750E+007, +3.38516303549E+001, +7.57574566017E+002
+3.61090112641E+007, +3.37410741182E+001, +7.61560640322E+002
+3.62340425532E+007, +3.26502958036E+001, +7.65919862918E+002
+3.63590738423E+007, +3.39908064618E+001, +7.70599974441E+002
+3.64841051314E+007, +3.52532469461E+001, +7.74042518098E+002
+3.66091364205E+007, +3.45049691856E+001, +7.81263611681E+002
+3.67341677096E+007, +3.46413999128E+001, +7.83522298696E+002
+3.68591989987E+007, +3.31651007435E+001, +7.90349966887E+002
+3.69842302879E+007, +3.28866683310E+001, +7.95041600214E+002
+3.71092615770E+007, +3.83800994583E+001, +7.97923495066E+002
+3.72342928661E+007, +3.18608143197E+001, +8.04286677320E+002
+3.73593241552E+007, +3.71517978011E+001, +8.07726689433E+002
+3.74843554443E+007, +3.55751497009E+001, +8.12345715444E+002
+3.76093867334E+007, +3.39463993855E+001, +8.15870626398E+002
+3.77344180225E+007, +3.49740652892E+001, +8.25567316695E+002
+3.78594493116E+007, +3.74377515285E+001, +8.30013955540E+002
+3.79844806008E+007, +3.95227290537E+001, +8.32050080392E+002
+3.81095118899E+007, +3.88367548528E+001, +8.39083785653E+002
+3.82345431790E+007, +3.34953713738E+001, +8.40995192586E+002
+3.83595744681E+007, +3.63244452204E+001, +8.51994705821E+002
+3.84846057572E+007, +3.90764672182E+001, +8.47056830104E+002
+3.86096370463E+007, +3.84160269141E+001, +8.58570320364E+002
+3.87346683354E+007, +3.70156567725E+001, +8.62960571596E+002
+3.88596996245E+007, +4.02920685575E+001, +8.71104855473E+002
+3.89847309136E+007, +4.09369906634E+001, +8.74914018467E+002
+3.91097622028E+007, +4.02445557511E+001, +8.83013696236E+002
+3.92347934919E+007, +4.00580624137E+001, +8.88439872001E+002
+3.93598247810E+007, +3.92456124579E+001, +8.91844620945E+002
+3.94848560701E+007, +4.07300361554E+001, +8.92060450279E+002
+3.96098873592E+007, +4.01432705172E+001, +9.04844488263E+002
+3.97349186483E+007, +3.88240955419E+001, +9.02528359258E+002
+3.98599499374E+007, +4.12357558854E+001, +9.12492659305E+002
+3.99849812265E+007, +3.73342834023E+001, +9.18995833089E+002
+4.01100125156E+007, +4.07305846263E+001, +9.25955454061E+002
