"# Channel 1"
"# Trace 1"
Frequency, Formatted Data, Formatted Data
+1.00000000000E+005, +8.29473209851E+001, +1.97150087927E+000
+3.18898623279E+005, +8.30150603193E+001, +5.70849557374E+000
+5.37797246558E+005, +8.30421731767E+001, +9.69945552374E+000
+7.56695869837E+005, +8.30543453588E+001, +1.36480701764E+001
+9.75594493116E+005, +8.31613950259E+001, +1.75995094583E+001
+1.19449311640E+006, +8.31414496653E+001, +2.13507335187E+001
+1.41339173967E+006, +8.29097277948E+001, +2.55463468208E+001
+1.63229036295E+006, +8.29911443174E+001, +2.94114425336E+001
+1.85118898623E+006, +8.31173775795E+001, +3.33632454011E+001
+2.07008760951E+006, +8.30673358471E+001, +3.73526114629E+001
+2.28898623279E+006, +8.31891212656E+001, +4.14216204955E+001
+2.50788485607E+006, +8.31747660110E+001, +4.51438277237E+001
+2.72678347935E+006, +8.30669178217E+001, +4.91993464109E+001
+2.94568210263E+006, +8.31294777500E+001, +5.31683830649E+001
+3.16458072591E+006, +8.30527742255E+001, +5.73168673660E+001
+3.38347934919E+006, +8.32965037429E+001, +6.12097798274E+001
+3.60237797247E+006, +8.33609176673E+001, +6.48592455709E+001
+3.82127659574E+006, +8.32674943904E+001, +6.88389201255E+001
+4.04017521902E+006, +8.35086702567E+001, +7.28102459946E+001
+4.25907384230E+006, +8.32977750060E+001, +7.68051308035E+001
+4.47797246558E+006, +8.35548803729E+001, +8.06220074819E+001
+4.69687108886E+006, +8.32817775231E+001, +8.48806928751E+001
+4.91576971214E+006, +8.34300460487E+001, +8.88010276158E+001
+5.13466833542E+006, +8.35255101799E+001, +9.26746950434E+001
+5.35356695870E+006, +8.36632930731E+001, +9.65871780902E+001
+5.57246558198E+006, +8.37371907252E+001, +1.00600808446E+002
+5.79136420526E+006, +8.40005165555E+001, +1.04622578770E+002
+6.01026282854E+006, +8.40095610090E+001, +1.08368634932E+002
+6.22916145181E+006, +8.39743520909E+001, +1.12538816089E+002
+6.44806007509E+006, +8.40942564029E+001, +1.16429460564E+002
+6.66695869837E+006, +8.43314579760E+001, +1.20481326143E+002
+6.88585732165E+006, +8.43489175932E+001, +1.24711724156E+002
+7.10475594493E+006, +8.45385627106E+001, +1.28580321109E+002
+7.32365456821E+006, +8.45917865575E+001, +1.32464724274E+002
+7.54255319149E+006, +8.46653270798E+001, +1.36444994557E+002
+7.76145181477E+006, +8.49777817391E+001, +1.40588544317E+002
+7.98035043805E+006, +8.51295146604E+001, +1.44579124923E+002
+8.19924906133E+006, +8.51146694685E+001, +1.48392704933E+002
+8.41814768461E+006, +8.55154073581E+001, +1.52454370900E+002
+8.63704630788E+006, +8.53630568877E+001, +1.56487116466E+002
+8.85594493116E+006, +8.55690126164E+001, +1.60642368972E+002
+9.07484355444E+006, +8.54100130587E+001, +1.64801805367E+002
+9.29374217772E+006, +8.58334974978E+001, +1.69084877018E+002
+9.51264080100E+006, +8.57756704656E+001, +1.72997812755E+002
+9.73153942428E+006, +8.62588720864E+001, +1.77353690432E+002
+9.95043804756E+006, +8.59266033843E+001, +1.81289203245E+002
+1.01693366708E+007, +8.63785986667E+001, +1.85109958387E+002
+1.03882352941E+007, +8.65606540514E+001, +1.89201112068E+002
+1.06071339174E+007, +8.64540035519E+001, +1.93306919503E+002
+1.08260325407E+007, +8.66219766659E+001, +1.97791391188E+002
+1.10449311640E+007, +8.68011238996E+001, +2.01728480224E+002
+1.12638297872E+007, +8.68146060823E+001, +2.06120110995E+002
+1.14827284105E+007, +8.73050220457E+001, +2.10008098132E+002
+1.17016270338E+007, +8.73964208644E+001, +2.14266571097E+002
+1.19205256571E+007, +8.76364165465E+001, +2.18294494380E+002
+1.21394242804E+007, +8.76279925872E+001, +2.22593207637E+002
+1.23583229036E+007, +8.82102470767E+001, +2.26929757661E+002
+1.25772215269E+007, +8.77959049919E+001, +2.30973262483E+002
+1.27961201502E+007, +8.81412879276E+001, +2.35156840959E+002
+1.30150187735E+007, +8.85090771446E+001, +2.39570657881E+002
+1.32339173967E+007, +8.85899743248E+001, +2.43965237739E+002
+1.34528160200E+007, +8.82566784593E+001, +2.48153379549E+002
+1.36717146433E+007, +8.86796596075E+001, +2.52483638244E+002
+1.38906132666E+007, +8.90557860729E+001, +2.56711826644E+002
+1.41095118899E+007, +8.95232189710E+001, +2.61367851071E+002
+1.43284105131E+007, +8.89853969445E+001, +2.65741602117E+002
+1.45473091364E+007, +9.00349269254E+001, +2.70262995852E+002
+1.47662077597E+007, +8.99441246386E+001, +2.74073559911E+002
+1.49851063830E+007, +9.06068815373E+001, +2.78785097645E+002
+1.52040050063E+007, +9.08322664086E+001, +2.83524825760E+002
+1.54229036295E+007, +9.10340595752E+001, +2.87659875581E+002
+1.56418022528E+007, +9.01124344648E+001, +2.92164705256E+002
+1.58607008761E+007, +9.05042717788E+001, +2.96616043667E+002
+1.60795994994E+007, +9.16048792367E+001, +3.00866021346E+002
+1.62984981227E+007, +9.18579955777E+001, +3.05293325913E+002
+1.65173967459E+007, +9.23127217168E+001, +3.10114964785E+002
+1.67362953692E+007, +9.21042497250E+001, +3.14466293679E+002
+1.69551939925E+007, +9.21686031055E+001, +3.18377240196E+002
+1.71740926158E+007, +9.14315744301E+001, +3.24541482663E+002
+1.73929912390E+007, +9.17097656413E+001, +3.27783069918E+002
+1.76118898623E+007, +9.26524429296E+001, +3.32523044838E+002
+1.78307884856E+007, +9.32670753603E+001, +3.36570961292E+002
+1.80496871089E+007, +9.38912675134E+001, +3.41425084932E+002
+1.82685857322E+007, +9.40816215499E+001, +3.47095875389E+002
+1.84874843554E+007, +9.41378847954E+001, +3.51104466908E+002
+1.87063829787E+007, +9.44713828248E+001, +3.56056991187E+002
+1.89252816020E+007, +9.52959377459E+001, +3.60705184612E+002
+1.91441802253E+007, +9.54263553039E+001, +3.64371760328E+002
+1.93630788486E+007, +9.54271948514E+001, +3.70273068007E+002
+1.95819774718E+007, +9.64823203202E+001, +3.74194834128E+002
+1.98008760951E+007, +9.61348355040E+001, +3.79311227859E+002
+2.00197747184E+007, +9.64906726936E+001, +3.85029423174E+002
+2.02386733417E+007, +9.60841175206E+001, +3.88315617202E+002
+2.04575719650E+007, +9.73523518072E+001, +3.93248685632E+002
+2.06764705882E+007, +9.69578222342E+001, +3.98721321142E+002
+2.08953692115E+007, +9.80139607963E+001, +4.03891160611E+002
+2.11142678348E+007, +9.92419825113E+001, +4.07958712753E+002
+2.13331664581E+007, +9.99244757522E+001, +4.13445565554E+002
+2.15520650814E+007, +9.98087142413E+001, +4.18459998424E+002
+2.17709637046E+007, +1.00293570822E+002, +4.23542735739E+002
+2.19898623279E+007, +1.00846165075E+002, +4.28709690799E+002
+2.22087609512E+007, +9.92944767916E+001, +4.32736489611E+002
+2.24276595745E+007, +1.02704519746E+002, +4.38173964362E+002
+2.26465581977E+007, +1.02446853269E+002, +4.43395305779E+002
+2.28654568210E+007, +1.03055061408E+002, +4.47878528090E+002
+2.30843554443E+007, +1.03308808372E+002, +4.53136185933E+002
+2.33032540676E+007, +1.03977349473E+002, +4.58769536840E+002
+2.35221526909E+007, +1.04134382226E+002, +4.64301303488E+002
+2.37410513141E+007, +1.03673530348E+002, +4.68660889704E+002
+2.39599499374E+007, +1.04630597806E+002, +4.75054912631E+002
+2.41788485607E+007, +1.06787513610E+002, +4.79741225848E+002
+2.43977471840E+007, +1.06158999412E+002, +4.84005306099E+002
+2.46166458073E+007, +1.07726036283E+002, +4.90287858763E+002
+2.48355444305E+007, +1.05556027784E+002, +4.95013056714E+002
+2.50544430538E+007, +1.08101142272E+002, +4.99691430145E+002
+2.52733416771E+007, +1.09031982589E+002, +5.05575019570E+002
+2.54922403004E+007, +1.08909065442E+002, +5.11834423506E+002
+2.57111389237E+007, +1.09588313975E+002, +5.16128426040E+002
+2.59300375469E+007, +1.09806147380E+002, +5.21673293049E+002
+2.61489361702E+007, +1.11147436860E+002, +5.27637086561E+002
+2.63678347935E+007, +1.10682810932E+002, +5.33957089299E+002
+2.65867334168E+007, +1.11387578508E+002, +5.38418499302E+002
+2.68056320401E+007, +1.11932647376E+002, +5.43854510949E+002
+2.70245306633E+007, +1.11640148793E+002, +5.50315238569E+002
+2.72434292866E+007, +1.12910856677E+002, +5.53528358013E+002
+2.74623279099E+007, +1.13776456666E+002, +5.61242639626E+002
+2.76812265332E+007, +1.14404700084E+002, +5.67403422081E+002
+2.79001251564E+007, +1.14532071536E+002, +5.74872992536E+002
+2.81190237797E+007, +1.16055757772E+002, +5.78364397968E+002
+2.83379224030E+007, +1.16761985220E+002, +5.84143902008E+002
+2.85568210263E+007, +1.15890238980E+002, +5.91596474850E+002
+2.87757196496E+007, +1.15478194005E+002, +5.98832755305E+002
+2.89946182728E+007, +1.18222069206E+002, +6.03528966816E+002
+2.92135168961E+007, +1.15493217582E+002, +6.12011142043E+002
+2.94324155194E+007, +1.19239755811E+002, +6.18391921386E+002
+2.96513141427E+007, +1.20442682543E+002, +6.23197207935E+002
+2.98702127660E+007, +1.18156630262E+002, +6.29587960047E+002
+3.00891113892E+007, +1.19608409280E+002, +6.36792838762E+002
+3.03080100125E+007, +1.22856426492E+002, +6.40168510053E+002
+3.05269086358E+007, +1.24083337461E+002, +6.48965559564E+002
+3.07458072591E+007, +1.22025990038E+002, +6.53802818528E+002
+3.09647058824E+007, +1.23315452186E+002, +6.62084136813E+002
+3.11836045056E+007, +1.24360155939E+002, +6.68335996099E+002
+3.14025031289E+007, +1.24835195782E+002, +6.72390365277E+002
+3.16214017522E+007, +1.26651950166E+002, +6.79902287729E+002
+3.18403003755E+007, +1.26296399237E+002, +6.89449306919E+002
+3.20591989987E+007, +1.27325687131E+002, +6.94279001912E+002
+3.22780976220E+007, +1.27314765877E+002, +7.00692191230E+002
+3.24969962453E+007, +1.27199900332E+002, +7.09392723073E+002
+3.27158948686E+007, +1.30875003329E+002, +7.13499639406E+002
+3.29347934919E+007, +1.28466320990E+002, +7.20616668399E+002
+3.31536921151E+007, +1.31740203471E+002, +7.26674640549E+002
+3.33725907384E+007, +1.33555879848E+002, +7.38805585291E+002
+3.35914893617E+007, +1.33193382839E+002, +7.43822307444E+002
+3.38103879850E+007, +1.32395806608E+002, +7.51474714785E+002
+3.40292866083E+007, +1.33609615016E+002, +7.60077286173E+002
+3.42481852315E+007, +1.36087712435E+002, +7.67684055483E+002
+3.44670838548E+007, +1.38121880733E+002, +7.74392602386E+002
+3.46859824781E+007, +1.37056206084E+002, +7.81437065662E+002
+3.49048811014E+007, +1.41571881033E+002, +7.92138053246E+002
+3.51237797247E+007, +1.40042711270E+002, +7.98195423102E+002
+3.53426783479E+007, +1.39877650097E+002, +8.07158351415E+002
+3.55615769712E+007, +1.42116188554E+002, +8.15005903381E+002
+3.57804755945E+007, +1.46242868293E+002, +8.18774814297E+002
+3.59993742178E+007, +1.48166423319E+002, +8.30754234896E+002
+3.62182728411E+007, +1.48988801538E+002, +8.33011641979E+002
+3.64371714643E+007, +1.48136798480E+002, +8.44849161714E+002
+3.66560700876E+007, +1.48814568531E+002, +8.55903724191E+002
+3.68749687109E+007, +1.51374974767E+002, +8.66710831579E+002
+3.70938673342E+007, +1.52568681699E+002, +8.71362864187E+002
+3.73127659574E+007, +1.50791029729E+002, +8.79236486333E+002
+3.75316645807E+007, +1.51148835903E+002, +8.89481365351E+002
+3.77505632040E+007, +1.57685882933E+002, +9.00311365113E+002
+3.79694618273E+007, +1.60523955076E+002, +9.05008794358E+002
+3.81883604506E+007, +1.58857834403E+002, +9.19487090533E+002
+3.84072590738E+007, +1.57588036444E+002, +9.25979126187E+002
+3.86261576971E+007, +1.61037939837E+002, +9.31709882367E+002
+3.88450563204E+007, +1.63560132940E+002, +9.42272419511E+002
+3.90639549437E+007, +1.63236229581E+002, +9.48115107649E+002
+3.92828535670E+007, +1.69526186384E+002, +9.64672136176E+002
+3.95017521902E+007, +1.68563959458E+002, +9.71303274389E+002
+3.97206508135E+007, +1.70716130837E+002, +9.87919238713E+002
+3.99395494368E+007, +1.73174664778E+002, +9.90600886614E+002
+4.01584480601E+007, +1.74598789100E+002, +1.00445000352E+003
+4.03773466834E+007, +1.79320007060E+002, +1.01605959477E+003
+4.05962453066E+007, +1.82195896756E+002, +1.02749676310E+003
+4.08151439299E+007, +1.81674724149E+002, +1.03194596841E+003
+4.10340425532E+007, +1.80117219211E+002, +1.04444012920E+003
+4.12529411765E+007, +1.79845177309E+002, +1.05581317609E+003
+4.14718397997E+007, +1.82931093636E+002, +1.06630679065E+003
+4.16907384230E+007, +1.90075023361E+002, +1.07860326375E+003
+4.19096370463E+007, +1.91854972863E+002, +1.08833381192E+003
+4.21285356696E+007, +1.92233985280E+002, +1.10125271812E+003
+4.23474342929E+007, +1.91577336732E+002, +1.11801954087E+003
+4.25663329161E+007, +2.02724750821E+002, +1.11830948547E+003
+4.27852315394E+007, +1.99798330245E+002, +1.13551967190E+003
+4.30041301627E+007, +2.03108281813E+002, +1.14585914540E+003
+4.32230287860E+007, +2.09779720683E+002, +1.15885372218E+003
+4.34419274093E+007, +2.10975259934E+002, +1.17556914498E+003
+4.36608260325E+007, +2.10716587123E+002, +1.18826073052E+003
+4.38797246558E+007, +2.07985716523E+002, +1.19802831312E+003
+4.40986232791E+007, +2.11408086256E+002, +1.21152777477E+003
+4.43175219024E+007, +2.23084386281E+002, +1.22124371879E+003
+4.45364205257E+007, +2.23826331065E+002, +1.24427635088E+003
+4.47553191489E+007, +2.31908013721E+002, +1.25864135875E+003
+4.49742177722E+007, +2.26137018557E+002, +1.26709971260E+003
+4.51931163955E+007, +2.34956407621E+002, +1.27540347909E+003
+4.54120150188E+007, +2.37325534076E+002, +1.29545224367E+003
+4.56309136421E+007, +2.40949182425E+002, +1.30521746601E+003
+4.58498122653E+007, +2.43532172744E+002, +1.31916722825E+003
+4.60687108886E+007, +2.38615815677E+002, +1.34374700819E+003
+4.62876095119E+007, +2.52412226752E+002, +1.35218715148E+003
+4.65065081352E+007, +2.61764555239E+002, +1.36922276359E+003
+4.67254067584E+007, +2.60237928422E+002, +1.37802312394E+003
+4.69443053817E+007, +2.59416877707E+002, +1.38412671133E+003
+4.71632040050E+007, +2.62832035256E+002, +1.41599414337E+003
+4.73821026283E+007, +2.65444965671E+002, +1.42926343445E+003
+4.76010012516E+007, +2.75117569460E+002, +1.44518019637E+003
+4.78198998748E+007, +2.70281269443E+002, +1.46726552980E+003
+4.80387984981E+007, +2.87463400409E+002, +1.48751142353E+003
+4.82576971214E+007, +2.96675138814E+002, +1.50011641849E+003
+4.84765957447E+007, +2.85874123970E+002, +1.51800325985E+003
+4.86954943680E+007, +3.08475682408E+002, +1.53739365145E+003
+4.89143929912E+007, +3.04107148003E+002, +1.56265969071E+003
+4.91332916145E+007, +3.13630454351E+002, +1.57932540366E+003
+4.93521902378E+007, +3.19186189799E+002, +1.58636433546E+003
+4.95710888611E+007, +3.35873461958E+002, +1.61273099688E+003
+4.97899874844E+007, +3.36760568808E+002, +1.61366852534E+003
+5.00088861076E+007, +3.26981045996E+002, +1.64540105428E+003
+5.02277847309E+007, +3.53724731290E+002, +1.67043522844E+003
+5.04466833542E+007, +3.76328314261E+002, +1.69384487476E+003
+5.06655819775E+007, +3.60753115860E+002, +1.71571182595E+003
+5.08844806008E+007, +3.65034360741E+002, +1.73082532118E+003
+5.11033792240E+007, +3.83874898491E+002, +1.76279291078E+003
+5.13222778473E+007, +3.86118845557E+002, +1.79080135338E+003
+5.15411764706E+007, +4.03653693387E+002, +1.79018447059E+003
+5.17600750939E+007, +4.02444785095E+002, +1.84980234837E+003
+5.19789737171E+007, +4.16108910262E+002, +1.86500834228E+003
+5.21978723404E+007, +4.20932233868E+002, +1.88043613099E+003
+5.24167709637E+007, +4.10310884765E+002, +1.90713943723E+003
+5.26356695870E+007, +4.51372616460E+002, +1.93523950017E+003
+5.28545682103E+007, +4.72506361092E+002, +1.97288039444E+003
+5.30734668335E+007, +4.76101536116E+002, +1.99351919633E+003
+5.32923654568E+007, +4.80160747703E+002, +2.03714415228E+003
+5.35112640801E+007, +5.03138999647E+002, +2.04672852061E+003
+5.37301627034E+007, +5.01279915883E+002, +2.08334061513E+003
+5.39490613267E+007, +5.19318882622E+002, +2.11208331182E+003
+5.41679599499E+007, +5.35218204484E+002, +2.14746052630E+003
+5.43868585732E+007, +5.53826736148E+002, +2.18262826553E+003
+5.46057571965E+007, +5.55123095395E+002, +2.20298493774E+003
+5.48246558198E+007, +5.92040625952E+002, +2.23115689763E+003
+5.50435544431E+007, +6.16830637153E+002, +2.30395063427E+003
+5.52624530663E+007, +6.24117801444E+002, +2.34462693033E+003
+5.54813516896E+007, +6.56078578091E+002, +2.34399428233E+003
+5.57002503129E+007, +6.66818358963E+002, +2.40460865867E+003
+5.59191489362E+007, +6.88403996517E+002, +2.43115743047E+003
+5.61380475594E+007, +7.20562960363E+002, +2.46572242811E+003
+5.63569461827E+007, +7.27677464128E+002, +2.51189870470E+003
+5.65758448060E+007, +7.61670477357E+002, +2.55981999542E+003
+5.67947434293E+007, +7.97268208126E+002, +2.57433681309E+003
+5.70136420526E+007, +8.10683906275E+002, +2.64168946257E+003
+5.72325406758E+007, +8.51544222553E+002, +2.66310035391E+003
+5.74514392991E+007, +8.36993593549E+002, +2.74430749723E+003
+5.76703379224E+007, +8.96308691773E+002, +2.76222181660E+003
+5.78892365457E+007, +9.17685632389E+002, +2.84115762436E+003
+5.81081351690E+007, +1.01695407341E+003, +2.89899705628E+003
+5.83270337922E+007, +9.98528181897E+002, +2.97575694115E+003
+5.85459324155E+007, +1.09628505601E+003, +2.93678513765E+003
+5.87648310388E+007, +1.09550876279E+003, +3.05193868243E+003
+5.89837296621E+007, +1.16044387533E+003, +3.08848409213E+003
+5.92026282854E+007, +1.28481329734E+003, +3.16148028603E+003
+5.94215269086E+007, +1.32248182026E+003, +3.22509706092E+003
+5.96404255319E+007, +1.30941716551E+003, +3.34997896304E+003
+5.98593241552E+007, +1.44683739246E+003, +3.36139212077E+003
+6.00782227785E+007, +1.47196058617E+003, +3.43656813282E+003
+6.02971214018E+007, +1.52787318987E+003, +3.44847816766E+003
+6.05160200250E+007, +1.59758271222E+003, +3.56034743314E+003
+6.07349186483E+007, +1.66970981518E+003, +3.62664783207E+003
+6.09538172716E+007, +1.74168248644E+003, +3.73023692277E+003
+6.11727158949E+007, +1.95747777456E+003, +3.77825000660E+003
+6.13916145181E+007, +1.98028102662E+003, +3.90877005183E+003
+6.16105131414E+007, +2.03827587467E+003, +3.95264019938E+003
+6.18294117647E+007, +2.20299370799E+003, +3.94858395959E+003
+6.20483103880E+007, +2.21927697332E+003, +4.01728100742E+003
+6.22672090113E+007, +2.45852942857E+003, +4.10527619033E+003
+6.24861076345E+007, +2.55630472450E+003, +4.20464893241E+003
+6.27050062578E+007, +2.76826033152E+003, +4.17106739688E+003
+6.29239048811E+007, +2.82223119432E+003, +4.36610627494E+003
+6.31428035044E+007, +3.11533730282E+003, +4.51895516262E+003
+6.33617021277E+007, +3.21727021825E+003, +4.42123290670E+003
+6.35806007509E+007, +3.52922332887E+003, +4.55265953005E+003
+6.37994993742E+007, +3.68512038145E+003, +4.64005547189E+003
+6.40183979975E+007, +3.85433150748E+003, +4.62261204144E+003
+6.42372966208E+007, +4.26490784011E+003, +4.76101789098E+003
+6.44561952441E+007, +4.39964682584E+003, +4.63982723316E+003
+6.46750938673E+007, +4.84050269446E+003, +4.64170376385E+003
+6.48939924906E+007, +5.23544461885E+003, +4.66967300005E+003
+6.51128911139E+007, +5.72775794228E+003, +4.64452015084E+003
+6.53317897372E+007, +5.83976342177E+003, +4.18540549101E+003
+6.55506883605E+007, +6.14696402089E+003, +4.21269019408E+003
+6.57695869837E+007, +6.34841182621E+003, +4.29236231773E+003
+6.59884856070E+007, +6.82111774229E+003, +3.77612878946E+003
+6.62073842303E+007, +7.46362446982E+003, +3.74174270382E+003
+6.64262828536E+007, +7.47551595677E+003, +3.53257308056E+003
+6.66451814768E+007, +7.91084153330E+003, +3.43065641271E+003
+6.68640801001E+007, +8.63742197845E+003, +2.70234930402E+003
+6.70829787234E+007, +8.70393254045E+003, +2.33262622576E+003
+6.73018773467E+007, +8.26889201474E+003, +1.83950090400E+003
+6.75207759700E+007, +8.51552824685E+003, +1.11540915914E+003
+6.77396745932E+007, +9.01077501645E+003, +9.62010108067E+002
+6.79585732165E+007, +8.69939753060E+003, +5.50550705890E+001
+6.81774718398E+007, +8.89979122923E+003, -4.54353899249E+002
+6.83963704631E+007, +8.63753337282E+003, -7.43867430930E+002
+6.86152690864E+007, +8.29681739177E+003, -1.36191821926E+003
+6.88341677096E+007, +8.20930181345E+003, -1.63242731718E+003
+6.90530663329E+007, +7.81739549912E+003, -2.01137928299E+003
+6.92719649562E+007, +7.55460029249E+003, -2.38292443996E+003
+6.94908635795E+007, +7.27510327218E+003, -2.57308799404E+003
+6.97097622028E+007, +7.09360706969E+003, -3.11029729983E+003
+6.99286608260E+007, +6.80844761925E+003, -3.33297169486E+003
+7.01475594493E+007, +6.28628895700E+003, -3.53258974324E+003
