"# Channel 1"
"# Trace 1"
Frequency, Formatted Data, Formatted Data
+1.00000000000E+005, +3.35813531429E+001, +1.62248447504E+000
+2.25031289111E+005, +3.35586865781E+001, +3.73036908183E+000
+3.50062578223E+005, +3.35878088574E+001, +5.82308979709E+000
+4.75093867334E+005, +3.35854845283E+001, +7.86768776537E+000
+6.00125156446E+005, +3.36259926731E+001, +9.94180511722E+000
+7.25156445557E+005, +3.35923051596E+001, +1.19577427478E+001
+8.50187734668E+005, +3.36358864890E+001, +1.40034201694E+001
+9.75219023780E+005, +3.36253405473E+001, +1.59991386279E+001
+1.10025031289E+006, +3.36671602558E+001, +1.81003902843E+001
+1.22528160200E+006, +3.36565555010E+001, +2.01952103225E+001
+1.35031289111E+006, +3.36822057077E+001, +2.21897378590E+001
+1.47534418023E+006, +3.36823570427E+001, +2.42191945916E+001
+1.60037546934E+006, +3.36438777620E+001, +2.62368472367E+001
+1.72540675845E+006, +3.36424513851E+001, +2.83099565979E+001
+1.85043804756E+006, +3.36678932690E+001, +3.03941627635E+001
+1.97546933667E+006, +3.37292408456E+001, +3.24070663003E+001
+2.10050062578E+006, +3.37134002472E+001, +3.44806058482E+001
+2.22553191489E+006, +3.36484624901E+001, +3.64947739877E+001
+2.35056320401E+006, +3.37430434441E+001, +3.85394281493E+001
+2.47559449312E+006, +3.36943052583E+001, +4.06178482713E+001
+2.60062578223E+006, +3.37969233876E+001, +4.25651374359E+001
+2.72565707134E+006, +3.37259804065E+001, +4.46812780459E+001
+2.85068836045E+006, +3.37398998541E+001, +4.66578700998E+001
+2.97571964956E+006, +3.37971002570E+001, +4.87136751503E+001
+3.10075093867E+006, +3.37610133804E+001, +5.07957807960E+001
+3.22578222778E+006, +3.37470531576E+001, +5.27941918294E+001
+3.35081351690E+006, +3.37523514465E+001, +5.49017796198E+001
+3.47584480601E+006, +3.38420501875E+001, +5.69051253330E+001
+3.60087609512E+006, +3.37694958275E+001, +5.90122899470E+001
+3.72590738423E+006, +3.39184567075E+001, +6.10496344816E+001
+3.85093867334E+006, +3.38383150532E+001, +6.30294322335E+001
+3.97596996245E+006, +3.39500358882E+001, +6.50580382357E+001
+4.10100125156E+006, +3.40999624656E+001, +6.72847450243E+001
+4.22603254068E+006, +3.39801683426E+001, +6.91816310203E+001
+4.35106382979E+006, +3.39706720273E+001, +7.13155381349E+001
+4.47609511890E+006, +3.40286263661E+001, +7.33296790607E+001
+4.60112640801E+006, +3.39031077869E+001, +7.53615315269E+001
+4.72615769712E+006, +3.41075558492E+001, +7.74624665121E+001
+4.85118898623E+006, +3.38598665584E+001, +7.94378822067E+001
+4.97622027534E+006, +3.39864051770E+001, +8.15854328114E+001
+5.10125156446E+006, +3.39568238111E+001, +8.36112498141E+001
+5.22628285357E+006, +3.41782335052E+001, +8.56493791683E+001
+5.35131414268E+006, +3.40746258440E+001, +8.79283897688E+001
+5.47634543179E+006, +3.40590028089E+001, +8.97967722374E+001
+5.60137672090E+006, +3.42774719759E+001, +9.18187075383E+001
+5.72640801001E+006, +3.41600094385E+001, +9.39637739720E+001
+5.85143929912E+006, +3.41036417686E+001, +9.60438000221E+001
+5.97647058824E+006, +3.41937494167E+001, +9.80586506903E+001
+6.10150187735E+006, +3.43667182185E+001, +1.00096752723E+002
+6.22653316646E+006, +3.43591465038E+001, +1.02330971824E+002
+6.35156445557E+006, +3.43227894608E+001, +1.04378489253E+002
+6.47659574468E+006, +3.43260604702E+001, +1.06435183530E+002
+6.60162703379E+006, +3.45532062524E+001, +1.08455649807E+002
+6.72665832290E+006, +3.44487672857E+001, +1.10617392944E+002
+6.85168961202E+006, +3.45448096176E+001, +1.12729683697E+002
+6.97672090113E+006, +3.45188347822E+001, +1.14798025948E+002
+7.10175219024E+006, +3.45827409671E+001, +1.16811748536E+002
+7.22678347935E+006, +3.46683866637E+001, +1.18842427073E+002
+7.35181476846E+006, +3.45750457528E+001, +1.21112632991E+002
+7.47684605757E+006, +3.46762862975E+001, +1.23151212093E+002
+7.60187734668E+006, +3.45922210611E+001, +1.25247782131E+002
+7.72690863579E+006, +3.48540756708E+001, +1.27247854321E+002
+7.85193992491E+006, +3.48142124098E+001, +1.29448450222E+002
+7.97697121402E+006, +3.48965379033E+001, +1.31512785322E+002
+8.10200250313E+006, +3.49340188882E+001, +1.33593040699E+002
+8.22703379224E+006, +3.47779815704E+001, +1.35678766948E+002
+8.35206508135E+006, +3.48562444406E+001, +1.37753905301E+002
+8.47709637046E+006, +3.48647500271E+001, +1.39963246620E+002
+8.60212765957E+006, +3.50859554978E+001, +1.42029890485E+002
+8.72715894869E+006, +3.48775181487E+001, +1.44282723400E+002
+8.85219023780E+006, +3.49248460051E+001, +1.46392874191E+002
+8.97722152691E+006, +3.49514310015E+001, +1.48548199970E+002
+9.10225281602E+006, +3.51798703505E+001, +1.50763202316E+002
+9.22728410513E+006, +3.52120857866E+001, +1.52797995429E+002
+9.35231539424E+006, +3.51849811535E+001, +1.54907750486E+002
+9.47734668335E+006, +3.52119280870E+001, +1.57142472178E+002
+9.60237797247E+006, +3.51995987302E+001, +1.59097768160E+002
+9.72740926158E+006, +3.52023686831E+001, +1.61322303572E+002
+9.85244055069E+006, +3.53006518756E+001, +1.63453006980E+002
+9.97747183980E+006, +3.52113838858E+001, +1.65598445266E+002
+1.01025031289E+007, +3.52331903296E+001, +1.67726415295E+002
+1.02275344180E+007, +3.53613265295E+001, +1.69809405896E+002
+1.03525657071E+007, +3.54877817916E+001, +1.72173985162E+002
+1.04775969962E+007, +3.55156272438E+001, +1.74301802515E+002
+1.06026282854E+007, +3.55440597059E+001, +1.76328805955E+002
+1.07276595745E+007, +3.53874789601E+001, +1.78638821399E+002
+1.08526908636E+007, +3.56030573978E+001, +1.80550761926E+002
+1.09777221527E+007, +3.53673070323E+001, +1.82861740794E+002
+1.11027534418E+007, +3.57339528033E+001, +1.85182412008E+002
+1.12277847309E+007, +3.54527641723E+001, +1.87362919810E+002
+1.13528160200E+007, +3.54892418121E+001, +1.89550744046E+002
+1.14778473091E+007, +3.57909257702E+001, +1.91829115864E+002
+1.16028785982E+007, +3.59323083614E+001, +1.93881818645E+002
+1.17279098874E+007, +3.60310551015E+001, +1.96229167605E+002
+1.18529411765E+007, +3.61533897937E+001, +1.98450059473E+002
+1.19779724656E+007, +3.58600337054E+001, +2.00673251436E+002
+1.21030037547E+007, +3.59320995476E+001, +2.03009393535E+002
+1.22280350438E+007, +3.59378513421E+001, +2.04941835960E+002
+1.23530663329E+007, +3.59903462512E+001, +2.07294270592E+002
+1.24780976220E+007, +3.60347415460E+001, +2.09614479499E+002
+1.26031289111E+007, +3.61770212814E+001, +2.11738430330E+002
+1.27281602003E+007, +3.61438979910E+001, +2.13834746365E+002
+1.28531914894E+007, +3.61386655940E+001, +2.16249490232E+002
+1.29782227785E+007, +3.59763021050E+001, +2.18738832327E+002
+1.31032540676E+007, +3.61345788194E+001, +2.20775015722E+002
+1.32282853567E+007, +3.63942293466E+001, +2.22716028894E+002
+1.33533166458E+007, +3.63485416365E+001, +2.25283330900E+002
+1.34783479349E+007, +3.61016990846E+001, +2.27706304694E+002
+1.36033792240E+007, +3.64122479758E+001, +2.29397014691E+002
+1.37284105131E+007, +3.62915083227E+001, +2.31663291095E+002
+1.38534418023E+007, +3.67677808784E+001, +2.34392769737E+002
+1.39784730914E+007, +3.67295255193E+001, +2.36620460544E+002
+1.41035043805E+007, +3.64960730810E+001, +2.38998348429E+002
+1.42285356696E+007, +3.68175447804E+001, +2.41084308585E+002
+1.43535669587E+007, +3.68818090903E+001, +2.43386199260E+002
+1.44785982478E+007, +3.67030949108E+001, +2.45725909216E+002
+1.46036295369E+007, +3.69438457499E+001, +2.47888550306E+002
+1.47286608260E+007, +3.70107994552E+001, +2.50580008069E+002
+1.48536921151E+007, +3.69119458025E+001, +2.52772384169E+002
+1.49787234043E+007, +3.69474243187E+001, +2.55364064468E+002
+1.51037546934E+007, +3.70960633447E+001, +2.57545178281E+002
+1.52287859825E+007, +3.72085191340E+001, +2.60199208435E+002
+1.53538172716E+007, +3.71841234898E+001, +2.61989027721E+002
+1.54788485607E+007, +3.74037562367E+001, +2.64396268673E+002
+1.56038798498E+007, +3.72743612031E+001, +2.66911552330E+002
+1.57289111389E+007, +3.75392987009E+001, +2.69464813452E+002
+1.58539424280E+007, +3.73551948432E+001, +2.71988131991E+002
+1.59789737171E+007, +3.76314650536E+001, +2.73637192773E+002
+1.61040050063E+007, +3.73328413918E+001, +2.75910392736E+002
+1.62290362954E+007, +3.78615491922E+001, +2.78577233393E+002
+1.63540675845E+007, +3.79967509389E+001, +2.80743766480E+002
+1.64790988736E+007, +3.81936789177E+001, +2.83725757812E+002
+1.66041301627E+007, +3.75366195778E+001, +2.85752946857E+002
+1.67291614518E+007, +3.80269196266E+001, +2.88178979503E+002
+1.68541927409E+007, +3.81757597372E+001, +2.90763842744E+002
+1.69792240300E+007, +3.83588798600E+001, +2.93245421847E+002
+1.71042553191E+007, +3.72666968375E+001, +2.96076220153E+002
+1.72292866083E+007, +3.81635816158E+001, +2.97899576092E+002
+1.73543178974E+007, +3.86270352687E+001, +3.00541718239E+002
+1.74793491865E+007, +3.80431199256E+001, +3.02935567310E+002
+1.76043804756E+007, +3.84550876218E+001, +3.05160196249E+002
+1.77294117647E+007, +3.80310886121E+001, +3.07995445097E+002
+1.78544430538E+007, +3.87405201032E+001, +3.10406115297E+002
+1.79794743429E+007, +3.85909354595E+001, +3.12938411464E+002
+1.81045056320E+007, +3.85070162757E+001, +3.15384184983E+002
+1.82295369212E+007, +3.90938077614E+001, +3.17448802860E+002
+1.83545682103E+007, +3.87441349228E+001, +3.20285135452E+002
+1.84795994994E+007, +3.90736000016E+001, +3.23100849577E+002
+1.86046307885E+007, +3.89828142579E+001, +3.24855176431E+002
+1.87296620776E+007, +3.89403965249E+001, +3.27671023614E+002
+1.88546933667E+007, +3.88570194864E+001, +3.29893510985E+002
+1.89797246558E+007, +3.98525644081E+001, +3.32415949012E+002
+1.91047559449E+007, +3.98162368527E+001, +3.34383495134E+002
+1.92297872340E+007, +3.95056016702E+001, +3.38193083155E+002
+1.93548185232E+007, +4.00448477420E+001, +3.40552954676E+002
+1.94798498123E+007, +4.02113218022E+001, +3.42956909140E+002
+1.96048811014E+007, +4.01079015489E+001, +3.45774988540E+002
+1.97299123905E+007, +4.00934245579E+001, +3.48237121941E+002
+1.98549436796E+007, +3.91528503757E+001, +3.51042911186E+002
+1.99799749687E+007, +4.05889936256E+001, +3.53238338447E+002
+2.01050062578E+007, +4.04431660462E+001, +3.55515395544E+002
+2.02300375469E+007, +4.11664376228E+001, +3.58806856335E+002
+2.03550688360E+007, +4.10752949559E+001, +3.60816436415E+002
+2.04801001252E+007, +4.11016507998E+001, +3.63883365721E+002
+2.06051314143E+007, +4.15678748672E+001, +3.65719755983E+002
+2.07301627034E+007, +4.09757192980E+001, +3.68951099391E+002
+2.08551939925E+007, +4.14683958739E+001, +3.71301437193E+002
+2.09802252816E+007, +4.04491252602E+001, +3.73925479141E+002
+2.11052565707E+007, +4.25251813668E+001, +3.77397468178E+002
+2.12302878598E+007, +4.25210807009E+001, +3.79575727543E+002
+2.13553191489E+007, +4.28601242616E+001, +3.82169586024E+002
+2.14803504380E+007, +4.21747199781E+001, +3.84913862276E+002
+2.16053817272E+007, +4.19419785594E+001, +3.88026418371E+002
+2.17304130163E+007, +4.19874251373E+001, +3.91069013050E+002
+2.18554443054E+007, +4.21252489872E+001, +3.93275662073E+002
+2.19804755945E+007, +4.22056746210E+001, +3.95761416824E+002
+2.21055068836E+007, +4.29029141716E+001, +3.97873489022E+002
+2.22305381727E+007, +4.26441924572E+001, +4.00836633582E+002
+2.23555694618E+007, +4.31520294606E+001, +4.04421903682E+002
+2.24806007509E+007, +4.31204526582E+001, +4.07068848389E+002
+2.26056320401E+007, +4.36349273162E+001, +4.09694109468E+002
+2.27306633292E+007, +4.36960076309E+001, +4.13463328696E+002
+2.28556946183E+007, +4.36665668962E+001, +4.14709535525E+002
+2.29807259074E+007, +4.35979921966E+001, +4.17941052875E+002
+2.31057571965E+007, +4.38497201815E+001, +4.20462086974E+002
+2.32307884856E+007, +4.46812182419E+001, +4.23878446938E+002
+2.33558197747E+007, +4.45662974407E+001, +4.25593804639E+002
+2.34808510638E+007, +4.41193805091E+001, +4.29568206250E+002
+2.36058823529E+007, +4.48631534657E+001, +4.31362390571E+002
+2.37309136421E+007, +4.55211876323E+001, +4.33625897021E+002
+2.38559449312E+007, +4.48306059536E+001, +4.38232359735E+002
+2.39809762203E+007, +4.66829823333E+001, +4.39514060431E+002
+2.41060075094E+007, +4.62270424372E+001, +4.43488232359E+002
+2.42310387985E+007, +4.60641000312E+001, +4.44998078850E+002
+2.43560700876E+007, +4.58811568650E+001, +4.48318372264E+002
+2.44811013767E+007, +4.62110278806E+001, +4.51889144065E+002
+2.46061326658E+007, +4.60471708036E+001, +4.53687714768E+002
+2.47311639549E+007, +4.66318357429E+001, +4.56531456077E+002
+2.48561952441E+007, +4.78570237889E+001, +4.59277383494E+002
+2.49812265332E+007, +4.68711184057E+001, +4.62779079251E+002
+2.51062578223E+007, +4.76240134660E+001, +4.65859249674E+002
+2.52312891114E+007, +4.72957107148E+001, +4.67522950508E+002
+2.53563204005E+007, +4.73588195325E+001, +4.71031531323E+002
+2.54813516896E+007, +4.67839385401E+001, +4.73719375480E+002
+2.56063829787E+007, +4.72296541114E+001, +4.77155088533E+002
+2.57314142678E+007, +4.79980946165E+001, +4.80632521219E+002
+2.58564455569E+007, +4.81026952354E+001, +4.83609224142E+002
+2.59814768461E+007, +4.81076655250E+001, +4.86501453649E+002
+2.61065081352E+007, +4.80996971368E+001, +4.89366695587E+002
+2.62315394243E+007, +4.88028103283E+001, +4.92417812065E+002
+2.63565707134E+007, +4.83422942419E+001, +4.96503781900E+002
+2.64816020025E+007, +4.80837087985E+001, +5.00688766181E+002
+2.66066332916E+007, +4.84462699226E+001, +5.03220516545E+002
+2.67316645807E+007, +4.91458914129E+001, +5.05640218762E+002
+2.68566958698E+007, +4.81499325687E+001, +5.08584283206E+002
+2.69817271589E+007, +4.78474922758E+001, +5.11348958648E+002
+2.71067584481E+007, +4.90008013722E+001, +5.15538014150E+002
+2.72317897372E+007, +4.93282592846E+001, +5.17758721870E+002
+2.73568210263E+007, +4.94799538066E+001, +5.20555471271E+002
+2.74818523154E+007, +5.11506083743E+001, +5.24248357119E+002
+2.76068836045E+007, +5.04495205016E+001, +5.27743148997E+002
+2.77319148936E+007, +4.99148844284E+001, +5.30831231897E+002
+2.78569461827E+007, +4.95604717099E+001, +5.32780036529E+002
+2.79819774718E+007, +5.03599576032E+001, +5.37663016665E+002
+2.81070087610E+007, +5.06255939486E+001, +5.39103954902E+002
+2.82320400501E+007, +5.08786265868E+001, +5.43047181999E+002
+2.83570713392E+007, +5.12565775902E+001, +5.47607079587E+002
+2.84821026283E+007, +5.12592076287E+001, +5.50665336998E+002
+2.86071339174E+007, +5.11457671997E+001, +5.54680319797E+002
+2.87321652065E+007, +5.10589058657E+001, +5.56849522068E+002
+2.88571964956E+007, +5.05516763511E+001, +5.60336181607E+002
+2.89822277847E+007, +5.28291284315E+001, +5.64241031946E+002
+2.91072590738E+007, +5.03261678882E+001, +5.68125221713E+002
+2.92322903630E+007, +5.23332583935E+001, +5.71029253024E+002
+2.93573216521E+007, +5.27195167178E+001, +5.75095308279E+002
+2.94823529412E+007, +5.31807240206E+001, +5.79019139995E+002
+2.96073842303E+007, +5.36350211727E+001, +5.82718441590E+002
+2.97324155194E+007, +5.38330312392E+001, +5.85698893169E+002
+2.98574468085E+007, +5.35215792987E+001, +5.88749072221E+002
+2.99824780976E+007, +5.19254198175E+001, +5.91974780957E+002
+3.01075093867E+007, +5.30100070235E+001, +5.96545093887E+002
+3.02325406758E+007, +5.21514629477E+001, +5.99416111813E+002
+3.03575719650E+007, +5.33283193994E+001, +6.04599510183E+002
+3.04826032541E+007, +5.44863030270E+001, +6.05760732483E+002
+3.06076345432E+007, +5.32745299056E+001, +6.10864755558E+002
+3.07326658323E+007, +5.44796964315E+001, +6.13597034710E+002
+3.08576971214E+007, +5.52867096792E+001, +6.16697709859E+002
+3.09827284105E+007, +5.30017602892E+001, +6.20443525582E+002
+3.11077596996E+007, +5.57520570308E+001, +6.25169552705E+002
+3.12327909887E+007, +5.31846545578E+001, +6.30258643184E+002
+3.13578222778E+007, +5.43195388290E+001, +6.32389277285E+002
+3.14828535670E+007, +5.60175863367E+001, +6.38001984170E+002
+3.16078848561E+007, +5.49976147373E+001, +6.41152712161E+002
+3.17329161452E+007, +5.66393851845E+001, +6.43613088157E+002
+3.18579474343E+007, +5.73225290310E+001, +6.46651848600E+002
+3.19829787234E+007, +5.78999827877E+001, +6.52373579907E+002
+3.21080100125E+007, +5.61957448504E+001, +6.57899138888E+002
+3.22330413016E+007, +5.55767458109E+001, +6.58686625417E+002
+3.23580725907E+007, +5.76132216060E+001, +6.63088789258E+002
+3.24831038798E+007, +5.69898848889E+001, +6.67349751745E+002
+3.26081351690E+007, +5.74543044499E+001, +6.71792198262E+002
+3.27331664581E+007, +5.91334317253E+001, +6.75615856703E+002
+3.28581977472E+007, +5.74930309117E+001, +6.78540497247E+002
+3.29832290363E+007, +5.93560255939E+001, +6.84107903355E+002
+3.31082603254E+007, +5.93444719061E+001, +6.88311361748E+002
+3.32332916145E+007, +5.98614278810E+001, +6.92655825176E+002
+3.33583229036E+007, +5.87342218388E+001, +6.98340258074E+002
+3.34833541927E+007, +5.96788430190E+001, +7.02902935080E+002
+3.36083854819E+007, +6.03996087747E+001, +7.04833823681E+002
+3.37334167710E+007, +5.86545835952E+001, +7.10704782634E+002
+3.38584480601E+007, +6.08311662387E+001, +7.09846867505E+002
+3.39834793492E+007, +6.16995796723E+001, +7.19098991233E+002
+3.41085106383E+007, +5.85531343104E+001, +7.24637506201E+002
+3.42335419274E+007, +6.25709038935E+001, +7.26548318322E+002
+3.43585732165E+007, +6.14849648851E+001, +7.31888105476E+002
+3.44836045056E+007, +6.27827198927E+001, +7.36908824579E+002
+3.46086357947E+007, +6.40534722410E+001, +7.40831627066E+002
+3.47336670839E+007, +6.49040236789E+001, +7.44090878533E+002
+3.48586983730E+007, +6.49331001056E+001, +7.51706162912E+002
+3.49837296621E+007, +6.31561528111E+001, +7.54284882441E+002
+3.51087609512E+007, +6.23563973239E+001, +7.58886791608E+002
+3.52337922403E+007, +6.40400935082E+001, +7.62370839562E+002
+3.53588235294E+007, +6.38072269576E+001, +7.67898000781E+002
+3.54838548185E+007, +6.56644957359E+001, +7.71542567575E+002
+3.56088861076E+007, +6.78295261160E+001, +7.73675353573E+002
+3.57339173967E+007, +6.44503123408E+001, +7.81729838723E+002
+3.58589486859E+007, +6.53668818436E+001, +7.84177681194E+002
+3.59839799750E+007, +6.67688403049E+001, +7.86381931632E+002
+3.61090112641E+007, +6.31313248666E+001, +7.96296146247E+002
+3.62340425532E+007, +6.73249128018E+001, +7.99089779578E+002
+3.63590738423E+007, +6.79480236988E+001, +8.03575286828E+002
+3.64841051314E+007, +6.77941034382E+001, +8.08947772128E+002
+3.66091364205E+007, +7.23159305421E+001, +8.15448562539E+002
+3.67341677096E+007, +6.76655048226E+001, +8.20543402520E+002
+3.68591989987E+007, +7.07968397740E+001, +8.25599137555E+002
+3.69842302879E+007, +6.91391716653E+001, +8.27463645769E+002
+3.71092615770E+007, +6.72836632468E+001, +8.36247969603E+002
+3.72342928661E+007, +6.72482829916E+001, +8.37992156841E+002
+3.73593241552E+007, +7.21000681079E+001, +8.42423232704E+002
+3.74843554443E+007, +7.30722022475E+001, +8.51639932964E+002
+3.76093867334E+007, +7.27427621621E+001, +8.56212722695E+002
+3.77344180225E+007, +6.99915692177E+001, +8.59260617164E+002
+3.78594493116E+007, +7.43288401983E+001, +8.62486616361E+002
+3.79844806008E+007, +6.78341993043E+001, +8.68875902384E+002
+3.81095118899E+007, +6.84995227393E+001, +8.75346336364E+002
+3.82345431790E+007, +7.06154746118E+001, +8.76224347130E+002
+3.83595744681E+007, +6.96851305293E+001, +8.84260405947E+002
+3.84846057572E+007, +7.38288434688E+001, +8.91579906496E+002
+3.86096370463E+007, +7.42435671979E+001, +8.95383673235E+002
+3.87346683354E+007, +7.46394099020E+001, +9.03024985466E+002
+3.88596996245E+007, +7.46751871253E+001, +9.11811834938E+002
+3.89847309136E+007, +7.53618693591E+001, +9.12183242917E+002
+3.91097622028E+007, +7.77440524528E+001, +9.21514805752E+002
+3.92347934919E+007, +7.64947303053E+001, +9.30687381314E+002
+3.93598247810E+007, +7.79596322217E+001, +9.35151524533E+002
+3.94848560701E+007, +7.74761384845E+001, +9.38660142741E+002
+3.96098873592E+007, +7.85375801960E+001, +9.44914175379E+002
+3.97349186483E+007, +7.73982412450E+001, +9.50532585115E+002
+3.98599499374E+007, +7.65279133332E+001, +9.58075413571E+002
+3.99849812265E+007, +8.12834299534E+001, +9.66971424366E+002
+4.01100125156E+007, +8.10166204919E+001, +9.66626957523E+002
