"# Channel 1"
"# Trace 1"
Frequency, Formatted Data, Formatted Data
+1.00000000000E+005, +2.96083317551E+002, -5.25189398301E+000
+2.25031289111E+005, +2.94452142970E+002, +5.02303145823E+000
+3.50062578223E+005, +2.93613864563E+002, +5.85844053918E+000
+4.75093867334E+005, +2.93181733420E+002, +8.29727809061E+000
+6.00125156446E+005, +2.93788325720E+002, +1.05301191531E+001
+7.25156445557E+005, +2.92621251987E+002, +1.20273760512E+001
+8.50187734668E+005, +2.94027228655E+002, +1.56063140922E+001
+9.75219023780E+005, +2.95646985109E+002, +1.70261840601E+001
+1.10025031289E+006, +2.94680755936E+002, +1.86390076384E+001
+1.22528160200E+006, +2.94063329726E+002, +2.09930085330E+001
+1.35031289111E+006, +2.95410423041E+002, +2.28281584426E+001
+1.47534418023E+006, +2.94632473176E+002, +2.56293040839E+001
+1.60037546934E+006, +2.95468538684E+002, +2.62672053094E+001
+1.72540675845E+006, +2.95642006506E+002, +2.79919514944E+001
+1.85043804756E+006, +2.95599693146E+002, +3.15324670046E+001
+1.97546933667E+006, +2.96005369830E+002, +3.23681555681E+001
+2.10050062578E+006, +2.96548342812E+002, +3.52905464953E+001
+2.22553191489E+006, +2.96113599710E+002, +3.77864451548E+001
+2.35056320401E+006, +2.95987531259E+002, +4.00197445814E+001
+2.47559449312E+006, +2.97206270541E+002, +4.04850866337E+001
+2.60062578223E+006, +2.96027628952E+002, +4.40969543901E+001
+2.72565707134E+006, +2.96563606967E+002, +4.53636456631E+001
+2.85068836045E+006, +2.95790199091E+002, +4.75747347634E+001
+2.97571964956E+006, +2.95506062664E+002, +4.92695881635E+001
+3.10075093867E+006, +2.96838065341E+002, +5.11242379793E+001
+3.22578222778E+006, +2.95803876809E+002, +5.28763251984E+001
+3.35081351690E+006, +2.95962888071E+002, +5.59961427168E+001
+3.47584480601E+006, +2.96342080483E+002, +5.68536045741E+001
+3.60087609512E+006, +2.95799979718E+002, +5.95346103979E+001
+3.72590738423E+006, +2.95111568251E+002, +6.13650434843E+001
+3.85093867334E+006, +2.96159372968E+002, +6.41444865417E+001
+3.97596996245E+006, +2.94743006346E+002, +6.61338702001E+001
+4.10100125156E+006, +2.96977177100E+002, +7.00246859110E+001
+4.22603254068E+006, +2.97641343230E+002, +6.98976826950E+001
+4.35106382979E+006, +2.97394975981E+002, +7.17557143177E+001
+4.47609511890E+006, +2.96312611191E+002, +7.42225181331E+001
+4.60112640801E+006, +2.97161986232E+002, +7.45138995098E+001
+4.72615769712E+006, +2.97084707796E+002, +7.80515800389E+001
+4.85118898623E+006, +2.97011571332E+002, +7.94014691093E+001
+4.97622027534E+006, +2.96361159415E+002, +8.14015159989E+001
+5.10125156446E+006, +2.97361837204E+002, +8.40629493973E+001
+5.22628285357E+006, +2.97878667684E+002, +8.56209385486E+001
+5.35131414268E+006, +2.97214841013E+002, +8.74712026464E+001
+5.47634543179E+006, +2.98264257865E+002, +9.03878169231E+001
+5.60137672090E+006, +2.96513117423E+002, +9.20525021783E+001
+5.72640801001E+006, +2.96772352972E+002, +9.28345800505E+001
+5.85143929912E+006, +2.97938847881E+002, +9.55675983704E+001
+5.97647058824E+006, +2.97314765093E+002, +9.67481174084E+001
+6.10150187735E+006, +2.97981221435E+002, +1.00126117166E+002
+6.22653316646E+006, +2.98520859071E+002, +1.01677933287E+002
+6.35156445557E+006, +2.98181367141E+002, +1.04083863794E+002
+6.47659574468E+006, +2.98261328139E+002, +1.05824856875E+002
+6.60162703379E+006, +2.98220652470E+002, +1.08094384461E+002
+6.72665832290E+006, +2.98482549058E+002, +1.09517918520E+002
+6.85168961202E+006, +2.98054311971E+002, +1.11474158442E+002
+6.97672090113E+006, +2.99101359972E+002, +1.13740724298E+002
+7.10175219024E+006, +2.99090342268E+002, +1.15306378166E+002
+7.22678347935E+006, +2.98629630678E+002, +1.17876728963E+002
+7.35181476846E+006, +2.99063255573E+002, +1.19573299788E+002
+7.47684605757E+006, +2.99985189757E+002, +1.22541414372E+002
+7.60187734668E+006, +2.99283062841E+002, +1.24218178807E+002
+7.72690863579E+006, +2.99945496156E+002, +1.26399761490E+002
+7.85193992491E+006, +2.99963787989E+002, +1.27742193441E+002
+7.97697121402E+006, +3.00618940294E+002, +1.29952339449E+002
+8.10200250313E+006, +2.99929541655E+002, +1.31998758278E+002
+8.22703379224E+006, +3.00511719414E+002, +1.34315869128E+002
+8.35206508135E+006, +3.01543454660E+002, +1.36819085007E+002
+8.47709637046E+006, +3.01829443972E+002, +1.39258799466E+002
+8.60212765957E+006, +3.01476426874E+002, +1.40928337810E+002
+8.72715894869E+006, +3.01751422502E+002, +1.43321035783E+002
+8.85219023780E+006, +3.02142471644E+002, +1.45228834030E+002
+8.97722152691E+006, +3.02624706666E+002, +1.46507548410E+002
+9.10225281602E+006, +3.03340159836E+002, +1.49563849267E+002
+9.22728410513E+006, +3.03270471571E+002, +1.50882314544E+002
+9.35231539424E+006, +3.03626556725E+002, +1.52741314551E+002
+9.47734668335E+006, +3.02635550858E+002, +1.55839328200E+002
+9.60237797247E+006, +3.04048632267E+002, +1.57836139757E+002
+9.72740926158E+006, +3.04203771962E+002, +1.59420952843E+002
+9.85244055069E+006, +3.04714135387E+002, +1.62248400498E+002
+9.97747183980E+006, +3.04788881971E+002, +1.63320214649E+002
+1.01025031289E+007, +3.05491010331E+002, +1.66354050692E+002
+1.02275344180E+007, +3.05574541380E+002, +1.67463404134E+002
+1.03525657071E+007, +3.05352511570E+002, +1.70659612435E+002
+1.04775969962E+007, +3.06464515847E+002, +1.72301988051E+002
+1.06026282854E+007, +3.06461830736E+002, +1.74712000287E+002
+1.07276595745E+007, +3.06436797662E+002, +1.77230154997E+002
+1.08526908636E+007, +3.07383749310E+002, +1.78938791343E+002
+1.09777221527E+007, +3.07768871147E+002, +1.80285342809E+002
+1.11027534418E+007, +3.07583054273E+002, +1.82782085224E+002
+1.12277847309E+007, +3.08293322261E+002, +1.85481189028E+002
+1.13528160200E+007, +3.08066175279E+002, +1.87720622801E+002
+1.14778473091E+007, +3.08852198238E+002, +1.89808612046E+002
+1.16028785982E+007, +3.10105223727E+002, +1.92294010300E+002
+1.17279098874E+007, +3.09822074635E+002, +1.93771516809E+002
+1.18529411765E+007, +3.10261974193E+002, +1.96584129227E+002
+1.19779724656E+007, +3.10564847303E+002, +1.98693131280E+002
+1.21030037547E+007, +3.11461275306E+002, +2.00464561523E+002
+1.22280350438E+007, +3.11665731152E+002, +2.02740269800E+002
+1.23530663329E+007, +3.11649084930E+002, +2.04670214126E+002
+1.24780976220E+007, +3.12650222115E+002, +2.06996832691E+002
+1.26031289111E+007, +3.12730583812E+002, +2.09563075566E+002
+1.27281602003E+007, +3.12959070003E+002, +2.11209978804E+002
+1.28531914894E+007, +3.13004517028E+002, +2.13752042469E+002
+1.29782227785E+007, +3.14199399318E+002, +2.15284029690E+002
+1.31032540676E+007, +3.13666023569E+002, +2.17197987143E+002
+1.32282853567E+007, +3.15219649254E+002, +2.19827770567E+002
+1.33533166458E+007, +3.15283280869E+002, +2.22213534591E+002
+1.34783479349E+007, +3.15183475264E+002, +2.23966725882E+002
+1.36033792240E+007, +3.16692460885E+002, +2.26472932783E+002
+1.37284105131E+007, +3.16232989610E+002, +2.29188774026E+002
+1.38534418023E+007, +3.16838317426E+002, +2.31297509087E+002
+1.39784730914E+007, +3.17212628571E+002, +2.33661299707E+002
+1.41035043805E+007, +3.17977521290E+002, +2.35534045374E+002
+1.42285356696E+007, +3.18459540514E+002, +2.37047160008E+002
+1.43535669587E+007, +3.17861988957E+002, +2.39641537979E+002
+1.44785982478E+007, +3.19445920695E+002, +2.42240167761E+002
+1.46036295369E+007, +3.20294034864E+002, +2.43280514941E+002
+1.47286608260E+007, +3.20909910258E+002, +2.46292063408E+002
+1.48536921151E+007, +3.21095565607E+002, +2.49168694671E+002
+1.49787234043E+007, +3.21202266792E+002, +2.51069631435E+002
+1.51037546934E+007, +3.21569144878E+002, +2.54611200526E+002
+1.52287859825E+007, +3.21897428223E+002, +2.56168478645E+002
+1.53538172716E+007, +3.22917139863E+002, +2.58926232180E+002
+1.54788485607E+007, +3.23445152435E+002, +2.60714231881E+002
+1.56038798498E+007, +3.23674655102E+002, +2.62721199864E+002
+1.57289111389E+007, +3.23456684501E+002, +2.65120709967E+002
+1.58539424280E+007, +3.24111587604E+002, +2.66816071240E+002
+1.59789737171E+007, +3.25487064839E+002, +2.69892227359E+002
+1.61040050063E+007, +3.26963908649E+002, +2.71038853265E+002
+1.62290362954E+007, +3.26896124494E+002, +2.74208703787E+002
+1.63540675845E+007, +3.27006348535E+002, +2.76836267585E+002
+1.64790988736E+007, +3.28254699132E+002, +2.78743220756E+002
+1.66041301627E+007, +3.28306117593E+002, +2.81528506543E+002
+1.67291614518E+007, +3.29326401715E+002, +2.83372577875E+002
+1.68541927409E+007, +3.28924329349E+002, +2.85518131150E+002
+1.69792240300E+007, +3.29333995425E+002, +2.88717937794E+002
+1.71042553191E+007, +3.30255074158E+002, +2.92588561231E+002
+1.72292866083E+007, +3.30509580325E+002, +2.94153254616E+002
+1.73543178974E+007, +3.32509319162E+002, +2.96067588573E+002
+1.74793491865E+007, +3.32533977097E+002, +2.98362480215E+002
+1.76043804756E+007, +3.33567175728E+002, +3.00994706951E+002
+1.77294117647E+007, +3.34178184519E+002, +3.02512565547E+002
+1.78544430538E+007, +3.33550786629E+002, +3.04829512681E+002
+1.79794743429E+007, +3.34375824709E+002, +3.06973252512E+002
+1.81045056320E+007, +3.35553052234E+002, +3.08644720730E+002
+1.82295369212E+007, +3.36077203590E+002, +3.11630278024E+002
+1.83545682103E+007, +3.37565330967E+002, +3.14482224374E+002
+1.84795994994E+007, +3.37136932773E+002, +3.17170140340E+002
+1.86046307885E+007, +3.38655820068E+002, +3.19325265944E+002
+1.87296620776E+007, +3.39727797679E+002, +3.21764483550E+002
+1.88546933667E+007, +3.39374797787E+002, +3.24086667438E+002
+1.89797246558E+007, +3.41092334825E+002, +3.26986179471E+002
+1.91047559449E+007, +3.40961504353E+002, +3.28798167911E+002
+1.92297872340E+007, +3.41742536180E+002, +3.31384680094E+002
+1.93548185232E+007, +3.42799190774E+002, +3.33232014327E+002
+1.94798498123E+007, +3.43463258059E+002, +3.35583933640E+002
+1.96048811014E+007, +3.44006739748E+002, +3.39259625236E+002
+1.97299123905E+007, +3.45077343000E+002, +3.40719209604E+002
+1.98549436796E+007, +3.46675004183E+002, +3.43803425591E+002
+1.99799749687E+007, +3.46941338061E+002, +3.45781153118E+002
+2.01050062578E+007, +3.46641414176E+002, +3.49314235791E+002
+2.02300375469E+007, +3.48279890207E+002, +3.50018055220E+002
+2.03550688360E+007, +3.48053326331E+002, +3.54111986079E+002
+2.04801001252E+007, +3.50075425943E+002, +3.55697548975E+002
+2.06051314143E+007, +3.50230569590E+002, +3.58687012909E+002
+2.07301627034E+007, +3.51614181893E+002, +3.60406311102E+002
+2.08551939925E+007, +3.52761790199E+002, +3.62901349014E+002
+2.09802252816E+007, +3.51506822868E+002, +3.66976565360E+002
+2.11052565707E+007, +3.52215687548E+002, +3.68666587708E+002
+2.12302878598E+007, +3.55344095310E+002, +3.71440157041E+002
+2.13553191489E+007, +3.55006605192E+002, +3.73132496983E+002
+2.14803504380E+007, +3.55885747086E+002, +3.77228463296E+002
+2.16053817272E+007, +3.55555691375E+002, +3.78018264981E+002
+2.17304130163E+007, +3.57514644105E+002, +3.80501641138E+002
+2.18554443054E+007, +3.56654574070E+002, +3.84172616353E+002
+2.19804755945E+007, +3.58986383854E+002, +3.87677386236E+002
+2.21055068836E+007, +3.61293228223E+002, +3.89471956074E+002
+2.22305381727E+007, +3.60630119527E+002, +3.91432088038E+002
+2.23555694618E+007, +3.61810045525E+002, +3.94837378321E+002
+2.24806007509E+007, +3.61072031554E+002, +3.96359731580E+002
+2.26056320401E+007, +3.64543668827E+002, +3.98451003891E+002
+2.27306633292E+007, +3.64321684543E+002, +4.02806743949E+002
+2.28556946183E+007, +3.65817126247E+002, +4.05331800069E+002
+2.29807259074E+007, +3.67163824040E+002, +4.08549074226E+002
+2.31057571965E+007, +3.68507070287E+002, +4.09428091591E+002
+2.32307884856E+007, +3.68783351190E+002, +4.11373390943E+002
+2.33558197747E+007, +3.68968177549E+002, +4.15654057301E+002
+2.34808510638E+007, +3.70110562261E+002, +4.16445965406E+002
+2.36058823529E+007, +3.71893107110E+002, +4.19670652452E+002
+2.37309136421E+007, +3.72844935779E+002, +4.25064969697E+002
+2.38559449312E+007, +3.73032273784E+002, +4.26259666958E+002
+2.39809762203E+007, +3.76424186453E+002, +4.29908723419E+002
+2.41060075094E+007, +3.75719956746E+002, +4.33038477818E+002
+2.42310387985E+007, +3.78253987110E+002, +4.33125261842E+002
+2.43560700876E+007, +3.79025690003E+002, +4.38436783548E+002
+2.44811013767E+007, +3.79221791833E+002, +4.39987503651E+002
+2.46061326658E+007, +3.79631773743E+002, +4.43006188720E+002
+2.47311639549E+007, +3.80642210454E+002, +4.46203794410E+002
+2.48561952441E+007, +3.82106332504E+002, +4.48841953546E+002
+2.49812265332E+007, +3.83862060117E+002, +4.52563965230E+002
+2.51062578223E+007, +3.85089052749E+002, +4.52769183169E+002
+2.52312891114E+007, +3.87638623863E+002, +4.56179386519E+002
+2.53563204005E+007, +3.85534258308E+002, +4.59565614992E+002
+2.54813516896E+007, +3.88608939786E+002, +4.61944558217E+002
+2.56063829787E+007, +3.87393389139E+002, +4.66638030241E+002
+2.57314142678E+007, +3.90751979549E+002, +4.67582925173E+002
+2.58564455569E+007, +3.89825362780E+002, +4.70347722401E+002
+2.59814768461E+007, +3.93562595521E+002, +4.75699950195E+002
+2.61065081352E+007, +3.95706834906E+002, +4.76063623098E+002
+2.62315394243E+007, +3.97463957525E+002, +4.78470367535E+002
+2.63565707134E+007, +3.95783634447E+002, +4.83589781810E+002
+2.64816020025E+007, +3.97021187608E+002, +4.86012026794E+002
+2.66066332916E+007, +4.00259426399E+002, +4.87271882259E+002
+2.67316645807E+007, +3.99913551220E+002, +4.88697255868E+002
+2.68566958698E+007, +4.00606634309E+002, +4.94934013071E+002
+2.69817271589E+007, +4.01838831810E+002, +4.97723341008E+002
+2.71067584481E+007, +4.06057851264E+002, +4.99800227524E+002
+2.72317897372E+007, +4.06319241319E+002, +5.04191829657E+002
+2.73568210263E+007, +4.06018555500E+002, +5.06410233304E+002
+2.74818523154E+007, +4.09151268147E+002, +5.09538392537E+002
+2.76068836045E+007, +4.09757916932E+002, +5.11896900589E+002
+2.77319148936E+007, +4.12454826125E+002, +5.17643882293E+002
+2.78569461827E+007, +4.12925030493E+002, +5.15877647551E+002
+2.79819774718E+007, +4.15383929909E+002, +5.21549706793E+002
+2.81070087610E+007, +4.15329812260E+002, +5.26053594661E+002
+2.82320400501E+007, +4.18410164392E+002, +5.27905011524E+002
+2.83570713392E+007, +4.19993119719E+002, +5.29714726074E+002
+2.84821026283E+007, +4.18700147477E+002, +5.33443437979E+002
+2.86071339174E+007, +4.20113715930E+002, +5.36521874927E+002
+2.87321652065E+007, +4.23595477929E+002, +5.39364762242E+002
+2.88571964956E+007, +4.23962647611E+002, +5.44662946247E+002
+2.89822277847E+007, +4.26998586852E+002, +5.47575699483E+002
+2.91072590738E+007, +4.26897273422E+002, +5.50624242665E+002
+2.92322903630E+007, +4.26220082828E+002, +5.54511217975E+002
+2.93573216521E+007, +4.30210325005E+002, +5.60674759987E+002
+2.94823529412E+007, +4.31749617962E+002, +5.59693091173E+002
+2.96073842303E+007, +4.33405901667E+002, +5.63287291508E+002
+2.97324155194E+007, +4.33739271844E+002, +5.68677373809E+002
+2.98574468085E+007, +4.38190325157E+002, +5.70208658785E+002
+2.99824780976E+007, +4.37172297152E+002, +5.72859111580E+002
+3.01075093867E+007, +4.40161981166E+002, +5.79132831738E+002
+3.02325406758E+007, +4.43310128102E+002, +5.78052185568E+002
+3.03575719650E+007, +4.43334273203E+002, +5.82460009441E+002
+3.04826032541E+007, +4.45518631661E+002, +5.86475982040E+002
+3.06076345432E+007, +4.45538040557E+002, +5.92376602073E+002
+3.07326658323E+007, +4.51857489924E+002, +5.97087438733E+002
+3.08576971214E+007, +4.50974563820E+002, +5.95916810469E+002
+3.09827284105E+007, +4.50768548212E+002, +5.98871186283E+002
+3.11077596996E+007, +4.56623784050E+002, +6.04537304755E+002
+3.12327909887E+007, +4.57885310281E+002, +6.09172910268E+002
+3.13578222778E+007, +4.57579661883E+002, +6.11578900879E+002
+3.14828535670E+007, +4.59701955433E+002, +6.14063416478E+002
+3.16078848561E+007, +4.60678623501E+002, +6.16116901290E+002
+3.17329161452E+007, +4.64340547156E+002, +6.21390750316E+002
+3.18579474343E+007, +4.67244124325E+002, +6.24328929438E+002
+3.19829787234E+007, +4.68585730563E+002, +6.30649058755E+002
+3.21080100125E+007, +4.70507946422E+002, +6.32044029959E+002
+3.22330413016E+007, +4.73009433512E+002, +6.40484772488E+002
+3.23580725907E+007, +4.76025060746E+002, +6.38839134845E+002
+3.24831038798E+007, +4.79512974990E+002, +6.48604215787E+002
+3.26081351690E+007, +4.78688135984E+002, +6.49260339024E+002
+3.27331664581E+007, +4.81346775043E+002, +6.52931458760E+002
+3.28581977472E+007, +4.84798590878E+002, +6.56192011333E+002
+3.29832290363E+007, +4.85665662120E+002, +6.62430610399E+002
+3.31082603254E+007, +4.85902068446E+002, +6.63145892208E+002
+3.32332916145E+007, +4.90860978149E+002, +6.69269549343E+002
+3.33583229036E+007, +4.90214125226E+002, +6.67774488727E+002
+3.34833541927E+007, +4.95108155439E+002, +6.70304438741E+002
+3.36083854819E+007, +4.97225659606E+002, +6.77256631227E+002
+3.37334167710E+007, +4.99580261399E+002, +6.84197095659E+002
+3.38584480601E+007, +5.01158570745E+002, +6.86497921520E+002
+3.39834793492E+007, +5.00573385045E+002, +6.91215495630E+002
+3.41085106383E+007, +5.08590339197E+002, +6.94168450269E+002
+3.42335419274E+007, +5.08387482919E+002, +6.96322736593E+002
+3.43585732165E+007, +5.11611660803E+002, +7.01822285907E+002
+3.44836045056E+007, +5.13322922881E+002, +7.07106340584E+002
+3.46086357947E+007, +5.15533099936E+002, +7.11646224577E+002
+3.47336670839E+007, +5.21567906074E+002, +7.14687615727E+002
+3.48586983730E+007, +5.18622205291E+002, +7.20088078863E+002
+3.49837296621E+007, +5.27562491349E+002, +7.19420299951E+002
+3.51087609512E+007, +5.29028622561E+002, +7.28014608602E+002
+3.52337922403E+007, +5.30662000317E+002, +7.32740181628E+002
+3.53588235294E+007, +5.31233135142E+002, +7.32966873219E+002
+3.54838548185E+007, +5.38072217053E+002, +7.35343525681E+002
+3.56088861076E+007, +5.34342357171E+002, +7.42258410399E+002
+3.57339173967E+007, +5.44857341960E+002, +7.46384542568E+002
+3.58589486859E+007, +5.45778087363E+002, +7.50091814103E+002
+3.59839799750E+007, +5.44929629552E+002, +7.53352229183E+002
+3.61090112641E+007, +5.48405059645E+002, +7.57457367298E+002
+3.62340425532E+007, +5.57203275871E+002, +7.62224753231E+002
+3.63590738423E+007, +5.52714657004E+002, +7.66783544603E+002
+3.64841051314E+007, +5.58665356006E+002, +7.70078292496E+002
+3.66091364205E+007, +5.66428309527E+002, +7.75490370480E+002
+3.67341677096E+007, +5.68231622267E+002, +7.78725849242E+002
+3.68591989987E+007, +5.71414480943E+002, +7.86161510519E+002
+3.69842302879E+007, +5.72292135535E+002, +7.84084297863E+002
+3.71092615770E+007, +5.78541065962E+002, +7.94876981949E+002
+3.72342928661E+007, +5.75809017823E+002, +7.99386013412E+002
+3.73593241552E+007, +5.82335985930E+002, +7.97346523059E+002
+3.74843554443E+007, +5.83079980128E+002, +8.08245362803E+002
+3.76093867334E+007, +5.92756552484E+002, +8.11539299651E+002
+3.77344180225E+007, +5.94713647471E+002, +8.12477789724E+002
+3.78594493116E+007, +6.01244797194E+002, +8.15916576057E+002
+3.79844806008E+007, +6.03305434017E+002, +8.27258719866E+002
+3.81095118899E+007, +6.01870781369E+002, +8.30108191643E+002
+3.82345431790E+007, +6.09216561993E+002, +8.28319460526E+002
+3.83595744681E+007, +6.10098970018E+002, +8.39699623034E+002
+3.84846057572E+007, +6.17984375710E+002, +8.43972785825E+002
+3.86096370463E+007, +6.20687922822E+002, +8.53115001888E+002
+3.87346683354E+007, +6.25798715363E+002, +8.47139531826E+002
+3.88596996245E+007, +6.31673527934E+002, +8.59001847120E+002
+3.89847309136E+007, +6.35255374297E+002, +8.58311327540E+002
+3.91097622028E+007, +6.29642019294E+002, +8.63330157838E+002
+3.92347934919E+007, +6.37182022014E+002, +8.68491278908E+002
+3.93598247810E+007, +6.47173726444E+002, +8.79322594379E+002
+3.94848560701E+007, +6.49241488856E+002, +8.83988141420E+002
+3.96098873592E+007, +6.56826108426E+002, +8.86233379128E+002
+3.97349186483E+007, +6.54811980559E+002, +8.89904157422E+002
+3.98599499374E+007, +6.62083848893E+002, +8.93039262818E+002
+3.99849812265E+007, +6.62643441134E+002, +8.97092789782E+002
+4.01100125156E+007, +6.71072644228E+002, +9.06405678747E+002
