"# Channel 1"
"# Trace 1"
Frequency, Formatted Data, Formatted Data
+1.00000000000E+005, +3.34432890661E+001, +1.55476077006E+000
+2.25031289111E+005, +3.33846440428E+001, +3.70628103473E+000
+3.50062578223E+005, +3.34092676892E+001, +5.70621564378E+000
+4.75093867334E+005, +3.34450717583E+001, +7.76456507276E+000
+6.00125156446E+005, +3.34443222048E+001, +9.79377378996E+000
+7.25156445557E+005, +3.34374729618E+001, +1.18052234434E+001
+8.50187734668E+005, +3.34843177089E+001, +1.38262877540E+001
+9.75219023780E+005, +3.34793923775E+001, +1.58787550563E+001
+1.10025031289E+006, +3.34819003730E+001, +1.78825833305E+001
+1.22528160200E+006, +3.35139618696E+001, +1.99443871787E+001
+1.35031289111E+006, +3.34765662845E+001, +2.19715039130E+001
+1.47534418023E+006, +3.34774410429E+001, +2.39783586564E+001
+1.60037546934E+006, +3.34807954272E+001, +2.59852510746E+001
+1.72540675845E+006, +3.35492455671E+001, +2.79934773280E+001
+1.85043804756E+006, +3.34640340655E+001, +3.00564293380E+001
+1.97546933667E+006, +3.35261143163E+001, +3.20759609321E+001
+2.10050062578E+006, +3.35620105148E+001, +3.40443202550E+001
+2.22553191489E+006, +3.35647796598E+001, +3.60945947490E+001
+2.35056320401E+006, +3.35364774743E+001, +3.81921279238E+001
+2.47559449312E+006, +3.36111518367E+001, +4.02083818769E+001
+2.60062578223E+006, +3.34904402473E+001, +4.21657194549E+001
+2.72565707134E+006, +3.35089637690E+001, +4.40992837707E+001
+2.85068836045E+006, +3.36029202062E+001, +4.63227942365E+001
+2.97571964956E+006, +3.35193686262E+001, +4.82004884988E+001
+3.10075093867E+006, +3.35388635295E+001, +5.02461275439E+001
+3.22578222778E+006, +3.35436875481E+001, +5.23300757150E+001
+3.35081351690E+006, +3.36920149476E+001, +5.43863893204E+001
+3.47584480601E+006, +3.35658672760E+001, +5.62730232749E+001
+3.60087609512E+006, +3.36322211215E+001, +5.85105384757E+001
+3.72590738423E+006, +3.36305361951E+001, +6.04997774733E+001
+3.85093867334E+006, +3.36437903350E+001, +6.24609293504E+001
+3.97596996245E+006, +3.36764791247E+001, +6.45346514284E+001
+4.10100125156E+006, +3.36658898913E+001, +6.67192678396E+001
+4.22603254068E+006, +3.36870678618E+001, +6.85969410267E+001
+4.35106382979E+006, +3.36982940513E+001, +7.06103393128E+001
+4.47609511890E+006, +3.37211934384E+001, +7.26683506684E+001
+4.60112640801E+006, +3.36374341103E+001, +7.45980025163E+001
+4.72615769712E+006, +3.37860321742E+001, +7.68350195631E+001
+4.85118898623E+006, +3.37542857599E+001, +7.86630074819E+001
+4.97622027534E+006, +3.37394722639E+001, +8.07632770486E+001
+5.10125156446E+006, +3.37809183174E+001, +8.29398165519E+001
+5.22628285357E+006, +3.39458523478E+001, +8.49390466811E+001
+5.35131414268E+006, +3.38249749338E+001, +8.70406136689E+001
+5.47634543179E+006, +3.38507274187E+001, +8.91000741851E+001
+5.60137672090E+006, +3.37490909212E+001, +9.11501981487E+001
+5.72640801001E+006, +3.38068453102E+001, +9.31681880382E+001
+5.85143929912E+006, +3.38748727706E+001, +9.53078831366E+001
+5.97647058824E+006, +3.41405955826E+001, +9.74528454489E+001
+6.10150187735E+006, +3.37720472095E+001, +9.93946085566E+001
+6.22653316646E+006, +3.39241786457E+001, +1.01536798936E+002
+6.35156445557E+006, +3.40967871566E+001, +1.03487416363E+002
+6.47659574468E+006, +3.41426995184E+001, +1.05540619884E+002
+6.60162703379E+006, +3.41749373345E+001, +1.07690223870E+002
+6.72665832290E+006, +3.42887016222E+001, +1.09674486819E+002
+6.85168961202E+006, +3.42377394023E+001, +1.11798423995E+002
+6.97672090113E+006, +3.41550295139E+001, +1.13905204565E+002
+7.10175219024E+006, +3.42788555426E+001, +1.15896602209E+002
+7.22678347935E+006, +3.41243565699E+001, +1.18064005547E+002
+7.35181476846E+006, +3.42858732521E+001, +1.20250610121E+002
+7.47684605757E+006, +3.44036553290E+001, +1.22368637152E+002
+7.60187734668E+006, +3.42722722921E+001, +1.24355880119E+002
+7.72690863579E+006, +3.42404034474E+001, +1.26417533500E+002
+7.85193992491E+006, +3.43096941475E+001, +1.28648648331E+002
+7.97697121402E+006, +3.44728863715E+001, +1.30535586025E+002
+8.10200250313E+006, +3.44447834773E+001, +1.32727231768E+002
+8.22703379224E+006, +3.44446407146E+001, +1.34773942623E+002
+8.35206508135E+006, +3.45826844179E+001, +1.36946529732E+002
+8.47709637046E+006, +3.45428432431E+001, +1.39196801656E+002
+8.60212765957E+006, +3.46018165526E+001, +1.41140621798E+002
+8.72715894869E+006, +3.47249847945E+001, +1.43362597196E+002
+8.85219023780E+006, +3.48701567659E+001, +1.45310999610E+002
+8.97722152691E+006, +3.45970550110E+001, +1.47423292840E+002
+9.10225281602E+006, +3.47321428190E+001, +1.49574536027E+002
+9.22728410513E+006, +3.46011483015E+001, +1.51888303392E+002
+9.35231539424E+006, +3.49332080266E+001, +1.53950600426E+002
+9.47734668335E+006, +3.46187024094E+001, +1.56153232266E+002
+9.60237797247E+006, +3.49378761375E+001, +1.58191135003E+002
+9.72740926158E+006, +3.48939390224E+001, +1.60364902141E+002
+9.85244055069E+006, +3.48712049495E+001, +1.62350176619E+002
+9.97747183980E+006, +3.47787149159E+001, +1.64593948347E+002
+1.01025031289E+007, +3.49485238156E+001, +1.66816444424E+002
+1.02275344180E+007, +3.47490691152E+001, +1.69076173771E+002
+1.03525657071E+007, +3.49506972150E+001, +1.70920386111E+002
+1.04775969962E+007, +3.49691275824E+001, +1.73045747697E+002
+1.06026282854E+007, +3.51293622377E+001, +1.75335523959E+002
+1.07276595745E+007, +3.49710735087E+001, +1.77290910622E+002
+1.08526908636E+007, +3.51023091255E+001, +1.79656752636E+002
+1.09777221527E+007, +3.50362760709E+001, +1.81800501586E+002
+1.11027534418E+007, +3.51516602185E+001, +1.84181513274E+002
+1.12277847309E+007, +3.51538950641E+001, +1.86300770987E+002
+1.13528160200E+007, +3.52777278307E+001, +1.88508354633E+002
+1.14778473091E+007, +3.54044584824E+001, +1.90467373681E+002
+1.16028785982E+007, +3.55018980392E+001, +1.92779413699E+002
+1.17279098874E+007, +3.52129925389E+001, +1.95320750061E+002
+1.18529411765E+007, +3.53883337149E+001, +1.96972618564E+002
+1.19779724656E+007, +3.51869082495E+001, +1.99468449795E+002
+1.21030037547E+007, +3.54562811841E+001, +2.01761701896E+002
+1.22280350438E+007, +3.55426400510E+001, +2.03794090624E+002
+1.23530663329E+007, +3.54699794988E+001, +2.05707614813E+002
+1.24780976220E+007, +3.54906070806E+001, +2.08003338663E+002
+1.26031289111E+007, +3.55293574720E+001, +2.10504698708E+002
+1.27281602003E+007, +3.55550117813E+001, +2.12545730518E+002
+1.28531914894E+007, +3.58008265067E+001, +2.14646188415E+002
+1.29782227785E+007, +3.55550522629E+001, +2.17178983063E+002
+1.31032540676E+007, +3.57193112316E+001, +2.19081058041E+002
+1.32282853567E+007, +3.55314055755E+001, +2.21749961860E+002
+1.33533166458E+007, +3.56467110210E+001, +2.23653818737E+002
+1.34783479349E+007, +3.60525812932E+001, +2.25897915026E+002
+1.36033792240E+007, +3.56078688976E+001, +2.28671162350E+002
+1.37284105131E+007, +3.57047023464E+001, +2.30974232638E+002
+1.38534418023E+007, +3.58756014760E+001, +2.32950192060E+002
+1.39784730914E+007, +3.59289155596E+001, +2.35476028739E+002
+1.41035043805E+007, +3.58796148900E+001, +2.37679022901E+002
+1.42285356696E+007, +3.58738876166E+001, +2.39619009337E+002
+1.43535669587E+007, +3.56769834134E+001, +2.42231054434E+002
+1.44785982478E+007, +3.62925945226E+001, +2.44349948238E+002
+1.46036295369E+007, +3.58322192602E+001, +2.47094036197E+002
+1.47286608260E+007, +3.59605853985E+001, +2.48966249990E+002
+1.48536921151E+007, +3.64504539883E+001, +2.51330137447E+002
+1.49787234043E+007, +3.63127006794E+001, +2.54079889323E+002
+1.51037546934E+007, +3.59743048625E+001, +2.55850753390E+002
+1.52287859825E+007, +3.63400494977E+001, +2.58019633119E+002
+1.53538172716E+007, +3.61016495872E+001, +2.60644779959E+002
+1.54788485607E+007, +3.68228261202E+001, +2.62542352413E+002
+1.56038798498E+007, +3.68113869904E+001, +2.65501949491E+002
+1.57289111389E+007, +3.66203936746E+001, +2.67574320069E+002
+1.58539424280E+007, +3.65556551404E+001, +2.69963021353E+002
+1.59789737171E+007, +3.69478225732E+001, +2.72551869900E+002
+1.61040050063E+007, +3.67209610867E+001, +2.74566507541E+002
+1.62290362954E+007, +3.70507794404E+001, +2.77118341733E+002
+1.63540675845E+007, +3.69271938738E+001, +2.79768401046E+002
+1.64790988736E+007, +3.67951465252E+001, +2.81874397022E+002
+1.66041301627E+007, +3.76765270722E+001, +2.84632128446E+002
+1.67291614518E+007, +3.64250720815E+001, +2.86309173543E+002
+1.68541927409E+007, +3.73729512929E+001, +2.88895164704E+002
+1.69792240300E+007, +3.72235094970E+001, +2.91633168584E+002
+1.71042553191E+007, +3.67405463285E+001, +2.94148122441E+002
+1.72292866083E+007, +3.71334851727E+001, +2.96374478660E+002
+1.73543178974E+007, +3.76452876737E+001, +2.98689696563E+002
+1.74793491865E+007, +3.76872202003E+001, +3.01241252562E+002
+1.76043804756E+007, +3.77130778301E+001, +3.03871214460E+002
+1.77294117647E+007, +3.70844652569E+001, +3.06490378890E+002
+1.78544430538E+007, +3.73069354982E+001, +3.08944565904E+002
+1.79794743429E+007, +3.72291202391E+001, +3.10755108608E+002
+1.81045056320E+007, +3.77941318164E+001, +3.14031044262E+002
+1.82295369212E+007, +3.79115154550E+001, +3.15661737091E+002
+1.83545682103E+007, +3.77346487107E+001, +3.18216242877E+002
+1.84795994994E+007, +3.73607615406E+001, +3.21350234391E+002
+1.86046307885E+007, +3.81157211960E+001, +3.23326905946E+002
+1.87296620776E+007, +3.86642350139E+001, +3.26124269798E+002
+1.88546933667E+007, +3.83345109310E+001, +3.27902775523E+002
+1.89797246558E+007, +3.83562337871E+001, +3.31358784221E+002
+1.91047559449E+007, +3.85552730568E+001, +3.33462753624E+002
+1.92297872340E+007, +3.86685785308E+001, +3.36268884610E+002
+1.93548185232E+007, +3.87202281590E+001, +3.38497648227E+002
+1.94798498123E+007, +3.83944932404E+001, +3.41161708289E+002
+1.96048811014E+007, +3.77649096337E+001, +3.43729625724E+002
+1.97299123905E+007, +3.91133564490E+001, +3.46129653812E+002
+1.98549436796E+007, +3.92175542816E+001, +3.49024085352E+002
+1.99799749687E+007, +3.91439979503E+001, +3.51805240888E+002
+2.01050062578E+007, +3.86507837993E+001, +3.54030076087E+002
+2.02300375469E+007, +3.90602140134E+001, +3.56530616321E+002
+2.03550688360E+007, +3.91887240489E+001, +3.58998364251E+002
+2.04801001252E+007, +3.87011440684E+001, +3.61153979131E+002
+2.06051314143E+007, +3.86811231186E+001, +3.64447209692E+002
+2.07301627034E+007, +4.01586682427E+001, +3.67304200092E+002
+2.08551939925E+007, +3.99861373566E+001, +3.69846489506E+002
+2.09802252816E+007, +3.87435703517E+001, +3.72428153578E+002
+2.11052565707E+007, +3.98918862479E+001, +3.75849788737E+002
+2.12302878598E+007, +3.98092190513E+001, +3.78565581916E+002
+2.13553191489E+007, +3.96819830526E+001, +3.80007433426E+002
+2.14803504380E+007, +4.03047937274E+001, +3.82441395133E+002
+2.16053817272E+007, +3.99707466947E+001, +3.86008894588E+002
+2.17304130163E+007, +3.94317843362E+001, +3.89054518179E+002
+2.18554443054E+007, +4.00893294229E+001, +3.90905664256E+002
+2.19804755945E+007, +4.07204371070E+001, +3.95151637565E+002
+2.21055068836E+007, +4.04874555179E+001, +3.97534770623E+002
+2.22305381727E+007, +4.01165862587E+001, +3.99357888897E+002
+2.23555694618E+007, +4.08818772291E+001, +4.02570530449E+002
+2.24806007509E+007, +4.15284707216E+001, +4.06230887543E+002
+2.26056320401E+007, +4.09591873574E+001, +4.07555887464E+002
+2.27306633292E+007, +4.15622639313E+001, +4.10145984310E+002
+2.28556946183E+007, +4.17175989632E+001, +4.13831452815E+002
+2.29807259074E+007, +4.21558009871E+001, +4.15937630190E+002
+2.31057571965E+007, +4.10160038255E+001, +4.18857541626E+002
+2.32307884856E+007, +4.16266787713E+001, +4.21858528342E+002
+2.33558197747E+007, +4.22676104336E+001, +4.23765544313E+002
+2.34808510638E+007, +4.27960919795E+001, +4.26830217633E+002
+2.36058823529E+007, +4.29805282161E+001, +4.30147394966E+002
+2.37309136421E+007, +4.28075785313E+001, +4.33728916067E+002
+2.38559449312E+007, +4.25032852544E+001, +4.35441876378E+002
+2.39809762203E+007, +4.21384960847E+001, +4.38662290351E+002
+2.41060075094E+007, +4.21617290577E+001, +4.41128559391E+002
+2.42310387985E+007, +4.27096226362E+001, +4.43849900084E+002
+2.43560700876E+007, +4.47447831465E+001, +4.46364733494E+002
+2.44811013767E+007, +4.38391962713E+001, +4.49236180257E+002
+2.46061326658E+007, +4.30434839429E+001, +4.52606763688E+002
+2.47311639549E+007, +4.44371034154E+001, +4.54640087669E+002
+2.48561952441E+007, +4.42884953241E+001, +4.57777195412E+002
+2.49812265332E+007, +4.42131353952E+001, +4.61134023658E+002
+2.51062578223E+007, +4.32837452697E+001, +4.64631034128E+002
+2.52312891114E+007, +4.43567812440E+001, +4.67511615964E+002
+2.53563204005E+007, +4.34506706405E+001, +4.70484290466E+002
+2.54813516896E+007, +4.52107278755E+001, +4.73223439655E+002
+2.56063829787E+007, +4.48714174689E+001, +4.78443870005E+002
+2.57314142678E+007, +4.42805918407E+001, +4.80190376214E+002
+2.58564455569E+007, +4.36258575933E+001, +4.82223553640E+002
+2.59814768461E+007, +4.52429206430E+001, +4.84664511341E+002
+2.61065081352E+007, +4.34152407684E+001, +4.89072765633E+002
+2.62315394243E+007, +4.48084110266E+001, +4.91421545493E+002
+2.63565707134E+007, +4.48201250435E+001, +4.96054202510E+002
+2.64816020025E+007, +4.42508647785E+001, +4.96743338386E+002
+2.66066332916E+007, +4.59802625264E+001, +5.01316616343E+002
+2.67316645807E+007, +4.58350581990E+001, +5.04263374819E+002
+2.68566958698E+007, +4.65357691969E+001, +5.06617908024E+002
+2.69817271589E+007, +4.43331108136E+001, +5.09710798510E+002
+2.71067584481E+007, +4.61661699771E+001, +5.13861168637E+002
+2.72317897372E+007, +4.63499870264E+001, +5.17212350455E+002
+2.73568210263E+007, +4.68834861267E+001, +5.20526073106E+002
+2.74818523154E+007, +4.58920576667E+001, +5.21615994558E+002
+2.76068836045E+007, +4.71494592125E+001, +5.25426359173E+002
+2.77319148936E+007, +4.67063817413E+001, +5.29680537225E+002
+2.78569461827E+007, +4.79896640078E+001, +5.32711246302E+002
+2.79819774718E+007, +4.76819653875E+001, +5.37520687075E+002
+2.81070087610E+007, +4.83277651239E+001, +5.39298759764E+002
+2.82320400501E+007, +4.62724377332E+001, +5.43138480795E+002
+2.83570713392E+007, +4.59753074044E+001, +5.46995270268E+002
+2.84821026283E+007, +4.87192466575E+001, +5.49961316147E+002
+2.86071339174E+007, +4.66294572075E+001, +5.53182479370E+002
+2.87321652065E+007, +4.72337041329E+001, +5.55647477268E+002
+2.88571964956E+007, +4.71974403969E+001, +5.61452288560E+002
+2.89822277847E+007, +4.74015768293E+001, +5.64512109773E+002
+2.91072590738E+007, +4.80342704361E+001, +5.67845271076E+002
+2.92322903630E+007, +4.86496250217E+001, +5.70024749810E+002
+2.93573216521E+007, +4.79064521745E+001, +5.75589244670E+002
+2.94823529412E+007, +4.61245741386E+001, +5.78128552535E+002
+2.96073842303E+007, +4.66562899507E+001, +5.80668068126E+002
+2.97324155194E+007, +4.99122018070E+001, +5.84460604925E+002
+2.98574468085E+007, +4.68452959396E+001, +5.88123791251E+002
+2.99824780976E+007, +4.72616546896E+001, +5.90836802253E+002
+3.01075093867E+007, +4.78128694767E+001, +5.95193350462E+002
+3.02325406758E+007, +4.97515816131E+001, +5.99198070983E+002
+3.03575719650E+007, +4.96508643667E+001, +6.03166824924E+002
+3.04826032541E+007, +4.94224024322E+001, +6.04223386201E+002
+3.06076345432E+007, +5.04963184326E+001, +6.10784569824E+002
+3.07326658323E+007, +4.93069745569E+001, +6.15806283232E+002
+3.08576971214E+007, +4.96848568801E+001, +6.19411288961E+002
+3.09827284105E+007, +4.75229509747E+001, +6.21397685312E+002
+3.11077596996E+007, +4.88800854185E+001, +6.25962103125E+002
+3.12327909887E+007, +4.93037959019E+001, +6.27750074542E+002
+3.13578222778E+007, +4.87383450226E+001, +6.33899423193E+002
+3.14828535670E+007, +5.09827132380E+001, +6.35829269553E+002
+3.16078848561E+007, +5.01924040656E+001, +6.41848305856E+002
+3.17329161452E+007, +5.09946733777E+001, +6.44232442881E+002
+3.18579474343E+007, +5.11546452766E+001, +6.48163858493E+002
+3.19829787234E+007, +5.09123086876E+001, +6.51095057393E+002
+3.21080100125E+007, +5.21416811029E+001, +6.56129801392E+002
+3.22330413016E+007, +5.23983340660E+001, +6.60761776795E+002
+3.23580725907E+007, +5.19968751835E+001, +6.63211531460E+002
+3.24831038798E+007, +5.10743272050E+001, +6.70650789248E+002
+3.26081351690E+007, +4.98985306602E+001, +6.73247444361E+002
+3.27331664581E+007, +5.13048761218E+001, +6.77235262863E+002
+3.28581977472E+007, +5.42166559486E+001, +6.81925312356E+002
+3.29832290363E+007, +5.35321431640E+001, +6.83468645103E+002
+3.31082603254E+007, +5.47742484434E+001, +6.88684748148E+002
+3.32332916145E+007, +5.39776060084E+001, +6.92266386727E+002
+3.33583229036E+007, +5.42976349301E+001, +6.97242173538E+002
+3.34833541927E+007, +5.43217146643E+001, +7.02445112549E+002
+3.36083854819E+007, +5.47903827095E+001, +7.07743625863E+002
+3.37334167710E+007, +5.49723907078E+001, +7.11225972584E+002
+3.38584480601E+007, +5.52350586092E+001, +7.13838048144E+002
+3.39834793492E+007, +5.59809423021E+001, +7.18890022472E+002
+3.41085106383E+007, +5.88761592634E+001, +7.21655473814E+002
+3.42335419274E+007, +5.51833268690E+001, +7.28599049931E+002
+3.43585732165E+007, +5.38902297025E+001, +7.32131414709E+002
+3.44836045056E+007, +5.74324066205E+001, +7.35317572406E+002
+3.46086357947E+007, +5.44745382198E+001, +7.41490757426E+002
+3.47336670839E+007, +5.86342023060E+001, +7.47597400309E+002
+3.48586983730E+007, +5.57650212720E+001, +7.49016290161E+002
+3.49837296621E+007, +5.67750303134E+001, +7.57991878438E+002
+3.51087609512E+007, +5.70567359500E+001, +7.58686711706E+002
+3.52337922403E+007, +5.83554100838E+001, +7.64674362727E+002
+3.53588235294E+007, +6.01419916603E+001, +7.67142911536E+002
+3.54838548185E+007, +6.14849346356E+001, +7.72116544866E+002
+3.56088861076E+007, +6.20190951161E+001, +7.78545631242E+002
+3.57339173967E+007, +5.91714138243E+001, +7.81376826760E+002
+3.58589486859E+007, +6.21002162631E+001, +7.85531299131E+002
+3.59839799750E+007, +5.98573078054E+001, +7.92291356851E+002
+3.61090112641E+007, +6.15062001812E+001, +7.97471163416E+002
+3.62340425532E+007, +6.07847999882E+001, +8.05666706427E+002
+3.63590738423E+007, +6.04529564452E+001, +8.08258265880E+002
+3.64841051314E+007, +6.23835389523E+001, +8.13667211660E+002
+3.66091364205E+007, +6.16931421081E+001, +8.17515782384E+002
+3.67341677096E+007, +6.37973296189E+001, +8.22148505533E+002
+3.68591989987E+007, +6.21703475736E+001, +8.28326728663E+002
+3.69842302879E+007, +6.30455293429E+001, +8.34972162441E+002
+3.71092615770E+007, +6.29066440122E+001, +8.37571075816E+002
+3.72342928661E+007, +6.26534681224E+001, +8.41814490443E+002
+3.73593241552E+007, +6.55773135582E+001, +8.50009822422E+002
+3.74843554443E+007, +6.10323015738E+001, +8.52161093376E+002
+3.76093867334E+007, +6.60322859605E+001, +8.65273991074E+002
+3.77344180225E+007, +6.43370550658E+001, +8.65018874294E+002
+3.78594493116E+007, +6.54216152339E+001, +8.68893482310E+002
+3.79844806008E+007, +6.60303457513E+001, +8.75345169821E+002
+3.81095118899E+007, +6.58230449550E+001, +8.85462235107E+002
+3.82345431790E+007, +6.72287233593E+001, +8.88863979668E+002
+3.83595744681E+007, +6.72649329612E+001, +8.91885302289E+002
+3.84846057572E+007, +6.48636194281E+001, +8.98845181450E+002
+3.86096370463E+007, +6.64882852238E+001, +9.03895718800E+002
+3.87346683354E+007, +6.93156249577E+001, +9.12761994531E+002
+3.88596996245E+007, +6.96367708724E+001, +9.17030925391E+002
+3.89847309136E+007, +7.04074608859E+001, +9.20643069681E+002
+3.91097622028E+007, +7.04892569405E+001, +9.24894409314E+002
+3.92347934919E+007, +7.06844345415E+001, +9.37004871899E+002
+3.93598247810E+007, +7.03978814159E+001, +9.41600358040E+002
+3.94848560701E+007, +6.95430306434E+001, +9.45113920406E+002
+3.96098873592E+007, +7.48110825927E+001, +9.51100422795E+002
+3.97349186483E+007, +7.20305382866E+001, +9.54542007457E+002
+3.98599499374E+007, +7.05515519523E+001, +9.66722128998E+002
+3.99849812265E+007, +7.26527763079E+001, +9.69637476315E+002
+4.01100125156E+007, +8.38301385393E+001, +9.75928971461E+002
