"# Channel 1"
"# Trace 1"
Frequency, Formatted Data, Formatted Data
+1.00000000000E+005, +6.85312433569E+001, +2.08925940573E+000
+3.18898623279E+005, +6.86072714188E+001, +5.55503169393E+000
+5.37797246558E+005, +6.85861973283E+001, +9.49479728192E+000
+7.56695869837E+005, +6.85866445861E+001, +1.33111228529E+001
+9.75594493116E+005, +6.86087530076E+001, +1.71560053120E+001
+1.19449311640E+006, +6.86063646837E+001, +2.09634515292E+001
+1.41339173967E+006, +6.85546049917E+001, +2.48070899438E+001
+1.63229036295E+006, +6.85277347065E+001, +2.87219806113E+001
+1.85118898623E+006, +6.86190384421E+001, +3.26830523945E+001
+2.07008760951E+006, +6.86435790932E+001, +3.64562535382E+001
+2.28898623279E+006, +6.87393879735E+001, +4.04372985897E+001
+2.50788485607E+006, +6.87960020467E+001, +4.41765715074E+001
+2.72678347935E+006, +6.86969586798E+001, +4.81825634907E+001
+2.94568210263E+006, +6.88049462348E+001, +5.19292303346E+001
+3.16458072591E+006, +6.86692745064E+001, +5.59726778942E+001
+3.38347934919E+006, +6.89587830652E+001, +5.97582288419E+001
+3.60237797247E+006, +6.87859669194E+001, +6.33582155317E+001
+3.82127659574E+006, +6.88919708109E+001, +6.72948899797E+001
+4.04017521902E+006, +6.92153487925E+001, +7.13214544890E+001
+4.25907384230E+006, +6.88004577311E+001, +7.50656315860E+001
+4.47797246558E+006, +6.91246076183E+001, +7.90887834590E+001
+4.69687108886E+006, +6.89250438305E+001, +8.30544845926E+001
+4.91576971214E+006, +6.90037774442E+001, +8.68808278460E+001
+5.13466833542E+006, +6.92079792116E+001, +9.07605274119E+001
+5.35356695870E+006, +6.92564850356E+001, +9.46588512666E+001
+5.57246558198E+006, +6.91990479184E+001, +9.84470550406E+001
+5.79136420526E+006, +6.95906669673E+001, +1.02573737308E+002
+6.01026282854E+006, +6.94863177448E+001, +1.06200876199E+002
+6.22916145181E+006, +6.97009762136E+001, +1.10307394328E+002
+6.44806007509E+006, +6.96458511409E+001, +1.13922686468E+002
+6.66695869837E+006, +6.98831972088E+001, +1.18018642668E+002
+6.88585732165E+006, +6.98141030540E+001, +1.22153299523E+002
+7.10475594493E+006, +7.00092328183E+001, +1.25847510664E+002
+7.32365456821E+006, +7.00251809049E+001, +1.29758122448E+002
+7.54255319149E+006, +7.01111892985E+001, +1.33566691123E+002
+7.76145181477E+006, +7.04360231293E+001, +1.37621001825E+002
+7.98035043805E+006, +7.05317582884E+001, +1.41688779737E+002
+8.19924906133E+006, +7.06587158499E+001, +1.45595106931E+002
+8.41814768461E+006, +7.08140580584E+001, +1.49632981894E+002
+8.63704630788E+006, +7.07347055816E+001, +1.53471554310E+002
+8.85594493116E+006, +7.10297189329E+001, +1.57514789209E+002
+9.07484355444E+006, +7.08291891548E+001, +1.61532970537E+002
+9.29374217772E+006, +7.12949021725E+001, +1.65664071916E+002
+9.51264080100E+006, +7.12320442266E+001, +1.69609874804E+002
+9.73153942428E+006, +7.15692284622E+001, +1.73865407538E+002
+9.95043804756E+006, +7.15004628635E+001, +1.77484859060E+002
+1.01693366708E+007, +7.16269703018E+001, +1.81641687042E+002
+1.03882352941E+007, +7.17012557554E+001, +1.85402795697E+002
+1.06071339174E+007, +7.17485636251E+001, +1.89720003346E+002
+1.08260325407E+007, +7.20460887029E+001, +1.93751591240E+002
+1.10449311640E+007, +7.22317485629E+001, +1.97661447569E+002
+1.12638297872E+007, +7.22406064179E+001, +2.02081180799E+002
+1.14827284105E+007, +7.26998044986E+001, +2.05955688814E+002
+1.17016270338E+007, +7.26313405578E+001, +2.10266602306E+002
+1.19205256571E+007, +7.28096248438E+001, +2.14228679608E+002
+1.21394242804E+007, +7.30589466708E+001, +2.18498338971E+002
+1.23583229036E+007, +7.33255613082E+001, +2.22819368216E+002
+1.25772215269E+007, +7.30995790472E+001, +2.26897687411E+002
+1.27961201502E+007, +7.36653540353E+001, +2.30712499064E+002
+1.30150187735E+007, +7.37383970899E+001, +2.34629548927E+002
+1.32339173967E+007, +7.38125577709E+001, +2.39196458430E+002
+1.34528160200E+007, +7.39753332117E+001, +2.43624058404E+002
+1.36717146433E+007, +7.39188027611E+001, +2.47718108010E+002
+1.38906132666E+007, +7.43810103788E+001, +2.52164594324E+002
+1.41095118899E+007, +7.48212120695E+001, +2.56480401179E+002
+1.43284105131E+007, +7.43482205194E+001, +2.60896269924E+002
+1.45473091364E+007, +7.50176846134E+001, +2.65119428986E+002
+1.47662077597E+007, +7.52471829404E+001, +2.68855221644E+002
+1.49851063830E+007, +7.54599419484E+001, +2.73514005461E+002
+1.52040050063E+007, +7.55556299023E+001, +2.78273338971E+002
+1.54229036295E+007, +7.58117660853E+001, +2.82498682113E+002
+1.56418022528E+007, +7.56078907085E+001, +2.86676449426E+002
+1.58607008761E+007, +7.63698889270E+001, +2.91029521579E+002
+1.60795994994E+007, +7.64166438077E+001, +2.95866681564E+002
+1.62984981227E+007, +7.70393365245E+001, +2.99655101005E+002
+1.65173967459E+007, +7.68932666897E+001, +3.04061586290E+002
+1.67362953692E+007, +7.69205491476E+001, +3.08936989249E+002
+1.69551939925E+007, +7.76375274963E+001, +3.12109479228E+002
+1.71740926158E+007, +7.66992022735E+001, +3.17845959393E+002
+1.73929912390E+007, +7.68594789137E+001, +3.22241274398E+002
+1.76118898623E+007, +7.76878751559E+001, +3.26715227136E+002
+1.78307884856E+007, +7.84006400591E+001, +3.30269027496E+002
+1.80496871089E+007, +7.86712274408E+001, +3.35141877978E+002
+1.82685857322E+007, +7.90019065435E+001, +3.40351359925E+002
+1.84874843554E+007, +7.92570667394E+001, +3.44528681000E+002
+1.87063829787E+007, +7.92810488006E+001, +3.49904356945E+002
+1.89252816020E+007, +8.02982774689E+001, +3.54058259424E+002
+1.91441802253E+007, +7.98300904607E+001, +3.58045845813E+002
+1.93630788486E+007, +7.89024999162E+001, +3.63132294639E+002
+1.95819774718E+007, +8.18736009589E+001, +3.67727861320E+002
+1.98008760951E+007, +8.12338105136E+001, +3.72875701825E+002
+2.00197747184E+007, +8.08116913717E+001, +3.77610088811E+002
+2.02386733417E+007, +8.13739386452E+001, +3.82199542268E+002
+2.04575719650E+007, +8.17051284290E+001, +3.86969293280E+002
+2.06764705882E+007, +8.19199753579E+001, +3.91740984982E+002
+2.08953692115E+007, +8.27380261032E+001, +3.97256909727E+002
+2.11142678348E+007, +8.30772182120E+001, +4.01445672843E+002
+2.13331664581E+007, +8.37410584583E+001, +4.06560490389E+002
+2.15520650814E+007, +8.41562501791E+001, +4.10819333718E+002
+2.17709637046E+007, +8.37831556893E+001, +4.15994030883E+002
+2.19898623279E+007, +8.49111427478E+001, +4.21256698014E+002
+2.22087609512E+007, +8.41827167024E+001, +4.25826008154E+002
+2.24276595745E+007, +8.61189644747E+001, +4.32638511245E+002
+2.26465581977E+007, +8.63587449412E+001, +4.36227483406E+002
+2.28654568210E+007, +8.75690591683E+001, +4.40993199687E+002
+2.30843554443E+007, +8.71932458922E+001, +4.45483563619E+002
+2.33032540676E+007, +8.80567952031E+001, +4.50702836990E+002
+2.35221526909E+007, +8.78102614128E+001, +4.57303921532E+002
+2.37410513141E+007, +8.81171494284E+001, +4.60477219617E+002
+2.39599499374E+007, +8.83814640878E+001, +4.66112024214E+002
+2.41788485607E+007, +8.90290659181E+001, +4.71501878084E+002
+2.43977471840E+007, +8.94850648152E+001, +4.77040391087E+002
+2.46166458073E+007, +8.98074113887E+001, +4.84151672622E+002
+2.48355444305E+007, +9.02721582748E+001, +4.87989257762E+002
+2.50544430538E+007, +9.27925553914E+001, +4.93479648449E+002
+2.52733416771E+007, +9.28435967105E+001, +4.99152206375E+002
+2.54922403004E+007, +9.15320144067E+001, +5.04478882851E+002
+2.57111389237E+007, +9.32859393630E+001, +5.10354741702E+002
+2.59300375469E+007, +9.24719134118E+001, +5.14737347821E+002
+2.61489361702E+007, +9.37521240189E+001, +5.18589756818E+002
+2.63678347935E+007, +9.36477128722E+001, +5.25880349612E+002
+2.65867334168E+007, +9.58251608331E+001, +5.31018059953E+002
+2.68056320401E+007, +9.63185346073E+001, +5.35363054333E+002
+2.70245306633E+007, +9.59167134378E+001, +5.42736045955E+002
+2.72434292866E+007, +9.46906268988E+001, +5.48666567070E+002
+2.74623279099E+007, +9.65900186257E+001, +5.52806227983E+002
+2.76812265332E+007, +9.82130974498E+001, +5.60764835710E+002
+2.79001251564E+007, +9.79866773455E+001, +5.66138604054E+002
+2.81190237797E+007, +9.88337170697E+001, +5.71769810182E+002
+2.83379224030E+007, +1.00278021982E+002, +5.77018303032E+002
+2.85568210263E+007, +9.94212725823E+001, +5.82832902633E+002
+2.87757196496E+007, +9.89337771664E+001, +5.88823302670E+002
+2.89946182728E+007, +9.90416253346E+001, +5.96621743377E+002
+2.92135168961E+007, +9.88674270632E+001, +6.02738605704E+002
+2.94324155194E+007, +1.02932677363E+002, +6.08594020793E+002
+2.96513141427E+007, +1.02212535140E+002, +6.14393715560E+002
+2.98702127660E+007, +1.01031072062E+002, +6.21531206244E+002
+3.00891113892E+007, +1.01653575576E+002, +6.28532290120E+002
+3.03080100125E+007, +1.04839364197E+002, +6.32655982929E+002
+3.05269086358E+007, +1.05901155557E+002, +6.40545262397E+002
+3.07458072591E+007, +1.07465859917E+002, +6.44689461944E+002
+3.09647058824E+007, +1.04493374536E+002, +6.52652759207E+002
+3.11836045056E+007, +1.08065127473E+002, +6.58991055600E+002
+3.14025031289E+007, +1.06147196490E+002, +6.64809773084E+002
+3.16214017522E+007, +1.07602481891E+002, +6.71024367839E+002
+3.18403003755E+007, +1.06985351393E+002, +6.84324241347E+002
+3.20591989987E+007, +1.08901226229E+002, +6.88375993267E+002
+3.22780976220E+007, +1.09990172252E+002, +6.93618129489E+002
+3.24969962453E+007, +1.09800267887E+002, +7.00124612529E+002
+3.27158948686E+007, +1.12019287350E+002, +7.06370383796E+002
+3.29347934919E+007, +1.14318419294E+002, +7.14189388635E+002
+3.31536921151E+007, +1.11925778225E+002, +7.18059156851E+002
+3.33725907384E+007, +1.15026378842E+002, +7.28255543672E+002
+3.35914893617E+007, +1.13047174811E+002, +7.37205580239E+002
+3.38103879850E+007, +1.15202731907E+002, +7.44409285894E+002
+3.40292866083E+007, +1.15009128610E+002, +7.50546041615E+002
+3.42481852315E+007, +1.17698530107E+002, +7.58082202033E+002
+3.44670838548E+007, +1.16506350071E+002, +7.66009209052E+002
+3.46859824781E+007, +1.18495769519E+002, +7.73397723480E+002
+3.49048811014E+007, +1.20661186370E+002, +7.82050917046E+002
+3.51237797247E+007, +1.21881465972E+002, +7.87081988424E+002
+3.53426783479E+007, +1.23278839704E+002, +7.97042198458E+002
+3.55615769712E+007, +1.25431030354E+002, +8.04822701622E+002
+3.57804755945E+007, +1.24688157975E+002, +8.10915584372E+002
+3.59993742178E+007, +1.22609939392E+002, +8.23968850406E+002
+3.62182728411E+007, +1.26200609668E+002, +8.24830787458E+002
+3.64371714643E+007, +1.29640452217E+002, +8.35866134874E+002
+3.66560700876E+007, +1.29086041537E+002, +8.45565373429E+002
+3.68749687109E+007, +1.30658039280E+002, +8.58746127638E+002
+3.70938673342E+007, +1.32325431703E+002, +8.61981302324E+002
+3.73127659574E+007, +1.31851334510E+002, +8.72410306387E+002
+3.75316645807E+007, +1.31799579737E+002, +8.77791631958E+002
+3.77505632040E+007, +1.33127963959E+002, +8.89319832698E+002
+3.79694618273E+007, +1.38434993836E+002, +8.99006402024E+002
+3.81883604506E+007, +1.34242374585E+002, +9.10393512599E+002
+3.84072590738E+007, +1.33868817422E+002, +9.18024524311E+002
+3.86261576971E+007, +1.38823036474E+002, +9.26039548878E+002
+3.88450563204E+007, +1.45659698354E+002, +9.35107830234E+002
+3.90639549437E+007, +1.48936600163E+002, +9.38230643162E+002
+3.92828535670E+007, +1.44249701155E+002, +9.54280181704E+002
+3.95017521902E+007, +1.49781817586E+002, +9.62685374069E+002
+3.97206508135E+007, +1.48404649925E+002, +9.77040371574E+002
+3.99395494368E+007, +1.48581320119E+002, +9.83604205001E+002
+4.01584480601E+007, +1.53734250119E+002, +9.94089455393E+002
+4.03773466834E+007, +1.53675604921E+002, +1.00622184109E+003
+4.05962453066E+007, +1.51773532024E+002, +1.02093426225E+003
+4.08151439299E+007, +1.58309931892E+002, +1.02531551088E+003
+4.10340425532E+007, +1.56322365756E+002, +1.03725455987E+003
+4.12529411765E+007, +1.56685456394E+002, +1.04273938662E+003
+4.14718397997E+007, +1.56594857384E+002, +1.06065101976E+003
+4.16907384230E+007, +1.63441314782E+002, +1.07185100845E+003
+4.19096370463E+007, +1.63164798457E+002, +1.08013684163E+003
+4.21285356696E+007, +1.64650509142E+002, +1.09192858239E+003
+4.23474342929E+007, +1.68854647860E+002, +1.10525670587E+003
+4.25663329161E+007, +1.74685071633E+002, +1.11363983983E+003
+4.27852315394E+007, +1.68277137720E+002, +1.12577248439E+003
+4.30041301627E+007, +1.76997634581E+002, +1.14507634850E+003
+4.32230287860E+007, +1.82312562802E+002, +1.15012155082E+003
+4.34419274093E+007, +1.83642305819E+002, +1.16620185322E+003
+4.36608260325E+007, +1.76183903077E+002, +1.17465951653E+003
+4.38797246558E+007, +1.84199853002E+002, +1.19051485602E+003
+4.40986232791E+007, +1.82533956811E+002, +1.20776634446E+003
+4.43175219024E+007, +1.92099789502E+002, +1.22250951925E+003
+4.45364205257E+007, +1.92418215882E+002, +1.23784940530E+003
+4.47553191489E+007, +1.99352641337E+002, +1.24904386164E+003
+4.49742177722E+007, +2.03872092148E+002, +1.26114250102E+003
+4.51931163955E+007, +2.06874800345E+002, +1.27596472488E+003
+4.54120150188E+007, +2.01078456021E+002, +1.28165383541E+003
+4.56309136421E+007, +2.14122986631E+002, +1.30054580518E+003
+4.58498122653E+007, +2.12792262429E+002, +1.31306218128E+003
+4.60687108886E+007, +2.14691962189E+002, +1.33448781206E+003
+4.62876095119E+007, +2.22112802817E+002, +1.34806279622E+003
+4.65065081352E+007, +2.26248300766E+002, +1.35733717504E+003
+4.67254067584E+007, +2.22066027056E+002, +1.37684009971E+003
+4.69443053817E+007, +2.26675564344E+002, +1.38276926824E+003
+4.71632040050E+007, +2.33000661274E+002, +1.40836860240E+003
+4.73821026283E+007, +2.42762044281E+002, +1.41917652549E+003
+4.76010012516E+007, +2.34844604755E+002, +1.44174020449E+003
+4.78198998748E+007, +2.40960845572E+002, +1.46850354069E+003
+4.80387984981E+007, +2.44640162041E+002, +1.48373680220E+003
+4.82576971214E+007, +2.55791676290E+002, +1.50119938440E+003
+4.84765957447E+007, +2.58177840270E+002, +1.51294776768E+003
+4.86954943680E+007, +2.53994111418E+002, +1.53354743905E+003
+4.89143929912E+007, +2.69630161997E+002, +1.55975120800E+003
+4.91332916145E+007, +2.70012604854E+002, +1.57430617567E+003
+4.93521902378E+007, +2.76264486047E+002, +1.59078218291E+003
+4.95710888611E+007, +2.92544521221E+002, +1.60131572275E+003
+4.97899874844E+007, +2.96086353703E+002, +1.62086865601E+003
+5.00088861076E+007, +2.82728442853E+002, +1.64424737123E+003
+5.02277847309E+007, +3.01949303994E+002, +1.67183574815E+003
+5.04466833542E+007, +3.14684787291E+002, +1.68253982207E+003
+5.06655819775E+007, +3.19701619839E+002, +1.71938634075E+003
+5.08844806008E+007, +3.19949295049E+002, +1.72829744202E+003
+5.11033792240E+007, +3.22266255468E+002, +1.76373032008E+003
+5.13222778473E+007, +3.39353525509E+002, +1.79725705624E+003
+5.15411764706E+007, +3.49945295143E+002, +1.82048121549E+003
+5.17600750939E+007, +3.48217436710E+002, +1.84907617778E+003
+5.19789737171E+007, +3.69241220143E+002, +1.86160682517E+003
+5.21978723404E+007, +3.63044488204E+002, +1.88942007473E+003
+5.24167709637E+007, +3.54901749000E+002, +1.92542263959E+003
+5.26356695870E+007, +3.91782573254E+002, +1.92447532986E+003
+5.28545682103E+007, +4.04640582206E+002, +1.97715858456E+003
+5.30734668335E+007, +3.98837737456E+002, +2.00629697929E+003
+5.32923654568E+007, +4.05592626207E+002, +2.05016671319E+003
+5.35112640801E+007, +4.24408427347E+002, +2.05703312190E+003
+5.37301627034E+007, +4.24367557105E+002, +2.11466527821E+003
+5.39490613267E+007, +4.44150532266E+002, +2.12811840674E+003
+5.41679599499E+007, +4.59567363530E+002, +2.17055559343E+003
+5.43868585732E+007, +4.71485435742E+002, +2.20608707133E+003
+5.46057571965E+007, +4.85360280189E+002, +2.23168499324E+003
+5.48246558198E+007, +4.82623894750E+002, +2.27285741068E+003
+5.50435544431E+007, +5.12092016380E+002, +2.32714735236E+003
+5.52624530663E+007, +5.57150344844E+002, +2.38298651342E+003
+5.54813516896E+007, +5.45507479255E+002, +2.39555519533E+003
+5.57002503129E+007, +5.90395956545E+002, +2.41564945709E+003
+5.59191489362E+007, +5.85641662110E+002, +2.46921028227E+003
+5.61380475594E+007, +6.00911108794E+002, +2.49757923093E+003
+5.63569461827E+007, +6.34072891631E+002, +2.58138234652E+003
+5.65758448060E+007, +6.25304113994E+002, +2.58674688334E+003
+5.67947434293E+007, +6.57999679972E+002, +2.64214591534E+003
+5.70136420526E+007, +6.96540156951E+002, +2.71554668450E+003
+5.72325406758E+007, +6.87488104712E+002, +2.73714932308E+003
+5.74514392991E+007, +7.26971004543E+002, +2.80062916239E+003
+5.76703379224E+007, +7.60417995176E+002, +2.85973611376E+003
+5.78892365457E+007, +7.38862392127E+002, +2.94492174228E+003
+5.81081351690E+007, +8.77006809646E+002, +2.95616113110E+003
+5.83270337922E+007, +8.61375868046E+002, +3.07764636555E+003
+5.85459324155E+007, +9.29442561325E+002, +3.07959016896E+003
+5.87648310388E+007, +9.70110464812E+002, +3.16955029529E+003
+5.89837296621E+007, +9.88292191359E+002, +3.23713356347E+003
+5.92026282854E+007, +1.07949187516E+003, +3.25560809938E+003
+5.94215269086E+007, +1.09762074662E+003, +3.36017505446E+003
+5.96404255319E+007, +1.09450853141E+003, +3.47611851042E+003
+5.98593241552E+007, +1.21901259158E+003, +3.51080257266E+003
+6.00782227785E+007, +1.28557558273E+003, +3.59089119452E+003
+6.02971214018E+007, +1.37371662637E+003, +3.70277379567E+003
+6.05160200250E+007, +1.40759211556E+003, +3.73920239352E+003
+6.07349186483E+007, +1.45053181091E+003, +3.80962086429E+003
+6.09538172716E+007, +1.55646522798E+003, +3.96478436742E+003
+6.11727158949E+007, +1.69892346805E+003, +4.01278973508E+003
+6.13916145181E+007, +1.66238225536E+003, +4.10091407582E+003
+6.16105131414E+007, +1.81480719438E+003, +4.22332474031E+003
+6.18294117647E+007, +1.91673728871E+003, +4.25294525011E+003
+6.20483103880E+007, +2.06276093268E+003, +4.44700133495E+003
+6.22672090113E+007, +2.19721220807E+003, +4.50226158324E+003
+6.24861076345E+007, +2.36221004223E+003, +4.54477463476E+003
+6.27050062578E+007, +2.54761073751E+003, +4.58446860316E+003
+6.29239048811E+007, +2.60853223774E+003, +5.00264682907E+003
+6.31428035044E+007, +2.72768885215E+003, +5.10168683883E+003
+6.33617021277E+007, +3.07412092622E+003, +5.06600100599E+003
+6.35806007509E+007, +3.22205439559E+003, +5.35436503264E+003
+6.37994993742E+007, +3.48455997181E+003, +5.38288968917E+003
+6.40183979975E+007, +3.76221199020E+003, +5.28947802478E+003
+6.42372966208E+007, +4.09297241081E+003, +5.69684739450E+003
+6.44561952441E+007, +4.30324066219E+003, +5.59464348720E+003
+6.46750938673E+007, +4.83702359654E+003, +5.83666080305E+003
+6.48939924906E+007, +5.49162069510E+003, +5.60938638819E+003
+6.51128911139E+007, +5.82474002522E+003, +5.89786297200E+003
+6.53317897372E+007, +6.27748306250E+003, +5.43167980033E+003
+6.55506883605E+007, +6.66593015249E+003, +5.41969093619E+003
+6.57695869837E+007, +7.19504744689E+003, +5.47093512027E+003
+6.59884856070E+007, +7.63009200277E+003, +4.97596711268E+003
+6.62073842303E+007, +8.67117490533E+003, +4.98558360246E+003
+6.64262828536E+007, +8.85551891306E+003, +4.62720110533E+003
+6.66451814768E+007, +9.28012738616E+003, +4.27950561373E+003
+6.68640801001E+007, +9.96982069019E+003, +3.84239042167E+003
+6.70829787234E+007, +1.05809832682E+004, +2.67467333649E+003
+6.73018773467E+007, +1.03408766743E+004, +2.05070291401E+003
+6.75207759700E+007, +1.05504449151E+004, +9.82476247791E+002
+6.77396745932E+007, +1.11929278633E+004, +7.88460471126E+002
+6.79585732165E+007, +1.04185383300E+004, -2.66821651838E+002
+6.81774718398E+007, +1.12306480027E+004, -1.10048610769E+003
+6.83963704631E+007, +1.03952239157E+004, -1.47021962957E+003
+6.86152690864E+007, +9.94581780183E+003, -2.35984543765E+003
+6.88341677096E+007, +9.75375687099E+003, -2.72165287402E+003
+6.90530663329E+007, +9.12045301315E+003, -2.87284163642E+003
+6.92719649562E+007, +8.57762489824E+003, -3.46645855798E+003
+6.94908635795E+007, +8.19425544165E+003, -3.97835641510E+003
+6.97097622028E+007, +7.66661468469E+003, -4.07899758304E+003
+6.99286608260E+007, +7.07978059466E+003, -4.60437464397E+003
+7.01475594493E+007, +6.61385199870E+003, -4.98355903970E+003
