"# Channel 1"
"# Trace 1"
Frequency, Formatted Data, Formatted Data
+1.00000000000E+005, +3.86920247857E+001, +1.54745317296E+000
+2.66777963272E+005, +3.86285332998E+001, +4.56153950611E+000
+4.33555926544E+005, +3.86721965834E+001, +7.40505810263E+000
+6.00333889816E+005, +3.86366233480E+001, +1.02830111171E+001
+7.67111853088E+005, +3.86508436728E+001, +1.30981233477E+001
+9.33889816361E+005, +3.86688474551E+001, +1.59460686802E+001
+1.10066777963E+006, +3.86942670125E+001, +1.88899056715E+001
+1.26744574290E+006, +3.86707557216E+001, +2.16532931905E+001
+1.43422370618E+006, +3.87305543965E+001, +2.45943833764E+001
+1.60100166945E+006, +3.86782914882E+001, +2.73780243246E+001
+1.76777963272E+006, +3.86817861619E+001, +3.02033757330E+001
+1.93455759599E+006, +3.86716467234E+001, +3.31127513101E+001
+2.10133555927E+006, +3.86251626827E+001, +3.59269376265E+001
+2.26811352254E+006, +3.87612264072E+001, +3.87736101015E+001
+2.43489148581E+006, +3.87505512351E+001, +4.17020089645E+001
+2.60166944908E+006, +3.87143970387E+001, +4.44732681499E+001
+2.76844741235E+006, +3.87337759622E+001, +4.73939607311E+001
+2.93522537563E+006, +3.87336794572E+001, +5.02512186856E+001
+3.10200333890E+006, +3.87131427752E+001, +5.30443596450E+001
+3.26878130217E+006, +3.86264852017E+001, +5.60049124973E+001
+3.43555926544E+006, +3.87647977202E+001, +5.88092195019E+001
+3.60233722871E+006, +3.88212894799E+001, +6.17254983476E+001
+3.76911519199E+006, +3.88101228269E+001, +6.46423781272E+001
+3.93589315526E+006, +3.87280280748E+001, +6.73732489690E+001
+4.10267111853E+006, +3.87408746285E+001, +7.04162322862E+001
+4.26944908180E+006, +3.88695643602E+001, +7.33508780559E+001
+4.43622704508E+006, +3.88856670981E+001, +7.61273883749E+001
+4.60300500835E+006, +3.89047876607E+001, +7.91333172880E+001
+4.76978297162E+006, +3.88798042568E+001, +8.18815711827E+001
+4.93656093489E+006, +3.89158665020E+001, +8.47755377795E+001
+5.10333889816E+006, +3.89307500315E+001, +8.76738923092E+001
+5.27011686144E+006, +3.92054044274E+001, +9.06026297968E+001
+5.43689482471E+006, +3.90137946060E+001, +9.35602434513E+001
+5.60367278798E+006, +3.91521575316E+001, +9.65138682759E+001
+5.77045075125E+006, +3.91198403991E+001, +9.93230031506E+001
+5.93722871452E+006, +3.92414815486E+001, +1.02252193052E+002
+6.10400667780E+006, +3.92445961335E+001, +1.05212943507E+002
+6.27078464107E+006, +3.94470466499E+001, +1.07962526534E+002
+6.43756260434E+006, +3.93809511541E+001, +1.11035049569E+002
+6.60434056761E+006, +3.94404500078E+001, +1.13833893693E+002
+6.77111853088E+006, +3.96933300282E+001, +1.16724342881E+002
+6.93789649416E+006, +3.95669548329E+001, +1.19725094786E+002
+7.10467445743E+006, +3.95634314615E+001, +1.22658663650E+002
+7.27145242070E+006, +3.96282268676E+001, +1.25540918128E+002
+7.43823038397E+006, +3.97724521455E+001, +1.28443624580E+002
+7.60500834725E+006, +3.96781591948E+001, +1.31374588477E+002
+7.77178631052E+006, +3.98109588741E+001, +1.34491181409E+002
+7.93856427379E+006, +3.97674895186E+001, +1.37268539862E+002
+8.10534223706E+006, +3.98720101272E+001, +1.40293169823E+002
+8.27212020033E+006, +3.98990846542E+001, +1.43165694560E+002
+8.43889816361E+006, +3.98174455328E+001, +1.46249048463E+002
+8.60567612688E+006, +3.98260532966E+001, +1.49397758660E+002
+8.77245409015E+006, +3.98918230560E+001, +1.52130352551E+002
+8.93923205342E+006, +4.01357183268E+001, +1.55222639393E+002
+9.10601001669E+006, +4.01742403443E+001, +1.58352039298E+002
+9.27278797997E+006, +4.01060954527E+001, +1.61154922395E+002
+9.43956594324E+006, +4.01873674308E+001, +1.64301967615E+002
+9.60634390651E+006, +4.01967977985E+001, +1.67308974139E+002
+9.77312186978E+006, +4.02344438606E+001, +1.70324357260E+002
+9.93989983306E+006, +4.03288453218E+001, +1.73479563804E+002
+1.01066777963E+007, +4.01879406018E+001, +1.76536454531E+002
+1.02734557596E+007, +4.03045366044E+001, +1.79640420582E+002
+1.04402337229E+007, +4.03599423050E+001, +1.82750729818E+002
+1.06070116861E+007, +4.03358506431E+001, +1.85861089716E+002
+1.07737896494E+007, +4.04111074204E+001, +1.88739520795E+002
+1.09405676127E+007, +4.07714105494E+001, +1.91894885342E+002
+1.11073455760E+007, +4.04424272046E+001, +1.95301047699E+002
+1.12741235392E+007, +4.07406773938E+001, +1.98058463158E+002
+1.14409015025E+007, +4.07584233281E+001, +2.01237543835E+002
+1.16076794658E+007, +4.09067380771E+001, +2.04389070357E+002
+1.17744574290E+007, +4.12414265947E+001, +2.07653409247E+002
+1.19412353923E+007, +4.09222809104E+001, +2.10657119630E+002
+1.21080133556E+007, +4.07776210470E+001, +2.14136953145E+002
+1.22747913189E+007, +4.11645524879E+001, +2.17319651714E+002
+1.24415692821E+007, +4.11590448255E+001, +2.20433102330E+002
+1.26083472454E+007, +4.11728069224E+001, +2.23381648436E+002
+1.27751252087E+007, +4.13470224682E+001, +2.26823997741E+002
+1.29419031720E+007, +4.11623855931E+001, +2.29761951750E+002
+1.31086811352E+007, +4.13777144296E+001, +2.33194396567E+002
+1.32754590985E+007, +4.14635382123E+001, +2.36493636352E+002
+1.34422370618E+007, +4.13064454982E+001, +2.39672630995E+002
+1.36090150250E+007, +4.19690167590E+001, +2.42651403854E+002
+1.37757929883E+007, +4.16825628739E+001, +2.46079732078E+002
+1.39425709516E+007, +4.16874281496E+001, +2.49170571942E+002
+1.41093489149E+007, +4.18723331353E+001, +2.52565114408E+002
+1.42761268781E+007, +4.20474773911E+001, +2.56097685168E+002
+1.44429048414E+007, +4.22240667874E+001, +2.58957823553E+002
+1.46096828047E+007, +4.20799606306E+001, +2.62630063140E+002
+1.47764607679E+007, +4.25464143369E+001, +2.65498283746E+002
+1.49432387312E+007, +4.20756135671E+001, +2.69333001332E+002
+1.51100166945E+007, +4.24491342797E+001, +2.72447324729E+002
+1.52767946578E+007, +4.29904439270E+001, +2.75905832131E+002
+1.54435726210E+007, +4.31033697674E+001, +2.78896755516E+002
+1.56103505843E+007, +4.32412821489E+001, +2.82736751620E+002
+1.57771285476E+007, +4.30993365622E+001, +2.86015714047E+002
+1.59439065109E+007, +4.33228104597E+001, +2.89259257020E+002
+1.61106844741E+007, +4.36659815123E+001, +2.93241804763E+002
+1.62774624374E+007, +4.36590274202E+001, +2.95981577371E+002
+1.64442404007E+007, +4.35672992476E+001, +2.99146477795E+002
+1.66110183639E+007, +4.40139615865E+001, +3.03037095459E+002
+1.67777963272E+007, +4.38697820873E+001, +3.06738911279E+002
+1.69445742905E+007, +4.40965436375E+001, +3.09985089199E+002
+1.71113522538E+007, +4.34742657717E+001, +3.13065955923E+002
+1.72781302170E+007, +4.39721411357E+001, +3.17499376696E+002
+1.74449081803E+007, +4.39041864843E+001, +3.20142622178E+002
+1.76116861436E+007, +4.48757381302E+001, +3.24273274233E+002
+1.77784641068E+007, +4.42860303929E+001, +3.27015488368E+002
+1.79452420701E+007, +4.47855993505E+001, +3.30629461877E+002
+1.81120200334E+007, +4.47539801187E+001, +3.33795148230E+002
+1.82787979967E+007, +4.51261943103E+001, +3.38266107967E+002
+1.84455759599E+007, +4.55418029332E+001, +3.41963286029E+002
+1.86123539232E+007, +4.57165798671E+001, +3.45638496893E+002
+1.87791318865E+007, +4.54476697578E+001, +3.49674362858E+002
+1.89459098497E+007, +4.55165530069E+001, +3.53087799439E+002
+1.91126878130E+007, +4.58635713489E+001, +3.56379557123E+002
+1.92794657763E+007, +4.58910035564E+001, +3.59975079617E+002
+1.94462437396E+007, +4.65582551773E+001, +3.64193669019E+002
+1.96130217028E+007, +4.60682422538E+001, +3.68054753757E+002
+1.97797996661E+007, +4.74336697856E+001, +3.71095190971E+002
+1.99465776294E+007, +4.62446110265E+001, +3.75308521351E+002
+2.01133555927E+007, +4.65014510317E+001, +3.78913897155E+002
+2.02801335559E+007, +4.68270518405E+001, +3.83379332426E+002
+2.04469115192E+007, +4.78758237902E+001, +3.86715989852E+002
+2.06136894825E+007, +4.73628312867E+001, +3.90517110425E+002
+2.07804674457E+007, +4.83993234801E+001, +3.94957209571E+002
+2.09472454090E+007, +4.82228112274E+001, +3.99303118735E+002
+2.11140233723E+007, +4.79370811959E+001, +4.02037538296E+002
+2.12808013356E+007, +4.89282807747E+001, +4.06272091930E+002
+2.14475792988E+007, +4.88726758437E+001, +4.10309424723E+002
+2.16143572621E+007, +4.99026331524E+001, +4.14528067917E+002
+2.17811352254E+007, +4.93615745160E+001, +4.17681463306E+002
+2.19479131886E+007, +5.03359209310E+001, +4.22570608028E+002
+2.21146911519E+007, +5.09482257924E+001, +4.25064253925E+002
+2.22814691152E+007, +5.09932479884E+001, +4.30190708045E+002
+2.24482470785E+007, +5.11785366011E+001, +4.34761715492E+002
+2.26150250417E+007, +5.22237629504E+001, +4.37830707614E+002
+2.27818030050E+007, +5.22251790810E+001, +4.41996440026E+002
+2.29485809683E+007, +5.40721377191E+001, +4.46354517416E+002
+2.31153589316E+007, +5.18044031304E+001, +4.51553425067E+002
+2.32821368948E+007, +5.32611507193E+001, +4.55074797432E+002
+2.34489148581E+007, +5.34857679654E+001, +4.58444994710E+002
+2.36156928214E+007, +5.41283591193E+001, +4.63204444259E+002
+2.37824707846E+007, +5.47814524696E+001, +4.67962975993E+002
+2.39492487479E+007, +5.42115122550E+001, +4.70734307387E+002
+2.41160267112E+007, +5.45075610773E+001, +4.75186333140E+002
+2.42828046745E+007, +5.36524822535E+001, +4.80599431944E+002
+2.44495826377E+007, +5.64051862989E+001, +4.84411704227E+002
+2.46163606010E+007, +5.53383251681E+001, +4.87773450119E+002
+2.47831385643E+007, +5.59746325906E+001, +4.93312479679E+002
+2.49499165275E+007, +5.80935087874E+001, +4.96908555077E+002
+2.51166944908E+007, +5.85008153268E+001, +5.02550171109E+002
+2.52834724541E+007, +5.75441459827E+001, +5.06467358726E+002
+2.54502504174E+007, +5.93056845534E+001, +5.09751036083E+002
+2.56170283806E+007, +5.90841827376E+001, +5.14571423379E+002
+2.57838063439E+007, +5.95535579475E+001, +5.20920627821E+002
+2.59505843072E+007, +6.06493171709E+001, +5.25607656391E+002
+2.61173622705E+007, +6.21200717869E+001, +5.29200922235E+002
+2.62841402337E+007, +6.08982802340E+001, +5.34372294854E+002
+2.64509181970E+007, +6.07788955226E+001, +5.38452238915E+002
+2.66176961603E+007, +6.21507100426E+001, +5.44163354643E+002
+2.67844741235E+007, +6.14303170721E+001, +5.48598206168E+002
+2.69512520868E+007, +6.43563862629E+001, +5.52093379518E+002
+2.71180300501E+007, +6.34121874558E+001, +5.54737598259E+002
+2.72848080134E+007, +6.43442945465E+001, +5.61162858918E+002
+2.74515859766E+007, +6.49894187176E+001, +5.65544576584E+002
+2.76183639399E+007, +6.40771229126E+001, +5.70218377675E+002
+2.77851419032E+007, +6.58769198515E+001, +5.75909122458E+002
+2.79519198664E+007, +6.53436580317E+001, +5.79681797251E+002
+2.81186978297E+007, +6.62846933705E+001, +5.83436016332E+002
+2.82854757930E+007, +6.78128143403E+001, +5.89062046028E+002
+2.84522537563E+007, +6.32897339818E+001, +5.96131341563E+002
+2.86190317195E+007, +6.48895891726E+001, +5.98903558632E+002
+2.87858096828E+007, +6.89401472846E+001, +6.06045335312E+002
+2.89525876461E+007, +6.92752443603E+001, +6.10122963399E+002
+2.91193656093E+007, +6.70618277647E+001, +6.14205293705E+002
+2.92861435726E+007, +6.70031975440E+001, +6.20017493558E+002
+2.94529215359E+007, +7.01375169859E+001, +6.25266225584E+002
+2.96196994992E+007, +7.11473195160E+001, +6.31028788663E+002
+2.97864774624E+007, +7.17902255454E+001, +6.36563530255E+002
+2.99532554257E+007, +7.30069806536E+001, +6.41838644007E+002
+3.01200333890E+007, +7.16622106886E+001, +6.46354731316E+002
+3.02868113523E+007, +7.18306870474E+001, +6.53394647386E+002
+3.04535893155E+007, +7.19336481869E+001, +6.59879821201E+002
+3.06203672788E+007, +7.32145808122E+001, +6.64752985890E+002
+3.07871452421E+007, +7.33272863060E+001, +6.68893424388E+002
+3.09539232053E+007, +7.37354619621E+001, +6.74830740620E+002
+3.11207011686E+007, +7.48398024134E+001, +6.82188763387E+002
+3.12874791319E+007, +7.67308348084E+001, +6.86416364706E+002
+3.14542570952E+007, +7.76348818270E+001, +6.92051372775E+002
+3.16210350584E+007, +7.53290745588E+001, +6.97948016981E+002
+3.17878130217E+007, +7.54742392102E+001, +7.04132471129E+002
+3.19545909850E+007, +7.63208429588E+001, +7.11706280761E+002
+3.21213689482E+007, +7.46155620410E+001, +7.19490143228E+002
+3.22881469115E+007, +7.76105480124E+001, +7.22135603015E+002
+3.24549248748E+007, +7.91620055742E+001, +7.30378660667E+002
+3.26217028381E+007, +7.65165966883E+001, +7.36114590238E+002
+3.27884808013E+007, +8.04964174007E+001, +7.42498605875E+002
+3.29552587646E+007, +8.17796368881E+001, +7.46573665749E+002
+3.31220367279E+007, +8.19799758559E+001, +7.54635899955E+002
+3.32888146912E+007, +8.16465448345E+001, +7.62611530051E+002
+3.34555926544E+007, +8.09677706889E+001, +7.66616102374E+002
+3.36223706177E+007, +8.44835096963E+001, +7.74479639041E+002
+3.37891485810E+007, +8.47465990271E+001, +7.79857497411E+002
+3.39559265442E+007, +8.51221569619E+001, +7.90928047804E+002
+3.41227045075E+007, +8.50969734220E+001, +7.93478288406E+002
+3.42894824708E+007, +8.53623550243E+001, +8.03109519847E+002
+3.44562604341E+007, +8.81732595306E+001, +8.08628400000E+002
+3.46230383973E+007, +9.05718919758E+001, +8.17820436483E+002
+3.47898163606E+007, +9.01694232031E+001, +8.22199905328E+002
+3.49565943239E+007, +9.16770112030E+001, +8.32783497229E+002
+3.51233722871E+007, +9.04830807027E+001, +8.36710056068E+002
+3.52901502504E+007, +9.20388362857E+001, +8.42564213005E+002
+3.54569282137E+007, +9.26345560058E+001, +8.54909198396E+002
+3.56237061770E+007, +9.20898778489E+001, +8.60393467269E+002
+3.57904841402E+007, +9.37668093854E+001, +8.69193671213E+002
+3.59572621035E+007, +9.37735465846E+001, +8.76694843685E+002
+3.61240400668E+007, +9.42293084647E+001, +8.85499521377E+002
+3.62908180301E+007, +9.56072252589E+001, +8.94395359333E+002
+3.64575959933E+007, +9.58264609601E+001, +9.05159161019E+002
+3.66243739566E+007, +1.00255882521E+002, +9.07143473549E+002
+3.67911519199E+007, +9.96294823093E+001, +9.22192856061E+002
+3.69579298831E+007, +9.79645795545E+001, +9.25390144382E+002
+3.71247078464E+007, +1.02763261893E+002, +9.39095987316E+002
+3.72914858097E+007, +9.99379526904E+001, +9.46396628913E+002
+3.74582637730E+007, +1.06331151374E+002, +9.58281922356E+002
+3.76250417362E+007, +1.06184278401E+002, +9.64060201171E+002
+3.77918196995E+007, +1.05915924012E+002, +9.70074006337E+002
+3.79585976628E+007, +1.08985556920E+002, +9.83006274791E+002
+3.81253756260E+007, +1.13529151837E+002, +9.92582489848E+002
+3.82921535893E+007, +1.14645660733E+002, +1.00257919203E+003
+3.84589315526E+007, +1.16118460389E+002, +1.01242989189E+003
+3.86257095159E+007, +1.14019081693E+002, +1.02421777098E+003
+3.87924874791E+007, +1.12648974947E+002, +1.03014102681E+003
+3.89592654424E+007, +1.18912926901E+002, +1.03704221373E+003
+3.91260434057E+007, +1.22050741142E+002, +1.05684056101E+003
+3.92928213689E+007, +1.21867045229E+002, +1.06429764326E+003
+3.94595993322E+007, +1.21819906500E+002, +1.07653108077E+003
+3.96263772955E+007, +1.17340973463E+002, +1.08498122255E+003
+3.97931552588E+007, +1.25434492465E+002, +1.09531830169E+003
+3.99599332220E+007, +1.24840655200E+002, +1.10603164630E+003
+4.01267111853E+007, +1.27399927145E+002, +1.12073022110E+003
+4.02934891486E+007, +1.28217204327E+002, +1.13050480356E+003
+4.04602671119E+007, +1.34819255325E+002, +1.13536054802E+003
+4.06270450751E+007, +1.40792102601E+002, +1.15374805165E+003
+4.07938230384E+007, +1.43284764875E+002, +1.16883756802E+003
+4.09606010017E+007, +1.45263148806E+002, +1.17962435388E+003
+4.11273789649E+007, +1.46732321090E+002, +1.18885328123E+003
+4.12941569282E+007, +1.53032137658E+002, +1.20678066513E+003
+4.14609348915E+007, +1.50858083393E+002, +1.22275043961E+003
+4.16277128548E+007, +1.54425006317E+002, +1.23217868439E+003
+4.17944908180E+007, +1.53578506296E+002, +1.24253352771E+003
+4.19612687813E+007, +1.57628722619E+002, +1.25465440223E+003
+4.21280467446E+007, +1.58818684222E+002, +1.27771819586E+003
+4.22948247078E+007, +1.62778264969E+002, +1.28267612531E+003
+4.24616026711E+007, +1.69316735616E+002, +1.29667819803E+003
+4.26283806344E+007, +1.77635911364E+002, +1.31294828236E+003
+4.27951585977E+007, +1.68548743879E+002, +1.33697999336E+003
+4.29619365609E+007, +1.84080059821E+002, +1.34716503332E+003
+4.31287145242E+007, +1.80934484955E+002, +1.36448360861E+003
+4.32954924875E+007, +1.79736160693E+002, +1.38232057342E+003
+4.34622704508E+007, +1.85440499459E+002, +1.40413183926E+003
+4.36290484140E+007, +1.96572574562E+002, +1.41658179152E+003
+4.37958263773E+007, +1.96232203469E+002, +1.44734447916E+003
+4.39626043406E+007, +2.03649547844E+002, +1.44702571759E+003
+4.41293823038E+007, +2.13432469148E+002, +1.47272353943E+003
+4.42961602671E+007, +2.18498000197E+002, +1.49590368868E+003
+4.44629382304E+007, +2.14439194307E+002, +1.50306354306E+003
+4.46297161937E+007, +2.25932292228E+002, +1.52998004892E+003
+4.47964941569E+007, +2.33152528509E+002, +1.54943716135E+003
+4.49632721202E+007, +2.33595741782E+002, +1.57560072391E+003
+4.51300500835E+007, +2.37397155859E+002, +1.58063467379E+003
+4.52968280467E+007, +2.56258683581E+002, +1.61316648483E+003
+4.54636060100E+007, +2.66162465881E+002, +1.64106922306E+003
+4.56303839733E+007, +2.64784213388E+002, +1.66815123784E+003
+4.57971619366E+007, +2.75870980441E+002, +1.67556061609E+003
+4.59639398998E+007, +2.84038896866E+002, +1.72215321885E+003
+4.61307178631E+007, +2.96608890340E+002, +1.73192982568E+003
+4.62974958264E+007, +3.09143393791E+002, +1.75562905472E+003
+4.64642737896E+007, +3.08025492292E+002, +1.78935724047E+003
+4.66310517529E+007, +3.21517916758E+002, +1.81112233127E+003
+4.67978297162E+007, +3.59710871342E+002, +1.82410132288E+003
+4.69646076795E+007, +3.39587395968E+002, +1.88595383565E+003
+4.71313856427E+007, +3.68229674175E+002, +1.90509675983E+003
+4.72981636060E+007, +3.71662930970E+002, +1.93584710145E+003
+4.74649415693E+007, +3.83170855522E+002, +1.94626800968E+003
+4.76317195326E+007, +4.14706046717E+002, +1.97880449889E+003
+4.77984974958E+007, +4.44201689251E+002, +2.02009233324E+003
+4.79652754591E+007, +4.58516370731E+002, +2.04510884916E+003
+4.81320534224E+007, +4.63393790839E+002, +2.06974062999E+003
+4.82988313856E+007, +4.69235246480E+002, +2.11009346716E+003
+4.84656093489E+007, +5.27594036482E+002, +2.13998976990E+003
+4.86323873122E+007, +5.44743599260E+002, +2.14848412086E+003
+4.87991652755E+007, +5.72631358148E+002, +2.21568932706E+003
+4.89659432387E+007, +5.64465471656E+002, +2.23489146435E+003
+4.91327212020E+007, +6.32486814075E+002, +2.26865279176E+003
+4.92994991653E+007, +6.46667662676E+002, +2.28538318586E+003
+4.94662771285E+007, +6.84762519766E+002, +2.33110206195E+003
+4.96330550918E+007, +7.22585343324E+002, +2.33888950835E+003
+4.97998330551E+007, +7.37109983093E+002, +2.36749739034E+003
+4.99666110184E+007, +7.75202910115E+002, +2.40356194467E+003
+5.01333889816E+007, +7.88100929975E+002, +2.43932192795E+003
+5.03001669449E+007, +8.03149103863E+002, +2.48959749447E+003
+5.04669449082E+007, +8.43916975004E+002, +2.51680750783E+003
+5.06337228715E+007, +9.05457290322E+002, +2.53630269106E+003
+5.08005008347E+007, +9.07690983438E+002, +2.57693637195E+003
+5.09672787980E+007, +9.37659118267E+002, +2.59648878809E+003
+5.11340567613E+007, +9.64737717854E+002, +2.66341056766E+003
+5.13008347245E+007, +9.79855198313E+002, +2.71496053370E+003
+5.14676126878E+007, +1.02387715460E+003, +2.72708375857E+003
+5.16343906511E+007, +1.07649088096E+003, +2.81131219614E+003
+5.18011686144E+007, +1.05983811731E+003, +2.84504700591E+003
+5.19679465776E+007, +1.12358857746E+003, +2.91232863969E+003
+5.21347245409E+007, +1.21952557144E+003, +2.97951295175E+003
+5.23015025042E+007, +1.29398850190E+003, +3.08607236392E+003
+5.24682804674E+007, +1.26300329604E+003, +3.14721572685E+003
+5.26350584307E+007, +1.35275493498E+003, +3.18671123577E+003
+5.28018363940E+007, +1.43473939092E+003, +3.36675390088E+003
+5.29686143573E+007, +1.55062842647E+003, +3.37703993903E+003
+5.31353923205E+007, +1.54649239944E+003, +3.46505789751E+003
+5.33021702838E+007, +1.66114276716E+003, +3.53315372858E+003
+5.34689482471E+007, +1.83195683855E+003, +3.61301588320E+003
