"# Channel 1"
"# Trace 1"
Frequency, Formatted Data, Formatted Data
+1.00000000000E+005, +3.28149150784E+001, +1.64121547079E+000
+2.25031289111E+005, +3.27483211002E+001, +3.88003303810E+000
+3.50062578223E+005, +3.27813832168E+001, +5.90514139079E+000
+4.75093867334E+005, +3.27687415635E+001, +8.04939643991E+000
+6.00125156446E+005, +3.28001392860E+001, +1.01854929018E+001
+7.25156445557E+005, +3.28354834262E+001, +1.22685952606E+001
+8.50187734668E+005, +3.27942256295E+001, +1.43883287214E+001
+9.75219023780E+005, +3.27977408474E+001, +1.64799721158E+001
+1.10025031289E+006, +3.27864231441E+001, +1.85375568979E+001
+1.22528160200E+006, +3.28262163124E+001, +2.06597143103E+001
+1.35031289111E+006, +3.28150074630E+001, +2.27344072310E+001
+1.47534418023E+006, +3.27996812406E+001, +2.48822119026E+001
+1.60037546934E+006, +3.28120185583E+001, +2.69610651344E+001
+1.72540675845E+006, +3.28091230801E+001, +2.90872990669E+001
+1.85043804756E+006, +3.27748225224E+001, +3.11184605657E+001
+1.97546933667E+006, +3.28556310801E+001, +3.32874107698E+001
+2.10050062578E+006, +3.28081003930E+001, +3.53612210313E+001
+2.22553191489E+006, +3.27331459489E+001, +3.74447475781E+001
+2.35056320401E+006, +3.28333428280E+001, +3.95445730779E+001
+2.47559449312E+006, +3.27803076365E+001, +4.16038249387E+001
+2.60062578223E+006, +3.27694187185E+001, +4.37060412616E+001
+2.72565707134E+006, +3.27824987490E+001, +4.58433471702E+001
+2.85068836045E+006, +3.27192918601E+001, +4.79268970921E+001
+2.97571964956E+006, +3.27920066197E+001, +5.00104666469E+001
+3.10075093867E+006, +3.26927365846E+001, +5.21857018612E+001
+3.22578222778E+006, +3.27724675744E+001, +5.42384951248E+001
+3.35081351690E+006, +3.28341239107E+001, +5.62776217894E+001
+3.47584480601E+006, +3.28434044251E+001, +5.83870701625E+001
+3.60087609512E+006, +3.28039339158E+001, +6.05396606034E+001
+3.72590738423E+006, +3.27634517603E+001, +6.26370193550E+001
+3.85093867334E+006, +3.28400733608E+001, +6.47928777873E+001
+3.97596996245E+006, +3.27731353244E+001, +6.67649353447E+001
+4.10100125156E+006, +3.28626073421E+001, +6.89647589802E+001
+4.22603254068E+006, +3.27148452036E+001, +7.10571772786E+001
+4.35106382979E+006, +3.27297262342E+001, +7.31209006691E+001
+4.47609511890E+006, +3.26722793707E+001, +7.53683538125E+001
+4.60112640801E+006, +3.26900910231E+001, +7.73768944706E+001
+4.72615769712E+006, +3.27439672467E+001, +7.94048219225E+001
+4.85118898623E+006, +3.28231238647E+001, +8.14831469498E+001
+4.97622027534E+006, +3.28149532927E+001, +8.37120439179E+001
+5.10125156446E+006, +3.29517236794E+001, +8.58031560879E+001
+5.22628285357E+006, +3.26835090445E+001, +8.78722913957E+001
+5.35131414268E+006, +3.27480810927E+001, +9.00000344277E+001
+5.47634543179E+006, +3.27485613632E+001, +9.21083947402E+001
+5.60137672090E+006, +3.27900007308E+001, +9.42751575428E+001
+5.72640801001E+006, +3.27709729885E+001, +9.63381796296E+001
+5.85143929912E+006, +3.29722097336E+001, +9.84908165492E+001
+5.97647058824E+006, +3.29029341474E+001, +1.00613498567E+002
+6.10150187735E+006, +3.28753224504E+001, +1.02576005680E+002
+6.22653316646E+006, +3.29748662213E+001, +1.04816326694E+002
+6.35156445557E+006, +3.29412961053E+001, +1.06893972260E+002
+6.47659574468E+006, +3.29510139160E+001, +1.09015969953E+002
+6.60162703379E+006, +3.30001503022E+001, +1.11235839500E+002
+6.72665832290E+006, +3.29968231856E+001, +1.13243702622E+002
+6.85168961202E+006, +3.30223142654E+001, +1.15450375404E+002
+6.97672090113E+006, +3.30337329590E+001, +1.17545144079E+002
+7.10175219024E+006, +3.30446077570E+001, +1.19590703228E+002
+7.22678347935E+006, +3.30590420559E+001, +1.21759387445E+002
+7.35181476846E+006, +3.31146958506E+001, +1.23946931092E+002
+7.47684605757E+006, +3.31215926904E+001, +1.25919489000E+002
+7.60187734668E+006, +3.30281033059E+001, +1.28154109375E+002
+7.72690863579E+006, +3.31951569500E+001, +1.30239130754E+002
+7.85193992491E+006, +3.30885196875E+001, +1.32355830425E+002
+7.97697121402E+006, +3.31861925905E+001, +1.34565884425E+002
+8.10200250313E+006, +3.33014060187E+001, +1.36695376549E+002
+8.22703379224E+006, +3.32453247111E+001, +1.38908728126E+002
+8.35206508135E+006, +3.32297409297E+001, +1.40836988916E+002
+8.47709637046E+006, +3.31747638215E+001, +1.43051144716E+002
+8.60212765957E+006, +3.32024451113E+001, +1.45157857193E+002
+8.72715894869E+006, +3.31637013262E+001, +1.47173394644E+002
+8.85219023780E+006, +3.32279103913E+001, +1.49359267413E+002
+8.97722152691E+006, +3.34221582436E+001, +1.51705059220E+002
+9.10225281602E+006, +3.32369441291E+001, +1.53581915109E+002
+9.22728410513E+006, +3.31555019348E+001, +1.55812750960E+002
+9.35231539424E+006, +3.32681403803E+001, +1.57746577918E+002
+9.47734668335E+006, +3.32655825393E+001, +1.60176133756E+002
+9.60237797247E+006, +3.32613311876E+001, +1.62291331761E+002
+9.72740926158E+006, +3.34258920417E+001, +1.64174175508E+002
+9.85244055069E+006, +3.32679294271E+001, +1.66515128290E+002
+9.97747183980E+006, +3.32374899187E+001, +1.68738080517E+002
+1.01025031289E+007, +3.33125173175E+001, +1.70675242525E+002
+1.02275344180E+007, +3.34328349589E+001, +1.73092365610E+002
+1.03525657071E+007, +3.33541295990E+001, +1.75013914390E+002
+1.04775969962E+007, +3.33705855481E+001, +1.77300882888E+002
+1.06026282854E+007, +3.33767614097E+001, +1.79240844615E+002
+1.07276595745E+007, +3.34936938330E+001, +1.81671083370E+002
+1.08526908636E+007, +3.33423012471E+001, +1.83711110065E+002
+1.09777221527E+007, +3.33364580337E+001, +1.85759410814E+002
+1.11027534418E+007, +3.33583619650E+001, +1.87982399018E+002
+1.12277847309E+007, +3.35197882010E+001, +1.90131896072E+002
+1.13528160200E+007, +3.31900313539E+001, +1.92428817870E+002
+1.14778473091E+007, +3.36017249660E+001, +1.94479697041E+002
+1.16028785982E+007, +3.35443844388E+001, +1.96377906826E+002
+1.17279098874E+007, +3.34198062996E+001, +1.99010761970E+002
+1.18529411765E+007, +3.35611672954E+001, +2.00961394122E+002
+1.19779724656E+007, +3.33367543879E+001, +2.03042153052E+002
+1.21030037547E+007, +3.33109631137E+001, +2.05063342089E+002
+1.22280350438E+007, +3.36286030935E+001, +2.07637154782E+002
+1.23530663329E+007, +3.36154406053E+001, +2.09496898043E+002
+1.24780976220E+007, +3.35639912354E+001, +2.11515069141E+002
+1.26031289111E+007, +3.36331343773E+001, +2.14169745856E+002
+1.27281602003E+007, +3.34637593680E+001, +2.15830753995E+002
+1.28531914894E+007, +3.34552159448E+001, +2.17783864878E+002
+1.29782227785E+007, +3.34274800714E+001, +2.20287279747E+002
+1.31032540676E+007, +3.37808979301E+001, +2.22506576488E+002
+1.32282853567E+007, +3.37791279115E+001, +2.24985253441E+002
+1.33533166458E+007, +3.36699910798E+001, +2.27021261029E+002
+1.34783479349E+007, +3.35400914475E+001, +2.29147817675E+002
+1.36033792240E+007, +3.34882654843E+001, +2.31200259098E+002
+1.37284105131E+007, +3.33719547664E+001, +2.33597167497E+002
+1.38534418023E+007, +3.37385360800E+001, +2.35565389852E+002
+1.39784730914E+007, +3.38900383056E+001, +2.38075048977E+002
+1.41035043805E+007, +3.36843024849E+001, +2.40234702665E+002
+1.42285356696E+007, +3.37964524465E+001, +2.42522040294E+002
+1.43535669587E+007, +3.39840422328E+001, +2.44457218589E+002
+1.44785982478E+007, +3.41624128431E+001, +2.46913896954E+002
+1.46036295369E+007, +3.40517909692E+001, +2.49152444466E+002
+1.47286608260E+007, +3.37021887307E+001, +2.50859113061E+002
+1.48536921151E+007, +3.39610895957E+001, +2.53237115624E+002
+1.49787234043E+007, +3.40929800891E+001, +2.55987115220E+002
+1.51037546934E+007, +3.42709107290E+001, +2.57728289539E+002
+1.52287859825E+007, +3.40423963440E+001, +2.60283658522E+002
+1.53538172716E+007, +3.37273135733E+001, +2.62167832617E+002
+1.54788485607E+007, +3.44949349139E+001, +2.64397789454E+002
+1.56038798498E+007, +3.39009765266E+001, +2.66827517957E+002
+1.57289111389E+007, +3.43436504238E+001, +2.68860440990E+002
+1.58539424280E+007, +3.44547031292E+001, +2.70699567729E+002
+1.59789737171E+007, +3.43785070940E+001, +2.73187410662E+002
+1.61040050063E+007, +3.44444134253E+001, +2.75453654210E+002
+1.62290362954E+007, +3.41550787726E+001, +2.77590891651E+002
+1.63540675845E+007, +3.44391329336E+001, +2.79768053375E+002
+1.64790988736E+007, +3.48596875053E+001, +2.82363818581E+002
+1.66041301627E+007, +3.46082935682E+001, +2.84050353642E+002
+1.67291614518E+007, +3.44602230383E+001, +2.86332282054E+002
+1.68541927409E+007, +3.43212748452E+001, +2.88914512912E+002
+1.69792240300E+007, +3.43504867450E+001, +2.90675529944E+002
+1.71042553191E+007, +3.39375230300E+001, +2.93207590348E+002
+1.72292866083E+007, +3.40024890373E+001, +2.95609885268E+002
+1.73543178974E+007, +3.47268987836E+001, +2.97893508003E+002
+1.74793491865E+007, +3.42088331711E+001, +2.99919578292E+002
+1.76043804756E+007, +3.40525170135E+001, +3.02242018282E+002
+1.77294117647E+007, +3.41393578492E+001, +3.04762386686E+002
+1.78544430538E+007, +3.40422354798E+001, +3.06504582350E+002
+1.79794743429E+007, +3.42659004401E+001, +3.08566797659E+002
+1.81045056320E+007, +3.43065594178E+001, +3.11843907013E+002
+1.82295369212E+007, +3.44495616033E+001, +3.13111733639E+002
+1.83545682103E+007, +3.42200503178E+001, +3.16140665459E+002
+1.84795994994E+007, +3.45660420260E+001, +3.18400454112E+002
+1.86046307885E+007, +3.40098903839E+001, +3.20670676691E+002
+1.87296620776E+007, +3.47287650111E+001, +3.22799062207E+002
+1.88546933667E+007, +3.43789566740E+001, +3.24652632854E+002
+1.89797246558E+007, +3.44913624941E+001, +3.27282911402E+002
+1.91047559449E+007, +3.46766898374E+001, +3.28475135139E+002
+1.92297872340E+007, +3.43876298154E+001, +3.31948090193E+002
+1.93548185232E+007, +3.51450543748E+001, +3.34117733366E+002
+1.94798498123E+007, +3.46533737206E+001, +3.36627669429E+002
+1.96048811014E+007, +3.55027817566E+001, +3.38592827356E+002
+1.97299123905E+007, +3.51254572659E+001, +3.40853437364E+002
+1.98549436796E+007, +3.49433542135E+001, +3.43083724119E+002
+1.99799749687E+007, +3.50136807036E+001, +3.45974851709E+002
+2.01050062578E+007, +3.49579223582E+001, +3.48247747912E+002
+2.02300375469E+007, +3.51307690519E+001, +3.49765591307E+002
+2.03550688360E+007, +3.51999159131E+001, +3.52248248877E+002
+2.04801001252E+007, +3.49081922902E+001, +3.54908955857E+002
+2.06051314143E+007, +3.53202894905E+001, +3.57027855433E+002
+2.07301627034E+007, +3.56032321215E+001, +3.59717056900E+002
+2.08551939925E+007, +3.58703314706E+001, +3.62390136503E+002
+2.09802252816E+007, +3.55894899061E+001, +3.64279812313E+002
+2.11052565707E+007, +3.58713685589E+001, +3.66850429196E+002
+2.12302878598E+007, +3.50847557657E+001, +3.68680484021E+002
+2.13553191489E+007, +3.54778269661E+001, +3.71517855597E+002
+2.14803504380E+007, +3.61182191604E+001, +3.73314052887E+002
+2.16053817272E+007, +3.52409735246E+001, +3.76417503891E+002
+2.17304130163E+007, +3.58050932746E+001, +3.78793665283E+002
+2.18554443054E+007, +3.56603994993E+001, +3.80202647033E+002
+2.19804755945E+007, +3.59315887596E+001, +3.83531857093E+002
+2.21055068836E+007, +3.66563762800E+001, +3.85676814517E+002
+2.22305381727E+007, +3.61103680119E+001, +3.88429972546E+002
+2.23555694618E+007, +3.60142778372E+001, +3.90344778359E+002
+2.24806007509E+007, +3.59835614871E+001, +3.93590574708E+002
+2.26056320401E+007, +3.62493570728E+001, +3.95358784787E+002
+2.27306633292E+007, +3.59123494951E+001, +3.98142636612E+002
+2.28556946183E+007, +3.72295152738E+001, +4.00521660290E+002
+2.29807259074E+007, +3.72303030280E+001, +4.02369230951E+002
+2.31057571965E+007, +3.69348861107E+001, +4.05178791092E+002
+2.32307884856E+007, +3.73457792359E+001, +4.06553177996E+002
+2.33558197747E+007, +3.66436083476E+001, +4.10792175113E+002
+2.34808510638E+007, +3.73351530976E+001, +4.12338474682E+002
+2.36058823529E+007, +3.75850025836E+001, +4.15038243592E+002
+2.37309136421E+007, +3.85021457708E+001, +4.17287860558E+002
+2.38559449312E+007, +3.77514714874E+001, +4.19069168546E+002
+2.39809762203E+007, +3.84352429681E+001, +4.22128013443E+002
+2.41060075094E+007, +3.73883393136E+001, +4.24535835205E+002
+2.42310387985E+007, +3.83291963578E+001, +4.26514909365E+002
+2.43560700876E+007, +3.82787892382E+001, +4.28768627360E+002
+2.44811013767E+007, +3.78683738164E+001, +4.31914317991E+002
+2.46061326658E+007, +3.88314809610E+001, +4.33960702205E+002
+2.47311639549E+007, +3.83067429646E+001, +4.35870229500E+002
+2.48561952441E+007, +3.84761269670E+001, +4.39406482926E+002
+2.49812265332E+007, +3.88899161537E+001, +4.41588157332E+002
+2.51062578223E+007, +3.91996030473E+001, +4.43933200238E+002
+2.52312891114E+007, +3.91753069909E+001, +4.45886953605E+002
+2.53563204005E+007, +3.83022790059E+001, +4.48634781528E+002
+2.54813516896E+007, +3.89534434010E+001, +4.51297271324E+002
+2.56063829787E+007, +3.91623188565E+001, +4.52291091786E+002
+2.57314142678E+007, +3.96155664589E+001, +4.57073713283E+002
+2.58564455569E+007, +3.92969367364E+001, +4.58603274536E+002
+2.59814768461E+007, +3.86759315592E+001, +4.61315735955E+002
+2.61065081352E+007, +3.97436088456E+001, +4.62779727710E+002
+2.62315394243E+007, +3.98999565203E+001, +4.66372538593E+002
+2.63565707134E+007, +3.99602024922E+001, +4.68754607628E+002
+2.64816020025E+007, +4.00486195313E+001, +4.71211485682E+002
+2.66066332916E+007, +4.00792370318E+001, +4.73222544767E+002
+2.67316645807E+007, +4.02873205107E+001, +4.75371064413E+002
+2.68566958698E+007, +4.08308294659E+001, +4.78782963747E+002
+2.69817271589E+007, +4.12873839092E+001, +4.81822954379E+002
+2.71067584481E+007, +4.15578477163E+001, +4.82873230580E+002
+2.72317897372E+007, +4.15901143360E+001, +4.86675110421E+002
+2.73568210263E+007, +4.15193104263E+001, +4.89173145013E+002
+2.74818523154E+007, +4.14184150225E+001, +4.90633260750E+002
+2.76068836045E+007, +4.23614625778E+001, +4.93196725226E+002
+2.77319148936E+007, +4.20196622493E+001, +4.96184962921E+002
+2.78569461827E+007, +4.11346742229E+001, +4.98080820221E+002
+2.79819774718E+007, +4.22447253739E+001, +5.01113642434E+002
+2.81070087610E+007, +4.13888605988E+001, +5.03262274984E+002
+2.82320400501E+007, +4.23537800231E+001, +5.07145992278E+002
+2.83570713392E+007, +4.24275198806E+001, +5.09085246772E+002
+2.84821026283E+007, +4.27548282626E+001, +5.10863049730E+002
+2.86071339174E+007, +4.16600113894E+001, +5.14793241366E+002
+2.87321652065E+007, +4.21564600478E+001, +5.17028344610E+002
+2.88571964956E+007, +4.24831817892E+001, +5.18310669631E+002
+2.89822277847E+007, +4.25730052009E+001, +5.21601365338E+002
+2.91072590738E+007, +4.27243344032E+001, +5.22295570629E+002
+2.92322903630E+007, +4.30050528858E+001, +5.27813593485E+002
+2.93573216521E+007, +4.33824035631E+001, +5.27916242957E+002
+2.94823529412E+007, +4.26133480438E+001, +5.33152471108E+002
+2.96073842303E+007, +4.26163452757E+001, +5.34520610229E+002
+2.97324155194E+007, +4.33291051186E+001, +5.36853956213E+002
+2.98574468085E+007, +4.25780907661E+001, +5.40504481035E+002
+2.99824780976E+007, +4.33085126317E+001, +5.41058939504E+002
+3.01075093867E+007, +4.45854934956E+001, +5.44897196122E+002
+3.02325406758E+007, +4.34797936400E+001, +5.46588058389E+002
+3.03575719650E+007, +4.40235997078E+001, +5.49638274210E+002
+3.04826032541E+007, +4.44327104070E+001, +5.53688180291E+002
+3.06076345432E+007, +4.43499327351E+001, +5.55668111401E+002
+3.07326658323E+007, +4.44055543551E+001, +5.58908937763E+002
+3.08576971214E+007, +4.42698607429E+001, +5.61088752302E+002
+3.09827284105E+007, +4.42802573644E+001, +5.64417472180E+002
+3.11077596996E+007, +4.33068970197E+001, +5.66853704709E+002
+3.12327909887E+007, +4.49208561421E+001, +5.68438738043E+002
+3.13578222778E+007, +4.27699703193E+001, +5.72107454693E+002
+3.14828535670E+007, +4.32425682492E+001, +5.74100378022E+002
+3.16078848561E+007, +4.52758691306E+001, +5.77675133060E+002
+3.17329161452E+007, +4.48191045247E+001, +5.80238188873E+002
+3.18579474343E+007, +4.51268129152E+001, +5.83101182714E+002
+3.19829787234E+007, +4.37865327379E+001, +5.86691216462E+002
+3.21080100125E+007, +4.54797736012E+001, +5.87937838843E+002
+3.22330413016E+007, +4.54484086498E+001, +5.91207323742E+002
+3.23580725907E+007, +4.32905777348E+001, +5.91636141567E+002
+3.24831038798E+007, +4.63105014530E+001, +5.96153670985E+002
+3.26081351690E+007, +4.50589140529E+001, +5.98601586950E+002
+3.27331664581E+007, +4.61812787985E+001, +6.01945629551E+002
+3.28581977472E+007, +4.56524002953E+001, +6.03876634715E+002
+3.29832290363E+007, +4.31961701817E+001, +6.08503466461E+002
+3.31082603254E+007, +4.58945399149E+001, +6.09989228477E+002
+3.32332916145E+007, +4.54662976811E+001, +6.12973488300E+002
+3.33583229036E+007, +4.51480573235E+001, +6.17014876793E+002
+3.34833541927E+007, +4.54323942379E+001, +6.18007040052E+002
+3.36083854819E+007, +4.54584992150E+001, +6.22531798211E+002
+3.37334167710E+007, +4.57680174202E+001, +6.23705289291E+002
+3.38584480601E+007, +4.52978385407E+001, +6.27736391337E+002
+3.39834793492E+007, +4.43766068825E+001, +6.29146434532E+002
+3.41085106383E+007, +4.63964276269E+001, +6.35633398897E+002
+3.42335419274E+007, +4.71873722631E+001, +6.36863105131E+002
+3.43585732165E+007, +4.56767533076E+001, +6.38364257550E+002
+3.44836045056E+007, +4.55436181365E+001, +6.42305508555E+002
+3.46086357947E+007, +4.79426612633E+001, +6.46440173143E+002
+3.47336670839E+007, +4.42283952692E+001, +6.50202198453E+002
+3.48586983730E+007, +4.63185460064E+001, +6.51964794107E+002
+3.49837296621E+007, +4.77528802251E+001, +6.53040832551E+002
+3.51087609512E+007, +4.37490828326E+001, +6.58483976992E+002
+3.52337922403E+007, +4.83080688304E+001, +6.59910805858E+002
+3.53588235294E+007, +4.89112866429E+001, +6.65008410479E+002
+3.54838548185E+007, +4.82960688369E+001, +6.67827453275E+002
+3.56088861076E+007, +4.91177234848E+001, +6.71099359188E+002
+3.57339173967E+007, +4.89843428012E+001, +6.74184155751E+002
+3.58589486859E+007, +4.80526826677E+001, +6.77029498624E+002
+3.59839799750E+007, +4.47559729020E+001, +6.80533216597E+002
+3.61090112641E+007, +4.61621153029E+001, +6.82710899014E+002
+3.62340425532E+007, +4.73910161398E+001, +6.87320186171E+002
+3.63590738423E+007, +4.91442770332E+001, +6.87636245544E+002
+3.64841051314E+007, +4.73254444029E+001, +6.92688532745E+002
+3.66091364205E+007, +4.70660877192E+001, +6.95069391836E+002
+3.67341677096E+007, +4.99216046731E+001, +7.00633677237E+002
+3.68591989987E+007, +4.64451992948E+001, +7.06460105283E+002
+3.69842302879E+007, +4.72131084327E+001, +7.06282591727E+002
+3.71092615770E+007, +4.90578665855E+001, +7.11256716781E+002
+3.72342928661E+007, +4.83562162347E+001, +7.14789171612E+002
+3.73593241552E+007, +4.67617178910E+001, +7.16219570719E+002
+3.74843554443E+007, +4.91294896256E+001, +7.21896519898E+002
+3.76093867334E+007, +4.55066855235E+001, +7.22547900953E+002
+3.77344180225E+007, +4.79631596643E+001, +7.27103289089E+002
+3.78594493116E+007, +5.06276454136E+001, +7.30093116230E+002
+3.79844806008E+007, +4.87565518951E+001, +7.33461135465E+002
+3.81095118899E+007, +4.77287359345E+001, +7.38450532022E+002
+3.82345431790E+007, +4.89980324500E+001, +7.42329578929E+002
+3.83595744681E+007, +5.01835024357E+001, +7.43014916260E+002
+3.84846057572E+007, +5.18549678282E+001, +7.47456586168E+002
+3.86096370463E+007, +4.91058705629E+001, +7.52199868910E+002
+3.87346683354E+007, +4.87918841403E+001, +7.54024448787E+002
+3.88596996245E+007, +5.27619300385E+001, +7.58597522187E+002
+3.89847309136E+007, +5.43014194554E+001, +7.65759508451E+002
+3.91097622028E+007, +4.94466456319E+001, +7.68971417817E+002
+3.92347934919E+007, +5.27953980496E+001, +7.72231935949E+002
+3.93598247810E+007, +5.11662058443E+001, +7.76380633172E+002
+3.94848560701E+007, +5.34633601154E+001, +7.78133424249E+002
+3.96098873592E+007, +5.15419113267E+001, +7.83564150536E+002
+3.97349186483E+007, +5.30849376667E+001, +7.82256289485E+002
+3.98599499374E+007, +5.21026352468E+001, +7.88712582125E+002
+3.99849812265E+007, +5.29537667230E+001, +7.91251337440E+002
+4.01100125156E+007, +5.54696193084E+001, +7.96068287959E+002
