"# Channel 1"
"# Trace 1"
Frequency, Formatted Data, Formatted Data
+1.00000000000E+006, +5.17865401682E+000, +1.71604266294E+001
+1.16527545910E+006, +5.19779821015E+000, +1.99947531823E+001
+1.33055091820E+006, +5.26662286791E+000, +2.27311761749E+001
+1.49582637730E+006, +5.21271370183E+000, +2.55796434414E+001
+1.66110183639E+006, +5.25533791195E+000, +2.83968429030E+001
+1.82637729549E+006, +5.23652766464E+000, +3.11947666595E+001
+1.99165275459E+006, +5.28320503771E+000, +3.40181715085E+001
+2.15692821369E+006, +5.25557861957E+000, +3.68029484522E+001
+2.32220367279E+006, +5.21497302382E+000, +3.96166337453E+001
+2.48747913189E+006, +5.24328448407E+000, +4.24830984123E+001
+2.65275459098E+006, +5.18535429663E+000, +4.52806679012E+001
+2.81803005008E+006, +5.24628374348E+000, +4.81279194095E+001
+2.98330550918E+006, +5.20225186658E+000, +5.08497182213E+001
+3.14858096828E+006, +5.35612606311E+000, +5.36730090504E+001
+3.31385642738E+006, +5.40060671260E+000, +5.65292839109E+001
+3.47913188648E+006, +5.24017848392E+000, +5.94600462697E+001
+3.64440734558E+006, +5.28933505284E+000, +6.21431431991E+001
+3.80968280467E+006, +5.40624991888E+000, +6.50262158772E+001
+3.97495826377E+006, +5.43881253269E+000, +6.77753016171E+001
+4.14023372287E+006, +5.47376311237E+000, +7.08743193274E+001
+4.30550918197E+006, +5.47918188772E+000, +7.33199068272E+001
+4.47078464107E+006, +5.36580816477E+000, +7.62955518803E+001
+4.63606010017E+006, +5.36212737225E+000, +7.90948317388E+001
+4.80133555927E+006, +5.39754358344E+000, +8.20304989598E+001
+4.96661101836E+006, +5.43657525316E+000, +8.47146678275E+001
+5.13188647746E+006, +5.43668386438E+000, +8.76390355857E+001
+5.29716193656E+006, +5.49765001274E+000, +9.03802719812E+001
+5.46243739566E+006, +5.54707805924E+000, +9.32513000765E+001
+5.62771285476E+006, +5.62474589756E+000, +9.61076554165E+001
+5.79298831386E+006, +5.73743175922E+000, +9.90548930833E+001
+5.95826377295E+006, +5.66505238435E+000, +1.01799535915E+002
+6.12353923205E+006, +6.05944781862E+000, +1.04712796535E+002
+6.28881469115E+006, +5.88019411347E+000, +1.07434454225E+002
+6.45409015025E+006, +5.99822406314E+000, +1.10277103994E+002
+6.61936560935E+006, +5.91405045164E+000, +1.13062091360E+002
+6.78464106845E+006, +6.03036549294E+000, +1.16032048766E+002
+6.94991652755E+006, +6.06457165413E+000, +1.18785456779E+002
+7.11519198664E+006, +6.19879773731E+000, +1.21625028373E+002
+7.28046744574E+006, +6.15198296314E+000, +1.24476888130E+002
+7.44574290484E+006, +6.29910549821E+000, +1.27278995430E+002
+7.61101836394E+006, +6.24672227639E+000, +1.30099449552E+002
+7.77629382304E+006, +6.37713920383E+000, +1.32919423834E+002
+7.94156928214E+006, +6.25184583354E+000, +1.35793376800E+002
+8.10684474124E+006, +6.22409931870E+000, +1.38419979522E+002
+8.27212020033E+006, +6.49019905208E+000, +1.41307006845E+002
+8.43739565943E+006, +6.33817902138E+000, +1.44303740902E+002
+8.60267111853E+006, +6.35088341810E+000, +1.47107832365E+002
+8.76794657763E+006, +6.58966013398E+000, +1.49828697962E+002
+8.93322203673E+006, +6.34598991914E+000, +1.52955503589E+002
+9.09849749583E+006, +6.52373111217E+000, +1.55529191738E+002
+9.26377295492E+006, +6.48200330804E+000, +1.58749787748E+002
+9.42904841402E+006, +6.58653113379E+000, +1.61335592066E+002
+9.59432387312E+006, +6.51966431664E+000, +1.64109014091E+002
+9.75959933222E+006, +6.46873883280E+000, +1.66961257932E+002
+9.92487479132E+006, +6.54694337220E+000, +1.69762444094E+002
+1.00901502504E+007, +6.52300672548E+000, +1.72838496957E+002
+1.02554257095E+007, +6.54889196436E+000, +1.75619106089E+002
+1.04207011686E+007, +6.61997949804E+000, +1.78357677386E+002
+1.05859766277E+007, +6.54585688366E+000, +1.81560158410E+002
+1.07512520868E+007, +6.74729479936E+000, +1.84118471496E+002
+1.09165275459E+007, +6.60958708215E+000, +1.87194276142E+002
+1.10818030050E+007, +6.74616685426E+000, +1.90067091513E+002
+1.12470784641E+007, +6.64583689294E+000, +1.92678037408E+002
+1.14123539232E+007, +6.79093449160E+000, +1.95584020598E+002
+1.15776293823E+007, +6.91269194176E+000, +1.98700195433E+002
+1.17429048414E+007, +6.67248923618E+000, +2.01591384401E+002
+1.19081803005E+007, +6.96896279571E+000, +2.04626780698E+002
+1.20734557596E+007, +6.98146456069E+000, +2.07357588621E+002
+1.22387312187E+007, +6.80166399303E+000, +2.10012535166E+002
+1.24040066778E+007, +6.78930867895E+000, +2.12949038120E+002
+1.25692821369E+007, +6.76162180725E+000, +2.15898982408E+002
+1.27345575960E+007, +6.96528238032E+000, +2.18637573232E+002
+1.28998330551E+007, +6.92777628817E+000, +2.21784006719E+002
+1.30651085142E+007, +6.76296629292E+000, +2.24703870664E+002
+1.32303839733E+007, +7.28355429370E+000, +2.27491290175E+002
+1.33956594324E+007, +7.16385195747E+000, +2.30545059484E+002
+1.35609348915E+007, +7.30985136485E+000, +2.33240299009E+002
+1.37262103506E+007, +7.05971422888E+000, +2.35948852654E+002
+1.38914858097E+007, +7.37147647484E+000, +2.39181799748E+002
+1.40567612688E+007, +7.45490136767E+000, +2.42187612473E+002
+1.42220367279E+007, +7.21759514430E+000, +2.45338374344E+002
+1.43873121870E+007, +7.25980134837E+000, +2.48227229761E+002
+1.45525876461E+007, +7.22228231751E+000, +2.51045677234E+002
+1.47178631052E+007, +7.31911648581E+000, +2.54011374769E+002
+1.48831385643E+007, +7.43653503776E+000, +2.56261520190E+002
+1.50484140234E+007, +7.48438246930E+000, +2.59705629264E+002
+1.52136894825E+007, +7.13310902251E+000, +2.62927478115E+002
+1.53789649416E+007, +7.32343837962E+000, +2.65799854068E+002
+1.55442404007E+007, +7.07551052489E+000, +2.69000327330E+002
+1.57095158598E+007, +7.35600282072E+000, +2.71436252265E+002
+1.58747913189E+007, +7.62902103422E+000, +2.74634700319E+002
+1.60400667780E+007, +7.66605465762E+000, +2.77465665474E+002
+1.62053422371E+007, +7.44857280701E+000, +2.80648708848E+002
+1.63706176962E+007, +7.97682650151E+000, +2.83277331013E+002
+1.65358931553E+007, +7.67214418645E+000, +2.86188586603E+002
+1.67011686144E+007, +7.89810534527E+000, +2.89350716283E+002
+1.68664440735E+007, +7.83860124750E+000, +2.91871871979E+002
+1.70317195326E+007, +7.08551109750E+000, +2.95456822930E+002
+1.71969949917E+007, +7.33227658330E+000, +2.98755913366E+002
+1.73622704508E+007, +7.58223050682E+000, +3.01478765311E+002
+1.75275459098E+007, +7.17755602292E+000, +3.04090286674E+002
+1.76928213689E+007, +7.81751658546E+000, +3.07548668971E+002
+1.78580968280E+007, +7.56915519300E+000, +3.10717244491E+002
+1.80233722871E+007, +8.11768443692E+000, +3.13552809941E+002
+1.81886477462E+007, +8.16896950216E+000, +3.16457388522E+002
+1.83539232053E+007, +8.67132732003E+000, +3.19373749182E+002
+1.85191986644E+007, +8.00317551190E+000, +3.22933927400E+002
+1.86844741235E+007, +8.47521589822E+000, +3.25324796500E+002
+1.88497495826E+007, +8.25206629384E+000, +3.28656819458E+002
+1.90150250417E+007, +7.76433046395E+000, +3.32409467545E+002
+1.91803005008E+007, +8.10300959876E+000, +3.34897146937E+002
+1.93455759599E+007, +8.19508673035E+000, +3.37374595770E+002
+1.95108514190E+007, +8.87979451185E+000, +3.41410168416E+002
+1.96761268781E+007, +8.98828007950E+000, +3.43846971905E+002
+1.98414023372E+007, +8.86218014620E+000, +3.47279323871E+002
+2.00066777963E+007, +8.27541477354E+000, +3.49875053692E+002
+2.01719532554E+007, +8.24692519948E+000, +3.52869597540E+002
+2.03372287145E+007, +8.99709129454E+000, +3.56768731617E+002
+2.05025041736E+007, +8.75726932319E+000, +3.59727669161E+002
+2.06677796327E+007, +9.37219578064E+000, +3.62684330024E+002
+2.08330550918E+007, +8.88836560886E+000, +3.65681509969E+002
+2.09983305509E+007, +9.09074928891E+000, +3.69002343123E+002
+2.11636060100E+007, +9.01663592095E+000, +3.72152825578E+002
+2.13288814691E+007, +9.20834128265E+000, +3.75143118863E+002
+2.14941569282E+007, +9.00093054318E+000, +3.77592569658E+002
+2.16594323873E+007, +1.00042756464E+001, +3.81488404081E+002
+2.18247078464E+007, +9.36705918335E+000, +3.85402084863E+002
+2.19899833055E+007, +9.23037017596E+000, +3.88354357743E+002
+2.21552587646E+007, +9.23717611248E+000, +3.90097294216E+002
+2.23205342237E+007, +9.82796142031E+000, +3.94209136373E+002
+2.24858096828E+007, +9.62983934380E+000, +3.97823347044E+002
+2.26510851419E+007, +9.67487165457E+000, +4.00424561957E+002
+2.28163606010E+007, +1.01970643680E+001, +4.03858823985E+002
+2.29816360601E+007, +9.73512584257E+000, +4.06076177940E+002
+2.31469115192E+007, +1.07737957803E+001, +4.09875353211E+002
+2.33121869783E+007, +1.13684538894E+001, +4.13160664590E+002
+2.34774624374E+007, +1.11700301064E+001, +4.16210347130E+002
+2.36427378965E+007, +1.11997573146E+001, +4.20403918478E+002
+2.38080133556E+007, +1.20009067709E+001, +4.22748613056E+002
+2.39732888147E+007, +1.15057443307E+001, +4.26878442956E+002
+2.41385642738E+007, +1.07708222158E+001, +4.30033637660E+002
+2.43038397329E+007, +1.12615275793E+001, +4.32504994398E+002
+2.44691151920E+007, +1.18253360533E+001, +4.35313153297E+002
+2.46343906511E+007, +1.11931394369E+001, +4.39744655266E+002
+2.47996661102E+007, +1.19630764833E+001, +4.41734636335E+002
+2.49649415693E+007, +1.19400022344E+001, +4.45442960863E+002
+2.51302170284E+007, +1.23310525278E+001, +4.48489819127E+002
+2.52954924875E+007, +1.35528020385E+001, +4.52260274672E+002
+2.54607679466E+007, +1.21563269997E+001, +4.55935081914E+002
+2.56260434057E+007, +1.35607352805E+001, +4.58154415690E+002
+2.57913188648E+007, +1.25608563615E+001, +4.60890810510E+002
+2.59565943239E+007, +1.31070742520E+001, +4.64825770618E+002
+2.61218697830E+007, +1.38362924288E+001, +4.68642590252E+002
+2.62871452421E+007, +1.40574441859E+001, +4.72104923830E+002
+2.64524207012E+007, +1.34172864043E+001, +4.74990037881E+002
+2.66176961603E+007, +1.31484321509E+001, +4.78848049398E+002
+2.67829716194E+007, +1.28018669909E+001, +4.81880702055E+002
+2.69482470785E+007, +1.34616408170E+001, +4.85465681777E+002
+2.71135225376E+007, +1.34368437025E+001, +4.89802862824E+002
+2.72787979967E+007, +1.53688840752E+001, +4.92451182687E+002
+2.74440734558E+007, +1.45879835274E+001, +4.95155034375E+002
+2.76093489149E+007, +1.55216487752E+001, +4.98189954036E+002
+2.77746243740E+007, +1.43122153048E+001, +5.01494385253E+002
+2.79398998331E+007, +1.51350500828E+001, +5.06483694986E+002
+2.81051752922E+007, +1.57703150894E+001, +5.09386131064E+002
+2.82704507513E+007, +1.47533116740E+001, +5.13262989154E+002
+2.84357262104E+007, +1.52309030450E+001, +5.15443673952E+002
+2.86010016694E+007, +1.49578723262E+001, +5.20210500815E+002
+2.87662771285E+007, +1.55723741533E+001, +5.23619149006E+002
+2.89315525876E+007, +1.53350924634E+001, +5.26737607157E+002
+2.90968280467E+007, +1.58216152645E+001, +5.29377495958E+002
+2.92621035058E+007, +1.52472419974E+001, +5.33029059656E+002
+2.94273789649E+007, +1.55338845324E+001, +5.36958383905E+002
+2.95926544240E+007, +1.46556979187E+001, +5.40604511738E+002
+2.97579298831E+007, +1.58118692774E+001, +5.42763941728E+002
+2.99232053422E+007, +1.66828573161E+001, +5.48122859593E+002
+3.00884808013E+007, +1.64692455014E+001, +5.50540494418E+002
+3.02537562604E+007, +1.44233906988E+001, +5.54854033821E+002
+3.04190317195E+007, +1.69878256601E+001, +5.58334382356E+002
+3.05843071786E+007, +1.61349722024E+001, +5.60406641747E+002
+3.07495826377E+007, +1.58913077376E+001, +5.65072789720E+002
+3.09148580968E+007, +1.61120802630E+001, +5.68695352392E+002
+3.10801335559E+007, +1.75149283215E+001, +5.71847778665E+002
+3.12454090150E+007, +1.58896597810E+001, +5.76383549837E+002
+3.14106844741E+007, +1.77140754130E+001, +5.78534003279E+002
+3.15759599332E+007, +1.74585620267E+001, +5.83242604474E+002
+3.17412353923E+007, +1.50145667455E+001, +5.86207324571E+002
+3.19065108514E+007, +1.78731430749E+001, +5.90815978297E+002
+3.20717863105E+007, +1.53533675804E+001, +5.93896610420E+002
+3.22370617696E+007, +1.71047956126E+001, +5.97373265527E+002
+3.24023372287E+007, +1.54318066014E+001, +6.02446644976E+002
+3.25676126878E+007, +1.74437968515E+001, +6.06017517352E+002
+3.27328881469E+007, +1.87053605667E+001, +6.08245142534E+002
+3.28981636060E+007, +1.60579451732E+001, +6.11458460314E+002
+3.30634390651E+007, +1.77948039040E+001, +6.17655979705E+002
+3.32287145242E+007, +1.62356048568E+001, +6.22855433149E+002
+3.33939899833E+007, +1.68834171222E+001, +6.25146296124E+002
+3.35592654424E+007, +1.87708042944E+001, +6.29789582755E+002
+3.37245409015E+007, +1.73934592540E+001, +6.31935337728E+002
+3.38898163606E+007, +1.63190032170E+001, +6.37324716505E+002
+3.40550918197E+007, +1.73242092760E+001, +6.39113111360E+002
+3.42203672788E+007, +2.00900345445E+001, +6.43887663092E+002
+3.43856427379E+007, +1.91776872864E+001, +6.47957868866E+002
+3.45509181970E+007, +1.84727316722E+001, +6.52777169051E+002
+3.47161936561E+007, +1.93306008752E+001, +6.57727710919E+002
+3.48814691152E+007, +1.92847171510E+001, +6.59228984178E+002
+3.50467445743E+007, +2.08985919697E+001, +6.63413365520E+002
+3.52120200334E+007, +2.11758264926E+001, +6.67452916344E+002
+3.53772954925E+007, +1.83824184751E+001, +6.71834589343E+002
+3.55425709516E+007, +2.00368059264E+001, +6.78533755513E+002
+3.57078464107E+007, +2.17196454018E+001, +6.80167229697E+002
+3.58731218698E+007, +2.11082790463E+001, +6.85080728871E+002
+3.60383973289E+007, +1.97889751846E+001, +6.88524614707E+002
+3.62036727880E+007, +1.93696072323E+001, +6.92632561664E+002
+3.63689482471E+007, +2.11204806687E+001, +6.96131616971E+002
+3.65342237062E+007, +2.05564615669E+001, +7.00000755879E+002
+3.66994991653E+007, +2.04208161627E+001, +7.06749181033E+002
+3.68647746244E+007, +2.37158300236E+001, +7.09123353614E+002
+3.70300500835E+007, +2.00342190141E+001, +7.12748350585E+002
+3.71953255426E+007, +2.07760575457E+001, +7.20614076030E+002
+3.73606010017E+007, +2.12168555249E+001, +7.25809311670E+002
+3.75258764608E+007, +2.09618601082E+001, +7.28483184886E+002
+3.76911519199E+007, +2.32637265987E+001, +7.30704099592E+002
+3.78564273790E+007, +1.86116316054E+001, +7.34897523102E+002
+3.80217028381E+007, +2.13954606798E+001, +7.41155392437E+002
+3.81869782972E+007, +1.94778338699E+001, +7.43408544801E+002
+3.83522537563E+007, +2.05539462907E+001, +7.50216252929E+002
+3.85175292154E+007, +2.20762543026E+001, +7.51514562954E+002
+3.86828046745E+007, +2.01207862080E+001, +7.59117454065E+002
+3.88480801336E+007, +2.22513682711E+001, +7.65492812570E+002
+3.90133555927E+007, +2.22634376198E+001, +7.68836168273E+002
+3.91786310518E+007, +2.24045404844E+001, +7.79521343494E+002
+3.93439065109E+007, +2.20838231759E+001, +7.80831876059E+002
+3.95091819699E+007, +2.63338369446E+001, +7.83732262260E+002
+3.96744574290E+007, +2.52506453740E+001, +7.87820143586E+002
+3.98397328881E+007, +2.30521704123E+001, +7.91081852868E+002
+4.00050083472E+007, +2.49165886800E+001, +8.01790752306E+002
+4.01702838063E+007, +2.17149969666E+001, +8.02895601040E+002
+4.03355592654E+007, +2.33547554993E+001, +8.07898067589E+002
+4.05008347245E+007, +2.29588533345E+001, +8.16728359235E+002
+4.06661101836E+007, +2.09677827010E+001, +8.15394118894E+002
+4.08313856427E+007, +2.50243775536E+001, +8.26412008754E+002
+4.09966611018E+007, +2.42267995231E+001, +8.29268374942E+002
+4.11619365609E+007, +2.62844821932E+001, +8.34698920891E+002
+4.13272120200E+007, +2.79332659680E+001, +8.38664179459E+002
+4.14924874791E+007, +2.64955279498E+001, +8.42304331724E+002
+4.16577629382E+007, +2.57447899640E+001, +8.51150305884E+002
+4.18230383973E+007, +2.52506311368E+001, +8.57281245885E+002
+4.19883138564E+007, +2.46912820117E+001, +8.63594790595E+002
+4.21535893155E+007, +2.82191821408E+001, +8.64455292935E+002
+4.23188647746E+007, +2.79422079001E+001, +8.75486048097E+002
+4.24841402337E+007, +2.40182147881E+001, +8.79377502601E+002
+4.26494156928E+007, +2.31778763201E+001, +8.84267165189E+002
+4.28146911519E+007, +2.62886928870E+001, +8.91555501326E+002
+4.29799666110E+007, +2.67241623874E+001, +8.97212533566E+002
+4.31452420701E+007, +2.52794891303E+001, +9.04629078294E+002
+4.33105175292E+007, +2.94109078371E+001, +9.11174933708E+002
+4.34757929883E+007, +2.52680342910E+001, +9.15711158601E+002
+4.36410684474E+007, +2.56211249824E+001, +9.19154634726E+002
+4.38063439065E+007, +2.81658709862E+001, +9.27713826413E+002
+4.39716193656E+007, +2.95099912606E+001, +9.31621228855E+002
+4.41368948247E+007, +2.77140208626E+001, +9.36376740848E+002
+4.43021702838E+007, +2.78275792286E+001, +9.46820300531E+002
+4.44674457429E+007, +2.51699469333E+001, +9.54089542828E+002
+4.46327212020E+007, +2.93122803578E+001, +9.58127067217E+002
+4.47979966611E+007, +3.07721745890E+001, +9.66991251629E+002
+4.49632721202E+007, +3.15962984331E+001, +9.72881682189E+002
+4.51285475793E+007, +3.06696476468E+001, +9.83421362555E+002
+4.52938230384E+007, +3.17953060033E+001, +9.87881716276E+002
+4.54590984975E+007, +2.77215692659E+001, +9.90510301083E+002
+4.56243739566E+007, +3.74627149154E+001, +1.00300540397E+003
+4.57896494157E+007, +3.55866373929E+001, +1.00576410008E+003
+4.59549248748E+007, +3.57456734936E+001, +1.01783684881E+003
+4.61202003339E+007, +3.37898261336E+001, +1.02280343078E+003
+4.62854757930E+007, +3.69617931414E+001, +1.03130510558E+003
+4.64507512521E+007, +3.89647426725E+001, +1.03901560346E+003
+4.66160267112E+007, +3.54522974999E+001, +1.05043841949E+003
+4.67813021703E+007, +4.39053856524E+001, +1.05315707127E+003
+4.69465776294E+007, +4.50436019317E+001, +1.06401450949E+003
+4.71118530885E+007, +4.49714166559E+001, +1.07669595547E+003
+4.72771285476E+007, +4.19894422454E+001, +1.08283018421E+003
+4.74424040067E+007, +4.44837584655E+001, +1.08954657872E+003
+4.76076794658E+007, +5.21757229078E+001, +1.09904304265E+003
+4.77729549249E+007, +4.82137912917E+001, +1.10345116767E+003
+4.79382303840E+007, +5.31085951286E+001, +1.11205008383E+003
+4.81035058431E+007, +5.84804409058E+001, +1.12121955149E+003
+4.82687813022E+007, +6.01812680956E+001, +1.13123404878E+003
+4.84340567613E+007, +5.72466824245E+001, +1.14106853641E+003
+4.85993322204E+007, +6.01745942498E+001, +1.15057685518E+003
+4.87646076795E+007, +6.60848885708E+001, +1.15250015771E+003
+4.89298831386E+007, +6.36341088338E+001, +1.16455772954E+003
+4.90951585977E+007, +6.63792278253E+001, +1.17453749814E+003
+4.92604340568E+007, +7.46407118881E+001, +1.17668565282E+003
+4.94257095159E+007, +7.99165555826E+001, +1.18783117229E+003
+4.95909849750E+007, +7.73134566812E+001, +1.19038368858E+003
+4.97562604341E+007, +8.55924647697E+001, +1.19792349793E+003
+4.99215358932E+007, +7.94015535841E+001, +1.21243601945E+003
+5.00868113523E+007, +8.79591255959E+001, +1.22537665029E+003
+5.02520868114E+007, +9.49767223003E+001, +1.23434777368E+003
+5.04173622705E+007, +8.98723259835E+001, +1.23685813514E+003
+5.05826377295E+007, +9.36779102511E+001, +1.24279088161E+003
+5.07479131886E+007, +9.80251759252E+001, +1.25110750354E+003
+5.09131886477E+007, +9.25749268347E+001, +1.25274453344E+003
+5.10784641068E+007, +1.00003474283E+002, +1.26897410023E+003
+5.12437395659E+007, +9.35089788063E+001, +1.27214825562E+003
+5.14090150250E+007, +1.03866168314E+002, +1.27836547398E+003
+5.15742904841E+007, +1.01640084211E+002, +1.29274697326E+003
+5.17395659432E+007, +1.00052522507E+002, +1.29456424721E+003
+5.19048414023E+007, +1.01973229079E+002, +1.30856700670E+003
+5.20701168614E+007, +1.09081243001E+002, +1.32004400693E+003
+5.22353923205E+007, +1.02810634542E+002, +1.33623351795E+003
+5.24006677796E+007, +9.38575033126E+001, +1.33695730513E+003
+5.25659432387E+007, +9.92730216145E+001, +1.35077048262E+003
+5.27312186978E+007, +1.01194353712E+002, +1.36097400987E+003
+5.28964941569E+007, +9.77694806617E+001, +1.37730544705E+003
+5.30617696160E+007, +1.02831020762E+002, +1.38957499604E+003
+5.32270450751E+007, +9.80137710484E+001, +1.39992954283E+003
+5.33923205342E+007, +8.57125702906E+001, +1.42922039627E+003
+5.35575959933E+007, +1.00446922291E+002, +1.43611305204E+003
+5.37228714524E+007, +1.04605968663E+002, +1.45754702338E+003
+5.38881469115E+007, +1.04177687675E+002, +1.45910838202E+003
