"# Channel 1"
"# Trace 1"
Frequency, Formatted Data, Formatted Data
+1.00000000000E+006, +5.18080900143E+000, +1.71496043956E+001
+1.16527545910E+006, +5.20126784167E+000, +2.00058235910E+001
+1.33055091820E+006, +5.23838364149E+000, +2.27782595108E+001
+1.49582637730E+006, +5.21997433782E+000, +2.55694810212E+001
+1.66110183639E+006, +5.23416587294E+000, +2.84187909079E+001
+1.82637729549E+006, +5.23030878657E+000, +3.11873316985E+001
+1.99165275459E+006, +5.24999755606E+000, +3.40054733254E+001
+2.15692821369E+006, +5.28923745010E+000, +3.68373548306E+001
+2.32220367279E+006, +5.21393585439E+000, +3.96596732287E+001
+2.48747913189E+006, +5.24961841549E+000, +4.24881201609E+001
+2.65275459098E+006, +5.20931174896E+000, +4.53119871778E+001
+2.81803005008E+006, +5.21714886396E+000, +4.81378213140E+001
+2.98330550918E+006, +5.19395673943E+000, +5.08761868993E+001
+3.14858096828E+006, +5.29612480001E+000, +5.37214229478E+001
+3.31385642738E+006, +5.36541059513E+000, +5.65617322756E+001
+3.47913188648E+006, +5.23820864606E+000, +5.94175036836E+001
+3.64440734558E+006, +5.30137543238E+000, +6.21858350402E+001
+3.80968280467E+006, +5.44026798636E+000, +6.50394131918E+001
+3.97495826377E+006, +5.47543763846E+000, +6.78776809310E+001
+4.14023372287E+006, +5.48250084557E+000, +7.08902000946E+001
+4.30550918197E+006, +5.47894271860E+000, +7.33182496569E+001
+4.47078464107E+006, +5.43736531710E+000, +7.63369039258E+001
+4.63606010017E+006, +5.38793264655E+000, +7.90665611847E+001
+4.80133555927E+006, +5.35829229536E+000, +8.19927716851E+001
+4.96661101836E+006, +5.49748021056E+000, +8.48579133985E+001
+5.13188647746E+006, +5.49705671343E+000, +8.76715346072E+001
+5.29716193656E+006, +5.49759623230E+000, +9.04032044559E+001
+5.46243739566E+006, +5.52854069978E+000, +9.33519996395E+001
+5.62771285476E+006, +5.66597127729E+000, +9.61565055195E+001
+5.79298831386E+006, +5.74452264602E+000, +9.90749746921E+001
+5.95826377295E+006, +5.67152958443E+000, +1.01825887542E+002
+6.12353923205E+006, +6.02432739116E+000, +1.04621955689E+002
+6.28881469115E+006, +5.86479609147E+000, +1.07496238113E+002
+6.45409015025E+006, +5.95758864507E+000, +1.10315036872E+002
+6.61936560935E+006, +5.91356145071E+000, +1.13185753974E+002
+6.78464106845E+006, +6.03050803971E+000, +1.15989481047E+002
+6.94991652755E+006, +6.02620894044E+000, +1.18883985205E+002
+7.11519198664E+006, +6.19685540884E+000, +1.21615733697E+002
+7.28046744574E+006, +6.23414118060E+000, +1.24503734868E+002
+7.44574290484E+006, +6.22338165204E+000, +1.27307104687E+002
+7.61101836394E+006, +6.27091449054E+000, +1.30189378901E+002
+7.77629382304E+006, +6.35146852933E+000, +1.33014049415E+002
+7.94156928214E+006, +6.25200243283E+000, +1.35815392142E+002
+8.10684474124E+006, +6.37555939833E+000, +1.38513128790E+002
+8.27212020033E+006, +6.40225029564E+000, +1.41349167277E+002
+8.43739565943E+006, +6.40357421911E+000, +1.44368433813E+002
+8.60267111853E+006, +6.34859296352E+000, +1.47126033826E+002
+8.76794657763E+006, +6.52285795791E+000, +1.49884110454E+002
+8.93322203673E+006, +6.37449597233E+000, +1.52906726545E+002
+9.09849749583E+006, +6.57371195843E+000, +1.55654036277E+002
+9.26377295492E+006, +6.47484919313E+000, +1.58691293122E+002
+9.42904841402E+006, +6.57657748576E+000, +1.61376010589E+002
+9.59432387312E+006, +6.50805792519E+000, +1.64181855988E+002
+9.75959933222E+006, +6.52494275572E+000, +1.67148170765E+002
+9.92487479132E+006, +6.45201479884E+000, +1.69820585145E+002
+1.00901502504E+007, +6.56803719469E+000, +1.72770370747E+002
+1.02554257095E+007, +6.38835590029E+000, +1.75473230419E+002
+1.04207011686E+007, +6.62829875078E+000, +1.78413985070E+002
+1.05859766277E+007, +6.60763778254E+000, +1.81531316939E+002
+1.07512520868E+007, +6.79922104830E+000, +1.84353176085E+002
+1.09165275459E+007, +6.69408562016E+000, +1.87280220859E+002
+1.10818030050E+007, +6.92211999760E+000, +1.90171270499E+002
+1.12470784641E+007, +6.54202788277E+000, +1.92782685362E+002
+1.14123539232E+007, +6.68750589513E+000, +1.95759595778E+002
+1.15776293823E+007, +6.90623912600E+000, +1.98735811557E+002
+1.17429048414E+007, +6.75299038270E+000, +2.01601383754E+002
+1.19081803005E+007, +6.76372380116E+000, +2.04613069426E+002
+1.20734557596E+007, +6.85849899965E+000, +2.07388137588E+002
+1.22387312187E+007, +6.79847017570E+000, +2.10369569358E+002
+1.24040066778E+007, +7.00536011002E+000, +2.13145460452E+002
+1.25692821369E+007, +6.94002715781E+000, +2.15967186094E+002
+1.27345575960E+007, +7.11695191178E+000, +2.18864132938E+002
+1.28998330551E+007, +6.93781053744E+000, +2.21861881322E+002
+1.30651085142E+007, +6.71577581849E+000, +2.24724418068E+002
+1.32303839733E+007, +7.27072666661E+000, +2.27757467479E+002
+1.33956594324E+007, +6.95668745920E+000, +2.30794161206E+002
+1.35609348915E+007, +7.21057223201E+000, +2.33386728380E+002
+1.37262103506E+007, +6.95477778920E+000, +2.36365234427E+002
+1.38914858097E+007, +7.41100609201E+000, +2.39138796486E+002
+1.40567612688E+007, +7.54433296624E+000, +2.42286435935E+002
+1.42220367279E+007, +7.10748429845E+000, +2.45260003490E+002
+1.43873121870E+007, +7.29339295312E+000, +2.48518563723E+002
+1.45525876461E+007, +7.10088032215E+000, +2.50957146043E+002
+1.47178631052E+007, +7.35820323424E+000, +2.54265276367E+002
+1.48831385643E+007, +7.46504068251E+000, +2.56739994785E+002
+1.50484140234E+007, +7.51016389230E+000, +2.59891166897E+002
+1.52136894825E+007, +7.33093915449E+000, +2.62887352692E+002
+1.53789649416E+007, +7.25894386496E+000, +2.65894979696E+002
+1.55442404007E+007, +7.34416614472E+000, +2.68786026197E+002
+1.57095158598E+007, +7.35256567526E+000, +2.71769480254E+002
+1.58747913189E+007, +7.77670402452E+000, +2.74861592558E+002
+1.60400667780E+007, +7.69371464642E+000, +2.77463419549E+002
+1.62053422371E+007, +7.62638401843E+000, +2.80540317513E+002
+1.63706176962E+007, +7.73657627755E+000, +2.83601872081E+002
+1.65358931553E+007, +7.57398052825E+000, +2.86462020763E+002
+1.67011686144E+007, +8.02447427669E+000, +2.89421402039E+002
+1.68664440735E+007, +7.84060401932E+000, +2.92414890721E+002
+1.70317195326E+007, +6.88545022710E+000, +2.95913540135E+002
+1.71969949917E+007, +7.23600603204E+000, +2.98446781310E+002
+1.73622704508E+007, +7.11156687905E+000, +3.01429526022E+002
+1.75275459098E+007, +7.20835087179E+000, +3.04721895694E+002
+1.76928213689E+007, +7.46051227165E+000, +3.07620432827E+002
+1.78580968280E+007, +7.80282882560E+000, +3.10853938888E+002
+1.80233722871E+007, +7.96225067446E+000, +3.13558219886E+002
+1.81886477462E+007, +7.48131980899E+000, +3.17093089521E+002
+1.83539232053E+007, +8.35651227992E+000, +3.19740498402E+002
+1.85191986644E+007, +8.45783287216E+000, +3.22995490900E+002
+1.86844741235E+007, +7.97951152844E+000, +3.25426210852E+002
+1.88497495826E+007, +8.50835721375E+000, +3.28703345208E+002
+1.90150250417E+007, +8.22495509216E+000, +3.32269138983E+002
+1.91803005008E+007, +8.38071280815E+000, +3.35138513219E+002
+1.93455759599E+007, +8.69913878582E+000, +3.37242599863E+002
+1.95108514190E+007, +9.51698163229E+000, +3.41560177386E+002
+1.96761268781E+007, +8.68979885615E+000, +3.44011945508E+002
+1.98414023372E+007, +8.52162024719E+000, +3.47240737069E+002
+2.00066777963E+007, +8.56661511445E+000, +3.50163055501E+002
+2.01719532554E+007, +8.95150035729E+000, +3.53710742000E+002
+2.03372287145E+007, +8.83139511199E+000, +3.56957088007E+002
+2.05025041736E+007, +8.80624704346E+000, +3.59798351274E+002
+2.06677796327E+007, +9.79572467493E+000, +3.62735005832E+002
+2.08330550918E+007, +9.11028923298E+000, +3.66272924412E+002
+2.09983305509E+007, +9.43926939804E+000, +3.68875841945E+002
+2.11636060100E+007, +9.11515736844E+000, +3.72149168112E+002
+2.13288814691E+007, +9.08347724332E+000, +3.75272995720E+002
+2.14941569282E+007, +9.35882757495E+000, +3.78005254195E+002
+2.16594323873E+007, +9.21054687945E+000, +3.82077078657E+002
+2.18247078464E+007, +9.41937608581E+000, +3.85564409738E+002
+2.19899833055E+007, +9.32101089412E+000, +3.88402848545E+002
+2.21552587646E+007, +9.08885283767E+000, +3.90794936256E+002
+2.23205342237E+007, +9.85665558556E+000, +3.94291758226E+002
+2.24858096828E+007, +9.93549954697E+000, +3.97388737306E+002
+2.26510851419E+007, +9.99165597314E+000, +4.00419083594E+002
+2.28163606010E+007, +1.05166082183E+001, +4.04314707591E+002
+2.29816360601E+007, +9.92193889091E+000, +4.06672881844E+002
+2.31469115192E+007, +1.17272912979E+001, +4.10449141013E+002
+2.33121869783E+007, +1.18058442014E+001, +4.14426531567E+002
+2.34774624374E+007, +1.23265382629E+001, +4.17018347881E+002
+2.36427378965E+007, +1.14912715344E+001, +4.19950055560E+002
+2.38080133556E+007, +1.13341638035E+001, +4.23058504579E+002
+2.39732888147E+007, +1.19759383878E+001, +4.27313885427E+002
+2.41385642738E+007, +1.15136208824E+001, +4.30115592310E+002
+2.43038397329E+007, +1.14976819478E+001, +4.32986361850E+002
+2.44691151920E+007, +1.17357733734E+001, +4.36120449215E+002
+2.46343906511E+007, +1.10135037673E+001, +4.39261603077E+002
+2.47996661102E+007, +1.18287773977E+001, +4.42642074886E+002
+2.49649415693E+007, +1.19458093676E+001, +4.46842163226E+002
+2.51302170284E+007, +1.21654136982E+001, +4.48613694966E+002
+2.52954924875E+007, +1.27040997169E+001, +4.52428954109E+002
+2.54607679466E+007, +1.31347573143E+001, +4.56164046030E+002
+2.56260434057E+007, +1.28427989919E+001, +4.58133937202E+002
+2.57913188648E+007, +1.24809385242E+001, +4.62100282431E+002
+2.59565943239E+007, +1.26090877724E+001, +4.65941937540E+002
+2.61218697830E+007, +1.35352023016E+001, +4.68639011070E+002
+2.62871452421E+007, +1.32641081350E+001, +4.72504330066E+002
+2.64524207012E+007, +1.29866692124E+001, +4.75254577219E+002
+2.66176961603E+007, +1.34839183141E+001, +4.79770688418E+002
+2.67829716194E+007, +1.30653636595E+001, +4.80882852691E+002
+2.69482470785E+007, +1.39347533993E+001, +4.86759360969E+002
+2.71135225376E+007, +1.44709773888E+001, +4.89767217116E+002
+2.72787979967E+007, +1.45070196722E+001, +4.93444364846E+002
+2.74440734558E+007, +1.39609426984E+001, +4.95294103145E+002
+2.76093489149E+007, +1.47146315810E+001, +4.98802711051E+002
+2.77746243740E+007, +1.42878276541E+001, +5.02149574273E+002
+2.79398998331E+007, +1.39180730072E+001, +5.07019160622E+002
+2.81051752922E+007, +1.60045330626E+001, +5.09299357367E+002
+2.82704507513E+007, +1.48641408684E+001, +5.12167475072E+002
+2.84357262104E+007, +1.44810352370E+001, +5.15441183749E+002
+2.86010016694E+007, +1.45677915007E+001, +5.19689799643E+002
+2.87662771285E+007, +1.47269800603E+001, +5.23035406674E+002
+2.89315525876E+007, +1.50014594145E+001, +5.26268329958E+002
+2.90968280467E+007, +1.57261034260E+001, +5.30108399552E+002
+2.92621035058E+007, +1.52491439481E+001, +5.32426709079E+002
+2.94273789649E+007, +1.55892218806E+001, +5.36850697846E+002
+2.95926544240E+007, +1.46620868718E+001, +5.40354035386E+002
+2.97579298831E+007, +1.54330087831E+001, +5.44320058021E+002
+2.99232053422E+007, +1.53981598821E+001, +5.47295440579E+002
+3.00884808013E+007, +1.65279030597E+001, +5.50734819408E+002
+3.02537562604E+007, +1.53121123806E+001, +5.54615804474E+002
+3.04190317195E+007, +1.79595705553E+001, +5.57717149609E+002
+3.05843071786E+007, +1.66608271768E+001, +5.61558451755E+002
+3.07495826377E+007, +1.51879446434E+001, +5.64987696828E+002
+3.09148580968E+007, +1.63924728709E+001, +5.68640133470E+002
+3.10801335559E+007, +1.60706291176E+001, +5.73782808862E+002
+3.12454090150E+007, +1.75800266583E+001, +5.76022849668E+002
+3.14106844741E+007, +1.69797189782E+001, +5.78327749489E+002
+3.15759599332E+007, +1.65573370442E+001, +5.83088248178E+002
+3.17412353923E+007, +1.71084860635E+001, +5.87074100335E+002
+3.19065108514E+007, +1.71739286984E+001, +5.92637550899E+002
+3.20717863105E+007, +1.52717820466E+001, +5.94273315545E+002
+3.22370617696E+007, +1.74515960021E+001, +5.97984920583E+002
+3.24023372287E+007, +1.64117686517E+001, +6.02138390722E+002
+3.25676126878E+007, +1.74230343779E+001, +6.06005864149E+002
+3.27328881469E+007, +1.69501077619E+001, +6.08654971415E+002
+3.28981636060E+007, +1.59457785284E+001, +6.11581553152E+002
+3.30634390651E+007, +1.70406092977E+001, +6.17543691061E+002
+3.32287145242E+007, +1.64023624188E+001, +6.23190626559E+002
+3.33939899833E+007, +1.80131956408E+001, +6.25709529797E+002
+3.35592654424E+007, +1.75568159828E+001, +6.28446599176E+002
+3.37245409015E+007, +1.92395531054E+001, +6.32520076053E+002
+3.38898163606E+007, +1.72487988321E+001, +6.38117076827E+002
+3.40550918197E+007, +1.70462046129E+001, +6.41054284848E+002
+3.42203672788E+007, +1.94833731933E+001, +6.45200509303E+002
+3.43856427379E+007, +1.65968049296E+001, +6.47168011606E+002
+3.45509181970E+007, +1.82390174587E+001, +6.52460861308E+002
+3.47161936561E+007, +1.69387160969E+001, +6.57583969368E+002
+3.48814691152E+007, +1.80391455886E+001, +6.60291471962E+002
+3.50467445743E+007, +1.78339180261E+001, +6.65511640444E+002
+3.52120200334E+007, +2.06955153345E+001, +6.68843198852E+002
+3.53772954925E+007, +1.88665482925E+001, +6.71821196000E+002
+3.55425709516E+007, +1.79113166691E+001, +6.77872920106E+002
+3.57078464107E+007, +1.85499655070E+001, +6.77751219852E+002
+3.58731218698E+007, +1.94800121517E+001, +6.84137223916E+002
+3.60383973289E+007, +1.80979717347E+001, +6.88974468706E+002
+3.62036727880E+007, +1.96150198428E+001, +6.93335757998E+002
+3.63689482471E+007, +1.97703775668E+001, +6.94805821297E+002
+3.65342237062E+007, +1.91874446449E+001, +6.99922185701E+002
+3.66994991653E+007, +1.70993635309E+001, +7.05000445655E+002
+3.68647746244E+007, +2.22120733212E+001, +7.08687861234E+002
+3.70300500835E+007, +1.80656240951E+001, +7.13551965897E+002
+3.71953255426E+007, +1.93779654019E+001, +7.21128848448E+002
+3.73606010017E+007, +2.04008534452E+001, +7.25400545605E+002
+3.75258764608E+007, +1.77045651142E+001, +7.31778577902E+002
+3.76911519199E+007, +1.97894750211E+001, +7.30707944415E+002
+3.78564273790E+007, +1.80099539335E+001, +7.36636162330E+002
+3.80217028381E+007, +1.99999327116E+001, +7.42077497373E+002
+3.81869782972E+007, +1.91762940987E+001, +7.44993225676E+002
+3.83522537563E+007, +1.83531016674E+001, +7.50817715458E+002
+3.85175292154E+007, +2.03634328180E+001, +7.54062736444E+002
+3.86828046745E+007, +1.96313234647E+001, +7.57379428930E+002
+3.88480801336E+007, +2.28181666986E+001, +7.64950328055E+002
+3.90133555927E+007, +2.11362170585E+001, +7.71791509571E+002
+3.91786310518E+007, +1.91151730529E+001, +7.77027412799E+002
+3.93439065109E+007, +1.97159598468E+001, +7.79877105589E+002
+3.95091819699E+007, +2.39520647411E+001, +7.84526014607E+002
+3.96744574290E+007, +2.13162450968E+001, +7.87551314992E+002
+3.98397328881E+007, +2.01475666293E+001, +7.94461084370E+002
+4.00050083472E+007, +2.19842358041E+001, +8.01120239186E+002
+4.01702838063E+007, +1.93559247048E+001, +8.02115170938E+002
+4.03355592654E+007, +2.27563741397E+001, +8.09185717059E+002
+4.05008347245E+007, +1.90108286220E+001, +8.17885115790E+002
+4.06661101836E+007, +2.25931111454E+001, +8.18102056066E+002
+4.08313856427E+007, +2.09377266358E+001, +8.26021518696E+002
+4.09966611018E+007, +2.26099262765E+001, +8.27375014088E+002
+4.11619365609E+007, +2.13587632305E+001, +8.35416536146E+002
+4.13272120200E+007, +2.32232938013E+001, +8.40979955866E+002
+4.14924874791E+007, +2.26923521347E+001, +8.43514049718E+002
+4.16577629382E+007, +1.97550312440E+001, +8.52766106374E+002
+4.18230383973E+007, +2.36232987517E+001, +8.57263638150E+002
+4.19883138564E+007, +2.15247949123E+001, +8.63200243872E+002
+4.21535893155E+007, +2.19544445709E+001, +8.68040394295E+002
+4.23188647746E+007, +2.50303371740E+001, +8.75466856817E+002
+4.24841402337E+007, +2.12088656685E+001, +8.83155794152E+002
+4.26494156928E+007, +2.17808730680E+001, +8.83429306420E+002
+4.28146911519E+007, +2.52243460368E+001, +8.89773593543E+002
+4.29799666110E+007, +2.37779206107E+001, +8.98175255976E+002
+4.31452420701E+007, +2.58849432936E+001, +9.05754281795E+002
+4.33105175292E+007, +2.70475226579E+001, +9.10288210290E+002
+4.34757929883E+007, +2.27353402446E+001, +9.16773325702E+002
+4.36410684474E+007, +2.34604293180E+001, +9.21735338503E+002
+4.38063439065E+007, +2.49540543757E+001, +9.27860371345E+002
+4.39716193656E+007, +2.98736116719E+001, +9.35648182701E+002
+4.41368948247E+007, +2.25704439783E+001, +9.39756258257E+002
+4.43021702838E+007, +2.41269461843E+001, +9.48193546495E+002
+4.44674457429E+007, +2.35934788292E+001, +9.55561796261E+002
+4.46327212020E+007, +2.35320916640E+001, +9.58465630786E+002
+4.47979966611E+007, +2.70906167968E+001, +9.66629097180E+002
+4.49632721202E+007, +2.82344922901E+001, +9.75179336815E+002
+4.51285475793E+007, +2.82679166152E+001, +9.82890815231E+002
+4.52938230384E+007, +3.17667454513E+001, +9.90851559065E+002
+4.54590984975E+007, +2.21986648224E+001, +9.90118198991E+002
+4.56243739566E+007, +3.18161910927E+001, +1.00245439464E+003
+4.57896494157E+007, +3.06386219388E+001, +1.00284182724E+003
+4.59549248748E+007, +2.72814209545E+001, +1.01903226709E+003
+4.61202003339E+007, +2.72618759632E+001, +1.02606972271E+003
+4.62854757930E+007, +3.50618805876E+001, +1.03257891866E+003
+4.64507512521E+007, +3.38211669536E+001, +1.03803581571E+003
+4.66160267112E+007, +3.13447579779E+001, +1.05125954091E+003
+4.67813021703E+007, +3.37045712339E+001, +1.05984849658E+003
+4.69465776294E+007, +3.67253346790E+001, +1.06241562323E+003
+4.71118530885E+007, +3.81757598445E+001, +1.07420179844E+003
+4.72771285476E+007, +4.14435315218E+001, +1.07931700212E+003
+4.74424040067E+007, +3.85562921783E+001, +1.09034583795E+003
+4.76076794658E+007, +3.76137924518E+001, +1.09262994537E+003
+4.77729549249E+007, +3.79006669273E+001, +1.11286516069E+003
+4.79382303840E+007, +4.46559390077E+001, +1.11240202719E+003
+4.81035058431E+007, +4.58655759308E+001, +1.12727009604E+003
+4.82687813022E+007, +4.63529913028E+001, +1.13094372430E+003
+4.84340567613E+007, +5.02781009426E+001, +1.13867041811E+003
+4.85993322204E+007, +5.15164920422E+001, +1.15746885756E+003
+4.87646076795E+007, +5.38763746595E+001, +1.16390269300E+003
+4.89298831386E+007, +5.36524141081E+001, +1.16276592257E+003
+4.90951585977E+007, +5.47549419168E+001, +1.17188758418E+003
+4.92604340568E+007, +5.80164038454E+001, +1.17790050652E+003
+4.94257095159E+007, +6.27663855885E+001, +1.19361761237E+003
+4.95909849750E+007, +6.72256325756E+001, +1.20304462991E+003
+4.97562604341E+007, +7.31023130512E+001, +1.20760786301E+003
+4.99215358932E+007, +6.98892154953E+001, +1.22155779060E+003
+5.00868113523E+007, +6.96145384662E+001, +1.23671480131E+003
+5.02520868114E+007, +7.15916206895E+001, +1.24641157551E+003
+5.04173622705E+007, +7.96036234894E+001, +1.25587032466E+003
+5.05826377295E+007, +7.85607237928E+001, +1.25224708333E+003
+5.07479131886E+007, +8.71017536999E+001, +1.26729822957E+003
+5.09131886477E+007, +8.49837082902E+001, +1.27432538666E+003
+5.10784641068E+007, +9.12048494756E+001, +1.28243828370E+003
+5.12437395659E+007, +9.53669142741E+001, +1.29497740321E+003
+5.14090150250E+007, +9.65271999153E+001, +1.29678772343E+003
+5.15742904841E+007, +8.98526651597E+001, +1.31029766740E+003
+5.17395659432E+007, +9.96710466157E+001, +1.30795378944E+003
+5.19048414023E+007, +1.04343561648E+002, +1.32380050980E+003
+5.20701168614E+007, +9.37320098797E+001, +1.33498915985E+003
+5.22353923205E+007, +9.35750217404E+001, +1.35428402583E+003
+5.24006677796E+007, +9.90550974529E+001, +1.35220722219E+003
+5.25659432387E+007, +1.01592061938E+002, +1.37340755651E+003
+5.27312186978E+007, +1.01402836161E+002, +1.38075352766E+003
+5.28964941569E+007, +9.50861230888E+001, +1.39932167303E+003
+5.30617696160E+007, +8.93563096404E+001, +1.40570075398E+003
+5.32270450751E+007, +9.53089599474E+001, +1.41741667176E+003
+5.33923205342E+007, +8.48485793660E+001, +1.43830152117E+003
+5.35575959933E+007, +9.01679576529E+001, +1.45547116088E+003
+5.37228714524E+007, +9.31875089157E+001, +1.47750292639E+003
+5.38881469115E+007, +9.63494396895E+001, +1.47291743395E+003
