"# Channel 1"
"# Trace 1"
Frequency, Formatted Data, Formatted Data
+1.00000000000E+005, +1.87578605503E+001, +1.54491431938E+000
+2.66777963272E+005, +1.87140667926E+001, +4.39756113851E+000
+4.33555926544E+005, +1.87275259324E+001, +7.22343802703E+000
+6.00333889816E+005, +1.87320491444E+001, +1.00544255472E+001
+7.67111853088E+005, +1.87549864318E+001, +1.28488543251E+001
+9.33889816361E+005, +1.87676145698E+001, +1.56466123728E+001
+1.10066777963E+006, +1.88034286412E+001, +1.84256412171E+001
+1.26744574290E+006, +1.88326510907E+001, +2.11997035515E+001
+1.43422370618E+006, +1.88360529209E+001, +2.39563871060E+001
+1.60100166945E+006, +1.87977392611E+001, +2.67267542093E+001
+1.76777963272E+006, +1.88253966146E+001, +2.95234660034E+001
+1.93455759599E+006, +1.88082697242E+001, +3.23102875664E+001
+2.10133555927E+006, +1.87978302564E+001, +3.50715751882E+001
+2.26811352254E+006, +1.87899408871E+001, +3.78675253190E+001
+2.43489148581E+006, +1.87527187303E+001, +4.06012353397E+001
+2.60166944908E+006, +1.87430246436E+001, +4.34626049148E+001
+2.76844741235E+006, +1.87153308960E+001, +4.62224865497E+001
+2.93522537563E+006, +1.86939056701E+001, +4.89962153215E+001
+3.10200333890E+006, +1.87686613961E+001, +5.16593291821E+001
+3.26878130217E+006, +1.88415770282E+001, +5.45133135431E+001
+3.43555926544E+006, +1.87919069737E+001, +5.73408794695E+001
+3.60233722871E+006, +1.87331461051E+001, +6.00878482620E+001
+3.76911519199E+006, +1.88177959619E+001, +6.28376891262E+001
+3.93589315526E+006, +1.88564106589E+001, +6.56752002299E+001
+4.10267111853E+006, +1.95454642827E+001, +6.82695207466E+001
+4.26944908180E+006, +1.87050557349E+001, +7.13431358419E+001
+4.43622704508E+006, +1.87903933695E+001, +7.40274669336E+001
+4.60300500835E+006, +1.87490325612E+001, +7.67746960240E+001
+4.76978297162E+006, +1.87697908052E+001, +7.96559829072E+001
+4.93656093489E+006, +1.89094404046E+001, +8.24488525054E+001
+5.10333889816E+006, +1.88759178910E+001, +8.50894126388E+001
+5.27011686144E+006, +1.88184458341E+001, +8.78882007725E+001
+5.43689482471E+006, +1.88381307220E+001, +9.07411850995E+001
+5.60367278798E+006, +1.89396746124E+001, +9.35207843737E+001
+5.77045075125E+006, +1.90620953209E+001, +9.62896858423E+001
+5.93722871452E+006, +1.90794496386E+001, +9.91104236674E+001
+6.10400667780E+006, +1.92459622750E+001, +1.01877405153E+002
+6.27078464107E+006, +1.91165946856E+001, +1.04656322134E+002
+6.43756260434E+006, +1.92053652621E+001, +1.07416059499E+002
+6.60434056761E+006, +1.91443693990E+001, +1.10254949104E+002
+6.77111853088E+006, +1.92093198657E+001, +1.13077979745E+002
+6.93789649416E+006, +1.92687907134E+001, +1.15888428579E+002
+7.10467445743E+006, +1.92839655086E+001, +1.18628896581E+002
+7.27145242070E+006, +1.92934514842E+001, +1.21459149455E+002
+7.43823038397E+006, +1.93459108457E+001, +1.24238095351E+002
+7.60500834725E+006, +1.93258466102E+001, +1.27077937008E+002
+7.77178631052E+006, +1.93907993131E+001, +1.29702341676E+002
+7.93856427379E+006, +1.93443629619E+001, +1.32507788558E+002
+8.10534223706E+006, +1.93236142764E+001, +1.35330832711E+002
+8.27212020033E+006, +1.93222893688E+001, +1.38067256176E+002
+8.43889816361E+006, +1.93830166663E+001, +1.41123440388E+002
+8.60567612688E+006, +1.92660707178E+001, +1.43824497204E+002
+8.77245409015E+006, +1.93582051089E+001, +1.46646897095E+002
+8.93923205342E+006, +1.93898289410E+001, +1.49603511399E+002
+9.10601001669E+006, +1.93532343540E+001, +1.52272024798E+002
+9.27278797997E+006, +1.93549460485E+001, +1.55353449074E+002
+9.43956594324E+006, +1.93948245828E+001, +1.57935707487E+002
+9.60634390651E+006, +1.92888212520E+001, +1.60742939973E+002
+9.77312186978E+006, +1.92307189784E+001, +1.63624226853E+002
+9.93989983306E+006, +1.93503345331E+001, +1.66320032118E+002
+1.01066777963E+007, +1.94705080606E+001, +1.69297469346E+002
+1.02734557596E+007, +1.92193480491E+001, +1.72152651602E+002
+1.04402337229E+007, +1.93426073096E+001, +1.74873776198E+002
+1.06070116861E+007, +1.92434761932E+001, +1.77962526772E+002
+1.07737896494E+007, +1.93140166446E+001, +1.80560671394E+002
+1.09405676127E+007, +1.94025290214E+001, +1.83563980445E+002
+1.11073455760E+007, +1.95089741342E+001, +1.86615725197E+002
+1.12741235392E+007, +1.93949480286E+001, +1.89050743458E+002
+1.14409015025E+007, +1.94100661054E+001, +1.92065287403E+002
+1.16076794658E+007, +1.95758890427E+001, +1.94926793280E+002
+1.17744574290E+007, +1.93157346724E+001, +1.97727115247E+002
+1.19412353923E+007, +1.95977071540E+001, +2.00864914629E+002
+1.21080133556E+007, +1.93974371021E+001, +2.03401627388E+002
+1.22747913189E+007, +1.94176523804E+001, +2.06209327725E+002
+1.24415692821E+007, +1.97817908920E+001, +2.09360416167E+002
+1.26083472454E+007, +1.96320864547E+001, +2.11952274535E+002
+1.27751252087E+007, +1.97087623238E+001, +2.14793895667E+002
+1.29419031720E+007, +1.95677482938E+001, +2.18004464504E+002
+1.31086811352E+007, +1.97015306977E+001, +2.20872415279E+002
+1.32754590985E+007, +1.98765821680E+001, +2.23523326462E+002
+1.34422370618E+007, +1.96873081284E+001, +2.26620321167E+002
+1.36090150250E+007, +1.97267667549E+001, +2.29475583895E+002
+1.37757929883E+007, +1.95537645913E+001, +2.32120133091E+002
+1.39425709516E+007, +1.98593016440E+001, +2.34930238932E+002
+1.41093489149E+007, +1.97241431929E+001, +2.38103103911E+002
+1.42761268781E+007, +1.95996410745E+001, +2.41082530729E+002
+1.44429048414E+007, +1.97523496696E+001, +2.43929982204E+002
+1.46096828047E+007, +1.98207635944E+001, +2.46797461272E+002
+1.47764607679E+007, +1.98830393816E+001, +2.49595918529E+002
+1.49432387312E+007, +1.97479508992E+001, +2.52403186542E+002
+1.51100166945E+007, +2.01274815268E+001, +2.55776901005E+002
+1.52767946578E+007, +1.98413616762E+001, +2.58459436328E+002
+1.54435726210E+007, +2.00960914712E+001, +2.61332123818E+002
+1.56103505843E+007, +1.99999760978E+001, +2.64303413409E+002
+1.57771285476E+007, +1.97361554983E+001, +2.67126398081E+002
+1.59439065109E+007, +2.04561226030E+001, +2.70306902304E+002
+1.61106844741E+007, +2.02527841568E+001, +2.72860452012E+002
+1.62774624374E+007, +2.00393603489E+001, +2.75755169851E+002
+1.64442404007E+007, +2.04105926451E+001, +2.78835076993E+002
+1.66110183639E+007, +2.04632482692E+001, +2.81870194209E+002
+1.67777963272E+007, +2.08264315541E+001, +2.84696599067E+002
+1.69445742905E+007, +1.99196356321E+001, +2.87566282412E+002
+1.71113522538E+007, +1.97103337561E+001, +2.90920955922E+002
+1.72781302170E+007, +1.98799637822E+001, +2.93596813042E+002
+1.74449081803E+007, +1.96679972080E+001, +2.96569556220E+002
+1.76116861436E+007, +2.01025746990E+001, +2.99639298246E+002
+1.77784641068E+007, +2.01559620040E+001, +3.02618932563E+002
+1.79452420701E+007, +2.07573865260E+001, +3.05726601029E+002
+1.81120200334E+007, +2.08727229802E+001, +3.08633925217E+002
+1.82787979967E+007, +2.04962865608E+001, +3.11489085387E+002
+1.84455759599E+007, +2.11017232784E+001, +3.14596021557E+002
+1.86123539232E+007, +2.05877368132E+001, +3.17424395585E+002
+1.87791318865E+007, +2.09134769053E+001, +3.19584887590E+002
+1.89459098497E+007, +2.06567504821E+001, +3.23858566078E+002
+1.91126878130E+007, +2.04172753828E+001, +3.26593391095E+002
+1.92794657763E+007, +2.06866550740E+001, +3.29507881547E+002
+1.94462437396E+007, +2.17161226730E+001, +3.32081586618E+002
+1.96130217028E+007, +2.17995315357E+001, +3.35737002103E+002
+1.97797996661E+007, +2.12346876016E+001, +3.38664638923E+002
+1.99465776294E+007, +2.10471838284E+001, +3.41004658438E+002
+2.01133555927E+007, +2.10238058419E+001, +3.44648037149E+002
+2.02801335559E+007, +2.19245406914E+001, +3.47583776681E+002
+2.04469115192E+007, +2.16885038560E+001, +3.50510178488E+002
+2.06136894825E+007, +2.13119645746E+001, +3.53512455301E+002
+2.07804674457E+007, +2.17411814392E+001, +3.56564005580E+002
+2.09472454090E+007, +2.15686271745E+001, +3.59783335034E+002
+2.11140233723E+007, +2.18728633763E+001, +3.62969945022E+002
+2.12808013356E+007, +2.19560707311E+001, +3.65893435872E+002
+2.14475792988E+007, +2.22473581961E+001, +3.68542155032E+002
+2.16143572621E+007, +2.16016073148E+001, +3.72297516036E+002
+2.17811352254E+007, +2.23497058142E+001, +3.75777723901E+002
+2.19479131886E+007, +2.18889462559E+001, +3.79241734209E+002
+2.21146911519E+007, +2.16948718780E+001, +3.81125096491E+002
+2.22814691152E+007, +2.24107788734E+001, +3.84864322603E+002
+2.24482470785E+007, +2.27923972182E+001, +3.87474521400E+002
+2.26150250417E+007, +2.23535722510E+001, +3.90777944174E+002
+2.27818030050E+007, +2.28707500785E+001, +3.93415180793E+002
+2.29485809683E+007, +2.27788885868E+001, +3.97413129509E+002
+2.31153589316E+007, +2.38899320234E+001, +3.99437587896E+002
+2.32821368948E+007, +2.43887762795E+001, +4.03653514057E+002
+2.34489148581E+007, +2.36553820838E+001, +4.06626718553E+002
+2.36156928214E+007, +2.38871639221E+001, +4.09447254431E+002
+2.37824707846E+007, +2.44224003118E+001, +4.12423271129E+002
+2.39492487479E+007, +2.44082103589E+001, +4.16510595495E+002
+2.41160267112E+007, +2.40157038857E+001, +4.19277692090E+002
+2.42828046745E+007, +2.36975505804E+001, +4.21546965403E+002
+2.44495826377E+007, +2.49887117289E+001, +4.25007034247E+002
+2.46163606010E+007, +2.41342780502E+001, +4.28688776147E+002
+2.47831385643E+007, +2.51403896539E+001, +4.31298616587E+002
+2.49499165275E+007, +2.47433283601E+001, +4.34811035001E+002
+2.51166944908E+007, +2.52399041434E+001, +4.37409633672E+002
+2.52834724541E+007, +2.50696669166E+001, +4.40691238440E+002
+2.54502504174E+007, +2.53427909559E+001, +4.43164507636E+002
+2.56170283806E+007, +2.56556304103E+001, +4.46163097952E+002
+2.57838063439E+007, +2.44621376724E+001, +4.49464069231E+002
+2.59505843072E+007, +2.53836663489E+001, +4.52643020038E+002
+2.61173622705E+007, +2.58120154300E+001, +4.56440596851E+002
+2.62841402337E+007, +2.58079581162E+001, +4.59594782794E+002
+2.64509181970E+007, +2.49024331574E+001, +4.62047481117E+002
+2.66176961603E+007, +2.60404829594E+001, +4.65918115403E+002
+2.67844741235E+007, +2.53497273054E+001, +4.69559235804E+002
+2.69512520868E+007, +2.55668242581E+001, +4.72350211479E+002
+2.71180300501E+007, +2.62820763585E+001, +4.77316026396E+002
+2.72848080134E+007, +2.55448379672E+001, +4.79224266215E+002
+2.74515859766E+007, +2.63227048351E+001, +4.82351069649E+002
+2.76183639399E+007, +2.67904677963E+001, +4.85692220686E+002
+2.77851419032E+007, +2.58906269723E+001, +4.88709691828E+002
+2.79519198664E+007, +2.61814222870E+001, +4.92193654075E+002
+2.81186978297E+007, +2.62166821522E+001, +4.95690655514E+002
+2.82854757930E+007, +2.60458620631E+001, +4.98732703647E+002
+2.84522537563E+007, +2.66521585550E+001, +5.01743246961E+002
+2.86190317195E+007, +2.58608391014E+001, +5.05974299022E+002
+2.87858096828E+007, +2.56336753340E+001, +5.09183936228E+002
+2.89525876461E+007, +2.56852178617E+001, +5.12789812672E+002
+2.91193656093E+007, +2.58206898679E+001, +5.15734812725E+002
+2.92861435726E+007, +2.64941842308E+001, +5.19859506980E+002
+2.94529215359E+007, +2.60638399958E+001, +5.22734038867E+002
+2.96196994992E+007, +2.62912779194E+001, +5.26684434277E+002
+2.97864774624E+007, +2.66823595377E+001, +5.29420663619E+002
+2.99532554257E+007, +2.71456485334E+001, +5.32856720158E+002
+3.01200333890E+007, +2.76709498124E+001, +5.38213778007E+002
+3.02868113523E+007, +2.73072998674E+001, +5.39845604989E+002
+3.04535893155E+007, +2.82999317829E+001, +5.44437053181E+002
+3.06203672788E+007, +2.62434702640E+001, +5.47264918126E+002
+3.07871452421E+007, +2.64461782644E+001, +5.50218516299E+002
+3.09539232053E+007, +2.78927868478E+001, +5.53780558732E+002
+3.11207011686E+007, +2.81451518047E+001, +5.57977980069E+002
+3.12874791319E+007, +2.88752954561E+001, +5.60367241153E+002
+3.14542570952E+007, +2.76474564195E+001, +5.64092643469E+002
+3.16210350584E+007, +2.83643255256E+001, +5.68330478035E+002
+3.17878130217E+007, +2.88553820434E+001, +5.72279335205E+002
+3.19545909850E+007, +2.83867198407E+001, +5.75692287590E+002
+3.21213689482E+007, +2.62535566614E+001, +5.79265900220E+002
+3.22881469115E+007, +2.61762452393E+001, +5.82189718270E+002
+3.24549248748E+007, +2.65855953009E+001, +5.87144757044E+002
+3.26217028381E+007, +2.85680910827E+001, +5.90605573216E+002
+3.27884808013E+007, +2.83811089934E+001, +5.92529620633E+002
+3.29552587646E+007, +2.63635826916E+001, +5.98389414568E+002
+3.31220367279E+007, +2.67528682545E+001, +6.01329464923E+002
+3.32888146912E+007, +2.81823291398E+001, +6.08610978116E+002
+3.34555926544E+007, +2.94038558181E+001, +6.10330641882E+002
+3.36223706177E+007, +2.86155345516E+001, +6.14321671329E+002
+3.37891485810E+007, +2.85047026976E+001, +6.16774888032E+002
+3.39559265442E+007, +2.77168192357E+001, +6.22073597760E+002
+3.41227045075E+007, +2.76683968757E+001, +6.23806139023E+002
+3.42894824708E+007, +2.95481923060E+001, +6.26681107952E+002
+3.44562604341E+007, +2.75568789263E+001, +6.32145050398E+002
+3.46230383973E+007, +2.85200705343E+001, +6.36112871080E+002
+3.47898163606E+007, +2.97078026539E+001, +6.38768465985E+002
+3.49565943239E+007, +2.83765337132E+001, +6.42687258107E+002
+3.51233722871E+007, +3.13240324620E+001, +6.48237289018E+002
+3.52901502504E+007, +3.00072300965E+001, +6.50793361372E+002
+3.54569282137E+007, +2.92395069884E+001, +6.56675452123E+002
+3.56237061770E+007, +2.95972633617E+001, +6.58240756590E+002
+3.57904841402E+007, +3.01860950045E+001, +6.63315297107E+002
+3.59572621035E+007, +3.04015135528E+001, +6.66571964872E+002
+3.61240400668E+007, +3.02955198193E+001, +6.71115701912E+002
+3.62908180301E+007, +3.25500503511E+001, +6.74587648527E+002
+3.64575959933E+007, +3.13498589389E+001, +6.79314752639E+002
+3.66243739566E+007, +3.01147464894E+001, +6.83780514685E+002
+3.67911519199E+007, +3.06390303662E+001, +6.88490227481E+002
+3.69579298831E+007, +3.19980718739E+001, +6.91247274398E+002
+3.71247078464E+007, +3.00572333567E+001, +6.95158919651E+002
+3.72914858097E+007, +2.97813603016E+001, +7.02326314206E+002
+3.74582637730E+007, +3.33419480542E+001, +7.07289453540E+002
+3.76250417362E+007, +3.12078850915E+001, +7.10969423731E+002
+3.77918196995E+007, +2.98637776098E+001, +7.13926982385E+002
+3.79585976628E+007, +3.03034445046E+001, +7.18412183479E+002
+3.81253756260E+007, +3.00829081570E+001, +7.22290290528E+002
+3.82921535893E+007, +3.11585366411E+001, +7.26145689610E+002
+3.84589315526E+007, +3.07139908148E+001, +7.30381902903E+002
+3.86257095159E+007, +3.17889759094E+001, +7.35956064080E+002
+3.87924874791E+007, +3.25368867479E+001, +7.41027806510E+002
+3.89592654424E+007, +3.26809038856E+001, +7.45027207710E+002
+3.91260434057E+007, +3.16234790295E+001, +7.49424205674E+002
+3.92928213689E+007, +3.26364633972E+001, +7.56975163273E+002
+3.94595993322E+007, +3.59608810245E+001, +7.58469419632E+002
+3.96263772955E+007, +3.42322936708E+001, +7.64629262485E+002
+3.97931552588E+007, +3.32236063173E+001, +7.68460405719E+002
+3.99599332220E+007, +3.20982479058E+001, +7.75189681989E+002
+4.01267111853E+007, +3.19619714998E+001, +7.78496829004E+002
+4.02934891486E+007, +3.21106814100E+001, +7.80924217236E+002
+4.04602671119E+007, +3.54275792220E+001, +7.90336429337E+002
+4.06270450751E+007, +3.47449220976E+001, +7.91740415689E+002
+4.07938230384E+007, +3.24962497215E+001, +7.98840086047E+002
+4.09606010017E+007, +3.46836016931E+001, +8.02565557067E+002
+4.11273789649E+007, +3.61099300294E+001, +8.06451870477E+002
+4.12941569282E+007, +3.81507229174E+001, +8.13166484766E+002
+4.14609348915E+007, +3.64745947590E+001, +8.18073880828E+002
+4.16277128548E+007, +3.52152684027E+001, +8.23198274600E+002
+4.17944908180E+007, +3.70955314464E+001, +8.27600810495E+002
+4.19612687813E+007, +3.52573104136E+001, +8.31264354915E+002
+4.21280467446E+007, +3.44589168842E+001, +8.38720177193E+002
+4.22948247078E+007, +3.97432830845E+001, +8.43384633966E+002
+4.24616026711E+007, +3.72589187517E+001, +8.49767018378E+002
+4.26283806344E+007, +3.72470051476E+001, +8.53625458262E+002
+4.27951585977E+007, +3.89770006647E+001, +8.58687482309E+002
+4.29619365609E+007, +4.02852066529E+001, +8.62757056457E+002
+4.31287145242E+007, +3.90312503829E+001, +8.73364992810E+002
+4.32954924875E+007, +3.87308274876E+001, +8.78916681320E+002
+4.34622704508E+007, +3.89913803675E+001, +8.83589638084E+002
+4.36290484140E+007, +3.62826559947E+001, +8.86772807810E+002
+4.37958263773E+007, +4.02005303470E+001, +8.93641783578E+002
+4.39626043406E+007, +4.26553131066E+001, +8.98140526503E+002
+4.41293823038E+007, +3.99783080250E+001, +9.05378571920E+002
+4.42961602671E+007, +4.03066537081E+001, +9.14158705211E+002
+4.44629382304E+007, +4.05399670476E+001, +9.19300611428E+002
+4.46297161937E+007, +4.14132692226E+001, +9.21518714353E+002
+4.47964941569E+007, +3.95348589159E+001, +9.30967801003E+002
+4.49632721202E+007, +4.53142430772E+001, +9.40425754225E+002
+4.51300500835E+007, +4.37764275109E+001, +9.43137033128E+002
+4.52968280467E+007, +4.94943950082E+001, +9.52668547574E+002
+4.54636060100E+007, +3.94714538984E+001, +9.54677700605E+002
+4.56303839733E+007, +4.37042040982E+001, +9.64034791922E+002
+4.57971619366E+007, +4.53270182335E+001, +9.65950030682E+002
+4.59639398998E+007, +4.22116285272E+001, +9.80602941117E+002
+4.61307178631E+007, +4.15734899414E+001, +9.85100235901E+002
+4.62974958264E+007, +4.83289707607E+001, +9.91076322487E+002
+4.64642737896E+007, +4.79406155036E+001, +9.99566624284E+002
+4.66310517529E+007, +4.72954915773E+001, +1.00570822479E+003
+4.67978297162E+007, +5.40088689119E+001, +1.01033564294E+003
+4.69646076795E+007, +5.26713943506E+001, +1.01641054731E+003
+4.71313856427E+007, +5.13272026306E+001, +1.02670559783E+003
+4.72981636060E+007, +5.25926808996E+001, +1.03670938990E+003
+4.74649415693E+007, +5.56637671940E+001, +1.04221797121E+003
+4.76317195326E+007, +5.47634100660E+001, +1.04964360912E+003
+4.77984974958E+007, +5.76366413908E+001, +1.05639292612E+003
+4.79652754591E+007, +6.07877272252E+001, +1.06102748132E+003
+4.81320534224E+007, +6.10523133805E+001, +1.07301584410E+003
+4.82988313856E+007, +5.97817352315E+001, +1.07718549732E+003
+4.84656093489E+007, +6.88689927943E+001, +1.09122425565E+003
+4.86323873122E+007, +7.08205848424E+001, +1.10199772789E+003
+4.87991652755E+007, +6.79666347522E+001, +1.10696806701E+003
+4.89659432387E+007, +7.00510283231E+001, +1.10992052519E+003
+4.91327212020E+007, +7.12678399744E+001, +1.11818205434E+003
+4.92994991653E+007, +7.27050441967E+001, +1.12979426559E+003
+4.94662771285E+007, +8.06482017259E+001, +1.13416113340E+003
+4.96330550918E+007, +7.81708578622E+001, +1.14473452891E+003
+4.97998330551E+007, +8.73734675540E+001, +1.14757829304E+003
+4.99666110184E+007, +7.77230654954E+001, +1.16258532487E+003
+5.01333889816E+007, +8.41470218776E+001, +1.16971699737E+003
+5.03001669449E+007, +8.87251333343E+001, +1.17913516307E+003
+5.04669449082E+007, +8.93153723593E+001, +1.18531362537E+003
+5.06337228715E+007, +8.73128944125E+001, +1.19130827139E+003
+5.08005008347E+007, +8.57155169024E+001, +1.19641496230E+003
+5.09672787980E+007, +9.50504336643E+001, +1.20926359704E+003
+5.11340567613E+007, +9.57168913791E+001, +1.21581377044E+003
+5.13008347245E+007, +9.58561207085E+001, +1.22568993727E+003
+5.14676126878E+007, +9.65074712794E+001, +1.23633241414E+003
+5.16343906511E+007, +9.58885356559E+001, +1.23804503689E+003
+5.18011686144E+007, +9.63478037602E+001, +1.25329819160E+003
+5.19679465776E+007, +1.01374116412E+002, +1.26542768210E+003
+5.21347245409E+007, +9.83144005786E+001, +1.27868575216E+003
+5.23015025042E+007, +9.56894846858E+001, +1.28775324307E+003
+5.24682804674E+007, +1.01456347885E+002, +1.29179267457E+003
+5.26350584307E+007, +1.04822421457E+002, +1.30098513495E+003
+5.28018363940E+007, +1.03643765414E+002, +1.31472453282E+003
+5.29686143573E+007, +1.01644372055E+002, +1.33211928140E+003
+5.31353923205E+007, +1.03676656014E+002, +1.34200769250E+003
+5.33021702838E+007, +1.06092591720E+002, +1.35335770791E+003
+5.34689482471E+007, +9.37063923191E+001, +1.36763184545E+003
