"# Channel 1"
"# Trace 1"
Frequency, Formatted Data, Formatted Data
+1.00000000000E+005, +7.31390361028E-001, +1.70206198341E+000
+2.66777963272E+005, +7.27626210472E-001, +4.52967044140E+000
+4.33555926544E+005, +7.51280584969E-001, +7.36429397038E+000
+6.00333889816E+005, +8.05896286622E-001, +1.01514624399E+001
+7.67111853088E+005, +8.41567569499E-001, +1.29925056177E+001
+9.33889816361E+005, +8.69223117561E-001, +1.57476476006E+001
+1.10066777963E+006, +8.52751895155E-001, +1.85562500457E+001
+1.26744574290E+006, +9.32356362079E-001, +2.13209011430E+001
+1.43422370618E+006, +8.93248076524E-001, +2.41461055601E+001
+1.60100166945E+006, +1.03788399614E+000, +2.68419148197E+001
+1.76777963272E+006, +1.03972562828E+000, +2.96228364930E+001
+1.93455759599E+006, +1.06415862448E+000, +3.23243057439E+001
+2.10133555927E+006, +1.11907360034E+000, +3.50936343564E+001
+2.26811352254E+006, +1.14204262883E+000, +3.78982551482E+001
+2.43489148581E+006, +1.16527405575E+000, +4.06760102704E+001
+2.60166944908E+006, +1.15584778789E+000, +4.33884124440E+001
+2.76844741235E+006, +1.11355540794E+000, +4.62163577537E+001
+2.93522537563E+006, +1.15206413575E+000, +4.89266101057E+001
+3.10200333890E+006, +1.29114310468E+000, +5.16618803009E+001
+3.26878130217E+006, +1.14635404188E+000, +5.45077758398E+001
+3.43555926544E+006, +1.22925296458E+000, +5.72323324281E+001
+3.60233722871E+006, +1.28661753013E+000, +6.00026337604E+001
+3.76911519199E+006, +1.22477820172E+000, +6.28869497968E+001
+3.93589315526E+006, +1.18175281054E+000, +6.55133747120E+001
+4.10267111853E+006, +1.26336522420E+000, +6.84371002650E+001
+4.26944908180E+006, +1.27692863867E+000, +7.12716708949E+001
+4.43622704508E+006, +1.27327106585E+000, +7.38488001062E+001
+4.60300500835E+006, +1.33223970784E+000, +7.68045724399E+001
+4.76978297162E+006, +1.26471057668E+000, +7.94761193108E+001
+4.93656093489E+006, +1.43192642065E+000, +8.23580723888E+001
+5.10333889816E+006, +1.39273936223E+000, +8.50020128606E+001
+5.27011686144E+006, +1.59680029516E+000, +8.80439874065E+001
+5.43689482471E+006, +1.38912294074E+000, +9.07964541820E+001
+5.60367278798E+006, +1.49049523783E+000, +9.36472272413E+001
+5.77045075125E+006, +1.34407482362E+000, +9.64046997133E+001
+5.93722871452E+006, +1.59068993743E+000, +9.92551966407E+001
+6.10400667780E+006, +1.45830756227E+000, +1.02045858253E+002
+6.27078464107E+006, +1.64089782328E+000, +1.04842242543E+002
+6.43756260434E+006, +1.65956877603E+000, +1.07710159025E+002
+6.60434056761E+006, +1.71347707338E+000, +1.10525462407E+002
+6.77111853088E+006, +1.83178008028E+000, +1.13293703601E+002
+6.93789649416E+006, +1.75095712113E+000, +1.16171816131E+002
+7.10467445743E+006, +1.74743282374E+000, +1.18937089808E+002
+7.27145242070E+006, +1.77738123440E+000, +1.21718590653E+002
+7.43823038397E+006, +1.89444856585E+000, +1.24627698649E+002
+7.60500834725E+006, +1.79215943760E+000, +1.27409582693E+002
+7.77178631052E+006, +1.93863043265E+000, +1.30367353590E+002
+7.93856427379E+006, +1.88727049072E+000, +1.33087713131E+002
+8.10534223706E+006, +1.95528342391E+000, +1.35941916229E+002
+8.27212020033E+006, +1.85887787022E+000, +1.38831503517E+002
+8.43889816361E+006, +1.77128159937E+000, +1.41792168341E+002
+8.60567612688E+006, +1.71171145901E+000, +1.44649809503E+002
+8.77245409015E+006, +1.75798181156E+000, +1.47416520769E+002
+8.93923205342E+006, +1.85477260552E+000, +1.50341814075E+002
+9.10601001669E+006, +1.87294338132E+000, +1.53285043985E+002
+9.27278797997E+006, +1.71452018400E+000, +1.56247884792E+002
+9.43956594324E+006, +1.85548462672E+000, +1.58999252352E+002
+9.60634390651E+006, +1.75733945270E+000, +1.61858182877E+002
+9.77312186978E+006, +1.77057900229E+000, +1.64976288302E+002
+9.93989983306E+006, +1.91095835940E+000, +1.67862585147E+002
+1.01066777963E+007, +1.65331166931E+000, +1.70621696086E+002
+1.02734557596E+007, +1.76016604557E+000, +1.73858077573E+002
+1.04402337229E+007, +1.65026517633E+000, +1.76683525865E+002
+1.06070116861E+007, +1.52627426276E+000, +1.79495914370E+002
+1.07737896494E+007, +1.69516396399E+000, +1.82640297719E+002
+1.09405676127E+007, +1.83353526149E+000, +1.85547324333E+002
+1.11073455760E+007, +1.86141372539E+000, +1.88674933721E+002
+1.12741235392E+007, +1.74545909083E+000, +1.91525750781E+002
+1.14409015025E+007, +1.94669428691E+000, +1.94474216626E+002
+1.16076794658E+007, +1.88620510507E+000, +1.97591836909E+002
+1.17744574290E+007, +1.68777043634E+000, +2.00732304337E+002
+1.19412353923E+007, +1.78884735551E+000, +2.03681710196E+002
+1.21080133556E+007, +1.28945304974E+000, +2.06790269033E+002
+1.22747913189E+007, +1.80351426478E+000, +2.09623032340E+002
+1.24415692821E+007, +1.66670188283E+000, +2.12759885149E+002
+1.26083472454E+007, +1.53366980263E+000, +2.15830370706E+002
+1.27751252087E+007, +1.55710507364E+000, +2.18700283741E+002
+1.29419031720E+007, +1.40349705851E+000, +2.21792610811E+002
+1.31086811352E+007, +1.82412918652E+000, +2.25162668611E+002
+1.32754590985E+007, +1.52275049491E+000, +2.28043643569E+002
+1.34422370618E+007, +1.39671777382E+000, +2.31309806457E+002
+1.36090150250E+007, +1.80717807681E+000, +2.34266428004E+002
+1.37757929883E+007, +1.53750953844E+000, +2.37340980753E+002
+1.39425709516E+007, +2.05192994809E+000, +2.40459685936E+002
+1.41093489149E+007, +1.67370437954E+000, +2.43674908655E+002
+1.42761268781E+007, +1.73429793733E+000, +2.46983227399E+002
+1.44429048414E+007, +1.70820631211E+000, +2.49917718792E+002
+1.46096828047E+007, +1.69774446512E+000, +2.53331855951E+002
+1.47764607679E+007, +1.85877096075E+000, +2.56297807076E+002
+1.49432387312E+007, +1.53738933153E+000, +2.59611426448E+002
+1.51100166945E+007, +1.63144558314E+000, +2.62900227392E+002
+1.52767946578E+007, +1.94017105484E+000, +2.65893272127E+002
+1.54435726210E+007, +1.71772697591E+000, +2.69102911792E+002
+1.56103505843E+007, +2.02148126122E+000, +2.72460278145E+002
+1.57771285476E+007, +2.03059941244E+000, +2.75320875538E+002
+1.59439065109E+007, +2.04532198196E+000, +2.79014206542E+002
+1.61106844741E+007, +1.72823152310E+000, +2.82211334808E+002
+1.62774624374E+007, +2.16093512962E+000, +2.85343395182E+002
+1.64442404007E+007, +1.65402307239E+000, +2.88909087569E+002
+1.66110183639E+007, +2.04142534429E+000, +2.91894886345E+002
+1.67777963272E+007, +1.88818004912E+000, +2.95469892594E+002
+1.69445742905E+007, +2.02234329277E+000, +2.98133405245E+002
+1.71113522538E+007, +8.05493140107E-001, +3.01563604826E+002
+1.72781302170E+007, +1.36635955893E+000, +3.05424415024E+002
+1.74449081803E+007, +1.02942755595E+000, +3.08143303992E+002
+1.76116861436E+007, +1.75122940241E+000, +3.11874073126E+002
+1.77784641068E+007, +1.56283620421E+000, +3.15310042454E+002
+1.79452420701E+007, +1.99156873464E+000, +3.18509964859E+002
+1.81120200334E+007, +1.97670005912E+000, +3.22110516481E+002
+1.82787979967E+007, +1.52204186490E+000, +3.25562646257E+002
+1.84455759599E+007, +2.43678021794E+000, +3.29425584293E+002
+1.86123539232E+007, +2.29369404662E+000, +3.32603504873E+002
+1.87791318865E+007, +1.93937512013E+000, +3.36165672972E+002
+1.89459098497E+007, +2.00369260432E+000, +3.39667989725E+002
+1.91126878130E+007, +2.13109266640E+000, +3.43068075982E+002
+1.92794657763E+007, +2.00074318296E+000, +3.46292782295E+002
+1.94462437396E+007, +1.94081831444E+000, +3.50494603180E+002
+1.96130217028E+007, +2.04808008090E+000, +3.53789059524E+002
+1.97797996661E+007, +2.51042154247E+000, +3.56942991754E+002
+1.99465776294E+007, +1.63049756124E+000, +3.60459500340E+002
+2.01133555927E+007, +1.80318432375E+000, +3.64695028483E+002
+2.02801335559E+007, +1.84386164179E+000, +3.68788204165E+002
+2.04469115192E+007, +3.00968948158E+000, +3.71752789648E+002
+2.06136894825E+007, +2.22055074647E+000, +3.76139732357E+002
+2.07804674457E+007, +2.89510240933E+000, +3.80040582621E+002
+2.09472454090E+007, +2.31719346307E+000, +3.83836271725E+002
+2.11140233723E+007, +2.50696659788E+000, +3.86950545568E+002
+2.12808013356E+007, +2.61394008120E+000, +3.90925901804E+002
+2.14475792988E+007, +2.53286309587E+000, +3.94321457853E+002
+2.16143572621E+007, +2.95526269204E+000, +3.98190477931E+002
+2.17811352254E+007, +2.67231158173E+000, +4.01783224560E+002
+2.19479131886E+007, +3.71283839045E+000, +4.05424483831E+002
+2.21146911519E+007, +4.38142187412E+000, +4.09157753586E+002
+2.22814691152E+007, +2.98683363652E+000, +4.13148957413E+002
+2.24482470785E+007, +3.24409759879E+000, +4.17014626371E+002
+2.26150250417E+007, +4.28351423549E+000, +4.21093964432E+002
+2.27818030050E+007, +3.70575280298E+000, +4.25335451594E+002
+2.29485809683E+007, +4.77742787295E+000, +4.28807917511E+002
+2.31153589316E+007, +3.40070151845E+000, +4.33887739360E+002
+2.32821368948E+007, +5.45028941747E+000, +4.36804471383E+002
+2.34489148581E+007, +5.02802355227E+000, +4.40968862075E+002
+2.36156928214E+007, +4.91340868817E+000, +4.45308349422E+002
+2.37824707846E+007, +5.29374383324E+000, +4.49132564876E+002
+2.39492487479E+007, +4.06962243479E+000, +4.52625521513E+002
+2.41160267112E+007, +5.00722847190E+000, +4.56690964539E+002
+2.42828046745E+007, +5.00382951729E+000, +4.60516165408E+002
+2.44495826377E+007, +6.01852706392E+000, +4.65600359015E+002
+2.46163606010E+007, +5.58076947581E+000, +4.69061340527E+002
+2.47831385643E+007, +5.95015924373E+000, +4.73810273715E+002
+2.49499165275E+007, +6.28516696352E+000, +4.77789519085E+002
+2.51166944908E+007, +6.67032151294E+000, +4.81775595839E+002
+2.52834724541E+007, +6.94788492298E+000, +4.86591347064E+002
+2.54502504174E+007, +7.14561493843E+000, +4.91562486642E+002
+2.56170283806E+007, +6.89048999219E+000, +4.94063316086E+002
+2.57838063439E+007, +7.08415377236E+000, +4.99449023119E+002
+2.59505843072E+007, +7.26092159557E+000, +5.04421861847E+002
+2.61173622705E+007, +7.55771394449E+000, +5.08418057346E+002
+2.62841402337E+007, +7.45286576258E+000, +5.11152123528E+002
+2.64509181970E+007, +7.54138586293E+000, +5.16555466020E+002
+2.66176961603E+007, +7.52172897489E+000, +5.22010871678E+002
+2.67844741235E+007, +7.63767070102E+000, +5.25993381255E+002
+2.69512520868E+007, +7.95319618033E+000, +5.29729839140E+002
+2.71180300501E+007, +9.39480298892E+000, +5.33299678300E+002
+2.72848080134E+007, +8.87611041688E+000, +5.39733050797E+002
+2.74515859766E+007, +9.19016279874E+000, +5.42553490223E+002
+2.76183639399E+007, +8.05564403999E+000, +5.46607569036E+002
+2.77851419032E+007, +6.98112305212E+000, +5.52477291778E+002
+2.79519198664E+007, +7.72436538252E+000, +5.56559047203E+002
+2.81186978297E+007, +1.02235053109E+001, +5.60172802430E+002
+2.82854757930E+007, +1.00821582120E+001, +5.65808162341E+002
+2.84522537563E+007, +8.30644131257E+000, +5.71211234901E+002
+2.86190317195E+007, +8.96130028407E+000, +5.74877139897E+002
+2.87858096828E+007, +1.24870683875E+001, +5.79020815464E+002
+2.89525876461E+007, +1.13955338226E+001, +5.84785658030E+002
+2.91193656093E+007, +9.04629096144E+000, +5.89645617354E+002
+2.92861435726E+007, +8.83219177548E+000, +5.94616412655E+002
+2.94529215359E+007, +1.12400321254E+001, +5.99377157055E+002
+2.96196994992E+007, +1.08888289160E+001, +6.04669474546E+002
+2.97864774624E+007, +1.19479716776E+001, +6.10127458587E+002
+2.99532554257E+007, +1.16943705168E+001, +6.15269014207E+002
+3.01200333890E+007, +1.16449657930E+001, +6.20533609625E+002
+3.02868113523E+007, +1.02868228307E+001, +6.26432797071E+002
+3.04535893155E+007, +1.28567812080E+001, +6.31790996193E+002
+3.06203672788E+007, +1.20618600783E+001, +6.37597630994E+002
+3.07871452421E+007, +1.12264309870E+001, +6.41551438948E+002
+3.09539232053E+007, +1.24374140722E+001, +6.45895831847E+002
+3.11207011686E+007, +1.20356967572E+001, +6.54275186957E+002
+3.12874791319E+007, +1.19329860000E+001, +6.55672915579E+002
+3.14542570952E+007, +1.20542105714E+001, +6.62209348688E+002
+3.16210350584E+007, +1.14988527686E+001, +6.69452810199E+002
+3.17878130217E+007, +1.02680614980E+001, +6.74861686521E+002
+3.19545909850E+007, +1.12759500012E+001, +6.77731349281E+002
+3.21213689482E+007, +1.16186438176E+001, +6.84876216407E+002
+3.22881469115E+007, +1.07490796298E+001, +6.92272736165E+002
+3.24549248748E+007, +1.21300154915E+001, +6.96541231850E+002
+3.26217028381E+007, +1.10868264000E+001, +7.03028167583E+002
+3.27884808013E+007, +1.25925704022E+001, +7.09576827818E+002
+3.29552587646E+007, +1.22385437637E+001, +7.14451264744E+002
+3.31220367279E+007, +1.46435874942E+001, +7.19567170852E+002
+3.32888146912E+007, +1.21461197519E+001, +7.26800199365E+002
+3.34555926544E+007, +1.03780227574E+001, +7.30547028160E+002
+3.36223706177E+007, +1.29660187707E+001, +7.38770915735E+002
+3.37891485810E+007, +1.15134115707E+001, +7.42367803694E+002
+3.39559265442E+007, +1.48738960000E+001, +7.53772272907E+002
+3.41227045075E+007, +1.03813982696E+001, +7.58105401067E+002
+3.42894824708E+007, +1.20408788063E+001, +7.62986615811E+002
+3.44562604341E+007, +1.33373355100E+001, +7.71174298856E+002
+3.46230383973E+007, +1.25860971786E+001, +7.81085948732E+002
+3.47898163606E+007, +1.43913783535E+001, +7.80269766275E+002
+3.49565943239E+007, +1.55106053012E+001, +7.92064277993E+002
+3.51233722871E+007, +1.38249867303E+001, +7.97498984951E+002
+3.52901502504E+007, +1.42619681549E+001, +8.01616414837E+002
+3.54569282137E+007, +1.09582828698E+001, +8.11154143460E+002
+3.56237061770E+007, +1.23215923577E+001, +8.19290424395E+002
+3.57904841402E+007, +1.33919527700E+001, +8.25494918021E+002
+3.59572621035E+007, +1.49619626100E+001, +8.32274117762E+002
+3.61240400668E+007, +1.53923015535E+001, +8.42018620530E+002
+3.62908180301E+007, +1.32369185521E+001, +8.49904492487E+002
+3.64575959933E+007, +1.25283154679E+001, +8.57030001896E+002
+3.66243739566E+007, +1.56243780581E+001, +8.62648826085E+002
+3.67911519199E+007, +1.49032103050E+001, +8.73634030400E+002
+3.69579298831E+007, +1.59548879413E+001, +8.77576724307E+002
+3.71247078464E+007, +1.53561668985E+001, +8.86914980887E+002
+3.72914858097E+007, +1.60243527306E+001, +8.99815666611E+002
+3.74582637730E+007, +1.70377127275E+001, +9.06663844364E+002
+3.76250417362E+007, +1.78397898148E+001, +9.13298270271E+002
+3.77918196995E+007, +1.36674213379E+001, +9.21280168076E+002
+3.79585976628E+007, +1.39711882487E+001, +9.29624213608E+002
+3.81253756260E+007, +1.90849547948E+001, +9.40206185615E+002
+3.82921535893E+007, +2.18155522405E+001, +9.50299112100E+002
+3.84589315526E+007, +1.76558593732E+001, +9.59232432411E+002
+3.86257095159E+007, +1.84748982660E+001, +9.70175680814E+002
+3.87924874791E+007, +1.59920751464E+001, +9.75918205384E+002
+3.89592654424E+007, +2.16793542979E+001, +9.83219272774E+002
+3.91260434057E+007, +2.02801012363E+001, +9.98042996691E+002
+3.92928213689E+007, +1.85670015299E+001, +1.00290371331E+003
+3.94595993322E+007, +1.95081235280E+001, +1.01898112845E+003
+3.96263772955E+007, +1.70022152992E+001, +1.02888419333E+003
+3.97931552588E+007, +1.94518725186E+001, +1.03471328773E+003
+3.99599332220E+007, +2.13845607190E+001, +1.04463521333E+003
+4.01267111853E+007, +2.34113730415E+001, +1.06000243304E+003
+4.02934891486E+007, +1.83676764463E+001, +1.06591615014E+003
+4.04602671119E+007, +2.36070690284E+001, +1.07290795787E+003
+4.06270450751E+007, +2.47704600703E+001, +1.08983146346E+003
+4.07938230384E+007, +2.81996423775E+001, +1.09920031916E+003
+4.09606010017E+007, +2.73641881817E+001, +1.10971291390E+003
+4.11273789649E+007, +2.85338575488E+001, +1.12156492481E+003
+4.12941569282E+007, +2.48165634289E+001, +1.13573008594E+003
+4.14609348915E+007, +2.86701321992E+001, +1.15195389050E+003
+4.16277128548E+007, +2.45621991252E+001, +1.16128611172E+003
+4.17944908180E+007, +3.00671286242E+001, +1.16376979227E+003
+4.19612687813E+007, +3.09790986942E+001, +1.18101217028E+003
+4.21280467446E+007, +2.58286519762E+001, +1.20127944294E+003
+4.22948247078E+007, +2.80595128233E+001, +1.21180524610E+003
+4.24616026711E+007, +3.44756524495E+001, +1.21865774189E+003
+4.26283806344E+007, +3.33339941308E+001, +1.23635773097E+003
+4.27951585977E+007, +3.06598078781E+001, +1.25390536521E+003
+4.29619365609E+007, +4.03427015614E+001, +1.26723721554E+003
+4.31287145242E+007, +4.54467671265E+001, +1.28013488501E+003
+4.32954924875E+007, +3.68671565024E+001, +1.28734967762E+003
+4.34622704508E+007, +3.34473874260E+001, +1.31233798440E+003
+4.36290484140E+007, +4.46170195831E+001, +1.32017388177E+003
+4.37958263773E+007, +3.83650600675E+001, +1.34414406255E+003
+4.39626043406E+007, +4.02518072299E+001, +1.35308156523E+003
+4.41293823038E+007, +5.29717730970E+001, +1.37126359607E+003
+4.42961602671E+007, +4.78229563824E+001, +1.39132810601E+003
+4.44629382304E+007, +4.01429407556E+001, +1.40555520655E+003
+4.46297161937E+007, +4.36424264751E+001, +1.42636305726E+003
+4.47964941569E+007, +4.10874612187E+001, +1.44801010672E+003
+4.49632721202E+007, +4.89927780714E+001, +1.46614665487E+003
+4.51300500835E+007, +5.65018674700E+001, +1.46682824052E+003
+4.52968280467E+007, +5.97571825145E+001, +1.50188362909E+003
+4.54636060100E+007, +5.77175942588E+001, +1.53158434925E+003
+4.56303839733E+007, +5.71693502511E+001, +1.54776811289E+003
+4.57971619366E+007, +5.82353835003E+001, +1.56459876890E+003
+4.59639398998E+007, +5.66804538752E+001, +1.60007914219E+003
+4.61307178631E+007, +6.65347420539E+001, +1.61846700834E+003
+4.62974958264E+007, +8.38707911096E+001, +1.63557515275E+003
+4.64642737896E+007, +6.78439975513E+001, +1.65932769812E+003
+4.66310517529E+007, +7.33724870658E+001, +1.68270637645E+003
+4.67978297162E+007, +1.05691677219E+002, +1.69675185587E+003
+4.69646076795E+007, +8.55623367830E+001, +1.74730761160E+003
+4.71313856427E+007, +1.06660619964E+002, +1.76673718775E+003
+4.72981636060E+007, +1.06006821269E+002, +1.79017254631E+003
+4.74649415693E+007, +1.12323833557E+002, +1.82064008146E+003
+4.76317195326E+007, +1.22115199548E+002, +1.84028467724E+003
+4.77984974958E+007, +1.37707283991E+002, +1.87169728221E+003
+4.79652754591E+007, +1.47777663672E+002, +1.90183227018E+003
+4.81320534224E+007, +1.46349969005E+002, +1.92377163368E+003
+4.82988313856E+007, +1.58767101779E+002, +1.96886463839E+003
+4.84656093489E+007, +1.75592254395E+002, +1.98594181741E+003
+4.86323873122E+007, +1.85782340446E+002, +2.01222393017E+003
+4.87991652755E+007, +1.92565023077E+002, +2.05400033073E+003
+4.89659432387E+007, +2.10034432386E+002, +2.07509949745E+003
+4.91327212020E+007, +2.08648237156E+002, +2.11644128611E+003
+4.92994991653E+007, +2.43796358678E+002, +2.14862027128E+003
+4.94662771285E+007, +2.46859945061E+002, +2.19142979995E+003
+4.96330550918E+007, +2.75093187972E+002, +2.20762101754E+003
+4.97998330551E+007, +2.99344026168E+002, +2.24515145434E+003
+4.99666110184E+007, +3.07154309284E+002, +2.27092373424E+003
+5.01333889816E+007, +3.04101321242E+002, +2.30616240654E+003
+5.03001669449E+007, +3.27553355436E+002, +2.32061011428E+003
+5.04669449082E+007, +3.41731765857E+002, +2.39826285749E+003
+5.06337228715E+007, +3.71163078764E+002, +2.41183610649E+003
+5.08005008347E+007, +3.62515805617E+002, +2.41894684456E+003
+5.09672787980E+007, +4.00794132987E+002, +2.47423025116E+003
+5.11340567613E+007, +4.17360510050E+002, +2.50847373735E+003
+5.13008347245E+007, +3.97487496961E+002, +2.56184166089E+003
+5.14676126878E+007, +4.02387292353E+002, +2.60603222894E+003
+5.16343906511E+007, +4.28754118592E+002, +2.64684027704E+003
+5.18011686144E+007, +3.89783212796E+002, +2.72813167679E+003
+5.19679465776E+007, +4.32079993293E+002, +2.75587048144E+003
+5.21347245409E+007, +4.73963782646E+002, +2.84695081007E+003
+5.23015025042E+007, +5.11379311661E+002, +2.95555703873E+003
+5.24682804674E+007, +4.76041458331E+002, +3.02352955573E+003
+5.26350584307E+007, +5.08225036601E+002, +3.04265897241E+003
+5.28018363940E+007, +5.31133137822E+002, +3.16588794979E+003
+5.29686143573E+007, +5.40940049515E+002, +3.21729397104E+003
+5.31353923205E+007, +5.82500834403E+002, +3.30541149846E+003
+5.33021702838E+007, +5.76328333054E+002, +3.46106236496E+003
+5.34689482471E+007, +6.60721924643E+002, +3.56586816262E+003
