"# Channel 1"
"# Trace 1"
Frequency, Formatted Data, Formatted Data
+1.00000000000E+005, +3.34374502477E+001, +1.58562139280E+000
+2.25031289111E+005, +3.34284266623E+001, +3.71150782207E+000
+3.50062578223E+005, +3.34417266637E+001, +5.73551110050E+000
+4.75093867334E+005, +3.34571021449E+001, +7.75086342825E+000
+6.00125156446E+005, +3.34527525612E+001, +9.79036397530E+000
+7.25156445557E+005, +3.34642873841E+001, +1.18002784684E+001
+8.50187734668E+005, +3.35028894582E+001, +1.38444458808E+001
+9.75219023780E+005, +3.34946537247E+001, +1.58400411282E+001
+1.10025031289E+006, +3.34787213376E+001, +1.78856507465E+001
+1.22528160200E+006, +3.34662719351E+001, +1.99009337520E+001
+1.35031289111E+006, +3.35219332040E+001, +2.19091917779E+001
+1.47534418023E+006, +3.35466152081E+001, +2.39034067265E+001
+1.60037546934E+006, +3.35236058601E+001, +2.59248986394E+001
+1.72540675845E+006, +3.35511304143E+001, +2.79278712486E+001
+1.85043804756E+006, +3.35107479731E+001, +3.00160665835E+001
+1.97546933667E+006, +3.35381563240E+001, +3.19744574720E+001
+2.10050062578E+006, +3.35679250174E+001, +3.39476454436E+001
+2.22553191489E+006, +3.35979908212E+001, +3.60357921086E+001
+2.35056320401E+006, +3.35533835981E+001, +3.81066600698E+001
+2.47559449312E+006, +3.35866410366E+001, +4.01483981680E+001
+2.60062578223E+006, +3.35428065830E+001, +4.20668530335E+001
+2.72565707134E+006, +3.35662340435E+001, +4.40519934021E+001
+2.85068836045E+006, +3.36146648403E+001, +4.61690698713E+001
+2.97571964956E+006, +3.35831641999E+001, +4.81292544559E+001
+3.10075093867E+006, +3.36078892138E+001, +5.01488146998E+001
+3.22578222778E+006, +3.35290653433E+001, +5.21923596130E+001
+3.35081351690E+006, +3.36905566965E+001, +5.42517129370E+001
+3.47584480601E+006, +3.36175546788E+001, +5.61864035179E+001
+3.60087609512E+006, +3.37366964024E+001, +5.83027945775E+001
+3.72590738423E+006, +3.36391911316E+001, +6.03729439901E+001
+3.85093867334E+006, +3.36708891368E+001, +6.23485396579E+001
+3.97596996245E+006, +3.37336577605E+001, +6.44634539697E+001
+4.10100125156E+006, +3.36638393288E+001, +6.65306858167E+001
+4.22603254068E+006, +3.37279387431E+001, +6.83818151112E+001
+4.35106382979E+006, +3.36675490318E+001, +7.04634611178E+001
+4.47609511890E+006, +3.37559216033E+001, +7.23887702142E+001
+4.60112640801E+006, +3.37615623163E+001, +7.44839629985E+001
+4.72615769712E+006, +3.38786951157E+001, +7.66206939204E+001
+4.85118898623E+006, +3.38073833160E+001, +7.85414086957E+001
+4.97622027534E+006, +3.37921183062E+001, +8.06749849155E+001
+5.10125156446E+006, +3.39270716924E+001, +8.26496285950E+001
+5.22628285357E+006, +3.40159643514E+001, +8.47846130461E+001
+5.35131414268E+006, +3.38534291155E+001, +8.68273886441E+001
+5.47634543179E+006, +3.37737666463E+001, +8.88852881566E+001
+5.60137672090E+006, +3.37503563905E+001, +9.09376848000E+001
+5.72640801001E+006, +3.37896256563E+001, +9.30273077320E+001
+5.85143929912E+006, +3.39359218640E+001, +9.50554020057E+001
+5.97647058824E+006, +3.40940951827E+001, +9.72642137293E+001
+6.10150187735E+006, +3.40448783903E+001, +9.91441801288E+001
+6.22653316646E+006, +3.39395115011E+001, +1.01321715007E+002
+6.35156445557E+006, +3.40980925924E+001, +1.03328233620E+002
+6.47659574468E+006, +3.41629579413E+001, +1.05396682688E+002
+6.60162703379E+006, +3.42416463581E+001, +1.07501296443E+002
+6.72665832290E+006, +3.43465738380E+001, +1.09534983204E+002
+6.85168961202E+006, +3.42475851442E+001, +1.11572079631E+002
+6.97672090113E+006, +3.42372504713E+001, +1.13681777213E+002
+7.10175219024E+006, +3.43691210871E+001, +1.15709407076E+002
+7.22678347935E+006, +3.42239350440E+001, +1.17786348822E+002
+7.35181476846E+006, +3.43360845142E+001, +1.20007775262E+002
+7.47684605757E+006, +3.43243014093E+001, +1.22041660243E+002
+7.60187734668E+006, +3.43074990800E+001, +1.24070430893E+002
+7.72690863579E+006, +3.43085955195E+001, +1.26146182060E+002
+7.85193992491E+006, +3.44835622040E+001, +1.28396854837E+002
+7.97697121402E+006, +3.45150902821E+001, +1.30260826886E+002
+8.10200250313E+006, +3.45106829659E+001, +1.32369882572E+002
+8.22703379224E+006, +3.44879035371E+001, +1.34508680643E+002
+8.35206508135E+006, +3.46440266824E+001, +1.36722791960E+002
+8.47709637046E+006, +3.46624483357E+001, +1.38850838356E+002
+8.60212765957E+006, +3.45437044618E+001, +1.40841512745E+002
+8.72715894869E+006, +3.47385456893E+001, +1.43055440857E+002
+8.85219023780E+006, +3.48422498871E+001, +1.44841279874E+002
+8.97722152691E+006, +3.46612081611E+001, +1.47071258635E+002
+9.10225281602E+006, +3.48387637885E+001, +1.49475667927E+002
+9.22728410513E+006, +3.46712291109E+001, +1.51452883871E+002
+9.35231539424E+006, +3.48897844284E+001, +1.53570376293E+002
+9.47734668335E+006, +3.48237171962E+001, +1.55821741691E+002
+9.60237797247E+006, +3.50900419151E+001, +1.57961970473E+002
+9.72740926158E+006, +3.48574456101E+001, +1.60027668741E+002
+9.85244055069E+006, +3.48405247234E+001, +1.62019792473E+002
+9.97747183980E+006, +3.46898042690E+001, +1.64135819020E+002
+1.01025031289E+007, +3.50285704824E+001, +1.66391580169E+002
+1.02275344180E+007, +3.49525444107E+001, +1.68637937540E+002
+1.03525657071E+007, +3.51628242990E+001, +1.70548995480E+002
+1.04775969962E+007, +3.49331634004E+001, +1.72795235718E+002
+1.06026282854E+007, +3.51387070186E+001, +1.74966828594E+002
+1.07276595745E+007, +3.52157523600E+001, +1.77064228172E+002
+1.08526908636E+007, +3.52973504407E+001, +1.79274162250E+002
+1.09777221527E+007, +3.51698404343E+001, +1.81418935544E+002
+1.11027534418E+007, +3.52826016138E+001, +1.83753207020E+002
+1.12277847309E+007, +3.53130815847E+001, +1.85968949061E+002
+1.13528160200E+007, +3.52938960759E+001, +1.87998065457E+002
+1.14778473091E+007, +3.54554753549E+001, +1.89886736637E+002
+1.16028785982E+007, +3.55111364920E+001, +1.92309462419E+002
+1.17279098874E+007, +3.53244687352E+001, +1.94831897818E+002
+1.18529411765E+007, +3.57087900610E+001, +1.96328814711E+002
+1.19779724656E+007, +3.52545107313E+001, +1.99189206580E+002
+1.21030037547E+007, +3.55300505342E+001, +2.01160863885E+002
+1.22280350438E+007, +3.57469588006E+001, +2.03439214843E+002
+1.23530663329E+007, +3.58149391635E+001, +2.05485661382E+002
+1.24780976220E+007, +3.55370117769E+001, +2.07591857881E+002
+1.26031289111E+007, +3.57599811560E+001, +2.10227477241E+002
+1.27281602003E+007, +3.56367152965E+001, +2.12061471607E+002
+1.28531914894E+007, +3.55445950288E+001, +2.14727665902E+002
+1.29782227785E+007, +3.54780195904E+001, +2.16747211866E+002
+1.31032540676E+007, +3.57773912558E+001, +2.18878293927E+002
+1.32282853567E+007, +3.57554792991E+001, +2.21356412157E+002
+1.33533166458E+007, +3.57183325153E+001, +2.23402305394E+002
+1.34783479349E+007, +3.60546086479E+001, +2.25671681757E+002
+1.36033792240E+007, +3.56949201026E+001, +2.27843298129E+002
+1.37284105131E+007, +3.59029214132E+001, +2.30487466197E+002
+1.38534418023E+007, +3.60069423091E+001, +2.32406895574E+002
+1.39784730914E+007, +3.61108952476E+001, +2.35195600613E+002
+1.41035043805E+007, +3.58722934455E+001, +2.37245589876E+002
+1.42285356696E+007, +3.60859457735E+001, +2.39444796737E+002
+1.43535669587E+007, +3.59263767566E+001, +2.41780705799E+002
+1.44785982478E+007, +3.65039490908E+001, +2.43782692102E+002
+1.46036295369E+007, +3.62202734630E+001, +2.46895979795E+002
+1.47286608260E+007, +3.62126377934E+001, +2.48430777632E+002
+1.48536921151E+007, +3.61663030938E+001, +2.50972871522E+002
+1.49787234043E+007, +3.64748428970E+001, +2.53244731639E+002
+1.51037546934E+007, +3.64879999857E+001, +2.55298799142E+002
+1.52287859825E+007, +3.65768047157E+001, +2.57955538282E+002
+1.53538172716E+007, +3.63502886392E+001, +2.60340215853E+002
+1.54788485607E+007, +3.73169058753E+001, +2.62384114039E+002
+1.56038798498E+007, +3.68671042433E+001, +2.65254060781E+002
+1.57289111389E+007, +3.65753228323E+001, +2.67205379454E+002
+1.58539424280E+007, +3.68622322367E+001, +2.69510992755E+002
+1.59789737171E+007, +3.70247668928E+001, +2.71977882716E+002
+1.61040050063E+007, +3.68986720631E+001, +2.73797484584E+002
+1.62290362954E+007, +3.74663018017E+001, +2.76565682040E+002
+1.63540675845E+007, +3.74292782944E+001, +2.79413740573E+002
+1.64790988736E+007, +3.69400531438E+001, +2.81780697319E+002
+1.66041301627E+007, +3.76413047459E+001, +2.84195162623E+002
+1.67291614518E+007, +3.70758519470E+001, +2.86007956651E+002
+1.68541927409E+007, +3.74246516056E+001, +2.89035307138E+002
+1.69792240300E+007, +3.78547052700E+001, +2.90903402187E+002
+1.71042553191E+007, +3.65094995122E+001, +2.93756772285E+002
+1.72292866083E+007, +3.74926062121E+001, +2.95816441864E+002
+1.73543178974E+007, +3.73433708911E+001, +2.98382575514E+002
+1.74793491865E+007, +3.79132347136E+001, +3.01198283403E+002
+1.76043804756E+007, +3.80269531642E+001, +3.03023366793E+002
+1.77294117647E+007, +3.67524170243E+001, +3.05950671221E+002
+1.78544430538E+007, +3.74714956997E+001, +3.08145442906E+002
+1.79794743429E+007, +3.73217191139E+001, +3.10561601705E+002
+1.81045056320E+007, +3.77658315300E+001, +3.13487735744E+002
+1.82295369212E+007, +3.82526403775E+001, +3.15707850344E+002
+1.83545682103E+007, +3.79618802067E+001, +3.17791879745E+002
+1.84795994994E+007, +3.73123844906E+001, +3.20928216181E+002
+1.86046307885E+007, +3.80515771987E+001, +3.23430758682E+002
+1.87296620776E+007, +3.84438389260E+001, +3.25763255462E+002
+1.88546933667E+007, +3.78981603406E+001, +3.27511813515E+002
+1.89797246558E+007, +3.84393115593E+001, +3.30569434207E+002
+1.91047559449E+007, +3.87372265478E+001, +3.32959610713E+002
+1.92297872340E+007, +3.88835909243E+001, +3.36158130252E+002
+1.93548185232E+007, +3.87236327012E+001, +3.38588499123E+002
+1.94798498123E+007, +3.90196691090E+001, +3.40117424701E+002
+1.96048811014E+007, +3.81962499075E+001, +3.43159497430E+002
+1.97299123905E+007, +3.89146983361E+001, +3.46083367803E+002
+1.98549436796E+007, +3.90230771611E+001, +3.47840568384E+002
+1.99799749687E+007, +3.91799470337E+001, +3.51613178267E+002
+2.01050062578E+007, +3.89644111287E+001, +3.53467240428E+002
+2.02300375469E+007, +3.91721291419E+001, +3.56648299113E+002
+2.03550688360E+007, +3.96121912751E+001, +3.58342078945E+002
+2.04801001252E+007, +3.90056662793E+001, +3.61408275547E+002
+2.06051314143E+007, +3.91972112632E+001, +3.64601267557E+002
+2.07301627034E+007, +3.97712987909E+001, +3.66608598852E+002
+2.08551939925E+007, +4.01510670798E+001, +3.69978725159E+002
+2.09802252816E+007, +3.94840374404E+001, +3.72123142848E+002
+2.11052565707E+007, +3.94025488712E+001, +3.75448486198E+002
+2.12302878598E+007, +4.01676128103E+001, +3.77153271649E+002
+2.13553191489E+007, +3.93778172649E+001, +3.79532422551E+002
+2.14803504380E+007, +4.09925232824E+001, +3.82479492011E+002
+2.16053817272E+007, +4.07360361748E+001, +3.85936815728E+002
+2.17304130163E+007, +4.01445630636E+001, +3.89027058576E+002
+2.18554443054E+007, +3.96286498164E+001, +3.90359182552E+002
+2.19804755945E+007, +4.11585090808E+001, +3.94844912270E+002
+2.21055068836E+007, +4.06112834022E+001, +3.96689806137E+002
+2.22305381727E+007, +4.10753497102E+001, +3.98663756134E+002
+2.23555694618E+007, +4.11970652217E+001, +4.02205188923E+002
+2.24806007509E+007, +4.19729823477E+001, +4.05660925273E+002
+2.26056320401E+007, +4.17103871371E+001, +4.08085670400E+002
+2.27306633292E+007, +4.17422129111E+001, +4.09738779394E+002
+2.28556946183E+007, +4.18725151245E+001, +4.13758396411E+002
+2.29807259074E+007, +4.22349240607E+001, +4.15656734026E+002
+2.31057571965E+007, +4.14521594237E+001, +4.18771621203E+002
+2.32307884856E+007, +4.20359933439E+001, +4.21930439755E+002
+2.33558197747E+007, +4.30911723193E+001, +4.23444608833E+002
+2.34808510638E+007, +4.30252180639E+001, +4.27247342753E+002
+2.36058823529E+007, +4.31399458009E+001, +4.29746780449E+002
+2.37309136421E+007, +4.33946172113E+001, +4.32912811055E+002
+2.38559449312E+007, +4.35864017855E+001, +4.35109276625E+002
+2.39809762203E+007, +4.30777242610E+001, +4.38234440241E+002
+2.41060075094E+007, +4.33699877286E+001, +4.41013750945E+002
+2.42310387985E+007, +4.32355594835E+001, +4.44696879459E+002
+2.43560700876E+007, +4.44734741478E+001, +4.46178588719E+002
+2.44811013767E+007, +4.35107941660E+001, +4.49772634815E+002
+2.46061326658E+007, +4.41432181563E+001, +4.52307996106E+002
+2.47311639549E+007, +4.49222946711E+001, +4.54971141709E+002
+2.48561952441E+007, +4.42551934955E+001, +4.57703020697E+002
+2.49812265332E+007, +4.36179389667E+001, +4.61837356927E+002
+2.51062578223E+007, +4.40534694371E+001, +4.64564175568E+002
+2.52312891114E+007, +4.42124171722E+001, +4.67160057874E+002
+2.53563204005E+007, +4.39742377035E+001, +4.70432709446E+002
+2.54813516896E+007, +4.40880668653E+001, +4.73042606327E+002
+2.56063829787E+007, +4.46021464151E+001, +4.76927937421E+002
+2.57314142678E+007, +4.47333637883E+001, +4.79592276227E+002
+2.58564455569E+007, +4.36701732117E+001, +4.82173923493E+002
+2.59814768461E+007, +4.53473159526E+001, +4.84944728442E+002
+2.61065081352E+007, +4.34522125861E+001, +4.89530764494E+002
+2.62315394243E+007, +4.56037210982E+001, +4.90830517288E+002
+2.63565707134E+007, +4.56701467834E+001, +4.96233964380E+002
+2.64816020025E+007, +4.46532034748E+001, +4.96118909954E+002
+2.66066332916E+007, +4.68254239747E+001, +5.01979388974E+002
+2.67316645807E+007, +4.64020305243E+001, +5.04127813274E+002
+2.68566958698E+007, +4.74824351492E+001, +5.07988244742E+002
+2.69817271589E+007, +4.50578681770E+001, +5.11675233579E+002
+2.71067584481E+007, +4.74837517218E+001, +5.13876102960E+002
+2.72317897372E+007, +4.61887271078E+001, +5.18214034559E+002
+2.73568210263E+007, +4.57723764462E+001, +5.19753548532E+002
+2.74818523154E+007, +4.65178682106E+001, +5.24063144985E+002
+2.76068836045E+007, +4.82763351520E+001, +5.26341647702E+002
+2.77319148936E+007, +4.75976125436E+001, +5.30319761333E+002
+2.78569461827E+007, +4.83764027838E+001, +5.33582161031E+002
+2.79819774718E+007, +4.76401258822E+001, +5.36750831155E+002
+2.81070087610E+007, +4.79632960419E+001, +5.39125798109E+002
+2.82320400501E+007, +4.69743377503E+001, +5.42695670382E+002
+2.83570713392E+007, +4.79084745896E+001, +5.45779101721E+002
+2.84821026283E+007, +4.74334032777E+001, +5.49813988764E+002
+2.86071339174E+007, +4.66182118715E+001, +5.53145634106E+002
+2.87321652065E+007, +4.83393894657E+001, +5.56465766287E+002
+2.88571964956E+007, +4.84626406007E+001, +5.60549361605E+002
+2.89822277847E+007, +4.82946243330E+001, +5.64743712654E+002
+2.91072590738E+007, +4.83255470152E+001, +5.67969086138E+002
+2.92322903630E+007, +4.85825651036E+001, +5.70299025903E+002
+2.93573216521E+007, +4.87482080062E+001, +5.75674772141E+002
+2.94823529412E+007, +4.84429839894E+001, +5.78337054263E+002
+2.96073842303E+007, +4.79346699405E+001, +5.82561426243E+002
+2.97324155194E+007, +4.95969431128E+001, +5.86044352255E+002
+2.98574468085E+007, +4.85504147151E+001, +5.86795317269E+002
+2.99824780976E+007, +4.91267081415E+001, +5.91751342546E+002
+3.01075093867E+007, +5.02667401995E+001, +5.97232094009E+002
+3.02325406758E+007, +4.96855603079E+001, +5.99798640806E+002
+3.03575719650E+007, +5.05643805621E+001, +6.03764671578E+002
+3.04826032541E+007, +4.97676177296E+001, +6.05799080213E+002
+3.06076345432E+007, +5.04544907116E+001, +6.12518677562E+002
+3.07326658323E+007, +5.18250705546E+001, +6.15906545425E+002
+3.08576971214E+007, +5.02618102440E+001, +6.18462180982E+002
+3.09827284105E+007, +5.21322005091E+001, +6.21404326999E+002
+3.11077596996E+007, +5.01052654699E+001, +6.26102673284E+002
+3.12327909887E+007, +5.02824158856E+001, +6.28044489507E+002
+3.13578222778E+007, +4.95573235826E+001, +6.34450266125E+002
+3.14828535670E+007, +5.21466669132E+001, +6.38036148064E+002
+3.16078848561E+007, +5.11099634309E+001, +6.43751452291E+002
+3.17329161452E+007, +5.30051851471E+001, +6.46196739184E+002
+3.18579474343E+007, +5.38124545048E+001, +6.48253297946E+002
+3.19829787234E+007, +5.20855740516E+001, +6.54243601243E+002
+3.21080100125E+007, +5.28999142021E+001, +6.57709479627E+002
+3.22330413016E+007, +5.25196784946E+001, +6.61105328356E+002
+3.23580725907E+007, +5.35527182462E+001, +6.64859614038E+002
+3.24831038798E+007, +5.09558008340E+001, +6.68790197600E+002
+3.26081351690E+007, +5.36570184516E+001, +6.74654107609E+002
+3.27331664581E+007, +5.45683561931E+001, +6.76775214067E+002
+3.28581977472E+007, +5.55178588417E+001, +6.82422879992E+002
+3.29832290363E+007, +5.35858871378E+001, +6.82631435804E+002
+3.31082603254E+007, +5.56232322310E+001, +6.89536901333E+002
+3.32332916145E+007, +5.71984790902E+001, +6.95023240074E+002
+3.33583229036E+007, +5.20524148911E+001, +7.00170829249E+002
+3.34833541927E+007, +5.40234171368E+001, +7.00504643200E+002
+3.36083854819E+007, +5.65872485891E+001, +7.07414783707E+002
+3.37334167710E+007, +5.38303079200E+001, +7.10235639794E+002
+3.38584480601E+007, +5.43232443152E+001, +7.17505996833E+002
+3.39834793492E+007, +5.79154186004E+001, +7.18145739508E+002
+3.41085106383E+007, +5.61025986641E+001, +7.24048130326E+002
+3.42335419274E+007, +5.62876001459E+001, +7.29467286476E+002
+3.43585732165E+007, +5.83631783011E+001, +7.32541479239E+002
+3.44836045056E+007, +5.68451504330E+001, +7.37673047508E+002
+3.46086357947E+007, +5.79275924810E+001, +7.40213129362E+002
+3.47336670839E+007, +5.97530523461E+001, +7.49422673700E+002
+3.48586983730E+007, +6.08618487362E+001, +7.52349141116E+002
+3.49837296621E+007, +5.64006517680E+001, +7.58755711692E+002
+3.51087609512E+007, +5.88249857735E+001, +7.61514235590E+002
+3.52337922403E+007, +6.02510750394E+001, +7.65714829531E+002
+3.53588235294E+007, +5.91111780863E+001, +7.71460400344E+002
+3.54838548185E+007, +6.16357568369E+001, +7.75258530507E+002
+3.56088861076E+007, +6.25448038945E+001, +7.80524915783E+002
+3.57339173967E+007, +5.93635893839E+001, +7.84296719185E+002
+3.58589486859E+007, +6.04465515769E+001, +7.87957378351E+002
+3.59839799750E+007, +6.25941869589E+001, +7.94234693009E+002
+3.61090112641E+007, +6.49864145752E+001, +7.98169452473E+002
+3.62340425532E+007, +6.28201262093E+001, +8.05502859436E+002
+3.63590738423E+007, +6.43530276725E+001, +8.06043253820E+002
+3.64841051314E+007, +6.38432602605E+001, +8.14677655902E+002
+3.66091364205E+007, +6.23607559604E+001, +8.22117589333E+002
+3.67341677096E+007, +6.52663722444E+001, +8.21729640115E+002
+3.68591989987E+007, +6.62755958947E+001, +8.32932662541E+002
+3.69842302879E+007, +6.51928609529E+001, +8.34738791229E+002
+3.71092615770E+007, +6.25610727744E+001, +8.37757642359E+002
+3.72342928661E+007, +6.19881946260E+001, +8.46664243407E+002
+3.73593241552E+007, +6.32960638263E+001, +8.51992143013E+002
+3.74843554443E+007, +6.22594252987E+001, +8.59557806707E+002
+3.76093867334E+007, +6.59358844067E+001, +8.60432371828E+002
+3.77344180225E+007, +6.84610483488E+001, +8.65437332222E+002
+3.78594493116E+007, +6.45651841518E+001, +8.70648056737E+002
+3.79844806008E+007, +7.15252518247E+001, +8.75589594083E+002
+3.81095118899E+007, +6.98631754123E+001, +8.87161572381E+002
+3.82345431790E+007, +6.43027986997E+001, +8.91526955701E+002
+3.83595744681E+007, +7.24457867931E+001, +8.94982564935E+002
+3.84846057572E+007, +6.95885772726E+001, +9.01245112357E+002
+3.86096370463E+007, +6.54330247302E+001, +9.07758248738E+002
+3.87346683354E+007, +6.99037905646E+001, +9.12562016074E+002
+3.88596996245E+007, +6.84171931542E+001, +9.18363827929E+002
+3.89847309136E+007, +7.14310841963E+001, +9.22557944064E+002
+3.91097622028E+007, +7.09620450060E+001, +9.33215252604E+002
+3.92347934919E+007, +7.53279891971E+001, +9.42208886947E+002
+3.93598247810E+007, +7.27053399389E+001, +9.40338179360E+002
+3.94848560701E+007, +7.39684392099E+001, +9.49210805827E+002
+3.96098873592E+007, +7.66307036747E+001, +9.55646759815E+002
+3.97349186483E+007, +7.40432494374E+001, +9.58640266570E+002
+3.98599499374E+007, +7.54770509100E+001, +9.67775626163E+002
+3.99849812265E+007, +7.58960464859E+001, +9.75280158423E+002
+4.01100125156E+007, +8.15134056986E+001, +9.84046651999E+002
