"# Channel 1"
"# Trace 1"
Frequency, Formatted Data, Formatted Data
+1.00000000000E+005, +6.02527287327E-001, +1.61051555505E+000
+2.25031289111E+005, +6.05168946160E-001, +3.62224616519E+000
+3.50062578223E+005, +6.20308023461E-001, +5.63031554715E+000
+4.75093867334E+005, +6.03134872351E-001, +7.66337461163E+000
+6.00125156446E+005, +6.29838033739E-001, +9.67197992643E+000
+7.25156445557E+005, +6.58283322781E-001, +1.16513294216E+001
+8.50187734668E+005, +7.15899468941E-001, +1.36343963979E+001
+9.75219023780E+005, +7.32056074715E-001, +1.56018755893E+001
+1.10025031289E+006, +7.93015303136E-001, +1.75958402897E+001
+1.22528160200E+006, +8.16185244829E-001, +1.96109936971E+001
+1.35031289111E+006, +8.18097961774E-001, +2.16108148762E+001
+1.47534418023E+006, +8.54247240404E-001, +2.35369182139E+001
+1.60037546934E+006, +8.57201909444E-001, +2.54721355037E+001
+1.72540675845E+006, +9.17516363405E-001, +2.74751998189E+001
+1.85043804756E+006, +9.50245848794E-001, +2.93995792199E+001
+1.97546933667E+006, +9.31174484199E-001, +3.13798846943E+001
+2.10050062578E+006, +9.63706916708E-001, +3.33823425898E+001
+2.22553191489E+006, +9.09177721765E-001, +3.53870556092E+001
+2.35056320401E+006, +9.35145411686E-001, +3.72980551073E+001
+2.47559449312E+006, +9.98192801329E-001, +3.92215217219E+001
+2.60062578223E+006, +1.04568149583E+000, +4.12218651170E+001
+2.72565707134E+006, +1.05507361142E+000, +4.31476068612E+001
+2.85068836045E+006, +1.05411797422E+000, +4.51754754666E+001
+2.97571964956E+006, +1.05565781506E+000, +4.71234711441E+001
+3.10075093867E+006, +1.02766716252E+000, +4.91304642556E+001
+3.22578222778E+006, +1.05263865364E+000, +5.10350921813E+001
+3.35081351690E+006, +1.21097460611E+000, +5.30797099367E+001
+3.47584480601E+006, +1.20191659026E+000, +5.49810733621E+001
+3.60087609512E+006, +1.23183803490E+000, +5.69493504633E+001
+3.72590738423E+006, +1.18862051018E+000, +5.89811164043E+001
+3.85093867334E+006, +1.21252927500E+000, +6.09538986174E+001
+3.97596996245E+006, +1.21391461044E+000, +6.28962874449E+001
+4.10100125156E+006, +1.19444001900E+000, +6.50121002107E+001
+4.22603254068E+006, +1.27006259326E+000, +6.67505831554E+001
+4.35106382979E+006, +1.24343723273E+000, +6.88362322443E+001
+4.47609511890E+006, +1.33547052825E+000, +7.07745380842E+001
+4.60112640801E+006, +1.20546356405E+000, +7.27773504024E+001
+4.72615769712E+006, +1.20350941830E+000, +7.46778264505E+001
+4.85118898623E+006, +1.25178279660E+000, +7.66514506986E+001
+4.97622027534E+006, +1.31663005062E+000, +7.86623314382E+001
+5.10125156446E+006, +1.24670276633E+000, +8.05548185601E+001
+5.22628285357E+006, +1.40775736333E+000, +8.26133487921E+001
+5.35131414268E+006, +1.33255533364E+000, +8.47320937417E+001
+5.47634543179E+006, +1.33531756507E+000, +8.66739976889E+001
+5.60137672090E+006, +1.32356491788E+000, +8.87239648953E+001
+5.72640801001E+006, +1.33357626140E+000, +9.06185537429E+001
+5.85143929912E+006, +1.39518493019E+000, +9.26932860198E+001
+5.97647058824E+006, +1.38928088183E+000, +9.46001834455E+001
+6.10150187735E+006, +1.31965764126E+000, +9.66383828778E+001
+6.22653316646E+006, +1.60289102731E+000, +9.85450030285E+001
+6.35156445557E+006, +1.47016873646E+000, +1.00611037513E+002
+6.47659574468E+006, +1.57614781561E+000, +1.02691578338E+002
+6.60162703379E+006, +1.47600052162E+000, +1.04729762653E+002
+6.72665832290E+006, +1.52982405492E+000, +1.06708759988E+002
+6.85168961202E+006, +1.50932600993E+000, +1.08768638597E+002
+6.97672090113E+006, +1.57872100047E+000, +1.10728391025E+002
+7.10175219024E+006, +1.56115573512E+000, +1.12652243194E+002
+7.22678347935E+006, +1.58228562484E+000, +1.14702864508E+002
+7.35181476846E+006, +1.59275885480E+000, +1.16659550595E+002
+7.47684605757E+006, +1.59418181440E+000, +1.18789336050E+002
+7.60187734668E+006, +1.60776701966E+000, +1.20763397481E+002
+7.72690863579E+006, +1.73071957474E+000, +1.22696573020E+002
+7.85193992491E+006, +1.72744537880E+000, +1.24792713802E+002
+7.97697121402E+006, +1.86629954500E+000, +1.26769012327E+002
+8.10200250313E+006, +1.76592277452E+000, +1.28899997780E+002
+8.22703379224E+006, +1.77489901835E+000, +1.30845419801E+002
+8.35206508135E+006, +1.64091657306E+000, +1.32749356491E+002
+8.47709637046E+006, +1.71741029973E+000, +1.34845509665E+002
+8.60212765957E+006, +1.69174959263E+000, +1.36913177752E+002
+8.72715894869E+006, +1.75622991703E+000, +1.39033766124E+002
+8.85219023780E+006, +1.81374927636E+000, +1.41120465343E+002
+8.97722152691E+006, +1.90197147520E+000, +1.43167786778E+002
+9.10225281602E+006, +1.83093146532E+000, +1.45217901844E+002
+9.22728410513E+006, +1.94578241870E+000, +1.47268912518E+002
+9.35231539424E+006, +1.82787417003E+000, +1.49229457422E+002
+9.47734668335E+006, +1.84025153290E+000, +1.51087534723E+002
+9.60237797247E+006, +1.84361490940E+000, +1.53226402890E+002
+9.72740926158E+006, +1.83503840347E+000, +1.55483044781E+002
+9.85244055069E+006, +2.01444175045E+000, +1.57302794863E+002
+9.97747183980E+006, +1.66987606521E+000, +1.59396770128E+002
+1.01025031289E+007, +1.70638037667E+000, +1.61403140006E+002
+1.02275344180E+007, +2.07772870419E+000, +1.63544756030E+002
+1.03525657071E+007, +1.90922918772E+000, +1.65584666106E+002
+1.04775969962E+007, +1.91895050465E+000, +1.67698402457E+002
+1.06026282854E+007, +1.87535338700E+000, +1.69640479241E+002
+1.07276595745E+007, +1.99128657170E+000, +1.71859241099E+002
+1.08526908636E+007, +1.97480236123E+000, +1.74022614711E+002
+1.09777221527E+007, +2.07712974520E+000, +1.76138414966E+002
+1.11027534418E+007, +1.95881588652E+000, +1.78128497493E+002
+1.12277847309E+007, +1.91640229939E+000, +1.80056880104E+002
+1.13528160200E+007, +1.79629964328E+000, +1.82388183382E+002
+1.14778473091E+007, +2.00745998378E+000, +1.84343548608E+002
+1.16028785982E+007, +1.74405477204E+000, +1.86436145587E+002
+1.17279098874E+007, +2.05218284740E+000, +1.88509828168E+002
+1.18529411765E+007, +1.71770742190E+000, +1.90515873612E+002
+1.19779724656E+007, +2.02246025666E+000, +1.92580931716E+002
+1.21030037547E+007, +2.02892452708E+000, +1.94818865855E+002
+1.22280350438E+007, +1.88442620182E+000, +1.96993145396E+002
+1.23530663329E+007, +2.05758626480E+000, +1.99457569425E+002
+1.24780976220E+007, +1.79727337001E+000, +2.01102957206E+002
+1.26031289111E+007, +1.90552360035E+000, +2.03452299900E+002
+1.27281602003E+007, +1.87874308026E+000, +2.05291131390E+002
+1.28531914894E+007, +2.08076434873E+000, +2.07987542727E+002
+1.29782227785E+007, +1.85610131296E+000, +2.09680564921E+002
+1.31032540676E+007, +2.12162741332E+000, +2.11937166255E+002
+1.32282853567E+007, +2.14111508253E+000, +2.14173402627E+002
+1.33533166458E+007, +1.95598352502E+000, +2.15943409289E+002
+1.34783479349E+007, +1.76061368861E+000, +2.18706361881E+002
+1.36033792240E+007, +2.01159892543E+000, +2.20701068162E+002
+1.37284105131E+007, +1.64945654293E+000, +2.22581132494E+002
+1.38534418023E+007, +1.92698804727E+000, +2.24835833714E+002
+1.39784730914E+007, +2.13566430298E+000, +2.26777648999E+002
+1.41035043805E+007, +1.66392279366E+000, +2.29192548363E+002
+1.42285356696E+007, +1.88742028274E+000, +2.31655359061E+002
+1.43535669587E+007, +1.77241627355E+000, +2.33480666102E+002
+1.44785982478E+007, +1.62193453074E+000, +2.35866804055E+002
+1.46036295369E+007, +1.93090491157E+000, +2.37675779383E+002
+1.47286608260E+007, +1.62793837318E+000, +2.40427255988E+002
+1.48536921151E+007, +1.78003237063E+000, +2.42434461519E+002
+1.49787234043E+007, +1.99235926305E+000, +2.44635959753E+002
+1.51037546934E+007, +1.95436003069E+000, +2.46591864311E+002
+1.52287859825E+007, +1.92027716176E+000, +2.48736635673E+002
+1.53538172716E+007, +1.95159919351E+000, +2.50971000479E+002
+1.54788485607E+007, +1.92625863254E+000, +2.53824323607E+002
+1.56038798498E+007, +2.05655394014E+000, +2.55227351290E+002
+1.57289111389E+007, +1.79130041883E+000, +2.57838542010E+002
+1.58539424280E+007, +1.72858319287E+000, +2.59864148575E+002
+1.59789737171E+007, +1.84008158133E+000, +2.62246096791E+002
+1.61040050063E+007, +2.08864344444E+000, +2.64333810521E+002
+1.62290362954E+007, +1.54544910859E+000, +2.66722853725E+002
+1.63540675845E+007, +2.09446562387E+000, +2.69128623497E+002
+1.64790988736E+007, +1.92401045088E+000, +2.71543342167E+002
+1.66041301627E+007, +1.93811965666E+000, +2.73596805465E+002
+1.67291614518E+007, +1.76367599221E+000, +2.76296822441E+002
+1.68541927409E+007, +1.90127153103E+000, +2.78590342596E+002
+1.69792240300E+007, +1.90151685958E+000, +2.80653054650E+002
+1.71042553191E+007, +1.31405435160E+000, +2.83149698413E+002
+1.72292866083E+007, +1.61188392721E+000, +2.84963151214E+002
+1.73543178974E+007, +1.49280338971E+000, +2.87625922130E+002
+1.74793491865E+007, +1.56460227828E+000, +2.89790025362E+002
+1.76043804756E+007, +1.25695060746E+000, +2.92141793799E+002
+1.77294117647E+007, +1.63318136740E+000, +2.94051289478E+002
+1.78544430538E+007, +1.87437257379E+000, +2.96953135526E+002
+1.79794743429E+007, +2.08785197905E+000, +2.98841223199E+002
+1.81045056320E+007, +1.46658972568E+000, +3.01769046649E+002
+1.82295369212E+007, +1.87718945817E+000, +3.03332759962E+002
+1.83545682103E+007, +1.84454259689E+000, +3.06158508555E+002
+1.84795994994E+007, +2.18269541684E+000, +3.08310507831E+002
+1.86046307885E+007, +2.01069539619E+000, +3.10673724787E+002
+1.87296620776E+007, +1.54940464724E+000, +3.13153806008E+002
+1.88546933667E+007, +1.89905622341E+000, +3.15315824817E+002
+1.89797246558E+007, +2.11060026112E+000, +3.17800940991E+002
+1.91047559449E+007, +1.76577375486E+000, +3.19963095092E+002
+1.92297872340E+007, +1.84541756577E+000, +3.23369496321E+002
+1.93548185232E+007, +2.21453294967E+000, +3.25039897009E+002
+1.94798498123E+007, +1.73892400565E+000, +3.27576235662E+002
+1.96048811014E+007, +1.87959231837E+000, +3.30026407863E+002
+1.97299123905E+007, +1.79030505232E+000, +3.32314710540E+002
+1.98549436796E+007, +1.67128743614E+000, +3.35505790625E+002
+1.99799749687E+007, +2.25306850864E+000, +3.37399636609E+002
+2.01050062578E+007, +1.46959846118E+000, +3.39332164335E+002
+2.02300375469E+007, +2.37781559694E+000, +3.41931333404E+002
+2.03550688360E+007, +1.60873548812E+000, +3.44914910157E+002
+2.04801001252E+007, +1.80067403893E+000, +3.46908371193E+002
+2.06051314143E+007, +1.99124573305E+000, +3.50190950243E+002
+2.07301627034E+007, +2.16531332906E+000, +3.51627291877E+002
+2.08551939925E+007, +2.29469922881E+000, +3.55500143657E+002
+2.09802252816E+007, +1.69305701639E+000, +3.56961736526E+002
+2.11052565707E+007, +1.51015947344E+000, +3.59810177068E+002
+2.12302878598E+007, +1.56693924576E+000, +3.62608589022E+002
+2.13553191489E+007, +2.08932949924E+000, +3.63664442712E+002
+2.14803504380E+007, +2.03066354952E+000, +3.67154082068E+002
+2.16053817272E+007, +1.89958550438E+000, +3.70140294749E+002
+2.17304130163E+007, +2.22246431157E+000, +3.73079103566E+002
+2.18554443054E+007, +2.60534022377E+000, +3.74863685891E+002
+2.19804755945E+007, +2.07830721244E+000, +3.77247331002E+002
+2.21055068836E+007, +2.12578452406E+000, +3.80648736931E+002
+2.22305381727E+007, +2.30533287165E+000, +3.82120821865E+002
+2.23555694618E+007, +3.40488149496E+000, +3.85940431871E+002
+2.24806007509E+007, +3.15628876645E+000, +3.88479434455E+002
+2.26056320401E+007, +2.93013224261E+000, +3.91058349187E+002
+2.27306633292E+007, +3.16127721878E+000, +3.92452773397E+002
+2.28556946183E+007, +2.28477323638E+000, +3.95602234883E+002
+2.29807259074E+007, +3.05526131266E+000, +3.98582825597E+002
+2.31057571965E+007, +2.92450486388E+000, +4.01142711298E+002
+2.32307884856E+007, +2.98614455635E+000, +4.04339507130E+002
+2.33558197747E+007, +3.73983819511E+000, +4.05729908989E+002
+2.34808510638E+007, +2.33316699970E+000, +4.08695720874E+002
+2.36058823529E+007, +2.94133432099E+000, +4.12051505953E+002
+2.37309136421E+007, +3.91506630741E+000, +4.14430895898E+002
+2.38559449312E+007, +4.04709301925E+000, +4.17932423468E+002
+2.39809762203E+007, +2.87597533047E+000, +4.19110730356E+002
+2.41060075094E+007, +3.15258862789E+000, +4.21796551190E+002
+2.42310387985E+007, +4.61044960829E+000, +4.25124095152E+002
+2.43560700876E+007, +3.82483271669E+000, +4.27083320498E+002
+2.44811013767E+007, +3.29977159644E+000, +4.29816273301E+002
+2.46061326658E+007, +3.51014242494E+000, +4.32789618120E+002
+2.47311639549E+007, +3.16328323769E+000, +4.34749708715E+002
+2.48561952441E+007, +4.35391265323E+000, +4.38858312461E+002
+2.49812265332E+007, +3.55718663180E+000, +4.41599144168E+002
+2.51062578223E+007, +4.71805859390E+000, +4.43393847548E+002
+2.52312891114E+007, +3.67355184244E+000, +4.45284503370E+002
+2.53563204005E+007, +2.78930669805E+000, +4.49673689072E+002
+2.54813516896E+007, +2.48923252583E+000, +4.50200884236E+002
+2.56063829787E+007, +3.32728397496E+000, +4.54025338596E+002
+2.57314142678E+007, +3.01919275880E+000, +4.59076754979E+002
+2.58564455569E+007, +3.04202155820E+000, +4.59761948880E+002
+2.59814768461E+007, +4.68255941685E+000, +4.63439477729E+002
+2.61065081352E+007, +2.87300278605E+000, +4.65880733019E+002
+2.62315394243E+007, +3.09137985043E+000, +4.69126299254E+002
+2.63565707134E+007, +2.77334051166E+000, +4.71705545030E+002
+2.64816020025E+007, +3.25007934897E+000, +4.74208283112E+002
+2.66066332916E+007, +3.84433670957E+000, +4.76991131554E+002
+2.67316645807E+007, +2.64007646600E+000, +4.80011791624E+002
+2.68566958698E+007, +4.17246799816E+000, +4.83711158349E+002
+2.69817271589E+007, +2.86274313418E+000, +4.86579864560E+002
+2.71067584481E+007, +2.22806681244E+000, +4.90558493152E+002
+2.72317897372E+007, +3.50961123212E+000, +4.92783879369E+002
+2.73568210263E+007, +4.99189417968E+000, +4.95030997367E+002
+2.74818523154E+007, +4.57008012540E+000, +4.96745574591E+002
+2.76068836045E+007, +3.71511846625E+000, +5.00622258208E+002
+2.77319148936E+007, +3.19730425468E+000, +5.03946780552E+002
+2.78569461827E+007, +4.01187391074E+000, +5.06371100306E+002
+2.79819774718E+007, +2.94582357900E+000, +5.10698461562E+002
+2.81070087610E+007, +3.27550569223E+000, +5.12817519938E+002
+2.82320400501E+007, +2.61845984907E+000, +5.16540653568E+002
+2.83570713392E+007, +3.50601585620E+000, +5.19082543722E+002
+2.84821026283E+007, +4.67450551543E+000, +5.22532805845E+002
+2.86071339174E+007, +1.80000865712E+000, +5.24494372880E+002
+2.87321652065E+007, +3.35199250675E+000, +5.29512011235E+002
+2.88571964956E+007, +3.67580557445E+000, +5.32124274530E+002
+2.89822277847E+007, +3.22761262196E+000, +5.35714439685E+002
+2.91072590738E+007, +2.21004379586E+000, +5.39533724786E+002
+2.92322903630E+007, +1.38390603618E+000, +5.41818494799E+002
+2.93573216521E+007, +2.16600234986E+000, +5.45050010843E+002
+2.94823529412E+007, +5.31687827713E+000, +5.48232489975E+002
+2.96073842303E+007, +1.61911054156E+000, +5.51903429739E+002
+2.97324155194E+007, +1.78911136145E+000, +5.55638094927E+002
+2.98574468085E+007, +1.82139203719E+000, +5.58552946794E+002
+2.99824780976E+007, +2.66334324750E+000, +5.62062189340E+002
+3.01075093867E+007, +2.29396312477E+000, +5.64133252028E+002
+3.02325406758E+007, +3.46632385412E+000, +5.68517945781E+002
+3.03575719650E+007, +2.98666673693E+000, +5.70890597726E+002
+3.04826032541E+007, +1.19908640738E+000, +5.74225502617E+002
+3.06076345432E+007, +2.18930277129E+000, +5.76180216689E+002
+3.07326658323E+007, +2.02165583639E+000, +5.80452252842E+002
+3.08576971214E+007, +2.35451637473E+000, +5.82829763622E+002
+3.09827284105E+007, +2.46472112457E+000, +5.89529890012E+002
+3.11077596996E+007, +1.96480253252E+000, +5.91351195853E+002
+3.12327909887E+007, +2.92610474678E+000, +5.95831673748E+002
+3.13578222778E+007, +3.58272717436E+000, +5.97451453644E+002
+3.14828535670E+007, +3.09823820883E+000, +6.01945951072E+002
+3.16078848561E+007, +1.95026292539E+000, +6.04151568497E+002
+3.17329161452E+007, +1.68220926483E+000, +6.09951844532E+002
+3.18579474343E+007, -4.12127050774E-001, +6.13769419797E+002
+3.19829787234E+007, +1.05333291008E+000, +6.18097137312E+002
+3.21080100125E+007, +2.06920727075E+000, +6.22115705670E+002
+3.22330413016E+007, +1.67505757859E+000, +6.23656505049E+002
+3.23580725907E+007, +3.79994903046E-001, +6.27525250326E+002
+3.24831038798E+007, +2.44885625059E+000, +6.30449158986E+002
+3.26081351690E+007, +2.02807875797E+000, +6.34091359275E+002
+3.27331664581E+007, +3.93344180104E+000, +6.37054315943E+002
+3.28581977472E+007, +1.63477899565E+000, +6.43525929435E+002
+3.29832290363E+007, +2.19830488693E+000, +6.46970550975E+002
+3.31082603254E+007, +7.38184688661E-001, +6.49235718715E+002
+3.32332916145E+007, +3.08108707246E+000, +6.53796072660E+002
+3.33583229036E+007, +1.83563624173E+000, +6.57226319095E+002
+3.34833541927E+007, -1.11267971371E+000, +6.61304166969E+002
+3.36083854819E+007, +3.63992278786E+000, +6.63873375904E+002
+3.37334167710E+007, +2.50180521433E+000, +6.67406431633E+002
+3.38584480601E+007, +4.23200030975E-001, +6.71534557572E+002
+3.39834793492E+007, +1.92848331440E+000, +6.79037748162E+002
+3.41085106383E+007, +4.83297194735E+000, +6.81323501356E+002
+3.42335419274E+007, +2.64721930975E+000, +6.83774053374E+002
+3.43585732165E+007, +1.49726972457E-001, +6.88777201174E+002
+3.44836045056E+007, +4.03451333941E+000, +6.95450800627E+002
+3.46086357947E+007, +1.55974790024E+000, +6.97522671028E+002
+3.47336670839E+007, +2.37885693153E+000, +7.00180690427E+002
+3.48586983730E+007, +3.88226218085E+000, +7.04754726233E+002
+3.49837296621E+007, +4.21796119819E+000, +7.09323899101E+002
+3.51087609512E+007, +4.04368376456E+000, +7.13663571552E+002
+3.52337922403E+007, +4.48263869047E+000, +7.15381782819E+002
+3.53588235294E+007, +2.09635094763E+000, +7.22458961933E+002
+3.54838548185E+007, +2.90226159647E+000, +7.25461163403E+002
+3.56088861076E+007, +4.37736772479E+000, +7.33488275336E+002
+3.57339173967E+007, +2.06866920540E+000, +7.35910066731E+002
+3.58589486859E+007, +7.36867211652E-001, +7.38683338585E+002
+3.59839799750E+007, +5.51672996848E+000, +7.42666952707E+002
+3.61090112641E+007, +2.14333323422E+000, +7.47147957456E+002
+3.62340425532E+007, +2.82320160047E+000, +7.51646437833E+002
+3.63590738423E+007, +1.52552770480E+000, +7.57086364541E+002
+3.64841051314E+007, +2.11283347834E+000, +7.58521179823E+002
+3.66091364205E+007, +2.40106737621E+000, +7.66420776626E+002
+3.67341677096E+007, +3.72213774172E+000, +7.71105856445E+002
+3.68591989987E+007, +7.75417081185E-001, +7.72431815592E+002
+3.69842302879E+007, +2.96145076603E+000, +7.77540430393E+002
+3.71092615770E+007, +5.99238232770E+000, +7.83312227309E+002
+3.72342928661E+007, +8.67499207015E-001, +7.86631000896E+002
+3.73593241552E+007, +1.28005893676E+000, +7.93986465718E+002
+3.74843554443E+007, +4.05280426313E-001, +7.98058915424E+002
+3.76093867334E+007, +1.72215619968E+000, +7.99358389931E+002
+3.77344180225E+007, +4.02406987382E+000, +8.08132784194E+002
+3.78594493116E+007, +2.81831328035E+000, +8.11982751941E+002
+3.79844806008E+007, +5.18206667089E+000, +8.18442607299E+002
+3.81095118899E+007, +1.58492513447E+000, +8.22837462440E+002
+3.82345431790E+007, +4.14765296507E+000, +8.28226389872E+002
+3.83595744681E+007, +2.36462498114E+000, +8.26726348341E+002
+3.84846057572E+007, +1.76105151302E+000, +8.37044465429E+002
+3.86096370463E+007, -9.33621378446E-002, +8.40934508805E+002
+3.87346683354E+007, +4.93485622483E+000, +8.44278730691E+002
+3.88596996245E+007, +1.60080901963E+000, +8.53887276765E+002
+3.89847309136E+007, +4.53942745040E+000, +8.58945895993E+002
+3.91097622028E+007, +2.69708256107E+000, +8.65213880120E+002
+3.92347934919E+007, +4.23188154548E+000, +8.66946879227E+002
+3.93598247810E+007, +4.87262530579E+000, +8.69870545040E+002
+3.94848560701E+007, +2.05067750319E+000, +8.79665430636E+002
+3.96098873592E+007, +3.94360050146E+000, +8.82199471216E+002
+3.97349186483E+007, +5.51657674105E+000, +8.90348112595E+002
+3.98599499374E+007, +4.84981709539E+000, +8.94364450398E+002
+3.99849812265E+007, +1.63317070037E+000, +8.98292435097E+002
+4.01100125156E+007, +5.95216207414E+000, +9.05123902943E+002
