"# Channel 1"
"# Trace 1"
Frequency, Formatted Data, Formatted Data
+1.00000000000E+005, +3.86888047584E+001, +1.53642082663E+000
+2.66777963272E+005, +3.86290427734E+001, +4.54813363264E+000
+4.33555926544E+005, +3.86516761414E+001, +7.41702651633E+000
+6.00333889816E+005, +3.86379009252E+001, +1.02546918252E+001
+7.67111853088E+005, +3.86843040236E+001, +1.31158640892E+001
+9.33889816361E+005, +3.86498046223E+001, +1.59550697635E+001
+1.10066777963E+006, +3.87147100084E+001, +1.88701803499E+001
+1.26744574290E+006, +3.87100882052E+001, +2.17129309832E+001
+1.43422370618E+006, +3.86965498129E+001, +2.45900704788E+001
+1.60100166945E+006, +3.86801727020E+001, +2.73442794288E+001
+1.76777963272E+006, +3.87127894564E+001, +3.02325245788E+001
+1.93455759599E+006, +3.86801640519E+001, +3.30443871235E+001
+2.10133555927E+006, +3.86421891811E+001, +3.58652709121E+001
+2.26811352254E+006, +3.87466217888E+001, +3.87455544005E+001
+2.43489148581E+006, +3.87388339280E+001, +4.17434827856E+001
+2.60166944908E+006, +3.87243470457E+001, +4.44807550621E+001
+2.76844741235E+006, +3.87334013907E+001, +4.73973223321E+001
+2.93522537563E+006, +3.87235318543E+001, +5.03128885119E+001
+3.10200333890E+006, +3.87688732518E+001, +5.29942134286E+001
+3.26878130217E+006, +3.87290579892E+001, +5.59970574855E+001
+3.43555926544E+006, +3.88036678986E+001, +5.87936876255E+001
+3.60233722871E+006, +3.88813272785E+001, +6.17353304506E+001
+3.76911519199E+006, +3.88923537127E+001, +6.46241032575E+001
+3.93589315526E+006, +3.86964874385E+001, +6.73807605193E+001
+4.10267111853E+006, +3.88367743161E+001, +7.04693128304E+001
+4.26944908180E+006, +3.89507479699E+001, +7.33091580371E+001
+4.43622704508E+006, +3.88918815344E+001, +7.60752866099E+001
+4.60300500835E+006, +3.89995114240E+001, +7.90680164028E+001
+4.76978297162E+006, +3.88137444106E+001, +8.18505984624E+001
+4.93656093489E+006, +3.91418707058E+001, +8.48134300540E+001
+5.10333889816E+006, +3.90809971985E+001, +8.75304107883E+001
+5.27011686144E+006, +3.91766341739E+001, +9.06176312659E+001
+5.43689482471E+006, +3.90965075203E+001, +9.34589480078E+001
+5.60367278798E+006, +3.92305912675E+001, +9.64645705126E+001
+5.77045075125E+006, +3.90862659024E+001, +9.93138341499E+001
+5.93722871452E+006, +3.93694498503E+001, +1.02177420855E+002
+6.10400667780E+006, +3.92647604554E+001, +1.05152693433E+002
+6.27078464107E+006, +3.94359321905E+001, +1.07923557037E+002
+6.43756260434E+006, +3.94150149550E+001, +1.10910020099E+002
+6.60434056761E+006, +3.95486032347E+001, +1.13812688532E+002
+6.77111853088E+006, +3.96983986016E+001, +1.16657530397E+002
+6.93789649416E+006, +3.95997278278E+001, +1.19653432659E+002
+7.10467445743E+006, +3.95738548623E+001, +1.22511057748E+002
+7.27145242070E+006, +3.96693062927E+001, +1.25468326447E+002
+7.43823038397E+006, +3.96505335835E+001, +1.28331820936E+002
+7.60500834725E+006, +3.97784221047E+001, +1.31267427836E+002
+7.77178631052E+006, +3.98714916667E+001, +1.34397379597E+002
+7.93856427379E+006, +3.98386684229E+001, +1.37216434973E+002
+8.10534223706E+006, +3.98822453380E+001, +1.40192222343E+002
+8.27212020033E+006, +3.99449512116E+001, +1.43187235676E+002
+8.43889816361E+006, +3.98529970180E+001, +1.46094584999E+002
+8.60567612688E+006, +3.98891737210E+001, +1.49280203766E+002
+8.77245409015E+006, +3.98922852296E+001, +1.52048790934E+002
+8.93923205342E+006, +4.00792364363E+001, +1.55117248902E+002
+9.10601001669E+006, +4.00362341483E+001, +1.58198463882E+002
+9.27278797997E+006, +4.00239036359E+001, +1.61105177383E+002
+9.43956594324E+006, +4.00096913416E+001, +1.64298052903E+002
+9.60634390651E+006, +4.00159611343E+001, +1.67403069302E+002
+9.77312186978E+006, +4.02443596478E+001, +1.70247549218E+002
+9.93989983306E+006, +4.02759327445E+001, +1.73301779017E+002
+1.01066777963E+007, +4.00877610724E+001, +1.76497318317E+002
+1.02734557596E+007, +4.03375631586E+001, +1.79514403065E+002
+1.04402337229E+007, +4.01950306861E+001, +1.82562540085E+002
+1.06070116861E+007, +4.02976585844E+001, +1.85627776252E+002
+1.07737896494E+007, +4.04472153105E+001, +1.88903529787E+002
+1.09405676127E+007, +4.06998189427E+001, +1.91765216534E+002
+1.11073455760E+007, +4.05170114541E+001, +1.94867716231E+002
+1.12741235392E+007, +4.05779556214E+001, +1.97987606304E+002
+1.14409015025E+007, +4.06689071682E+001, +2.01255047328E+002
+1.16076794658E+007, +4.10095692655E+001, +2.04293066000E+002
+1.17744574290E+007, +4.09531310063E+001, +2.07536713788E+002
+1.19412353923E+007, +4.09137779851E+001, +2.10834427145E+002
+1.21080133556E+007, +4.08304975506E+001, +2.13959786679E+002
+1.22747913189E+007, +4.12940286169E+001, +2.17016078505E+002
+1.24415692821E+007, +4.10381671328E+001, +2.20125097997E+002
+1.26083472454E+007, +4.11154136355E+001, +2.23479640959E+002
+1.27751252087E+007, +4.10814609101E+001, +2.26576062312E+002
+1.29419031720E+007, +4.11994496377E+001, +2.29894532649E+002
+1.31086811352E+007, +4.13985575384E+001, +2.33168757113E+002
+1.32754590985E+007, +4.15343876540E+001, +2.36166761219E+002
+1.34422370618E+007, +4.13996349489E+001, +2.39447523072E+002
+1.36090150250E+007, +4.20334329735E+001, +2.42447711402E+002
+1.37757929883E+007, +4.17748662422E+001, +2.45891983028E+002
+1.39425709516E+007, +4.18956050910E+001, +2.49053932593E+002
+1.41093489149E+007, +4.18052668074E+001, +2.52333448983E+002
+1.42761268781E+007, +4.22376035089E+001, +2.55613880631E+002
+1.44429048414E+007, +4.23651225712E+001, +2.58976639482E+002
+1.46096828047E+007, +4.22132715593E+001, +2.62533068660E+002
+1.47764607679E+007, +4.24773703622E+001, +2.65465759283E+002
+1.49432387312E+007, +4.25447510096E+001, +2.69027199937E+002
+1.51100166945E+007, +4.26612860639E+001, +2.72380631916E+002
+1.52767946578E+007, +4.31493162450E+001, +2.75982481209E+002
+1.54435726210E+007, +4.30781929029E+001, +2.78750351619E+002
+1.56103505843E+007, +4.34535806047E+001, +2.82346229340E+002
+1.57771285476E+007, +4.31722808898E+001, +2.85551170097E+002
+1.59439065109E+007, +4.33148455968E+001, +2.89144380949E+002
+1.61106844741E+007, +4.31552458605E+001, +2.92638829189E+002
+1.62774624374E+007, +4.39719036216E+001, +2.95713870387E+002
+1.64442404007E+007, +4.29600113058E+001, +2.99394475086E+002
+1.66110183639E+007, +4.41854075361E+001, +3.02841981980E+002
+1.67777963272E+007, +4.38416947476E+001, +3.06732850701E+002
+1.69445742905E+007, +4.46473305937E+001, +3.09603978621E+002
+1.71113522538E+007, +4.29236881229E+001, +3.13382693026E+002
+1.72781302170E+007, +4.38243727474E+001, +3.17387222084E+002
+1.74449081803E+007, +4.39021416353E+001, +3.20169498386E+002
+1.76116861436E+007, +4.42036733523E+001, +3.24130336450E+002
+1.77784641068E+007, +4.41109815756E+001, +3.26905322697E+002
+1.79452420701E+007, +4.46449580572E+001, +3.30829094745E+002
+1.81120200334E+007, +4.51890779616E+001, +3.34240853181E+002
+1.82787979967E+007, +4.48774783428E+001, +3.37952019812E+002
+1.84455759599E+007, +4.51673295563E+001, +3.41257843673E+002
+1.86123539232E+007, +4.55741896386E+001, +3.45747880364E+002
+1.87791318865E+007, +4.52857853072E+001, +3.49514736379E+002
+1.89459098497E+007, +4.53755339977E+001, +3.52838667784E+002
+1.91126878130E+007, +4.61870877827E+001, +3.56616583131E+002
+1.92794657763E+007, +4.60021954607E+001, +3.60222810108E+002
+1.94462437396E+007, +4.59277457967E+001, +3.64458055183E+002
+1.96130217028E+007, +4.65853676027E+001, +3.67396377878E+002
+1.97797996661E+007, +4.63688658625E+001, +3.70875614388E+002
+1.99465776294E+007, +4.64659706842E+001, +3.74305319103E+002
+2.01133555927E+007, +4.67102129395E+001, +3.78723899802E+002
+2.02801335559E+007, +4.70988579222E+001, +3.83859870566E+002
+2.04469115192E+007, +4.74219683198E+001, +3.87040544698E+002
+2.06136894825E+007, +4.71297052715E+001, +3.90436134623E+002
+2.07804674457E+007, +4.80156354055E+001, +3.94605088847E+002
+2.09472454090E+007, +4.76177605402E+001, +3.98704815844E+002
+2.11140233723E+007, +4.76254827849E+001, +4.02126221995E+002
+2.12808013356E+007, +4.90634780986E+001, +4.06018820431E+002
+2.14475792988E+007, +4.86661104981E+001, +4.11154115516E+002
+2.16143572621E+007, +4.93593476863E+001, +4.13675919536E+002
+2.17811352254E+007, +4.90326972022E+001, +4.18230887899E+002
+2.19479131886E+007, +5.12078532084E+001, +4.21961871652E+002
+2.21146911519E+007, +5.06735459447E+001, +4.25517028821E+002
+2.22814691152E+007, +5.07504619525E+001, +4.30497491189E+002
+2.24482470785E+007, +5.12705249867E+001, +4.34457744733E+002
+2.26150250417E+007, +5.23764020135E+001, +4.38440705625E+002
+2.27818030050E+007, +5.16767250109E+001, +4.43008992458E+002
+2.29485809683E+007, +5.25525806803E+001, +4.45556434814E+002
+2.31153589316E+007, +5.17391006639E+001, +4.51111584592E+002
+2.32821368948E+007, +5.40033850551E+001, +4.55326137537E+002
+2.34489148581E+007, +5.25359751612E+001, +4.58053680693E+002
+2.36156928214E+007, +5.44248448467E+001, +4.63517209310E+002
+2.37824707846E+007, +5.49198539858E+001, +4.68086745259E+002
+2.39492487479E+007, +5.40406611376E+001, +4.70823933352E+002
+2.41160267112E+007, +5.59672470794E+001, +4.74844741758E+002
+2.42828046745E+007, +5.45829758532E+001, +4.80132546598E+002
+2.44495826377E+007, +5.62279333906E+001, +4.84691793822E+002
+2.46163606010E+007, +5.63297406796E+001, +4.89124909540E+002
+2.47831385643E+007, +5.53509245767E+001, +4.94143568749E+002
+2.49499165275E+007, +5.82606860263E+001, +4.97455284294E+002
+2.51166944908E+007, +5.88823065219E+001, +5.02101150811E+002
+2.52834724541E+007, +5.83704947302E+001, +5.06225400755E+002
+2.54502504174E+007, +5.89017835427E+001, +5.11798479884E+002
+2.56170283806E+007, +5.97427606731E+001, +5.15287790950E+002
+2.57838063439E+007, +6.12679966602E+001, +5.19438771801E+002
+2.59505843072E+007, +5.94848862026E+001, +5.25096540597E+002
+2.61173622705E+007, +6.12826960423E+001, +5.28514020285E+002
+2.62841402337E+007, +6.16709657332E+001, +5.33311951931E+002
+2.64509181970E+007, +6.11061037692E+001, +5.38839205240E+002
+2.66176961603E+007, +6.03317218145E+001, +5.44572646551E+002
+2.67844741235E+007, +6.18890135660E+001, +5.48219511721E+002
+2.69512520868E+007, +6.25684397222E+001, +5.50629776871E+002
+2.71180300501E+007, +6.42358838118E+001, +5.54551906707E+002
+2.72848080134E+007, +6.38584497169E+001, +5.61150970863E+002
+2.74515859766E+007, +6.53466178474E+001, +5.67039833840E+002
+2.76183639399E+007, +6.42113330299E+001, +5.70559665406E+002
+2.77851419032E+007, +6.32547279118E+001, +5.74723150401E+002
+2.79519198664E+007, +6.51801503185E+001, +5.80525040548E+002
+2.81186978297E+007, +6.85971667762E+001, +5.84085490133E+002
+2.82854757930E+007, +6.69470266713E+001, +5.89368336284E+002
+2.84522537563E+007, +6.52548873115E+001, +5.96293320726E+002
+2.86190317195E+007, +6.62240854306E+001, +6.01040953696E+002
+2.87858096828E+007, +6.94224840581E+001, +6.04409608124E+002
+2.89525876461E+007, +6.71392290680E+001, +6.09442190863E+002
+2.91193656093E+007, +6.75263432763E+001, +6.13690191980E+002
+2.92861435726E+007, +6.74811297482E+001, +6.19867781356E+002
+2.94529215359E+007, +6.90459275328E+001, +6.25048647827E+002
+2.96196994992E+007, +6.97158797675E+001, +6.30374488816E+002
+2.97864774624E+007, +7.23030556574E+001, +6.35028193981E+002
+2.99532554257E+007, +7.21787577759E+001, +6.42273689309E+002
+3.01200333890E+007, +7.20046559722E+001, +6.47544358378E+002
+3.02868113523E+007, +7.19356992636E+001, +6.51970474083E+002
+3.04535893155E+007, +7.31007666047E+001, +6.60429422609E+002
+3.06203672788E+007, +7.47859968133E+001, +6.65883999714E+002
+3.07871452421E+007, +7.38140258201E+001, +6.69506650068E+002
+3.09539232053E+007, +7.53502938767E+001, +6.74657211505E+002
+3.11207011686E+007, +7.45844628716E+001, +6.83808397847E+002
+3.12874791319E+007, +7.50874724169E+001, +6.83833194846E+002
+3.14542570952E+007, +7.54223654101E+001, +6.90553894455E+002
+3.16210350584E+007, +7.45653750065E+001, +6.97628827383E+002
+3.17878130217E+007, +7.52144456740E+001, +7.03384839133E+002
+3.19545909850E+007, +7.89024394481E+001, +7.10370350975E+002
+3.21213689482E+007, +7.67823867500E+001, +7.16806030124E+002
+3.22881469115E+007, +7.67712387693E+001, +7.22439756736E+002
+3.24549248748E+007, +7.89596682832E+001, +7.30632889600E+002
+3.26217028381E+007, +7.77977136993E+001, +7.33519551438E+002
+3.27884808013E+007, +7.88741577327E+001, +7.42318135988E+002
+3.29552587646E+007, +7.91109854875E+001, +7.46014508764E+002
+3.31220367279E+007, +8.08135513902E+001, +7.53663112083E+002
+3.32888146912E+007, +8.09657043170E+001, +7.62934746428E+002
+3.34555926544E+007, +7.98685445820E+001, +7.69246095115E+002
+3.36223706177E+007, +8.40328288748E+001, +7.74064570288E+002
+3.37891485810E+007, +8.10375399699E+001, +7.77255313456E+002
+3.39559265442E+007, +8.29317362002E+001, +7.88339382505E+002
+3.41227045075E+007, +8.68765158536E+001, +7.93610645684E+002
+3.42894824708E+007, +8.36249554058E+001, +8.01579915755E+002
+3.44562604341E+007, +8.63633532573E+001, +8.08013689628E+002
+3.46230383973E+007, +8.69096821903E+001, +8.18537484043E+002
+3.47898163606E+007, +8.85302094795E+001, +8.21166532403E+002
+3.49565943239E+007, +9.15283926850E+001, +8.30767228803E+002
+3.51233722871E+007, +9.01221718408E+001, +8.38083552411E+002
+3.52901502504E+007, +8.80616892916E+001, +8.44763159533E+002
+3.54569282137E+007, +9.02559042492E+001, +8.52887800245E+002
+3.56237061770E+007, +8.85311329860E+001, +8.59295286252E+002
+3.57904841402E+007, +8.92165779610E+001, +8.71272229447E+002
+3.59572621035E+007, +9.38788016099E+001, +8.77649288275E+002
+3.61240400668E+007, +9.51710453711E+001, +8.82106790229E+002
+3.62908180301E+007, +9.72220772944E+001, +8.97369134386E+002
+3.64575959933E+007, +9.53394212225E+001, +9.02030127610E+002
+3.66243739566E+007, +9.60467873242E+001, +9.06680655304E+002
+3.67911519199E+007, +9.82578270217E+001, +9.19248022651E+002
+3.69579298831E+007, +9.96826635594E+001, +9.26184082365E+002
+3.71247078464E+007, +1.01957705793E+002, +9.34974615283E+002
+3.72914858097E+007, +9.87027952097E+001, +9.50181988643E+002
+3.74582637730E+007, +1.06660508791E+002, +9.59328855452E+002
+3.76250417362E+007, +1.05612260684E+002, +9.60792564004E+002
+3.77918196995E+007, +1.05214998166E+002, +9.71240138643E+002
+3.79585976628E+007, +1.06596231043E+002, +9.83605594722E+002
+3.81253756260E+007, +1.10490586385E+002, +9.96113038301E+002
+3.82921535893E+007, +1.13469655133E+002, +9.96866969224E+002
+3.84589315526E+007, +1.15966666875E+002, +1.01353709185E+003
+3.86257095159E+007, +1.13977778191E+002, +1.02426725505E+003
+3.87924874791E+007, +1.12133434482E+002, +1.03432225188E+003
+3.89592654424E+007, +1.16382681465E+002, +1.03995724490E+003
+3.91260434057E+007, +1.20696143244E+002, +1.05515333895E+003
+3.92928213689E+007, +1.18048068970E+002, +1.06507391725E+003
+3.94595993322E+007, +1.21127892694E+002, +1.07482656845E+003
+3.96263772955E+007, +1.26559696425E+002, +1.08522802769E+003
+3.97931552588E+007, +1.20555070020E+002, +1.09659381328E+003
+3.99599332220E+007, +1.26916025160E+002, +1.10573708362E+003
+4.01267111853E+007, +1.32998451502E+002, +1.11824862777E+003
+4.02934891486E+007, +1.29000871493E+002, +1.12579551750E+003
+4.04602671119E+007, +1.38426504318E+002, +1.14023329074E+003
+4.06270450751E+007, +1.39444830807E+002, +1.15624882427E+003
+4.07938230384E+007, +1.40198958654E+002, +1.16383139146E+003
+4.09606010017E+007, +1.40410117846E+002, +1.18228356444E+003
+4.11273789649E+007, +1.42433728479E+002, +1.18753471688E+003
+4.12941569282E+007, +1.46070458559E+002, +1.20448419330E+003
+4.14609348915E+007, +1.52408022404E+002, +1.22773948912E+003
+4.16277128548E+007, +1.51691164111E+002, +1.23217397937E+003
+4.17944908180E+007, +1.50936482997E+002, +1.24342477185E+003
+4.19612687813E+007, +1.55893897263E+002, +1.25575286276E+003
+4.21280467446E+007, +1.55099281406E+002, +1.26971026067E+003
+4.22948247078E+007, +1.68765040668E+002, +1.28440581463E+003
+4.24616026711E+007, +1.68561646831E+002, +1.29714101650E+003
+4.26283806344E+007, +1.75668403836E+002, +1.31507454789E+003
+4.27951585977E+007, +1.71804776767E+002, +1.34020101699E+003
+4.29619365609E+007, +1.78836477019E+002, +1.34634356413E+003
+4.31287145242E+007, +1.84083980048E+002, +1.37049458641E+003
+4.32954924875E+007, +1.85767909935E+002, +1.37408608021E+003
+4.34622704508E+007, +1.88716307908E+002, +1.40043204679E+003
+4.36290484140E+007, +2.01597482122E+002, +1.41358759866E+003
+4.37958263773E+007, +1.95750128764E+002, +1.43957410098E+003
+4.39626043406E+007, +1.98249881561E+002, +1.44719825246E+003
+4.41293823038E+007, +2.11716982439E+002, +1.46944672963E+003
+4.42961602671E+007, +2.08538590033E+002, +1.48501555508E+003
+4.44629382304E+007, +2.17654840605E+002, +1.49916960602E+003
+4.46297161937E+007, +2.21815250681E+002, +1.52506861713E+003
+4.47964941569E+007, +2.26391667134E+002, +1.54421226956E+003
+4.49632721202E+007, +2.27689727701E+002, +1.56981220488E+003
+4.51300500835E+007, +2.38873237579E+002, +1.57847478101E+003
+4.52968280467E+007, +2.54416483289E+002, +1.60854065309E+003
+4.54636060100E+007, +2.56573351896E+002, +1.63123915721E+003
+4.56303839733E+007, +2.57206720878E+002, +1.66426015389E+003
+4.57971619366E+007, +2.71998000054E+002, +1.68498970619E+003
+4.59639398998E+007, +2.74515981707E+002, +1.72429113314E+003
+4.61307178631E+007, +2.93067462467E+002, +1.73740430943E+003
+4.62974958264E+007, +3.00767369491E+002, +1.75559725434E+003
+4.64642737896E+007, +2.93927193061E+002, +1.78367964453E+003
+4.66310517529E+007, +3.15594649655E+002, +1.81880745563E+003
+4.67978297162E+007, +3.40161550170E+002, +1.84025875150E+003
+4.69646076795E+007, +3.49117033555E+002, +1.86053808594E+003
+4.71313856427E+007, +3.53174468169E+002, +1.89616854095E+003
+4.72981636060E+007, +3.51305666767E+002, +1.93105106450E+003
+4.74649415693E+007, +3.77305221904E+002, +1.96358947680E+003
+4.76317195326E+007, +4.03130165569E+002, +1.97662597527E+003
+4.77984974958E+007, +4.27632361152E+002, +2.01514304049E+003
+4.79652754591E+007, +4.35012178524E+002, +2.03760136435E+003
+4.81320534224E+007, +4.53385243667E+002, +2.07296338646E+003
+4.82988313856E+007, +4.71550299831E+002, +2.09939679013E+003
+4.84656093489E+007, +4.90528387177E+002, +2.13168173398E+003
+4.86323873122E+007, +5.18345935221E+002, +2.15515946198E+003
+4.87991652755E+007, +5.60259155124E+002, +2.19819408416E+003
+4.89659432387E+007, +5.75223951402E+002, +2.22037951556E+003
+4.91327212020E+007, +6.00341508828E+002, +2.26722209276E+003
+4.92994991653E+007, +6.29764761995E+002, +2.28228941961E+003
+4.94662771285E+007, +6.61767763676E+002, +2.33566012719E+003
+4.96330550918E+007, +6.92418959253E+002, +2.35131486110E+003
+4.97998330551E+007, +7.38945840245E+002, +2.38773634426E+003
+4.99666110184E+007, +7.42796331213E+002, +2.43280659268E+003
+5.01333889816E+007, +7.58054805238E+002, +2.43189381616E+003
+5.03001669449E+007, +7.94239791975E+002, +2.48320510145E+003
+5.04669449082E+007, +8.23392671574E+002, +2.49885868047E+003
+5.06337228715E+007, +8.85008505757E+002, +2.51429225513E+003
+5.08005008347E+007, +8.51014241085E+002, +2.55988205190E+003
+5.09672787980E+007, +9.26495707807E+002, +2.59256991072E+003
+5.11340567613E+007, +9.47574734060E+002, +2.66436600251E+003
+5.13008347245E+007, +9.59112852559E+002, +2.72658941920E+003
+5.14676126878E+007, +9.84360752187E+002, +2.76439216626E+003
+5.16343906511E+007, +1.05111225144E+003, +2.82789843849E+003
+5.18011686144E+007, +1.06344082203E+003, +2.85002657368E+003
+5.19679465776E+007, +1.10897164371E+003, +2.95620659773E+003
+5.21347245409E+007, +1.16962859472E+003, +3.00319961371E+003
+5.23015025042E+007, +1.26122778124E+003, +3.11738406697E+003
+5.24682804674E+007, +1.23949268751E+003, +3.16083430131E+003
+5.26350584307E+007, +1.33013390270E+003, +3.23008480124E+003
+5.28018363940E+007, +1.40669212662E+003, +3.32925320709E+003
+5.29686143573E+007, +1.48315579695E+003, +3.44185012242E+003
+5.31353923205E+007, +1.55976257452E+003, +3.48828351045E+003
+5.33021702838E+007, +1.63425283777E+003, +3.59143386698E+003
+5.34689482471E+007, +1.80282584768E+003, +3.65547781889E+003
