"# Channel 1"
"# Trace 1"
Frequency, Formatted Data, Formatted Data
+1.00000000000E+005, +6.23240849626E-001, +1.62152589301E+000
+2.25031289111E+005, +6.62244023604E-001, +3.63031089394E+000
+3.50062578223E+005, +6.71017834806E-001, +5.63764326923E+000
+4.75093867334E+005, +6.51959185921E-001, +7.61552186579E+000
+6.00125156446E+005, +6.74694544987E-001, +9.61291507593E+000
+7.25156445557E+005, +7.64007264099E-001, +1.15897315782E+001
+8.50187734668E+005, +7.37370606013E-001, +1.35553900583E+001
+9.75219023780E+005, +7.46530682876E-001, +1.55446628572E+001
+1.10025031289E+006, +7.91874107060E-001, +1.74854881713E+001
+1.22528160200E+006, +8.38377316027E-001, +1.94519038437E+001
+1.35031289111E+006, +8.46427023679E-001, +2.14246036301E+001
+1.47534418023E+006, +9.06433798450E-001, +2.33615418006E+001
+1.60037546934E+006, +9.31609518227E-001, +2.52879289784E+001
+1.72540675845E+006, +9.48362160228E-001, +2.72644244898E+001
+1.85043804756E+006, +9.36344037261E-001, +2.92346222172E+001
+1.97546933667E+006, +9.55663823767E-001, +3.12033833780E+001
+2.10050062578E+006, +1.08403063044E+000, +3.31708606847E+001
+2.22553191489E+006, +9.71471891461E-001, +3.50640539046E+001
+2.35056320401E+006, +1.03479367443E+000, +3.70373840248E+001
+2.47559449312E+006, +1.09384753425E+000, +3.90007180933E+001
+2.60062578223E+006, +1.04168343147E+000, +4.09314390564E+001
+2.72565707134E+006, +1.09444370041E+000, +4.28847246283E+001
+2.85068836045E+006, +1.10272436106E+000, +4.48545294937E+001
+2.97571964956E+006, +1.09009541013E+000, +4.68348180765E+001
+3.10075093867E+006, +1.07743105353E+000, +4.87746180489E+001
+3.22578222778E+006, +1.16830243720E+000, +5.06843080980E+001
+3.35081351690E+006, +1.17206861538E+000, +5.27003236190E+001
+3.47584480601E+006, +1.10265219328E+000, +5.46325601402E+001
+3.60087609512E+006, +1.08467590400E+000, +5.65720023789E+001
+3.72590738423E+006, +1.21269003451E+000, +5.86002211836E+001
+3.85093867334E+006, +1.14003180502E+000, +6.04904626808E+001
+3.97596996245E+006, +1.10556073833E+000, +6.24942839344E+001
+4.10100125156E+006, +1.13371320436E+000, +6.45857510643E+001
+4.22603254068E+006, +1.16870419336E+000, +6.63682470073E+001
+4.35106382979E+006, +1.25556928910E+000, +6.83109983801E+001
+4.47609511890E+006, +1.30181727325E+000, +7.03254646176E+001
+4.60112640801E+006, +1.27118688959E+000, +7.22988753777E+001
+4.72615769712E+006, +1.28999853967E+000, +7.43167443608E+001
+4.85118898623E+006, +1.35407469527E+000, +7.61592346728E+001
+4.97622027534E+006, +1.27691687073E+000, +7.83653052652E+001
+5.10125156446E+006, +1.32900680380E+000, +8.01807547643E+001
+5.22628285357E+006, +1.33696522901E+000, +8.22679558730E+001
+5.35131414268E+006, +1.28941855723E+000, +8.41632695273E+001
+5.47634543179E+006, +1.36203535212E+000, +8.61478590462E+001
+5.60137672090E+006, +1.30061517407E+000, +8.79925343407E+001
+5.72640801001E+006, +1.28574075833E+000, +9.00296526467E+001
+5.85143929912E+006, +1.36346176336E+000, +9.20224104027E+001
+5.97647058824E+006, +1.30527151444E+000, +9.42362518368E+001
+6.10150187735E+006, +1.39455752374E+000, +9.61776715843E+001
+6.22653316646E+006, +1.35410024826E+000, +9.80169636467E+001
+6.35156445557E+006, +1.49785151743E+000, +1.00067342146E+002
+6.47659574468E+006, +1.39677351765E+000, +1.02138333559E+002
+6.60162703379E+006, +1.43750692048E+000, +1.04081856256E+002
+6.72665832290E+006, +1.45007708314E+000, +1.06112897315E+002
+6.85168961202E+006, +1.46047534494E+000, +1.08123003754E+002
+6.97672090113E+006, +1.38718727248E+000, +1.10111006081E+002
+7.10175219024E+006, +1.47258735955E+000, +1.12083275268E+002
+7.22678347935E+006, +1.47709453980E+000, +1.14118935377E+002
+7.35181476846E+006, +1.46964555280E+000, +1.16069836024E+002
+7.47684605757E+006, +1.54249432874E+000, +1.18073256841E+002
+7.60187734668E+006, +1.41279718784E+000, +1.20115915543E+002
+7.72690863579E+006, +1.44486971674E+000, +1.22134789197E+002
+7.85193992491E+006, +1.50310229337E+000, +1.24196774259E+002
+7.97697121402E+006, +1.47304120293E+000, +1.26212088589E+002
+8.10200250313E+006, +1.53281576989E+000, +1.28131942086E+002
+8.22703379224E+006, +1.62876657919E+000, +1.30209837853E+002
+8.35206508135E+006, +1.50277117324E+000, +1.32275169309E+002
+8.47709637046E+006, +1.53935213870E+000, +1.34362643709E+002
+8.60212765957E+006, +1.52769270076E+000, +1.36155078028E+002
+8.72715894869E+006, +1.60772532047E+000, +1.38406538747E+002
+8.85219023780E+006, +1.51185049981E+000, +1.40375825331E+002
+8.97722152691E+006, +1.63260005454E+000, +1.42428340756E+002
+9.10225281602E+006, +1.59262863604E+000, +1.44375293558E+002
+9.22728410513E+006, +1.60937991658E+000, +1.46502824360E+002
+9.35231539424E+006, +1.47758790989E+000, +1.48575393231E+002
+9.47734668335E+006, +1.73386965990E+000, +1.50583242377E+002
+9.60237797247E+006, +1.68016586491E+000, +1.52618131266E+002
+9.72740926158E+006, +1.64822361980E+000, +1.54540740188E+002
+9.85244055069E+006, +1.54176998857E+000, +1.56612425137E+002
+9.97747183980E+006, +1.33108548226E+000, +1.58687430598E+002
+1.01025031289E+007, +1.84415068833E+000, +1.60845018122E+002
+1.02275344180E+007, +1.39599433052E+000, +1.62842606508E+002
+1.03525657071E+007, +1.42410025270E+000, +1.64957942194E+002
+1.04775969962E+007, +1.56120198618E+000, +1.67002121904E+002
+1.06026282854E+007, +1.47076378377E+000, +1.68975038787E+002
+1.07276595745E+007, +1.44147362165E+000, +1.71073750685E+002
+1.08526908636E+007, +1.48261378570E+000, +1.73009279817E+002
+1.09777221527E+007, +1.59741441600E+000, +1.75053047813E+002
+1.11027534418E+007, +1.45769212939E+000, +1.77336982557E+002
+1.12277847309E+007, +1.63619513983E+000, +1.79276468217E+002
+1.13528160200E+007, +1.42137492961E+000, +1.81500412006E+002
+1.14778473091E+007, +1.51526199925E+000, +1.83365607090E+002
+1.16028785982E+007, +1.54882922241E+000, +1.85646644617E+002
+1.17279098874E+007, +1.33678081826E+000, +1.87979938849E+002
+1.18529411765E+007, +1.68196932877E+000, +1.89704732566E+002
+1.19779724656E+007, +1.54823836988E+000, +1.91882271526E+002
+1.21030037547E+007, +1.52887473303E+000, +1.94184371557E+002
+1.22280350438E+007, +1.21627648756E+000, +1.96336180589E+002
+1.23530663329E+007, +1.60934999161E+000, +1.98564170129E+002
+1.24780976220E+007, +1.51611612853E+000, +2.00550955571E+002
+1.26031289111E+007, +1.44995742069E+000, +2.02753204522E+002
+1.27281602003E+007, +1.59959382583E+000, +2.04874208026E+002
+1.28531914894E+007, +1.67229608310E+000, +2.06714500774E+002
+1.29782227785E+007, +1.33511310715E+000, +2.09189119757E+002
+1.31032540676E+007, +1.51904096414E+000, +2.11190830116E+002
+1.32282853567E+007, +1.53623911799E+000, +2.13013464138E+002
+1.33533166458E+007, +1.37383624673E+000, +2.15201169418E+002
+1.34783479349E+007, +1.23475943182E+000, +2.17670170334E+002
+1.36033792240E+007, +1.43572607208E+000, +2.19727734703E+002
+1.37284105131E+007, +1.22393791682E+000, +2.21550401072E+002
+1.38534418023E+007, +1.34556846720E+000, +2.23970534205E+002
+1.39784730914E+007, +1.56268859871E+000, +2.26238192506E+002
+1.41035043805E+007, +1.23121911645E+000, +2.28124821280E+002
+1.42285356696E+007, +1.48523367613E+000, +2.30443190784E+002
+1.43535669587E+007, +1.33658544220E+000, +2.32525926572E+002
+1.44785982478E+007, +1.29629968195E+000, +2.35040923762E+002
+1.46036295369E+007, +1.34791797987E+000, +2.37022081523E+002
+1.47286608260E+007, +1.34067639113E+000, +2.39232207975E+002
+1.48536921151E+007, +1.50079672149E+000, +2.41514371986E+002
+1.49787234043E+007, +1.29736056845E+000, +2.43439794683E+002
+1.51037546934E+007, +1.65602921878E+000, +2.45681658576E+002
+1.52287859825E+007, +1.69138033000E+000, +2.48103006134E+002
+1.53538172716E+007, +1.45915841215E+000, +2.50182901754E+002
+1.54788485607E+007, +1.09889169544E+000, +2.52277159640E+002
+1.56038798498E+007, +9.76429161670E-001, +2.54384586428E+002
+1.57289111389E+007, +1.07399850071E+000, +2.56939484338E+002
+1.58539424280E+007, +9.38162413542E-001, +2.59193149017E+002
+1.59789737171E+007, +1.55154350861E+000, +2.61216004376E+002
+1.61040050063E+007, +1.35515637950E+000, +2.63822855396E+002
+1.62290362954E+007, +1.46296241935E+000, +2.65629828365E+002
+1.63540675845E+007, +1.06117449649E+000, +2.68122079210E+002
+1.64790988736E+007, +1.27612702989E+000, +2.70638455899E+002
+1.66041301627E+007, +1.28825394071E+000, +2.72618880996E+002
+1.67291614518E+007, +1.30247631166E+000, +2.75294560273E+002
+1.68541927409E+007, +1.12103852484E+000, +2.77438988117E+002
+1.69792240300E+007, +1.32314370551E+000, +2.79663337111E+002
+1.71042553191E+007, +5.53813683695E-001, +2.81919132154E+002
+1.72292866083E+007, +7.69046908032E-001, +2.84500835797E+002
+1.73543178974E+007, +1.18560244919E+000, +2.86162133439E+002
+1.74793491865E+007, +2.85883435320E-001, +2.88821978307E+002
+1.76043804756E+007, +7.11760019321E-001, +2.91342477373E+002
+1.77294117647E+007, +7.00951468232E-001, +2.93348060649E+002
+1.78544430538E+007, +1.06183218643E+000, +2.96297104013E+002
+1.79794743429E+007, +6.94045308547E-001, +2.98836761222E+002
+1.81045056320E+007, +1.08295450615E+000, +3.00222845864E+002
+1.82295369212E+007, +9.51652540891E-001, +3.03282080160E+002
+1.83545682103E+007, +1.21959097817E+000, +3.05253378642E+002
+1.84795994994E+007, +6.95058874877E-001, +3.07249280787E+002
+1.86046307885E+007, +1.01982118048E+000, +3.10269534561E+002
+1.87296620776E+007, +4.05928341978E-001, +3.12523534107E+002
+1.88546933667E+007, +8.89070000198E-001, +3.14398980616E+002
+1.89797246558E+007, +1.02353740936E+000, +3.16952207188E+002
+1.91047559449E+007, +1.60102305780E+000, +3.19818805029E+002
+1.92297872340E+007, +1.07410290657E+000, +3.21820351492E+002
+1.93548185232E+007, +5.58665289033E-001, +3.24056139991E+002
+1.94798498123E+007, +1.09023898649E+000, +3.26895633304E+002
+1.96048811014E+007, +9.48118499109E-001, +3.28949255817E+002
+1.97299123905E+007, +7.81421958259E-001, +3.31278752381E+002
+1.98549436796E+007, +1.13621342399E+000, +3.33958890190E+002
+1.99799749687E+007, +1.34178395750E+000, +3.35875069650E+002
+2.01050062578E+007, +8.35895293741E-001, +3.39072631635E+002
+2.02300375469E+007, +1.22532041004E+000, +3.41728797612E+002
+2.03550688360E+007, +9.10250357790E-001, +3.43918546290E+002
+2.04801001252E+007, +1.49963416136E+000, +3.46883565372E+002
+2.06051314143E+007, +1.33373926776E+000, +3.48253702771E+002
+2.07301627034E+007, +8.07670021890E-001, +3.50819548058E+002
+2.08551939925E+007, +1.22624382936E+000, +3.54169728615E+002
+2.09802252816E+007, +1.88435247272E+000, +3.56279714657E+002
+2.11052565707E+007, +1.17291755825E+000, +3.58612392752E+002
+2.12302878598E+007, +1.07931879715E+000, +3.61054148271E+002
+2.13553191489E+007, +1.50419779136E+000, +3.63875930967E+002
+2.14803504380E+007, +1.11747767328E+000, +3.66349786653E+002
+2.16053817272E+007, +1.49033616692E+000, +3.68809188391E+002
+2.17304130163E+007, +1.32317526494E+000, +3.71664921932E+002
+2.18554443054E+007, +5.30136717956E-001, +3.73821377618E+002
+2.19804755945E+007, +7.58670442254E-001, +3.75832336211E+002
+2.21055068836E+007, +1.06715251611E+000, +3.79957404373E+002
+2.22305381727E+007, +8.73832558170E-001, +3.82110597234E+002
+2.23555694618E+007, +1.47134528305E+000, +3.84746091276E+002
+2.24806007509E+007, +1.62515316423E+000, +3.86825485262E+002
+2.26056320401E+007, +1.97054889429E+000, +3.89196443563E+002
+2.27306633292E+007, +1.08691265251E+000, +3.92449339458E+002
+2.28556946183E+007, +1.66783410135E+000, +3.94813882576E+002
+2.29807259074E+007, +1.95832943940E+000, +3.98337040610E+002
+2.31057571965E+007, +7.89144466264E-001, +4.00102818158E+002
+2.32307884856E+007, +1.87848750332E+000, +4.02091263756E+002
+2.33558197747E+007, +1.43896299567E+000, +4.06593294719E+002
+2.34808510638E+007, +1.36230832938E+000, +4.08036107907E+002
+2.36058823529E+007, +2.13801007370E+000, +4.10271973487E+002
+2.37309136421E+007, +1.96828476764E+000, +4.11902311225E+002
+2.38559449312E+007, +1.92002552956E+000, +4.15121211675E+002
+2.39809762203E+007, +2.49652981404E+000, +4.17854886549E+002
+2.41060075094E+007, +1.85792450825E+000, +4.19738930131E+002
+2.42310387985E+007, +2.73365586442E+000, +4.23603033424E+002
+2.43560700876E+007, +1.63476747395E+000, +4.26048715679E+002
+2.44811013767E+007, +2.06094249348E+000, +4.28210708641E+002
+2.46061326658E+007, +1.98166946013E+000, +4.31036498947E+002
+2.47311639549E+007, +2.01004428847E+000, +4.33731867203E+002
+2.48561952441E+007, +3.00413652165E+000, +4.37119348852E+002
+2.49812265332E+007, +2.16215528476E+000, +4.39013081239E+002
+2.51062578223E+007, +1.25064617915E+000, +4.41694583794E+002
+2.52312891114E+007, +2.05975407964E+000, +4.44607844948E+002
+2.53563204005E+007, +1.48167284936E+000, +4.47563318747E+002
+2.54813516896E+007, +2.17126083808E+000, +4.50370300687E+002
+2.56063829787E+007, +2.11505125549E+000, +4.54256482265E+002
+2.57314142678E+007, +2.16357431894E+000, +4.55886220134E+002
+2.58564455569E+007, +2.70774391309E+000, +4.59653525206E+002
+2.59814768461E+007, +2.28533448762E+000, +4.62097713287E+002
+2.61065081352E+007, +2.46818937022E+000, +4.66119533672E+002
+2.62315394243E+007, +1.49388903976E+000, +4.67835657923E+002
+2.63565707134E+007, +7.34128404286E-001, +4.71302328383E+002
+2.64816020025E+007, +2.82789839747E+000, +4.72444856901E+002
+2.66066332916E+007, +1.96683558100E+000, +4.76248647173E+002
+2.67316645807E+007, +2.49605643683E+000, +4.79081982877E+002
+2.68566958698E+007, +3.18186412637E+000, +4.82667145173E+002
+2.69817271589E+007, +1.21872621408E+000, +4.85570173742E+002
+2.71067584481E+007, +2.82557229421E+000, +4.87420893510E+002
+2.72317897372E+007, +1.64122776418E+000, +4.91842939789E+002
+2.73568210263E+007, +1.03960803965E-001, +4.94136396988E+002
+2.74818523154E+007, -3.98653424624E-002, +4.96961994671E+002
+2.76068836045E+007, +2.25229370087E+000, +5.00202916289E+002
+2.77319148936E+007, +6.59694691785E-001, +5.02175884962E+002
+2.78569461827E+007, +6.19716592919E-002, +5.05025632596E+002
+2.79819774718E+007, +2.99724528822E+000, +5.08282993814E+002
+2.81070087610E+007, +8.07480830109E-001, +5.10924478431E+002
+2.82320400501E+007, +1.09482916757E+000, +5.14715200878E+002
+2.83570713392E+007, +8.38910036559E-001, +5.18699747295E+002
+2.84821026283E+007, +1.78969289121E+000, +5.22163530586E+002
+2.86071339174E+007, +1.32035494048E+000, +5.23987367965E+002
+2.87321652065E+007, +6.40066552703E-001, +5.26709279597E+002
+2.88571964956E+007, +9.17572982971E-001, +5.29420958704E+002
+2.89822277847E+007, +7.06525835070E-001, +5.34346051314E+002
+2.91072590738E+007, +7.57055579307E-001, +5.37814390919E+002
+2.92322903630E+007, +4.28224201646E-001, +5.39684899119E+002
+2.93573216521E+007, +2.66653274251E-001, +5.41194824231E+002
+2.94823529412E+007, -1.43870596986E-001, +5.46010835392E+002
+2.96073842303E+007, +1.42479911462E-002, +5.51374007167E+002
+2.97324155194E+007, +6.62577181410E-001, +5.53280589050E+002
+2.98574468085E+007, +2.97353177642E+000, +5.56570256736E+002
+2.99824780976E+007, -2.31075309383E-001, +5.61519915384E+002
+3.01075093867E+007, +1.38975602653E+000, +5.65067138862E+002
+3.02325406758E+007, +9.73531490744E-002, +5.67664937959E+002
+3.03575719650E+007, -3.94567962023E-001, +5.71454106966E+002
+3.04826032541E+007, +1.78793166915E+000, +5.74051321853E+002
+3.06076345432E+007, -9.42162932899E-002, +5.76236996426E+002
+3.07326658323E+007, +1.08849587399E+000, +5.80247532583E+002
+3.08576971214E+007, -9.73705955229E-001, +5.82632698461E+002
+3.09827284105E+007, +1.65918745919E+000, +5.87140319367E+002
+3.11077596996E+007, -5.13526025453E-001, +5.91898195462E+002
+3.12327909887E+007, +1.48625015722E+000, +5.94964399630E+002
+3.13578222778E+007, -6.85087683444E-003, +5.96940553479E+002
+3.14828535670E+007, -2.20447026801E+000, +6.00690821135E+002
+3.16078848561E+007, +3.50898622568E-001, +6.04640946490E+002
+3.17329161452E+007, +1.61179306453E+000, +6.06824057357E+002
+3.18579474343E+007, +3.69420725789E-001, +6.09789651588E+002
+3.19829787234E+007, +8.46284140151E-001, +6.15498331582E+002
+3.21080100125E+007, +3.61653504863E-001, +6.19608874534E+002
+3.22330413016E+007, +2.52674804842E+000, +6.20275573789E+002
+3.23580725907E+007, +2.49903961039E+000, +6.23587313097E+002
+3.24831038798E+007, +2.37607179446E-001, +6.31012964485E+002
+3.26081351690E+007, -1.57855292341E+000, +6.33174831587E+002
+3.27331664581E+007, +1.98605181366E+000, +6.35880975591E+002
+3.28581977472E+007, +6.83417632878E-001, +6.40332159077E+002
+3.29832290363E+007, -7.67141349514E-002, +6.45894021510E+002
+3.31082603254E+007, +1.92238865613E+000, +6.47834278611E+002
+3.32332916145E+007, -1.59126885639E-001, +6.51880297080E+002
+3.33583229036E+007, +2.86956337703E+000, +6.54489360256E+002
+3.34833541927E+007, -9.93385641667E-001, +6.60786223190E+002
+3.36083854819E+007, +4.09774730095E-001, +6.62024742368E+002
+3.37334167710E+007, +1.18215961422E+000, +6.68406019730E+002
+3.38584480601E+007, +2.47132562957E+000, +6.68266320316E+002
+3.39834793492E+007, -2.47919984549E-001, +6.74103823424E+002
+3.41085106383E+007, -1.36418005185E+000, +6.77391156151E+002
+3.42335419274E+007, +1.12223939631E+000, +6.81852556600E+002
+3.43585732165E+007, +1.12324877842E+000, +6.86403601279E+002
+3.44836045056E+007, -4.00217942070E-001, +6.91918427658E+002
+3.46086357947E+007, -1.23714219538E+000, +6.95851167226E+002
+3.47336670839E+007, -1.73936173410E+000, +6.98652689973E+002
+3.48586983730E+007, -3.09018622626E+000, +7.02687245492E+002
+3.49837296621E+007, +4.07656834799E-001, +7.09266299809E+002
+3.51087609512E+007, -7.56788071982E-001, +7.11466595133E+002
+3.52337922403E+007, +2.36186340920E+000, +7.14039596047E+002
+3.53588235294E+007, +1.51506594984E+000, +7.19251822548E+002
+3.54838548185E+007, +5.58701442288E-001, +7.23309009812E+002
+3.56088861076E+007, +1.62499529823E+000, +7.29955694986E+002
+3.57339173967E+007, -1.63644717321E+000, +7.31038060575E+002
+3.58589486859E+007, +5.42936919204E-001, +7.34330024345E+002
+3.59839799750E+007, -9.09952383528E-001, +7.41510216057E+002
+3.61090112641E+007, -1.63687848975E+000, +7.45021260528E+002
+3.62340425532E+007, -6.72167775584E-001, +7.49602701232E+002
+3.63590738423E+007, -1.79834977458E+000, +7.52683449848E+002
+3.64841051314E+007, +8.31276489704E-001, +7.59442143263E+002
+3.66091364205E+007, +2.38204830920E+000, +7.64012308807E+002
+3.67341677096E+007, +1.31000050747E-002, +7.67927183612E+002
+3.68591989987E+007, +1.29751441852E+000, +7.72218621229E+002
+3.69842302879E+007, -1.66980496908E+000, +7.73577880660E+002
+3.71092615770E+007, -2.27653948121E+000, +7.79042937243E+002
+3.72342928661E+007, -9.42442512474E-001, +7.84904169797E+002
+3.73593241552E+007, +2.07944577048E+000, +7.89457619739E+002
+3.74843554443E+007, +6.31227660310E-001, +7.94123137436E+002
+3.76093867334E+007, +3.34748351360E+000, +7.98533073680E+002
+3.77344180225E+007, +2.51935571538E+000, +8.02322740353E+002
+3.78594493116E+007, -1.12707248215E+000, +8.08283633047E+002
+3.79844806008E+007, +2.37760439427E-001, +8.09488958529E+002
+3.81095118899E+007, +1.50630698873E+000, +8.18656403957E+002
+3.82345431790E+007, -1.05612673840E+000, +8.22959416160E+002
+3.83595744681E+007, -8.66696871370E-001, +8.25320760614E+002
+3.84846057572E+007, -1.66903661767E+000, +8.34849479395E+002
+3.86096370463E+007, +1.69191700698E-001, +8.40430313992E+002
+3.87346683354E+007, -1.00182469355E+000, +8.41055063996E+002
+3.88596996245E+007, +1.04738721268E+000, +8.45111096074E+002
+3.89847309136E+007, +1.56464691251E-001, +8.52226297428E+002
+3.91097622028E+007, +3.54171170737E+000, +8.57137796493E+002
+3.92347934919E+007, +3.36009745349E+000, +8.63497325326E+002
+3.93598247810E+007, -8.64051537599E-001, +8.73075293580E+002
+3.94848560701E+007, +1.73433947389E-002, +8.74826313057E+002
+3.96098873592E+007, -2.30626155804E-002, +8.76659456730E+002
+3.97349186483E+007, -1.60519056165E+000, +8.83209573142E+002
+3.98599499374E+007, -5.94517488285E-001, +8.94353070821E+002
+3.99849812265E+007, +2.37338197758E+000, +8.95283183659E+002
+4.01100125156E+007, +2.17464296418E+000, +8.99636906995E+002
