"# Channel 1"
"# Trace 1"
Frequency, Formatted Data, Formatted Data
+1.00000000000E+005, +3.32336316647E+001, +1.56418050886E+000
+2.25031289111E+005, +3.32064860039E+001, +3.71163190994E+000
+3.50062578223E+005, +3.32461340960E+001, +5.76132727931E+000
+4.75093867334E+005, +3.32506922992E+001, +7.79055030018E+000
+6.00125156446E+005, +3.32838644877E+001, +9.88678479854E+000
+7.25156445557E+005, +3.32978542009E+001, +1.19046676664E+001
+8.50187734668E+005, +3.32864866583E+001, +1.39754678208E+001
+9.75219023780E+005, +3.32852567159E+001, +1.59971389800E+001
+1.10025031289E+006, +3.33003875842E+001, +1.80150844147E+001
+1.22528160200E+006, +3.33270364439E+001, +2.00517823873E+001
+1.35031289111E+006, +3.33527955083E+001, +2.20771287638E+001
+1.47534418023E+006, +3.33225095493E+001, +2.41136541447E+001
+1.60037546934E+006, +3.33623999602E+001, +2.61463183782E+001
+1.72540675845E+006, +3.33650628891E+001, +2.81910394926E+001
+1.85043804756E+006, +3.33840816452E+001, +3.02472626159E+001
+1.97546933667E+006, +3.34119200437E+001, +3.22651171811E+001
+2.10050062578E+006, +3.34437765585E+001, +3.43267386533E+001
+2.22553191489E+006, +3.34320010661E+001, +3.63296937597E+001
+2.35056320401E+006, +3.34301467581E+001, +3.83216906590E+001
+2.47559449312E+006, +3.34544658437E+001, +4.04066067202E+001
+2.60062578223E+006, +3.34595606862E+001, +4.24025155443E+001
+2.72565707134E+006, +3.34980408173E+001, +4.44570961367E+001
+2.85068836045E+006, +3.34725791407E+001, +4.64964886314E+001
+2.97571964956E+006, +3.35450592783E+001, +4.84848667247E+001
+3.10075093867E+006, +3.35048831072E+001, +5.05781350896E+001
+3.22578222778E+006, +3.35210109670E+001, +5.26453147153E+001
+3.35081351690E+006, +3.35627985903E+001, +5.46461579369E+001
+3.47584480601E+006, +3.36079982552E+001, +5.66861970686E+001
+3.60087609512E+006, +3.36136596792E+001, +5.87449384197E+001
+3.72590738423E+006, +3.35298526375E+001, +6.08460354658E+001
+3.85093867334E+006, +3.34959563164E+001, +6.30352324574E+001
+3.97596996245E+006, +3.36118757958E+001, +6.51349594887E+001
+4.10100125156E+006, +3.43922160361E+001, +6.57207029149E+001
+4.22603254068E+006, +3.35644730698E+001, +6.87836059065E+001
+4.35106382979E+006, +3.36470451666E+001, +7.08975181318E+001
+4.47609511890E+006, +3.37159873671E+001, +7.29438733695E+001
+4.60112640801E+006, +3.36881556056E+001, +7.49637049086E+001
+4.72615769712E+006, +3.36810055918E+001, +7.71093108962E+001
+4.85118898623E+006, +3.36807942607E+001, +7.91125761115E+001
+4.97622027534E+006, +3.36933659798E+001, +8.12279864810E+001
+5.10125156446E+006, +3.37704565720E+001, +8.32156626719E+001
+5.22628285357E+006, +3.38663225485E+001, +8.53049720224E+001
+5.35131414268E+006, +3.37681654715E+001, +8.72642813115E+001
+5.47634543179E+006, +3.37385461624E+001, +8.94077492749E+001
+5.60137672090E+006, +3.38373942353E+001, +9.13943060294E+001
+5.72640801001E+006, +3.37918768015E+001, +9.34930428238E+001
+5.85143929912E+006, +3.38994965686E+001, +9.55863096479E+001
+5.97647058824E+006, +3.37901715401E+001, +9.76956255252E+001
+6.10150187735E+006, +3.39178792054E+001, +9.96602153780E+001
+6.22653316646E+006, +3.38448512861E+001, +1.01848047258E+002
+6.35156445557E+006, +3.39038507494E+001, +1.03857412027E+002
+6.47659574468E+006, +3.39388631723E+001, +1.05926375603E+002
+6.60162703379E+006, +3.39816076836E+001, +1.07963412048E+002
+6.72665832290E+006, +3.40894716655E+001, +1.10121685722E+002
+6.85168961202E+006, +3.40978583644E+001, +1.12157570519E+002
+6.97672090113E+006, +3.41032604938E+001, +1.14190939477E+002
+7.10175219024E+006, +3.41224775907E+001, +1.16317100131E+002
+7.22678347935E+006, +3.42668710403E+001, +1.18390576333E+002
+7.35181476846E+006, +3.42860254716E+001, +1.20474279047E+002
+7.47684605757E+006, +3.40952109711E+001, +1.22555281271E+002
+7.60187734668E+006, +3.42919060672E+001, +1.24511751990E+002
+7.72690863579E+006, +3.42829342107E+001, +1.26584852988E+002
+7.85193992491E+006, +3.43946159714E+001, +1.28715364131E+002
+7.97697121402E+006, +3.43273170933E+001, +1.30822935079E+002
+8.10200250313E+006, +3.43825335291E+001, +1.32967342529E+002
+8.22703379224E+006, +3.44677232846E+001, +1.34940997615E+002
+8.35206508135E+006, +3.45208107570E+001, +1.36985809391E+002
+8.47709637046E+006, +3.44335770419E+001, +1.39187194034E+002
+8.60212765957E+006, +3.45074063354E+001, +1.41191989355E+002
+8.72715894869E+006, +3.44390293573E+001, +1.43124171196E+002
+8.85219023780E+006, +3.47514095963E+001, +1.45159704410E+002
+8.97722152691E+006, +3.47091745321E+001, +1.47191759038E+002
+9.10225281602E+006, +3.47754914741E+001, +1.49394981540E+002
+9.22728410513E+006, +3.46454628283E+001, +1.51452047650E+002
+9.35231539424E+006, +3.47064778956E+001, +1.53863691801E+002
+9.47734668335E+006, +3.46619815026E+001, +1.55739279181E+002
+9.60237797247E+006, +3.48074681320E+001, +1.57484839540E+002
+9.72740926158E+006, +3.49096239195E+001, +1.59241402197E+002
+9.85244055069E+006, +3.48538211789E+001, +1.61281492333E+002
+9.97747183980E+006, +3.49677030181E+001, +1.63189939242E+002
+1.01025031289E+007, +3.49744157829E+001, +1.65229208782E+002
+1.02275344180E+007, +3.50373390314E+001, +1.67090946952E+002
+1.03525657071E+007, +3.48611966530E+001, +1.69199971940E+002
+1.04775969962E+007, +3.50159180269E+001, +1.71481941756E+002
+1.06026282854E+007, +3.49273732939E+001, +1.73714131215E+002
+1.07276595745E+007, +3.47636953872E+001, +1.75768851059E+002
+1.08526908636E+007, +3.50308247401E+001, +1.77949826591E+002
+1.09777221527E+007, +3.50008442402E+001, +1.80400485062E+002
+1.11027534418E+007, +3.50048998106E+001, +1.82650389854E+002
+1.12277847309E+007, +3.49660791444E+001, +1.85052768980E+002
+1.13528160200E+007, +3.52157995138E+001, +1.87421502825E+002
+1.14778473091E+007, +3.51342725735E+001, +1.89992962070E+002
+1.16028785982E+007, +3.48929991302E+001, +1.92190630399E+002
+1.17279098874E+007, +3.51424852478E+001, +1.94070117470E+002
+1.18529411765E+007, +3.51403530059E+001, +1.96234674497E+002
+1.19779724656E+007, +3.51912944273E+001, +1.98343370308E+002
+1.21030037547E+007, +3.52545750774E+001, +2.00819323145E+002
+1.22280350438E+007, +3.50916635831E+001, +2.02882322898E+002
+1.23530663329E+007, +3.53040152857E+001, +2.05192561038E+002
+1.24780976220E+007, +3.53957712773E+001, +2.07292498145E+002
+1.26031289111E+007, +3.53395907236E+001, +2.09468059963E+002
+1.27281602003E+007, +3.53216452185E+001, +2.11493903333E+002
+1.28531914894E+007, +3.53905953895E+001, +2.13690752016E+002
+1.29782227785E+007, +3.51960655489E+001, +2.15952528472E+002
+1.31032540676E+007, +3.53553993972E+001, +2.17953139182E+002
+1.32282853567E+007, +3.52420568057E+001, +2.20040004676E+002
+1.33533166458E+007, +3.53841007716E+001, +2.22544686301E+002
+1.34783479349E+007, +3.54284172859E+001, +2.24673790860E+002
+1.36033792240E+007, +3.54842743183E+001, +2.26847325781E+002
+1.37284105131E+007, +3.55934060878E+001, +2.29076562146E+002
+1.38534418023E+007, +3.59211446363E+001, +2.31618460829E+002
+1.39784730914E+007, +3.60079066637E+001, +2.33721339794E+002
+1.41035043805E+007, +3.57502543565E+001, +2.35992448695E+002
+1.42285356696E+007, +3.57823966423E+001, +2.38403455508E+002
+1.43535669587E+007, +3.55534669039E+001, +2.40574742666E+002
+1.44785982478E+007, +3.56967083229E+001, +2.42732448916E+002
+1.46036295369E+007, +3.57436528618E+001, +2.45036878759E+002
+1.47286608260E+007, +3.57398630131E+001, +2.47043459236E+002
+1.48536921151E+007, +3.60522416758E+001, +2.49413278255E+002
+1.49787234043E+007, +3.59594022287E+001, +2.51798448623E+002
+1.51037546934E+007, +3.57818559670E+001, +2.53939307653E+002
+1.52287859825E+007, +3.60987454947E+001, +2.56033849520E+002
+1.53538172716E+007, +3.59563871826E+001, +2.58607091575E+002
+1.54788485607E+007, +3.64468000068E+001, +2.60830726267E+002
+1.56038798498E+007, +3.61801262554E+001, +2.63086976460E+002
+1.57289111389E+007, +3.64029652617E+001, +2.65798848451E+002
+1.58539424280E+007, +3.66580826856E+001, +2.67761929025E+002
+1.59789737171E+007, +3.65693697134E+001, +2.69998048262E+002
+1.61040050063E+007, +3.64723321113E+001, +2.72767605286E+002
+1.62290362954E+007, +3.66964626693E+001, +2.74570503409E+002
+1.63540675845E+007, +3.64867064445E+001, +2.76853492629E+002
+1.64790988736E+007, +3.66085358131E+001, +2.79766783107E+002
+1.66041301627E+007, +3.68173166631E+001, +2.81822454411E+002
+1.67291614518E+007, +3.66250769029E+001, +2.84017357439E+002
+1.68541927409E+007, +3.69610719917E+001, +2.86553167768E+002
+1.69792240300E+007, +3.68432117913E+001, +2.88845853080E+002
+1.71042553191E+007, +3.64564692755E+001, +2.91017544577E+002
+1.72292866083E+007, +3.67812875410E+001, +2.93237186039E+002
+1.73543178974E+007, +3.69374997395E+001, +2.95835179816E+002
+1.74793491865E+007, +3.68358426809E+001, +2.97926793853E+002
+1.76043804756E+007, +3.68635926716E+001, +3.00333260662E+002
+1.77294117647E+007, +3.71906889291E+001, +3.02987302105E+002
+1.78544430538E+007, +3.71655492653E+001, +3.05409369208E+002
+1.79794743429E+007, +3.73078319812E+001, +3.07398453538E+002
+1.81045056320E+007, +3.70162545475E+001, +3.09630392603E+002
+1.82295369212E+007, +3.72081842354E+001, +3.12608608919E+002
+1.83545682103E+007, +3.73776012176E+001, +3.15015642108E+002
+1.84795994994E+007, +3.73346980417E+001, +3.17231912633E+002
+1.86046307885E+007, +3.74426304735E+001, +3.19981935193E+002
+1.87296620776E+007, +3.77221762911E+001, +3.21978005543E+002
+1.88546933667E+007, +3.75040954710E+001, +3.24751931740E+002
+1.89797246558E+007, +3.82317932192E+001, +3.27128371143E+002
+1.91047559449E+007, +3.80550188999E+001, +3.29520619054E+002
+1.92297872340E+007, +3.82819795473E+001, +3.32222457936E+002
+1.93548185232E+007, +3.80683161265E+001, +3.34638143602E+002
+1.94798498123E+007, +3.80128718787E+001, +3.36774579685E+002
+1.96048811014E+007, +3.77952076877E+001, +3.39436570384E+002
+1.97299123905E+007, +3.83948936037E+001, +3.41851102560E+002
+1.98549436796E+007, +3.85180210846E+001, +3.44730058259E+002
+1.99799749687E+007, +3.83593861629E+001, +3.47106975735E+002
+2.01050062578E+007, +3.84177102005E+001, +3.48880080904E+002
+2.02300375469E+007, +3.90403165175E+001, +3.52121751456E+002
+2.03550688360E+007, +3.88596344051E+001, +3.54420938956E+002
+2.04801001252E+007, +3.87198737629E+001, +3.57128222458E+002
+2.06051314143E+007, +3.92123130666E+001, +3.59662730211E+002
+2.07301627034E+007, +3.92755701658E+001, +3.62150052973E+002
+2.08551939925E+007, +3.94537193635E+001, +3.64418546206E+002
+2.09802252816E+007, +3.97714122034E+001, +3.67086574407E+002
+2.11052565707E+007, +3.93811506701E+001, +3.70303776289E+002
+2.12302878598E+007, +3.95810314908E+001, +3.73098255346E+002
+2.13553191489E+007, +3.94876613343E+001, +3.74970183483E+002
+2.14803504380E+007, +3.94349252146E+001, +3.77715693866E+002
+2.16053817272E+007, +3.98073516754E+001, +3.80405242533E+002
+2.17304130163E+007, +4.04084018076E+001, +3.82707325205E+002
+2.18554443054E+007, +3.99577475645E+001, +3.85678964977E+002
+2.19804755945E+007, +4.06160577843E+001, +3.87926298500E+002
+2.21055068836E+007, +4.00937665889E+001, +3.91215951422E+002
+2.22305381727E+007, +4.07941498509E+001, +3.94052572753E+002
+2.23555694618E+007, +3.99936458365E+001, +3.96857195998E+002
+2.24806007509E+007, +4.05062038772E+001, +3.99470887794E+002
+2.26056320401E+007, +4.08932891035E+001, +4.01602043528E+002
+2.27306633292E+007, +4.09195065623E+001, +4.04649353856E+002
+2.28556946183E+007, +4.12175756192E+001, +4.07405972331E+002
+2.29807259074E+007, +4.16304905566E+001, +4.10594036798E+002
+2.31057571965E+007, +4.11468567109E+001, +4.12987875344E+002
+2.32307884856E+007, +4.14551945346E+001, +4.14598931568E+002
+2.33558197747E+007, +4.13496795428E+001, +4.18175673496E+002
+2.34808510638E+007, +4.15225123505E+001, +4.20915301173E+002
+2.36058823529E+007, +4.13989210188E+001, +4.23197062597E+002
+2.37309136421E+007, +4.19517836085E+001, +4.26046354059E+002
+2.38559449312E+007, +4.31090985773E+001, +4.28903149199E+002
+2.39809762203E+007, +4.22682512169E+001, +4.31761934397E+002
+2.41060075094E+007, +4.26887868062E+001, +4.34259960711E+002
+2.42310387985E+007, +4.33438689239E+001, +4.37247995964E+002
+2.43560700876E+007, +4.29617628406E+001, +4.40350215008E+002
+2.44811013767E+007, +4.36234532849E+001, +4.42556247892E+002
+2.46061326658E+007, +4.31735991865E+001, +4.45582355051E+002
+2.47311639549E+007, +4.35108380847E+001, +4.47641850594E+002
+2.48561952441E+007, +4.41265484251E+001, +4.49782623711E+002
+2.49812265332E+007, +4.41519534138E+001, +4.53210084966E+002
+2.51062578223E+007, +4.42785101167E+001, +4.56243039306E+002
+2.52312891114E+007, +4.48291429154E+001, +4.58181310537E+002
+2.53563204005E+007, +4.36744164667E+001, +4.61603844863E+002
+2.54813516896E+007, +4.45767901566E+001, +4.64576747320E+002
+2.56063829787E+007, +4.53515693304E+001, +4.66917464000E+002
+2.57314142678E+007, +4.48694506994E+001, +4.69844472480E+002
+2.58564455569E+007, +4.48090273372E+001, +4.73414181131E+002
+2.59814768461E+007, +4.52133187635E+001, +4.75925260022E+002
+2.61065081352E+007, +4.50132920195E+001, +4.78540226732E+002
+2.62315394243E+007, +4.46972602652E+001, +4.81087273014E+002
+2.63565707134E+007, +4.51438527451E+001, +4.84988781021E+002
+2.64816020025E+007, +4.43338413505E+001, +4.87453077725E+002
+2.66066332916E+007, +4.52852427078E+001, +4.90620995104E+002
+2.67316645807E+007, +4.53829159553E+001, +4.93550665520E+002
+2.68566958698E+007, +4.47115665606E+001, +4.96226416814E+002
+2.69817271589E+007, +4.51042539445E+001, +4.99471492803E+002
+2.71067584481E+007, +4.50804007213E+001, +5.02980430380E+002
+2.72317897372E+007, +4.55491902621E+001, +5.06381213346E+002
+2.73568210263E+007, +4.62196833913E+001, +5.09238439184E+002
+2.74818523154E+007, +4.61770764009E+001, +5.12823578021E+002
+2.76068836045E+007, +4.69182586315E+001, +5.16516907464E+002
+2.77319148936E+007, +4.68019469400E+001, +5.18057166891E+002
+2.78569461827E+007, +4.76586221156E+001, +5.21322650274E+002
+2.79819774718E+007, +4.68584940605E+001, +5.23821008952E+002
+2.81070087610E+007, +4.67316504705E+001, +5.26070830204E+002
+2.82320400501E+007, +4.79405418582E+001, +5.30149058387E+002
+2.83570713392E+007, +4.75790562397E+001, +5.32867103496E+002
+2.84821026283E+007, +4.71859879437E+001, +5.36426445713E+002
+2.86071339174E+007, +4.71243277548E+001, +5.40724226385E+002
+2.87321652065E+007, +4.79943241726E+001, +5.43067851925E+002
+2.88571964956E+007, +4.76537885346E+001, +5.47282582451E+002
+2.89822277847E+007, +4.78880757962E+001, +5.50483008575E+002
+2.91072590738E+007, +4.82232636175E+001, +5.53916736815E+002
+2.92322903630E+007, +4.85510585535E+001, +5.56050708104E+002
+2.93573216521E+007, +4.83512384488E+001, +5.60305636100E+002
+2.94823529412E+007, +4.86303598749E+001, +5.63628404527E+002
+2.96073842303E+007, +4.76396117189E+001, +5.66451952656E+002
+2.97324155194E+007, +4.69885647738E+001, +5.70803687787E+002
+2.98574468085E+007, +5.00151153759E+001, +5.73734521355E+002
+2.99824780976E+007, +4.99854457389E+001, +5.78252265498E+002
+3.01075093867E+007, +4.99184076589E+001, +5.80768047956E+002
+3.02325406758E+007, +5.01598487215E+001, +5.83668286926E+002
+3.03575719650E+007, +4.83744219612E+001, +5.86112002945E+002
+3.04826032541E+007, +5.01648822615E+001, +5.91479395284E+002
+3.06076345432E+007, +5.06105772074E+001, +5.94527829020E+002
+3.07326658323E+007, +5.19413600715E+001, +5.97938600470E+002
+3.08576971214E+007, +5.09971959357E+001, +6.02422320073E+002
+3.09827284105E+007, +5.20052986751E+001, +6.03135175142E+002
+3.11077596996E+007, +5.25521873808E+001, +6.06409021504E+002
+3.12327909887E+007, +5.26219518695E+001, +6.13088388874E+002
+3.13578222778E+007, +5.36967377227E+001, +6.15961631393E+002
+3.14828535670E+007, +5.35422878476E+001, +6.18192870382E+002
+3.16078848561E+007, +5.10181047465E+001, +6.22214378131E+002
+3.17329161452E+007, +5.27929920467E+001, +6.24971054482E+002
+3.18579474343E+007, +5.46608373572E+001, +6.29458180190E+002
+3.19829787234E+007, +5.33316836699E+001, +6.32790681097E+002
+3.21080100125E+007, +5.49643414001E+001, +6.37552438229E+002
+3.22330413016E+007, +5.47229608907E+001, +6.40960981203E+002
+3.23580725907E+007, +5.50016718906E+001, +6.44738834453E+002
+3.24831038798E+007, +5.67858250791E+001, +6.46881889117E+002
+3.26081351690E+007, +5.45699697484E+001, +6.52467988762E+002
+3.27331664581E+007, +5.74530944298E+001, +6.56088010111E+002
+3.28581977472E+007, +5.77704380530E+001, +6.59253776989E+002
+3.29832290363E+007, +5.64327280369E+001, +6.64022754692E+002
+3.31082603254E+007, +5.66955882613E+001, +6.66972748211E+002
+3.32332916145E+007, +5.82875610870E+001, +6.72247146557E+002
+3.33583229036E+007, +5.94846886216E+001, +6.74312110078E+002
+3.34833541927E+007, +5.62336515946E+001, +6.80189269404E+002
+3.36083854819E+007, +5.74244212199E+001, +6.81178906675E+002
+3.37334167710E+007, +5.76738621116E+001, +6.86661570306E+002
+3.38584480601E+007, +5.88483281134E+001, +6.90664297728E+002
+3.39834793492E+007, +5.79663296822E+001, +6.93423335743E+002
+3.41085106383E+007, +5.75739106536E+001, +6.98660842806E+002
+3.42335419274E+007, +6.02684103247E+001, +7.02460543248E+002
+3.43585732165E+007, +6.21047430482E+001, +7.06373291660E+002
+3.44836045056E+007, +6.25151988502E+001, +7.10704724485E+002
+3.46086357947E+007, +6.11958519019E+001, +7.16180089548E+002
+3.47336670839E+007, +6.21457569878E+001, +7.19770708877E+002
+3.48586983730E+007, +6.50776147092E+001, +7.23520180375E+002
+3.49837296621E+007, +6.27860920289E+001, +7.28115593710E+002
+3.51087609512E+007, +6.26196413528E+001, +7.29304218551E+002
+3.52337922403E+007, +6.65043999284E+001, +7.35782324227E+002
+3.53588235294E+007, +6.44415035229E+001, +7.39185067549E+002
+3.54838548185E+007, +6.60878982804E+001, +7.44225319002E+002
+3.56088861076E+007, +6.61195313439E+001, +7.49099276573E+002
+3.57339173967E+007, +6.67927452092E+001, +7.51440898339E+002
+3.58589486859E+007, +6.70274443974E+001, +7.59133950801E+002
+3.59839799750E+007, +6.69043874875E+001, +7.61881068524E+002
+3.61090112641E+007, +6.85842890106E+001, +7.66522129709E+002
+3.62340425532E+007, +6.72804476676E+001, +7.70207281256E+002
+3.63590738423E+007, +6.82385270589E+001, +7.76840248826E+002
+3.64841051314E+007, +6.95285220497E+001, +7.81244551183E+002
+3.66091364205E+007, +7.06628206270E+001, +7.82862383420E+002
+3.67341677096E+007, +6.92894216263E+001, +7.90296201768E+002
+3.68591989987E+007, +6.92552809145E+001, +7.92961732897E+002
+3.69842302879E+007, +7.19273749315E+001, +7.97440542434E+002
+3.71092615770E+007, +7.15638835958E+001, +8.04236870814E+002
+3.72342928661E+007, +7.22075060647E+001, +8.07417418724E+002
+3.73593241552E+007, +7.22578258476E+001, +8.13754854608E+002
+3.74843554443E+007, +7.20685844873E+001, +8.16481285637E+002
+3.76093867334E+007, +7.49070068675E+001, +8.23296347357E+002
+3.77344180225E+007, +7.47885721098E+001, +8.26543881853E+002
+3.78594493116E+007, +7.64796417594E+001, +8.31195893943E+002
+3.79844806008E+007, +7.76159882384E+001, +8.35966863519E+002
+3.81095118899E+007, +7.69384504174E+001, +8.41116839077E+002
+3.82345431790E+007, +7.70240083114E+001, +8.49331919233E+002
+3.83595744681E+007, +7.79120238218E+001, +8.55225733266E+002
+3.84846057572E+007, +8.00086217558E+001, +8.60471198828E+002
+3.86096370463E+007, +8.14236039483E+001, +8.63772773854E+002
+3.87346683354E+007, +8.17985417856E+001, +8.70195356020E+002
+3.88596996245E+007, +8.30237021766E+001, +8.74819560847E+002
+3.89847309136E+007, +8.13054685068E+001, +8.79455411745E+002
+3.91097622028E+007, +8.14355951323E+001, +8.85710660605E+002
+3.92347934919E+007, +8.03648148631E+001, +8.93171286482E+002
+3.93598247810E+007, +8.25496731887E+001, +8.95548978534E+002
+3.94848560701E+007, +8.64964187085E+001, +9.02384649088E+002
+3.96098873592E+007, +8.42360473635E+001, +9.10044334841E+002
+3.97349186483E+007, +8.45456123896E+001, +9.14210772910E+002
+3.98599499374E+007, +8.74505416729E+001, +9.17898274126E+002
+3.99849812265E+007, +8.87822341872E+001, +9.26035473712E+002
+4.01100125156E+007, +8.84224037427E+001, +9.31089669223E+002
