"# Channel 1"
"# Trace 1"
Frequency, Formatted Data, Formatted Data
+1.00000000000E+005, +2.18384808742E+001, +1.61996986085E+000
+2.66777963272E+005, +2.18345609430E+001, +4.41639497892E+000
+4.33555926544E+005, +2.18460782412E+001, +7.21416573030E+000
+6.00333889816E+005, +2.18473571382E+001, +9.94669720043E+000
+7.67111853088E+005, +2.18897257380E+001, +1.27098843460E+001
+9.33889816361E+005, +2.18818205271E+001, +1.54304465885E+001
+1.10066777963E+006, +2.18733826066E+001, +1.82549274651E+001
+1.26744574290E+006, +2.18843411664E+001, +2.09946027802E+001
+1.43422370618E+006, +2.18534427318E+001, +2.37940668254E+001
+1.60100166945E+006, +2.19021630638E+001, +2.64735044064E+001
+1.76777963272E+006, +2.19030103516E+001, +2.92376911684E+001
+1.93455759599E+006, +2.18730161277E+001, +3.19746088716E+001
+2.10133555927E+006, +2.18612042563E+001, +3.47255714236E+001
+2.26811352254E+006, +2.19281050162E+001, +3.74992617382E+001
+2.43489148581E+006, +2.19393351727E+001, +4.03225733268E+001
+2.60166944908E+006, +2.19232341828E+001, +4.29902189386E+001
+2.76844741235E+006, +2.18908314682E+001, +4.58535191693E+001
+2.93522537563E+006, +2.19071961904E+001, +4.86055219554E+001
+3.10200333890E+006, +2.20029959998E+001, +5.12824311824E+001
+3.26878130217E+006, +2.18643302500E+001, +5.41156975864E+001
+3.43555926544E+006, +2.19108127183E+001, +5.68102230220E+001
+3.60233722871E+006, +2.20178409211E+001, +5.96384693485E+001
+3.76911519199E+006, +2.19813017670E+001, +6.24679049074E+001
+3.93589315526E+006, +2.18898506545E+001, +6.51692020759E+001
+4.10267111853E+006, +2.19922931315E+001, +6.81221177018E+001
+4.26944908180E+006, +2.20049419035E+001, +7.08521481769E+001
+4.43622704508E+006, +2.19723850571E+001, +7.35283379585E+001
+4.60300500835E+006, +2.20525598409E+001, +7.64076807799E+001
+4.76978297162E+006, +2.20265072269E+001, +7.91966592378E+001
+4.93656093489E+006, +2.21532269495E+001, +8.20220887798E+001
+5.10333889816E+006, +2.20864501678E+001, +8.46897763405E+001
+5.27011686144E+006, +2.23132233697E+001, +8.77313661641E+001
+5.43689482471E+006, +2.20863791935E+001, +9.03820754957E+001
+5.60367278798E+006, +2.23443692911E+001, +9.33743044015E+001
+5.77045075125E+006, +2.20745919266E+001, +9.59665021375E+001
+5.93722871452E+006, +2.23173008071E+001, +9.88708077310E+001
+6.10400667780E+006, +2.23333795637E+001, +1.01683950013E+002
+6.27078464107E+006, +2.23842821111E+001, +1.04479829864E+002
+6.43756260434E+006, +2.23861865468E+001, +1.07363784467E+002
+6.60434056761E+006, +2.24693057884E+001, +1.10138396356E+002
+6.77111853088E+006, +2.26135988878E+001, +1.12880650527E+002
+6.93789649416E+006, +2.25975115452E+001, +1.15848712642E+002
+7.10467445743E+006, +2.25536833356E+001, +1.18618137317E+002
+7.27145242070E+006, +2.26883855631E+001, +1.21423499472E+002
+7.43823038397E+006, +2.27171811658E+001, +1.24209482009E+002
+7.60500834725E+006, +2.26231785062E+001, +1.27152092106E+002
+7.77178631052E+006, +2.28492319110E+001, +1.30088450215E+002
+7.93856427379E+006, +2.27154227613E+001, +1.32764219828E+002
+8.10534223706E+006, +2.27614377213E+001, +1.35579533195E+002
+8.27212020033E+006, +2.28092185620E+001, +1.38623185523E+002
+8.43889816361E+006, +2.27514246131E+001, +1.41462625226E+002
+8.60567612688E+006, +2.26610368710E+001, +1.44419118942E+002
+8.77245409015E+006, +2.27750808525E+001, +1.47164893212E+002
+8.93923205342E+006, +2.28349037513E+001, +1.50176004472E+002
+9.10601001669E+006, +2.29571549325E+001, +1.53223186775E+002
+9.27278797997E+006, +2.28830113909E+001, +1.55938699004E+002
+9.43956594324E+006, +2.29710030533E+001, +1.58912996511E+002
+9.60634390651E+006, +2.28531650073E+001, +1.61895449529E+002
+9.77312186978E+006, +2.27987004986E+001, +1.64800026445E+002
+9.93989983306E+006, +2.31843353567E+001, +1.67720097292E+002
+1.01066777963E+007, +2.28199118306E+001, +1.70813902337E+002
+1.02734557596E+007, +2.30536243541E+001, +1.73813826113E+002
+1.04402337229E+007, +2.30026829453E+001, +1.76659658198E+002
+1.06070116861E+007, +2.28159373578E+001, +1.79526717500E+002
+1.07737896494E+007, +2.30517539832E+001, +1.82828982482E+002
+1.09405676127E+007, +2.33864260356E+001, +1.85552553846E+002
+1.11073455760E+007, +2.31057806867E+001, +1.88728168968E+002
+1.12741235392E+007, +2.32259539486E+001, +1.91603108245E+002
+1.14409015025E+007, +2.33913216715E+001, +1.94696644119E+002
+1.16076794658E+007, +2.33589586281E+001, +1.97577203442E+002
+1.17744574290E+007, +2.34969488265E+001, +2.00945808804E+002
+1.19412353923E+007, +2.34895820983E+001, +2.03823481220E+002
+1.21080133556E+007, +2.33275908141E+001, +2.06866197436E+002
+1.22747913189E+007, +2.35161368797E+001, +2.09970898663E+002
+1.24415692821E+007, +2.33012466063E+001, +2.12787429468E+002
+1.26083472454E+007, +2.33430960976E+001, +2.16333876196E+002
+1.27751252087E+007, +2.33869529011E+001, +2.19093364531E+002
+1.29419031720E+007, +2.34531844272E+001, +2.22029723367E+002
+1.31086811352E+007, +2.35608449855E+001, +2.25453923553E+002
+1.32754590985E+007, +2.38495678375E+001, +2.28404234880E+002
+1.34422370618E+007, +2.38470796641E+001, +2.31777177918E+002
+1.36090150250E+007, +2.41560639531E+001, +2.34583778261E+002
+1.37757929883E+007, +2.39558824228E+001, +2.38001377469E+002
+1.39425709516E+007, +2.41264821115E+001, +2.40785147947E+002
+1.41093489149E+007, +2.39374461870E+001, +2.44166887614E+002
+1.42761268781E+007, +2.42219828425E+001, +2.47209131167E+002
+1.44429048414E+007, +2.44275618552E+001, +2.50229532294E+002
+1.46096828047E+007, +2.42672507993E+001, +2.53909236958E+002
+1.47764607679E+007, +2.46112317991E+001, +2.56894374942E+002
+1.49432387312E+007, +2.42120959374E+001, +2.60088588078E+002
+1.51100166945E+007, +2.42912498291E+001, +2.63484195511E+002
+1.52767946578E+007, +2.44738203359E+001, +2.66501452350E+002
+1.54435726210E+007, +2.46853888449E+001, +2.69392392990E+002
+1.56103505843E+007, +2.48701746839E+001, +2.72966722431E+002
+1.57771285476E+007, +2.47880246967E+001, +2.76451952709E+002
+1.59439065109E+007, +2.47921324784E+001, +2.80042437454E+002
+1.61106844741E+007, +2.51149797351E+001, +2.82850970880E+002
+1.62774624374E+007, +2.51614081944E+001, +2.85966287054E+002
+1.64442404007E+007, +2.48610904631E+001, +2.89653350871E+002
+1.66110183639E+007, +2.51250134881E+001, +2.93003081053E+002
+1.67777963272E+007, +2.52314230048E+001, +2.96825164937E+002
+1.69445742905E+007, +2.53144568810E+001, +2.99789367118E+002
+1.71113522538E+007, +2.47117875173E+001, +3.02743437265E+002
+1.72781302170E+007, +2.52540352708E+001, +3.06683100328E+002
+1.74449081803E+007, +2.52018285089E+001, +3.09580752497E+002
+1.76116861436E+007, +2.56517860010E+001, +3.13706799028E+002
+1.77784641068E+007, +2.55036981699E+001, +3.16404242729E+002
+1.79452420701E+007, +2.59715339128E+001, +3.19464489428E+002
+1.81120200334E+007, +2.60790541523E+001, +3.23402722882E+002
+1.82787979967E+007, +2.63915735066E+001, +3.26962630241E+002
+1.84455759599E+007, +2.63384999807E+001, +3.30623477778E+002
+1.86123539232E+007, +2.66339931274E+001, +3.33944499009E+002
+1.87791318865E+007, +2.63758564061E+001, +3.38042357334E+002
+1.89459098497E+007, +2.65188167486E+001, +3.41489228966E+002
+1.91126878130E+007, +2.70484454191E+001, +3.44405364584E+002
+1.92794657763E+007, +2.67790355903E+001, +3.48153666974E+002
+1.94462437396E+007, +2.72515515165E+001, +3.51973467804E+002
+1.96130217028E+007, +2.69487215824E+001, +3.55697257109E+002
+1.97797996661E+007, +2.71676645623E+001, +3.58726042691E+002
+1.99465776294E+007, +2.62732314250E+001, +3.62918194968E+002
+2.01133555927E+007, +2.72697118625E+001, +3.66642131699E+002
+2.02801335559E+007, +2.71203185454E+001, +3.70621145900E+002
+2.04469115192E+007, +2.87293682084E+001, +3.73871007823E+002
+2.06136894825E+007, +2.81776013709E+001, +3.77474793491E+002
+2.07804674457E+007, +2.83095301631E+001, +3.81607138350E+002
+2.09472454090E+007, +2.80493762889E+001, +3.84839205136E+002
+2.11140233723E+007, +2.87122926991E+001, +3.89200809931E+002
+2.12808013356E+007, +2.88476311983E+001, +3.92938138490E+002
+2.14475792988E+007, +2.89678991089E+001, +3.96508268394E+002
+2.16143572621E+007, +2.95006336804E+001, +4.00175694579E+002
+2.17811352254E+007, +2.86577215226E+001, +4.03577079714E+002
+2.19479131886E+007, +3.01148976368E+001, +4.08326921995E+002
+2.21146911519E+007, +3.08892081810E+001, +4.11527442309E+002
+2.22814691152E+007, +2.95332813547E+001, +4.16059213747E+002
+2.24482470785E+007, +3.03906018537E+001, +4.20868919044E+002
+2.26150250417E+007, +3.11115413832E+001, +4.23473729488E+002
+2.27818030050E+007, +3.08495293732E+001, +4.28274034736E+002
+2.29485809683E+007, +3.21534424855E+001, +4.31245461356E+002
+2.31153589316E+007, +3.12717418536E+001, +4.36123838394E+002
+2.32821368948E+007, +3.20994194249E+001, +4.40354943568E+002
+2.34489148581E+007, +3.22074623595E+001, +4.43474390484E+002
+2.36156928214E+007, +3.27734862593E+001, +4.47762302921E+002
+2.37824707846E+007, +3.28067988228E+001, +4.51700160411E+002
+2.39492487479E+007, +3.21333422615E+001, +4.55813185495E+002
+2.41160267112E+007, +3.33726553046E+001, +4.60288442488E+002
+2.42828046745E+007, +3.32237884891E+001, +4.63327420574E+002
+2.44495826377E+007, +3.46079714895E+001, +4.69294341359E+002
+2.46163606010E+007, +3.30928858818E+001, +4.71667439847E+002
+2.47831385643E+007, +3.36680268547E+001, +4.77004639261E+002
+2.49499165275E+007, +3.54301903632E+001, +4.79969921521E+002
+2.51166944908E+007, +3.65015555673E+001, +4.84345668835E+002
+2.52834724541E+007, +3.58142270574E+001, +4.88823013489E+002
+2.54502504174E+007, +3.62503362606E+001, +4.93419269616E+002
+2.56170283806E+007, +3.57567307671E+001, +4.97505356440E+002
+2.57838063439E+007, +3.64287443329E+001, +5.03012836890E+002
+2.59505843072E+007, +3.71537204492E+001, +5.07737807125E+002
+2.61173622705E+007, +3.69686958074E+001, +5.10719423594E+002
+2.62841402337E+007, +3.76904277584E+001, +5.15849974269E+002
+2.64509181970E+007, +3.70148528748E+001, +5.19809355409E+002
+2.66176961603E+007, +3.75658147536E+001, +5.26180325180E+002
+2.67844741235E+007, +3.84220711537E+001, +5.29549278947E+002
+2.69512520868E+007, +3.81805719501E+001, +5.34066449738E+002
+2.71180300501E+007, +3.90893317665E+001, +5.37415856857E+002
+2.72848080134E+007, +3.93644776100E+001, +5.42877682869E+002
+2.74515859766E+007, +3.93441439720E+001, +5.46800094597E+002
+2.76183639399E+007, +3.88228859239E+001, +5.52931180490E+002
+2.77851419032E+007, +3.87411809823E+001, +5.57792465489E+002
+2.79519198664E+007, +4.04670220719E+001, +5.61455508606E+002
+2.81186978297E+007, +4.08148202318E+001, +5.65349799827E+002
+2.82854757930E+007, +4.08872555023E+001, +5.70342411243E+002
+2.84522537563E+007, +4.00329688669E+001, +5.76870123437E+002
+2.86190317195E+007, +4.02162949460E+001, +5.81447976313E+002
+2.87858096828E+007, +4.45003203054E+001, +5.85297727730E+002
+2.89525876461E+007, +4.37954942825E+001, +5.91379108758E+002
+2.91193656093E+007, +4.31725783902E+001, +5.95703227896E+002
+2.92861435726E+007, +4.26570926426E+001, +6.00363453996E+002
+2.94529215359E+007, +4.46499078850E+001, +6.05589414768E+002
+2.96196994992E+007, +4.52312038935E+001, +6.12329542072E+002
+2.97864774624E+007, +4.64199573109E+001, +6.16338840762E+002
+2.99532554257E+007, +4.48656213683E+001, +6.22018019197E+002
+3.01200333890E+007, +4.62578434667E+001, +6.28370495525E+002
+3.02868113523E+007, +4.54009102775E+001, +6.33395348966E+002
+3.04535893155E+007, +4.53213318876E+001, +6.39368028760E+002
+3.06203672788E+007, +4.75086727803E+001, +6.44310369522E+002
+3.07871452421E+007, +4.51561890320E+001, +6.50132973888E+002
+3.09539232053E+007, +4.77149595944E+001, +6.53687301994E+002
+3.11207011686E+007, +4.76414078363E+001, +6.59123321717E+002
+3.12874791319E+007, +4.87789538297E+001, +6.64304504134E+002
+3.14542570952E+007, +4.94471067748E+001, +6.70932214616E+002
+3.16210350584E+007, +4.96553533558E+001, +6.76897749394E+002
+3.17878130217E+007, +4.84499649627E+001, +6.82708988901E+002
+3.19545909850E+007, +4.91264711879E+001, +6.86674746910E+002
+3.21213689482E+007, +4.79089876432E+001, +6.94011058670E+002
+3.22881469115E+007, +4.83199433206E+001, +6.99653733437E+002
+3.24549248748E+007, +5.22942549959E+001, +7.06719515146E+002
+3.26217028381E+007, +5.04478565313E+001, +7.12822985265E+002
+3.27884808013E+007, +5.14872197939E+001, +7.18028128017E+002
+3.29552587646E+007, +5.35284326514E+001, +7.23016663285E+002
+3.31220367279E+007, +5.28833262027E+001, +7.29279620423E+002
+3.32888146912E+007, +5.13373922855E+001, +7.37691366496E+002
+3.34555926544E+007, +5.28284070671E+001, +7.42932627024E+002
+3.36223706177E+007, +5.38294224837E+001, +7.47606531782E+002
+3.37891485810E+007, +5.37468579177E+001, +7.53196364344E+002
+3.39559265442E+007, +5.28131489506E+001, +7.65550020837E+002
+3.41227045075E+007, +5.51755638523E+001, +7.67916633015E+002
+3.42894824708E+007, +5.42792607846E+001, +7.75907697750E+002
+3.44562604341E+007, +5.47982519214E+001, +7.80914489372E+002
+3.46230383973E+007, +5.60945093096E+001, +7.91770298718E+002
+3.47898163606E+007, +5.79583529032E+001, +7.96017898097E+002
+3.49565943239E+007, +6.00549702531E+001, +8.05255789541E+002
+3.51233722871E+007, +5.89336587448E+001, +8.11268689785E+002
+3.52901502504E+007, +6.10008374888E+001, +8.15078621078E+002
+3.54569282137E+007, +5.94294545611E+001, +8.23169095874E+002
+3.56237061770E+007, +5.87295089861E+001, +8.30732130789E+002
+3.57904841402E+007, +6.12146218576E+001, +8.38829080375E+002
+3.59572621035E+007, +5.88018850786E+001, +8.47235278212E+002
+3.61240400668E+007, +6.16727712742E+001, +8.54121451303E+002
+3.62908180301E+007, +6.21553966234E+001, +8.65193040902E+002
+3.64575959933E+007, +6.22621993620E+001, +8.73076804464E+002
+3.66243739566E+007, +6.63764633765E+001, +8.74408530046E+002
+3.67911519199E+007, +6.45829570762E+001, +8.89942494511E+002
+3.69579298831E+007, +6.30812563929E+001, +8.92799104242E+002
+3.71247078464E+007, +6.62528580622E+001, +9.02661837266E+002
+3.72914858097E+007, +6.91599909150E+001, +9.13382688579E+002
+3.74582637730E+007, +6.69795966676E+001, +9.23738413796E+002
+3.76250417362E+007, +7.11913182065E+001, +9.29219121391E+002
+3.77918196995E+007, +6.90248246273E+001, +9.38343978113E+002
+3.79585976628E+007, +6.88751805138E+001, +9.46519373002E+002
+3.81253756260E+007, +7.11392356743E+001, +9.54444750181E+002
+3.82921535893E+007, +7.56373434271E+001, +9.63905132504E+002
+3.84589315526E+007, +7.66999763254E+001, +9.76884586094E+002
+3.86257095159E+007, +7.29075470676E+001, +9.83056503681E+002
+3.87924874791E+007, +7.74848595779E+001, +9.97649580524E+002
+3.89592654424E+007, +7.53143707767E+001, +1.00406182858E+003
+3.91260434057E+007, +8.42085998189E+001, +1.01755108658E+003
+3.92928213689E+007, +7.98067434249E+001, +1.02153165913E+003
+3.94595993322E+007, +8.20260097518E+001, +1.03154194706E+003
+3.96263772955E+007, +8.31445752222E+001, +1.04085913350E+003
+3.97931552588E+007, +7.79862382486E+001, +1.05377394308E+003
+3.99599332220E+007, +8.31409130110E+001, +1.06580458760E+003
+4.01267111853E+007, +8.20422073166E+001, +1.07765029982E+003
+4.02934891486E+007, +8.34599439985E+001, +1.08209759199E+003
+4.04602671119E+007, +8.56225089228E+001, +1.09069141296E+003
+4.06270450751E+007, +8.95587050032E+001, +1.11174924801E+003
+4.07938230384E+007, +8.90964538239E+001, +1.12321542750E+003
+4.09606010017E+007, +9.09928165061E+001, +1.13205498203E+003
+4.11273789649E+007, +9.15402211210E+001, +1.13861808137E+003
+4.12941569282E+007, +9.35605641701E+001, +1.16197698059E+003
+4.14609348915E+007, +9.57648804310E+001, +1.16948630347E+003
+4.16277128548E+007, +9.65056675857E+001, +1.18211480600E+003
+4.17944908180E+007, +9.97886803392E+001, +1.19402442646E+003
+4.19612687813E+007, +9.83470718470E+001, +1.21241491775E+003
+4.21280467446E+007, +1.02405964736E+002, +1.22273801271E+003
+4.22948247078E+007, +1.05911389754E+002, +1.22821561097E+003
+4.24616026711E+007, +1.08764088539E+002, +1.24891764466E+003
+4.26283806344E+007, +1.10338070287E+002, +1.26116664765E+003
+4.27951585977E+007, +1.04980345251E+002, +1.28303815976E+003
+4.29619365609E+007, +1.16638394407E+002, +1.28477857771E+003
+4.31287145242E+007, +1.18514931996E+002, +1.31072759219E+003
+4.32954924875E+007, +1.13494808172E+002, +1.32148349446E+003
+4.34622704508E+007, +1.20558511366E+002, +1.33489234903E+003
+4.36290484140E+007, +1.28625528684E+002, +1.35166153829E+003
+4.37958263773E+007, +1.25656571557E+002, +1.37109513597E+003
+4.39626043406E+007, +1.32605420491E+002, +1.38351935868E+003
+4.41293823038E+007, +1.47813665353E+002, +1.40552663711E+003
+4.42961602671E+007, +1.36175339422E+002, +1.42227787363E+003
+4.44629382304E+007, +1.39643968544E+002, +1.44230937802E+003
+4.46297161937E+007, +1.45698831991E+002, +1.45510039972E+003
+4.47964941569E+007, +1.38188822131E+002, +1.47559335787E+003
+4.49632721202E+007, +1.45020968173E+002, +1.50335646142E+003
+4.51300500835E+007, +1.49753210879E+002, +1.50814353658E+003
+4.52968280467E+007, +1.68504080654E+002, +1.53151097139E+003
+4.54636060100E+007, +1.67086598578E+002, +1.55584665985E+003
+4.56303839733E+007, +1.65082436022E+002, +1.58302532232E+003
+4.57971619366E+007, +1.68485830567E+002, +1.60372433281E+003
+4.59639398998E+007, +1.68809960867E+002, +1.64400379360E+003
+4.61307178631E+007, +1.82843616054E+002, +1.65518422527E+003
+4.62974958264E+007, +1.99614762287E+002, +1.67140760485E+003
+4.64642737896E+007, +1.88594801117E+002, +1.69866675860E+003
+4.66310517529E+007, +1.87092132702E+002, +1.72541135815E+003
+4.67978297162E+007, +2.25429201274E+002, +1.73553009956E+003
+4.69646076795E+007, +2.09160603645E+002, +1.78359067889E+003
+4.71313856427E+007, +2.23443342039E+002, +1.79566091785E+003
+4.72981636060E+007, +2.30853211760E+002, +1.83947105146E+003
+4.74649415693E+007, +2.42916476732E+002, +1.86345685667E+003
+4.76317195326E+007, +2.63032266477E+002, +1.88890281206E+003
+4.77984974958E+007, +2.61547082913E+002, +1.91648563192E+003
+4.79652754591E+007, +2.80992602839E+002, +1.95207901235E+003
+4.81320534224E+007, +2.76391035023E+002, +1.96900908423E+003
+4.82988313856E+007, +3.02242331085E+002, +2.00073544141E+003
+4.84656093489E+007, +3.17175475707E+002, +2.04449433554E+003
+4.86323873122E+007, +3.25713261878E+002, +2.05075977874E+003
+4.87991652755E+007, +3.36124340979E+002, +2.09677695046E+003
+4.89659432387E+007, +3.58407429447E+002, +2.14066961774E+003
+4.91327212020E+007, +3.80009765808E+002, +2.17007828411E+003
+4.92994991653E+007, +4.12244318635E+002, +2.20405932443E+003
+4.94662771285E+007, +4.41478800155E+002, +2.24182779025E+003
+4.96330550918E+007, +4.49744451659E+002, +2.28716504229E+003
+4.97998330551E+007, +4.50994664573E+002, +2.29746161966E+003
+4.99666110184E+007, +5.01575732198E+002, +2.34153758100E+003
+5.01333889816E+007, +4.91637115632E+002, +2.36687686846E+003
+5.03001669449E+007, +5.09156578005E+002, +2.43019496419E+003
+5.04669449082E+007, +5.61693594172E+002, +2.46419619941E+003
+5.06337228715E+007, +5.99820039683E+002, +2.51044244992E+003
+5.08005008347E+007, +5.91156330337E+002, +2.53085911338E+003
+5.09672787980E+007, +6.29562610810E+002, +2.56694370277E+003
+5.11340567613E+007, +6.56076962597E+002, +2.63500831943E+003
+5.13008347245E+007, +6.60558290225E+002, +2.67790271145E+003
+5.14676126878E+007, +6.69885011740E+002, +2.71906096951E+003
+5.16343906511E+007, +7.34359756560E+002, +2.78302826076E+003
+5.18011686144E+007, +7.08444070986E+002, +2.82449326512E+003
+5.19679465776E+007, +7.51541816975E+002, +2.88707220326E+003
+5.21347245409E+007, +8.23728338015E+002, +2.95293399840E+003
+5.23015025042E+007, +8.30769146399E+002, +3.04787223795E+003
+5.24682804674E+007, +8.19186885106E+002, +3.13514194357E+003
+5.26350584307E+007, +8.54062301427E+002, +3.19110391947E+003
+5.28018363940E+007, +8.92125303108E+002, +3.26030024078E+003
+5.29686143573E+007, +9.91555585558E+002, +3.36801021162E+003
+5.31353923205E+007, +9.67975534623E+002, +3.38063514068E+003
+5.33021702838E+007, +9.78097060483E+002, +3.54841557722E+003
+5.34689482471E+007, +1.16813021473E+003, +3.63383687230E+003
