"# Channel 1"
"# Trace 1"
Frequency, Formatted Data, Formatted Data
+1.00000000000E+005, +1.55995398977E-001, +1.52819498426E+000
+2.66777963272E+005, +1.67119115678E-001, +4.03364045880E+000
+4.33555926544E+005, +1.80388893771E-001, +6.55647267662E+000
+6.00333889816E+005, +2.40469207802E-001, +9.02148123738E+000
+7.67111853088E+005, +2.54509488057E-001, +1.15260394356E+001
+9.33889816361E+005, +2.83495232034E-001, +1.39786751385E+001
+1.10066777963E+006, +2.55581820069E-001, +1.64737846216E+001
+1.26744574290E+006, +3.08484499557E-001, +1.89288586360E+001
+1.43422370618E+006, +2.44587670608E-001, +2.14277332991E+001
+1.60100166945E+006, +3.26859401056E-001, +2.38494688764E+001
+1.76777963272E+006, +3.43556678637E-001, +2.63194882445E+001
+1.93455759599E+006, +3.62296277175E-001, +2.87334845106E+001
+2.10133555927E+006, +3.63857275992E-001, +3.11884164782E+001
+2.26811352254E+006, +4.00549530001E-001, +3.36979242505E+001
+2.43489148581E+006, +3.73277950156E-001, +3.61936025561E+001
+2.60166944908E+006, +3.88287218550E-001, +3.86215010847E+001
+2.76844741235E+006, +3.53607902445E-001, +4.11674716638E+001
+2.93522537563E+006, +3.52718573719E-001, +4.36146181032E+001
+3.10200333890E+006, +4.57519076651E-001, +4.60283884373E+001
+3.26878130217E+006, +2.75942569616E-001, +4.85679511112E+001
+3.43555926544E+006, +3.91309038978E-001, +5.10259345608E+001
+3.60233722871E+006, +4.49348767839E-001, +5.35237073793E+001
+3.76911519199E+006, +3.96268833827E-001, +5.61134075322E+001
+3.93589315526E+006, +4.19139722202E-001, +5.83926173424E+001
+4.10267111853E+006, +1.93911186642E-001, +6.07685657959E+001
+4.26944908180E+006, +2.55372968296E-001, +6.37708727830E+001
+4.43622704508E+006, +4.00361985656E-001, +6.60056509894E+001
+4.60300500835E+006, +3.65789573752E-001, +6.85743381395E+001
+4.76978297162E+006, +3.84887928740E-001, +7.09540777061E+001
+4.93656093489E+006, +4.68344299827E-001, +7.35278764158E+001
+5.10333889816E+006, +5.03661624895E-001, +7.60121398515E+001
+5.27011686144E+006, +6.05427924951E-001, +7.86775333484E+001
+5.43689482471E+006, +4.63164393271E-001, +8.10611085828E+001
+5.60367278798E+006, +4.91329261939E-001, +8.37526333163E+001
+5.77045075125E+006, +4.34544160127E-001, +8.60652082462E+001
+5.93722871452E+006, +5.99436830203E-001, +8.86473193908E+001
+6.10400667780E+006, +5.78120842313E-001, +9.11922908915E+001
+6.27078464107E+006, +6.47772436105E-001, +9.37192592602E+001
+6.43756260434E+006, +6.75937989580E-001, +9.63030430861E+001
+6.60434056761E+006, +7.12284502950E-001, +9.87634873295E+001
+6.77111853088E+006, +8.04532139859E-001, +1.01290954932E+002
+6.93789649416E+006, +6.89086046003E-001, +1.03868508340E+002
+7.10467445743E+006, +6.92055323829E-001, +1.06317934408E+002
+7.27145242070E+006, +7.52286410705E-001, +1.08813850771E+002
+7.43823038397E+006, +7.60071636387E-001, +1.11355002503E+002
+7.60500834725E+006, +6.96928377248E-001, +1.13928091637E+002
+7.77178631052E+006, +7.63577303377E-001, +1.16579387876E+002
+7.93856427379E+006, +7.41033888535E-001, +1.18944928287E+002
+8.10534223706E+006, +7.79676557799E-001, +1.21531364031E+002
+8.27212020033E+006, +7.67713588788E-001, +1.24115244102E+002
+8.43889816361E+006, +6.46509636619E-001, +1.26719104367E+002
+8.60567612688E+006, +6.03694229843E-001, +1.29263321657E+002
+8.77245409015E+006, +5.98914478334E-001, +1.31809119991E+002
+8.93923205342E+006, +6.64244105129E-001, +1.34429951777E+002
+9.10601001669E+006, +5.77653529831E-001, +1.37180752396E+002
+9.27278797997E+006, +6.56237519401E-001, +1.39756968511E+002
+9.43956594324E+006, +6.17781519147E-001, +1.42279159165E+002
+9.60634390651E+006, +4.84347775332E-001, +1.44954013525E+002
+9.77312186978E+006, +4.36401611443E-001, +1.47589359638E+002
+9.93989983306E+006, +6.48870101715E-001, +1.50294624143E+002
+1.01066777963E+007, +3.84607027212E-001, +1.52810796698E+002
+1.02734557596E+007, +4.86196990928E-001, +1.55603097732E+002
+1.04402337229E+007, +2.79815755834E-001, +1.58172425912E+002
+1.06070116861E+007, +3.98387904177E-001, +1.60797752300E+002
+1.07737896494E+007, +3.87662263569E-001, +1.63546114382E+002
+1.09405676127E+007, +5.51053415890E-001, +1.66278655094E+002
+1.11073455760E+007, +4.32564006495E-001, +1.68995283844E+002
+1.12741235392E+007, +4.30059744723E-001, +1.71559233963E+002
+1.14409015025E+007, +4.92278005920E-001, +1.74416055202E+002
+1.16076794658E+007, +4.07793935202E-001, +1.77036677147E+002
+1.17744574290E+007, +4.10931221262E-001, +1.80014665591E+002
+1.19412353923E+007, +4.62902024893E-001, +1.82433936409E+002
+1.21080133556E+007, +1.91564483586E-001, +1.85304704840E+002
+1.22747913189E+007, +3.96671386334E-001, +1.88055190696E+002
+1.24415692821E+007, +3.00156002879E-001, +1.90717334387E+002
+1.26083472454E+007, +2.26012498526E-001, +1.93612358938E+002
+1.27751252087E+007, +4.94450418658E-001, +1.96198829312E+002
+1.29419031720E+007, +1.89826625890E-001, +1.98846755152E+002
+1.31086811352E+007, +2.94745342184E-001, +2.01745459850E+002
+1.32754590985E+007, +3.59926436556E-001, +2.04673582056E+002
+1.34422370618E+007, +2.64753312035E-001, +2.07425086280E+002
+1.36090150250E+007, +4.28743365119E-001, +2.10103400039E+002
+1.37757929883E+007, +4.01110711278E-001, +2.12864797757E+002
+1.39425709516E+007, +2.65860482811E-001, +2.15616938885E+002
+1.41093489149E+007, +2.71847390659E-001, +2.18401123169E+002
+1.42761268781E+007, +2.66448370734E-001, +2.21476507275E+002
+1.44429048414E+007, +4.76249764381E-001, +2.24202391220E+002
+1.46096828047E+007, +3.58438873516E-001, +2.27305874949E+002
+1.47764607679E+007, +6.39777875311E-001, +2.29917583254E+002
+1.49432387312E+007, +2.65907650986E-001, +2.33000025311E+002
+1.51100166945E+007, +4.08040847944E-001, +2.35688181830E+002
+1.52767946578E+007, +7.66756302379E-001, +2.38774518351E+002
+1.54435726210E+007, +5.60244442425E-001, +2.41438352022E+002
+1.56103505843E+007, +7.32947197882E-001, +2.44545728071E+002
+1.57771285476E+007, +5.18031296469E-001, +2.47191986123E+002
+1.59439065109E+007, +7.02354902431E-001, +2.50619236834E+002
+1.61106844741E+007, +6.11409330033E-001, +2.53444744860E+002
+1.62774624374E+007, +8.94545992718E-001, +2.56232156061E+002
+1.64442404007E+007, +3.95453468718E-001, +2.59130413596E+002
+1.66110183639E+007, +7.63588634696E-001, +2.62039829442E+002
+1.67777963272E+007, +6.54114771524E-001, +2.65241150864E+002
+1.69445742905E+007, +6.72287158173E-001, +2.68230168418E+002
+1.71113522538E+007, -4.55210792778E-003, +2.70781347291E+002
+1.72781302170E+007, +3.79421826317E-001, +2.74406742188E+002
+1.74449081803E+007, +2.06206206499E-001, +2.77030944963E+002
+1.76116861436E+007, +6.80458492950E-001, +2.80389457087E+002
+1.77784641068E+007, +1.94487834309E-001, +2.83161673547E+002
+1.79452420701E+007, +5.46398185730E-001, +2.86428954059E+002
+1.81120200334E+007, +8.00513343862E-001, +2.89099777105E+002
+1.82787979967E+007, +1.01135880428E+000, +2.92442420291E+002
+1.84455759599E+007, +8.44434197831E-001, +2.95797253215E+002
+1.86123539232E+007, +1.04343210881E+000, +2.98762566980E+002
+1.87791318865E+007, +6.84086496288E-001, +3.02072172338E+002
+1.89459098497E+007, +8.30053518867E-001, +3.04984061824E+002
+1.91126878130E+007, +1.21654547048E+000, +3.08141596425E+002
+1.92794657763E+007, +9.81016841729E-001, +3.11163065166E+002
+1.94462437396E+007, +1.22702805902E+000, +3.15108545694E+002
+1.96130217028E+007, +9.12668100020E-001, +3.18134480484E+002
+1.97797996661E+007, +1.37438049179E+000, +3.20861308490E+002
+1.99465776294E+007, +4.90061845161E-001, +3.23922712902E+002
+2.01133555927E+007, +8.36570019163E-001, +3.27673608944E+002
+2.02801335559E+007, +9.29574191620E-001, +3.31203412021E+002
+2.04469115192E+007, +1.46299192136E+000, +3.34720918283E+002
+2.06136894825E+007, +1.34217082134E+000, +3.37704158086E+002
+2.07804674457E+007, +1.19521648545E+000, +3.41133780635E+002
+2.09472454090E+007, +1.10925346353E+000, +3.44361929889E+002
+2.11140233723E+007, +1.57297463616E+000, +3.47119132645E+002
+2.12808013356E+007, +1.82344481993E+000, +3.51080511106E+002
+2.14475792988E+007, +1.23080567725E+000, +3.54410998591E+002
+2.16143572621E+007, +1.72997280078E+000, +3.58077200464E+002
+2.17811352254E+007, +1.34334870026E+000, +3.60548843522E+002
+2.19479131886E+007, +1.93641700952E+000, +3.64687614055E+002
+2.21146911519E+007, +2.35582638431E+000, +3.67119561445E+002
+2.22814691152E+007, +2.18325894224E+000, +3.71709644911E+002
+2.24482470785E+007, +2.11930283472E+000, +3.74724881074E+002
+2.26150250417E+007, +3.22729770405E+000, +3.78558102743E+002
+2.27818030050E+007, +2.56011501347E+000, +3.81630087160E+002
+2.29485809683E+007, +3.43591550758E+000, +3.85854543002E+002
+2.31153589316E+007, +2.27578636496E+000, +3.89363960119E+002
+2.32821368948E+007, +3.30968134635E+000, +3.93328306084E+002
+2.34489148581E+007, +3.44588173867E+000, +3.96022769048E+002
+2.36156928214E+007, +4.07821978307E+000, +3.99770653632E+002
+2.37824707846E+007, +3.04539921183E+000, +4.03469876105E+002
+2.39492487479E+007, +3.42348325818E+000, +4.06417953218E+002
+2.41160267112E+007, +3.72183778715E+000, +4.10672376959E+002
+2.42828046745E+007, +2.81526544127E+000, +4.14659656369E+002
+2.44495826377E+007, +4.39303695017E+000, +4.18527169240E+002
+2.46163606010E+007, +3.91714842068E+000, +4.21267907771E+002
+2.47831385643E+007, +3.61681983887E+000, +4.26289947238E+002
+2.49499165275E+007, +4.74278402678E+000, +4.29544397089E+002
+2.51166944908E+007, +4.97125062157E+000, +4.33301936955E+002
+2.52834724541E+007, +4.49221992906E+000, +4.37692122395E+002
+2.54502504174E+007, +5.14535830190E+000, +4.40843370546E+002
+2.56170283806E+007, +4.93421184571E+000, +4.45232498528E+002
+2.57838063439E+007, +5.36706777434E+000, +4.49136883743E+002
+2.59505843072E+007, +5.93516722028E+000, +4.52959038613E+002
+2.61173622705E+007, +5.78659061394E+000, +4.57313629931E+002
+2.62841402337E+007, +5.65940577590E+000, +4.61536389690E+002
+2.64509181970E+007, +5.16915927453E+000, +4.64209928683E+002
+2.66176961603E+007, +5.86715882513E+000, +4.69979217364E+002
+2.67844741235E+007, +6.19477647847E+000, +4.73042730615E+002
+2.69512520868E+007, +7.53711780791E+000, +4.75588029133E+002
+2.71180300501E+007, +7.46230322771E+000, +4.79901312135E+002
+2.72848080134E+007, +7.97736186602E+000, +4.84271935695E+002
+2.74515859766E+007, +8.10078255524E+000, +4.88571336999E+002
+2.76183639399E+007, +7.39514837338E+000, +4.92435560204E+002
+2.77851419032E+007, +7.99872215131E+000, +4.96682321120E+002
+2.79519198664E+007, +7.22860228900E+000, +5.00585038472E+002
+2.81186978297E+007, +7.57542739004E+000, +5.05086950588E+002
+2.82854757930E+007, +8.42091396847E+000, +5.08730974422E+002
+2.84522537563E+007, +5.58778327394E+000, +5.13042431743E+002
+2.86190317195E+007, +7.53268888110E+000, +5.16890464094E+002
+2.87858096828E+007, +1.02763404898E+001, +5.23333692980E+002
+2.89525876461E+007, +7.77767462727E+000, +5.26725582252E+002
+2.91193656093E+007, +7.01673627928E+000, +5.30109387236E+002
+2.92861435726E+007, +6.66805796398E+000, +5.35494236268E+002
+2.94529215359E+007, +8.10824249927E+000, +5.38110878123E+002
+2.96196994992E+007, +9.96273009232E+000, +5.43969273496E+002
+2.97864774624E+007, +8.64261418643E+000, +5.47904813086E+002
+2.99532554257E+007, +1.04571982924E+001, +5.54550267855E+002
+3.01200333890E+007, +9.08231904026E+000, +5.58480863642E+002
+3.02868113523E+007, +9.17581249615E+000, +5.63172975663E+002
+3.04535893155E+007, +8.56970336623E+000, +5.67466477610E+002
+3.06203672788E+007, +1.03408415288E+001, +5.72821464659E+002
+3.07871452421E+007, +9.86349277596E+000, +5.76548727663E+002
+3.09539232053E+007, +1.05017419683E+001, +5.81182733926E+002
+3.11207011686E+007, +7.73318744030E+000, +5.87994294892E+002
+3.12874791319E+007, +1.06978977965E+001, +5.90396987824E+002
+3.14542570952E+007, +1.01534913802E+001, +5.97049949400E+002
+3.16210350584E+007, +9.36248284120E+000, +6.00697271133E+002
+3.17878130217E+007, +9.81834959933E+000, +6.04972072717E+002
+3.19545909850E+007, +1.02242166932E+001, +6.11893038283E+002
+3.21213689482E+007, +7.59689414148E+000, +6.16849199357E+002
+3.22881469115E+007, +1.01200847330E+001, +6.21176958223E+002
+3.24549248748E+007, +1.08565567352E+001, +6.27496093333E+002
+3.26217028381E+007, +8.34941945355E+000, +6.32129162503E+002
+3.27884808013E+007, +9.91174451039E+000, +6.38648333983E+002
+3.29552587646E+007, +1.12856038153E+001, +6.41774396584E+002
+3.31220367279E+007, +1.03438266737E+001, +6.47608609422E+002
+3.32888146912E+007, +1.05427957396E+001, +6.54428258237E+002
+3.34555926544E+007, +8.73726722912E+000, +6.59418540021E+002
+3.36223706177E+007, +1.09424356336E+001, +6.64991896133E+002
+3.37891485810E+007, +9.75147238948E+000, +6.67721714684E+002
+3.39559265442E+007, +1.06979223564E+001, +6.77744006967E+002
+3.41227045075E+007, +9.86114147903E+000, +6.81261180913E+002
+3.42894824708E+007, +1.09379222485E+001, +6.87628529790E+002
+3.44562604341E+007, +1.02370380161E+001, +6.94648301036E+002
+3.46230383973E+007, +1.10275923314E+001, +7.02539307793E+002
+3.47898163606E+007, +1.18632463598E+001, +7.05382201206E+002
+3.49565943239E+007, +1.35131090508E+001, +7.13993359739E+002
+3.51233722871E+007, +1.33402494878E+001, +7.18525574228E+002
+3.52901502504E+007, +1.32079004256E+001, +7.23167211053E+002
+3.54569282137E+007, +1.42890257799E+001, +7.31171674133E+002
+3.56237061770E+007, +1.04405673946E+001, +7.38473674582E+002
+3.57904841402E+007, +1.25586037242E+001, +7.42846094949E+002
+3.59572621035E+007, +1.34374294218E+001, +7.51012851383E+002
+3.61240400668E+007, +1.44341348298E+001, +7.57333657347E+002
+3.62908180301E+007, +1.60056053933E+001, +7.66901112577E+002
+3.64575959933E+007, +1.23889537101E+001, +7.71098990122E+002
+3.66243739566E+007, +1.51614424867E+001, +7.77407545758E+002
+3.67911519199E+007, +1.32436974424E+001, +7.84350167844E+002
+3.69579298831E+007, +1.16531899299E+001, +7.90844615666E+002
+3.71247078464E+007, +1.33827903290E+001, +7.99518512811E+002
+3.72914858097E+007, +1.41856720725E+001, +8.04598844511E+002
+3.74582637730E+007, +1.69162758077E+001, +8.15450776211E+002
+3.76250417362E+007, +1.52152653524E+001, +8.23708909459E+002
+3.77918196995E+007, +1.25518591658E+001, +8.26217892733E+002
+3.79585976628E+007, +1.35536301370E+001, +8.39273017926E+002
+3.81253756260E+007, +1.47497386612E+001, +8.45207177946E+002
+3.82921535893E+007, +1.53528932371E+001, +8.49197698155E+002
+3.84589315526E+007, +1.61684616231E+001, +8.60261529856E+002
+3.86257095159E+007, +1.54676170412E+001, +8.68235631913E+002
+3.87924874791E+007, +1.29159208996E+001, +8.77571440526E+002
+3.89592654424E+007, +1.84873371271E+001, +8.85850512924E+002
+3.91260434057E+007, +1.91291950205E+001, +8.95468328936E+002
+3.92928213689E+007, +1.61077240247E+001, +9.01861448808E+002
+3.94595993322E+007, +1.75925220621E+001, +9.12331275799E+002
+3.96263772955E+007, +1.50600284895E+001, +9.17763197977E+002
+3.97931552588E+007, +1.62773360815E+001, +9.27539017600E+002
+3.99599332220E+007, +1.68585629871E+001, +9.37778181628E+002
+4.01267111853E+007, +1.81895133834E+001, +9.50224732943E+002
+4.02934891486E+007, +1.71228714293E+001, +9.52908398115E+002
+4.04602671119E+007, +2.04674994784E+001, +9.62655072431E+002
+4.06270450751E+007, +2.19569786373E+001, +9.77671388387E+002
+4.07938230384E+007, +1.98565396454E+001, +9.88626516151E+002
+4.09606010017E+007, +2.12474434508E+001, +9.93498558579E+002
+4.11273789649E+007, +2.58781549439E+001, +1.00157467416E+003
+4.12941569282E+007, +2.10476470394E+001, +1.01748490813E+003
+4.14609348915E+007, +2.20465727445E+001, +1.03055064788E+003
+4.16277128548E+007, +2.45081861107E+001, +1.03703855157E+003
+4.17944908180E+007, +2.18379450054E+001, +1.04687953387E+003
+4.19612687813E+007, +2.23940355063E+001, +1.05919383948E+003
+4.21280467446E+007, +2.25330616097E+001, +1.07646524651E+003
+4.22948247078E+007, +2.52678854843E+001, +1.08007190161E+003
+4.24616026711E+007, +2.74568173530E+001, +1.09413377838E+003
+4.26283806344E+007, +2.66367465178E+001, +1.10498790670E+003
+4.27951585977E+007, +2.11957381577E+001, +1.12325918940E+003
+4.29619365609E+007, +2.72237621634E+001, +1.13348485218E+003
+4.31287145242E+007, +3.37171969879E+001, +1.14603539344E+003
+4.32954924875E+007, +2.97293181291E+001, +1.15591321484E+003
+4.34622704508E+007, +2.71957299740E+001, +1.17662845885E+003
+4.36290484140E+007, +3.76102149396E+001, +1.18382076274E+003
+4.37958263773E+007, +3.28269176332E+001, +1.20217939714E+003
+4.39626043406E+007, +3.15693418319E+001, +1.21023798340E+003
+4.41293823038E+007, +3.86491978371E+001, +1.23504248000E+003
+4.42961602671E+007, +3.15220035153E+001, +1.24464008506E+003
+4.44629382304E+007, +2.88916130028E+001, +1.25656020400E+003
+4.46297161937E+007, +3.57160364328E+001, +1.26944494293E+003
+4.47964941569E+007, +3.29931387897E+001, +1.29298740017E+003
+4.49632721202E+007, +3.95095510893E+001, +1.30564073951E+003
+4.51300500835E+007, +4.19236208993E+001, +1.31787276893E+003
+4.52968280467E+007, +4.85789062839E+001, +1.34443261209E+003
+4.54636060100E+007, +4.13361368323E+001, +1.36064833125E+003
+4.56303839733E+007, +3.94871629270E+001, +1.37900567982E+003
+4.57971619366E+007, +4.61351512215E+001, +1.39135874833E+003
+4.59639398998E+007, +4.38128042014E+001, +1.42132320362E+003
+4.61307178631E+007, +5.41467078512E+001, +1.43772572438E+003
+4.62974958264E+007, +6.29066839981E+001, +1.45470751528E+003
+4.64642737896E+007, +5.45251192874E+001, +1.47451627569E+003
+4.66310517529E+007, +5.05024959941E+001, +1.49419989887E+003
+4.67978297162E+007, +6.66401564987E+001, +1.51195369060E+003
+4.69646076795E+007, +5.95099901762E+001, +1.54522832021E+003
+4.71313856427E+007, +7.14496741070E+001, +1.56355603196E+003
+4.72981636060E+007, +6.00297130670E+001, +1.59428978376E+003
+4.74649415693E+007, +6.49920428229E+001, +1.60985116244E+003
+4.76317195326E+007, +9.10572980785E+001, +1.63119835153E+003
+4.77984974958E+007, +9.12826870042E+001, +1.66241401913E+003
+4.79652754591E+007, +8.81802456551E+001, +1.68587144430E+003
+4.81320534224E+007, +9.30648023220E+001, +1.71307641060E+003
+4.82988313856E+007, +9.17296264121E+001, +1.72892424334E+003
+4.84656093489E+007, +1.13206933932E+002, +1.76873094973E+003
+4.86323873122E+007, +1.13524014071E+002, +1.79200036545E+003
+4.87991652755E+007, +1.16757613486E+002, +1.82688798165E+003
+4.89659432387E+007, +1.35660080336E+002, +1.84208096201E+003
+4.91327212020E+007, +1.41725373125E+002, +1.89098508548E+003
+4.92994991653E+007, +1.50995344014E+002, +1.90453323711E+003
+4.94662771285E+007, +1.68605393515E+002, +1.93783812444E+003
+4.96330550918E+007, +1.66491365822E+002, +1.98191257123E+003
+4.97998330551E+007, +1.93065662671E+002, +1.99937068904E+003
+4.99666110184E+007, +1.93198558150E+002, +2.03024443267E+003
+5.01333889816E+007, +1.96386996658E+002, +2.07163465643E+003
+5.03001669449E+007, +2.03043778193E+002, +2.10513273442E+003
+5.04669449082E+007, +2.13158189222E+002, +2.14974382699E+003
+5.06337228715E+007, +2.17308093168E+002, +2.19204561615E+003
+5.08005008347E+007, +2.03556916298E+002, +2.20540400538E+003
+5.09672787980E+007, +2.57233997874E+002, +2.26180446059E+003
+5.11340567613E+007, +2.74849080096E+002, +2.31489267793E+003
+5.13008347245E+007, +2.61657448902E+002, +2.36960971777E+003
+5.14676126878E+007, +2.78372525975E+002, +2.41549134703E+003
+5.16343906511E+007, +2.92214404674E+002, +2.46084373472E+003
+5.18011686144E+007, +2.87030564770E+002, +2.51194742860E+003
+5.19679465776E+007, +3.07328725722E+002, +2.54727685780E+003
+5.21347245409E+007, +3.52207499537E+002, +2.62558322927E+003
+5.23015025042E+007, +3.35590121572E+002, +2.71983210879E+003
+5.24682804674E+007, +3.38613329744E+002, +2.77734242673E+003
+5.26350584307E+007, +3.64553731385E+002, +2.82707746583E+003
+5.28018363940E+007, +3.40991151766E+002, +2.92611877997E+003
+5.29686143573E+007, +3.86727450727E+002, +3.02758891805E+003
+5.31353923205E+007, +4.09313694099E+002, +3.05532195663E+003
+5.33021702838E+007, +4.50731552871E+002, +3.18482600001E+003
+5.34689482471E+007, +5.14576957685E+002, +3.29958045354E+003
