"# Channel 1"
"# Trace 1"
Frequency, Formatted Data, Formatted Data
+1.00000000000E+005, +6.83157731889E+001, +1.61334506141E+000
+2.25031289111E+005, +6.82537262437E+001, +3.92771558316E+000
+3.50062578223E+005, +6.82852649520E+001, +6.25837478869E+000
+4.75093867334E+005, +6.83645498457E+001, +8.46739884125E+000
+6.00125156446E+005, +6.83979037623E+001, +1.05227707644E+001
+7.25156445557E+005, +6.82801697894E+001, +1.27358831018E+001
+8.50187734668E+005, +6.84040513599E+001, +1.49748087474E+001
+9.75219023780E+005, +6.84633419780E+001, +1.72008737834E+001
+1.10025031289E+006, +6.85212770627E+001, +1.93564179140E+001
+1.22528160200E+006, +6.84703993489E+001, +2.14128265457E+001
+1.35031289111E+006, +6.85284154094E+001, +2.36319163628E+001
+1.47534418023E+006, +6.85142595025E+001, +2.59118198562E+001
+1.60037546934E+006, +6.85820811406E+001, +2.80285591516E+001
+1.72540675845E+006, +6.85434921372E+001, +3.02218205866E+001
+1.85043804756E+006, +6.85101111082E+001, +3.25346107314E+001
+1.97546933667E+006, +6.86294249126E+001, +3.46151766885E+001
+2.10050062578E+006, +6.85548856035E+001, +3.70164498187E+001
+2.22553191489E+006, +6.85603811895E+001, +3.90271669948E+001
+2.35056320401E+006, +6.86134211361E+001, +4.11333949940E+001
+2.47559449312E+006, +6.85950850916E+001, +4.34244728686E+001
+2.60062578223E+006, +6.87307619967E+001, +4.56350716113E+001
+2.72565707134E+006, +6.87823179180E+001, +4.78304926874E+001
+2.85068836045E+006, +6.89397568823E+001, +4.98633250613E+001
+2.97571964956E+006, +6.88721051357E+001, +5.22848093746E+001
+3.10075093867E+006, +6.88446865192E+001, +5.45465093323E+001
+3.22578222778E+006, +6.88459072484E+001, +5.66180636833E+001
+3.35081351690E+006, +6.88613681509E+001, +5.89059599885E+001
+3.47584480601E+006, +6.88142692404E+001, +6.09871708547E+001
+3.60087609512E+006, +6.88909860577E+001, +6.33043929738E+001
+3.72590738423E+006, +6.93878212104E+001, +6.55320392283E+001
+3.85093867334E+006, +6.89602946437E+001, +6.73672608584E+001
+3.97596996245E+006, +6.88706954899E+001, +6.99533858650E+001
+4.10100125156E+006, +6.91410919781E+001, +7.20025795818E+001
+4.22603254068E+006, +6.90201442118E+001, +7.44297354237E+001
+4.35106382979E+006, +6.92848152509E+001, +7.62966380297E+001
+4.47609511890E+006, +6.91351904925E+001, +7.87923910266E+001
+4.60112640801E+006, +6.93853174643E+001, +8.10457803261E+001
+4.72615769712E+006, +6.94963390597E+001, +8.29400317600E+001
+4.85118898623E+006, +6.96777902861E+001, +8.53093649318E+001
+4.97622027534E+006, +6.95319496048E+001, +8.75237125477E+001
+5.10125156446E+006, +6.95785920307E+001, +8.95770059917E+001
+5.22628285357E+006, +6.97083667655E+001, +9.20620411203E+001
+5.35131414268E+006, +6.97245115745E+001, +9.42424749012E+001
+5.47634543179E+006, +7.00550383050E+001, +9.65743893227E+001
+5.60137672090E+006, +6.99302967473E+001, +9.86261137009E+001
+5.72640801001E+006, +6.97964595621E+001, +1.00638817568E+002
+5.85143929912E+006, +7.01568995585E+001, +1.03072714519E+002
+5.97647058824E+006, +7.02577075299E+001, +1.05333390850E+002
+6.10150187735E+006, +7.03544023441E+001, +1.07595833556E+002
+6.22653316646E+006, +7.03328174658E+001, +1.09991888606E+002
+6.35156445557E+006, +7.03428447304E+001, +1.11881194323E+002
+6.47659574468E+006, +7.05210444440E+001, +1.14219941143E+002
+6.60162703379E+006, +7.05122602841E+001, +1.16325256458E+002
+6.72665832290E+006, +7.06667414431E+001, +1.18654169648E+002
+6.85168961202E+006, +7.07147328284E+001, +1.20881063308E+002
+6.97672090113E+006, +7.07479939094E+001, +1.23049671680E+002
+7.10175219024E+006, +7.11810625435E+001, +1.25439788930E+002
+7.22678347935E+006, +7.10325622693E+001, +1.27625488065E+002
+7.35181476846E+006, +7.10262636836E+001, +1.29863076598E+002
+7.47684605757E+006, +7.12741259591E+001, +1.32024226419E+002
+7.60187734668E+006, +7.12481602872E+001, +1.34314971242E+002
+7.72690863579E+006, +7.14265248014E+001, +1.36541799213E+002
+7.85193992491E+006, +7.16604561935E+001, +1.38741507321E+002
+7.97697121402E+006, +7.15078562770E+001, +1.40953810597E+002
+8.10200250313E+006, +7.17360855134E+001, +1.43314541349E+002
+8.22703379224E+006, +7.17210751419E+001, +1.45606724406E+002
+8.35206508135E+006, +7.18774846404E+001, +1.47730104051E+002
+8.47709637046E+006, +7.19665344885E+001, +1.50032068756E+002
+8.60212765957E+006, +7.22947484563E+001, +1.52518427183E+002
+8.72715894869E+006, +7.23424844696E+001, +1.54751918212E+002
+8.85219023780E+006, +7.22734972066E+001, +1.56773904446E+002
+8.97722152691E+006, +7.24770827073E+001, +1.59217331775E+002
+9.10225281602E+006, +7.23647426410E+001, +1.61507683795E+002
+9.22728410513E+006, +7.25314316289E+001, +1.63876820355E+002
+9.35231539424E+006, +7.25571203735E+001, +1.66146658317E+002
+9.47734668335E+006, +7.26133782803E+001, +1.68271050023E+002
+9.60237797247E+006, +7.29095467984E+001, +1.70494386782E+002
+9.72740926158E+006, +7.29368395602E+001, +1.72699929619E+002
+9.85244055069E+006, +7.27519334799E+001, +1.75290397696E+002
+9.97747183980E+006, +7.30630846091E+001, +1.77372904429E+002
+1.01025031289E+007, +7.33267950956E+001, +1.79851987330E+002
+1.02275344180E+007, +7.30509092242E+001, +1.82045732431E+002
+1.03525657071E+007, +7.33424953260E+001, +1.84508399126E+002
+1.04775969962E+007, +7.36011542376E+001, +1.86762537801E+002
+1.06026282854E+007, +7.35971509406E+001, +1.89245356467E+002
+1.07276595745E+007, +7.36152723398E+001, +1.91300634933E+002
+1.08526908636E+007, +7.40630350317E+001, +1.93614716082E+002
+1.09777221527E+007, +7.40283091893E+001, +1.95971944895E+002
+1.11027534418E+007, +7.41048313187E+001, +1.98358914474E+002
+1.12277847309E+007, +7.45351212842E+001, +2.00485578472E+002
+1.13528160200E+007, +7.41815517507E+001, +2.02952442409E+002
+1.14778473091E+007, +7.44258635319E+001, +2.05131298012E+002
+1.16028785982E+007, +7.49761020378E+001, +2.07556015964E+002
+1.17279098874E+007, +7.47959214219E+001, +2.09821869850E+002
+1.18529411765E+007, +7.49877353223E+001, +2.12339423211E+002
+1.19779724656E+007, +7.48846739708E+001, +2.14658842402E+002
+1.21030037547E+007, +7.52284436429E+001, +2.16791935949E+002
+1.22280350438E+007, +7.52388828818E+001, +2.19151078732E+002
+1.23530663329E+007, +7.56816527761E+001, +2.22115059282E+002
+1.24780976220E+007, +7.55539560456E+001, +2.23989063552E+002
+1.26031289111E+007, +7.59896464602E+001, +2.26484924814E+002
+1.27281602003E+007, +7.59123783426E+001, +2.28669358880E+002
+1.28531914894E+007, +7.64514603961E+001, +2.31097094674E+002
+1.29782227785E+007, +7.58291120126E+001, +2.33500537783E+002
+1.31032540676E+007, +7.61984633662E+001, +2.35947340618E+002
+1.32282853567E+007, +7.63599421238E+001, +2.38438501709E+002
+1.33533166458E+007, +7.68029908969E+001, +2.41113055225E+002
+1.34783479349E+007, +7.68398267508E+001, +2.42970374341E+002
+1.36033792240E+007, +7.65919168755E+001, +2.45230106074E+002
+1.37284105131E+007, +7.71098757577E+001, +2.47419622318E+002
+1.38534418023E+007, +7.71956285813E+001, +2.50137665969E+002
+1.39784730914E+007, +7.73946026151E+001, +2.52737706261E+002
+1.41035043805E+007, +7.74848326924E+001, +2.55291771306E+002
+1.42285356696E+007, +7.77560379423E+001, +2.57620148056E+002
+1.43535669587E+007, +7.77851386546E+001, +2.59607424068E+002
+1.44785982478E+007, +7.80348980215E+001, +2.62366028205E+002
+1.46036295369E+007, +7.83023594266E+001, +2.65137929930E+002
+1.47286608260E+007, +7.82907979886E+001, +2.67466462469E+002
+1.48536921151E+007, +7.86362388000E+001, +2.69350721419E+002
+1.49787234043E+007, +7.85303860765E+001, +2.71863298675E+002
+1.51037546934E+007, +7.92253038693E+001, +2.74532442353E+002
+1.52287859825E+007, +7.89829588141E+001, +2.76831791917E+002
+1.53538172716E+007, +7.94231907127E+001, +2.79147607426E+002
+1.54788485607E+007, +7.98877974708E+001, +2.82041663088E+002
+1.56038798498E+007, +7.99582693170E+001, +2.84616799767E+002
+1.57289111389E+007, +7.92126198953E+001, +2.86682451245E+002
+1.58539424280E+007, +7.97581054559E+001, +2.89181908685E+002
+1.59789737171E+007, +8.03653583488E+001, +2.92089239651E+002
+1.61040050063E+007, +8.08630845155E+001, +2.94429944955E+002
+1.62290362954E+007, +8.04697530763E+001, +2.97165468066E+002
+1.63540675845E+007, +8.05780426164E+001, +2.99195579680E+002
+1.64790988736E+007, +8.05983529635E+001, +3.01734313026E+002
+1.66041301627E+007, +8.13609649357E+001, +3.04205545632E+002
+1.67291614518E+007, +8.15464440202E+001, +3.06858561417E+002
+1.68541927409E+007, +8.10387199960E+001, +3.09011718078E+002
+1.69792240300E+007, +8.17542062072E+001, +3.11165043112E+002
+1.71042553191E+007, +8.14980030765E+001, +3.14301154944E+002
+1.72292866083E+007, +8.16524340984E+001, +3.16867497118E+002
+1.73543178974E+007, +8.17599192865E+001, +3.19853908452E+002
+1.74793491865E+007, +8.22083793871E+001, +3.21993437063E+002
+1.76043804756E+007, +8.15944765680E+001, +3.24671311129E+002
+1.77294117647E+007, +8.23699375136E+001, +3.27084633472E+002
+1.78544430538E+007, +8.33582917255E+001, +3.29534894108E+002
+1.79794743429E+007, +8.33878054259E+001, +3.31432831344E+002
+1.81045056320E+007, +8.32188473699E+001, +3.34555833227E+002
+1.82295369212E+007, +8.33343818492E+001, +3.37881827149E+002
+1.83545682103E+007, +8.43959561573E+001, +3.39909773950E+002
+1.84795994994E+007, +8.42635362154E+001, +3.42061075314E+002
+1.86046307885E+007, +8.47143105328E+001, +3.45268034149E+002
+1.87296620776E+007, +8.47711436429E+001, +3.47549906056E+002
+1.88546933667E+007, +8.47026055561E+001, +3.50160223197E+002
+1.89797246558E+007, +8.54988424610E+001, +3.52210395086E+002
+1.91047559449E+007, +8.63092999875E+001, +3.55382223665E+002
+1.92297872340E+007, +8.57238027603E+001, +3.58232353684E+002
+1.93548185232E+007, +8.60138008522E+001, +3.60637008308E+002
+1.94798498123E+007, +8.59879176707E+001, +3.63319142051E+002
+1.96048811014E+007, +8.65177713933E+001, +3.65328065811E+002
+1.97299123905E+007, +8.68817519377E+001, +3.69415268640E+002
+1.98549436796E+007, +8.64740049049E+001, +3.71238602460E+002
+1.99799749687E+007, +8.73611847253E+001, +3.74276358610E+002
+2.01050062578E+007, +8.74030941467E+001, +3.77107609732E+002
+2.02300375469E+007, +8.80078010094E+001, +3.79226716485E+002
+2.03550688360E+007, +8.80424941317E+001, +3.82434563321E+002
+2.04801001252E+007, +8.81043709401E+001, +3.84568479340E+002
+2.06051314143E+007, +8.90283621772E+001, +3.86882244330E+002
+2.07301627034E+007, +8.92635196587E+001, +3.88719979815E+002
+2.08551939925E+007, +8.88996359065E+001, +3.92734575340E+002
+2.09802252816E+007, +8.99804708802E+001, +3.95491233940E+002
+2.11052565707E+007, +8.93432471369E+001, +3.98125386514E+002
+2.12302878598E+007, +9.04686376731E+001, +4.00558629829E+002
+2.13553191489E+007, +8.99558250688E+001, +4.03855914500E+002
+2.14803504380E+007, +9.00250893780E+001, +4.05789875272E+002
+2.16053817272E+007, +9.11855909207E+001, +4.08506016431E+002
+2.17304130163E+007, +9.07531202401E+001, +4.10458814851E+002
+2.18554443054E+007, +9.23994430243E+001, +4.14557430855E+002
+2.19804755945E+007, +9.13994640187E+001, +4.17483725399E+002
+2.21055068836E+007, +9.19405529430E+001, +4.20477954992E+002
+2.22305381727E+007, +9.23077595509E+001, +4.21723108628E+002
+2.23555694618E+007, +9.22563626093E+001, +4.25135599339E+002
+2.24806007509E+007, +9.27670482186E+001, +4.28193686734E+002
+2.26056320401E+007, +9.34150001303E+001, +4.30611109688E+002
+2.27306633292E+007, +9.39999542860E+001, +4.34234148957E+002
+2.28556946183E+007, +9.46636900095E+001, +4.35929251660E+002
+2.29807259074E+007, +9.45332895524E+001, +4.39147837534E+002
+2.31057571965E+007, +9.52126088596E+001, +4.41327468839E+002
+2.32307884856E+007, +9.45442409394E+001, +4.45412255755E+002
+2.33558197747E+007, +9.54952551673E+001, +4.48343025093E+002
+2.34808510638E+007, +9.59359254953E+001, +4.49173617600E+002
+2.36058823529E+007, +9.61663053146E+001, +4.53884935026E+002
+2.37309136421E+007, +9.63030073396E+001, +4.56276349308E+002
+2.38559449312E+007, +9.69526511361E+001, +4.59463228666E+002
+2.39809762203E+007, +9.79604222228E+001, +4.60997446215E+002
+2.41060075094E+007, +9.72842576772E+001, +4.65072555562E+002
+2.42310387985E+007, +9.77847593276E+001, +4.66550789574E+002
+2.43560700876E+007, +9.85356077169E+001, +4.70078060511E+002
+2.44811013767E+007, +9.91665377540E+001, +4.72952246702E+002
+2.46061326658E+007, +1.00654056041E+002, +4.75864338228E+002
+2.47311639549E+007, +9.99481378845E+001, +4.77926463516E+002
+2.48561952441E+007, +9.91373357901E+001, +4.81006945519E+002
+2.49812265332E+007, +1.00167676170E+002, +4.85320121599E+002
+2.51062578223E+007, +9.93659349385E+001, +4.87902589610E+002
+2.52312891114E+007, +1.01199617880E+002, +4.91939780057E+002
+2.53563204005E+007, +1.01165817735E+002, +4.93300123160E+002
+2.54813516896E+007, +1.02925276550E+002, +4.95900895788E+002
+2.56063829787E+007, +1.01222499846E+002, +4.98869432509E+002
+2.57314142678E+007, +1.02187346406E+002, +5.03047207680E+002
+2.58564455569E+007, +1.03118730720E+002, +5.05961486359E+002
+2.59814768461E+007, +1.02947908903E+002, +5.08315892525E+002
+2.61065081352E+007, +1.02747679465E+002, +5.13311508574E+002
+2.62315394243E+007, +1.04735052168E+002, +5.14629009116E+002
+2.63565707134E+007, +1.03437237249E+002, +5.16714582574E+002
+2.64816020025E+007, +1.05202953853E+002, +5.21836997312E+002
+2.66066332916E+007, +1.05105668836E+002, +5.23343039508E+002
+2.67316645807E+007, +1.05680225335E+002, +5.26488375429E+002
+2.68566958698E+007, +1.05770272658E+002, +5.29661769719E+002
+2.69817271589E+007, +1.06665556415E+002, +5.33353963467E+002
+2.71067584481E+007, +1.07264363359E+002, +5.36899485267E+002
+2.72317897372E+007, +1.07007223973E+002, +5.39417379930E+002
+2.73568210263E+007, +1.07960077458E+002, +5.42108803780E+002
+2.74818523154E+007, +1.07774901581E+002, +5.45095359940E+002
+2.76068836045E+007, +1.07848230541E+002, +5.49271910479E+002
+2.77319148936E+007, +1.07313747107E+002, +5.51531603102E+002
+2.78569461827E+007, +1.08833793586E+002, +5.55599415862E+002
+2.79819774718E+007, +1.09780477921E+002, +5.58722807492E+002
+2.81070087610E+007, +1.10851101491E+002, +5.61618311367E+002
+2.82320400501E+007, +1.11021798241E+002, +5.64439636371E+002
+2.83570713392E+007, +1.10033127980E+002, +5.68861567943E+002
+2.84821026283E+007, +1.12396393020E+002, +5.71782822990E+002
+2.86071339174E+007, +1.12080239654E+002, +5.73296271933E+002
+2.87321652065E+007, +1.12782078787E+002, +5.78701799360E+002
+2.88571964956E+007, +1.11180658106E+002, +5.82026216449E+002
+2.89822277847E+007, +1.12301952685E+002, +5.85448146741E+002
+2.91072590738E+007, +1.12932691371E+002, +5.89718708848E+002
+2.92322903630E+007, +1.14001150493E+002, +5.93593615852E+002
+2.93573216521E+007, +1.16288115316E+002, +5.94057007641E+002
+2.94823529412E+007, +1.14185467993E+002, +5.99079247086E+002
+2.96073842303E+007, +1.15235852158E+002, +6.02039019647E+002
+2.97324155194E+007, +1.15797849209E+002, +6.05342309046E+002
+2.98574468085E+007, +1.15505441040E+002, +6.08436737083E+002
+2.99824780976E+007, +1.16138791774E+002, +6.10430599261E+002
+3.01075093867E+007, +1.17799298158E+002, +6.15821925134E+002
+3.02325406758E+007, +1.16962372958E+002, +6.19387418268E+002
+3.03575719650E+007, +1.18765354810E+002, +6.22269174091E+002
+3.04826032541E+007, +1.19503263536E+002, +6.24962587137E+002
+3.06076345432E+007, +1.16988936163E+002, +6.29536092926E+002
+3.07326658323E+007, +1.18197000979E+002, +6.33652059233E+002
+3.08576971214E+007, +1.20298971816E+002, +6.38461318687E+002
+3.09827284105E+007, +1.22269519346E+002, +6.38846410134E+002
+3.11077596996E+007, +1.21046967055E+002, +6.45960915225E+002
+3.12327909887E+007, +1.21337150423E+002, +6.47219427161E+002
+3.13578222778E+007, +1.23457343860E+002, +6.51158792021E+002
+3.14828535670E+007, +1.24375314161E+002, +6.52125514124E+002
+3.16078848561E+007, +1.24303484607E+002, +6.57515289353E+002
+3.17329161452E+007, +1.22541335391E+002, +6.60371538961E+002
+3.18579474343E+007, +1.22981926749E+002, +6.64253753005E+002
+3.19829787234E+007, +1.24910605731E+002, +6.67607241431E+002
+3.21080100125E+007, +1.23539012144E+002, +6.72760503752E+002
+3.22330413016E+007, +1.27668674288E+002, +6.76582524976E+002
+3.23580725907E+007, +1.26243992856E+002, +6.80771844260E+002
+3.24831038798E+007, +1.28716308413E+002, +6.81954434218E+002
+3.26081351690E+007, +1.27949117520E+002, +6.89374803829E+002
+3.27331664581E+007, +1.29191962891E+002, +6.90172560186E+002
+3.28581977472E+007, +1.29317620007E+002, +6.92271090627E+002
+3.29832290363E+007, +1.30278506277E+002, +7.01334108249E+002
+3.31082603254E+007, +1.30198325296E+002, +7.01240107861E+002
+3.32332916145E+007, +1.31403351079E+002, +7.05135516835E+002
+3.33583229036E+007, +1.32785323551E+002, +7.11401768578E+002
+3.34833541927E+007, +1.33013267573E+002, +7.13905642729E+002
+3.36083854819E+007, +1.31024582531E+002, +7.18731474687E+002
+3.37334167710E+007, +1.34377654308E+002, +7.20939300149E+002
+3.38584480601E+007, +1.36587814135E+002, +7.28908708803E+002
+3.39834793492E+007, +1.35795384545E+002, +7.29333809944E+002
+3.41085106383E+007, +1.36488446605E+002, +7.34896303896E+002
+3.42335419274E+007, +1.36699483941E+002, +7.35538999383E+002
+3.43585732165E+007, +1.37318656744E+002, +7.42504481169E+002
+3.44836045056E+007, +1.36844091810E+002, +7.45285472706E+002
+3.46086357947E+007, +1.39013218318E+002, +7.50305663897E+002
+3.47336670839E+007, +1.40216389707E+002, +7.52825015681E+002
+3.48586983730E+007, +1.40287595114E+002, +7.58698447191E+002
+3.49837296621E+007, +1.40564271078E+002, +7.61893829465E+002
+3.51087609512E+007, +1.42805623521E+002, +7.65988900295E+002
+3.52337922403E+007, +1.43174563876E+002, +7.71091461942E+002
+3.53588235294E+007, +1.44955661964E+002, +7.74827828306E+002
+3.54838548185E+007, +1.47902997575E+002, +7.80578828051E+002
+3.56088861076E+007, +1.46079680609E+002, +7.81639174775E+002
+3.57339173967E+007, +1.45691476469E+002, +7.87135144011E+002
+3.58589486859E+007, +1.46278784989E+002, +7.89210835818E+002
+3.59839799750E+007, +1.47320013552E+002, +7.91043854813E+002
+3.61090112641E+007, +1.47737222177E+002, +8.01238743293E+002
+3.62340425532E+007, +1.49257895224E+002, +8.02400865309E+002
+3.63590738423E+007, +1.50841642543E+002, +8.07689113350E+002
+3.64841051314E+007, +1.49805858763E+002, +8.12595807750E+002
+3.66091364205E+007, +1.50342957672E+002, +8.13601886950E+002
+3.67341677096E+007, +1.53206169082E+002, +8.18874142887E+002
+3.68591989987E+007, +1.50626740916E+002, +8.23666953038E+002
+3.69842302879E+007, +1.54177422949E+002, +8.32913398562E+002
+3.71092615770E+007, +1.56430194661E+002, +8.34619734437E+002
+3.72342928661E+007, +1.60805054421E+002, +8.39448748834E+002
+3.73593241552E+007, +1.54226757509E+002, +8.40744665593E+002
+3.74843554443E+007, +1.59345127760E+002, +8.45599427663E+002
+3.76093867334E+007, +1.62104313840E+002, +8.56765016992E+002
+3.77344180225E+007, +1.60639795294E+002, +8.56403344091E+002
+3.78594493116E+007, +1.62471111786E+002, +8.64106306504E+002
+3.79844806008E+007, +1.63699096064E+002, +8.65264631904E+002
+3.81095118899E+007, +1.58135939413E+002, +8.70761800066E+002
+3.82345431790E+007, +1.63216719567E+002, +8.79502362644E+002
+3.83595744681E+007, +1.63144187054E+002, +8.77307810389E+002
+3.84846057572E+007, +1.62557278665E+002, +8.86273518270E+002
+3.86096370463E+007, +1.70385047047E+002, +8.92351591553E+002
+3.87346683354E+007, +1.70189693703E+002, +8.98638104900E+002
+3.88596996245E+007, +1.72543725326E+002, +8.99339803831E+002
+3.89847309136E+007, +1.70853225954E+002, +9.07127144376E+002
+3.91097622028E+007, +1.73644988491E+002, +9.06841504003E+002
+3.92347934919E+007, +1.72196016720E+002, +9.13910690458E+002
+3.93598247810E+007, +1.79541172563E+002, +9.17436292590E+002
+3.94848560701E+007, +1.77661030499E+002, +9.23277019427E+002
+3.96098873592E+007, +1.73940646543E+002, +9.29103103433E+002
+3.97349186483E+007, +1.77149112054E+002, +9.32455100029E+002
+3.98599499374E+007, +1.78711859517E+002, +9.37328553645E+002
+3.99849812265E+007, +1.78576155153E+002, +9.49008928714E+002
+4.01100125156E+007, +1.84702734073E+002, +9.54043072451E+002
