"# Channel 1"
"# Trace 1"
Frequency, Formatted Data, Formatted Data
+1.00000000000E+005, +3.32399566986E+001, +1.56819332782E+000
+2.25031289111E+005, +3.32526656460E+001, +3.72342692348E+000
+3.50062578223E+005, +3.32635700838E+001, +5.78280798921E+000
+4.75093867334E+005, +3.32891974559E+001, +7.83185260456E+000
+6.00125156446E+005, +3.32667024683E+001, +9.87259796786E+000
+7.25156445557E+005, +3.33317753920E+001, +1.19221959228E+001
+8.50187734668E+005, +3.33018619209E+001, +1.39804340576E+001
+9.75219023780E+005, +3.33464413084E+001, +1.60122200058E+001
+1.10025031289E+006, +3.33646972791E+001, +1.80286947571E+001
+1.22528160200E+006, +3.33652834554E+001, +2.00559075399E+001
+1.35031289111E+006, +3.33824703905E+001, +2.21092752007E+001
+1.47534418023E+006, +3.33617217183E+001, +2.41341372611E+001
+1.60037546934E+006, +3.34100396357E+001, +2.61620193668E+001
+1.72540675845E+006, +3.34094708041E+001, +2.82319743119E+001
+1.85043804756E+006, +3.34016298253E+001, +3.02161974019E+001
+1.97546933667E+006, +3.34272470018E+001, +3.22751466951E+001
+2.10050062578E+006, +3.34235011454E+001, +3.43079685569E+001
+2.22553191489E+006, +3.34160432969E+001, +3.63268650847E+001
+2.35056320401E+006, +3.34732222896E+001, +3.83783400326E+001
+2.47559449312E+006, +3.34334079407E+001, +4.04152475999E+001
+2.60062578223E+006, +3.34615915483E+001, +4.24549871397E+001
+2.72565707134E+006, +3.35251260067E+001, +4.44852693749E+001
+2.85068836045E+006, +3.34972604633E+001, +4.65457422790E+001
+2.97571964956E+006, +3.35025094782E+001, +4.85630580829E+001
+3.10075093867E+006, +3.35299304646E+001, +5.06194321825E+001
+3.22578222778E+006, +3.35225806197E+001, +5.26873947768E+001
+3.35081351690E+006, +3.35419943864E+001, +5.46610235543E+001
+3.47584480601E+006, +3.36360313215E+001, +5.67209635865E+001
+3.60087609512E+006, +3.35960392731E+001, +5.87246831455E+001
+3.72590738423E+006, +3.35338081836E+001, +6.08189499121E+001
+3.85093867334E+006, +3.36220243989E+001, +6.29866215922E+001
+3.97596996245E+006, +3.36469014676E+001, +6.52138886537E+001
+4.10100125156E+006, +3.45082233656E+001, +6.58479275155E+001
+4.22603254068E+006, +3.34756328473E+001, +6.87565486587E+001
+4.35106382979E+006, +3.37002005359E+001, +7.08513155762E+001
+4.47609511890E+006, +3.36688038221E+001, +7.30026942264E+001
+4.60112640801E+006, +3.36961604109E+001, +7.51114897973E+001
+4.72615769712E+006, +3.36820019173E+001, +7.71164082274E+001
+4.85118898623E+006, +3.37383491447E+001, +7.91932826546E+001
+4.97622027534E+006, +3.37383308487E+001, +8.11294127121E+001
+5.10125156446E+006, +3.37589599210E+001, +8.32916108124E+001
+5.22628285357E+006, +3.37842774512E+001, +8.53205675127E+001
+5.35131414268E+006, +3.37326813804E+001, +8.73389726900E+001
+5.47634543179E+006, +3.38048098605E+001, +8.93683972689E+001
+5.60137672090E+006, +3.38303317832E+001, +9.13878785730E+001
+5.72640801001E+006, +3.38356152966E+001, +9.35182720115E+001
+5.85143929912E+006, +3.38895708907E+001, +9.56166557203E+001
+5.97647058824E+006, +3.38978278568E+001, +9.75483011652E+001
+6.10150187735E+006, +3.38438292758E+001, +9.97653012870E+001
+6.22653316646E+006, +3.38801966813E+001, +1.01692363630E+002
+6.35156445557E+006, +3.38948494675E+001, +1.03878374480E+002
+6.47659574468E+006, +3.39619997730E+001, +1.05921031697E+002
+6.60162703379E+006, +3.40498849967E+001, +1.08017342177E+002
+6.72665832290E+006, +3.41429659335E+001, +1.10147245903E+002
+6.85168961202E+006, +3.41158546199E+001, +1.12182142623E+002
+6.97672090113E+006, +3.40728076728E+001, +1.14205458887E+002
+7.10175219024E+006, +3.41929671078E+001, +1.16325237701E+002
+7.22678347935E+006, +3.42462205687E+001, +1.18335290458E+002
+7.35181476846E+006, +3.42212952559E+001, +1.20435097896E+002
+7.47684605757E+006, +3.41666665573E+001, +1.22475023863E+002
+7.60187734668E+006, +3.42783142335E+001, +1.24601270016E+002
+7.72690863579E+006, +3.45147874216E+001, +1.26659777801E+002
+7.85193992491E+006, +3.43728181499E+001, +1.28723921889E+002
+7.97697121402E+006, +3.43411020245E+001, +1.30765721696E+002
+8.10200250313E+006, +3.44154367363E+001, +1.32779822929E+002
+8.22703379224E+006, +3.43963840555E+001, +1.34872231887E+002
+8.35206508135E+006, +3.44729646028E+001, +1.37010317022E+002
+8.47709637046E+006, +3.44238525232E+001, +1.39058515767E+002
+8.60212765957E+006, +3.45234138182E+001, +1.41156141574E+002
+8.72715894869E+006, +3.45641927202E+001, +1.43142377337E+002
+8.85219023780E+006, +3.47743494870E+001, +1.45031778940E+002
+8.97722152691E+006, +3.47321613684E+001, +1.47222696467E+002
+9.10225281602E+006, +3.46917494056E+001, +1.49330664689E+002
+9.22728410513E+006, +3.47089147566E+001, +1.51531100069E+002
+9.35231539424E+006, +3.46514916033E+001, +1.53797910919E+002
+9.47734668335E+006, +3.47064566327E+001, +1.55626698406E+002
+9.60237797247E+006, +3.46786472356E+001, +1.57372273550E+002
+9.72740926158E+006, +3.47878286966E+001, +1.59224163431E+002
+9.85244055069E+006, +3.48903704054E+001, +1.61066229131E+002
+9.97747183980E+006, +3.49000589451E+001, +1.63254265462E+002
+1.01025031289E+007, +3.47682347842E+001, +1.65121937599E+002
+1.02275344180E+007, +3.49301331826E+001, +1.67062551970E+002
+1.03525657071E+007, +3.48783283212E+001, +1.69160986747E+002
+1.04775969962E+007, +3.47879210059E+001, +1.71304400031E+002
+1.06026282854E+007, +3.47916551772E+001, +1.73309630225E+002
+1.07276595745E+007, +3.48929017218E+001, +1.75559577729E+002
+1.08526908636E+007, +3.48162846214E+001, +1.77900208188E+002
+1.09777221527E+007, +3.48774687732E+001, +1.80211204037E+002
+1.11027534418E+007, +3.48538620764E+001, +1.82491253215E+002
+1.12277847309E+007, +3.48941393829E+001, +1.84807180830E+002
+1.13528160200E+007, +3.48445206467E+001, +1.87163631859E+002
+1.14778473091E+007, +3.51696530435E+001, +1.89806079451E+002
+1.16028785982E+007, +3.50165099749E+001, +1.91915923627E+002
+1.17279098874E+007, +3.50125322533E+001, +1.94087456530E+002
+1.18529411765E+007, +3.51527031165E+001, +1.96129947402E+002
+1.19779724656E+007, +3.50266558225E+001, +1.98194254773E+002
+1.21030037547E+007, +3.51148492547E+001, +2.00214732720E+002
+1.22280350438E+007, +3.52037708351E+001, +2.02413854395E+002
+1.23530663329E+007, +3.52905306190E+001, +2.04622081087E+002
+1.24780976220E+007, +3.52811927627E+001, +2.07073766145E+002
+1.26031289111E+007, +3.50950578702E+001, +2.09166675940E+002
+1.27281602003E+007, +3.51843922679E+001, +2.11394101936E+002
+1.28531914894E+007, +3.51880980514E+001, +2.13605306622E+002
+1.29782227785E+007, +3.51396324806E+001, +2.15543060472E+002
+1.31032540676E+007, +3.52190028448E+001, +2.17875124738E+002
+1.32282853567E+007, +3.51743833708E+001, +2.19760185365E+002
+1.33533166458E+007, +3.52517437570E+001, +2.22160768101E+002
+1.34783479349E+007, +3.53523606245E+001, +2.24359611883E+002
+1.36033792240E+007, +3.53335564506E+001, +2.26680974037E+002
+1.37284105131E+007, +3.54300028473E+001, +2.28820887194E+002
+1.38534418023E+007, +3.55983289547E+001, +2.31088616123E+002
+1.39784730914E+007, +3.56485196900E+001, +2.33561499355E+002
+1.41035043805E+007, +3.55595000596E+001, +2.35689206755E+002
+1.42285356696E+007, +3.55649226131E+001, +2.37729816154E+002
+1.43535669587E+007, +3.54009622002E+001, +2.39997336744E+002
+1.44785982478E+007, +3.56456870665E+001, +2.42113942435E+002
+1.46036295369E+007, +3.55127267565E+001, +2.44450221765E+002
+1.47286608260E+007, +3.54552332925E+001, +2.46771755500E+002
+1.48536921151E+007, +3.58560496904E+001, +2.48958330956E+002
+1.49787234043E+007, +3.54947774295E+001, +2.51156550761E+002
+1.51037546934E+007, +3.59237182627E+001, +2.53603933159E+002
+1.52287859825E+007, +3.57244897690E+001, +2.55633857625E+002
+1.53538172716E+007, +3.58744767249E+001, +2.58298179373E+002
+1.54788485607E+007, +3.58265145276E+001, +2.60138657218E+002
+1.56038798498E+007, +3.60149429418E+001, +2.62713333464E+002
+1.57289111389E+007, +3.63424384055E+001, +2.65237289033E+002
+1.58539424280E+007, +3.60642759031E+001, +2.67141849967E+002
+1.59789737171E+007, +3.60001908093E+001, +2.69665284816E+002
+1.61040050063E+007, +3.62318264918E+001, +2.71903236463E+002
+1.62290362954E+007, +3.59932651495E+001, +2.74096523879E+002
+1.63540675845E+007, +3.60672641064E+001, +2.76800702762E+002
+1.64790988736E+007, +3.63509725220E+001, +2.78689221585E+002
+1.66041301627E+007, +3.61273636879E+001, +2.81217844552E+002
+1.67291614518E+007, +3.62865679269E+001, +2.83257197968E+002
+1.68541927409E+007, +3.64248580477E+001, +2.85869386043E+002
+1.69792240300E+007, +3.65332010708E+001, +2.88163142324E+002
+1.71042553191E+007, +3.65273601446E+001, +2.90707133360E+002
+1.72292866083E+007, +3.66089737305E+001, +2.92447482213E+002
+1.73543178974E+007, +3.65588014758E+001, +2.95035811617E+002
+1.74793491865E+007, +3.68382944867E+001, +2.97380778955E+002
+1.76043804756E+007, +3.67161850699E+001, +3.00195742632E+002
+1.77294117647E+007, +3.68018888067E+001, +3.01890380799E+002
+1.78544430538E+007, +3.63976560428E+001, +3.04575802873E+002
+1.79794743429E+007, +3.69738602313E+001, +3.06953686311E+002
+1.81045056320E+007, +3.68273356973E+001, +3.08958135874E+002
+1.82295369212E+007, +3.71849343962E+001, +3.12208117523E+002
+1.83545682103E+007, +3.70006922164E+001, +3.14041217864E+002
+1.84795994994E+007, +3.71270039604E+001, +3.16543811816E+002
+1.86046307885E+007, +3.70943262373E+001, +3.18928110593E+002
+1.87296620776E+007, +3.72503531842E+001, +3.21193714514E+002
+1.88546933667E+007, +3.72973274665E+001, +3.24199910121E+002
+1.89797246558E+007, +3.74026536512E+001, +3.25996255980E+002
+1.91047559449E+007, +3.75284789013E+001, +3.28754758835E+002
+1.92297872340E+007, +3.78342332238E+001, +3.31667349426E+002
+1.93548185232E+007, +3.79322548512E+001, +3.33604246686E+002
+1.94798498123E+007, +3.80473054438E+001, +3.36254603928E+002
+1.96048811014E+007, +3.77713037064E+001, +3.38655626113E+002
+1.97299123905E+007, +3.80131329852E+001, +3.41288185446E+002
+1.98549436796E+007, +3.80742463325E+001, +3.43806292359E+002
+1.99799749687E+007, +3.85647534901E+001, +3.46279890762E+002
+2.01050062578E+007, +3.80397734552E+001, +3.48599609828E+002
+2.02300375469E+007, +3.88144632299E+001, +3.51253842283E+002
+2.03550688360E+007, +3.83001211939E+001, +3.53472699155E+002
+2.04801001252E+007, +3.82984538533E+001, +3.56265087171E+002
+2.06051314143E+007, +3.83393089734E+001, +3.58794356985E+002
+2.07301627034E+007, +3.86658582558E+001, +3.60736121047E+002
+2.08551939925E+007, +3.87746765508E+001, +3.63602904934E+002
+2.09802252816E+007, +3.88143647585E+001, +3.65936810327E+002
+2.11052565707E+007, +3.92949968343E+001, +3.68242503202E+002
+2.12302878598E+007, +3.86973760923E+001, +3.71368860500E+002
+2.13553191489E+007, +3.90144379440E+001, +3.73890452600E+002
+2.14803504380E+007, +3.94329830929E+001, +3.76128020741E+002
+2.16053817272E+007, +3.94972945090E+001, +3.78753569455E+002
+2.17304130163E+007, +3.97695922314E+001, +3.80910363169E+002
+2.18554443054E+007, +3.95961320727E+001, +3.84031928842E+002
+2.19804755945E+007, +3.94294323205E+001, +3.87017212186E+002
+2.21055068836E+007, +3.96371849052E+001, +3.89805652840E+002
+2.22305381727E+007, +4.03429306157E+001, +3.92100482702E+002
+2.23555694618E+007, +4.01961135727E+001, +3.94781289479E+002
+2.24806007509E+007, +3.98575839923E+001, +3.97508553156E+002
+2.26056320401E+007, +4.01948290349E+001, +4.00781443000E+002
+2.27306633292E+007, +4.03924308342E+001, +4.03129542398E+002
+2.28556946183E+007, +4.09529332367E+001, +4.05990398078E+002
+2.29807259074E+007, +4.07458203184E+001, +4.07789762132E+002
+2.31057571965E+007, +4.08481236654E+001, +4.11300926128E+002
+2.32307884856E+007, +4.17398646278E+001, +4.12935875822E+002
+2.33558197747E+007, +4.06984370732E+001, +4.16371635091E+002
+2.34808510638E+007, +4.13846882473E+001, +4.18926284765E+002
+2.36058823529E+007, +4.15710462388E+001, +4.21293877341E+002
+2.37309136421E+007, +4.18200130511E+001, +4.24294835295E+002
+2.38559449312E+007, +4.17371907506E+001, +4.26342800203E+002
+2.39809762203E+007, +4.23060744772E+001, +4.29696027017E+002
+2.41060075094E+007, +4.15001632186E+001, +4.32358251196E+002
+2.42310387985E+007, +4.26544424754E+001, +4.35043020992E+002
+2.43560700876E+007, +4.25881466622E+001, +4.37498545480E+002
+2.44811013767E+007, +4.24042036503E+001, +4.39076795211E+002
+2.46061326658E+007, +4.22421302856E+001, +4.42482224545E+002
+2.47311639549E+007, +4.19149380432E+001, +4.44869236310E+002
+2.48561952441E+007, +4.24953648178E+001, +4.48322452498E+002
+2.49812265332E+007, +4.20402434731E+001, +4.51143968251E+002
+2.51062578223E+007, +4.32204718311E+001, +4.53116892988E+002
+2.52312891114E+007, +4.27665167036E+001, +4.56425797481E+002
+2.53563204005E+007, +4.27885347345E+001, +4.59164330394E+002
+2.54813516896E+007, +4.29848973105E+001, +4.62228006835E+002
+2.56063829787E+007, +4.30844260647E+001, +4.64613618227E+002
+2.57314142678E+007, +4.26016115498E+001, +4.67584788721E+002
+2.58564455569E+007, +4.27770071280E+001, +4.71018970556E+002
+2.59814768461E+007, +4.26032062456E+001, +4.73977004020E+002
+2.61065081352E+007, +4.32173479403E+001, +4.76911783834E+002
+2.62315394243E+007, +4.12836780739E+001, +4.79814195578E+002
+2.63565707134E+007, +4.30415611525E+001, +4.82865248409E+002
+2.64816020025E+007, +4.25574291506E+001, +4.86162852297E+002
+2.66066332916E+007, +4.29955704086E+001, +4.88405087301E+002
+2.67316645807E+007, +4.38662543290E+001, +4.91879757763E+002
+2.68566958698E+007, +4.34169365208E+001, +4.94156237327E+002
+2.69817271589E+007, +4.38783808286E+001, +4.98447853959E+002
+2.71067584481E+007, +4.34318623607E+001, +5.00714077279E+002
+2.72317897372E+007, +4.41602446917E+001, +5.03731487105E+002
+2.73568210263E+007, +4.44218750385E+001, +5.07023106403E+002
+2.74818523154E+007, +4.43805054982E+001, +5.09589925620E+002
+2.76068836045E+007, +4.39654934719E+001, +5.13401901026E+002
+2.77319148936E+007, +4.53264647348E+001, +5.16806192082E+002
+2.78569461827E+007, +4.46900133658E+001, +5.19478890401E+002
+2.79819774718E+007, +4.49936795485E+001, +5.21106941933E+002
+2.81070087610E+007, +4.54505890738E+001, +5.23946632893E+002
+2.82320400501E+007, +4.62169057866E+001, +5.27837496045E+002
+2.83570713392E+007, +4.41405474365E+001, +5.31026651706E+002
+2.84821026283E+007, +4.58417504911E+001, +5.34226077009E+002
+2.86071339174E+007, +4.62365282759E+001, +5.37669294889E+002
+2.87321652065E+007, +4.60684892041E+001, +5.40371568580E+002
+2.88571964956E+007, +4.55963635319E+001, +5.43734331661E+002
+2.89822277847E+007, +4.54066522203E+001, +5.46675776877E+002
+2.91072590738E+007, +4.67884166438E+001, +5.50344742763E+002
+2.92322903630E+007, +4.63271154562E+001, +5.54240276302E+002
+2.93573216521E+007, +4.78838722934E+001, +5.56928260865E+002
+2.94823529412E+007, +4.59776123727E+001, +5.59830307389E+002
+2.96073842303E+007, +4.70822807072E+001, +5.64031837552E+002
+2.97324155194E+007, +4.72662457627E+001, +5.66462113920E+002
+2.98574468085E+007, +4.80910058229E+001, +5.69044088379E+002
+2.99824780976E+007, +4.84158481004E+001, +5.73783599654E+002
+3.01075093867E+007, +4.85139631204E+001, +5.76986366561E+002
+3.02325406758E+007, +4.87041149775E+001, +5.79908664469E+002
+3.03575719650E+007, +4.85004226884E+001, +5.82720091284E+002
+3.04826032541E+007, +4.97379677812E+001, +5.86834752740E+002
+3.06076345432E+007, +4.88844386978E+001, +5.90119466651E+002
+3.07326658323E+007, +4.85525509776E+001, +5.93573814611E+002
+3.08576971214E+007, +4.96837163714E+001, +5.96478171649E+002
+3.09827284105E+007, +4.98613738928E+001, +5.98515085985E+002
+3.11077596996E+007, +4.99160232488E+001, +6.05545143842E+002
+3.12327909887E+007, +5.06746688161E+001, +6.07713641064E+002
+3.13578222778E+007, +5.09668760615E+001, +6.09529581066E+002
+3.14828535670E+007, +5.16206629260E+001, +6.16030676780E+002
+3.16078848561E+007, +5.19666069963E+001, +6.16993418479E+002
+3.17329161452E+007, +5.03978204801E+001, +6.21126573532E+002
+3.18579474343E+007, +5.39453603663E+001, +6.24422345794E+002
+3.19829787234E+007, +5.22795985287E+001, +6.27775972142E+002
+3.21080100125E+007, +5.19336740077E+001, +6.33433695477E+002
+3.22330413016E+007, +5.36431011660E+001, +6.36362140819E+002
+3.23580725907E+007, +5.29665824039E+001, +6.40329161510E+002
+3.24831038798E+007, +5.53852330900E+001, +6.41526976778E+002
+3.26081351690E+007, +5.38927577206E+001, +6.47508424487E+002
+3.27331664581E+007, +5.54180945700E+001, +6.51103666844E+002
+3.28581977472E+007, +5.47926142133E+001, +6.53496598973E+002
+3.29832290363E+007, +5.47298693576E+001, +6.59001008728E+002
+3.31082603254E+007, +5.49368546621E+001, +6.61319020980E+002
+3.32332916145E+007, +5.58878311336E+001, +6.63948298522E+002
+3.33583229036E+007, +5.67508262075E+001, +6.69089066022E+002
+3.34833541927E+007, +5.70739071162E+001, +6.73732211837E+002
+3.36083854819E+007, +5.63278491266E+001, +6.75191530542E+002
+3.37334167710E+007, +5.71992029231E+001, +6.80875219235E+002
+3.38584480601E+007, +5.84844190093E+001, +6.84212407057E+002
+3.39834793492E+007, +5.81502990124E+001, +6.89147661874E+002
+3.41085106383E+007, +5.69155603175E+001, +6.92754643680E+002
+3.42335419274E+007, +5.94193683408E+001, +6.97805126911E+002
+3.43585732165E+007, +5.84039297652E+001, +7.00583338619E+002
+3.44836045056E+007, +6.00383481028E+001, +7.05491656616E+002
+3.46086357947E+007, +6.04096110693E+001, +7.08633312848E+002
+3.47336670839E+007, +6.00472968570E+001, +7.11611374130E+002
+3.48586983730E+007, +6.07002247265E+001, +7.15579213740E+002
+3.49837296621E+007, +6.13376961774E+001, +7.20903265792E+002
+3.51087609512E+007, +6.33368831331E+001, +7.23593822103E+002
+3.52337922403E+007, +6.03731757128E+001, +7.30258138858E+002
+3.53588235294E+007, +6.16981092041E+001, +7.32043094479E+002
+3.54838548185E+007, +6.45932152160E+001, +7.35946707886E+002
+3.56088861076E+007, +6.35696502664E+001, +7.43056064280E+002
+3.57339173967E+007, +6.38901248740E+001, +7.45944739840E+002
+3.58589486859E+007, +6.43588094253E+001, +7.49130519905E+002
+3.59839799750E+007, +6.42666223348E+001, +7.54287835420E+002
+3.61090112641E+007, +6.29006269199E+001, +7.58288107755E+002
+3.62340425532E+007, +6.55325411319E+001, +7.63662167204E+002
+3.63590738423E+007, +6.59387632564E+001, +7.68675805156E+002
+3.64841051314E+007, +6.66555766203E+001, +7.73109320508E+002
+3.66091364205E+007, +6.77823205690E+001, +7.76408586073E+002
+3.67341677096E+007, +6.73591151121E+001, +7.81065591668E+002
+3.68591989987E+007, +6.70500927313E+001, +7.86039909916E+002
+3.69842302879E+007, +6.71042801531E+001, +7.92193513943E+002
+3.71092615770E+007, +6.82031025415E+001, +7.94503493639E+002
+3.72342928661E+007, +7.10461367866E+001, +7.99017307207E+002
+3.73593241552E+007, +6.90257047171E+001, +8.06346686618E+002
+3.74843554443E+007, +6.74330589824E+001, +8.07304457328E+002
+3.76093867334E+007, +7.26263057447E+001, +8.12630811088E+002
+3.77344180225E+007, +7.46344335870E+001, +8.19306063166E+002
+3.78594493116E+007, +7.31530921579E+001, +8.22564048947E+002
+3.79844806008E+007, +7.41136893610E+001, +8.26620000467E+002
+3.81095118899E+007, +7.57097855601E+001, +8.31978243973E+002
+3.82345431790E+007, +7.53694978464E+001, +8.37329099107E+002
+3.83595744681E+007, +7.39042994900E+001, +8.43161245472E+002
+3.84846057572E+007, +7.51709695236E+001, +8.48554099475E+002
+3.86096370463E+007, +7.47721052594E+001, +8.52051232568E+002
+3.87346683354E+007, +7.91168631975E+001, +8.55762393131E+002
+3.88596996245E+007, +7.79845478742E+001, +8.63149203098E+002
+3.89847309136E+007, +7.91915274756E+001, +8.66750610327E+002
+3.91097622028E+007, +8.21974285662E+001, +8.70427728910E+002
+3.92347934919E+007, +7.99511243228E+001, +8.81411625922E+002
+3.93598247810E+007, +8.23486941041E+001, +8.85897686289E+002
+3.94848560701E+007, +7.95191419722E+001, +8.88722245757E+002
+3.96098873592E+007, +8.24890870566E+001, +8.94627912114E+002
+3.97349186483E+007, +8.42304257941E+001, +8.98444828662E+002
+3.98599499374E+007, +8.54428115733E+001, +9.07430661969E+002
+3.99849812265E+007, +8.37304211061E+001, +9.13170457548E+002
+4.01100125156E+007, +8.65031809794E+001, +9.16219404511E+002
