"# Channel 1"
"# Trace 1"
Frequency, Formatted Data, Formatted Data
+1.00000000000E+005, +2.84614926457E-001, +1.63197619149E+000
+2.66777963272E+005, +2.84927016749E-001, +4.32785946915E+000
+4.33555926544E+005, +3.32543164603E-001, +7.02852063318E+000
+6.00333889816E+005, +4.00964226066E-001, +9.65869376412E+000
+7.67111853088E+005, +4.29089552669E-001, +1.23535396875E+001
+9.33889816361E+005, +4.67179472634E-001, +1.49665080714E+001
+1.10066777963E+006, +4.28086931495E-001, +1.76213410420E+001
+1.26744574290E+006, +5.08754179713E-001, +2.02294568950E+001
+1.43422370618E+006, +4.42352212993E-001, +2.29224987731E+001
+1.60100166945E+006, +5.63059297626E-001, +2.55043331814E+001
+1.76777963272E+006, +5.56852335789E-001, +2.81288691308E+001
+1.93455759599E+006, +5.79243146078E-001, +3.07117586142E+001
+2.10133555927E+006, +6.00693761565E-001, +3.33372405679E+001
+2.26811352254E+006, +6.65587401298E-001, +3.59831589313E+001
+2.43489148581E+006, +6.24892642890E-001, +3.86941760843E+001
+2.60166944908E+006, +6.48801519675E-001, +4.12296305830E+001
+2.76844741235E+006, +6.02488272800E-001, +4.39328125574E+001
+2.93522537563E+006, +6.23346141832E-001, +4.65400123608E+001
+3.10200333890E+006, +7.37505117847E-001, +4.91595070334E+001
+3.26878130217E+006, +5.72010364317E-001, +5.18083267265E+001
+3.43555926544E+006, +6.84099743083E-001, +5.44114814539E+001
+3.60233722871E+006, +7.03416611935E-001, +5.71356266668E+001
+3.76911519199E+006, +6.39559279248E-001, +5.98091838115E+001
+3.93589315526E+006, +6.36569881648E-001, +6.23493996701E+001
+4.10267111853E+006, +6.31801537524E-001, +6.51603403930E+001
+4.26944908180E+006, +6.27053262768E-001, +6.78514541358E+001
+4.43622704508E+006, +6.87285547022E-001, +7.03201302881E+001
+4.60300500835E+006, +6.67031636331E-001, +7.31086201679E+001
+4.76978297162E+006, +6.64980442793E-001, +7.56327315112E+001
+4.93656093489E+006, +7.37376983638E-001, +7.84062924441E+001
+5.10333889816E+006, +7.87731104632E-001, +8.09783989763E+001
+5.27011686144E+006, +8.78031485038E-001, +8.38646801085E+001
+5.43689482471E+006, +7.07799468713E-001, +8.64526584044E+001
+5.60367278798E+006, +7.66446613936E-001, +8.92580588606E+001
+5.77045075125E+006, +7.33337973715E-001, +9.16954601829E+001
+5.93722871452E+006, +8.71211937810E-001, +9.44851754892E+001
+6.10400667780E+006, +8.14536948270E-001, +9.72297446814E+001
+6.27078464107E+006, +9.07901127209E-001, +9.98719425106E+001
+6.43756260434E+006, +9.41189885100E-001, +1.02611087005E+002
+6.60434056761E+006, +9.72041528032E-001, +1.05315974650E+002
+6.77111853088E+006, +1.08592975727E+000, +1.07952574590E+002
+6.93789649416E+006, +9.89145678730E-001, +1.10687257839E+002
+7.10467445743E+006, +1.00254471720E+000, +1.13300247260E+002
+7.27145242070E+006, +1.04767469274E+000, +1.15994017638E+002
+7.43823038397E+006, +1.18611753126E+000, +1.18627629115E+002
+7.60500834725E+006, +1.05226794864E+000, +1.21410467399E+002
+7.77178631052E+006, +1.08218500034E+000, +1.24175949127E+002
+7.93856427379E+006, +1.01279346106E+000, +1.26759337927E+002
+8.10534223706E+006, +1.13009881392E+000, +1.29579949863E+002
+8.27212020033E+006, +1.15119109280E+000, +1.32303026055E+002
+8.43889816361E+006, +1.08624865763E+000, +1.35040132682E+002
+8.60567612688E+006, +9.50569689139E-001, +1.37809321648E+002
+8.77245409015E+006, +1.00709476781E+000, +1.40475901580E+002
+8.93923205342E+006, +9.58939260025E-001, +1.43278537014E+002
+9.10601001669E+006, +9.84374062547E-001, +1.46036478201E+002
+9.27278797997E+006, +1.05537654776E+000, +1.48934590130E+002
+9.43956594324E+006, +9.31197573759E-001, +1.51540096780E+002
+9.60634390651E+006, +9.95670379606E-001, +1.54335001349E+002
+9.77312186978E+006, +8.92452132293E-001, +1.57084007252E+002
+9.93989983306E+006, +1.02576956053E+000, +1.60025926155E+002
+1.01066777963E+007, +8.54890362447E-001, +1.62707611887E+002
+1.02734557596E+007, +9.02445608600E-001, +1.65568092783E+002
+1.04402337229E+007, +8.41272250664E-001, +1.68336025534E+002
+1.06070116861E+007, +8.18758311161E-001, +1.71247395550E+002
+1.07737896494E+007, +8.65512242562E-001, +1.73979940151E+002
+1.09405676127E+007, +8.97154819785E-001, +1.76969402303E+002
+1.11073455760E+007, +8.31447460671E-001, +1.79788783817E+002
+1.12741235392E+007, +7.53695772384E-001, +1.82400034740E+002
+1.14409015025E+007, +9.52135097606E-001, +1.85484295474E+002
+1.16076794658E+007, +1.06882122956E+000, +1.88307111183E+002
+1.17744574290E+007, +8.90891709425E-001, +1.91317747579E+002
+1.19412353923E+007, +7.06263225940E-001, +1.94114130742E+002
+1.21080133556E+007, +5.55670773811E-001, +1.96876730801E+002
+1.22747913189E+007, +8.08110281441E-001, +1.99988327435E+002
+1.24415692821E+007, +7.62151181750E-001, +2.02585575102E+002
+1.26083472454E+007, +7.14944248197E-001, +2.05700668102E+002
+1.27751252087E+007, +8.08395739718E-001, +2.08579348517E+002
+1.29419031720E+007, +6.65215146476E-001, +2.11387146168E+002
+1.31086811352E+007, +7.22660461591E-001, +2.14529813516E+002
+1.32754590985E+007, +8.02948821705E-001, +2.17313697367E+002
+1.34422370618E+007, +6.22870101021E-001, +2.20343723541E+002
+1.36090150250E+007, +1.02785417583E+000, +2.23425481885E+002
+1.37757929883E+007, +5.45599881031E-001, +2.26347771289E+002
+1.39425709516E+007, +7.23640834204E-001, +2.29282990511E+002
+1.41093489149E+007, +7.37267430112E-001, +2.32307940369E+002
+1.42761268781E+007, +9.04627260714E-001, +2.35181758690E+002
+1.44429048414E+007, +8.65873677676E-001, +2.38105060002E+002
+1.46096828047E+007, +5.11236061389E-001, +2.41420393901E+002
+1.47764607679E+007, +1.05445081882E+000, +2.43970829955E+002
+1.49432387312E+007, +7.09313794164E-001, +2.47429680343E+002
+1.51100166945E+007, +4.45986950098E-001, +2.50618696261E+002
+1.52767946578E+007, +9.66059718811E-001, +2.53420664054E+002
+1.54435726210E+007, +8.61478232498E-001, +2.56467930746E+002
+1.56103505843E+007, +8.96802079403E-001, +2.59858157048E+002
+1.57771285476E+007, +7.41085562694E-001, +2.62435026900E+002
+1.59439065109E+007, +1.06635097149E+000, +2.65391196617E+002
+1.61106844741E+007, +8.88089554887E-001, +2.68882612799E+002
+1.62774624374E+007, +7.80115960415E-001, +2.71441993006E+002
+1.64442404007E+007, +6.28599677495E-001, +2.74925097734E+002
+1.66110183639E+007, +1.09524543031E+000, +2.77883211286E+002
+1.67777963272E+007, +9.29769228900E-001, +2.81543795041E+002
+1.69445742905E+007, +8.29626404250E-001, +2.84358573341E+002
+1.71113522538E+007, +9.00972428163E-002, +2.87268078536E+002
+1.72781302170E+007, +3.82205288424E-001, +2.90743398297E+002
+1.74449081803E+007, +8.56286051214E-002, +2.93955566779E+002
+1.76116861436E+007, +9.93906218365E-001, +2.97661820187E+002
+1.77784641068E+007, +7.07863123588E-001, +2.99918790299E+002
+1.79452420701E+007, +6.02155633968E-001, +3.03734556044E+002
+1.81120200334E+007, +8.03412642730E-001, +3.06563421822E+002
+1.82787979967E+007, +8.05694799214E-001, +3.09760553721E+002
+1.84455759599E+007, +1.06567200828E+000, +3.13219962878E+002
+1.86123539232E+007, +7.73558170911E-001, +3.16308557996E+002
+1.87791318865E+007, +6.33898543238E-001, +3.19974596179E+002
+1.89459098497E+007, +5.95128056505E-001, +3.23191273718E+002
+1.91126878130E+007, +9.30653942337E-001, +3.26430441005E+002
+1.92794657763E+007, +6.27259920568E-001, +3.29812871866E+002
+1.94462437396E+007, +1.14406912751E+000, +3.33310621691E+002
+1.96130217028E+007, +7.98084498901E-001, +3.37395512953E+002
+1.97797996661E+007, +1.18050201442E+000, +3.39896147513E+002
+1.99465776294E+007, +5.14864008887E-001, +3.43890807488E+002
+2.01133555927E+007, +7.98992395655E-001, +3.47356578213E+002
+2.02801335559E+007, +7.98629413161E-001, +3.50837015398E+002
+2.04469115192E+007, +1.90518699264E+000, +3.54341828720E+002
+2.06136894825E+007, +1.28579553806E+000, +3.57522509203E+002
+2.07804674457E+007, +1.28889633129E+000, +3.61420490074E+002
+2.09472454090E+007, +6.50903527533E-001, +3.65332497742E+002
+2.11140233723E+007, +7.77544728812E-001, +3.68132103709E+002
+2.12808013356E+007, +1.33042641705E+000, +3.72131018453E+002
+2.14475792988E+007, +1.48800474967E+000, +3.75462366859E+002
+2.16143572621E+007, +1.97800717675E+000, +3.78720564112E+002
+2.17811352254E+007, +1.74344326521E+000, +3.81935987073E+002
+2.19479131886E+007, +2.43323494702E+000, +3.85929576845E+002
+2.21146911519E+007, +1.92232885602E+000, +3.88377297407E+002
+2.22814691152E+007, +1.76964555004E+000, +3.92517607129E+002
+2.24482470785E+007, +1.66587268810E+000, +3.97336005376E+002
+2.26150250417E+007, +2.47527038964E+000, +4.00672592088E+002
+2.27818030050E+007, +2.11282615644E+000, +4.04694571717E+002
+2.29485809683E+007, +2.91042358830E+000, +4.07890695126E+002
+2.31153589316E+007, +2.05150338826E+000, +4.12641004014E+002
+2.32821368948E+007, +3.02934043120E+000, +4.15822135913E+002
+2.34489148581E+007, +3.62505985838E+000, +4.18700464290E+002
+2.36156928214E+007, +3.31119282533E+000, +4.24439663049E+002
+2.37824707846E+007, +3.38745591693E+000, +4.27167497333E+002
+2.39492487479E+007, +3.45503445905E+000, +4.30457805218E+002
+2.41160267112E+007, +4.20207404102E+000, +4.34962198150E+002
+2.42828046745E+007, +3.28786262339E+000, +4.38277844466E+002
+2.44495826377E+007, +3.54902196886E+000, +4.43504132582E+002
+2.46163606010E+007, +4.10079983781E+000, +4.46696394900E+002
+2.47831385643E+007, +4.08504281241E+000, +4.49688092312E+002
+2.49499165275E+007, +4.35103258712E+000, +4.54130390108E+002
+2.51166944908E+007, +5.46135101133E+000, +4.57911637396E+002
+2.52834724541E+007, +5.19336358791E+000, +4.62233898584E+002
+2.54502504174E+007, +5.36654771990E+000, +4.66778309438E+002
+2.56170283806E+007, +4.46562705071E+000, +4.69453618393E+002
+2.57838063439E+007, +5.15242217002E+000, +4.74652195924E+002
+2.59505843072E+007, +6.43173772292E+000, +4.79299265365E+002
+2.61173622705E+007, +6.30431006075E+000, +4.83072400594E+002
+2.62841402337E+007, +5.52385521026E+000, +4.86292508438E+002
+2.64509181970E+007, +5.60562397106E+000, +4.90835564509E+002
+2.66176961603E+007, +6.16171002835E+000, +4.95626461985E+002
+2.67844741235E+007, +6.68836153525E+000, +4.99872039879E+002
+2.69512520868E+007, +6.90735572513E+000, +5.02116259484E+002
+2.71180300501E+007, +6.67286139388E+000, +5.05985388831E+002
+2.72848080134E+007, +7.18583376607E+000, +5.11308184492E+002
+2.74515859766E+007, +7.87673418745E+000, +5.15419057439E+002
+2.76183639399E+007, +7.28719657124E+000, +5.18773314782E+002
+2.77851419032E+007, +6.83958134518E+000, +5.21955840731E+002
+2.79519198664E+007, +7.08091552170E+000, +5.26815083315E+002
+2.81186978297E+007, +8.49068719579E+000, +5.30396265488E+002
+2.82854757930E+007, +7.37863329487E+000, +5.35070683618E+002
+2.84522537563E+007, +6.05836679016E+000, +5.40378647314E+002
+2.86190317195E+007, +5.92340807037E+000, +5.44807593806E+002
+2.87858096828E+007, +7.79620505974E+000, +5.49553369906E+002
+2.89525876461E+007, +7.51996208969E+000, +5.53549109514E+002
+2.91193656093E+007, +7.13399413772E+000, +5.56083183212E+002
+2.92861435726E+007, +5.10902764988E+000, +5.62446624288E+002
+2.94529215359E+007, +6.36975147365E+000, +5.67553833419E+002
+2.96196994992E+007, +6.61209749658E+000, +5.72456269201E+002
+2.97864774624E+007, +8.29569060940E+000, +5.75978396089E+002
+2.99532554257E+007, +6.54715138926E+000, +5.82443775489E+002
+3.01200333890E+007, +6.65859380210E+000, +5.86631463661E+002
+3.02868113523E+007, +5.73085699566E+000, +5.92871355638E+002
+3.04535893155E+007, +6.34207758721E+000, +5.97933368740E+002
+3.06203672788E+007, +7.52852752581E+000, +6.01494953507E+002
+3.07871452421E+007, +7.59730369741E+000, +6.08391188115E+002
+3.09539232053E+007, +5.57611697152E+000, +6.12161608865E+002
+3.11207011686E+007, +4.33946213820E+000, +6.19801945271E+002
+3.12874791319E+007, +6.28254212478E+000, +6.22490608180E+002
+3.14542570952E+007, +7.25334082052E+000, +6.26584759998E+002
+3.16210350584E+007, +5.85889676060E+000, +6.32023615131E+002
+3.17878130217E+007, +6.86019368622E+000, +6.37222379418E+002
+3.19545909850E+007, +7.69774563034E+000, +6.43566990798E+002
+3.21213689482E+007, +4.02307764627E+000, +6.48141956198E+002
+3.22881469115E+007, +6.60697821282E+000, +6.52308586023E+002
+3.24549248748E+007, +5.26681184192E+000, +6.60515606000E+002
+3.26217028381E+007, +5.06169435879E+000, +6.65787534084E+002
+3.27884808013E+007, +7.20688844436E+000, +6.71395820905E+002
+3.29552587646E+007, +4.50187382040E+000, +6.77450132279E+002
+3.31220367279E+007, +6.39244037126E+000, +6.81207959995E+002
+3.32888146912E+007, +4.79009148898E+000, +6.89553602361E+002
+3.34555926544E+007, +4.34353785198E+000, +6.95822973127E+002
+3.36223706177E+007, +7.86271489864E+000, +6.99812449077E+002
+3.37891485810E+007, +5.97758204597E+000, +7.04703477254E+002
+3.39559265442E+007, +6.73714243784E+000, +7.13628931305E+002
+3.41227045075E+007, +4.55523742333E+000, +7.17836823321E+002
+3.42894824708E+007, +7.43087647947E+000, +7.25862743267E+002
+3.44562604341E+007, +4.71067215142E+000, +7.31161896034E+002
+3.46230383973E+007, +5.47985731507E+000, +7.38414350830E+002
+3.47898163606E+007, +5.17386908425E+000, +7.41517215069E+002
+3.49565943239E+007, +8.16965146403E+000, +7.48769089871E+002
+3.51233722871E+007, +7.54410049058E+000, +7.55845375666E+002
+3.52901502504E+007, +9.19749591245E+000, +7.60462120388E+002
+3.54569282137E+007, +4.89511590315E+000, +7.68730327072E+002
+3.56237061770E+007, +6.25003954584E+000, +7.74834459290E+002
+3.57904841402E+007, +6.74821227489E+000, +7.81280206534E+002
+3.59572621035E+007, +7.73833350570E+000, +7.89704317796E+002
+3.61240400668E+007, +5.92698780136E+000, +7.96645435150E+002
+3.62908180301E+007, +8.16724759352E+000, +8.05883241566E+002
+3.64575959933E+007, +6.17847382539E+000, +8.13753008992E+002
+3.66243739566E+007, +6.54278062945E+000, +8.16432083014E+002
+3.67911519199E+007, +8.74716803451E+000, +8.27032505070E+002
+3.69579298831E+007, +5.16846002881E+000, +8.32419623940E+002
+3.71247078464E+007, +7.04977856677E+000, +8.38824232504E+002
+3.72914858097E+007, +8.63877360739E+000, +8.48455457749E+002
+3.74582637730E+007, +9.86309245536E+000, +8.58185986943E+002
+3.76250417362E+007, +9.12586923215E+000, +8.64905896037E+002
+3.77918196995E+007, +1.00207125512E+001, +8.73583752514E+002
+3.79585976628E+007, +7.22471514303E+000, +8.82832283204E+002
+3.81253756260E+007, +1.44403390966E+001, +8.88145763774E+002
+3.82921535893E+007, +1.10225451646E+001, +8.96876564623E+002
+3.84589315526E+007, +1.32988954354E+001, +9.04064480721E+002
+3.86257095159E+007, +1.21507487184E+001, +9.15747635024E+002
+3.87924874791E+007, +8.01346210252E+000, +9.23917565792E+002
+3.89592654424E+007, +1.08560646588E+001, +9.29933841597E+002
+3.91260434057E+007, +1.05663102797E+001, +9.42552737576E+002
+3.92928213689E+007, +1.04144514585E+001, +9.48673864088E+002
+3.94595993322E+007, +1.05353526167E+001, +9.58744521870E+002
+3.96263772955E+007, +7.71837694162E+000, +9.65312174513E+002
+3.97931552588E+007, +1.01547485354E+001, +9.75513679633E+002
+3.99599332220E+007, +1.14065561168E+001, +9.84611819200E+002
+4.01267111853E+007, +1.09489537511E+001, +9.96994841178E+002
+4.02934891486E+007, +1.07688420253E+001, +1.00174722590E+003
+4.04602671119E+007, +1.43769456899E+001, +1.01477009967E+003
+4.06270450751E+007, +1.31467502886E+001, +1.02659671368E+003
+4.07938230384E+007, +1.32819563552E+001, +1.03879820205E+003
+4.09606010017E+007, +1.51199890327E+001, +1.04723425782E+003
+4.11273789649E+007, +1.33627739493E+001, +1.05126089215E+003
+4.12941569282E+007, +1.54698995446E+001, +1.06867647653E+003
+4.14609348915E+007, +1.64216082526E+001, +1.08178114211E+003
+4.16277128548E+007, +1.84211679728E+001, +1.08747996821E+003
+4.17944908180E+007, +1.66763231974E+001, +1.09750479101E+003
+4.19612687813E+007, +1.70968036410E+001, +1.10950953483E+003
+4.21280467446E+007, +1.78010803628E+001, +1.12247533255E+003
+4.22948247078E+007, +2.10538302305E+001, +1.13560072637E+003
+4.24616026711E+007, +2.20826150999E+001, +1.14336823710E+003
+4.26283806344E+007, +2.43917200944E+001, +1.16071294619E+003
+4.27951585977E+007, +1.55825823882E+001, +1.17320363656E+003
+4.29619365609E+007, +2.42627702944E+001, +1.18341202052E+003
+4.31287145242E+007, +2.45563876457E+001, +1.20426000713E+003
+4.32954924875E+007, +2.64137862809E+001, +1.20920907536E+003
+4.34622704508E+007, +2.17384164253E+001, +1.22670605760E+003
+4.36290484140E+007, +2.55201353920E+001, +1.23879450147E+003
+4.37958263773E+007, +2.62951316513E+001, +1.26087654688E+003
+4.39626043406E+007, +2.83937703370E+001, +1.26911507128E+003
+4.41293823038E+007, +3.41786801420E+001, +1.28578396260E+003
+4.42961602671E+007, +3.11267667586E+001, +1.30009320759E+003
+4.44629382304E+007, +2.94684643790E+001, +1.31674719012E+003
+4.46297161937E+007, +3.58694857845E+001, +1.33319136453E+003
+4.47964941569E+007, +3.16108675062E+001, +1.34375441527E+003
+4.49632721202E+007, +2.80997370888E+001, +1.36714909615E+003
+4.51300500835E+007, +3.92230537990E+001, +1.37169394861E+003
+4.52968280467E+007, +4.21703711138E+001, +1.39727177335E+003
+4.54636060100E+007, +3.95428737763E+001, +1.42421528210E+003
+4.56303839733E+007, +4.11805449854E+001, +1.43834533242E+003
+4.57971619366E+007, +3.67841860251E+001, +1.46148148726E+003
+4.59639398998E+007, +3.76594742733E+001, +1.48282590510E+003
+4.61307178631E+007, +4.41682761402E+001, +1.49550242528E+003
+4.62974958264E+007, +4.95873765032E+001, +1.51709523387E+003
+4.64642737896E+007, +4.37345841028E+001, +1.53520546079E+003
+4.66310517529E+007, +5.41750798563E+001, +1.56274376751E+003
+4.67978297162E+007, +6.63687007655E+001, +1.57192830871E+003
+4.69646076795E+007, +5.88189636585E+001, +1.60743549872E+003
+4.71313856427E+007, +7.54850563861E+001, +1.61760652248E+003
+4.72981636060E+007, +6.19522649685E+001, +1.65925617505E+003
+4.74649415693E+007, +6.64913148827E+001, +1.67295127334E+003
+4.76317195326E+007, +8.45977090327E+001, +1.70935779296E+003
+4.77984974958E+007, +8.08086171337E+001, +1.72453896454E+003
+4.79652754591E+007, +8.12817997558E+001, +1.75019062602E+003
+4.81320534224E+007, +1.02692515681E+002, +1.76983754009E+003
+4.82988313856E+007, +1.04538734247E+002, +1.80397956568E+003
+4.84656093489E+007, +1.23949648983E+002, +1.83051818050E+003
+4.86323873122E+007, +1.23092164949E+002, +1.85078800761E+003
+4.87991652755E+007, +1.26701246623E+002, +1.88672292441E+003
+4.89659432387E+007, +1.35829324878E+002, +1.92355600797E+003
+4.91327212020E+007, +1.43727868193E+002, +1.94511767099E+003
+4.92994991653E+007, +1.66760730771E+002, +1.95846853261E+003
+4.94662771285E+007, +1.64040743023E+002, +2.01738396959E+003
+4.96330550918E+007, +1.89869112876E+002, +2.01864584364E+003
+4.97998330551E+007, +1.90965014934E+002, +2.04438957900E+003
+4.99666110184E+007, +2.19622160071E+002, +2.07416044786E+003
+5.01333889816E+007, +2.19871804518E+002, +2.12231592191E+003
+5.03001669449E+007, +2.07308893197E+002, +2.15336954295E+003
+5.04669449082E+007, +2.46281652057E+002, +2.18809055031E+003
+5.06337228715E+007, +2.48097149451E+002, +2.23801400021E+003
+5.08005008347E+007, +2.47955396213E+002, +2.23727696431E+003
+5.09672787980E+007, +2.74837046948E+002, +2.27068773917E+003
+5.11340567613E+007, +2.67894306323E+002, +2.33003954020E+003
+5.13008347245E+007, +2.66616730755E+002, +2.37149900633E+003
+5.14676126878E+007, +2.73457349075E+002, +2.40196322381E+003
+5.16343906511E+007, +3.25353143892E+002, +2.47367757144E+003
+5.18011686144E+007, +2.84758136951E+002, +2.48454915859E+003
+5.19679465776E+007, +2.99433300247E+002, +2.55704547546E+003
+5.21347245409E+007, +3.21988101566E+002, +2.61681623947E+003
+5.23015025042E+007, +3.44474517945E+002, +2.70628589529E+003
+5.24682804674E+007, +3.30266306863E+002, +2.78286732698E+003
+5.26350584307E+007, +3.73692863982E+002, +2.82445962241E+003
+5.28018363940E+007, +3.46183901983E+002, +2.90348611662E+003
+5.29686143573E+007, +3.95710391572E+002, +2.97366868001E+003
+5.31353923205E+007, +3.83572896687E+002, +2.99878474254E+003
+5.33021702838E+007, +4.37683458210E+002, +3.09798035601E+003
+5.34689482471E+007, +4.97103407194E+002, +3.22215210185E+003
