"# Channel 1"
"# Trace 1"
Frequency, Formatted Data, Formatted Data
+1.00000000000E+005, +5.77921162714E-001, +1.61082275404E+000
+2.25031289111E+005, +5.95717613269E-001, +3.62521377003E+000
+3.50062578223E+005, +6.01235090021E-001, +5.64037167941E+000
+4.75093867334E+005, +5.98127907897E-001, +7.65851440559E+000
+6.00125156446E+005, +6.18904940392E-001, +9.68082421304E+000
+7.25156445557E+005, +6.39542709920E-001, +1.16598351841E+001
+8.50187734668E+005, +7.18546779381E-001, +1.36677390346E+001
+9.75219023780E+005, +7.21582455270E-001, +1.56315977602E+001
+1.10025031289E+006, +7.52924907867E-001, +1.76160340749E+001
+1.22528160200E+006, +8.10597285984E-001, +1.96358671348E+001
+1.35031289111E+006, +7.77604955489E-001, +2.16394135297E+001
+1.47534418023E+006, +8.38210739435E-001, +2.35598474243E+001
+1.60037546934E+006, +8.38326077572E-001, +2.55266375147E+001
+1.72540675845E+006, +8.81189112914E-001, +2.75191858761E+001
+1.85043804756E+006, +9.32467793067E-001, +2.94477261633E+001
+1.97546933667E+006, +9.38140370009E-001, +3.14333407980E+001
+2.10050062578E+006, +9.54346572373E-001, +3.34217152460E+001
+2.22553191489E+006, +9.13985808262E-001, +3.54189433498E+001
+2.35056320401E+006, +9.23782607820E-001, +3.73524352015E+001
+2.47559449312E+006, +9.55283441847E-001, +3.92711706056E+001
+2.60062578223E+006, +1.04103264071E+000, +4.12361652572E+001
+2.72565707134E+006, +1.03468898298E+000, +4.32138042591E+001
+2.85068836045E+006, +1.00862841914E+000, +4.52508044191E+001
+2.97571964956E+006, +1.07064721598E+000, +4.71946234272E+001
+3.10075093867E+006, +1.02286196124E+000, +4.92042399889E+001
+3.22578222778E+006, +1.08730351980E+000, +5.11451636132E+001
+3.35081351690E+006, +1.18557561465E+000, +5.31686484512E+001
+3.47584480601E+006, +1.16346059658E+000, +5.49982185402E+001
+3.60087609512E+006, +1.22968304464E+000, +5.70524758586E+001
+3.72590738423E+006, +1.15793678661E+000, +5.90771912456E+001
+3.85093867334E+006, +1.17834768922E+000, +6.10146918993E+001
+3.97596996245E+006, +1.14915301603E+000, +6.29719892345E+001
+4.10100125156E+006, +1.13224129188E+000, +6.50745149119E+001
+4.22603254068E+006, +1.24565572120E+000, +6.68932312514E+001
+4.35106382979E+006, +1.27923050690E+000, +6.89783505194E+001
+4.47609511890E+006, +1.29345797221E+000, +7.08556793550E+001
+4.60112640801E+006, +1.23909324860E+000, +7.28997242960E+001
+4.72615769712E+006, +1.20275376432E+000, +7.47843184061E+001
+4.85118898623E+006, +1.17992444711E+000, +7.68208287778E+001
+4.97622027534E+006, +1.22002397210E+000, +7.87385297501E+001
+5.10125156446E+006, +1.22580243580E+000, +8.06758227541E+001
+5.22628285357E+006, +1.31390486726E+000, +8.27112103436E+001
+5.35131414268E+006, +1.24147098815E+000, +8.47527851490E+001
+5.47634543179E+006, +1.28312881823E+000, +8.67722727741E+001
+5.60137672090E+006, +1.37998114430E+000, +8.89357630552E+001
+5.72640801001E+006, +1.30010920379E+000, +9.07883076456E+001
+5.85143929912E+006, +1.41470639704E+000, +9.28624707688E+001
+5.97647058824E+006, +1.35046501687E+000, +9.47437459563E+001
+6.10150187735E+006, +1.21281415646E+000, +9.67401199999E+001
+6.22653316646E+006, +1.56397887981E+000, +9.87453964499E+001
+6.35156445557E+006, +1.46624106997E+000, +1.00842995813E+002
+6.47659574468E+006, +1.54976375265E+000, +1.02894027478E+002
+6.60162703379E+006, +1.47086816679E+000, +1.04896452889E+002
+6.72665832290E+006, +1.53334313826E+000, +1.06855116275E+002
+6.85168961202E+006, +1.49346547755E+000, +1.08955773771E+002
+6.97672090113E+006, +1.53104556263E+000, +1.10905638622E+002
+7.10175219024E+006, +1.51901837924E+000, +1.12877087859E+002
+7.22678347935E+006, +1.52934079416E+000, +1.14814509483E+002
+7.35181476846E+006, +1.61347172374E+000, +1.16857796108E+002
+7.47684605757E+006, +1.57234654433E+000, +1.18973442412E+002
+7.60187734668E+006, +1.65457069838E+000, +1.20930836523E+002
+7.72690863579E+006, +1.66278515510E+000, +1.22865929084E+002
+7.85193992491E+006, +1.70705398827E+000, +1.25039862237E+002
+7.97697121402E+006, +1.78492553172E+000, +1.26999196913E+002
+8.10200250313E+006, +1.73400803649E+000, +1.29066407804E+002
+8.22703379224E+006, +1.68846261819E+000, +1.31062451587E+002
+8.35206508135E+006, +1.67018943146E+000, +1.33063946264E+002
+8.47709637046E+006, +1.71157627956E+000, +1.35020083637E+002
+8.60212765957E+006, +1.69309850053E+000, +1.37072734697E+002
+8.72715894869E+006, +1.70035794880E+000, +1.39263794958E+002
+8.85219023780E+006, +1.78612664116E+000, +1.41260846525E+002
+8.97722152691E+006, +1.77666541035E+000, +1.43358661761E+002
+9.10225281602E+006, +1.81724546229E+000, +1.45391329620E+002
+9.22728410513E+006, +1.89092552212E+000, +1.47391709168E+002
+9.35231539424E+006, +1.78402052821E+000, +1.49601498183E+002
+9.47734668335E+006, +1.86615128489E+000, +1.51411120809E+002
+9.60237797247E+006, +1.86843158193E+000, +1.53405621940E+002
+9.72740926158E+006, +1.90517589723E+000, +1.55560140988E+002
+9.85244055069E+006, +1.92238080814E+000, +1.57431978156E+002
+9.97747183980E+006, +1.78711474749E+000, +1.59675699123E+002
+1.01025031289E+007, +1.78931689539E+000, +1.61618842033E+002
+1.02275344180E+007, +1.98987167780E+000, +1.63804429107E+002
+1.03525657071E+007, +1.98471685775E+000, +1.65905483659E+002
+1.04775969962E+007, +1.93904386510E+000, +1.67853098043E+002
+1.06026282854E+007, +1.89367030522E+000, +1.69969231369E+002
+1.07276595745E+007, +1.88948626999E+000, +1.72112031925E+002
+1.08526908636E+007, +1.94010917545E+000, +1.74285787675E+002
+1.09777221527E+007, +1.91905020358E+000, +1.76290094652E+002
+1.11027534418E+007, +2.00153226598E+000, +1.78351160216E+002
+1.12277847309E+007, +1.87075178856E+000, +1.80382958593E+002
+1.13528160200E+007, +1.67514424039E+000, +1.82672427449E+002
+1.14778473091E+007, +1.79037575230E+000, +1.84638062603E+002
+1.16028785982E+007, +1.89097802848E+000, +1.86823116968E+002
+1.17279098874E+007, +1.90815702638E+000, +1.88906022333E+002
+1.18529411765E+007, +1.88045669699E+000, +1.90955470893E+002
+1.19779724656E+007, +1.88724357805E+000, +1.92956081549E+002
+1.21030037547E+007, +1.85633261893E+000, +1.95121362442E+002
+1.22280350438E+007, +1.77574303193E+000, +1.97268921136E+002
+1.23530663329E+007, +1.80231397964E+000, +1.99741477643E+002
+1.24780976220E+007, +1.88947145153E+000, +2.01570389036E+002
+1.26031289111E+007, +1.81943869809E+000, +2.03518935047E+002
+1.27281602003E+007, +1.87523074680E+000, +2.05659240447E+002
+1.28531914894E+007, +2.04951103581E+000, +2.08034500907E+002
+1.29782227785E+007, +1.77750675826E+000, +2.10006300692E+002
+1.31032540676E+007, +2.15012590373E+000, +2.12407074045E+002
+1.32282853567E+007, +1.95340505908E+000, +2.14497401013E+002
+1.33533166458E+007, +1.95396038291E+000, +2.16552688256E+002
+1.34783479349E+007, +1.68298962279E+000, +2.19032176131E+002
+1.36033792240E+007, +1.96619343693E+000, +2.20996256190E+002
+1.37284105131E+007, +1.79343298840E+000, +2.23039297038E+002
+1.38534418023E+007, +2.19560266372E+000, +2.25135269569E+002
+1.39784730914E+007, +1.88059278646E+000, +2.27102946416E+002
+1.41035043805E+007, +1.72353540217E+000, +2.29542218286E+002
+1.42285356696E+007, +1.87015574907E+000, +2.31952086116E+002
+1.43535669587E+007, +2.04159069736E+000, +2.34017621311E+002
+1.44785982478E+007, +1.78376302944E+000, +2.35887660805E+002
+1.46036295369E+007, +1.71208710226E+000, +2.38063485443E+002
+1.47286608260E+007, +1.59934040593E+000, +2.40793063324E+002
+1.48536921151E+007, +1.69773699469E+000, +2.42347304837E+002
+1.49787234043E+007, +2.13864036209E+000, +2.44952978151E+002
+1.51037546934E+007, +2.04852208638E+000, +2.46959522371E+002
+1.52287859825E+007, +1.76502395832E+000, +2.49046977249E+002
+1.53538172716E+007, +2.16121882888E+000, +2.51603722831E+002
+1.54788485607E+007, +1.88821153516E+000, +2.54078742820E+002
+1.56038798498E+007, +2.19051787879E+000, +2.55986880748E+002
+1.57289111389E+007, +1.84132069481E+000, +2.58377770036E+002
+1.58539424280E+007, +2.05766626631E+000, +2.60353065519E+002
+1.59789737171E+007, +2.08789530635E+000, +2.62945111831E+002
+1.61040050063E+007, +2.16265702951E+000, +2.64779665427E+002
+1.62290362954E+007, +2.11368957804E+000, +2.67168847146E+002
+1.63540675845E+007, +1.82231453363E+000, +2.69556517786E+002
+1.64790988736E+007, +1.92449588358E+000, +2.71723283938E+002
+1.66041301627E+007, +1.66828214292E+000, +2.74001154012E+002
+1.67291614518E+007, +1.71811007894E+000, +2.76652084518E+002
+1.68541927409E+007, +1.70418638591E+000, +2.78679637771E+002
+1.69792240300E+007, +1.30965883986E+000, +2.80819062970E+002
+1.71042553191E+007, +1.10219659419E+000, +2.83365497470E+002
+1.72292866083E+007, +1.70092056046E+000, +2.85439375695E+002
+1.73543178974E+007, +1.92071497698E+000, +2.88560872705E+002
+1.74793491865E+007, +1.43478492876E+000, +2.90113210431E+002
+1.76043804756E+007, +1.59438046151E+000, +2.92873395265E+002
+1.77294117647E+007, +1.49982807240E+000, +2.94596935485E+002
+1.78544430538E+007, +1.71845571968E+000, +2.96946495413E+002
+1.79794743429E+007, +1.89190106173E+000, +2.99303228672E+002
+1.81045056320E+007, +1.36216980809E+000, +3.02026200811E+002
+1.82295369212E+007, +1.82121248997E+000, +3.04098569115E+002
+1.83545682103E+007, +1.92136325621E+000, +3.06723406782E+002
+1.84795994994E+007, +2.22939159126E+000, +3.08799376920E+002
+1.86046307885E+007, +2.21036810815E+000, +3.11103501806E+002
+1.87296620776E+007, +1.76176888250E+000, +3.13720102277E+002
+1.88546933667E+007, +1.59152322033E+000, +3.15735282391E+002
+1.89797246558E+007, +2.05952915632E+000, +3.18149587081E+002
+1.91047559449E+007, +1.66112813242E+000, +3.20252804392E+002
+1.92297872340E+007, +1.82334081452E+000, +3.23536911396E+002
+1.93548185232E+007, +2.40281216932E+000, +3.25611306917E+002
+1.94798498123E+007, +1.75964448524E+000, +3.27999268519E+002
+1.96048811014E+007, +1.88357167679E+000, +3.30456929405E+002
+1.97299123905E+007, +1.94886105518E+000, +3.32349769407E+002
+1.98549436796E+007, +1.70388547084E+000, +3.35922272484E+002
+1.99799749687E+007, +2.41704539287E+000, +3.37637985469E+002
+2.01050062578E+007, +2.24636278948E+000, +3.39734913212E+002
+2.02300375469E+007, +2.10085724656E+000, +3.42872364182E+002
+2.03550688360E+007, +1.49082853170E+000, +3.45435940265E+002
+2.04801001252E+007, +1.67898219175E+000, +3.47972560620E+002
+2.06051314143E+007, +2.14951303248E+000, +3.50825952243E+002
+2.07301627034E+007, +2.17291791016E+000, +3.52853892131E+002
+2.08551939925E+007, +2.05891825974E+000, +3.55429222534E+002
+2.09802252816E+007, +2.31704792219E+000, +3.57961119338E+002
+2.11052565707E+007, +1.48951230789E+000, +3.60825033760E+002
+2.12302878598E+007, +1.81816448031E+000, +3.62632932896E+002
+2.13553191489E+007, +2.16227952426E+000, +3.64519226633E+002
+2.14803504380E+007, +2.09340208280E+000, +3.68050660682E+002
+2.16053817272E+007, +1.99094420859E+000, +3.70566134474E+002
+2.17304130163E+007, +1.97623798949E+000, +3.73647923636E+002
+2.18554443054E+007, +2.70799834117E+000, +3.75673567042E+002
+2.19804755945E+007, +1.54076352901E+000, +3.78228636102E+002
+2.21055068836E+007, +2.25021354347E+000, +3.81542331419E+002
+2.22305381727E+007, +2.40077182363E+000, +3.83737322833E+002
+2.23555694618E+007, +2.99433985739E+000, +3.86167196007E+002
+2.24806007509E+007, +2.54062308210E+000, +3.88849545840E+002
+2.26056320401E+007, +3.05075455342E+000, +3.91613388447E+002
+2.27306633292E+007, +3.04541429486E+000, +3.93196739138E+002
+2.28556946183E+007, +1.92143872560E+000, +3.96032649986E+002
+2.29807259074E+007, +2.87221355636E+000, +3.99872602453E+002
+2.31057571965E+007, +2.84184837468E+000, +4.01419438687E+002
+2.32307884856E+007, +3.31784529892E+000, +4.04643014353E+002
+2.33558197747E+007, +3.24635071165E+000, +4.06712656785E+002
+2.34808510638E+007, +2.99408097800E+000, +4.09333733720E+002
+2.36058823529E+007, +3.08688167802E+000, +4.11951134964E+002
+2.37309136421E+007, +3.56861190861E+000, +4.14665520985E+002
+2.38559449312E+007, +3.88744813565E+000, +4.18083657992E+002
+2.39809762203E+007, +3.25839995416E+000, +4.20053807849E+002
+2.41060075094E+007, +2.84619964616E+000, +4.23300620602E+002
+2.42310387985E+007, +3.93528747662E+000, +4.25423099917E+002
+2.43560700876E+007, +4.82925079345E+000, +4.28018390389E+002
+2.44811013767E+007, +3.85997049698E+000, +4.30846052341E+002
+2.46061326658E+007, +3.74988792268E+000, +4.33872309132E+002
+2.47311639549E+007, +3.39034935201E+000, +4.36077651261E+002
+2.48561952441E+007, +4.08391857026E+000, +4.39034476278E+002
+2.49812265332E+007, +3.81580092130E+000, +4.42737666216E+002
+2.51062578223E+007, +4.86343914573E+000, +4.43590251838E+002
+2.52312891114E+007, +3.34227061244E+000, +4.46187727198E+002
+2.53563204005E+007, +2.42505098209E+000, +4.50725062158E+002
+2.54813516896E+007, +2.67662974934E+000, +4.51414995968E+002
+2.56063829787E+007, +2.79031099557E+000, +4.55210561957E+002
+2.57314142678E+007, +3.64870010705E+000, +4.58833738870E+002
+2.58564455569E+007, +3.19913702313E+000, +4.60321515410E+002
+2.59814768461E+007, +4.64510725337E+000, +4.63288751574E+002
+2.61065081352E+007, +3.66722225018E+000, +4.66784100958E+002
+2.62315394243E+007, +2.19506124122E+000, +4.69687512699E+002
+2.63565707134E+007, +3.39209629192E+000, +4.72412622132E+002
+2.64816020025E+007, +2.67815583994E+000, +4.75458339654E+002
+2.66066332916E+007, +4.02452251194E+000, +4.79361536250E+002
+2.67316645807E+007, +2.74782206165E+000, +4.80245771408E+002
+2.68566958698E+007, +3.41406549388E+000, +4.84715028716E+002
+2.69817271589E+007, +3.04977366257E+000, +4.87664724582E+002
+2.71067584481E+007, +3.73183752474E+000, +4.91910716438E+002
+2.72317897372E+007, +3.56461746278E+000, +4.92350497716E+002
+2.73568210263E+007, +5.32493236827E+000, +4.95719289900E+002
+2.74818523154E+007, +3.96665917664E+000, +4.98458744055E+002
+2.76068836045E+007, +3.81729192348E+000, +5.00480663037E+002
+2.77319148936E+007, +4.53694949186E+000, +5.05229160500E+002
+2.78569461827E+007, +3.40121367995E+000, +5.07143523234E+002
+2.79819774718E+007, +3.44629885965E+000, +5.11292802523E+002
+2.81070087610E+007, +4.46110571602E+000, +5.14225008019E+002
+2.82320400501E+007, +2.97389013205E+000, +5.17724004803E+002
+2.83570713392E+007, +3.04620105336E+000, +5.19722695619E+002
+2.84821026283E+007, +4.63513121917E+000, +5.22729889212E+002
+2.86071339174E+007, +1.18269902174E+000, +5.24374918492E+002
+2.87321652065E+007, +4.53121309406E+000, +5.29797075440E+002
+2.88571964956E+007, +3.58241807041E+000, +5.33540193560E+002
+2.89822277847E+007, +2.91684488465E+000, +5.36979929013E+002
+2.91072590738E+007, +2.75370563201E+000, +5.39844043030E+002
+2.92322903630E+007, +2.12551928865E+000, +5.43508073502E+002
+2.93573216521E+007, +2.79657339140E+000, +5.46494010272E+002
+2.94823529412E+007, +4.35049458568E+000, +5.49063891037E+002
+2.96073842303E+007, +2.84200288809E+000, +5.51542001938E+002
+2.97324155194E+007, +2.18913129968E+000, +5.57354972230E+002
+2.98574468085E+007, +3.15427686901E+000, +5.60067701744E+002
+2.99824780976E+007, +1.74088336253E+000, +5.63897232339E+002
+3.01075093867E+007, +3.53616520708E+000, +5.65822071356E+002
+3.02325406758E+007, +2.79128623194E+000, +5.68589675535E+002
+3.03575719650E+007, +2.30829148347E+000, +5.73202063604E+002
+3.04826032541E+007, +2.15054253717E+000, +5.76453718556E+002
+3.06076345432E+007, +2.21614173424E+000, +5.79498988878E+002
+3.07326658323E+007, +1.54859309839E+000, +5.81911496362E+002
+3.08576971214E+007, +1.53041742703E+000, +5.86004813877E+002
+3.09827284105E+007, +1.92928035410E+000, +5.90462681067E+002
+3.11077596996E+007, +1.77007756924E+000, +5.91747650977E+002
+3.12327909887E+007, +2.08244207754E+000, +5.96891164456E+002
+3.13578222778E+007, +4.05793857018E+000, +6.00038185444E+002
+3.14828535670E+007, +4.14786416680E+000, +6.03510200626E+002
+3.16078848561E+007, +3.52569672792E+000, +6.06561505845E+002
+3.17329161452E+007, +2.70459989128E+000, +6.10637521463E+002
+3.18579474343E+007, +5.77662909142E-001, +6.16337287515E+002
+3.19829787234E+007, +1.81924623809E+000, +6.17823558935E+002
+3.21080100125E+007, +2.89512419835E+000, +6.21216536052E+002
+3.22330413016E+007, +3.03710006942E+000, +6.24429062829E+002
+3.23580725907E+007, +2.16822434919E+000, +6.28824530740E+002
+3.24831038798E+007, +2.44125022823E+000, +6.30969992856E+002
+3.26081351690E+007, +2.77447059288E+000, +6.35593417674E+002
+3.27331664581E+007, +1.79953740702E+000, +6.41156599613E+002
+3.28581977472E+007, +7.77219103076E-001, +6.45678270007E+002
+3.29832290363E+007, +2.10349193331E+000, +6.46619717102E+002
+3.31082603254E+007, -4.21151840394E-001, +6.51423600520E+002
+3.32332916145E+007, +2.78595238797E+000, +6.56019711062E+002
+3.33583229036E+007, +1.86466992075E+000, +6.60151959382E+002
+3.34833541927E+007, +6.08746169782E-001, +6.61631576689E+002
+3.36083854819E+007, +2.93093001347E+000, +6.65136306312E+002
+3.37334167710E+007, +2.87512533650E+000, +6.70167521371E+002
+3.38584480601E+007, +7.09405852531E-001, +6.73260384288E+002
+3.39834793492E+007, +1.01122304604E+000, +6.79819228044E+002
+3.41085106383E+007, +8.18042145694E-001, +6.82511914472E+002
+3.42335419274E+007, +3.51904642846E+000, +6.84331589165E+002
+3.43585732165E+007, +2.81082624871E+000, +6.90676515955E+002
+3.44836045056E+007, +4.47268306126E+000, +6.95809107300E+002
+3.46086357947E+007, +2.15572329098E+000, +6.97753597505E+002
+3.47336670839E+007, +3.43810342129E+000, +7.03153330323E+002
+3.48586983730E+007, +4.19408247498E+000, +7.06080362388E+002
+3.49837296621E+007, +3.25797594538E+000, +7.08513236207E+002
+3.51087609512E+007, +3.18496487924E+000, +7.15759535676E+002
+3.52337922403E+007, +3.32218023803E+000, +7.19134398838E+002
+3.53588235294E+007, +7.76565024714E-001, +7.22857554990E+002
+3.54838548185E+007, +3.00037022733E+000, +7.25982393503E+002
+3.56088861076E+007, +1.28036643722E-001, +7.32731984143E+002
+3.57339173967E+007, +3.57132314921E+000, +7.37166588853E+002
+3.58589486859E+007, +1.08299349089E+000, +7.40230966590E+002
+3.59839799750E+007, +5.15129449401E+000, +7.46562212366E+002
+3.61090112641E+007, +2.93293088990E+000, +7.49100972982E+002
+3.62340425532E+007, +3.92683206802E+000, +7.52790332434E+002
+3.63590738423E+007, +1.15807274973E+000, +7.57856156863E+002
+3.64841051314E+007, +5.02331387798E+000, +7.61827190519E+002
+3.66091364205E+007, +3.57624836232E+000, +7.69008739730E+002
+3.67341677096E+007, +2.60684542170E+000, +7.72221396956E+002
+3.68591989987E+007, +2.53179362310E+000, +7.77059303277E+002
+3.69842302879E+007, +3.47997655203E+000, +7.81313877175E+002
+3.71092615770E+007, +4.24125769916E+000, +7.87086667838E+002
+3.72342928661E+007, +2.17276893607E+000, +7.89040659491E+002
+3.73593241552E+007, +1.10897733380E+000, +7.97989796733E+002
+3.74843554443E+007, +6.41361759098E-001, +7.99324574809E+002
+3.76093867334E+007, +3.01531024142E+000, +8.04246966959E+002
+3.77344180225E+007, +4.25001142255E+000, +8.10966282596E+002
+3.78594493116E+007, +2.03164674391E+000, +8.14904831496E+002
+3.79844806008E+007, +3.64606915093E+000, +8.16888102436E+002
+3.81095118899E+007, +7.86266683455E-001, +8.24862283163E+002
+3.82345431790E+007, +2.21773728117E+000, +8.30217266251E+002
+3.83595744681E+007, +2.78699060392E+000, +8.32219107726E+002
+3.84846057572E+007, +1.99313933131E+000, +8.37258400939E+002
+3.86096370463E+007, +2.12134452658E+000, +8.41455818305E+002
+3.87346683354E+007, +3.80146869675E+000, +8.50485962284E+002
+3.88596996245E+007, +1.38601037110E+000, +8.56081072514E+002
+3.89847309136E+007, +6.98728684783E+000, +8.59446984917E+002
+3.91097622028E+007, +4.68754166173E+000, +8.67115329302E+002
+3.92347934919E+007, +2.47396090171E+000, +8.69801080021E+002
+3.93598247810E+007, +6.56576916943E+000, +8.73966965355E+002
+3.94848560701E+007, +2.62256875889E+000, +8.81144478566E+002
+3.96098873592E+007, +1.19777915033E+000, +8.83498002616E+002
+3.97349186483E+007, +7.60982453502E+000, +8.93184382515E+002
+3.98599499374E+007, +4.76319724984E+000, +8.98265005273E+002
+3.99849812265E+007, +5.91837361321E+000, +9.04429855728E+002
+4.01100125156E+007, +4.81340365378E+000, +9.06963192897E+002
