"# Channel 1"
"# Trace 1"
Frequency, Formatted Data, Formatted Data
+1.00000000000E+005, +1.86133307651E+001, +1.60964023755E+000
+2.25031289111E+005, +1.86130657187E+001, +3.66091790866E+000
+3.50062578223E+005, +1.86221346007E+001, +5.67813043459E+000
+4.75093867334E+005, +1.86526365075E+001, +7.66044176107E+000
+6.00125156446E+005, +1.86463665191E+001, +9.64330838525E+000
+7.25156445557E+005, +1.86398082737E+001, +1.16850424186E+001
+8.50187734668E+005, +1.86780067867E+001, +1.36509986903E+001
+9.75219023780E+005, +1.86658792873E+001, +1.56384369376E+001
+1.10025031289E+006, +1.86908881442E+001, +1.76152376666E+001
+1.22528160200E+006, +1.87069841969E+001, +1.96153639632E+001
+1.35031289111E+006, +1.87409420782E+001, +2.16400528455E+001
+1.47534418023E+006, +1.87311458857E+001, +2.35948545966E+001
+1.60037546934E+006, +1.87081850102E+001, +2.56035565075E+001
+1.72540675845E+006, +1.87117806410E+001, +2.75840841497E+001
+1.85043804756E+006, +1.86737809817E+001, +2.95614036160E+001
+1.97546933667E+006, +1.87196739444E+001, +3.15615772612E+001
+2.10050062578E+006, +1.86877267230E+001, +3.35480566143E+001
+2.22553191489E+006, +1.86959341535E+001, +3.55493035849E+001
+2.35056320401E+006, +1.87000197816E+001, +3.75540772529E+001
+2.47559449312E+006, +1.87334301591E+001, +3.95879463534E+001
+2.60062578223E+006, +1.87683550029E+001, +4.15293335255E+001
+2.72565707134E+006, +1.87718165523E+001, +4.36164822872E+001
+2.85068836045E+006, +1.87930087538E+001, +4.55947093287E+001
+2.97571964956E+006, +1.87337890294E+001, +4.75321651721E+001
+3.10075093867E+006, +1.88161633081E+001, +4.96035648466E+001
+3.22578222778E+006, +1.88080860440E+001, +5.14547099301E+001
+3.35081351690E+006, +1.87929571669E+001, +5.35804705603E+001
+3.47584480601E+006, +1.87473336892E+001, +5.55400603884E+001
+3.60087609512E+006, +1.87515765769E+001, +5.76102796037E+001
+3.72590738423E+006, +1.87879722458E+001, +5.96943366221E+001
+3.85093867334E+006, +1.87548459046E+001, +6.15466391818E+001
+3.97596996245E+006, +1.87883534211E+001, +6.35112720476E+001
+4.10100125156E+006, +1.88709147306E+001, +6.56401018168E+001
+4.22603254068E+006, +1.88331013199E+001, +6.75318331776E+001
+4.35106382979E+006, +1.89159796430E+001, +6.96368107969E+001
+4.47609511890E+006, +1.87666207470E+001, +7.16794368227E+001
+4.60112640801E+006, +1.88076826039E+001, +7.36746353149E+001
+4.72615769712E+006, +1.89554121702E+001, +7.57310669369E+001
+4.85118898623E+006, +1.88857456693E+001, +7.75889171090E+001
+4.97622027534E+006, +1.87691724994E+001, +7.96804572574E+001
+5.10125156446E+006, +1.88534578772E+001, +8.16908884945E+001
+5.22628285357E+006, +1.88716426198E+001, +8.36430421666E+001
+5.35131414268E+006, +1.89543130397E+001, +8.57260414228E+001
+5.47634543179E+006, +1.88993899627E+001, +8.77323516576E+001
+5.60137672090E+006, +1.90604286976E+001, +8.98822745088E+001
+5.72640801001E+006, +1.88956781751E+001, +9.18621412942E+001
+5.85143929912E+006, +1.87974614593E+001, +9.37860903151E+001
+5.97647058824E+006, +1.89766313452E+001, +9.59216644335E+001
+6.10150187735E+006, +1.89416416285E+001, +9.79867811727E+001
+6.22653316646E+006, +1.89389598922E+001, +9.98331197359E+001
+6.35156445557E+006, +1.90558886480E+001, +1.02047928359E+002
+6.47659574468E+006, +1.90911410000E+001, +1.04099178355E+002
+6.60162703379E+006, +1.90612279375E+001, +1.06086192622E+002
+6.72665832290E+006, +1.90952150472E+001, +1.08152570393E+002
+6.85168961202E+006, +1.92005078173E+001, +1.10154713331E+002
+6.97672090113E+006, +1.92582580801E+001, +1.12308770767E+002
+7.10175219024E+006, +1.92311685097E+001, +1.14435673022E+002
+7.22678347935E+006, +1.91770175464E+001, +1.16365960706E+002
+7.35181476846E+006, +1.92397963927E+001, +1.18400986345E+002
+7.47684605757E+006, +1.92420538749E+001, +1.20400267509E+002
+7.60187734668E+006, +1.92733855760E+001, +1.22418314509E+002
+7.72690863579E+006, +1.93006709958E+001, +1.24653722991E+002
+7.85193992491E+006, +1.93564721706E+001, +1.26677659695E+002
+7.97697121402E+006, +1.93579459598E+001, +1.28684936858E+002
+8.10200250313E+006, +1.94183597878E+001, +1.30857369175E+002
+8.22703379224E+006, +1.92113660583E+001, +1.32862019008E+002
+8.35206508135E+006, +1.93472949364E+001, +1.35121990821E+002
+8.47709637046E+006, +1.92375588549E+001, +1.37057146031E+002
+8.60212765957E+006, +1.94276457826E+001, +1.39016746613E+002
+8.72715894869E+006, +1.92734004592E+001, +1.41204788725E+002
+8.85219023780E+006, +1.94705395915E+001, +1.43315136708E+002
+8.97722152691E+006, +1.95317839653E+001, +1.45452061714E+002
+9.10225281602E+006, +1.93960784695E+001, +1.47461162402E+002
+9.22728410513E+006, +1.94610210155E+001, +1.49462013481E+002
+9.35231539424E+006, +1.93952089422E+001, +1.51581196416E+002
+9.47734668335E+006, +1.94547384159E+001, +1.53476205765E+002
+9.60237797247E+006, +1.94791421273E+001, +1.55819212500E+002
+9.72740926158E+006, +1.95696692334E+001, +1.57705438813E+002
+9.85244055069E+006, +1.94530920880E+001, +1.60018388553E+002
+9.97747183980E+006, +1.96006322846E+001, +1.61939236108E+002
+1.01025031289E+007, +1.95982255637E+001, +1.64205121810E+002
+1.02275344180E+007, +1.95449509449E+001, +1.66267770239E+002
+1.03525657071E+007, +1.95568623175E+001, +1.68399739205E+002
+1.04775969962E+007, +1.95364096583E+001, +1.70591574082E+002
+1.06026282854E+007, +1.98002310045E+001, +1.72639459075E+002
+1.07276595745E+007, +1.96108686039E+001, +1.74606483870E+002
+1.08526908636E+007, +1.98071451396E+001, +1.76719833916E+002
+1.09777221527E+007, +1.98370738563E+001, +1.78878543980E+002
+1.11027534418E+007, +1.96636659516E+001, +1.81388587815E+002
+1.12277847309E+007, +1.96595693497E+001, +1.83226202175E+002
+1.13528160200E+007, +1.97887276326E+001, +1.85404506449E+002
+1.14778473091E+007, +1.97152696303E+001, +1.87506533753E+002
+1.16028785982E+007, +1.98898318809E+001, +1.89627546072E+002
+1.17279098874E+007, +1.98926529974E+001, +1.91827186121E+002
+1.18529411765E+007, +1.98954443352E+001, +1.93940109354E+002
+1.19779724656E+007, +1.98070214034E+001, +1.96176874962E+002
+1.21030037547E+007, +1.98137583994E+001, +1.98205645130E+002
+1.22280350438E+007, +1.99069426228E+001, +2.00422718055E+002
+1.23530663329E+007, +1.98641506114E+001, +2.02717750373E+002
+1.24780976220E+007, +1.99328827897E+001, +2.04554415315E+002
+1.26031289111E+007, +1.99798880803E+001, +2.06788867436E+002
+1.27281602003E+007, +2.01591233722E+001, +2.09027461269E+002
+1.28531914894E+007, +2.01723235691E+001, +2.11261803499E+002
+1.29782227785E+007, +1.97824648198E+001, +2.13827847266E+002
+1.31032540676E+007, +1.95694168147E+001, +2.15704475860E+002
+1.32282853567E+007, +2.00020527225E+001, +2.17809464825E+002
+1.33533166458E+007, +1.99651670265E+001, +2.20019973661E+002
+1.34783479349E+007, +1.99062491960E+001, +2.22372112302E+002
+1.36033792240E+007, +2.00769654655E+001, +2.24440450121E+002
+1.37284105131E+007, +2.00728891165E+001, +2.26645625311E+002
+1.38534418023E+007, +2.02848914635E+001, +2.28773519650E+002
+1.39784730914E+007, +1.98781590963E+001, +2.31406897207E+002
+1.41035043805E+007, +2.00466626234E+001, +2.33209029630E+002
+1.42285356696E+007, +2.02349016595E+001, +2.35582720974E+002
+1.43535669587E+007, +2.03511477923E+001, +2.38019172737E+002
+1.44785982478E+007, +2.00583463103E+001, +2.40036947488E+002
+1.46036295369E+007, +2.04065339333E+001, +2.42042540937E+002
+1.47286608260E+007, +2.01395034094E+001, +2.44639100291E+002
+1.48536921151E+007, +2.00998459942E+001, +2.46985267249E+002
+1.49787234043E+007, +2.00279837258E+001, +2.48945137671E+002
+1.51037546934E+007, +2.03082963855E+001, +2.51324152830E+002
+1.52287859825E+007, +2.00681063368E+001, +2.53500044250E+002
+1.53538172716E+007, +2.03156110119E+001, +2.55882592144E+002
+1.54788485607E+007, +2.01797388258E+001, +2.58020589587E+002
+1.56038798498E+007, +2.05212668730E+001, +2.60428180901E+002
+1.57289111389E+007, +2.07340652709E+001, +2.62542349862E+002
+1.58539424280E+007, +2.02195095109E+001, +2.65031886026E+002
+1.59789737171E+007, +2.05574408779E+001, +2.66970189355E+002
+1.61040050063E+007, +2.03027995837E+001, +2.69919808738E+002
+1.62290362954E+007, +2.07944352155E+001, +2.72253700778E+002
+1.63540675845E+007, +2.06171551218E+001, +2.74154963809E+002
+1.64790988736E+007, +2.07948616351E+001, +2.76427387912E+002
+1.66041301627E+007, +2.04178191034E+001, +2.78386815035E+002
+1.67291614518E+007, +2.06243661719E+001, +2.81162367055E+002
+1.68541927409E+007, +2.08052100599E+001, +2.83192485706E+002
+1.69792240300E+007, +2.07806133368E+001, +2.85223150595E+002
+1.71042553191E+007, +2.04412150339E+001, +2.88350366997E+002
+1.72292866083E+007, +2.00919160148E+001, +2.90999218758E+002
+1.73543178974E+007, +2.04031258558E+001, +2.93260275548E+002
+1.74793491865E+007, +2.02961530781E+001, +2.94987755062E+002
+1.76043804756E+007, +2.03523330532E+001, +2.97349473696E+002
+1.77294117647E+007, +2.07425057429E+001, +3.00673523046E+002
+1.78544430538E+007, +2.03787962425E+001, +3.02178532037E+002
+1.79794743429E+007, +2.10420861137E+001, +3.04558829145E+002
+1.81045056320E+007, +2.07787301692E+001, +3.07243260806E+002
+1.82295369212E+007, +2.10320229623E+001, +3.09912590711E+002
+1.83545682103E+007, +2.11424562876E+001, +3.12391647508E+002
+1.84795994994E+007, +2.08677399914E+001, +3.14361151904E+002
+1.86046307885E+007, +2.16919992868E+001, +3.16351277016E+002
+1.87296620776E+007, +2.09178689570E+001, +3.19257651961E+002
+1.88546933667E+007, +2.12084373727E+001, +3.21935633160E+002
+1.89797246558E+007, +2.12258619159E+001, +3.24558893497E+002
+1.91047559449E+007, +2.10093586319E+001, +3.27491310111E+002
+1.92297872340E+007, +2.07819288885E+001, +3.28376550167E+002
+1.93548185232E+007, +2.17064699899E+001, +3.32125973470E+002
+1.94798498123E+007, +2.15190437746E+001, +3.34467745429E+002
+1.96048811014E+007, +2.14192357879E+001, +3.36329924092E+002
+1.97299123905E+007, +2.15298985013E+001, +3.38846830928E+002
+1.98549436796E+007, +2.15357846329E+001, +3.41020967764E+002
+1.99799749687E+007, +2.16453379270E+001, +3.44128956870E+002
+2.01050062578E+007, +2.15916815585E+001, +3.47227267315E+002
+2.02300375469E+007, +2.17424153092E+001, +3.48127959253E+002
+2.03550688360E+007, +2.19239994345E+001, +3.51369545327E+002
+2.04801001252E+007, +2.22136082086E+001, +3.53935982397E+002
+2.06051314143E+007, +2.13608519183E+001, +3.55648193681E+002
+2.07301627034E+007, +2.27771620878E+001, +3.58653987964E+002
+2.08551939925E+007, +2.27030499872E+001, +3.61967453472E+002
+2.09802252816E+007, +2.25270394904E+001, +3.64135247888E+002
+2.11052565707E+007, +2.20348387161E+001, +3.67592302454E+002
+2.12302878598E+007, +2.23027973790E+001, +3.69574015754E+002
+2.13553191489E+007, +2.25863892556E+001, +3.71778624995E+002
+2.14803504380E+007, +2.29333188020E+001, +3.74502931468E+002
+2.16053817272E+007, +2.22288203541E+001, +3.77041868601E+002
+2.17304130163E+007, +2.24035936993E+001, +3.79655906034E+002
+2.18554443054E+007, +2.23737182406E+001, +3.83252137013E+002
+2.19804755945E+007, +2.24279149822E+001, +3.85296361807E+002
+2.21055068836E+007, +2.27196210942E+001, +3.88291801444E+002
+2.22305381727E+007, +2.33336089190E+001, +3.89869950452E+002
+2.23555694618E+007, +2.30999670963E+001, +3.93137359241E+002
+2.24806007509E+007, +2.25581333946E+001, +3.95116681282E+002
+2.26056320401E+007, +2.29653134999E+001, +3.98018751461E+002
+2.27306633292E+007, +2.30888791961E+001, +4.01434468783E+002
+2.28556946183E+007, +2.38747507358E+001, +4.03504951901E+002
+2.29807259074E+007, +2.31069151343E+001, +4.07161431209E+002
+2.31057571965E+007, +2.38855570940E+001, +4.09323410854E+002
+2.32307884856E+007, +2.39765313854E+001, +4.11571217673E+002
+2.33558197747E+007, +2.36735589412E+001, +4.14873227805E+002
+2.34808510638E+007, +2.56098340394E+001, +4.15356587762E+002
+2.36058823529E+007, +2.43742827026E+001, +4.19409952639E+002
+2.37309136421E+007, +2.41782460428E+001, +4.22588913833E+002
+2.38559449312E+007, +2.38160812155E+001, +4.25848462301E+002
+2.39809762203E+007, +2.51620048233E+001, +4.27589608950E+002
+2.41060075094E+007, +2.53401974794E+001, +4.30163921747E+002
+2.42310387985E+007, +2.47386941417E+001, +4.33271914786E+002
+2.43560700876E+007, +2.48775376895E+001, +4.35399268703E+002
+2.44811013767E+007, +2.49879072127E+001, +4.38477569311E+002
+2.46061326658E+007, +2.53405965742E+001, +4.40678932464E+002
+2.47311639549E+007, +2.55969366848E+001, +4.43441935733E+002
+2.48561952441E+007, +2.55427421138E+001, +4.47559291295E+002
+2.49812265332E+007, +2.61992069581E+001, +4.48848823281E+002
+2.51062578223E+007, +2.55054352972E+001, +4.51658634177E+002
+2.52312891114E+007, +2.58497873577E+001, +4.54881826869E+002
+2.53563204005E+007, +2.52254599542E+001, +4.58661283913E+002
+2.54813516896E+007, +2.47389511236E+001, +4.60278657764E+002
+2.56063829787E+007, +2.50564197611E+001, +4.63754061702E+002
+2.57314142678E+007, +2.52011183946E+001, +4.65782754208E+002
+2.58564455569E+007, +2.47946114948E+001, +4.68687491229E+002
+2.59814768461E+007, +2.55414112550E+001, +4.70899869965E+002
+2.61065081352E+007, +2.47707863309E+001, +4.76611758600E+002
+2.62315394243E+007, +2.52156524541E+001, +4.77924751757E+002
+2.63565707134E+007, +2.39017431703E+001, +4.80958622070E+002
+2.64816020025E+007, +2.45210562339E+001, +4.84143809377E+002
+2.66066332916E+007, +2.52742769920E+001, +4.85995002166E+002
+2.67316645807E+007, +2.57819087503E+001, +4.89730216126E+002
+2.68566958698E+007, +2.44008220576E+001, +4.92395197504E+002
+2.69817271589E+007, +2.57026843515E+001, +4.96297687632E+002
+2.71067584481E+007, +2.66467980465E+001, +4.99577064574E+002
+2.72317897372E+007, +2.64480799063E+001, +5.02473155192E+002
+2.73568210263E+007, +2.67532561356E+001, +5.04731483472E+002
+2.74818523154E+007, +2.61632694870E+001, +5.07493560880E+002
+2.76068836045E+007, +2.67284515637E+001, +5.09876458087E+002
+2.77319148936E+007, +2.61947123210E+001, +5.13006069955E+002
+2.78569461827E+007, +2.65045602584E+001, +5.16993618248E+002
+2.79819774718E+007, +2.76648956174E+001, +5.19825991098E+002
+2.81070087610E+007, +2.70791385817E+001, +5.23433478536E+002
+2.82320400501E+007, +2.59159167926E+001, +5.25765448612E+002
+2.83570713392E+007, +2.71271424699E+001, +5.29866914689E+002
+2.84821026283E+007, +2.61711740063E+001, +5.32441104623E+002
+2.86071339174E+007, +2.59774209281E+001, +5.36000657284E+002
+2.87321652065E+007, +2.65107955648E+001, +5.40882100985E+002
+2.88571964956E+007, +2.53759935979E+001, +5.42155823087E+002
+2.89822277847E+007, +2.73168597126E+001, +5.45231316403E+002
+2.91072590738E+007, +2.85358391362E+001, +5.49404980168E+002
+2.92322903630E+007, +2.80718311722E+001, +5.52203235643E+002
+2.93573216521E+007, +2.77571548683E+001, +5.54636012527E+002
+2.94823529412E+007, +2.58451985917E+001, +5.58937698393E+002
+2.96073842303E+007, +2.86016806261E+001, +5.64588148399E+002
+2.97324155194E+007, +2.57458843830E+001, +5.65421283159E+002
+2.98574468085E+007, +2.75864835560E+001, +5.68458212456E+002
+2.99824780976E+007, +2.69505018594E+001, +5.71953584184E+002
+3.01075093867E+007, +2.68609869669E+001, +5.75198839603E+002
+3.02325406758E+007, +2.65246089882E+001, +5.79533306892E+002
+3.03575719650E+007, +2.97968777402E+001, +5.83259149572E+002
+3.04826032541E+007, +2.69111548645E+001, +5.85050866585E+002
+3.06076345432E+007, +2.87305377995E+001, +5.89257833275E+002
+3.07326658323E+007, +2.70801020687E+001, +5.93840490108E+002
+3.08576971214E+007, +2.80732506116E+001, +5.97310714418E+002
+3.09827284105E+007, +2.79321557395E+001, +5.99632735032E+002
+3.11077596996E+007, +2.91757480908E+001, +6.04313053762E+002
+3.12327909887E+007, +2.76160655178E+001, +6.05058555533E+002
+3.13578222778E+007, +2.82887382282E+001, +6.10095828915E+002
+3.14828535670E+007, +2.92213839779E+001, +6.16480186945E+002
+3.16078848561E+007, +2.79041037885E+001, +6.17552742646E+002
+3.17329161452E+007, +2.82250203214E+001, +6.19793078483E+002
+3.18579474343E+007, +2.71386736485E+001, +6.28238411428E+002
+3.19829787234E+007, +2.75138700520E+001, +6.29516075528E+002
+3.21080100125E+007, +2.88543528269E+001, +6.31201906889E+002
+3.22330413016E+007, +2.86563591438E+001, +6.35978986866E+002
+3.23580725907E+007, +3.01714281408E+001, +6.39829637277E+002
+3.24831038798E+007, +2.96767011264E+001, +6.43454869441E+002
+3.26081351690E+007, +3.13959951621E+001, +6.46708772317E+002
+3.27331664581E+007, +2.64298314352E+001, +6.51924796020E+002
+3.28581977472E+007, +3.15045585936E+001, +6.55933929113E+002
+3.29832290363E+007, +2.93406118984E+001, +6.57880781577E+002
+3.31082603254E+007, +3.11115515583E+001, +6.62444632396E+002
+3.32332916145E+007, +3.12714845638E+001, +6.67256293918E+002
+3.33583229036E+007, +3.19533173601E+001, +6.70600149796E+002
+3.34833541927E+007, +3.10952364178E+001, +6.76335243716E+002
+3.36083854819E+007, +3.17254076339E+001, +6.78697146468E+002
+3.37334167710E+007, +3.05352782180E+001, +6.82267472581E+002
+3.38584480601E+007, +3.16587963123E+001, +6.88718259098E+002
+3.39834793492E+007, +3.35772692633E+001, +6.89899075526E+002
+3.41085106383E+007, +3.07983473891E+001, +6.92213101178E+002
+3.42335419274E+007, +3.20443574994E+001, +6.95925489957E+002
+3.43585732165E+007, +3.30050880995E+001, +6.99897211553E+002
+3.44836045056E+007, +3.25515985336E+001, +7.05761891459E+002
+3.46086357947E+007, +3.16037547262E+001, +7.06062284976E+002
+3.47336670839E+007, +3.33163054994E+001, +7.12459061469E+002
+3.48586983730E+007, +3.24257924017E+001, +7.20081083052E+002
+3.49837296621E+007, +2.89750003445E+001, +7.22832663937E+002
+3.51087609512E+007, +3.30101413512E+001, +7.27890187644E+002
+3.52337922403E+007, +3.28846573208E+001, +7.30880018282E+002
+3.53588235294E+007, +3.40901128530E+001, +7.33844499202E+002
+3.54838548185E+007, +3.32568789590E+001, +7.41247274979E+002
+3.56088861076E+007, +3.34752938343E+001, +7.45623465875E+002
+3.57339173967E+007, +3.15497469870E+001, +7.47999210940E+002
+3.58589486859E+007, +3.17168175072E+001, +7.51478817398E+002
+3.59839799750E+007, +3.64137552486E+001, +7.54810544338E+002
+3.61090112641E+007, +3.33365265415E+001, +7.57432790669E+002
+3.62340425532E+007, +3.58739359064E+001, +7.63007009517E+002
+3.63590738423E+007, +3.32836158307E+001, +7.71321747212E+002
+3.64841051314E+007, +3.30257745090E+001, +7.74181422265E+002
+3.66091364205E+007, +3.59923928392E+001, +7.81799993632E+002
+3.67341677096E+007, +3.30676003755E+001, +7.81628632084E+002
+3.68591989987E+007, +3.50733573254E+001, +7.88327735423E+002
+3.69842302879E+007, +3.27204297644E+001, +7.91694337314E+002
+3.71092615770E+007, +3.82953948637E+001, +7.96716877996E+002
+3.72342928661E+007, +3.09194260382E+001, +8.01502441241E+002
+3.73593241552E+007, +3.68782981138E+001, +8.06449937138E+002
+3.74843554443E+007, +3.52408512210E+001, +8.10191165092E+002
+3.76093867334E+007, +3.39586241384E+001, +8.16131244282E+002
+3.77344180225E+007, +3.63928071525E+001, +8.21047902710E+002
+3.78594493116E+007, +3.62589512363E+001, +8.29190699709E+002
+3.79844806008E+007, +3.66316202601E+001, +8.32962617057E+002
+3.81095118899E+007, +3.56385316147E+001, +8.39405482894E+002
+3.82345431790E+007, +3.18971742246E+001, +8.38276292133E+002
+3.83595744681E+007, +3.58203994121E+001, +8.49104609068E+002
+3.84846057572E+007, +3.90590020566E+001, +8.49880938325E+002
+3.86096370463E+007, +3.99837682021E+001, +8.57196507676E+002
+3.87346683354E+007, +3.79224853939E+001, +8.63287900155E+002
+3.88596996245E+007, +3.88006647810E+001, +8.67767938210E+002
+3.89847309136E+007, +3.94877586244E+001, +8.71949242247E+002
+3.91097622028E+007, +3.78499407742E+001, +8.82017249502E+002
+3.92347934919E+007, +4.07543959098E+001, +8.83609005305E+002
+3.93598247810E+007, +3.91317121591E+001, +8.87018082357E+002
+3.94848560701E+007, +4.09205364474E+001, +8.92494133342E+002
+3.96098873592E+007, +3.75743976738E+001, +9.01897340127E+002
+3.97349186483E+007, +4.06033025029E+001, +9.02398896919E+002
+3.98599499374E+007, +3.97518748804E+001, +9.14511303130E+002
+3.99849812265E+007, +4.11004131808E+001, +9.16087784312E+002
+4.01100125156E+007, +3.94597720349E+001, +9.23855777818E+002
