"# Channel 1"
"# Trace 1"
Frequency, Formatted Data, Formatted Data
+1.00000000000E+005, +5.45059096171E-001, +1.76417192476E+000
+2.25031289111E+005, +5.30431548704E-001, +3.99899256849E+000
+3.50062578223E+005, +5.54981108849E-001, +6.23880456379E+000
+4.75093867334E+005, +5.60807400832E-001, +8.50060561506E+000
+6.00125156446E+005, +5.86057260379E-001, +1.06581200682E+001
+7.25156445557E+005, +6.27839438471E-001, +1.28797517260E+001
+8.50187734668E+005, +6.72494372822E-001, +1.50447339606E+001
+9.75219023780E+005, +6.89356853805E-001, +1.72973464164E+001
+1.10025031289E+006, +7.13676438659E-001, +1.94678935412E+001
+1.22528160200E+006, +7.40456560010E-001, +2.15987933001E+001
+1.35031289111E+006, +7.63382283151E-001, +2.38927986658E+001
+1.47534418023E+006, +8.04647486070E-001, +2.60224618961E+001
+1.60037546934E+006, +8.42278944405E-001, +2.82368713646E+001
+1.72540675845E+006, +8.49935257862E-001, +3.04014477791E+001
+1.85043804756E+006, +8.53627212239E-001, +3.25154378652E+001
+1.97546933667E+006, +9.75711508592E-001, +3.47114860749E+001
+2.10050062578E+006, +9.06287319127E-001, +3.69272029858E+001
+2.22553191489E+006, +9.27034983749E-001, +3.90567244610E+001
+2.35056320401E+006, +1.03556081182E+000, +4.12268990590E+001
+2.47559449312E+006, +9.79849365663E-001, +4.34815200973E+001
+2.60062578223E+006, +9.24283910829E-001, +4.56328005937E+001
+2.72565707134E+006, +9.76934940324E-001, +4.77665764504E+001
+2.85068836045E+006, +8.88583326454E-001, +4.99963980283E+001
+2.97571964956E+006, +1.03910261812E+000, +5.21867089915E+001
+3.10075093867E+006, +1.08431521425E+000, +5.42916571244E+001
+3.22578222778E+006, +1.08167790593E+000, +5.65474997691E+001
+3.35081351690E+006, +1.08117520561E+000, +5.86595807366E+001
+3.47584480601E+006, +9.82788076572E-001, +6.08838792475E+001
+3.60087609512E+006, +1.08318437541E+000, +6.31557304135E+001
+3.72590738423E+006, +1.09786537298E+000, +6.52766629573E+001
+3.85093867334E+006, +1.07914525984E+000, +6.74350900155E+001
+3.97596996245E+006, +1.16033350961E+000, +6.96354101139E+001
+4.10100125156E+006, +1.23848740882E+000, +7.17311958981E+001
+4.22603254068E+006, +1.07679090023E+000, +7.39809011064E+001
+4.35106382979E+006, +1.08491281245E+000, +7.61366199827E+001
+4.47609511890E+006, +1.02679098393E+000, +7.83619582451E+001
+4.60112640801E+006, +1.00042385146E+000, +8.06844529235E+001
+4.72615769712E+006, +1.17551486895E+000, +8.27617407291E+001
+4.85118898623E+006, +1.17358084106E+000, +8.49711444142E+001
+4.97622027534E+006, +1.27928273884E+000, +8.70729617910E+001
+5.10125156446E+006, +1.16636927538E+000, +8.95192423786E+001
+5.22628285357E+006, +1.11615485555E+000, +9.15749888839E+001
+5.35131414268E+006, +1.24100311352E+000, +9.38102578034E+001
+5.47634543179E+006, +1.30589728005E+000, +9.58923530866E+001
+5.60137672090E+006, +1.44953348711E+000, +9.82769709898E+001
+5.72640801001E+006, +1.23825808364E+000, +1.00435171608E+002
+5.85143929912E+006, +1.26733511942E+000, +1.02556814834E+002
+5.97647058824E+006, +1.38209140103E+000, +1.04738244529E+002
+6.10150187735E+006, +1.16632442791E+000, +1.07121893132E+002
+6.22653316646E+006, +1.39247647930E+000, +1.09237506520E+002
+6.35156445557E+006, +1.35479253036E+000, +1.11480876088E+002
+6.47659574468E+006, +1.43178819966E+000, +1.13816742037E+002
+6.60162703379E+006, +1.41804806177E+000, +1.16070039598E+002
+6.72665832290E+006, +1.44560326584E+000, +1.18355465990E+002
+6.85168961202E+006, +1.56686653920E+000, +1.20593234741E+002
+6.97672090113E+006, +1.56251978102E+000, +1.22788467485E+002
+7.10175219024E+006, +1.43833345833E+000, +1.24933809689E+002
+7.22678347935E+006, +1.50682039684E+000, +1.27127876517E+002
+7.35181476846E+006, +1.60488347842E+000, +1.29460503298E+002
+7.47684605757E+006, +1.60770538766E+000, +1.31685880502E+002
+7.60187734668E+006, +1.69171306691E+000, +1.34047840591E+002
+7.72690863579E+006, +1.68438638890E+000, +1.36430864943E+002
+7.85193992491E+006, +1.64948859025E+000, +1.38581509331E+002
+7.97697121402E+006, +1.55946529672E+000, +1.40700510218E+002
+8.10200250313E+006, +1.58035144032E+000, +1.43087542637E+002
+8.22703379224E+006, +1.73196940002E+000, +1.45178533400E+002
+8.35206508135E+006, +1.74253995262E+000, +1.47518786463E+002
+8.47709637046E+006, +1.73670372750E+000, +1.49795749102E+002
+8.60212765957E+006, +1.67971335366E+000, +1.52079419661E+002
+8.72715894869E+006, +1.70309309853E+000, +1.54357117710E+002
+8.85219023780E+006, +1.48640420062E+000, +1.56638244243E+002
+8.97722152691E+006, +1.55160556049E+000, +1.58762113243E+002
+9.10225281602E+006, +1.71262122867E+000, +1.61199549827E+002
+9.22728410513E+006, +1.51578374166E+000, +1.63436316152E+002
+9.35231539424E+006, +1.76566756254E+000, +1.65663570703E+002
+9.47734668335E+006, +1.80519109106E+000, +1.68012677502E+002
+9.60237797247E+006, +1.90450164115E+000, +1.70216423938E+002
+9.72740926158E+006, +1.70175838335E+000, +1.72554523819E+002
+9.85244055069E+006, +1.75849042746E+000, +1.74883662708E+002
+9.97747183980E+006, +1.73394076920E+000, +1.77127823581E+002
+1.01025031289E+007, +1.85277268960E+000, +1.79575158881E+002
+1.02275344180E+007, +1.93003507487E+000, +1.81714479811E+002
+1.03525657071E+007, +1.74911309914E+000, +1.84298740497E+002
+1.04775969962E+007, +1.58198184435E+000, +1.86149996572E+002
+1.06026282854E+007, +1.70578463543E+000, +1.88600600297E+002
+1.07276595745E+007, +1.85929664213E+000, +1.90945955077E+002
+1.08526908636E+007, +1.53959806891E+000, +1.93316424492E+002
+1.09777221527E+007, +1.88412870292E+000, +1.95734496644E+002
+1.11027534418E+007, +1.91925954742E+000, +1.97921069027E+002
+1.12277847309E+007, +1.70747681922E+000, +2.00294163915E+002
+1.13528160200E+007, +1.60553745692E+000, +2.02574926021E+002
+1.14778473091E+007, +1.82195503664E+000, +2.05020626434E+002
+1.16028785982E+007, +2.16685913437E+000, +2.07451751085E+002
+1.17279098874E+007, +1.82092536061E+000, +2.09848374406E+002
+1.18529411765E+007, +1.73146370980E+000, +2.12319653352E+002
+1.19779724656E+007, +1.78220618824E+000, +2.14459866742E+002
+1.21030037547E+007, +1.79559685814E+000, +2.16901613911E+002
+1.22280350438E+007, +1.83819890610E+000, +2.19315015366E+002
+1.23530663329E+007, +2.12633661015E+000, +2.21829892477E+002
+1.24780976220E+007, +1.47625134121E+000, +2.24029263747E+002
+1.26031289111E+007, +1.47224618515E+000, +2.26450262997E+002
+1.27281602003E+007, +1.71914587709E+000, +2.28645631198E+002
+1.28531914894E+007, +1.80880850435E+000, +2.30944110833E+002
+1.29782227785E+007, +1.82063148108E+000, +2.33658136197E+002
+1.31032540676E+007, +1.78425714591E+000, +2.35981740740E+002
+1.32282853567E+007, +1.59405768322E+000, +2.38307827462E+002
+1.33533166458E+007, +1.66689360007E+000, +2.40449454319E+002
+1.34783479349E+007, +1.82200650622E+000, +2.43226717726E+002
+1.36033792240E+007, +1.65782675531E+000, +2.45653680536E+002
+1.37284105131E+007, +1.82755340696E+000, +2.48423388579E+002
+1.38534418023E+007, +1.71129331171E+000, +2.50814558763E+002
+1.39784730914E+007, +1.80907828311E+000, +2.52879445128E+002
+1.41035043805E+007, +1.32713188992E+000, +2.55046109526E+002
+1.42285356696E+007, +1.80778891821E+000, +2.57550727553E+002
+1.43535669587E+007, +1.58433965616E+000, +2.60529607832E+002
+1.44785982478E+007, +1.93657353578E+000, +2.63028126585E+002
+1.46036295369E+007, +1.91864991333E+000, +2.65173909377E+002
+1.47286608260E+007, +1.66120913559E+000, +2.68159278000E+002
+1.48536921151E+007, +1.78923521915E+000, +2.70304954391E+002
+1.49787234043E+007, +2.09819798982E+000, +2.72845751331E+002
+1.51037546934E+007, +1.72425822895E+000, +2.75162086669E+002
+1.52287859825E+007, +1.72341392160E+000, +2.77884128238E+002
+1.53538172716E+007, +1.48166011150E+000, +2.80411562345E+002
+1.54788485607E+007, +1.78949562206E+000, +2.83005276898E+002
+1.56038798498E+007, +1.68527347382E+000, +2.85495516517E+002
+1.57289111389E+007, +1.61427625539E+000, +2.88135710193E+002
+1.58539424280E+007, +1.79417097502E+000, +2.89874009745E+002
+1.59789737171E+007, +1.94215752743E+000, +2.93308200130E+002
+1.61040050063E+007, +1.82037688926E+000, +2.95314992966E+002
+1.62290362954E+007, +2.04763660604E+000, +2.98157411013E+002
+1.63540675845E+007, +1.30688448051E+000, +3.00527071988E+002
+1.64790988736E+007, +1.90353570620E+000, +3.03608591636E+002
+1.66041301627E+007, +2.12680516633E+000, +3.06401647912E+002
+1.67291614518E+007, +1.46982675471E+000, +3.08835131598E+002
+1.68541927409E+007, +2.10987169248E+000, +3.10953578111E+002
+1.69792240300E+007, +1.82245507872E+000, +3.13650260788E+002
+1.71042553191E+007, +9.47414986570E-001, +3.15655290078E+002
+1.72292866083E+007, +1.38599710677E+000, +3.19298520196E+002
+1.73543178974E+007, +1.65529177462E+000, +3.21047448431E+002
+1.74793491865E+007, +1.30430172254E+000, +3.24131321053E+002
+1.76043804756E+007, +1.47777998358E+000, +3.26763841807E+002
+1.77294117647E+007, +1.85341316065E+000, +3.29918277183E+002
+1.78544430538E+007, +1.92657617865E+000, +3.32078193061E+002
+1.79794743429E+007, +1.45130998891E+000, +3.34703376913E+002
+1.81045056320E+007, +1.51654577286E+000, +3.37626065290E+002
+1.82295369212E+007, +1.79974600920E+000, +3.40310350525E+002
+1.83545682103E+007, +2.25213639165E+000, +3.42915461625E+002
+1.84795994994E+007, +1.82940693258E+000, +3.45357658656E+002
+1.86046307885E+007, +1.97835348409E+000, +3.48553624645E+002
+1.87296620776E+007, +1.46517135898E+000, +3.50676196194E+002
+1.88546933667E+007, +1.86865107264E+000, +3.53728780659E+002
+1.89797246558E+007, +1.89064334415E+000, +3.56190886786E+002
+1.91047559449E+007, +1.79434785134E+000, +3.59226286614E+002
+1.92297872340E+007, +1.22046061289E+000, +3.61687335303E+002
+1.93548185232E+007, +1.85675519168E+000, +3.64866455991E+002
+1.94798498123E+007, +1.85745653322E+000, +3.67596102485E+002
+1.96048811014E+007, +1.35535309612E+000, +3.70028407982E+002
+1.97299123905E+007, +1.41172488272E+000, +3.73335284986E+002
+1.98549436796E+007, +1.89026853279E+000, +3.74834820067E+002
+1.99799749687E+007, +2.08588445492E+000, +3.78888877488E+002
+2.01050062578E+007, +2.53706081089E+000, +3.81988499808E+002
+2.02300375469E+007, +1.36625376120E+000, +3.84968741504E+002
+2.03550688360E+007, +1.81434549320E+000, +3.86003246832E+002
+2.04801001252E+007, +2.13293134140E+000, +3.89962019329E+002
+2.06051314143E+007, +2.29293390882E+000, +3.92423668777E+002
+2.07301627034E+007, +1.12180922966E+000, +3.96031816351E+002
+2.08551939925E+007, +1.82469010841E+000, +3.98685095377E+002
+2.09802252816E+007, +1.98160030401E+000, +4.01665633912E+002
+2.11052565707E+007, +1.69521576459E+000, +4.04694277528E+002
+2.12302878598E+007, +1.64835007861E+000, +4.07800588644E+002
+2.13553191489E+007, +1.69750208655E+000, +4.09957145868E+002
+2.14803504380E+007, +1.84933528605E+000, +4.12368109972E+002
+2.16053817272E+007, +1.98354522169E+000, +4.16894057677E+002
+2.17304130163E+007, +1.90853218538E+000, +4.19176942545E+002
+2.18554443054E+007, +1.69239735336E+000, +4.22240858322E+002
+2.19804755945E+007, +1.08349485732E+000, +4.25477279435E+002
+2.21055068836E+007, +2.53404500970E+000, +4.29897483986E+002
+2.22305381727E+007, +2.66928366341E+000, +4.30241018058E+002
+2.23555694618E+007, +2.43145605034E+000, +4.34144030192E+002
+2.24806007509E+007, +2.62446885032E+000, +4.37159473535E+002
+2.26056320401E+007, +2.48774830516E+000, +4.40997685433E+002
+2.27306633292E+007, +2.35231308890E+000, +4.44216673678E+002
+2.28556946183E+007, +3.69481027584E+000, +4.46599776415E+002
+2.29807259074E+007, +2.70382018461E+000, +4.49255398872E+002
+2.31057571965E+007, +3.11134135914E+000, +4.53023750670E+002
+2.32307884856E+007, +3.09776464589E+000, +4.55978201038E+002
+2.33558197747E+007, +4.14463697908E+000, +4.59141713554E+002
+2.34808510638E+007, +2.79508450800E+000, +4.61504951224E+002
+2.36058823529E+007, +3.93131734921E+000, +4.63647772753E+002
+2.37309136421E+007, +3.66543715841E+000, +4.67621107395E+002
+2.38559449312E+007, +5.20754841832E+000, +4.71202185564E+002
+2.39809762203E+007, +4.45839646369E+000, +4.72680125330E+002
+2.41060075094E+007, +4.30357321720E+000, +4.77734866807E+002
+2.42310387985E+007, +4.14669917244E+000, +4.79316924191E+002
+2.43560700876E+007, +4.08586198891E+000, +4.83446436732E+002
+2.44811013767E+007, +3.53419933281E+000, +4.85919189348E+002
+2.46061326658E+007, +3.61485741785E+000, +4.87698788430E+002
+2.47311639549E+007, +3.53151127410E+000, +4.92553262628E+002
+2.48561952441E+007, +1.98847050833E+000, +4.94244934158E+002
+2.49812265332E+007, +2.19026492425E+000, +4.98095330800E+002
+2.51062578223E+007, +3.97814339353E+000, +5.00670999733E+002
+2.52312891114E+007, +4.40289038308E+000, +5.04492296995E+002
+2.53563204005E+007, +4.09309397951E+000, +5.08161680147E+002
+2.54813516896E+007, +2.83908760534E+000, +5.11624994138E+002
+2.56063829787E+007, +3.94749223608E+000, +5.15606254115E+002
+2.57314142678E+007, +3.78152450749E+000, +5.18565838387E+002
+2.58564455569E+007, +2.29453315427E+000, +5.22634260093E+002
+2.59814768461E+007, +4.26010270571E+000, +5.25552297097E+002
+2.61065081352E+007, +3.93016174259E+000, +5.28651584510E+002
+2.62315394243E+007, +3.19012204292E+000, +5.31007806683E+002
+2.63565707134E+007, +2.94122841357E+000, +5.34602021076E+002
+2.64816020025E+007, +2.02869247172E+000, +5.37660218643E+002
+2.66066332916E+007, +2.95959555549E+000, +5.41285380482E+002
+2.67316645807E+007, +1.97193524835E+000, +5.45765957934E+002
+2.68566958698E+007, +2.40040219943E+000, +5.49053420074E+002
+2.69817271589E+007, +2.74771243770E+000, +5.52559652913E+002
+2.71067584481E+007, +2.72265218313E+000, +5.56515860654E+002
+2.72317897372E+007, +2.47289248216E+000, +5.59800236848E+002
+2.73568210263E+007, +3.14674229123E+000, +5.62618016859E+002
+2.74818523154E+007, +4.68300216177E+000, +5.68021836287E+002
+2.76068836045E+007, +3.46138893681E+000, +5.70522990981E+002
+2.77319148936E+007, +3.89283243856E+000, +5.73177510944E+002
+2.78569461827E+007, +3.97298823377E+000, +5.77498862579E+002
+2.79819774718E+007, +1.57843827522E+000, +5.81636055438E+002
+2.81070087610E+007, +4.29500303154E+000, +5.83214571583E+002
+2.82320400501E+007, +1.49486446959E+000, +5.89785714297E+002
+2.83570713392E+007, +2.31820716346E+000, +5.93041011358E+002
+2.84821026283E+007, +2.42151727979E+000, +5.96546519939E+002
+2.86071339174E+007, +2.62277498853E+000, +5.99367297975E+002
+2.87321652065E+007, +2.95025080992E+000, +6.03800542116E+002
+2.88571964956E+007, +6.54311241983E-001, +6.07250732894E+002
+2.89822277847E+007, +2.81664121471E+000, +6.10314224934E+002
+2.91072590738E+007, +1.90394229819E+000, +6.14345390988E+002
+2.92322903630E+007, +1.62766987691E+000, +6.19243508511E+002
+2.93573216521E+007, +2.27260758877E+000, +6.22696318514E+002
+2.94823529412E+007, +1.87250269204E+000, +6.28211186848E+002
+2.96073842303E+007, +3.01491849508E+000, +6.28892514028E+002
+2.97324155194E+007, +2.04446962222E+000, +6.34246845831E+002
+2.98574468085E+007, +4.25207493086E+000, +6.40583779065E+002
+2.99824780976E+007, +3.63003318243E+000, +6.44015631148E+002
+3.01075093867E+007, +1.60539630565E+000, +6.48253370898E+002
+3.02325406758E+007, +1.40789528433E+000, +6.52277088221E+002
+3.03575719650E+007, +4.70993428825E-001, +6.56727202917E+002
+3.04826032541E+007, +9.29696714022E-001, +6.58479721260E+002
+3.06076345432E+007, +1.06199693109E+000, +6.62153560008E+002
+3.07326658323E+007, +3.19293563019E+000, +6.68530648270E+002
+3.08576971214E+007, +1.74920691431E+000, +6.70030517448E+002
+3.09827284105E+007, +8.14918606269E-001, +6.75118746633E+002
+3.11077596996E+007, +1.59636267258E+000, +6.79463829711E+002
+3.12327909887E+007, -3.35794748360E-001, +6.83223871275E+002
+3.13578222778E+007, +1.75789121802E+000, +6.90066683963E+002
+3.14828535670E+007, +3.62139162769E+000, +6.93217944480E+002
+3.16078848561E+007, +1.34654440977E+000, +6.96570447503E+002
+3.17329161452E+007, +2.77910981831E+000, +6.99457465204E+002
+3.18579474343E+007, +3.66237393333E+000, +7.04330434045E+002
+3.19829787234E+007, +9.80625821120E-002, +7.09241156704E+002
+3.21080100125E+007, +1.89128222929E+000, +7.14039555511E+002
+3.22330413016E+007, +2.01336106583E+000, +7.20341070052E+002
+3.23580725907E+007, -1.32389678883E+000, +7.22883712300E+002
+3.24831038798E+007, +3.65064812781E+000, +7.28153620597E+002
+3.26081351690E+007, +2.92206648572E+000, +7.34862987339E+002
+3.27331664581E+007, +2.10198154708E+000, +7.36986605427E+002
+3.28581977472E+007, +4.62160677225E-001, +7.44935121829E+002
+3.29832290363E+007, +2.76979325452E-001, +7.46696552012E+002
+3.31082603254E+007, +1.88755033618E+000, +7.54777204946E+002
+3.32332916145E+007, -9.33745068983E-001, +7.57157485342E+002
+3.33583229036E+007, -7.15013899607E-001, +7.61015513622E+002
+3.34833541927E+007, +1.03384315649E+000, +7.64222410108E+002
+3.36083854819E+007, +1.78449799708E+000, +7.71455248119E+002
+3.37334167710E+007, +9.95446199794E-001, +7.73336957501E+002
+3.38584480601E+007, +3.37778345159E+000, +7.83052673704E+002
+3.39834793492E+007, +1.67956882626E-001, +7.85345480765E+002
+3.41085106383E+007, +7.53322450212E-001, +7.90176684883E+002
+3.42335419274E+007, +3.17676922219E+000, +7.97107963888E+002
+3.43585732165E+007, +1.72352185788E+000, +8.01303425735E+002
+3.44836045056E+007, +2.59676898024E+000, +8.08146467761E+002
+3.46086357947E+007, +3.06890455606E+000, +8.10736834981E+002
+3.47336670839E+007, +2.00730176217E-001, +8.15332946225E+002
+3.48586983730E+007, +9.95472929194E-001, +8.20813769242E+002
+3.49837296621E+007, +1.56491314761E+000, +8.23439069178E+002
+3.51087609512E+007, +1.13031738857E+000, +8.29544659405E+002
+3.52337922403E+007, +2.91668479072E+000, +8.40073526265E+002
+3.53588235294E+007, +1.53345797256E+000, +8.41871054842E+002
+3.54838548185E+007, +4.19727676138E+000, +8.48225255026E+002
+3.56088861076E+007, +3.61667335555E+000, +8.54631347373E+002
+3.57339173967E+007, +2.98431215099E+000, +8.61872923849E+002
+3.58589486859E+007, +3.51376779892E+000, +8.62649745559E+002
+3.59839799750E+007, +7.23471785233E-001, +8.72935713635E+002
+3.61090112641E+007, +6.04354261967E-001, +8.74770769474E+002
+3.62340425532E+007, +2.92744300373E+000, +8.82504949257E+002
+3.63590738423E+007, +4.66883971890E+000, +8.87898751439E+002
+3.64841051314E+007, +9.47131411472E-001, +8.86288490805E+002
+3.66091364205E+007, +4.96734506716E-002, +8.97759277619E+002
+3.67341677096E+007, +1.14497202951E-001, +9.06375779693E+002
+3.68591989987E+007, +2.57327478078E+000, +9.06423013785E+002
+3.69842302879E+007, +2.67828350426E+000, +9.14327701973E+002
+3.71092615770E+007, +3.65327539705E+000, +9.24641451466E+002
+3.72342928661E+007, +2.93991660459E+000, +9.27603950979E+002
+3.73593241552E+007, +9.79403737605E-001, +9.37011557297E+002
+3.74843554443E+007, -1.67499291279E+000, +9.40820887811E+002
+3.76093867334E+007, +3.54904065511E+000, +9.46471945865E+002
+3.77344180225E+007, +3.68869160446E+000, +9.57306155705E+002
+3.78594493116E+007, -4.10450166169E+000, +9.57180635146E+002
+3.79844806008E+007, +1.62355765315E+000, +9.66288790041E+002
+3.81095118899E+007, +2.36175213362E+000, +9.72057018754E+002
+3.82345431790E+007, +9.18421163927E-001, +9.81067138139E+002
+3.83595744681E+007, +8.03950182882E-001, +9.89123843793E+002
+3.84846057572E+007, -2.65316160517E+000, +9.90737238159E+002
+3.86096370463E+007, +3.09268923714E+000, +9.97611841937E+002
+3.87346683354E+007, -1.04777246877E+000, +1.00191726514E+003
+3.88596996245E+007, +1.98651807287E+000, +1.01159779717E+003
+3.89847309136E+007, -6.74550553650E-001, +1.01859812447E+003
+3.91097622028E+007, +3.50907507774E-001, +1.02688251438E+003
+3.92347934919E+007, +3.25791330999E+000, +1.03130514858E+003
+3.93598247810E+007, -3.12134834006E+000, +1.04331947825E+003
+3.94848560701E+007, +4.60000566829E+000, +1.04949333292E+003
+3.96098873592E+007, +1.23188591998E+000, +1.05196340046E+003
+3.97349186483E+007, -1.59894841409E-002, +1.06515667235E+003
+3.98599499374E+007, -1.03311815470E+000, +1.07322868107E+003
+3.99849812265E+007, +7.89787146640E+000, +1.07701343759E+003
+4.01100125156E+007, +9.58607814796E+000, +1.09042395501E+003
