"# Channel 1"
"# Trace 1"
Frequency, Formatted Data, Formatted Data
+1.00000000000E+005, +8.94000759327E+001, +2.27757524387E+000
+3.18898623279E+005, +8.95167157971E+001, +6.78271457981E+000
+5.37797246558E+005, +8.93114575109E+001, +1.14404327321E+001
+7.56695869837E+005, +8.94616208805E+001, +1.60971482312E+001
+9.75594493116E+005, +8.95820603498E+001, +2.07428552420E+001
+1.19449311640E+006, +8.94761839740E+001, +2.53479061262E+001
+1.41339173967E+006, +8.94193555563E+001, +3.00124759281E+001
+1.63229036295E+006, +8.93856505926E+001, +3.47411680764E+001
+1.85118898623E+006, +8.93668849139E+001, +3.93993247505E+001
+2.07008760951E+006, +8.95848287979E+001, +4.39426353459E+001
+2.28898623279E+006, +8.96034630780E+001, +4.88988523856E+001
+2.50788485607E+006, +8.96586910228E+001, +5.32708446474E+001
+2.72678347935E+006, +8.95348166603E+001, +5.81256170536E+001
+2.94568210263E+006, +8.96263986226E+001, +6.27025246785E+001
+3.16458072591E+006, +8.95611208875E+001, +6.76778452292E+001
+3.38347934919E+006, +8.98000880690E+001, +7.20337182919E+001
+3.60237797247E+006, +8.97144445382E+001, +7.65657663899E+001
+3.82127659574E+006, +8.99695491381E+001, +8.09783139831E+001
+4.04017521902E+006, +9.01031003230E+001, +8.60349390364E+001
+4.25907384230E+006, +8.98701655382E+001, +9.05746010340E+001
+4.47797246558E+006, +9.01227517189E+001, +9.53060064418E+001
+4.69687108886E+006, +9.01342780496E+001, +1.00071085409E+002
+4.91576971214E+006, +9.02199102739E+001, +1.04894524382E+002
+5.13466833542E+006, +9.02328865590E+001, +1.09409447798E+002
+5.35356695870E+006, +9.05131521993E+001, +1.14041537949E+002
+5.57246558198E+006, +9.03196533279E+001, +1.18787421220E+002
+5.79136420526E+006, +9.07695817135E+001, +1.23846562535E+002
+6.01026282854E+006, +9.09877631603E+001, +1.28004338896E+002
+6.22916145181E+006, +9.07546712287E+001, +1.33086561881E+002
+6.44806007509E+006, +9.08973021924E+001, +1.37664798758E+002
+6.66695869837E+006, +9.11347195307E+001, +1.42373210911E+002
+6.88585732165E+006, +9.13537737643E+001, +1.47347103881E+002
+7.10475594493E+006, +9.16084037739E+001, +1.52016405855E+002
+7.32365456821E+006, +9.17105077195E+001, +1.56703039291E+002
+7.54255319149E+006, +9.16224649215E+001, +1.61230074433E+002
+7.76145181477E+006, +9.21467531999E+001, +1.66308198199E+002
+7.98035043805E+006, +9.23514170924E+001, +1.71087365899E+002
+8.19924906133E+006, +9.23091770391E+001, +1.75959100737E+002
+8.41814768461E+006, +9.26876955240E+001, +1.80590743214E+002
+8.63704630788E+006, +9.27403614742E+001, +1.85504046603E+002
+8.85594493116E+006, +9.30482709596E+001, +1.90021539144E+002
+9.07484355444E+006, +9.29369563178E+001, +1.95491740134E+002
+9.29374217772E+006, +9.33234154581E+001, +2.00142333996E+002
+9.51264080100E+006, +9.34575013446E+001, +2.04864058715E+002
+9.73153942428E+006, +9.37786937982E+001, +2.10456244541E+002
+9.95043804756E+006, +9.37814169209E+001, +2.14904628459E+002
+1.01693366708E+007, +9.39173394308E+001, +2.19989752215E+002
+1.03882352941E+007, +9.40497603540E+001, +2.24778712008E+002
+1.06071339174E+007, +9.44352515255E+001, +2.29730978305E+002
+1.08260325407E+007, +9.46541400359E+001, +2.34795846323E+002
+1.10449311640E+007, +9.48183847177E+001, +2.39658596067E+002
+1.12638297872E+007, +9.53999361895E+001, +2.45041654406E+002
+1.14827284105E+007, +9.55420919683E+001, +2.49728321396E+002
+1.17016270338E+007, +9.55475607651E+001, +2.54924480762E+002
+1.19205256571E+007, +9.58175455316E+001, +2.59948964115E+002
+1.21394242804E+007, +9.62132410382E+001, +2.65079392851E+002
+1.23583229036E+007, +9.70542187990E+001, +2.70553972698E+002
+1.25772215269E+007, +9.64876545418E+001, +2.75394382181E+002
+1.27961201502E+007, +9.70360344050E+001, +2.80234339041E+002
+1.30150187735E+007, +9.71154857589E+001, +2.85545700621E+002
+1.32339173967E+007, +9.71139513621E+001, +2.90933496873E+002
+1.34528160200E+007, +9.70155945393E+001, +2.96228629419E+002
+1.36717146433E+007, +9.80337834285E+001, +3.01246819080E+002
+1.38906132666E+007, +9.85668498887E+001, +3.06914198748E+002
+1.41095118899E+007, +9.89747436243E+001, +3.11803693082E+002
+1.43284105131E+007, +9.85345797724E+001, +3.17710226761E+002
+1.45473091364E+007, +9.96070400762E+001, +3.22912048929E+002
+1.47662077597E+007, +1.00053827853E+002, +3.27928908283E+002
+1.49851063830E+007, +1.00813924128E+002, +3.33119623053E+002
+1.52040050063E+007, +1.00430511392E+002, +3.39580645693E+002
+1.54229036295E+007, +1.00910871153E+002, +3.44253059515E+002
+1.56418022528E+007, +1.00435396073E+002, +3.50527450528E+002
+1.58607008761E+007, +1.01176890752E+002, +3.55449073462E+002
+1.60795994994E+007, +1.01867424551E+002, +3.61704485481E+002
+1.62984981227E+007, +1.01829330770E+002, +3.66280156643E+002
+1.65173967459E+007, +1.02987748227E+002, +3.72018162316E+002
+1.67362953692E+007, +1.02744174400E+002, +3.78204643886E+002
+1.69551939925E+007, +1.03177414008E+002, +3.82157051034E+002
+1.71740926158E+007, +1.01870795212E+002, +3.90089175765E+002
+1.73929912390E+007, +1.02529465374E+002, +3.95410004075E+002
+1.76118898623E+007, +1.03921451956E+002, +4.01308649038E+002
+1.78307884856E+007, +1.04911342756E+002, +4.06311747603E+002
+1.80496871089E+007, +1.05744270506E+002, +4.12247059160E+002
+1.82685857322E+007, +1.05815370604E+002, +4.18915808024E+002
+1.84874843554E+007, +1.07763363719E+002, +4.24179968554E+002
+1.87063829787E+007, +1.06800977696E+002, +4.30046295142E+002
+1.89252816020E+007, +1.07229887752E+002, +4.37290706234E+002
+1.91441802253E+007, +1.08185238690E+002, +4.40876379149E+002
+1.93630788486E+007, +1.07631851425E+002, +4.47764459253E+002
+1.95819774718E+007, +1.09870759750E+002, +4.53917714221E+002
+1.98008760951E+007, +1.10093758161E+002, +4.60360000279E+002
+2.00197747184E+007, +1.09810881673E+002, +4.66256324060E+002
+2.02386733417E+007, +1.10460631528E+002, +4.71424908439E+002
+2.04575719650E+007, +1.11959823990E+002, +4.77994962138E+002
+2.06764705882E+007, +1.11967311137E+002, +4.84348355035E+002
+2.08953692115E+007, +1.13158491155E+002, +4.92004524812E+002
+2.11142678348E+007, +1.12637970407E+002, +4.96279266500E+002
+2.13331664581E+007, +1.14980844407E+002, +5.04535542571E+002
+2.15520650814E+007, +1.14971653637E+002, +5.08506054903E+002
+2.17709637046E+007, +1.14773471268E+002, +5.15957647868E+002
+2.19898623279E+007, +1.17758745846E+002, +5.22261336521E+002
+2.22087609512E+007, +1.15481722582E+002, +5.29152682880E+002
+2.24276595745E+007, +1.20495665739E+002, +5.37531768706E+002
+2.26465581977E+007, +1.17919254853E+002, +5.42549833778E+002
+2.28654568210E+007, +1.20768130651E+002, +5.47812472014E+002
+2.30843554443E+007, +1.19953011374E+002, +5.56152811354E+002
+2.33032540676E+007, +1.21844548324E+002, +5.62220356843E+002
+2.35221526909E+007, +1.20842460851E+002, +5.70592768302E+002
+2.37410513141E+007, +1.22388494549E+002, +5.75130465989E+002
+2.39599499374E+007, +1.23924530574E+002, +5.82947042793E+002
+2.41788485607E+007, +1.23241646477E+002, +5.88353390902E+002
+2.43977471840E+007, +1.26328295857E+002, +5.95626615338E+002
+2.46166458073E+007, +1.26351778739E+002, +6.04607074645E+002
+2.48355444305E+007, +1.27943773407E+002, +6.11035208193E+002
+2.50544430538E+007, +1.28431807771E+002, +6.17030913289E+002
+2.52733416771E+007, +1.30660474525E+002, +6.25136261762E+002
+2.54922403004E+007, +1.30253285241E+002, +6.34152609528E+002
+2.57111389237E+007, +1.32585431982E+002, +6.39787662789E+002
+2.59300375469E+007, +1.30817221482E+002, +6.46010053840E+002
+2.61489361702E+007, +1.32550223026E+002, +6.53848257536E+002
+2.63678347935E+007, +1.31575033184E+002, +6.63269553334E+002
+2.65867334168E+007, +1.35984351576E+002, +6.68289926039E+002
+2.68056320401E+007, +1.36628375638E+002, +6.77711500498E+002
+2.70245306633E+007, +1.36526834894E+002, +6.83560884008E+002
+2.72434292866E+007, +1.36615324561E+002, +6.92281357120E+002
+2.74623279099E+007, +1.35319189570E+002, +6.99068186451E+002
+2.76812265332E+007, +1.38359040184E+002, +7.10210940373E+002
+2.79001251564E+007, +1.39757462828E+002, +7.19154262885E+002
+2.81190237797E+007, +1.42536240388E+002, +7.23672644012E+002
+2.83379224030E+007, +1.39757795415E+002, +7.29911320633E+002
+2.85568210263E+007, +1.40040283918E+002, +7.41565196962E+002
+2.87757196496E+007, +1.40646923511E+002, +7.52192280162E+002
+2.89946182728E+007, +1.44005952993E+002, +7.62073166505E+002
+2.92135168961E+007, +1.43961064437E+002, +7.70992467809E+002
+2.94324155194E+007, +1.48928124031E+002, +7.78565550542E+002
+2.96513141427E+007, +1.48908698252E+002, +7.87386055133E+002
+2.98702127660E+007, +1.48217573389E+002, +7.95102308577E+002
+3.00891113892E+007, +1.50581640986E+002, +8.06985923850E+002
+3.03080100125E+007, +1.52927240358E+002, +8.12201924936E+002
+3.05269086358E+007, +1.57738172351E+002, +8.20022483875E+002
+3.07458072591E+007, +1.55750269075E+002, +8.30721586278E+002
+3.09647058824E+007, +1.58135665334E+002, +8.40951430656E+002
+3.11836045056E+007, +1.57420437555E+002, +8.52472820541E+002
+3.14025031289E+007, +1.57799852827E+002, +8.59865625927E+002
+3.16214017522E+007, +1.61302236535E+002, +8.68529149409E+002
+3.18403003755E+007, +1.61330712153E+002, +8.86552392352E+002
+3.20591989987E+007, +1.62652071964E+002, +8.91272382403E+002
+3.22780976220E+007, +1.61481735252E+002, +9.00914224168E+002
+3.24969962453E+007, +1.65572519298E+002, +9.12631027724E+002
+3.27158948686E+007, +1.67224798301E+002, +9.19594362844E+002
+3.29347934919E+007, +1.69331051393E+002, +9.32921851712E+002
+3.31536921151E+007, +1.71626566450E+002, +9.43047484494E+002
+3.33725907384E+007, +1.75355035154E+002, +9.54639581892E+002
+3.35914893617E+007, +1.75571951657E+002, +9.68574732392E+002
+3.38103879850E+007, +1.76839755107E+002, +9.77047197863E+002
+3.40292866083E+007, +1.75954285135E+002, +9.90582393259E+002
+3.42481852315E+007, +1.80599052299E+002, +9.97977807417E+002
+3.44670838548E+007, +1.83755940468E+002, +1.01321986856E+003
+3.46859824781E+007, +1.87910348980E+002, +1.02520389004E+003
+3.49048811014E+007, +1.96076011859E+002, +1.03515241081E+003
+3.51237797247E+007, +1.92731861066E+002, +1.04871041882E+003
+3.53426783479E+007, +1.90719083190E+002, +1.06048946937E+003
+3.55615769712E+007, +1.95240350377E+002, +1.07297535684E+003
+3.57804755945E+007, +2.06211203180E+002, +1.08315592253E+003
+3.59993742178E+007, +1.97357225367E+002, +1.10496913136E+003
+3.62182728411E+007, +1.98493456870E+002, +1.11072305789E+003
+3.64371714643E+007, +2.07882238446E+002, +1.12217134771E+003
+3.66560700876E+007, +2.04644979632E+002, +1.14607525349E+003
+3.68749687109E+007, +2.12992129318E+002, +1.16030753698E+003
+3.70938673342E+007, +2.19792694901E+002, +1.16684227776E+003
+3.73127659574E+007, +2.18238437807E+002, +1.18538480198E+003
+3.75316645807E+007, +2.16216100059E+002, +1.20088527177E+003
+3.77505632040E+007, +2.22865688790E+002, +1.21947597381E+003
+3.79694618273E+007, +2.32592531533E+002, +1.22883305562E+003
+3.81883604506E+007, +2.30789980787E+002, +1.24966509412E+003
+3.84072590738E+007, +2.30357049962E+002, +1.25726240465E+003
+3.86261576971E+007, +2.36481930183E+002, +1.27723026875E+003
+3.88450563204E+007, +2.34497982091E+002, +1.28888331791E+003
+3.90639549437E+007, +2.53806519309E+002, +1.30159277203E+003
+3.92828535670E+007, +2.44280965893E+002, +1.33111708546E+003
+3.95017521902E+007, +2.62870150573E+002, +1.34243677527E+003
+3.97206508135E+007, +2.61058481426E+002, +1.36403919474E+003
+3.99395494368E+007, +2.65578611426E+002, +1.37634921933E+003
+4.01584480601E+007, +2.72717104809E+002, +1.40248632124E+003
+4.03773466834E+007, +2.83863622230E+002, +1.42252832633E+003
+4.05962453066E+007, +2.75252616967E+002, +1.44106642748E+003
+4.08151439299E+007, +2.85787038915E+002, +1.45129579367E+003
+4.10340425532E+007, +2.80742521830E+002, +1.46961346910E+003
+4.12529411765E+007, +2.84611918109E+002, +1.48384793026E+003
+4.14718397997E+007, +2.91352792149E+002, +1.51802362570E+003
+4.16907384230E+007, +3.05619139797E+002, +1.53728046571E+003
+4.19096370463E+007, +3.13825357361E+002, +1.55819526482E+003
+4.21285356696E+007, +3.16155718424E+002, +1.58004258844E+003
+4.23474342929E+007, +3.25769494008E+002, +1.61076415075E+003
+4.25663329161E+007, +3.37816634617E+002, +1.62038349265E+003
+4.27852315394E+007, +3.33661935685E+002, +1.64577399680E+003
+4.30041301627E+007, +3.54823743993E+002, +1.67838368037E+003
+4.32230287860E+007, +3.58343521493E+002, +1.69856613978E+003
+4.34419274093E+007, +3.62514090935E+002, +1.73171733204E+003
+4.36608260325E+007, +3.69510323643E+002, +1.73810127744E+003
+4.38797246558E+007, +3.90307330173E+002, +1.76587355278E+003
+4.40986232791E+007, +3.79793218687E+002, +1.79529594746E+003
+4.43175219024E+007, +3.95913493292E+002, +1.83811397188E+003
+4.45364205257E+007, +4.16965059637E+002, +1.87315075126E+003
+4.47553191489E+007, +4.33001819301E+002, +1.89305011224E+003
+4.49742177722E+007, +4.26444545573E+002, +1.93003892515E+003
+4.51931163955E+007, +4.51833092946E+002, +1.93769885152E+003
+4.54120150188E+007, +4.38735232368E+002, +1.97461136919E+003
+4.56309136421E+007, +4.69614928166E+002, +2.01794028295E+003
+4.58498122653E+007, +4.88828107039E+002, +2.02738297206E+003
+4.60687108886E+007, +4.91087170897E+002, +2.08965067879E+003
+4.62876095119E+007, +5.19846284772E+002, +2.11953340913E+003
+4.65065081352E+007, +5.36004995909E+002, +2.15593497698E+003
+4.67254067584E+007, +5.31360843076E+002, +2.20100466273E+003
+4.69443053817E+007, +5.52871272513E+002, +2.21859861848E+003
+4.71632040050E+007, +5.65334091879E+002, +2.26863131458E+003
+4.73821026283E+007, +5.91838844523E+002, +2.29896784857E+003
+4.76010012516E+007, +6.20432689902E+002, +2.33891196230E+003
+4.78198998748E+007, +6.35216285297E+002, +2.38822647058E+003
+4.80387984981E+007, +6.57743548995E+002, +2.42969249019E+003
+4.82576971214E+007, +6.78470055224E+002, +2.49724669309E+003
+4.84765957447E+007, +6.97355063444E+002, +2.51284216091E+003
+4.86954943680E+007, +7.21164289941E+002, +2.57260966015E+003
+4.89143929912E+007, +7.35209203721E+002, +2.65044429489E+003
+4.91332916145E+007, +7.70999800551E+002, +2.66729523773E+003
+4.93521902378E+007, +8.14877175173E+002, +2.75634770330E+003
+4.95710888611E+007, +8.84677969384E+002, +2.73098613648E+003
+4.97899874844E+007, +9.04281183158E+002, +2.74260242291E+003
+5.00088861076E+007, +8.99597474919E+002, +2.85935502599E+003
+5.02277847309E+007, +9.53860598339E+002, +2.94211514036E+003
+5.04466833542E+007, +1.05051041627E+003, +3.02585093123E+003
+5.06655819775E+007, +1.04624894052E+003, +3.04972701951E+003
+5.08844806008E+007, +1.04379348296E+003, +3.10531190109E+003
+5.11033792240E+007, +1.14294625761E+003, +3.19639292976E+003
+5.13222778473E+007, +1.20941616196E+003, +3.30413060265E+003
+5.15411764706E+007, +1.28348549361E+003, +3.31460694162E+003
+5.17600750939E+007, +1.35208234846E+003, +3.48421165069E+003
+5.19789737171E+007, +1.43714336033E+003, +3.53500735377E+003
+5.21978723404E+007, +1.47775049935E+003, +3.54873249058E+003
+5.24167709637E+007, +1.45993804999E+003, +3.67497335118E+003
+5.26356695870E+007, +1.66657812951E+003, +3.66254616783E+003
+5.28545682103E+007, +1.71336152772E+003, +3.81656338563E+003
+5.30734668335E+007, +1.84475098754E+003, +3.94478298031E+003
+5.32923654568E+007, +1.94752459863E+003, +4.05181146100E+003
+5.35112640801E+007, +2.04601216552E+003, +4.06268976676E+003
+5.37301627034E+007, +2.16819531990E+003, +4.23440008723E+003
+5.39490613267E+007, +2.36369646640E+003, +4.32689285159E+003
+5.41679599499E+007, +2.50360337208E+003, +4.48007814602E+003
+5.43868585732E+007, +2.70731870090E+003, +4.57456006253E+003
+5.46057571965E+007, +2.85673371590E+003, +4.61888462839E+003
+5.48246558198E+007, +2.98583912977E+003, +4.66538400166E+003
+5.50435544431E+007, +3.39879027052E+003, +4.83855067775E+003
+5.52624530663E+007, +3.76531719626E+003, +4.86432244797E+003
+5.54813516896E+007, +3.73584842909E+003, +4.85391166456E+003
+5.57002503129E+007, +4.15588331013E+003, +5.07898731716E+003
+5.59191489362E+007, +4.54675621490E+003, +5.12465105856E+003
+5.61380475594E+007, +4.64058616034E+003, +5.10948471621E+003
+5.63569461827E+007, +5.20746030362E+003, +5.20575792759E+003
+5.65758448060E+007, +5.53249727458E+003, +4.96686630418E+003
+5.67947434293E+007, +5.94329145028E+003, +4.94338990863E+003
+5.70136420526E+007, +6.47885172668E+003, +5.05218715178E+003
+5.72325406758E+007, +6.98430991756E+003, +4.68509288264E+003
+5.74514392991E+007, +7.31982768189E+003, +4.72576041051E+003
+5.76703379224E+007, +7.86518437318E+003, +4.33430395859E+003
+5.78892365457E+007, +8.55560649045E+003, +3.97183159103E+003
+5.81081351690E+007, +8.76074851055E+003, +3.07920204528E+003
+5.83270337922E+007, +9.26688501647E+003, +2.78382623904E+003
+5.85459324155E+007, +9.33436424954E+003, +1.90910628667E+003
+5.87648310388E+007, +9.80279472289E+003, +1.41106636335E+003
+5.89837296621E+007, +9.69005599370E+003, +1.08091684058E+003
+5.92026282854E+007, +9.67489378722E+003, -1.27906435046E+002
+5.94215269086E+007, +9.66139683089E+003, -5.74309101352E+002
+5.96404255319E+007, +9.57959452974E+003, -1.61984524017E+003
+5.98593241552E+007, +9.37816299346E+003, -2.12501662406E+003
+6.00782227785E+007, +9.11066576881E+003, -2.94524471167E+003
+6.02971214018E+007, +8.66068437944E+003, -2.74664856280E+003
+6.05160200250E+007, +8.22675383678E+003, -3.50856082604E+003
+6.07349186483E+007, +7.80904354777E+003, -3.63801139496E+003
+6.09538172716E+007, +7.10097304495E+003, -4.33671254329E+003
+6.11727158949E+007, +6.75598922477E+003, -4.15603795436E+003
+6.13916145181E+007, +6.29461930362E+003, -4.61730853752E+003
+6.16105131414E+007, +5.96191814121E+003, -4.60904273382E+003
+6.18294117647E+007, +5.61055323442E+003, -4.52948088710E+003
+6.20483103880E+007, +5.34474810985E+003, -4.73578382971E+003
+6.22672090113E+007, +4.92316721483E+003, -4.69639669253E+003
+6.24861076345E+007, +4.55853418679E+003, -4.57199636438E+003
+6.27050062578E+007, +4.27334497837E+003, -4.52457160467E+003
+6.29239048811E+007, +3.96298681851E+003, -4.69044757892E+003
+6.31428035044E+007, +3.64154037004E+003, -4.59353990084E+003
+6.33617021277E+007, +3.43652503869E+003, -4.42761984120E+003
+6.35806007509E+007, +3.24373023800E+003, -4.37676994767E+003
+6.37994993742E+007, +3.08775231120E+003, -4.30469911844E+003
+6.40183979975E+007, +2.88375224887E+003, -4.24261410054E+003
+6.42372966208E+007, +2.61787448145E+003, -4.12391592475E+003
+6.44561952441E+007, +2.54075291348E+003, -4.06280091267E+003
+6.46750938673E+007, +2.31367068751E+003, -3.88472583553E+003
+6.48939924906E+007, +2.25676581998E+003, -3.76623606377E+003
+6.51128911139E+007, +2.02153643059E+003, -3.73694696452E+003
+6.53317897372E+007, +2.01999796036E+003, -3.55591217367E+003
+6.55506883605E+007, +1.89016182090E+003, -3.50580336071E+003
+6.57695869837E+007, +1.82399394137E+003, -3.45988398981E+003
+6.59884856070E+007, +1.76745181552E+003, -3.29519339560E+003
+6.62073842303E+007, +1.59338720311E+003, -3.28872060850E+003
+6.64262828536E+007, +1.59801540580E+003, -3.27258327383E+003
+6.66451814768E+007, +1.56284947566E+003, -3.14018758747E+003
+6.68640801001E+007, +1.48050621285E+003, -3.04629149067E+003
+6.70829787234E+007, +1.42708117045E+003, -3.00767355569E+003
+6.73018773467E+007, +1.42358893201E+003, -2.95794782076E+003
+6.75207759700E+007, +1.36500550642E+003, -2.81461568861E+003
+6.77396745932E+007, +1.31015337080E+003, -2.81762664314E+003
+6.79585732165E+007, +1.28594696533E+003, -2.73356766967E+003
+6.81774718398E+007, +1.20903572607E+003, -2.68567785411E+003
+6.83963704631E+007, +1.19376241106E+003, -2.64196565013E+003
+6.86152690864E+007, +1.14263213423E+003, -2.58703908567E+003
+6.88341677096E+007, +1.11903792701E+003, -2.55082520281E+003
+6.90530663329E+007, +1.09318532398E+003, -2.50522310521E+003
+6.92719649562E+007, +1.02676644699E+003, -2.45647953976E+003
+6.94908635795E+007, +1.01810396078E+003, -2.39463011474E+003
+6.97097622028E+007, +9.66499560346E+002, -2.36346377444E+003
+6.99286608260E+007, +9.51761268646E+002, -2.31239408861E+003
+7.01475594493E+007, +9.11434726880E+002, -2.26522069601E+003
