"# Channel 1"
"# Trace 1"
Frequency, Formatted Data, Formatted Data
+1.00000000000E+005, +5.03873499298E+001, +1.90784938606E+000
+2.25031289111E+005, +5.02060543164E+001, +4.77120360893E+000
+3.50062578223E+005, +5.03130528911E+001, +7.43768938659E+000
+4.75093867334E+005, +5.03660314390E+001, +1.00892217013E+001
+6.00125156446E+005, +5.04705322791E+001, +1.27198337041E+001
+7.25156445557E+005, +5.03634725465E+001, +1.53821767044E+001
+8.50187734668E+005, +5.04651315919E+001, +1.79460364803E+001
+9.75219023780E+005, +5.05152192175E+001, +2.05892493644E+001
+1.10025031289E+006, +5.06097488470E+001, +2.31893727432E+001
+1.22528160200E+006, +5.06036981602E+001, +2.56078138021E+001
+1.35031289111E+006, +5.07006123354E+001, +2.82452452577E+001
+1.47534418023E+006, +5.07430965736E+001, +3.09506805528E+001
+1.60037546934E+006, +5.06864485860E+001, +3.34272590649E+001
+1.72540675845E+006, +5.08337517370E+001, +3.61295904865E+001
+1.85043804756E+006, +5.06931020909E+001, +3.88115504097E+001
+1.97546933667E+006, +5.08589378043E+001, +4.12192093270E+001
+2.10050062578E+006, +5.08625726993E+001, +4.40382869512E+001
+2.22553191489E+006, +5.08860780499E+001, +4.65008999057E+001
+2.35056320401E+006, +5.09271019771E+001, +4.90319674232E+001
+2.47559449312E+006, +5.08979374145E+001, +5.18025291982E+001
+2.60062578223E+006, +5.11264233940E+001, +5.43977213038E+001
+2.72565707134E+006, +5.11087612029E+001, +5.69232063386E+001
+2.85068836045E+006, +5.12940915565E+001, +5.93287788368E+001
+2.97571964956E+006, +5.13017138919E+001, +6.21952063495E+001
+3.10075093867E+006, +5.12369225842E+001, +6.47268640226E+001
+3.22578222778E+006, +5.12886436050E+001, +6.73916721959E+001
+3.35081351690E+006, +5.13090863032E+001, +6.99743454087E+001
+3.47584480601E+006, +5.12790296018E+001, +7.24838409490E+001
+3.60087609512E+006, +5.13695010582E+001, +7.53553315077E+001
+3.72590738423E+006, +5.21452573480E+001, +7.80610129995E+001
+3.85093867334E+006, +5.15600117906E+001, +8.00847210793E+001
+3.97596996245E+006, +5.14104728135E+001, +8.31884182212E+001
+4.10100125156E+006, +5.16443480541E+001, +8.55969021513E+001
+4.22603254068E+006, +5.14808101651E+001, +8.82716107606E+001
+4.35106382979E+006, +5.19624063828E+001, +9.07318200368E+001
+4.47609511890E+006, +5.19286518282E+001, +9.35282222059E+001
+4.60112640801E+006, +5.20244570111E+001, +9.61722964863E+001
+4.72615769712E+006, +5.20577766798E+001, +9.85735613365E+001
+4.85118898623E+006, +5.22710531833E+001, +1.01245392452E+002
+4.97622027534E+006, +5.22174374279E+001, +1.03994194568E+002
+5.10125156446E+006, +5.21350883203E+001, +1.06433034963E+002
+5.22628285357E+006, +5.24700069539E+001, +1.09279405222E+002
+5.35131414268E+006, +5.24376614260E+001, +1.12086585124E+002
+5.47634543179E+006, +5.26558036016E+001, +1.14596417061E+002
+5.60137672090E+006, +5.26489026574E+001, +1.17046063967E+002
+5.72640801001E+006, +5.27527272142E+001, +1.19564018213E+002
+5.85143929912E+006, +5.28615813692E+001, +1.22423322009E+002
+5.97647058824E+006, +5.29529004953E+001, +1.24909833683E+002
+6.10150187735E+006, +5.31173576242E+001, +1.27678739511E+002
+6.22653316646E+006, +5.31734229775E+001, +1.30640712991E+002
+6.35156445557E+006, +5.32796558867E+001, +1.32761093095E+002
+6.47659574468E+006, +5.33178215848E+001, +1.35665868865E+002
+6.60162703379E+006, +5.32566104044E+001, +1.38228662976E+002
+6.72665832290E+006, +5.35886377675E+001, +1.40857346515E+002
+6.85168961202E+006, +5.37560062912E+001, +1.43618848307E+002
+6.97672090113E+006, +5.36704043358E+001, +1.46237233986E+002
+7.10175219024E+006, +5.40843055083E+001, +1.48928302799E+002
+7.22678347935E+006, +5.41422404703E+001, +1.51541067615E+002
+7.35181476846E+006, +5.39827093745E+001, +1.54413062985E+002
+7.47684605757E+006, +5.44222001623E+001, +1.56851688794E+002
+7.60187734668E+006, +5.41746003297E+001, +1.59580647622E+002
+7.72690863579E+006, +5.44602803052E+001, +1.62078749252E+002
+7.85193992491E+006, +5.46269852848E+001, +1.64862692115E+002
+7.97697121402E+006, +5.46394159405E+001, +1.67477564326E+002
+8.10200250313E+006, +5.49133174597E+001, +1.70311928573E+002
+8.22703379224E+006, +5.49772891221E+001, +1.73073765954E+002
+8.35206508135E+006, +5.51391221935E+001, +1.75573386596E+002
+8.47709637046E+006, +5.51358606102E+001, +1.78426249779E+002
+8.60212765957E+006, +5.52600798436E+001, +1.81376976321E+002
+8.72715894869E+006, +5.53021051609E+001, +1.83865511716E+002
+8.85219023780E+006, +5.56211104673E+001, +1.86425523436E+002
+8.97722152691E+006, +5.58423785939E+001, +1.89347833503E+002
+9.10225281602E+006, +5.57708233405E+001, +1.92026785850E+002
+9.22728410513E+006, +5.61466676213E+001, +1.94623457714E+002
+9.35231539424E+006, +5.58014107170E+001, +1.97383821722E+002
+9.47734668335E+006, +5.59906672106E+001, +2.00010505531E+002
+9.60237797247E+006, +5.60550365184E+001, +2.02887941106E+002
+9.72740926158E+006, +5.62305162756E+001, +2.05312072093E+002
+9.85244055069E+006, +5.60438012569E+001, +2.08282755663E+002
+9.97747183980E+006, +5.63002077004E+001, +2.10980498326E+002
+1.01025031289E+007, +5.64191149574E+001, +2.13897433158E+002
+1.02275344180E+007, +5.63133957086E+001, +2.16474939310E+002
+1.03525657071E+007, +5.67131641658E+001, +2.19721748718E+002
+1.04775969962E+007, +5.69043884790E+001, +2.22176836524E+002
+1.06026282854E+007, +5.67955285721E+001, +2.24873160955E+002
+1.07276595745E+007, +5.73785137422E+001, +2.27670675084E+002
+1.08526908636E+007, +5.76498669485E+001, +2.30428205908E+002
+1.09777221527E+007, +5.73546713726E+001, +2.33099965029E+002
+1.11027534418E+007, +5.76883220042E+001, +2.36326193441E+002
+1.12277847309E+007, +5.80583129343E+001, +2.38769572765E+002
+1.13528160200E+007, +5.76397262881E+001, +2.41540109558E+002
+1.14778473091E+007, +5.80866416599E+001, +2.44135166542E+002
+1.16028785982E+007, +5.83987726283E+001, +2.47121305948E+002
+1.17279098874E+007, +5.80868780946E+001, +2.49899456966E+002
+1.18529411765E+007, +5.87317722946E+001, +2.52889456341E+002
+1.19779724656E+007, +5.85571383153E+001, +2.55870214648E+002
+1.21030037547E+007, +5.88604603581E+001, +2.58363468121E+002
+1.22280350438E+007, +5.84458435056E+001, +2.61417694533E+002
+1.23530663329E+007, +5.94246482354E+001, +2.64509475197E+002
+1.24780976220E+007, +5.94180825554E+001, +2.66955248921E+002
+1.26031289111E+007, +5.94408113873E+001, +2.69973732767E+002
+1.27281602003E+007, +5.91323446788E+001, +2.72757267817E+002
+1.28531914894E+007, +5.97943226951E+001, +2.75162793635E+002
+1.29782227785E+007, +5.96588017670E+001, +2.78577796829E+002
+1.31032540676E+007, +6.01110466329E+001, +2.81611335613E+002
+1.32282853567E+007, +6.02805285866E+001, +2.84508013877E+002
+1.33533166458E+007, +6.07706408802E+001, +2.87264013986E+002
+1.34783479349E+007, +6.03428380176E+001, +2.89548469456E+002
+1.36033792240E+007, +6.04315990950E+001, +2.92914515895E+002
+1.37284105131E+007, +6.10129148748E+001, +2.95742569556E+002
+1.38534418023E+007, +6.12593586480E+001, +2.98681132559E+002
+1.39784730914E+007, +6.13996039866E+001, +3.01578810953E+002
+1.41035043805E+007, +6.11605713750E+001, +3.04998486579E+002
+1.42285356696E+007, +6.15440984077E+001, +3.07385152065E+002
+1.43535669587E+007, +6.16739151154E+001, +3.10237743754E+002
+1.44785982478E+007, +6.20568401992E+001, +3.13166052394E+002
+1.46036295369E+007, +6.16194573888E+001, +3.16742002450E+002
+1.47286608260E+007, +6.21696981664E+001, +3.19491372839E+002
+1.48536921151E+007, +6.25160224505E+001, +3.22121696176E+002
+1.49787234043E+007, +6.19984881229E+001, +3.24631234325E+002
+1.51037546934E+007, +6.34622007128E+001, +3.28310182894E+002
+1.52287859825E+007, +6.34505201602E+001, +3.30666271983E+002
+1.53538172716E+007, +6.36307852442E+001, +3.34394239582E+002
+1.54788485607E+007, +6.35886744255E+001, +3.37477844470E+002
+1.56038798498E+007, +6.35255907122E+001, +3.40276581057E+002
+1.57289111389E+007, +6.33626982178E+001, +3.42981046265E+002
+1.58539424280E+007, +6.39294417144E+001, +3.46377009867E+002
+1.59789737171E+007, +6.40948176944E+001, +3.48966996744E+002
+1.61040050063E+007, +6.48863164941E+001, +3.52490699403E+002
+1.62290362954E+007, +6.48671118496E+001, +3.55539355824E+002
+1.63540675845E+007, +6.48523864588E+001, +3.58874701526E+002
+1.64790988736E+007, +6.47585913007E+001, +3.61510421370E+002
+1.66041301627E+007, +6.48482578785E+001, +3.63871933584E+002
+1.67291614518E+007, +6.53941079108E+001, +3.67838611080E+002
+1.68541927409E+007, +6.50854019796E+001, +3.70392831998E+002
+1.69792240300E+007, +6.54858454043E+001, +3.73453565819E+002
+1.71042553191E+007, +6.54623507668E+001, +3.77354690761E+002
+1.72292866083E+007, +6.54523900314E+001, +3.79379798877E+002
+1.73543178974E+007, +6.49294274432E+001, +3.83794940682E+002
+1.74793491865E+007, +6.63424653900E+001, +3.86445421538E+002
+1.76043804756E+007, +6.55720641174E+001, +3.89980696781E+002
+1.77294117647E+007, +6.77497715563E+001, +3.92886479038E+002
+1.78544430538E+007, +6.71211945745E+001, +3.96203127328E+002
+1.79794743429E+007, +6.73692604554E+001, +3.98299388744E+002
+1.81045056320E+007, +6.77913039507E+001, +4.02027783349E+002
+1.82295369212E+007, +6.79463953823E+001, +4.05964676406E+002
+1.83545682103E+007, +6.85865801233E+001, +4.09164204962E+002
+1.84795994994E+007, +6.92619496301E+001, +4.10769838236E+002
+1.86046307885E+007, +7.00317727980E+001, +4.15827324611E+002
+1.87296620776E+007, +6.92625157306E+001, +4.18159016148E+002
+1.88546933667E+007, +6.86751595958E+001, +4.20739518681E+002
+1.89797246558E+007, +6.98424771680E+001, +4.24180390758E+002
+1.91047559449E+007, +7.02813903556E+001, +4.28220557555E+002
+1.92297872340E+007, +6.96391196175E+001, +4.31872958875E+002
+1.93548185232E+007, +7.04470563967E+001, +4.34894201686E+002
+1.94798498123E+007, +7.06423367387E+001, +4.37508679968E+002
+1.96048811014E+007, +7.14329035062E+001, +4.40263640372E+002
+1.97299123905E+007, +7.11022240829E+001, +4.44935847517E+002
+1.98549436796E+007, +7.04689252963E+001, +4.47241615757E+002
+1.99799749687E+007, +7.24978883398E+001, +4.51274374882E+002
+2.01050062578E+007, +7.25741900057E+001, +4.54694081569E+002
+2.02300375469E+007, +7.26764803487E+001, +4.58115541802E+002
+2.03550688360E+007, +7.33091702133E+001, +4.61578478807E+002
+2.04801001252E+007, +7.21234635185E+001, +4.64535795078E+002
+2.06051314143E+007, +7.34190399301E+001, +4.67204510645E+002
+2.07301627034E+007, +7.47618320141E+001, +4.70805082768E+002
+2.08551939925E+007, +7.34211565895E+001, +4.74562814784E+002
+2.09802252816E+007, +7.41854399690E+001, +4.78921665192E+002
+2.11052565707E+007, +7.52823367130E+001, +4.81470709422E+002
+2.12302878598E+007, +7.55425922954E+001, +4.84049357623E+002
+2.13553191489E+007, +7.51236724206E+001, +4.87438483050E+002
+2.14803504380E+007, +7.62353899203E+001, +4.90500979363E+002
+2.16053817272E+007, +7.65900003169E+001, +4.95609436459E+002
+2.17304130163E+007, +7.65935766341E+001, +4.97807297232E+002
+2.18554443054E+007, +7.73479854278E+001, +5.02558678262E+002
+2.19804755945E+007, +7.67244590419E+001, +5.06562184789E+002
+2.21055068836E+007, +7.68893502118E+001, +5.08686136247E+002
+2.22305381727E+007, +7.86072347353E+001, +5.11537177502E+002
+2.23555694618E+007, +7.83883216224E+001, +5.15800510188E+002
+2.24806007509E+007, +7.84980775231E+001, +5.19107866240E+002
+2.26056320401E+007, +7.92487842336E+001, +5.23228784128E+002
+2.27306633292E+007, +7.93304927152E+001, +5.25761651462E+002
+2.28556946183E+007, +8.06125270831E+001, +5.29533074922E+002
+2.29807259074E+007, +8.02901378915E+001, +5.33506526649E+002
+2.31057571965E+007, +8.22824904487E+001, +5.37686156636E+002
+2.32307884856E+007, +7.91441992302E+001, +5.42000357966E+002
+2.33558197747E+007, +8.22990976061E+001, +5.46495671203E+002
+2.34808510638E+007, +8.16607917145E+001, +5.48196393669E+002
+2.36058823529E+007, +8.27669733536E+001, +5.52430598749E+002
+2.37309136421E+007, +8.24491615903E+001, +5.54559771791E+002
+2.38559449312E+007, +8.39686386541E+001, +5.59841584445E+002
+2.39809762203E+007, +8.49220658841E+001, +5.62929240328E+002
+2.41060075094E+007, +8.43512862875E+001, +5.67422111746E+002
+2.42310387985E+007, +8.49646613094E+001, +5.69815530757E+002
+2.43560700876E+007, +8.59664895536E+001, +5.73895601513E+002
+2.44811013767E+007, +8.75483575821E+001, +5.79722835250E+002
+2.46061326658E+007, +8.69288153876E+001, +5.82306589176E+002
+2.47311639549E+007, +8.78803047353E+001, +5.85606453950E+002
+2.48561952441E+007, +8.79552032352E+001, +5.87327906456E+002
+2.49812265332E+007, +8.68895912599E+001, +5.94446317101E+002
+2.51062578223E+007, +8.85207103030E+001, +5.96252388983E+002
+2.52312891114E+007, +8.96336362743E+001, +6.02950818487E+002
+2.53563204005E+007, +9.15049813002E+001, +6.04337520812E+002
+2.54813516896E+007, +9.06519481542E+001, +6.06277005263E+002
+2.56063829787E+007, +9.14557268708E+001, +6.10528394626E+002
+2.57314142678E+007, +9.06279523505E+001, +6.18790007545E+002
+2.58564455569E+007, +9.15061328335E+001, +6.18371365987E+002
+2.59814768461E+007, +9.28028199487E+001, +6.23352706975E+002
+2.61065081352E+007, +9.20198897628E+001, +6.27689045635E+002
+2.62315394243E+007, +9.32549024325E+001, +6.32417150678E+002
+2.63565707134E+007, +9.23990984815E+001, +6.33640945083E+002
+2.64816020025E+007, +9.45651108756E+001, +6.36260454482E+002
+2.66066332916E+007, +9.50487219930E+001, +6.42628331651E+002
+2.67316645807E+007, +9.62136088699E+001, +6.46211013135E+002
+2.68566958698E+007, +9.58368946937E+001, +6.47737092585E+002
+2.69817271589E+007, +9.73096372450E+001, +6.54904506014E+002
+2.71067584481E+007, +9.53300514809E+001, +6.58665138981E+002
+2.72317897372E+007, +9.76965295956E+001, +6.64017541363E+002
+2.73568210263E+007, +9.83093371244E+001, +6.66536231282E+002
+2.74818523154E+007, +9.99798573974E+001, +6.70375680015E+002
+2.76068836045E+007, +9.84960648602E+001, +6.75752844061E+002
+2.77319148936E+007, +9.88674181286E+001, +6.80781895481E+002
+2.78569461827E+007, +9.91407099773E+001, +6.84831301518E+002
+2.79819774718E+007, +9.96453017542E+001, +6.88831993468E+002
+2.81070087610E+007, +1.02059496817E+002, +6.91461555780E+002
+2.82320400501E+007, +1.01529190056E+002, +6.95498350021E+002
+2.83570713392E+007, +1.01778363989E+002, +7.03000343479E+002
+2.84821026283E+007, +1.04534573606E+002, +7.05737859402E+002
+2.86071339174E+007, +1.01012704063E+002, +7.08646016208E+002
+2.87321652065E+007, +1.02657353995E+002, +7.16659888173E+002
+2.88571964956E+007, +1.02664227258E+002, +7.17197177079E+002
+2.89822277847E+007, +1.03295741316E+002, +7.22069684499E+002
+2.91072590738E+007, +1.04590149083E+002, +7.27777347242E+002
+2.92322903630E+007, +1.03754455171E+002, +7.35891507324E+002
+2.93573216521E+007, +1.08659060744E+002, +7.36996151975E+002
+2.94823529412E+007, +1.06780039711E+002, +7.42575986579E+002
+2.96073842303E+007, +1.07490560074E+002, +7.46624048796E+002
+2.97324155194E+007, +1.06199116294E+002, +7.47981190760E+002
+2.98574468085E+007, +1.07973637133E+002, +7.56762434417E+002
+2.99824780976E+007, +1.08736436017E+002, +7.58549614672E+002
+3.01075093867E+007, +1.11756607390E+002, +7.65439460120E+002
+3.02325406758E+007, +1.08539268313E+002, +7.69464612299E+002
+3.03575719650E+007, +1.12521432779E+002, +7.74516339680E+002
+3.04826032541E+007, +1.11398430897E+002, +7.79510339306E+002
+3.06076345432E+007, +1.08947521283E+002, +7.85283751618E+002
+3.07326658323E+007, +1.13949865742E+002, +7.88736982108E+002
+3.08576971214E+007, +1.13108258700E+002, +7.97536433832E+002
+3.09827284105E+007, +1.15106837010E+002, +7.96208947157E+002
+3.11077596996E+007, +1.14053520092E+002, +8.05301446978E+002
+3.12327909887E+007, +1.10945121047E+002, +8.10465870964E+002
+3.13578222778E+007, +1.15197148071E+002, +8.15454552413E+002
+3.14828535670E+007, +1.20410954089E+002, +8.16775624803E+002
+3.16078848561E+007, +1.15992107676E+002, +8.21816021570E+002
+3.17329161452E+007, +1.16582681496E+002, +8.28700013555E+002
+3.18579474343E+007, +1.14257648966E+002, +8.34038385627E+002
+3.19829787234E+007, +1.19274679637E+002, +8.37500777555E+002
+3.21080100125E+007, +1.15919710681E+002, +8.45232278648E+002
+3.22330413016E+007, +1.22328529384E+002, +8.50468632444E+002
+3.23580725907E+007, +1.23794316683E+002, +8.51886824594E+002
+3.24831038798E+007, +1.24035511843E+002, +8.56923592942E+002
+3.26081351690E+007, +1.22506721243E+002, +8.68544170960E+002
+3.27331664581E+007, +1.23591683677E+002, +8.68369180956E+002
+3.28581977472E+007, +1.23366916210E+002, +8.72302758941E+002
+3.29832290363E+007, +1.24201004706E+002, +8.82732381298E+002
+3.31082603254E+007, +1.27068099572E+002, +8.82767574878E+002
+3.32332916145E+007, +1.29083152629E+002, +8.90329711004E+002
+3.33583229036E+007, +1.32434901586E+002, +8.98165233995E+002
+3.34833541927E+007, +1.27358199282E+002, +9.01468492817E+002
+3.36083854819E+007, +1.26149224963E+002, +9.07388664890E+002
+3.37334167710E+007, +1.32749380603E+002, +9.12317859755E+002
+3.38584480601E+007, +1.31078358601E+002, +9.21937181668E+002
+3.39834793492E+007, +1.30724553938E+002, +9.24625636449E+002
+3.41085106383E+007, +1.31797581252E+002, +9.29530955927E+002
+3.42335419274E+007, +1.30465652998E+002, +9.34663762081E+002
+3.43585732165E+007, +1.35903703917E+002, +9.46068503460E+002
+3.44836045056E+007, +1.34393867039E+002, +9.46132300062E+002
+3.46086357947E+007, +1.32809151556E+002, +9.54676483486E+002
+3.47336670839E+007, +1.39362145693E+002, +9.59462691286E+002
+3.48586983730E+007, +1.39203875069E+002, +9.67855695824E+002
+3.49837296621E+007, +1.38243453335E+002, +9.73389579875E+002
+3.51087609512E+007, +1.42269285422E+002, +9.75442086825E+002
+3.52337922403E+007, +1.42853914595E+002, +9.87864071134E+002
+3.53588235294E+007, +1.44226348216E+002, +9.90377699020E+002
+3.54838548185E+007, +1.47021598033E+002, +9.98559868497E+002
+3.56088861076E+007, +1.41783778425E+002, +1.00606051535E+003
+3.57339173967E+007, +1.44341692564E+002, +1.01086232364E+003
+3.58589486859E+007, +1.49836894340E+002, +1.01052241620E+003
+3.59839799750E+007, +1.54018673660E+002, +1.01465428100E+003
+3.61090112641E+007, +1.47527198503E+002, +1.02400632524E+003
+3.62340425532E+007, +1.52957297715E+002, +1.02901366155E+003
+3.63590738423E+007, +1.54169818147E+002, +1.03656241948E+003
+3.64841051314E+007, +1.54128593055E+002, +1.04304937982E+003
+3.66091364205E+007, +1.54496613468E+002, +1.04795293877E+003
+3.67341677096E+007, +1.60161525724E+002, +1.05819563825E+003
+3.68591989987E+007, +1.57421228143E+002, +1.06427180929E+003
+3.69842302879E+007, +1.58116753306E+002, +1.07928298848E+003
+3.71092615770E+007, +1.57895694454E+002, +1.07954190536E+003
+3.72342928661E+007, +1.63641319201E+002, +1.08855766502E+003
+3.73593241552E+007, +1.62893449932E+002, +1.09440117385E+003
+3.74843554443E+007, +1.63608523222E+002, +1.09300660085E+003
+3.76093867334E+007, +1.70085483236E+002, +1.11174128941E+003
+3.77344180225E+007, +1.71966323872E+002, +1.10503826860E+003
+3.78594493116E+007, +1.71922335274E+002, +1.12255180590E+003
+3.79844806008E+007, +1.68406453824E+002, +1.12297417276E+003
+3.81095118899E+007, +1.67422670700E+002, +1.13445062547E+003
+3.82345431790E+007, +1.81528019832E+002, +1.14759753954E+003
+3.83595744681E+007, +1.75773994038E+002, +1.14320856630E+003
+3.84846057572E+007, +1.80608740723E+002, +1.15475277855E+003
+3.86096370463E+007, +1.79732681978E+002, +1.17036385493E+003
+3.87346683354E+007, +1.80375485712E+002, +1.17164066987E+003
+3.88596996245E+007, +1.84514399406E+002, +1.18238530742E+003
+3.89847309136E+007, +1.83300174094E+002, +1.19223772647E+003
+3.91097622028E+007, +1.92324048669E+002, +1.19820852132E+003
+3.92347934919E+007, +1.88186164831E+002, +1.20317355546E+003
+3.93598247810E+007, +2.00521321027E+002, +1.21074899847E+003
+3.94848560701E+007, +1.94746241926E+002, +1.21976653043E+003
+3.96098873592E+007, +1.90896165908E+002, +1.22310205519E+003
+3.97349186483E+007, +1.96738886313E+002, +1.23646141757E+003
+3.98599499374E+007, +2.01577200863E+002, +1.23953840573E+003
+3.99849812265E+007, +1.93013073098E+002, +1.25190738800E+003
+4.01100125156E+007, +1.97710198695E+002, +1.26491686285E+003
