"# Channel 1"
"# Trace 1"
Frequency, Formatted Data, Formatted Data
+1.00000000000E+005, +5.03852307654E+001, +1.96763700966E+000
+2.25031289111E+005, +5.02731557557E+001, +4.76469913841E+000
+3.50062578223E+005, +5.02675484891E+001, +7.40972072732E+000
+4.75093867334E+005, +5.03752147975E+001, +1.01167988745E+001
+6.00125156446E+005, +5.04816519965E+001, +1.27657972191E+001
+7.25156445557E+005, +5.04138301780E+001, +1.53734901978E+001
+8.50187734668E+005, +5.04298627432E+001, +1.79357552148E+001
+9.75219023780E+005, +5.05815400321E+001, +2.06406553966E+001
+1.10025031289E+006, +5.06623379374E+001, +2.32485255323E+001
+1.22528160200E+006, +5.06323201768E+001, +2.56840574967E+001
+1.35031289111E+006, +5.07822367530E+001, +2.82883814909E+001
+1.47534418023E+006, +5.07728489620E+001, +3.10177558709E+001
+1.60037546934E+006, +5.07309898023E+001, +3.34160087090E+001
+1.72540675845E+006, +5.08560091667E+001, +3.61464076373E+001
+1.85043804756E+006, +5.06747237534E+001, +3.88526861287E+001
+1.97546933667E+006, +5.08884844979E+001, +4.13722149069E+001
+2.10050062578E+006, +5.08987050697E+001, +4.41213918552E+001
+2.22553191489E+006, +5.09266068759E+001, +4.65571830842E+001
+2.35056320401E+006, +5.09274963179E+001, +4.91065377113E+001
+2.47559449312E+006, +5.08700349884E+001, +5.16906462211E+001
+2.60062578223E+006, +5.12226779980E+001, +5.44995985483E+001
+2.72565707134E+006, +5.11583337998E+001, +5.70294235754E+001
+2.85068836045E+006, +5.12442579262E+001, +5.94598857244E+001
+2.97571964956E+006, +5.13002936537E+001, +6.23250776776E+001
+3.10075093867E+006, +5.12114790238E+001, +6.49219457950E+001
+3.22578222778E+006, +5.13804598171E+001, +6.74747343365E+001
+3.35081351690E+006, +5.12971084437E+001, +7.01184402942E+001
+3.47584480601E+006, +5.12524689761E+001, +7.26177748227E+001
+3.60087609512E+006, +5.13825786010E+001, +7.53878747432E+001
+3.72590738423E+006, +5.21605261966E+001, +7.82097815643E+001
+3.85093867334E+006, +5.15762608955E+001, +8.03286898411E+001
+3.97596996245E+006, +5.14789558640E+001, +8.31661785488E+001
+4.10100125156E+006, +5.15604403864E+001, +8.55266456815E+001
+4.22603254068E+006, +5.15186330830E+001, +8.83056689012E+001
+4.35106382979E+006, +5.19842383654E+001, +9.07570497020E+001
+4.47609511890E+006, +5.18152468170E+001, +9.37598734556E+001
+4.60112640801E+006, +5.19751346162E+001, +9.62843242294E+001
+4.72615769712E+006, +5.22596314207E+001, +9.87466416674E+001
+4.85118898623E+006, +5.23279458364E+001, +1.01496943757E+002
+4.97622027534E+006, +5.22718068436E+001, +1.04121055392E+002
+5.10125156446E+006, +5.24388013835E+001, +1.06539702803E+002
+5.22628285357E+006, +5.26494293167E+001, +1.09490563514E+002
+5.35131414268E+006, +5.25199948227E+001, +1.12053710237E+002
+5.47634543179E+006, +5.26748806039E+001, +1.14667641670E+002
+5.60137672090E+006, +5.29767612539E+001, +1.17239130242E+002
+5.72640801001E+006, +5.28136669870E+001, +1.19712076889E+002
+5.85143929912E+006, +5.30461255066E+001, +1.22720711919E+002
+5.97647058824E+006, +5.29159947647E+001, +1.25160341505E+002
+6.10150187735E+006, +5.32125003657E+001, +1.27964929449E+002
+6.22653316646E+006, +5.32053424914E+001, +1.30672167795E+002
+6.35156445557E+006, +5.31796048834E+001, +1.33063309193E+002
+6.47659574468E+006, +5.33380323995E+001, +1.35881718660E+002
+6.60162703379E+006, +5.33929118742E+001, +1.38411318194E+002
+6.72665832290E+006, +5.37292988831E+001, +1.41210295644E+002
+6.85168961202E+006, +5.35974670110E+001, +1.43858649171E+002
+6.97672090113E+006, +5.37232698097E+001, +1.46401664469E+002
+7.10175219024E+006, +5.41588252831E+001, +1.49231292720E+002
+7.22678347935E+006, +5.40642052667E+001, +1.51647515295E+002
+7.35181476846E+006, +5.42504899789E+001, +1.54442428150E+002
+7.47684605757E+006, +5.42409074240E+001, +1.57047662910E+002
+7.60187734668E+006, +5.41893486502E+001, +1.59782719501E+002
+7.72690863579E+006, +5.45857007758E+001, +1.62439970789E+002
+7.85193992491E+006, +5.46865221346E+001, +1.65146025096E+002
+7.97697121402E+006, +5.47640410861E+001, +1.67722948093E+002
+8.10200250313E+006, +5.48688700027E+001, +1.70582325458E+002
+8.22703379224E+006, +5.49103807606E+001, +1.73341435744E+002
+8.35206508135E+006, +5.50140519788E+001, +1.75758621577E+002
+8.47709637046E+006, +5.53165820204E+001, +1.78791681435E+002
+8.60212765957E+006, +5.54195101390E+001, +1.81566412682E+002
+8.72715894869E+006, +5.54730152138E+001, +1.84025417688E+002
+8.85219023780E+006, +5.56276513996E+001, +1.86736555018E+002
+8.97722152691E+006, +5.59252709990E+001, +1.89660043969E+002
+9.10225281602E+006, +5.57942389587E+001, +1.92159669802E+002
+9.22728410513E+006, +5.60989383332E+001, +1.95111542325E+002
+9.35231539424E+006, +5.59366008699E+001, +1.97798076970E+002
+9.47734668335E+006, +5.61355193451E+001, +2.00477637434E+002
+9.60237797247E+006, +5.61797134032E+001, +2.03204312382E+002
+9.72740926158E+006, +5.61610449171E+001, +2.05465712083E+002
+9.85244055069E+006, +5.62068203729E+001, +2.08658823675E+002
+9.97747183980E+006, +5.62552926410E+001, +2.11414971287E+002
+1.01025031289E+007, +5.66410240301E+001, +2.14355562935E+002
+1.02275344180E+007, +5.66621844027E+001, +2.16590875529E+002
+1.03525657071E+007, +5.67946840694E+001, +2.19943336008E+002
+1.04775969962E+007, +5.69888091920E+001, +2.22454727480E+002
+1.06026282854E+007, +5.70815729834E+001, +2.25290026181E+002
+1.07276595745E+007, +5.70201870314E+001, +2.28082830819E+002
+1.08526908636E+007, +5.75463759820E+001, +2.30785950436E+002
+1.09777221527E+007, +5.73522028965E+001, +2.33657694724E+002
+1.11027534418E+007, +5.75160761657E+001, +2.36510004988E+002
+1.12277847309E+007, +5.82365392528E+001, +2.39108062077E+002
+1.13528160200E+007, +5.77941244549E+001, +2.41929337497E+002
+1.14778473091E+007, +5.80306392519E+001, +2.44580396958E+002
+1.16028785982E+007, +5.83075962467E+001, +2.47767495829E+002
+1.17279098874E+007, +5.82458066468E+001, +2.50461243290E+002
+1.18529411765E+007, +5.86570275488E+001, +2.53211936932E+002
+1.19779724656E+007, +5.86083477163E+001, +2.56299031903E+002
+1.21030037547E+007, +5.89919614269E+001, +2.58514851276E+002
+1.22280350438E+007, +5.86675652197E+001, +2.61582721160E+002
+1.23530663329E+007, +5.92267211878E+001, +2.64968931702E+002
+1.24780976220E+007, +5.91615369368E+001, +2.67372858508E+002
+1.26031289111E+007, +5.96500962041E+001, +2.70550360075E+002
+1.27281602003E+007, +5.91310640689E+001, +2.72957612065E+002
+1.28531914894E+007, +5.94367163736E+001, +2.75705279513E+002
+1.29782227785E+007, +5.98225310238E+001, +2.79023332092E+002
+1.31032540676E+007, +6.01684744972E+001, +2.81706349041E+002
+1.32282853567E+007, +6.03344559473E+001, +2.84539623274E+002
+1.33533166458E+007, +6.04869849776E+001, +2.87863897298E+002
+1.34783479349E+007, +6.07974985388E+001, +2.90384285978E+002
+1.36033792240E+007, +6.05474261199E+001, +2.93635122403E+002
+1.37284105131E+007, +6.10544213200E+001, +2.96112406631E+002
+1.38534418023E+007, +6.13679831339E+001, +2.99000035601E+002
+1.39784730914E+007, +6.08867373797E+001, +3.01951650395E+002
+1.41035043805E+007, +6.06646759563E+001, +3.05009662470E+002
+1.42285356696E+007, +6.14880006754E+001, +3.07544225878E+002
+1.43535669587E+007, +6.13916597268E+001, +3.10795747030E+002
+1.44785982478E+007, +6.16148175237E+001, +3.14250727888E+002
+1.46036295369E+007, +6.15270626918E+001, +3.16878679383E+002
+1.47286608260E+007, +6.21737694219E+001, +3.19977723095E+002
+1.48536921151E+007, +6.25777779087E+001, +3.22519760087E+002
+1.49787234043E+007, +6.25618032778E+001, +3.25445225055E+002
+1.51037546934E+007, +6.36782026377E+001, +3.28655904122E+002
+1.52287859825E+007, +6.31094898678E+001, +3.31168915452E+002
+1.53538172716E+007, +6.36934901402E+001, +3.34408011918E+002
+1.54788485607E+007, +6.33679118261E+001, +3.37499836286E+002
+1.56038798498E+007, +6.45449579522E+001, +3.40991489429E+002
+1.57289111389E+007, +6.33060178885E+001, +3.43046515989E+002
+1.58539424280E+007, +6.38607966764E+001, +3.46859157312E+002
+1.59789737171E+007, +6.47863264507E+001, +3.50042636927E+002
+1.61040050063E+007, +6.51297751753E+001, +3.52964397068E+002
+1.62290362954E+007, +6.45488606462E+001, +3.55981411141E+002
+1.63540675845E+007, +6.49564625137E+001, +3.58791227112E+002
+1.64790988736E+007, +6.50645892023E+001, +3.61976579518E+002
+1.66041301627E+007, +6.53072678346E+001, +3.65455188286E+002
+1.67291614518E+007, +6.50497174055E+001, +3.67951062895E+002
+1.68541927409E+007, +6.51708933011E+001, +3.71228012409E+002
+1.69792240300E+007, +6.56492471321E+001, +3.73918323163E+002
+1.71042553191E+007, +6.54307571578E+001, +3.78267887018E+002
+1.72292866083E+007, +6.56413206356E+001, +3.80996234869E+002
+1.73543178974E+007, +6.59341567593E+001, +3.83900250057E+002
+1.74793491865E+007, +6.65047001043E+001, +3.86843323292E+002
+1.76043804756E+007, +6.57101973498E+001, +3.90342325212E+002
+1.77294117647E+007, +6.77272269563E+001, +3.93031628441E+002
+1.78544430538E+007, +6.74847824258E+001, +3.96064509688E+002
+1.79794743429E+007, +6.77067675734E+001, +3.99617084511E+002
+1.81045056320E+007, +6.74759047446E+001, +4.01954676956E+002
+1.82295369212E+007, +6.86388376384E+001, +4.05949343784E+002
+1.83545682103E+007, +6.80304515294E+001, +4.09261109872E+002
+1.84795994994E+007, +6.86304788527E+001, +4.12422407983E+002
+1.86046307885E+007, +6.95433330947E+001, +4.16154114458E+002
+1.87296620776E+007, +6.89692732985E+001, +4.19214800198E+002
+1.88546933667E+007, +6.90713093387E+001, +4.21160676730E+002
+1.89797246558E+007, +6.97612587499E+001, +4.25285431091E+002
+1.91047559449E+007, +7.07433764659E+001, +4.28999957874E+002
+1.92297872340E+007, +7.00545909152E+001, +4.32813097096E+002
+1.93548185232E+007, +6.99002030722E+001, +4.35441656093E+002
+1.94798498123E+007, +7.02531534897E+001, +4.38009067910E+002
+1.96048811014E+007, +7.17226821358E+001, +4.41241986814E+002
+1.97299123905E+007, +7.13310342648E+001, +4.46083052738E+002
+1.98549436796E+007, +7.00463099651E+001, +4.47982369820E+002
+1.99799749687E+007, +7.27341854080E+001, +4.52243699773E+002
+2.01050062578E+007, +7.21422969329E+001, +4.55609239930E+002
+2.02300375469E+007, +7.28520685859E+001, +4.59404748268E+002
+2.03550688360E+007, +7.26395562927E+001, +4.61386106511E+002
+2.04801001252E+007, +7.35064400909E+001, +4.66349498170E+002
+2.06051314143E+007, +7.37621481539E+001, +4.67878935327E+002
+2.07301627034E+007, +7.38154360170E+001, +4.71066734258E+002
+2.08551939925E+007, +7.37204378748E+001, +4.74522400374E+002
+2.09802252816E+007, +7.36130548569E+001, +4.79380394983E+002
+2.11052565707E+007, +7.56983585836E+001, +4.82131503072E+002
+2.12302878598E+007, +7.52808007153E+001, +4.85761662960E+002
+2.13553191489E+007, +7.49918213166E+001, +4.88938735674E+002
+2.14803504380E+007, +7.56172092770E+001, +4.91749183841E+002
+2.16053817272E+007, +7.55363008996E+001, +4.96739510889E+002
+2.17304130163E+007, +7.65883501900E+001, +4.98388691824E+002
+2.18554443054E+007, +7.77684684974E+001, +5.04489673006E+002
+2.19804755945E+007, +7.75180022445E+001, +5.07341325053E+002
+2.21055068836E+007, +7.80515576332E+001, +5.07881457979E+002
+2.22305381727E+007, +7.92290870311E+001, +5.13748234402E+002
+2.23555694618E+007, +7.79239267242E+001, +5.17752495144E+002
+2.24806007509E+007, +7.91695141756E+001, +5.21209334019E+002
+2.26056320401E+007, +7.93879079205E+001, +5.24519148823E+002
+2.27306633292E+007, +8.02097371201E+001, +5.26894564290E+002
+2.28556946183E+007, +8.12011025859E+001, +5.30895989465E+002
+2.29807259074E+007, +8.02859380494E+001, +5.35495906949E+002
+2.31057571965E+007, +8.19655187049E+001, +5.38999309424E+002
+2.32307884856E+007, +8.02102332020E+001, +5.42811953247E+002
+2.33558197747E+007, +8.11500333955E+001, +5.47510106672E+002
+2.34808510638E+007, +8.39641374275E+001, +5.48723026379E+002
+2.36058823529E+007, +8.26892534129E+001, +5.53820271309E+002
+2.37309136421E+007, +8.24759434356E+001, +5.55965065803E+002
+2.38559449312E+007, +8.43702389800E+001, +5.59519511173E+002
+2.39809762203E+007, +8.65018245425E+001, +5.62991125067E+002
+2.41060075094E+007, +8.58348555584E+001, +5.68967080069E+002
+2.42310387985E+007, +8.61021325341E+001, +5.70612892108E+002
+2.43560700876E+007, +8.72793031331E+001, +5.75236986213E+002
+2.44811013767E+007, +8.75167076313E+001, +5.79572222833E+002
+2.46061326658E+007, +8.85161460447E+001, +5.82957279486E+002
+2.47311639549E+007, +9.01787541029E+001, +5.87016672031E+002
+2.48561952441E+007, +8.82276493051E+001, +5.88084371262E+002
+2.49812265332E+007, +9.01809480435E+001, +5.94214521689E+002
+2.51062578223E+007, +8.80347175053E+001, +5.97172986650E+002
+2.52312891114E+007, +9.16093469283E+001, +6.04351989878E+002
+2.53563204005E+007, +9.18791550434E+001, +6.02827489662E+002
+2.54813516896E+007, +9.21903225821E+001, +6.07751356902E+002
+2.56063829787E+007, +9.14801512901E+001, +6.10125158573E+002
+2.57314142678E+007, +9.09805147573E+001, +6.17640191324E+002
+2.58564455569E+007, +9.27995419401E+001, +6.19189973398E+002
+2.59814768461E+007, +9.34830974498E+001, +6.24641390633E+002
+2.61065081352E+007, +9.36768181063E+001, +6.29370814680E+002
+2.62315394243E+007, +9.30210025291E+001, +6.31471851510E+002
+2.63565707134E+007, +9.23531458735E+001, +6.35919323615E+002
+2.64816020025E+007, +9.36431574245E+001, +6.39020113213E+002
+2.66066332916E+007, +9.52285001997E+001, +6.43031478235E+002
+2.67316645807E+007, +9.63820830249E+001, +6.46873378357E+002
+2.68566958698E+007, +9.68355292239E+001, +6.52033447270E+002
+2.69817271589E+007, +9.62305553927E+001, +6.55866601456E+002
+2.71067584481E+007, +9.60339082887E+001, +6.60667740524E+002
+2.72317897372E+007, +9.59022237845E+001, +6.62457042973E+002
+2.73568210263E+007, +9.97302013372E+001, +6.67287970564E+002
+2.74818523154E+007, +9.87776952623E+001, +6.69578508375E+002
+2.76068836045E+007, +9.89944357907E+001, +6.76961946910E+002
+2.77319148936E+007, +9.75795403355E+001, +6.80606231628E+002
+2.78569461827E+007, +9.97662756906E+001, +6.85573452599E+002
+2.79819774718E+007, +1.00430498356E+002, +6.89276820173E+002
+2.81070087610E+007, +1.00748110335E+002, +6.92410371808E+002
+2.82320400501E+007, +1.02152800279E+002, +6.96483987533E+002
+2.83570713392E+007, +1.01638141162E+002, +7.02833996966E+002
+2.84821026283E+007, +1.04978126451E+002, +7.05277607883E+002
+2.86071339174E+007, +1.02116826161E+002, +7.09426842330E+002
+2.87321652065E+007, +1.04034496268E+002, +7.17164822577E+002
+2.88571964956E+007, +1.03521906150E+002, +7.20033119966E+002
+2.89822277847E+007, +1.05963184953E+002, +7.25607943580E+002
+2.91072590738E+007, +1.04796109478E+002, +7.31177099425E+002
+2.92322903630E+007, +1.04629837893E+002, +7.36557011545E+002
+2.93573216521E+007, +1.06566498152E+002, +7.36518035590E+002
+2.94823529412E+007, +1.05403637639E+002, +7.43471573589E+002
+2.96073842303E+007, +1.09445867304E+002, +7.48109991030E+002
+2.97324155194E+007, +1.07244880162E+002, +7.50371759997E+002
+2.98574468085E+007, +1.07353495819E+002, +7.55995598515E+002
+2.99824780976E+007, +1.09775528719E+002, +7.60139182904E+002
+3.01075093867E+007, +1.11975455229E+002, +7.68137663764E+002
+3.02325406758E+007, +1.10493032240E+002, +7.72663940068E+002
+3.03575719650E+007, +1.10903247464E+002, +7.76235501771E+002
+3.04826032541E+007, +1.11801559918E+002, +7.78198502167E+002
+3.06076345432E+007, +1.12252947861E+002, +7.85899623661E+002
+3.07326658323E+007, +1.12787539193E+002, +7.89803877468E+002
+3.08576971214E+007, +1.12427692305E+002, +7.99136124256E+002
+3.09827284105E+007, +1.15577410526E+002, +7.98099861936E+002
+3.11077596996E+007, +1.14578786979E+002, +8.05732125259E+002
+3.12327909887E+007, +1.13535198808E+002, +8.08795207347E+002
+3.13578222778E+007, +1.18090875834E+002, +8.14380388729E+002
+3.14828535670E+007, +1.18026205181E+002, +8.17572844000E+002
+3.16078848561E+007, +1.18292453743E+002, +8.26532691326E+002
+3.17329161452E+007, +1.20431148218E+002, +8.29212961117E+002
+3.18579474343E+007, +1.16554601373E+002, +8.33602672867E+002
+3.19829787234E+007, +1.17592432247E+002, +8.39661542568E+002
+3.21080100125E+007, +1.16875375775E+002, +8.49468183081E+002
+3.22330413016E+007, +1.22479085240E+002, +8.48829516716E+002
+3.23580725907E+007, +1.21398733642E+002, +8.58746644987E+002
+3.24831038798E+007, +1.20393023399E+002, +8.59395553805E+002
+3.26081351690E+007, +1.21298260337E+002, +8.68105683741E+002
+3.27331664581E+007, +1.21758568967E+002, +8.72526411573E+002
+3.28581977472E+007, +1.24386563875E+002, +8.74113151755E+002
+3.29832290363E+007, +1.25962870713E+002, +8.85794418577E+002
+3.31082603254E+007, +1.30057359889E+002, +8.84250527986E+002
+3.32332916145E+007, +1.26357969836E+002, +8.95271769390E+002
+3.33583229036E+007, +1.29893128016E+002, +8.99618875642E+002
+3.34833541927E+007, +1.29581842700E+002, +9.05353101241E+002
+3.36083854819E+007, +1.28353143998E+002, +9.12486172036E+002
+3.37334167710E+007, +1.31450784130E+002, +9.16199100771E+002
+3.38584480601E+007, +1.34326665805E+002, +9.25516926627E+002
+3.39834793492E+007, +1.32813144683E+002, +9.26306348348E+002
+3.41085106383E+007, +1.29330688103E+002, +9.30756449868E+002
+3.42335419274E+007, +1.34316131845E+002, +9.39734450971E+002
+3.43585732165E+007, +1.33167068065E+002, +9.47555863400E+002
+3.44836045056E+007, +1.33437822761E+002, +9.53476838680E+002
+3.46086357947E+007, +1.39852417458E+002, +9.54488544217E+002
+3.47336670839E+007, +1.42887143478E+002, +9.62643748867E+002
+3.48586983730E+007, +1.38607704322E+002, +9.71437539668E+002
+3.49837296621E+007, +1.37924198559E+002, +9.78959725109E+002
+3.51087609512E+007, +1.45633882206E+002, +9.77542682956E+002
+3.52337922403E+007, +1.39576095425E+002, +9.89433204269E+002
+3.53588235294E+007, +1.45709632598E+002, +9.89339895606E+002
+3.54838548185E+007, +1.44203158969E+002, +9.97845080372E+002
+3.56088861076E+007, +1.47002469931E+002, +1.00889083408E+003
+3.57339173967E+007, +1.43981058545E+002, +1.00663161167E+003
+3.58589486859E+007, +1.49148283264E+002, +1.01627151232E+003
+3.59839799750E+007, +1.54218843398E+002, +1.01933372176E+003
+3.61090112641E+007, +1.50856353494E+002, +1.02797429045E+003
+3.62340425532E+007, +1.49645833561E+002, +1.03561404180E+003
+3.63590738423E+007, +1.54733765691E+002, +1.03988783981E+003
+3.64841051314E+007, +1.51925717518E+002, +1.04833994222E+003
+3.66091364205E+007, +1.56837906995E+002, +1.05052414455E+003
+3.67341677096E+007, +1.61993242865E+002, +1.06367663721E+003
+3.68591989987E+007, +1.54862471651E+002, +1.06721826583E+003
+3.69842302879E+007, +1.59402433031E+002, +1.07933497457E+003
+3.71092615770E+007, +1.65783113757E+002, +1.08336920743E+003
+3.72342928661E+007, +1.65313941319E+002, +1.08361258574E+003
+3.73593241552E+007, +1.61806309260E+002, +1.09869516208E+003
+3.74843554443E+007, +1.63769342038E+002, +1.10060708679E+003
+3.76093867334E+007, +1.69507142735E+002, +1.11224014383E+003
+3.77344180225E+007, +1.72428234532E+002, +1.11769629120E+003
+3.78594493116E+007, +1.74189092488E+002, +1.12573177538E+003
+3.79844806008E+007, +1.71816888881E+002, +1.12760110898E+003
+3.81095118899E+007, +1.65676812513E+002, +1.13695498311E+003
+3.82345431790E+007, +1.76918032497E+002, +1.15015372935E+003
+3.83595744681E+007, +1.76247240582E+002, +1.14925479631E+003
+3.84846057572E+007, +1.72349018781E+002, +1.14992435190E+003
+3.86096370463E+007, +1.84889079981E+002, +1.17342780961E+003
+3.87346683354E+007, +1.86025434405E+002, +1.17935390573E+003
+3.88596996245E+007, +1.90642336177E+002, +1.18063603696E+003
+3.89847309136E+007, +1.90434209081E+002, +1.19190359552E+003
+3.91097622028E+007, +1.94234263055E+002, +1.19450668185E+003
+3.92347934919E+007, +1.87567990679E+002, +1.21187143870E+003
+3.93598247810E+007, +1.92739425712E+002, +1.21366786267E+003
+3.94848560701E+007, +1.93124296199E+002, +1.22279494897E+003
+3.96098873592E+007, +1.94862874335E+002, +1.22192683269E+003
+3.97349186483E+007, +2.00031898675E+002, +1.23474166691E+003
+3.98599499374E+007, +2.02391538039E+002, +1.24447309935E+003
+3.99849812265E+007, +2.00626019230E+002, +1.25585644655E+003
+4.01100125156E+007, +2.01952726645E+002, +1.26468628815E+003
