"# Channel 1"
"# Trace 1"
Frequency, Formatted Data, Formatted Data
+1.00000000000E+005, +7.81436785630E-001, +1.99919363773E+000
+2.25031289111E+005, +7.96202306392E-001, +4.42674738981E+000
+3.50062578223E+005, +8.30690820503E-001, +6.86971333092E+000
+4.75093867334E+005, +8.68837753842E-001, +9.29689966631E+000
+6.00125156446E+005, +8.99606420265E-001, +1.17074632936E+001
+7.25156445557E+005, +9.41525665543E-001, +1.41310800613E+001
+8.50187734668E+005, +9.85286265177E-001, +1.65355170035E+001
+9.75219023780E+005, +1.02444600497E+000, +1.89441622401E+001
+1.10025031289E+006, +1.07869932056E+000, +2.13498791971E+001
+1.22528160200E+006, +1.10293829664E+000, +2.37499480694E+001
+1.35031289111E+006, +1.15033534445E+000, +2.61406478015E+001
+1.47534418023E+006, +1.18477337174E+000, +2.85393912771E+001
+1.60037546934E+006, +1.20779732312E+000, +3.09231703205E+001
+1.72540675845E+006, +1.26245515548E+000, +3.33149815153E+001
+1.85043804756E+006, +1.28143852022E+000, +3.56822355607E+001
+1.97546933667E+006, +1.32985344977E+000, +3.80656290848E+001
+2.10050062578E+006, +1.36948027790E+000, +4.04604535743E+001
+2.22553191489E+006, +1.39689785784E+000, +4.28219802683E+001
+2.35056320401E+006, +1.42358121978E+000, +4.52350023897E+001
+2.47559449312E+006, +1.43040526848E+000, +4.75709311011E+001
+2.60062578223E+006, +1.46431233232E+000, +4.99585326589E+001
+2.72565707134E+006, +1.49984155939E+000, +5.23306138492E+001
+2.85068836045E+006, +1.56297476148E+000, +5.47285436501E+001
+2.97571964956E+006, +1.56629883037E+000, +5.71397226828E+001
+3.10075093867E+006, +1.59111791824E+000, +5.94615948464E+001
+3.22578222778E+006, +1.62926726011E+000, +6.18857829814E+001
+3.35081351690E+006, +1.64343987610E+000, +6.42826943298E+001
+3.47584480601E+006, +1.63809664630E+000, +6.65915288637E+001
+3.60087609512E+006, +1.67160307157E+000, +6.90404377867E+001
+3.72590738423E+006, +1.66818808788E+000, +7.13603519672E+001
+3.85093867334E+006, +1.54223950213E+000, +7.38626388691E+001
+3.97596996245E+006, +1.44591423653E+000, +7.63484687515E+001
+4.10100125156E+006, +3.37810062950E+000, +7.84447538277E+001
+4.22603254068E+006, +1.79484094969E+000, +8.07008166671E+001
+4.35106382979E+006, +1.83488529322E+000, +8.31863587814E+001
+4.47609511890E+006, +1.76990833367E+000, +8.56447247349E+001
+4.60112640801E+006, +1.80912302028E+000, +8.81039793585E+001
+4.72615769712E+006, +1.84420176624E+000, +9.05534625814E+001
+4.85118898623E+006, +1.83123668414E+000, +9.28473837824E+001
+4.97622027534E+006, +1.85385651870E+000, +9.51969535982E+001
+5.10125156446E+006, +1.89127399427E+000, +9.76952863970E+001
+5.22628285357E+006, +1.92277192952E+000, +1.00139080746E+002
+5.35131414268E+006, +1.90660612204E+000, +1.02500137016E+002
+5.47634543179E+006, +1.90555105491E+000, +1.04899779557E+002
+5.60137672090E+006, +1.84652607547E+000, +1.07328321915E+002
+5.72640801001E+006, +1.86113510907E+000, +1.09712605819E+002
+5.85143929912E+006, +1.82917148628E+000, +1.12147040891E+002
+5.97647058824E+006, +1.97801017929E+000, +1.14521080478E+002
+6.10150187735E+006, +1.96200065585E+000, +1.16946132161E+002
+6.22653316646E+006, +1.90883760502E+000, +1.19344472155E+002
+6.35156445557E+006, +1.94865315144E+000, +1.21833275295E+002
+6.47659574468E+006, +1.98968221156E+000, +1.24209958344E+002
+6.60162703379E+006, +1.97227161404E+000, +1.26702842607E+002
+6.72665832290E+006, +2.03638478951E+000, +1.29233952046E+002
+6.85168961202E+006, +2.14752162158E+000, +1.31637302206E+002
+6.97672090113E+006, +2.04419353309E+000, +1.33947800489E+002
+7.10175219024E+006, +2.10169619452E+000, +1.36481800720E+002
+7.22678347935E+006, +2.14532991574E+000, +1.38984323678E+002
+7.35181476846E+006, +2.19365549292E+000, +1.41379227475E+002
+7.47684605757E+006, +2.16817064464E+000, +1.43786227366E+002
+7.60187734668E+006, +2.27132938100E+000, +1.46223417182E+002
+7.72690863579E+006, +2.30357772221E+000, +1.48611569313E+002
+7.85193992491E+006, +2.32762204768E+000, +1.51099013986E+002
+7.97697121402E+006, +2.26303412535E+000, +1.53591170038E+002
+8.10200250313E+006, +2.39313002123E+000, +1.56073816029E+002
+8.22703379224E+006, +2.42755014771E+000, +1.58368424877E+002
+8.35206508135E+006, +2.43825998327E+000, +1.60849918368E+002
+8.47709637046E+006, +2.31598363763E+000, +1.63422699515E+002
+8.60212765957E+006, +2.39731495636E+000, +1.65728962302E+002
+8.72715894869E+006, +2.63041959612E+000, +1.68151196008E+002
+8.85219023780E+006, +2.62201566141E+000, +1.70534297749E+002
+8.97722152691E+006, +2.88292649396E+000, +1.72960829442E+002
+9.10225281602E+006, +2.55554742115E+000, +1.75544186630E+002
+9.22728410513E+006, +2.61930108814E+000, +1.78090079348E+002
+9.35231539424E+006, +2.50288685574E+000, +1.80589241154E+002
+9.47734668335E+006, +2.54654561756E+000, +1.82832898497E+002
+9.60237797247E+006, +2.88219262104E+000, +1.84931220927E+002
+9.72740926158E+006, +2.94581057082E+000, +1.87123881026E+002
+9.85244055069E+006, +3.03663524146E+000, +1.89254928259E+002
+9.97747183980E+006, +3.10074708883E+000, +1.91621461428E+002
+1.01025031289E+007, +3.20019793332E+000, +1.93862412779E+002
+1.02275344180E+007, +3.07215265440E+000, +1.96349248536E+002
+1.03525657071E+007, +3.31734849043E+000, +1.98804386725E+002
+1.04775969962E+007, +3.16849410012E+000, +2.01041312001E+002
+1.06026282854E+007, +3.11984655471E+000, +2.03734571613E+002
+1.07276595745E+007, +3.06354354725E+000, +2.06102706749E+002
+1.08526908636E+007, +3.01105985684E+000, +2.09131351703E+002
+1.09777221527E+007, +3.00644234194E+000, +2.11496899300E+002
+1.11027534418E+007, +2.83089848761E+000, +2.14342306950E+002
+1.12277847309E+007, +2.69835889109E+000, +2.17289603215E+002
+1.13528160200E+007, +2.71629095921E+000, +2.20112503883E+002
+1.14778473091E+007, +2.42062765848E+000, +2.23281711934E+002
+1.16028785982E+007, +2.24969319217E+000, +2.25674661512E+002
+1.17279098874E+007, +2.37110428285E+000, +2.28201677883E+002
+1.18529411765E+007, +2.28515063020E+000, +2.30568831121E+002
+1.19779724656E+007, +2.51421686751E+000, +2.32950897622E+002
+1.21030037547E+007, +2.34595438836E+000, +2.35756156499E+002
+1.22280350438E+007, +2.39181871634E+000, +2.38495273389E+002
+1.23530663329E+007, +2.54016564014E+000, +2.40900586562E+002
+1.24780976220E+007, +2.46774532382E+000, +2.43725519447E+002
+1.26031289111E+007, +2.33554279931E+000, +2.46294281628E+002
+1.27281602003E+007, +2.27411863190E+000, +2.48645411061E+002
+1.28531914894E+007, +2.71184428767E+000, +2.51288249897E+002
+1.29782227785E+007, +2.47382440925E+000, +2.53720826771E+002
+1.31032540676E+007, +2.25865654036E+000, +2.56355207540E+002
+1.32282853567E+007, +2.22303698731E+000, +2.59055528545E+002
+1.33533166458E+007, +2.35348024434E+000, +2.61821953256E+002
+1.34783479349E+007, +2.13082360961E+000, +2.64075989650E+002
+1.36033792240E+007, +2.54432556907E+000, +2.66895088394E+002
+1.37284105131E+007, +2.44049703276E+000, +2.69513053744E+002
+1.38534418023E+007, +2.36551232346E+000, +2.72210910685E+002
+1.39784730914E+007, +2.46494229371E+000, +2.75256751679E+002
+1.41035043805E+007, +2.46248207255E+000, +2.77664246469E+002
+1.42285356696E+007, +2.24269265043E+000, +2.80353800322E+002
+1.43535669587E+007, +2.13753659107E+000, +2.82891015311E+002
+1.44785982478E+007, +2.09541262288E+000, +2.85558778280E+002
+1.46036295369E+007, +1.94156946172E+000, +2.88231561993E+002
+1.47286608260E+007, +1.94992244211E+000, +2.90854955343E+002
+1.48536921151E+007, +2.17283360079E+000, +2.93475012942E+002
+1.49787234043E+007, +1.87800915221E+000, +2.96279130860E+002
+1.51037546934E+007, +2.08879412303E+000, +2.99299424536E+002
+1.52287859825E+007, +1.93884026233E+000, +3.01889602889E+002
+1.53538172716E+007, +2.22534793986E+000, +3.04289309349E+002
+1.54788485607E+007, +2.36422179062E+000, +3.07404960565E+002
+1.56038798498E+007, +2.50846483364E+000, +3.10051373346E+002
+1.57289111389E+007, +2.27870433969E+000, +3.13090437542E+002
+1.58539424280E+007, +2.17068051481E+000, +3.15875862087E+002
+1.59789737171E+007, +2.28522636331E+000, +3.18342242317E+002
+1.61040050063E+007, +2.35730526804E+000, +3.21046076000E+002
+1.62290362954E+007, +2.31428781498E+000, +3.24044635390E+002
+1.63540675845E+007, +1.85275366928E+000, +3.26666056605E+002
+1.64790988736E+007, +2.11176840690E+000, +3.29744223142E+002
+1.66041301627E+007, +2.48339168372E+000, +3.32385885636E+002
+1.67291614518E+007, +2.57409990168E+000, +3.35798152669E+002
+1.68541927409E+007, +1.85653543864E+000, +3.38087436459E+002
+1.69792240300E+007, +2.34037749542E+000, +3.40619944851E+002
+1.71042553191E+007, +1.67443112893E+000, +3.43632756002E+002
+1.72292866083E+007, +2.19129040226E+000, +3.46459969200E+002
+1.73543178974E+007, +2.22926274119E+000, +3.49237146815E+002
+1.74793491865E+007, +1.89569527353E+000, +3.52139574963E+002
+1.76043804756E+007, +2.15964504378E+000, +3.55225719868E+002
+1.77294117647E+007, +2.04792735306E+000, +3.57797703174E+002
+1.78544430538E+007, +1.96693409154E+000, +3.60844181299E+002
+1.79794743429E+007, +2.01879077800E+000, +3.63587767210E+002
+1.81045056320E+007, +1.82676482197E+000, +3.66475365745E+002
+1.82295369212E+007, +2.12190210236E+000, +3.69494373430E+002
+1.83545682103E+007, +2.24094626325E+000, +3.72643493504E+002
+1.84795994994E+007, +2.18921369160E+000, +3.75489700494E+002
+1.86046307885E+007, +2.23075492891E+000, +3.78140312152E+002
+1.87296620776E+007, +2.20082679650E+000, +3.82022182908E+002
+1.88546933667E+007, +2.22526390170E+000, +3.84765600092E+002
+1.89797246558E+007, +2.47758226932E+000, +3.87473718286E+002
+1.91047559449E+007, +2.30473230784E+000, +3.90947875449E+002
+1.92297872340E+007, +2.18226069655E+000, +3.93902741637E+002
+1.93548185232E+007, +2.36368724388E+000, +3.96488423043E+002
+1.94798498123E+007, +2.30971632151E+000, +3.99730956203E+002
+1.96048811014E+007, +1.96129367328E+000, +4.02311023826E+002
+1.97299123905E+007, +1.75760163367E+000, +4.05633393166E+002
+1.98549436796E+007, +2.41051962869E+000, +4.08904047456E+002
+1.99799749687E+007, +2.01919486435E+000, +4.11941135889E+002
+2.01050062578E+007, +2.24386591856E+000, +4.15313370256E+002
+2.02300375469E+007, +2.79802289957E+000, +4.18106725750E+002
+2.03550688360E+007, +2.99859785644E+000, +4.21046758218E+002
+2.04801001252E+007, +1.97121967443E+000, +4.23574748029E+002
+2.06051314143E+007, +3.07233673138E+000, +4.27201557610E+002
+2.07301627034E+007, +1.88047603504E+000, +4.30672189881E+002
+2.08551939925E+007, +1.83724342503E+000, +4.33215042603E+002
+2.09802252816E+007, +2.73004697365E+000, +4.36436507770E+002
+2.11052565707E+007, +2.12767903473E+000, +4.40082818420E+002
+2.12302878598E+007, +3.06074792164E+000, +4.43252712069E+002
+2.13553191489E+007, +2.58757729054E+000, +4.46413554233E+002
+2.14803504380E+007, +2.54549732852E+000, +4.50083232465E+002
+2.16053817272E+007, +2.65760908476E+000, +4.52236893395E+002
+2.17304130163E+007, +2.54731563113E+000, +4.56147868868E+002
+2.18554443054E+007, +3.42782173736E+000, +4.59846832787E+002
+2.19804755945E+007, +2.29975160327E+000, +4.62830039899E+002
+2.21055068836E+007, +2.99825400962E+000, +4.65539311836E+002
+2.22305381727E+007, +3.61177053151E+000, +4.68927399166E+002
+2.23555694618E+007, +2.54810969509E+000, +4.72483322258E+002
+2.24806007509E+007, +2.56677071073E+000, +4.75945302108E+002
+2.26056320401E+007, +3.44437441944E+000, +4.79021481613E+002
+2.27306633292E+007, +3.73782271509E+000, +4.83428262124E+002
+2.28556946183E+007, +3.39659813527E+000, +4.86696518717E+002
+2.29807259074E+007, +3.23107465123E+000, +4.89100703622E+002
+2.31057571965E+007, +3.45803426557E+000, +4.93853127203E+002
+2.32307884856E+007, +3.81803228162E+000, +4.96389310907E+002
+2.33558197747E+007, +3.66150669958E+000, +4.99591135838E+002
+2.34808510638E+007, +4.33480323950E+000, +5.03602681090E+002
+2.36058823529E+007, +4.45585517339E+000, +5.07236635579E+002
+2.37309136421E+007, +4.45964549593E+000, +5.10079800060E+002
+2.38559449312E+007, +4.46057183997E+000, +5.12897862809E+002
+2.39809762203E+007, +4.61483691870E+000, +5.15206139131E+002
+2.41060075094E+007, +4.53302299318E+000, +5.18725565672E+002
+2.42310387985E+007, +5.12504021072E+000, +5.22580316733E+002
+2.43560700876E+007, +5.18723308078E+000, +5.26905810443E+002
+2.44811013767E+007, +5.19315429607E+000, +5.30273124117E+002
+2.46061326658E+007, +4.58206183799E+000, +5.35010115284E+002
+2.47311639549E+007, +4.30965140052E+000, +5.35266311271E+002
+2.48561952441E+007, +4.92953169802E+000, +5.40462971186E+002
+2.49812265332E+007, +3.47840656270E+000, +5.42172750912E+002
+2.51062578223E+007, +3.86570549181E+000, +5.47157642469E+002
+2.52312891114E+007, +4.06242053796E+000, +5.51623245608E+002
+2.53563204005E+007, +4.88590326298E+000, +5.53781670329E+002
+2.54813516896E+007, +4.51180766653E+000, +5.57565152154E+002
+2.56063829787E+007, +3.60899646688E+000, +5.61199512832E+002
+2.57314142678E+007, +4.60445157220E+000, +5.65192771050E+002
+2.58564455569E+007, +3.89025635259E+000, +5.68078089001E+002
+2.59814768461E+007, +4.27094504307E+000, +5.72174666229E+002
+2.61065081352E+007, +3.99495688095E+000, +5.76135302762E+002
+2.62315394243E+007, +3.45475062030E+000, +5.79057943464E+002
+2.63565707134E+007, +4.98125004749E+000, +5.83679590974E+002
+2.64816020025E+007, +2.93322206584E+000, +5.87052302266E+002
+2.66066332916E+007, +2.66226878984E+000, +5.91902830701E+002
+2.67316645807E+007, +3.16531086176E+000, +5.95701919316E+002
+2.68566958698E+007, +4.02989911363E+000, +5.99553762998E+002
+2.69817271589E+007, +2.59687812889E+000, +6.02425920359E+002
+2.71067584481E+007, +4.29266067816E+000, +6.06032005296E+002
+2.72317897372E+007, +3.25987747304E+000, +6.10798331733E+002
+2.73568210263E+007, +3.63908777315E+000, +6.15320600428E+002
+2.74818523154E+007, +5.10539310873E+000, +6.19058779837E+002
+2.76068836045E+007, +4.65341211562E+000, +6.22571382480E+002
+2.77319148936E+007, +4.07030844279E+000, +6.26487075481E+002
+2.78569461827E+007, +3.94004627836E+000, +6.30599272059E+002
+2.79819774718E+007, +4.69949640540E+000, +6.34697333267E+002
+2.81070087610E+007, +4.55645458687E+000, +6.40232550776E+002
+2.82320400501E+007, +3.50073433265E+000, +6.43016532930E+002
+2.83570713392E+007, +4.84193303029E+000, +6.47349425572E+002
+2.84821026283E+007, +5.85452258364E+000, +6.50674363332E+002
+2.86071339174E+007, +3.84821771168E+000, +6.54952111163E+002
+2.87321652065E+007, +3.55618311479E+000, +6.60645845474E+002
+2.88571964956E+007, +4.77157473266E+000, +6.64093502536E+002
+2.89822277847E+007, +4.73341063706E+000, +6.69045870978E+002
+2.91072590738E+007, +3.38134220650E+000, +6.72806758550E+002
+2.92322903630E+007, +4.34067669208E+000, +6.76378959840E+002
+2.93573216521E+007, +4.84709300967E+000, +6.80684399144E+002
+2.94823529412E+007, +4.15160218514E+000, +6.86532048440E+002
+2.96073842303E+007, +3.29574489621E+000, +6.90196424867E+002
+2.97324155194E+007, +4.58345105217E+000, +6.94377488294E+002
+2.98574468085E+007, +3.09333702486E+000, +7.01530859823E+002
+2.99824780976E+007, +6.51450172306E+000, +7.04541385987E+002
+3.01075093867E+007, +3.99518670355E+000, +7.07826848232E+002
+3.02325406758E+007, +4.36316808474E+000, +7.12940958664E+002
+3.03575719650E+007, +4.51002301305E+000, +7.16259022617E+002
+3.04826032541E+007, +5.53321031834E+000, +7.22851653180E+002
+3.06076345432E+007, +4.91360137629E+000, +7.28824689710E+002
+3.07326658323E+007, +6.07251121874E+000, +7.33679801496E+002
+3.08576971214E+007, +5.68303793676E+000, +7.34862995256E+002
+3.09827284105E+007, +5.87346202816E+000, +7.42000937132E+002
+3.11077596996E+007, +4.92781564998E+000, +7.47077772602E+002
+3.12327909887E+007, +7.04129813550E+000, +7.50245190941E+002
+3.13578222778E+007, +7.16286788769E+000, +7.57171039130E+002
+3.14828535670E+007, +6.41457574684E+000, +7.60133069404E+002
+3.16078848561E+007, +6.89061463273E+000, +7.64507518610E+002
+3.17329161452E+007, +1.03724296261E+001, +7.68798871080E+002
+3.18579474343E+007, +6.65854275726E+000, +7.74390948622E+002
+3.19829787234E+007, +8.01900410535E+000, +7.79862197212E+002
+3.21080100125E+007, +8.72517099822E+000, +7.82723772044E+002
+3.22330413016E+007, +5.99135315242E+000, +7.89036076184E+002
+3.23580725907E+007, +7.96064164259E+000, +7.93226027935E+002
+3.24831038798E+007, +9.66688587326E+000, +7.98461428522E+002
+3.26081351690E+007, +7.94713779117E+000, +8.00572325876E+002
+3.27331664581E+007, +9.61676305683E+000, +8.10453149675E+002
+3.28581977472E+007, +8.36044721618E+000, +8.13425964501E+002
+3.29832290363E+007, +9.40211564069E+000, +8.19590231982E+002
+3.31082603254E+007, +1.05487704943E+001, +8.27539634094E+002
+3.32332916145E+007, +9.18090596902E+000, +8.30837390278E+002
+3.33583229036E+007, +9.96919237602E+000, +8.35734958583E+002
+3.34833541927E+007, +9.81372980762E+000, +8.43471089782E+002
+3.36083854819E+007, +9.42745222842E+000, +8.47228964326E+002
+3.37334167710E+007, +1.16750817434E+001, +8.50401628996E+002
+3.38584480601E+007, +1.00630965679E+001, +8.58510447667E+002
+3.39834793492E+007, +1.49841678721E+001, +8.68079148866E+002
+3.41085106383E+007, +9.76121848228E+000, +8.69720845728E+002
+3.42335419274E+007, +1.04514111821E+001, +8.75773009784E+002
+3.43585732165E+007, +1.39815045410E+001, +8.80330658483E+002
+3.44836045056E+007, +1.11793165751E+001, +8.85924099315E+002
+3.46086357947E+007, +1.28792644614E+001, +8.94965678527E+002
+3.47336670839E+007, +1.06386077664E+001, +9.00220174142E+002
+3.48586983730E+007, +1.41265612472E+001, +9.02561747285E+002
+3.49837296621E+007, +1.31150387047E+001, +9.12985161764E+002
+3.51087609512E+007, +1.12408976470E+001, +9.12640357934E+002
+3.52337922403E+007, +1.20114499259E+001, +9.22845751408E+002
+3.53588235294E+007, +1.23664000307E+001, +9.27702528356E+002
+3.54838548185E+007, +1.60326261419E+001, +9.32684141339E+002
+3.56088861076E+007, +1.36189877905E+001, +9.40922911670E+002
+3.57339173967E+007, +1.72310362867E+001, +9.49400912450E+002
+3.58589486859E+007, +1.37452442871E+001, +9.54164141511E+002
+3.59839799750E+007, +1.61915421817E+001, +9.59212668957E+002
+3.61090112641E+007, +1.69307609918E+001, +9.65713550794E+002
+3.62340425532E+007, +1.91971078767E+001, +9.69843532096E+002
+3.63590738423E+007, +1.72314641856E+001, +9.82148471395E+002
+3.64841051314E+007, +1.70952743148E+001, +9.89354457996E+002
+3.66091364205E+007, +1.59268392210E+001, +9.90843478501E+002
+3.67341677096E+007, +1.84837553094E+001, +1.00245062191E+003
+3.68591989987E+007, +2.14288665540E+001, +1.00862533768E+003
+3.69842302879E+007, +1.90950821575E+001, +1.01404990918E+003
+3.71092615770E+007, +1.76710278522E+001, +1.02302973837E+003
+3.72342928661E+007, +1.94880692302E+001, +1.02530362934E+003
+3.73593241552E+007, +1.88781558441E+001, +1.03744159000E+003
+3.74843554443E+007, +2.32902017958E+001, +1.04213632401E+003
+3.76093867334E+007, +2.15356989849E+001, +1.04974017295E+003
+3.77344180225E+007, +1.96479943325E+001, +1.05734345222E+003
+3.78594493116E+007, +2.04389032035E+001, +1.06448068248E+003
+3.79844806008E+007, +2.35870243967E+001, +1.07596763628E+003
+3.81095118899E+007, +2.32253373226E+001, +1.08142650636E+003
+3.82345431790E+007, +2.39069768743E+001, +1.08868338566E+003
+3.83595744681E+007, +2.32617073656E+001, +1.09514949711E+003
+3.84846057572E+007, +2.30268272825E+001, +1.10654230092E+003
+3.86096370463E+007, +2.43913755911E+001, +1.11037288481E+003
+3.87346683354E+007, +2.80553448596E+001, +1.12080519557E+003
+3.88596996245E+007, +2.48533266539E+001, +1.12944776959E+003
+3.89847309136E+007, +2.43942611991E+001, +1.13861768818E+003
+3.91097622028E+007, +2.29293924321E+001, +1.14623542732E+003
+3.92347934919E+007, +2.81090809240E+001, +1.15288467723E+003
+3.93598247810E+007, +2.98571870902E+001, +1.16263184348E+003
+3.94848560701E+007, +3.38191942809E+001, +1.17228823223E+003
+3.96098873592E+007, +3.25212013511E+001, +1.18207844135E+003
+3.97349186483E+007, +2.83564763247E+001, +1.18946044016E+003
+3.98599499374E+007, +2.99817570336E+001, +1.19857088928E+003
+3.99849812265E+007, +3.51638356374E+001, +1.21029475168E+003
+4.01100125156E+007, +3.83362659932E+001, +1.21563343336E+003
