"# Channel 1"
"# Trace 1"
Frequency, Formatted Data, Formatted Data
+1.00000000000E+005, +5.99842772289E+000, +2.03358195549E+000
+2.25031289111E+005, +5.94472062711E+000, +4.50720456543E+000
+3.50062578223E+005, +5.99354194163E+000, +7.03459137070E+000
+4.75093867334E+005, +6.01808595662E+000, +9.50172073540E+000
+6.00125156446E+005, +5.99626953189E+000, +1.20030548407E+001
+7.25156445557E+005, +5.97432699792E+000, +1.45190259094E+001
+8.50187734668E+005, +6.00270120621E+000, +1.70002268390E+001
+9.75219023780E+005, +6.01603569886E+000, +1.94643996468E+001
+1.10025031289E+006, +6.01213202218E+000, +2.19267739318E+001
+1.22528160200E+006, +6.00259323786E+000, +2.44399955391E+001
+1.35031289111E+006, +6.00143016151E+000, +2.69679969660E+001
+1.47534418023E+006, +6.00242083720E+000, +2.94245901615E+001
+1.60037546934E+006, +6.03081869620E+000, +3.18952594346E+001
+1.72540675845E+006, +5.98305150776E+000, +3.43859403802E+001
+1.85043804756E+006, +6.07421444332E+000, +3.68605927814E+001
+1.97546933667E+006, +6.05738754053E+000, +3.94264964488E+001
+2.10050062578E+006, +6.02864706527E+000, +4.18069050316E+001
+2.22553191489E+006, +6.04180711787E+000, +4.42561574164E+001
+2.35056320401E+006, +6.05390958794E+000, +4.67827164128E+001
+2.47559449312E+006, +6.05825625541E+000, +4.92290453974E+001
+2.60062578223E+006, +6.03950428060E+000, +5.17108881862E+001
+2.72565707134E+006, +6.02798357875E+000, +5.42090933636E+001
+2.85068836045E+006, +6.05461271239E+000, +5.67474190660E+001
+2.97571964956E+006, +6.10462285857E+000, +5.92800215078E+001
+3.10075093867E+006, +6.00661976692E+000, +6.17666630557E+001
+3.22578222778E+006, +6.05283439946E+000, +6.42831098737E+001
+3.35081351690E+006, +6.18342903618E+000, +6.67355849983E+001
+3.47584480601E+006, +6.17211989804E+000, +6.91781049843E+001
+3.60087609512E+006, +6.05906788582E+000, +7.17561286292E+001
+3.72590738423E+006, +6.09495056607E+000, +7.42607861582E+001
+3.85093867334E+006, +6.19793019067E+000, +7.67746384817E+001
+3.97596996245E+006, +6.09752060395E+000, +7.91569357653E+001
+4.10100125156E+006, +6.19936048238E+000, +8.17568449491E+001
+4.22603254068E+006, +6.03930074714E+000, +8.41359922819E+001
+4.35106382979E+006, +6.14135771047E+000, +8.65996024606E+001
+4.47609511890E+006, +6.02636684591E+000, +8.90910131280E+001
+4.60112640801E+006, +6.07252221074E+000, +9.17425060598E+001
+4.72615769712E+006, +6.19680926112E+000, +9.40704740635E+001
+4.85118898623E+006, +6.22260447016E+000, +9.64925214521E+001
+4.97622027534E+006, +6.16221342304E+000, +9.91926492419E+001
+5.10125156446E+006, +6.24534845350E+000, +1.01747739943E+002
+5.22628285357E+006, +6.23950996211E+000, +1.04097879308E+002
+5.35131414268E+006, +6.17258984446E+000, +1.06538110515E+002
+5.47634543179E+006, +6.27292326822E+000, +1.09156439972E+002
+5.60137672090E+006, +6.20568214595E+000, +1.11750186191E+002
+5.72640801001E+006, +6.37513526120E+000, +1.14064219583E+002
+5.85143929912E+006, +6.59429526946E+000, +1.16758515014E+002
+5.97647058824E+006, +6.46425644098E+000, +1.19259383440E+002
+6.10150187735E+006, +6.36244126208E+000, +1.21620066470E+002
+6.22653316646E+006, +6.32842495744E+000, +1.24328147815E+002
+6.35156445557E+006, +6.52521923147E+000, +1.26730405831E+002
+6.47659574468E+006, +6.52223712137E+000, +1.29344556668E+002
+6.60162703379E+006, +6.61936000797E+000, +1.31748128961E+002
+6.72665832290E+006, +6.49835583732E+000, +1.34268740353E+002
+6.85168961202E+006, +6.69391112220E+000, +1.36839771082E+002
+6.97672090113E+006, +6.74859104854E+000, +1.39346390755E+002
+7.10175219024E+006, +6.79481328914E+000, +1.41890979309E+002
+7.22678347935E+006, +6.75334352588E+000, +1.44332596964E+002
+7.35181476846E+006, +6.76055248539E+000, +1.47017962481E+002
+7.47684605757E+006, +6.79000085848E+000, +1.49401441943E+002
+7.60187734668E+006, +6.82657218836E+000, +1.51964485836E+002
+7.72690863579E+006, +7.10717861527E+000, +1.54400325554E+002
+7.85193992491E+006, +6.77814785967E+000, +1.56967465745E+002
+7.97697121402E+006, +6.83678005482E+000, +1.59617177693E+002
+8.10200250313E+006, +7.02069392294E+000, +1.62059215532E+002
+8.22703379224E+006, +7.02852772654E+000, +1.64723240551E+002
+8.35206508135E+006, +7.07439356455E+000, +1.67058872098E+002
+8.47709637046E+006, +6.97193461738E+000, +1.69649970400E+002
+8.60212765957E+006, +6.94903576598E+000, +1.72175688765E+002
+8.72715894869E+006, +7.08148722099E+000, +1.74655295330E+002
+8.85219023780E+006, +7.20739621980E+000, +1.77075319743E+002
+8.97722152691E+006, +7.25688891734E+000, +1.79754711059E+002
+9.10225281602E+006, +7.17871650331E+000, +1.82217944700E+002
+9.22728410513E+006, +7.17679549797E+000, +1.84687522327E+002
+9.35231539424E+006, +7.36344661993E+000, +1.87322419349E+002
+9.47734668335E+006, +7.25033341495E+000, +1.90052284737E+002
+9.60237797247E+006, +7.24087567907E+000, +1.92398107105E+002
+9.72740926158E+006, +7.52387133047E+000, +1.94854791404E+002
+9.85244055069E+006, +7.29071751580E+000, +1.97541543024E+002
+9.97747183980E+006, +7.26438857962E+000, +2.00079707419E+002
+1.01025031289E+007, +7.39686970242E+000, +2.02322320355E+002
+1.02275344180E+007, +7.42628229107E+000, +2.05262419188E+002
+1.03525657071E+007, +7.39875621290E+000, +2.07554357071E+002
+1.04775969962E+007, +7.36524612322E+000, +2.10114467340E+002
+1.06026282854E+007, +7.59451954168E+000, +2.12714700560E+002
+1.07276595745E+007, +7.71053521505E+000, +2.15484218487E+002
+1.08526908636E+007, +7.43203641381E+000, +2.17839530190E+002
+1.09777221527E+007, +7.47705823477E+000, +2.20594899964E+002
+1.11027534418E+007, +7.54167100478E+000, +2.22961742592E+002
+1.12277847309E+007, +7.60485153979E+000, +2.25711355410E+002
+1.13528160200E+007, +7.22500764092E+000, +2.28166784242E+002
+1.14778473091E+007, +7.98099315723E+000, +2.30479308564E+002
+1.16028785982E+007, +7.48603751735E+000, +2.32734324217E+002
+1.17279098874E+007, +7.52783701737E+000, +2.36132366248E+002
+1.18529411765E+007, +7.39351980843E+000, +2.38138755810E+002
+1.19779724656E+007, +7.59615811685E+000, +2.40872464447E+002
+1.21030037547E+007, +7.42707619266E+000, +2.43093366902E+002
+1.22280350438E+007, +7.78977976858E+000, +2.46101279259E+002
+1.23530663329E+007, +8.03777302301E+000, +2.48763139293E+002
+1.24780976220E+007, +7.83087560504E+000, +2.51158378359E+002
+1.26031289111E+007, +7.81267941374E+000, +2.53665177685E+002
+1.27281602003E+007, +7.84252355331E+000, +2.56251171683E+002
+1.28531914894E+007, +8.06299011551E+000, +2.58579939768E+002
+1.29782227785E+007, +7.64116778270E+000, +2.61266818676E+002
+1.31032540676E+007, +8.03882613200E+000, +2.64166076334E+002
+1.32282853567E+007, +8.17278787989E+000, +2.66334937617E+002
+1.33533166458E+007, +7.90463139135E+000, +2.69360436977E+002
+1.34783479349E+007, +7.67722228948E+000, +2.71822171674E+002
+1.36033792240E+007, +7.92996469996E+000, +2.74442028180E+002
+1.37284105131E+007, +8.00910452820E+000, +2.77161927907E+002
+1.38534418023E+007, +8.10980732420E+000, +2.79839287041E+002
+1.39784730914E+007, +8.18621310242E+000, +2.82737075065E+002
+1.41035043805E+007, +8.13301149774E+000, +2.85403932774E+002
+1.42285356696E+007, +7.95093793190E+000, +2.87618006184E+002
+1.43535669587E+007, +8.34289581929E+000, +2.90164678971E+002
+1.44785982478E+007, +8.60901744510E+000, +2.93090533640E+002
+1.46036295369E+007, +8.07852469972E+000, +2.95542458785E+002
+1.47286608260E+007, +7.92681829443E+000, +2.97696712681E+002
+1.48536921151E+007, +8.66791093917E+000, +3.00638247151E+002
+1.49787234043E+007, +8.61949647903E+000, +3.03283720823E+002
+1.51037546934E+007, +8.88866582892E+000, +3.06122101544E+002
+1.52287859825E+007, +8.26156950997E+000, +3.09119454122E+002
+1.53538172716E+007, +8.53927130327E+000, +3.11102764670E+002
+1.54788485607E+007, +8.40310641993E+000, +3.13850127617E+002
+1.56038798498E+007, +8.24445003762E+000, +3.16821524289E+002
+1.57289111389E+007, +8.19158615952E+000, +3.19067118113E+002
+1.58539424280E+007, +9.01756721511E+000, +3.21867890236E+002
+1.59789737171E+007, +8.68856945344E+000, +3.24409338973E+002
+1.61040050063E+007, +8.92185064942E+000, +3.26759502981E+002
+1.62290362954E+007, +8.06347308609E+000, +3.30085906133E+002
+1.63540675845E+007, +8.97555540925E+000, +3.32545576796E+002
+1.64790988736E+007, +9.26282084609E+000, +3.35714934444E+002
+1.66041301627E+007, +9.71758407048E+000, +3.38315583355E+002
+1.67291614518E+007, +9.16648226220E+000, +3.40361178268E+002
+1.68541927409E+007, +8.08183377716E+000, +3.43115383253E+002
+1.69792240300E+007, +8.69760864040E+000, +3.45798477877E+002
+1.71042553191E+007, +8.05492172087E+000, +3.47873870692E+002
+1.72292866083E+007, +7.91917902979E+000, +3.51544737942E+002
+1.73543178974E+007, +8.64379323149E+000, +3.54296383155E+002
+1.74793491865E+007, +8.30546316716E+000, +3.56604134278E+002
+1.76043804756E+007, +8.29743556609E+000, +3.59555810362E+002
+1.77294117647E+007, +8.49327786624E+000, +3.62659246810E+002
+1.78544430538E+007, +8.21037719296E+000, +3.64573083836E+002
+1.79794743429E+007, +8.15010519757E+000, +3.66986292788E+002
+1.81045056320E+007, +8.20755135622E+000, +3.71660133912E+002
+1.82295369212E+007, +8.81257546468E+000, +3.72525349942E+002
+1.83545682103E+007, +8.86718526792E+000, +3.76010654335E+002
+1.84795994994E+007, +9.53374988125E+000, +3.79105439002E+002
+1.86046307885E+007, +8.25644545722E+000, +3.81424211744E+002
+1.87296620776E+007, +9.14353808885E+000, +3.83574897635E+002
+1.88546933667E+007, +8.59928998297E+000, +3.86566973798E+002
+1.89797246558E+007, +9.99074177043E+000, +3.89701718924E+002
+1.91047559449E+007, +9.09555547296E+000, +3.91337059236E+002
+1.92297872340E+007, +8.15841034444E+000, +3.95393141968E+002
+1.93548185232E+007, +9.17741902524E+000, +3.97646956285E+002
+1.94798498123E+007, +8.80900008088E+000, +4.01487249723E+002
+1.96048811014E+007, +9.83446272958E+000, +4.04307298875E+002
+1.97299123905E+007, +9.84055665485E+000, +4.06785081460E+002
+1.98549436796E+007, +1.01428543729E+001, +4.08871003958E+002
+1.99799749687E+007, +9.23308967928E+000, +4.12745533255E+002
+2.01050062578E+007, +9.46905610255E+000, +4.14623266811E+002
+2.02300375469E+007, +9.16586926355E+000, +4.17437318480E+002
+2.03550688360E+007, +9.64296807807E+000, +4.19760359221E+002
+2.04801001252E+007, +9.02478415578E+000, +4.23504449996E+002
+2.06051314143E+007, +9.47329931401E+000, +4.25534655608E+002
+2.07301627034E+007, +9.85134606478E+000, +4.28468667026E+002
+2.08551939925E+007, +1.05254587764E+001, +4.32254405830E+002
+2.09802252816E+007, +9.74740820423E+000, +4.35615331452E+002
+2.11052565707E+007, +9.61491852258E+000, +4.38482683628E+002
+2.12302878598E+007, +1.01073890281E+001, +4.40724171020E+002
+2.13553191489E+007, +9.14699645360E+000, +4.43694996650E+002
+2.14803504380E+007, +9.00982559671E+000, +4.46577403231E+002
+2.16053817272E+007, +9.78681032107E+000, +4.49305894744E+002
+2.17304130163E+007, +9.79858417959E+000, +4.53386367438E+002
+2.18554443054E+007, +9.56266991907E+000, +4.55111318538E+002
+2.19804755945E+007, +1.08656954789E+001, +4.57786204223E+002
+2.21055068836E+007, +9.77812642811E+000, +4.60673511409E+002
+2.22305381727E+007, +9.58931246199E+000, +4.63613112268E+002
+2.23555694618E+007, +9.73246522737E+000, +4.66575439476E+002
+2.24806007509E+007, +1.01877405014E+001, +4.70949363065E+002
+2.26056320401E+007, +1.20706860393E+001, +4.72716338958E+002
+2.27306633292E+007, +9.94175567552E+000, +4.74955893574E+002
+2.28556946183E+007, +1.13472049042E+001, +4.80200002733E+002
+2.29807259074E+007, +1.10556973549E+001, +4.82102004043E+002
+2.31057571965E+007, +1.22204501761E+001, +4.83702737656E+002
+2.32307884856E+007, +1.22544865313E+001, +4.87486904610E+002
+2.33558197747E+007, +1.10499377126E+001, +4.91831799146E+002
+2.34808510638E+007, +1.12653589692E+001, +4.93209432382E+002
+2.36058823529E+007, +1.11918277232E+001, +4.96661064332E+002
+2.37309136421E+007, +1.22045571123E+001, +4.98858419124E+002
+2.38559449312E+007, +1.25159742806E+001, +5.02348770623E+002
+2.39809762203E+007, +1.22008527737E+001, +5.06398759209E+002
+2.41060075094E+007, +1.22042479190E+001, +5.08487000371E+002
+2.42310387985E+007, +1.29345899631E+001, +5.10942851421E+002
+2.43560700876E+007, +1.28167723650E+001, +5.13467710025E+002
+2.44811013767E+007, +1.34014427308E+001, +5.17246598488E+002
+2.46061326658E+007, +1.45185070437E+001, +5.20053050196E+002
+2.47311639549E+007, +1.26263419794E+001, +5.22358549078E+002
+2.48561952441E+007, +1.28371957203E+001, +5.25685134260E+002
+2.49812265332E+007, +1.29083681213E+001, +5.29401520618E+002
+2.51062578223E+007, +1.33067669557E+001, +5.33532257170E+002
+2.52312891114E+007, +1.41069459974E+001, +5.33134862382E+002
+2.53563204005E+007, +1.30786292333E+001, +5.37553537566E+002
+2.54813516896E+007, +1.38711647366E+001, +5.41178721285E+002
+2.56063829787E+007, +1.47634752457E+001, +5.42779457401E+002
+2.57314142678E+007, +1.52989769834E+001, +5.48691816438E+002
+2.58564455569E+007, +1.40731113664E+001, +5.50166280718E+002
+2.59814768461E+007, +1.37113049331E+001, +5.54296562618E+002
+2.61065081352E+007, +1.58903605979E+001, +5.56368859477E+002
+2.62315394243E+007, +1.51679298553E+001, +5.61581927952E+002
+2.63565707134E+007, +1.45884574251E+001, +5.63604642583E+002
+2.64816020025E+007, +1.43388675569E+001, +5.66635257153E+002
+2.66066332916E+007, +1.51917370073E+001, +5.70826710545E+002
+2.67316645807E+007, +1.55868347254E+001, +5.71964186481E+002
+2.68566958698E+007, +1.66475565553E+001, +5.76977411685E+002
+2.69817271589E+007, +1.56172421627E+001, +5.80305660773E+002
+2.71067584481E+007, +1.83556609190E+001, +5.82130884066E+002
+2.72317897372E+007, +1.66741218514E+001, +5.85378419062E+002
+2.73568210263E+007, +1.75535917916E+001, +5.88164804566E+002
+2.74818523154E+007, +1.57763253358E+001, +5.92616914399E+002
+2.76068836045E+007, +1.72489535716E+001, +5.93936503536E+002
+2.77319148936E+007, +1.72556505444E+001, +5.96906837149E+002
+2.78569461827E+007, +1.62000196847E+001, +6.00743416741E+002
+2.79819774718E+007, +1.83063817992E+001, +6.02921891275E+002
+2.81070087610E+007, +1.73557378113E+001, +6.08490121461E+002
+2.82320400501E+007, +1.80813240489E+001, +6.11126124211E+002
+2.83570713392E+007, +1.79235417464E+001, +6.13367457574E+002
+2.84821026283E+007, +1.78759228186E+001, +6.17190587316E+002
+2.86071339174E+007, +1.62002040335E+001, +6.22684193567E+002
+2.87321652065E+007, +1.80849339552E+001, +6.22776296612E+002
+2.88571964956E+007, +1.80059025084E+001, +6.25085148006E+002
+2.89822277847E+007, +1.57066656262E+001, +6.29298703207E+002
+2.91072590738E+007, +1.87526090209E+001, +6.30153429825E+002
+2.92322903630E+007, +1.56673072804E+001, +6.36348241908E+002
+2.93573216521E+007, +1.99883654790E+001, +6.37396306332E+002
+2.94823529412E+007, +1.82523645566E+001, +6.44371511470E+002
+2.96073842303E+007, +1.88639159081E+001, +6.45439649165E+002
+2.97324155194E+007, +1.99678929493E+001, +6.47368640717E+002
+2.98574468085E+007, +1.74395011046E+001, +6.53298667880E+002
+2.99824780976E+007, +1.93481662941E+001, +6.54596540923E+002
+3.01075093867E+007, +1.90831332653E+001, +6.58323077472E+002
+3.02325406758E+007, +2.06511801044E+001, +6.62816981256E+002
+3.03575719650E+007, +1.75392212917E+001, +6.67075075173E+002
+3.04826032541E+007, +2.07659602638E+001, +6.73194659623E+002
+3.06076345432E+007, +1.88670094969E+001, +6.72991749219E+002
+3.07326658323E+007, +1.81851839973E+001, +6.76621088656E+002
+3.08576971214E+007, +1.98878719285E+001, +6.81660177929E+002
+3.09827284105E+007, +1.93306601096E+001, +6.85836633733E+002
+3.11077596996E+007, +1.66924947518E+001, +6.87589695415E+002
+3.12327909887E+007, +2.00971960545E+001, +6.91590492682E+002
+3.13578222778E+007, +1.83171397053E+001, +6.95734994450E+002
+3.14828535670E+007, +1.88302324433E+001, +6.97405488507E+002
+3.16078848561E+007, +1.94365204091E+001, +7.03388293444E+002
+3.17329161452E+007, +2.17154434928E+001, +7.03579004330E+002
+3.18579474343E+007, +1.98248052657E+001, +7.09815472842E+002
+3.19829787234E+007, +1.94354731822E+001, +7.11293533817E+002
+3.21080100125E+007, +2.15271257421E+001, +7.14745947173E+002
+3.22330413016E+007, +2.22104203876E+001, +7.20319231126E+002
+3.23580725907E+007, +1.77474744725E+001, +7.23342270169E+002
+3.24831038798E+007, +2.27078223424E+001, +7.29021003053E+002
+3.26081351690E+007, +2.21872643037E+001, +7.29012249486E+002
+3.27331664581E+007, +2.19371824891E+001, +7.34801064426E+002
+3.28581977472E+007, +2.10178026004E+001, +7.36931754845E+002
+3.29832290363E+007, +1.90621096295E+001, +7.40084682119E+002
+3.31082603254E+007, +2.13629399987E+001, +7.45829398255E+002
+3.32332916145E+007, +2.08872518522E+001, +7.47013443099E+002
+3.33583229036E+007, +1.84260531107E+001, +7.52584054804E+002
+3.34833541927E+007, +1.98836104352E+001, +7.57100890165E+002
+3.36083854819E+007, +1.94624360811E+001, +7.60940806285E+002
+3.37334167710E+007, +2.09300595223E+001, +7.61283714805E+002
+3.38584480601E+007, +1.88522390218E+001, +7.69440580001E+002
+3.39834793492E+007, +1.97809827491E+001, +7.69158548162E+002
+3.41085106383E+007, +2.26370718147E+001, +7.77258296207E+002
+3.42335419274E+007, +2.26104864047E+001, +7.79874760110E+002
+3.43585732165E+007, +2.07597708122E+001, +7.83619614504E+002
+3.44836045056E+007, +2.11542939501E+001, +7.87714341528E+002
+3.46086357947E+007, +2.35427501739E+001, +7.90528001247E+002
+3.47336670839E+007, +1.88357296787E+001, +7.94745233839E+002
+3.48586983730E+007, +2.06857674749E+001, +7.99062884477E+002
+3.49837296621E+007, +2.16709168933E+001, +8.00965131966E+002
+3.51087609512E+007, +1.74190779201E+001, +8.05065591842E+002
+3.52337922403E+007, +2.29867365537E+001, +8.09715870885E+002
+3.53588235294E+007, +2.11684172399E+001, +8.16514104946E+002
+3.54838548185E+007, +2.10899192905E+001, +8.19284005810E+002
+3.56088861076E+007, +2.38719624737E+001, +8.21249372245E+002
+3.57339173967E+007, +1.76853244287E+001, +8.28665753551E+002
+3.58589486859E+007, +2.04734091881E+001, +8.30585993881E+002
+3.59839799750E+007, +2.00945348862E+001, +8.36335211657E+002
+3.61090112641E+007, +1.72484163888E+001, +8.39047236405E+002
+3.62340425532E+007, +1.91030202234E+001, +8.45063726980E+002
+3.63590738423E+007, +2.70633536332E+001, +8.49247896105E+002
+3.64841051314E+007, +1.50624984142E+001, +8.50263195610E+002
+3.66091364205E+007, +1.88645533607E+001, +8.58795845309E+002
+3.67341677096E+007, +2.26674220875E+001, +8.61028527765E+002
+3.68591989987E+007, +2.14975275375E+001, +8.68473984869E+002
+3.69842302879E+007, +2.09586633615E+001, +8.74281259497E+002
+3.71092615770E+007, +2.05944402742E+001, +8.77425750957E+002
+3.72342928661E+007, +1.93926604575E+001, +8.82488496542E+002
+3.73593241552E+007, +1.89994399289E+001, +8.84120327082E+002
+3.74843554443E+007, +2.43140320715E+001, +8.95328136727E+002
+3.76093867334E+007, +1.74243284501E+001, +8.93028131808E+002
+3.77344180225E+007, +2.15540722567E+001, +9.02531015135E+002
+3.78594493116E+007, +2.26414808796E+001, +9.02121498490E+002
+3.79844806008E+007, +2.14996292641E+001, +9.08058901501E+002
+3.81095118899E+007, +1.93992622321E+001, +9.14971800208E+002
+3.82345431790E+007, +2.26867823306E+001, +9.19184427600E+002
+3.83595744681E+007, +2.26994004327E+001, +9.23317050078E+002
+3.84846057572E+007, +2.29150369024E+001, +9.28680650491E+002
+3.86096370463E+007, +1.83919512723E+001, +9.35650427837E+002
+3.87346683354E+007, +2.28208346824E+001, +9.35463833870E+002
+3.88596996245E+007, +2.77535112282E+001, +9.45468792411E+002
+3.89847309136E+007, +2.68509293725E+001, +9.53479909710E+002
+3.91097622028E+007, +1.85409657064E+001, +9.54879399787E+002
+3.92347934919E+007, +2.68156143898E+001, +9.60773873561E+002
+3.93598247810E+007, +2.48469980002E+001, +9.70079261533E+002
+3.94848560701E+007, +2.83328489029E+001, +9.68577740214E+002
+3.96098873592E+007, +2.66528773698E+001, +9.76813038014E+002
+3.97349186483E+007, +2.38449155227E+001, +9.82093919920E+002
+3.98599499374E+007, +2.14527978326E+001, +9.89460892263E+002
+3.99849812265E+007, +2.45825784707E+001, +9.91476510217E+002
+4.01100125156E+007, +2.69680607897E+001, +9.97608032413E+002
