"# Channel 1"
"# Trace 1"
Frequency, Formatted Data, Formatted Data
+1.00000000000E+005, +8.85288743612E+000, +1.85819887437E+000
+2.66777963272E+005, +8.83833621052E+000, +4.98936370256E+000
+4.33555926544E+005, +8.83681213469E+000, +8.13265556364E+000
+6.00333889816E+005, +8.87036801416E+000, +1.12045368466E+001
+7.67111853088E+005, +8.88906122081E+000, +1.43504238096E+001
+9.33889816361E+005, +8.90492061367E+000, +1.74171474412E+001
+1.10066777963E+006, +8.85966874733E+000, +2.05721602804E+001
+1.26744574290E+006, +8.90591907246E+000, +2.36591081946E+001
+1.43422370618E+006, +8.86018519008E+000, +2.68242280326E+001
+1.60100166945E+006, +8.90452377321E+000, +2.98638745134E+001
+1.76777963272E+006, +8.91691769636E+000, +3.29780563880E+001
+1.93455759599E+006, +8.91328362026E+000, +3.60119864439E+001
+2.10133555927E+006, +8.92869982624E+000, +3.91487966408E+001
+2.26811352254E+006, +8.97885006342E+000, +4.22765552233E+001
+2.43489148581E+006, +8.94250493744E+000, +4.54262190825E+001
+2.60166944908E+006, +8.97433046983E+000, +4.84787587582E+001
+2.76844741235E+006, +8.94875015538E+000, +5.16680090691E+001
+2.93522537563E+006, +8.93671111120E+000, +5.47436567896E+001
+3.10200333890E+006, +9.08903218238E+000, +5.77827616490E+001
+3.26878130217E+006, +8.90847489071E+000, +6.10523248411E+001
+3.43555926544E+006, +9.03077343512E+000, +6.41049929730E+001
+3.60233722871E+006, +9.09833369985E+000, +6.73024337575E+001
+3.76911519199E+006, +9.04495291087E+000, +7.04753720897E+001
+3.93589315526E+006, +9.12532798714E+000, +7.33732157797E+001
+4.10267111853E+006, +8.80854734025E+000, +7.64328139416E+001
+4.26944908180E+006, +9.08393955944E+000, +8.01821027085E+001
+4.43622704508E+006, +9.15312757805E+000, +8.29137000284E+001
+4.60300500835E+006, +9.19474639512E+000, +8.62284945067E+001
+4.76978297162E+006, +9.17303289624E+000, +8.93387290990E+001
+4.93656093489E+006, +9.35074767462E+000, +9.25113656775E+001
+5.10333889816E+006, +9.30863821668E+000, +9.55136300240E+001
+5.27011686144E+006, +9.53628163308E+000, +9.89613663915E+001
+5.43689482471E+006, +9.44724458412E+000, +1.02021005277E+002
+5.60367278798E+006, +9.40258533001E+000, +1.05430450756E+002
+5.77045075125E+006, +9.38944303352E+000, +1.08335559962E+002
+5.93722871452E+006, +9.66390545142E+000, +1.11646380758E+002
+6.10400667780E+006, +9.64718868654E+000, +1.14790344331E+002
+6.27078464107E+006, +9.84834233941E+000, +1.17937714874E+002
+6.43756260434E+006, +9.86012972550E+000, +1.21144439747E+002
+6.60434056761E+006, +9.94194115978E+000, +1.24398250697E+002
+6.77111853088E+006, +1.01799030732E+001, +1.27470784738E+002
+6.93789649416E+006, +1.00853601742E+001, +1.30640943281E+002
+7.10467445743E+006, +1.01106494370E+001, +1.33843298271E+002
+7.27145242070E+006, +1.02096072753E+001, +1.37082351995E+002
+7.43823038397E+006, +1.02670962457E+001, +1.40016790307E+002
+7.60500834725E+006, +1.02174826443E+001, +1.43443193497E+002
+7.77178631052E+006, +1.03607482182E+001, +1.46685159854E+002
+7.93856427379E+006, +1.02997076032E+001, +1.49805212893E+002
+8.10534223706E+006, +1.04604558614E+001, +1.53154304842E+002
+8.27212020033E+006, +1.04005537437E+001, +1.56332895642E+002
+8.43889816361E+006, +1.02671880826E+001, +1.59565912750E+002
+8.60567612688E+006, +1.02489151761E+001, +1.63122324532E+002
+8.77245409015E+006, +1.03955337212E+001, +1.66114848075E+002
+8.93923205342E+006, +1.04168221775E+001, +1.69594429706E+002
+9.10601001669E+006, +1.04181442330E+001, +1.72905970336E+002
+9.27278797997E+006, +1.03882116614E+001, +1.76141467533E+002
+9.43956594324E+006, +1.04047680498E+001, +1.79429508170E+002
+9.60634390651E+006, +1.03872678039E+001, +1.82891561037E+002
+9.77312186978E+006, +1.04745706408E+001, +1.86096918042E+002
+9.93989983306E+006, +1.07455016490E+001, +1.89641493971E+002
+1.01066777963E+007, +1.03914088814E+001, +1.92972747529E+002
+1.02734557596E+007, +1.06989562964E+001, +1.96395478849E+002
+1.04402337229E+007, +1.04345337268E+001, +1.99769754305E+002
+1.06070116861E+007, +1.03866532680E+001, +2.02932744184E+002
+1.07737896494E+007, +1.06826478688E+001, +2.06644841683E+002
+1.09405676127E+007, +1.08101461724E+001, +2.10020615317E+002
+1.11073455760E+007, +1.08715355438E+001, +2.13443764921E+002
+1.12741235392E+007, +1.09954526416E+001, +2.16794682772E+002
+1.14409015025E+007, +1.10411472232E+001, +2.20554038877E+002
+1.16076794658E+007, +1.10642130098E+001, +2.24012998405E+002
+1.17744574290E+007, +1.10605740821E+001, +2.27285361301E+002
+1.19412353923E+007, +1.09037414539E+001, +2.30858051779E+002
+1.21080133556E+007, +1.09443281332E+001, +2.34380187460E+002
+1.22747913189E+007, +1.11356641303E+001, +2.37944267275E+002
+1.24415692821E+007, +1.10508335571E+001, +2.41252127521E+002
+1.26083472454E+007, +1.09867484821E+001, +2.45019286643E+002
+1.27751252087E+007, +1.13817463556E+001, +2.48398499224E+002
+1.29419031720E+007, +1.12115974680E+001, +2.51844442614E+002
+1.31086811352E+007, +1.14371263490E+001, +2.55740735262E+002
+1.32754590985E+007, +1.13719264894E+001, +2.59341432419E+002
+1.34422370618E+007, +1.13376852273E+001, +2.62622020680E+002
+1.36090150250E+007, +1.20011463795E+001, +2.66887621821E+002
+1.37757929883E+007, +1.16293820483E+001, +2.70177368145E+002
+1.39425709516E+007, +1.18722874859E+001, +2.73543359164E+002
+1.41093489149E+007, +1.18034753457E+001, +2.76997091816E+002
+1.42761268781E+007, +1.23782345883E+001, +2.81316587039E+002
+1.44429048414E+007, +1.19675931253E+001, +2.84687725208E+002
+1.46096828047E+007, +1.20422117306E+001, +2.88294960820E+002
+1.47764607679E+007, +1.22299837906E+001, +2.91988465946E+002
+1.49432387312E+007, +1.21081437860E+001, +2.95913554269E+002
+1.51100166945E+007, +1.18892068131E+001, +2.99645552283E+002
+1.52767946578E+007, +1.27879775611E+001, +3.03003882457E+002
+1.54435726210E+007, +1.25373972597E+001, +3.06806218630E+002
+1.56103505843E+007, +1.27312162463E+001, +3.11204972958E+002
+1.57771285476E+007, +1.30990046265E+001, +3.14318897987E+002
+1.59439065109E+007, +1.27953804354E+001, +3.18406562639E+002
+1.61106844741E+007, +1.27319467259E+001, +3.22432047932E+002
+1.62774624374E+007, +1.31109390339E+001, +3.25906150869E+002
+1.64442404007E+007, +1.25419642162E+001, +3.29981714999E+002
+1.66110183639E+007, +1.32606850740E+001, +3.34071877115E+002
+1.67777963272E+007, +1.30045005408E+001, +3.38145768811E+002
+1.69445742905E+007, +1.36676752327E+001, +3.41768671279E+002
+1.71113522538E+007, +1.21175333823E+001, +3.46075454562E+002
+1.72781302170E+007, +1.31984157398E+001, +3.50232603368E+002
+1.74449081803E+007, +1.21694457970E+001, +3.53810989961E+002
+1.76116861436E+007, +1.39200028934E+001, +3.58753839151E+002
+1.77784641068E+007, +1.31058192652E+001, +3.61557720502E+002
+1.79452420701E+007, +1.32821560619E+001, +3.65934310297E+002
+1.81120200334E+007, +1.38863336220E+001, +3.69981652568E+002
+1.82787979967E+007, +1.45807467228E+001, +3.74111412516E+002
+1.84455759599E+007, +1.43121229002E+001, +3.78855308122E+002
+1.86123539232E+007, +1.46770770555E+001, +3.81951704434E+002
+1.87791318865E+007, +1.46643873687E+001, +3.87253430943E+002
+1.89459098497E+007, +1.50544507366E+001, +3.91307049035E+002
+1.91126878130E+007, +1.50722354423E+001, +3.94942708273E+002
+1.92794657763E+007, +1.51549670602E+001, +3.99668745323E+002
+1.94462437396E+007, +1.54490780496E+001, +4.04391986509E+002
+1.96130217028E+007, +1.58594157180E+001, +4.08796666477E+002
+1.97797996661E+007, +1.58178517747E+001, +4.12684863778E+002
+1.99465776294E+007, +1.47070290545E+001, +4.16116380130E+002
+2.01133555927E+007, +1.52685071171E+001, +4.21348615822E+002
+2.02801335559E+007, +1.53115244318E+001, +4.26226216986E+002
+2.04469115192E+007, +1.56629985242E+001, +4.30377069396E+002
+2.06136894825E+007, +1.67022437155E+001, +4.34610923969E+002
+2.07804674457E+007, +1.67215844114E+001, +4.39336073835E+002
+2.09472454090E+007, +1.67753871898E+001, +4.43747981536E+002
+2.11140233723E+007, +1.71963997298E+001, +4.48844229116E+002
+2.12808013356E+007, +1.65916910060E+001, +4.52490065862E+002
+2.14475792988E+007, +1.78475769329E+001, +4.57922976654E+002
+2.16143572621E+007, +1.81195727809E+001, +4.61248585198E+002
+2.17811352254E+007, +1.72295231944E+001, +4.65923542904E+002
+2.19479131886E+007, +1.93659907056E+001, +4.70272649854E+002
+2.21146911519E+007, +1.94185404435E+001, +4.74194498497E+002
+2.22814691152E+007, +1.92532503791E+001, +4.80603335192E+002
+2.24482470785E+007, +1.89890231945E+001, +4.86146723347E+002
+2.26150250417E+007, +2.04499418814E+001, +4.91002960745E+002
+2.27818030050E+007, +2.03524191793E+001, +4.95884259467E+002
+2.29485809683E+007, +2.12820675834E+001, +4.99940563113E+002
+2.31153589316E+007, +2.02271666602E+001, +5.06564812684E+002
+2.32821368948E+007, +2.17457252216E+001, +5.09116990479E+002
+2.34489148581E+007, +2.13961619956E+001, +5.14455083665E+002
+2.36156928214E+007, +2.28656452409E+001, +5.19451037484E+002
+2.37824707846E+007, +2.28110300776E+001, +5.23885362153E+002
+2.39492487479E+007, +2.20047119446E+001, +5.29431319123E+002
+2.41160267112E+007, +2.40760289560E+001, +5.35637865006E+002
+2.42828046745E+007, +2.14986614983E+001, +5.40087291055E+002
+2.44495826377E+007, +2.49719638112E+001, +5.46675041002E+002
+2.46163606010E+007, +2.40081818762E+001, +5.50240707764E+002
+2.47831385643E+007, +2.43993319039E+001, +5.55802394141E+002
+2.49499165275E+007, +2.65264779334E+001, +5.61221390200E+002
+2.51166944908E+007, +2.68283428574E+001, +5.64850018037E+002
+2.52834724541E+007, +2.61261574442E+001, +5.71227675291E+002
+2.54502504174E+007, +2.70375641713E+001, +5.77296652908E+002
+2.56170283806E+007, +2.61282011348E+001, +5.82017919928E+002
+2.57838063439E+007, +2.83658154081E+001, +5.87233470915E+002
+2.59505843072E+007, +2.82295279441E+001, +5.96248601963E+002
+2.61173622705E+007, +2.95389817348E+001, +6.00655943824E+002
+2.62841402337E+007, +2.75548093669E+001, +6.04387600574E+002
+2.64509181970E+007, +2.83929100465E+001, +6.10916453461E+002
+2.66176961603E+007, +2.96410848222E+001, +6.18542467477E+002
+2.67844741235E+007, +3.02050274365E+001, +6.22140895251E+002
+2.69512520868E+007, +3.06971505375E+001, +6.27679293335E+002
+2.71180300501E+007, +3.08392600679E+001, +6.32240931203E+002
+2.72848080134E+007, +3.28975920634E+001, +6.38121754379E+002
+2.74515859766E+007, +3.36396615575E+001, +6.47062421688E+002
+2.76183639399E+007, +3.19234991874E+001, +6.49031927435E+002
+2.77851419032E+007, +3.11128296001E+001, +6.54887478134E+002
+2.79519198664E+007, +3.32545672912E+001, +6.62802685778E+002
+2.81186978297E+007, +3.54692312914E+001, +6.67222819655E+002
+2.82854757930E+007, +3.55632989839E+001, +6.74679645681E+002
+2.84522537563E+007, +3.17377930124E+001, +6.80599171094E+002
+2.86190317195E+007, +3.39152719378E+001, +6.84769766732E+002
+2.87858096828E+007, +3.70888859869E+001, +6.94761505175E+002
+2.89525876461E+007, +3.61526064359E+001, +7.00261621359E+002
+2.91193656093E+007, +3.37955970959E+001, +7.03590476721E+002
+2.92861435726E+007, +3.37161374445E+001, +7.12245228404E+002
+2.94529215359E+007, +3.45522229479E+001, +7.17119245649E+002
+2.96196994992E+007, +3.62459994018E+001, +7.24799591601E+002
+2.97864774624E+007, +3.86008279553E+001, +7.31668917712E+002
+2.99532554257E+007, +3.90390966060E+001, +7.41599115146E+002
+3.01200333890E+007, +3.55090224204E+001, +7.48321465480E+002
+3.02868113523E+007, +3.47570112931E+001, +7.53946202623E+002
+3.04535893155E+007, +3.66460667817E+001, +7.62622427121E+002
+3.06203672788E+007, +3.88202740842E+001, +7.69736095296E+002
+3.07871452421E+007, +3.58197283537E+001, +7.74269262443E+002
+3.09539232053E+007, +3.96356708536E+001, +7.81242992763E+002
+3.11207011686E+007, +3.94684599030E+001, +7.95375072209E+002
+3.12874791319E+007, +3.91641882371E+001, +7.94245724635E+002
+3.14542570952E+007, +4.01657044852E+001, +8.07861157269E+002
+3.16210350584E+007, +3.73628666845E+001, +8.15108462326E+002
+3.17878130217E+007, +3.77819060988E+001, +8.23092706094E+002
+3.19545909850E+007, +4.09524234281E+001, +8.28589324125E+002
+3.21213689482E+007, +3.77483151053E+001, +8.38336761885E+002
+3.22881469115E+007, +3.71418387413E+001, +8.46067983811E+002
+3.24549248748E+007, +4.13120848389E+001, +8.54013040231E+002
+3.26217028381E+007, +4.06804648085E+001, +8.62398935150E+002
+3.27884808013E+007, +3.84014365291E+001, +8.75563927976E+002
+3.29552587646E+007, +4.34766040581E+001, +8.81954517420E+002
+3.31220367279E+007, +4.40456662191E+001, +8.88348662775E+002
+3.32888146912E+007, +4.56707327946E+001, +9.02541275383E+002
+3.34555926544E+007, +4.22240389699E+001, +9.11395040971E+002
+3.36223706177E+007, +4.49870290264E+001, +9.17645434287E+002
+3.37891485810E+007, +4.58872228998E+001, +9.26854257875E+002
+3.39559265442E+007, +4.55213659554E+001, +9.34949862431E+002
+3.41227045075E+007, +4.84770943160E+001, +9.46266434348E+002
+3.42894824708E+007, +4.85348444557E+001, +9.57412931982E+002
+3.44562604341E+007, +5.09077140956E+001, +9.64031621842E+002
+3.46230383973E+007, +4.99922817155E+001, +9.80628560069E+002
+3.47898163606E+007, +4.86801266766E+001, +9.83497431803E+002
+3.49565943239E+007, +5.13386721819E+001, +1.00143692230E+003
+3.51233722871E+007, +5.33603868669E+001, +1.00988439767E+003
+3.52901502504E+007, +5.29659339993E+001, +1.01630123993E+003
+3.54569282137E+007, +5.46272531642E+001, +1.03003635099E+003
+3.56237061770E+007, +5.25660944589E+001, +1.03846861726E+003
+3.57904841402E+007, +5.31501300120E+001, +1.05597923638E+003
+3.59572621035E+007, +5.63845900224E+001, +1.06464461036E+003
+3.61240400668E+007, +5.84108526076E+001, +1.07685050588E+003
+3.62908180301E+007, +6.03763350390E+001, +1.09198684716E+003
+3.64575959933E+007, +5.98367687105E+001, +1.09965721629E+003
+3.66243739566E+007, +6.41944649702E+001, +1.10696878045E+003
+3.67911519199E+007, +6.24632207708E+001, +1.12764290232E+003
+3.69579298831E+007, +6.34690940129E+001, +1.13426573391E+003
+3.71247078464E+007, +6.03067967257E+001, +1.15078998529E+003
+3.72914858097E+007, +6.34768624793E+001, +1.16981680106E+003
+3.74582637730E+007, +6.53182859429E+001, +1.18525524253E+003
+3.76250417362E+007, +7.15220700108E+001, +1.19358403755E+003
+3.77918196995E+007, +6.46101674599E+001, +1.20631582025E+003
+3.79585976628E+007, +7.16803030123E+001, +1.22255369203E+003
+3.81253756260E+007, +7.70257850915E+001, +1.23395154404E+003
+3.82921535893E+007, +7.80377462840E+001, +1.25476072232E+003
+3.84589315526E+007, +8.60070936821E+001, +1.26479118917E+003
+3.86257095159E+007, +7.78694029659E+001, +1.28655952262E+003
+3.87924874791E+007, +7.17680113029E+001, +1.30185168315E+003
+3.89592654424E+007, +8.22856172847E+001, +1.31112080696E+003
+3.91260434057E+007, +7.95770971790E+001, +1.33843190482E+003
+3.92928213689E+007, +8.24848328608E+001, +1.35827700237E+003
+3.94595993322E+007, +8.22872273304E+001, +1.37100157374E+003
+3.96263772955E+007, +8.67783364306E+001, +1.38084938428E+003
+3.97931552588E+007, +7.91909380538E+001, +1.39967203670E+003
+3.99599332220E+007, +9.33869247857E+001, +1.42204100767E+003
+4.01267111853E+007, +9.72105090510E+001, +1.44247882689E+003
+4.02934891486E+007, +9.51666511247E+001, +1.46527174730E+003
+4.04602671119E+007, +9.41702464254E+001, +1.47295237977E+003
+4.06270450751E+007, +1.09794469178E+002, +1.50634157687E+003
+4.07938230384E+007, +1.15308599628E+002, +1.52790044360E+003
+4.09606010017E+007, +1.14421948996E+002, +1.54684273801E+003
+4.11273789649E+007, +1.07966395565E+002, +1.55508600224E+003
+4.12941569282E+007, +1.12567219383E+002, +1.58717004481E+003
+4.14609348915E+007, +1.18123569376E+002, +1.61951732068E+003
+4.16277128548E+007, +1.28963783433E+002, +1.63321488226E+003
+4.17944908180E+007, +1.28920403577E+002, +1.64532141159E+003
+4.19612687813E+007, +1.42934293132E+002, +1.68421116211E+003
+4.21280467446E+007, +1.29503061793E+002, +1.70813527463E+003
+4.22948247078E+007, +1.40929135349E+002, +1.72156066172E+003
+4.24616026711E+007, +1.59582739719E+002, +1.75914407716E+003
+4.26283806344E+007, +1.64813728348E+002, +1.80066531589E+003
+4.27951585977E+007, +1.42663854073E+002, +1.83047563308E+003
+4.29619365609E+007, +1.77032056995E+002, +1.85316076022E+003
+4.31287145242E+007, +1.90119257964E+002, +1.88693495144E+003
+4.32954924875E+007, +1.72854102392E+002, +1.91090167745E+003
+4.34622704508E+007, +1.91238246923E+002, +1.95788411310E+003
+4.36290484140E+007, +1.80070263284E+002, +1.98055987213E+003
+4.37958263773E+007, +1.98172640894E+002, +2.02352517126E+003
+4.39626043406E+007, +2.14309548109E+002, +2.04273950690E+003
+4.41293823038E+007, +2.33784421281E+002, +2.10754693968E+003
+4.42961602671E+007, +2.19906687682E+002, +2.12943663671E+003
+4.44629382304E+007, +2.26585478500E+002, +2.19047826000E+003
+4.46297161937E+007, +2.38007288722E+002, +2.23034862668E+003
+4.47964941569E+007, +2.36869591436E+002, +2.26351771582E+003
+4.49632721202E+007, +2.60057222631E+002, +2.32991878580E+003
+4.51300500835E+007, +2.76737193495E+002, +2.32628478513E+003
+4.52968280467E+007, +3.04876782773E+002, +2.41190888301E+003
+4.54636060100E+007, +3.07755706011E+002, +2.50298464390E+003
+4.56303839733E+007, +3.29509037219E+002, +2.53128558637E+003
+4.57971619366E+007, +3.44701766177E+002, +2.58824739704E+003
+4.59639398998E+007, +3.38329892647E+002, +2.68863582748E+003
+4.61307178631E+007, +3.96988195600E+002, +2.70093330771E+003
+4.62974958264E+007, +3.88849739938E+002, +2.77848034013E+003
+4.64642737896E+007, +3.91674611477E+002, +2.85152242345E+003
+4.66310517529E+007, +4.29622320243E+002, +2.90802516179E+003
+4.67978297162E+007, +5.06768331583E+002, +2.97681099825E+003
+4.69646076795E+007, +4.77423373637E+002, +3.08618953422E+003
+4.71313856427E+007, +5.48140092343E+002, +3.13841465206E+003
+4.72981636060E+007, +5.72258194000E+002, +3.27202641730E+003
+4.74649415693E+007, +6.14075940040E+002, +3.36800578261E+003
+4.76317195326E+007, +7.37976164004E+002, +3.43355759716E+003
+4.77984974958E+007, +8.06281171817E+002, +3.53982042182E+003
+4.79652754591E+007, +8.32585351977E+002, +3.55607800121E+003
+4.81320534224E+007, +9.01041463966E+002, +3.68864842513E+003
+4.82988313856E+007, +9.38940151913E+002, +3.82643022333E+003
+4.84656093489E+007, +1.00133214647E+003, +3.94976429943E+003
+4.86323873122E+007, +1.16208099788E+003, +4.04110296197E+003
+4.87991652755E+007, +1.28462989464E+003, +4.19689617205E+003
+4.89659432387E+007, +1.32837647744E+003, +4.24922821139E+003
+4.91327212020E+007, +1.57592266180E+003, +4.44218214791E+003
+4.92994991653E+007, +1.66756765499E+003, +4.51223457526E+003
+4.94662771285E+007, +1.99422612106E+003, +4.73307305975E+003
+4.96330550918E+007, +1.91296131674E+003, +4.80785802838E+003
+4.97998330551E+007, +2.16219282005E+003, +4.88271728566E+003
+4.99666110184E+007, +2.30158969459E+003, +5.03725226021E+003
+5.01333889816E+007, +2.53106267909E+003, +5.23548965310E+003
+5.03001669449E+007, +2.81762453059E+003, +5.48952855615E+003
+5.04669449082E+007, +3.12855480436E+003, +5.63868621089E+003
+5.06337228715E+007, +3.50084885400E+003, +5.62900832757E+003
+5.08005008347E+007, +3.55004979881E+003, +5.88744959817E+003
+5.09672787980E+007, +4.07997707031E+003, +6.02026245289E+003
+5.11340567613E+007, +4.46698941621E+003, +6.33039849922E+003
+5.13008347245E+007, +5.30984559258E+003, +6.69974925313E+003
+5.14676126878E+007, +5.64442370300E+003, +6.57122423868E+003
+5.16343906511E+007, +6.70338282750E+003, +6.29239350251E+003
+5.18011686144E+007, +7.31175400156E+003, +6.71161568417E+003
+5.19679465776E+007, +8.04868219921E+003, +6.05315025997E+003
+5.21347245409E+007, +9.31790956700E+003, +5.52833492173E+003
+5.23015025042E+007, +1.02161291555E+004, +4.52484004832E+003
+5.24682804674E+007, +1.15004707214E+004, +4.03934126613E+003
+5.26350584307E+007, +1.18304135057E+004, +2.97910075431E+003
+5.28018363940E+007, +1.21130881976E+004, +1.37434478265E+003
+5.29686143573E+007, +1.20049527985E+004, -3.87632011504E+002
+5.31353923205E+007, +1.20667426102E+004, -6.00680185645E+002
+5.33021702838E+007, +1.11337107790E+004, -2.36217372229E+003
+5.34689482471E+007, +1.03647532359E+004, -3.22310901222E+003
