"# Channel 1"
"# Trace 1"
Frequency, Formatted Data, Formatted Data
+1.00000000000E+005, +2.55396061175E+001, +1.93813813789E+000
+2.66777963272E+005, +2.55408333629E+001, +5.34359715981E+000
+4.33555926544E+005, +2.55180598974E+001, +8.63710016808E+000
+6.00333889816E+005, +2.55258936705E+001, +1.19381750405E+001
+7.67111853088E+005, +2.55435632038E+001, +1.52356953031E+001
+9.33889816361E+005, +2.55413205856E+001, +1.85049670267E+001
+1.10066777963E+006, +2.55654475397E+001, +2.19254458186E+001
+1.26744574290E+006, +2.55597869293E+001, +2.52267746489E+001
+1.43422370618E+006, +2.55758223471E+001, +2.85660292662E+001
+1.60100166945E+006, +2.55684125378E+001, +3.17930993138E+001
+1.76777963272E+006, +2.55741077115E+001, +3.51413063408E+001
+1.93455759599E+006, +2.55446634889E+001, +3.84290114053E+001
+2.10133555927E+006, +2.55493636008E+001, +4.16906968691E+001
+2.26811352254E+006, +2.55762637195E+001, +4.50549994888E+001
+2.43489148581E+006, +2.55500121427E+001, +4.84751692842E+001
+2.60166944908E+006, +2.55901865251E+001, +5.16836568254E+001
+2.76844741235E+006, +2.55666636507E+001, +5.51131241835E+001
+2.93522537563E+006, +2.56105622648E+001, +5.83833830920E+001
+3.10200333890E+006, +2.56816732199E+001, +6.15974345574E+001
+3.26878130217E+006, +2.55611044822E+001, +6.50819980800E+001
+3.43555926544E+006, +2.55818254043E+001, +6.83945305507E+001
+3.60233722871E+006, +2.56938167549E+001, +7.17168623177E+001
+3.76911519199E+006, +2.56619426788E+001, +7.51405347188E+001
+3.93589315526E+006, +2.55148912161E+001, +7.83770850936E+001
+4.10267111853E+006, +2.57101383454E+001, +8.18294893752E+001
+4.26944908180E+006, +2.56893886723E+001, +8.53090642986E+001
+4.43622704508E+006, +2.56595045359E+001, +8.84226669055E+001
+4.60300500835E+006, +2.56851664012E+001, +9.18818816751E+001
+4.76978297162E+006, +2.56022479023E+001, +9.51949134344E+001
+4.93656093489E+006, +2.59279991402E+001, +9.86526175401E+001
+5.10333889816E+006, +2.58851128973E+001, +1.01975005425E+002
+5.27011686144E+006, +2.60033111253E+001, +1.05507821870E+002
+5.43689482471E+006, +2.58024834857E+001, +1.08826442636E+002
+5.60367278798E+006, +2.61302092355E+001, +1.12338370435E+002
+5.77045075125E+006, +2.58624269644E+001, +1.15544567076E+002
+5.93722871452E+006, +2.60118431035E+001, +1.18874672508E+002
+6.10400667780E+006, +2.62711524926E+001, +1.22574875894E+002
+6.27078464107E+006, +2.62640398544E+001, +1.25768327443E+002
+6.43756260434E+006, +2.62955935355E+001, +1.29307620785E+002
+6.60434056761E+006, +2.63816617352E+001, +1.32567994765E+002
+6.77111853088E+006, +2.65363349634E+001, +1.36045896444E+002
+6.93789649416E+006, +2.65569150713E+001, +1.39451999456E+002
+7.10467445743E+006, +2.65264076538E+001, +1.42914969378E+002
+7.27145242070E+006, +2.65519544974E+001, +1.46301032802E+002
+7.43823038397E+006, +2.67024509935E+001, +1.49686650632E+002
+7.60500834725E+006, +2.67173648060E+001, +1.53230596792E+002
+7.77178631052E+006, +2.68891915685E+001, +1.56838962298E+002
+7.93856427379E+006, +2.67565208327E+001, +1.60024797057E+002
+8.10534223706E+006, +2.68642419177E+001, +1.63607305129E+002
+8.27212020033E+006, +2.69267202258E+001, +1.67094478191E+002
+8.43889816361E+006, +2.67989728649E+001, +1.70613886882E+002
+8.60567612688E+006, +2.67916458580E+001, +1.74196408070E+002
+8.77245409015E+006, +2.67631791883E+001, +1.77591127902E+002
+8.93923205342E+006, +2.69563683394E+001, +1.81371233438E+002
+9.10601001669E+006, +2.70331747312E+001, +1.84889576833E+002
+9.27278797997E+006, +2.69451201732E+001, +1.88294674752E+002
+9.43956594324E+006, +2.69478261840E+001, +1.91960884430E+002
+9.60634390651E+006, +2.68439381255E+001, +1.95488884592E+002
+9.77312186978E+006, +2.69014489470E+001, +1.99212849759E+002
+9.93989983306E+006, +2.73902020147E+001, +2.02650042312E+002
+1.01066777963E+007, +2.70407372403E+001, +2.06374381255E+002
+1.02734557596E+007, +2.71270026101E+001, +2.10056669447E+002
+1.04402337229E+007, +2.70558769700E+001, +2.13799892648E+002
+1.06070116861E+007, +2.71486336839E+001, +2.17376048813E+002
+1.07737896494E+007, +2.68876171090E+001, +2.20983894353E+002
+1.09405676127E+007, +2.75557926488E+001, +2.24412374621E+002
+1.11073455760E+007, +2.73638813444E+001, +2.28424463867E+002
+1.12741235392E+007, +2.74710498169E+001, +2.31908493594E+002
+1.14409015025E+007, +2.75057418122E+001, +2.35644250628E+002
+1.16076794658E+007, +2.77398942924E+001, +2.39196992861E+002
+1.17744574290E+007, +2.79693086656E+001, +2.43259729522E+002
+1.19412353923E+007, +2.75948499887E+001, +2.47160292459E+002
+1.21080133556E+007, +2.75694270522E+001, +2.50965232237E+002
+1.22747913189E+007, +2.77838803911E+001, +2.54866333562E+002
+1.24415692821E+007, +2.75573855617E+001, +2.58390157873E+002
+1.26083472454E+007, +2.79106889508E+001, +2.62434501094E+002
+1.27751252087E+007, +2.78113303480E+001, +2.66027645141E+002
+1.29419031720E+007, +2.76572248012E+001, +2.69734243696E+002
+1.31086811352E+007, +2.83172557024E+001, +2.74087910656E+002
+1.32754590985E+007, +2.80326408306E+001, +2.77705371018E+002
+1.34422370618E+007, +2.83571086490E+001, +2.81328499666E+002
+1.36090150250E+007, +2.89311760281E+001, +2.85193669510E+002
+1.37757929883E+007, +2.82980604190E+001, +2.89412770806E+002
+1.39425709516E+007, +2.86584495674E+001, +2.92726324901E+002
+1.41093489149E+007, +2.87430945997E+001, +2.96788775011E+002
+1.42761268781E+007, +2.90691534283E+001, +3.01265998149E+002
+1.44429048414E+007, +2.91126188196E+001, +3.04592620217E+002
+1.46096828047E+007, +2.90987778434E+001, +3.08978974984E+002
+1.47764607679E+007, +2.90614169256E+001, +3.12638555629E+002
+1.49432387312E+007, +2.85832111364E+001, +3.17232525088E+002
+1.51100166945E+007, +2.90618588941E+001, +3.20887006977E+002
+1.52767946578E+007, +2.95537772924E+001, +3.25185279320E+002
+1.54435726210E+007, +2.95303334100E+001, +3.29412665114E+002
+1.56103505843E+007, +2.96718251036E+001, +3.33308206408E+002
+1.57771285476E+007, +2.98048685451E+001, +3.37263579854E+002
+1.59439065109E+007, +2.99382453715E+001, +3.41419330808E+002
+1.61106844741E+007, +3.03513442040E+001, +3.45571679396E+002
+1.62774624374E+007, +3.00268102262E+001, +3.49661236288E+002
+1.64442404007E+007, +3.03724750176E+001, +3.54520178041E+002
+1.66110183639E+007, +2.98646119871E+001, +3.58217287714E+002
+1.67777963272E+007, +3.08432538500E+001, +3.62918974644E+002
+1.69445742905E+007, +3.09293660506E+001, +3.66634308567E+002
+1.71113522538E+007, +2.92830300411E+001, +3.71482572021E+002
+1.72781302170E+007, +3.07828221947E+001, +3.76276766199E+002
+1.74449081803E+007, +2.98097131700E+001, +3.79870642779E+002
+1.76116861436E+007, +3.12428926001E+001, +3.84955283350E+002
+1.77784641068E+007, +3.08785564356E+001, +3.88611481892E+002
+1.79452420701E+007, +3.11192355696E+001, +3.92721138331E+002
+1.81120200334E+007, +3.11588789498E+001, +3.96971049398E+002
+1.82787979967E+007, +3.21682028191E+001, +4.01724362757E+002
+1.84455759599E+007, +3.23038141369E+001, +4.06474488710E+002
+1.86123539232E+007, +3.23324003011E+001, +4.10844882477E+002
+1.87791318865E+007, +3.24330166784E+001, +4.15761697012E+002
+1.89459098497E+007, +3.24558030005E+001, +4.20226506477E+002
+1.91126878130E+007, +3.24881976060E+001, +4.24877854513E+002
+1.92794657763E+007, +3.29094034414E+001, +4.29193800819E+002
+1.94462437396E+007, +3.36632129230E+001, +4.34388847474E+002
+1.96130217028E+007, +3.38625791086E+001, +4.38834349766E+002
+1.97797996661E+007, +3.33994534042E+001, +4.43099857246E+002
+1.99465776294E+007, +3.35750066811E+001, +4.47212642904E+002
+2.01133555927E+007, +3.31978416160E+001, +4.52944502674E+002
+2.02801335559E+007, +3.40534111901E+001, +4.58561001673E+002
+2.04469115192E+007, +3.45697356852E+001, +4.63351915801E+002
+2.06136894825E+007, +3.57311955606E+001, +4.67511740183E+002
+2.07804674457E+007, +3.50832772772E+001, +4.71506977753E+002
+2.09472454090E+007, +3.50478550577E+001, +4.77384417595E+002
+2.11140233723E+007, +3.50057210922E+001, +4.82323199351E+002
+2.12808013356E+007, +3.51075754527E+001, +4.86956413562E+002
+2.14475792988E+007, +3.68592809071E+001, +4.92693604935E+002
+2.16143572621E+007, +3.75628560384E+001, +4.96533978069E+002
+2.17811352254E+007, +3.68371797962E+001, +5.01311356992E+002
+2.19479131886E+007, +3.78079162388E+001, +5.08254657598E+002
+2.21146911519E+007, +3.84782586603E+001, +5.11697798294E+002
+2.22814691152E+007, +3.82348868011E+001, +5.16932124612E+002
+2.24482470785E+007, +3.92750279440E+001, +5.23285579232E+002
+2.26150250417E+007, +4.04506687746E+001, +5.27857849134E+002
+2.27818030050E+007, +3.97205371859E+001, +5.33236660092E+002
+2.29485809683E+007, +4.20300844716E+001, +5.38634937993E+002
+2.31153589316E+007, +4.06178515684E+001, +5.44675803633E+002
+2.32821368948E+007, +4.27276407282E+001, +5.50471985573E+002
+2.34489148581E+007, +4.22786328751E+001, +5.54109379527E+002
+2.36156928214E+007, +4.47500940757E+001, +5.61275656188E+002
+2.37824707846E+007, +4.32793601628E+001, +5.65726257259E+002
+2.39492487479E+007, +4.18236269590E+001, +5.70365953408E+002
+2.41160267112E+007, +4.48707691864E+001, +5.76353574874E+002
+2.42828046745E+007, +4.39736588758E+001, +5.83010443367E+002
+2.44495826377E+007, +4.63808117311E+001, +5.88713436641E+002
+2.46163606010E+007, +4.63352249879E+001, +5.91906985751E+002
+2.47831385643E+007, +4.50592053105E+001, +5.97096621814E+002
+2.49499165275E+007, +4.76977074425E+001, +6.03553702009E+002
+2.51166944908E+007, +4.80486213569E+001, +6.09387496853E+002
+2.52834724541E+007, +4.85107802798E+001, +6.16110519373E+002
+2.54502504174E+007, +4.94242581652E+001, +6.23314476980E+002
+2.56170283806E+007, +4.91569323949E+001, +6.27331117409E+002
+2.57838063439E+007, +5.02411329142E+001, +6.35476399945E+002
+2.59505843072E+007, +4.95237539909E+001, +6.41856281262E+002
+2.61173622705E+007, +5.28387954395E+001, +6.47571122356E+002
+2.62841402337E+007, +5.13041305451E+001, +6.53254847218E+002
+2.64509181970E+007, +5.10555274504E+001, +6.57911956848E+002
+2.66176961603E+007, +5.32718148784E+001, +6.67088285103E+002
+2.67844741235E+007, +5.25136278494E+001, +6.71727394034E+002
+2.69512520868E+007, +5.32081952438E+001, +6.76256519034E+002
+2.71180300501E+007, +5.54868591497E+001, +6.82442279840E+002
+2.72848080134E+007, +5.44087439331E+001, +6.90765676084E+002
+2.74515859766E+007, +5.64582664009E+001, +6.98590810581E+002
+2.76183639399E+007, +5.49932515758E+001, +7.01592718063E+002
+2.77851419032E+007, +5.60943497127E+001, +7.09506288306E+002
+2.79519198664E+007, +5.93692006051E+001, +7.16278733652E+002
+2.81186978297E+007, +5.88920297501E+001, +7.20984876271E+002
+2.82854757930E+007, +5.86577410858E+001, +7.27636784676E+002
+2.84522537563E+007, +5.74847868684E+001, +7.35303510516E+002
+2.86190317195E+007, +5.83612553892E+001, +7.44245973893E+002
+2.87858096828E+007, +6.31769652703E+001, +7.51044970039E+002
+2.89525876461E+007, +6.20807112187E+001, +7.56190719134E+002
+2.91193656093E+007, +6.05633444497E+001, +7.63673433458E+002
+2.92861435726E+007, +6.11584819801E+001, +7.70140229552E+002
+2.94529215359E+007, +6.33323414212E+001, +7.78638040479E+002
+2.96196994992E+007, +6.13636460262E+001, +7.85229943560E+002
+2.97864774624E+007, +6.41775243967E+001, +7.92008699916E+002
+2.99532554257E+007, +6.89932470792E+001, +8.01074358777E+002
+3.01200333890E+007, +6.69244101748E+001, +8.10393163451E+002
+3.02868113523E+007, +6.57044176827E+001, +8.18619822009E+002
+3.04535893155E+007, +6.47234079877E+001, +8.25374561824E+002
+3.06203672788E+007, +6.77961883537E+001, +8.33451380211E+002
+3.07871452421E+007, +6.91100987317E+001, +8.39907421301E+002
+3.09539232053E+007, +6.95511514302E+001, +8.48191311882E+002
+3.11207011686E+007, +6.87140443897E+001, +8.60726444482E+002
+3.12874791319E+007, +6.90759191594E+001, +8.66918006528E+002
+3.14542570952E+007, +7.23862559821E+001, +8.71722266382E+002
+3.16210350584E+007, +6.76768704057E+001, +8.82825104433E+002
+3.17878130217E+007, +7.00133115385E+001, +8.93821885816E+002
+3.19545909850E+007, +7.34601061557E+001, +9.02854971617E+002
+3.21213689482E+007, +6.99280028561E+001, +9.11783072958E+002
+3.22881469115E+007, +7.08038602140E+001, +9.17767460009E+002
+3.24549248748E+007, +7.33701314507E+001, +9.28471824527E+002
+3.26217028381E+007, +7.39660551596E+001, +9.39355806535E+002
+3.27884808013E+007, +7.66758465251E+001, +9.46630377469E+002
+3.29552587646E+007, +7.71755881947E+001, +9.53324626402E+002
+3.31220367279E+007, +7.93286286355E+001, +9.65788792836E+002
+3.32888146912E+007, +7.77659221012E+001, +9.79225507732E+002
+3.34555926544E+007, +7.49331267494E+001, +9.87314915208E+002
+3.36223706177E+007, +7.97412236945E+001, +9.93135645743E+002
+3.37891485810E+007, +7.86303914481E+001, +1.00286787630E+003
+3.39559265442E+007, +8.19434989928E+001, +1.02368687748E+003
+3.41227045075E+007, +8.06202779208E+001, +1.01924674458E+003
+3.42894824708E+007, +7.92027711303E+001, +1.04004213984E+003
+3.44562604341E+007, +8.07302251373E+001, +1.04885574866E+003
+3.46230383973E+007, +8.71461554426E+001, +1.06781210658E+003
+3.47898163606E+007, +8.80448228153E+001, +1.07469649330E+003
+3.49565943239E+007, +9.02688382206E+001, +1.08574388191E+003
+3.51233722871E+007, +9.02118031112E+001, +1.10116986465E+003
+3.52901502504E+007, +9.56856001017E+001, +1.10323422447E+003
+3.54569282137E+007, +8.84001092853E+001, +1.12207499703E+003
+3.56237061770E+007, +8.93726292683E+001, +1.13243217216E+003
+3.57904841402E+007, +9.42124705333E+001, +1.14256726363E+003
+3.59572621035E+007, +9.61526530483E+001, +1.15693335653E+003
+3.61240400668E+007, +9.91019515361E+001, +1.17222804039E+003
+3.62908180301E+007, +1.05638290778E+002, +1.19457615292E+003
+3.64575959933E+007, +9.66730936902E+001, +1.20118069227E+003
+3.66243739566E+007, +1.04998213248E+002, +1.20731391826E+003
+3.67911519199E+007, +1.06681086178E+002, +1.23045338961E+003
+3.69579298831E+007, +1.03555304528E+002, +1.23596852243E+003
+3.71247078464E+007, +1.07334328741E+002, +1.25977175225E+003
+3.72914858097E+007, +1.14286981801E+002, +1.27774584684E+003
+3.74582637730E+007, +1.18251171561E+002, +1.30030758446E+003
+3.76250417362E+007, +1.21001834346E+002, +1.30250166903E+003
+3.77918196995E+007, +1.15627178783E+002, +1.31883470848E+003
+3.79585976628E+007, +1.13836028500E+002, +1.34156454082E+003
+3.81253756260E+007, +1.26497904719E+002, +1.34503795709E+003
+3.82921535893E+007, +1.33823878482E+002, +1.36347195681E+003
+3.84589315526E+007, +1.36008844213E+002, +1.39031863247E+003
+3.86257095159E+007, +1.27500145676E+002, +1.40460941851E+003
+3.87924874791E+007, +1.23825242446E+002, +1.43220870045E+003
+3.89592654424E+007, +1.43028108700E+002, +1.43812556049E+003
+3.91260434057E+007, +1.47943367387E+002, +1.46062236394E+003
+3.92928213689E+007, +1.50848121810E+002, +1.47811120423E+003
+3.94595993322E+007, +1.41678521540E+002, +1.50199149947E+003
+3.96263772955E+007, +1.46024665489E+002, +1.52027562829E+003
+3.97931552588E+007, +1.43341578672E+002, +1.53641942674E+003
+3.99599332220E+007, +1.53432271379E+002, +1.55561576199E+003
+4.01267111853E+007, +1.61379552751E+002, +1.58040297340E+003
+4.02934891486E+007, +1.59521696911E+002, +1.59569928795E+003
+4.04602671119E+007, +1.67647335648E+002, +1.62636823815E+003
+4.06270450751E+007, +1.76352496030E+002, +1.64781886250E+003
+4.07938230384E+007, +1.76335269057E+002, +1.67104746358E+003
+4.09606010017E+007, +1.77600637318E+002, +1.68875135173E+003
+4.11273789649E+007, +1.81358040025E+002, +1.70735874447E+003
+4.12941569282E+007, +1.93694682705E+002, +1.75311452583E+003
+4.14609348915E+007, +2.02613732349E+002, +1.78113527854E+003
+4.16277128548E+007, +2.12189743151E+002, +1.79868056370E+003
+4.17944908180E+007, +1.99803888834E+002, +1.81536633480E+003
+4.19612687813E+007, +2.09214593741E+002, +1.85889587906E+003
+4.21280467446E+007, +2.05989089181E+002, +1.89405406823E+003
+4.22948247078E+007, +2.30414336808E+002, +1.92229467120E+003
+4.24616026711E+007, +2.31168764474E+002, +1.94808736650E+003
+4.26283806344E+007, +2.44062873518E+002, +1.97257171093E+003
+4.27951585977E+007, +2.23146529028E+002, +2.03785960260E+003
+4.29619365609E+007, +2.54535222947E+002, +2.05928239419E+003
+4.31287145242E+007, +2.72882344678E+002, +2.09584546257E+003
+4.32954924875E+007, +2.64568755750E+002, +2.13655711489E+003
+4.34622704508E+007, +2.83496107914E+002, +2.17107153393E+003
+4.36290484140E+007, +3.16505431658E+002, +2.20518198060E+003
+4.37958263773E+007, +3.01566574194E+002, +2.25637131092E+003
+4.39626043406E+007, +3.14903293250E+002, +2.29070643721E+003
+4.41293823038E+007, +3.32137770427E+002, +2.34478832577E+003
+4.42961602671E+007, +3.26977858757E+002, +2.37722161274E+003
+4.44629382304E+007, +3.48975067294E+002, +2.42887524048E+003
+4.46297161937E+007, +3.72736426894E+002, +2.49305587917E+003
+4.47964941569E+007, +3.75668843132E+002, +2.53410013090E+003
+4.49632721202E+007, +3.93740706892E+002, +2.58819703827E+003
+4.51300500835E+007, +4.05520858932E+002, +2.64769976730E+003
+4.52968280467E+007, +4.73474903582E+002, +2.71253278638E+003
+4.54636060100E+007, +4.68937319473E+002, +2.78232681714E+003
+4.56303839733E+007, +4.84433508398E+002, +2.88852854777E+003
+4.57971619366E+007, +5.38894398897E+002, +2.91733679880E+003
+4.59639398998E+007, +5.83888736686E+002, +3.01648170297E+003
+4.61307178631E+007, +6.01817706460E+002, +3.08522466885E+003
+4.62974958264E+007, +6.64191954076E+002, +3.15960662620E+003
+4.64642737896E+007, +6.40467056623E+002, +3.21838675200E+003
+4.66310517529E+007, +6.85264877848E+002, +3.38912961185E+003
+4.67978297162E+007, +8.19308581528E+002, +3.41376059824E+003
+4.69646076795E+007, +8.24399738587E+002, +3.56039920351E+003
+4.71313856427E+007, +8.47958783206E+002, +3.62634002122E+003
+4.72981636060E+007, +9.53221507425E+002, +3.74113405926E+003
+4.74649415693E+007, +9.62644608764E+002, +3.86068583056E+003
+4.76317195326E+007, +1.14101700850E+003, +3.92091424226E+003
+4.77984974958E+007, +1.19975952490E+003, +4.01808997092E+003
+4.79652754591E+007, +1.34909583592E+003, +4.14371968326E+003
+4.81320534224E+007, +1.44616855290E+003, +4.26599532055E+003
+4.82988313856E+007, +1.60205776451E+003, +4.36635464549E+003
+4.84656093489E+007, +1.75849103917E+003, +4.49396592266E+003
+4.86323873122E+007, +1.88604738869E+003, +4.57959571483E+003
+4.87991652755E+007, +2.04860762333E+003, +4.71837135269E+003
+4.89659432387E+007, +2.15372754786E+003, +4.87082554986E+003
+4.91327212020E+007, +2.60627580406E+003, +5.14246664219E+003
+4.92994991653E+007, +2.61143278652E+003, +5.05510355690E+003
+4.94662771285E+007, +2.91932713862E+003, +5.22526529025E+003
+4.96330550918E+007, +3.23377330139E+003, +5.11522665214E+003
+4.97998330551E+007, +3.55109968945E+003, +5.30678287221E+003
+4.99666110184E+007, +3.81717426043E+003, +5.18279201428E+003
+5.01333889816E+007, +4.09327154725E+003, +5.37104574504E+003
+5.03001669449E+007, +4.35807230202E+003, +5.61416097536E+003
+5.04669449082E+007, +4.89290382213E+003, +5.48340255052E+003
+5.06337228715E+007, +5.09249729440E+003, +5.13422133878E+003
+5.08005008347E+007, +5.27154666630E+003, +5.59348243388E+003
+5.09672787980E+007, +5.82169420212E+003, +5.33083628263E+003
+5.11340567613E+007, +6.36414782667E+003, +5.20522607889E+003
+5.13008347245E+007, +6.98192140633E+003, +5.23944151818E+003
+5.14676126878E+007, +7.06421360543E+003, +5.17628007860E+003
+5.16343906511E+007, +7.82768507284E+003, +4.76861548423E+003
+5.18011686144E+007, +8.22498922223E+003, +4.99205961960E+003
+5.19679465776E+007, +8.95230781379E+003, +4.48482020844E+003
+5.21347245409E+007, +9.41555296601E+003, +3.65091071273E+003
+5.23015025042E+007, +1.01901240198E+004, +2.29584612617E+003
+5.24682804674E+007, +1.12633648714E+004, +2.28836080089E+003
+5.26350584307E+007, +1.15579350040E+004, +1.70026163466E+003
+5.28018363940E+007, +1.21133208034E+004, -2.38166899789E+002
+5.29686143573E+007, +1.19932901432E+004, -1.60219632981E+003
+5.31353923205E+007, +1.17938889661E+004, -2.03094236982E+003
+5.33021702838E+007, +1.10861455832E+004, -3.96659224319E+003
+5.34689482471E+007, +9.68824462450E+003, -4.75138293289E+003
