"# Channel 1"
"# Trace 1"
Frequency, Formatted Data, Formatted Data
+1.00000000000E+005, +7.22764158176E+001, +2.30733617704E+000
+3.18898623279E+005, +7.22589633694E+001, +6.63490067009E+000
+5.37797246558E+005, +7.23015149755E+001, +1.11891400122E+001
+7.56695869837E+005, +7.22382090114E+001, +1.57155259696E+001
+9.75594493116E+005, +7.22797621002E+001, +2.03244076490E+001
+1.19449311640E+006, +7.23528764305E+001, +2.47385946021E+001
+1.41339173967E+006, +7.21797931445E+001, +2.92994693180E+001
+1.63229036295E+006, +7.22996633565E+001, +3.37481852755E+001
+1.85118898623E+006, +7.24330903565E+001, +3.83823461087E+001
+2.07008760951E+006, +7.22444501468E+001, +4.29725943109E+001
+2.28898623279E+006, +7.23501455057E+001, +4.76932958230E+001
+2.50788485607E+006, +7.24182473304E+001, +5.19762382629E+001
+2.72678347935E+006, +7.22443777824E+001, +5.68134565095E+001
+2.94568210263E+006, +7.24454656770E+001, +6.11242674078E+001
+3.16458072591E+006, +7.22998282055E+001, +6.59531676775E+001
+3.38347934919E+006, +7.25749253344E+001, +7.04549182526E+001
+3.60237797247E+006, +7.25417646627E+001, +7.49575346329E+001
+3.82127659574E+006, +7.27373057938E+001, +7.92808963672E+001
+4.04017521902E+006, +7.29576518302E+001, +8.40323649099E+001
+4.25907384230E+006, +7.26725928882E+001, +8.86556760316E+001
+4.47797246558E+006, +7.27806726027E+001, +9.31361255076E+001
+4.69687108886E+006, +7.27129363929E+001, +9.80288922572E+001
+4.91576971214E+006, +7.28740784465E+001, +1.02670535212E+002
+5.13466833542E+006, +7.28314524618E+001, +1.06920503344E+002
+5.35356695870E+006, +7.30649408815E+001, +1.11570658667E+002
+5.57246558198E+006, +7.31100841403E+001, +1.16183550893E+002
+5.79136420526E+006, +7.35294013639E+001, +1.20856456032E+002
+6.01026282854E+006, +7.34542346998E+001, +1.25194381844E+002
+6.22916145181E+006, +7.36953463873E+001, +1.29948048688E+002
+6.44806007509E+006, +7.35668680067E+001, +1.34682222228E+002
+6.66695869837E+006, +7.39297828904E+001, +1.39246717558E+002
+6.88585732165E+006, +7.37678777091E+001, +1.44315496743E+002
+7.10475594493E+006, +7.41763386047E+001, +1.48540807923E+002
+7.32365456821E+006, +7.41582436077E+001, +1.53346099788E+002
+7.54255319149E+006, +7.42956505705E+001, +1.57699129390E+002
+7.76145181477E+006, +7.46922297529E+001, +1.62650162634E+002
+7.98035043805E+006, +7.48114472556E+001, +1.67285245395E+002
+8.19924906133E+006, +7.47937279651E+001, +1.71959836797E+002
+8.41814768461E+006, +7.51599298271E+001, +1.76822783681E+002
+8.63704630788E+006, +7.52250921520E+001, +1.81440564206E+002
+8.85594493116E+006, +7.53537730589E+001, +1.86235239418E+002
+9.07484355444E+006, +7.54433349851E+001, +1.91143995497E+002
+9.29374217772E+006, +7.54712043107E+001, +1.96093226482E+002
+9.51264080100E+006, +7.57756389180E+001, +2.00761038391E+002
+9.73153942428E+006, +7.60130674247E+001, +2.05562292564E+002
+9.95043804756E+006, +7.57288822226E+001, +2.10165415385E+002
+1.01693366708E+007, +7.61246162814E+001, +2.15070018247E+002
+1.03882352941E+007, +7.64946163626E+001, +2.19644795175E+002
+1.06071339174E+007, +7.66033081753E+001, +2.24752285348E+002
+1.08260325407E+007, +7.66060794407E+001, +2.29640296162E+002
+1.10449311640E+007, +7.66541438765E+001, +2.34452368741E+002
+1.12638297872E+007, +7.69483405890E+001, +2.39837792296E+002
+1.14827284105E+007, +7.76026372256E+001, +2.44343961248E+002
+1.17016270338E+007, +7.74862437738E+001, +2.49579552563E+002
+1.19205256571E+007, +7.79469510678E+001, +2.53997499176E+002
+1.21394242804E+007, +7.85163815471E+001, +2.59268951685E+002
+1.23583229036E+007, +7.84060830869E+001, +2.64523179998E+002
+1.25772215269E+007, +7.86537855336E+001, +2.69346753968E+002
+1.27961201502E+007, +7.86580257173E+001, +2.74020015174E+002
+1.30150187735E+007, +7.89496888816E+001, +2.78972849320E+002
+1.32339173967E+007, +7.92767535063E+001, +2.84516471300E+002
+1.34528160200E+007, +7.90956440736E+001, +2.89516090986E+002
+1.36717146433E+007, +7.97955160053E+001, +2.94537649665E+002
+1.38906132666E+007, +7.99450756608E+001, +3.00109713116E+002
+1.41095118899E+007, +8.01825788436E+001, +3.05032033636E+002
+1.43284105131E+007, +8.02409396579E+001, +3.10457532375E+002
+1.45473091364E+007, +8.08901665568E+001, +3.15604411543E+002
+1.47662077597E+007, +8.10866836881E+001, +3.19945156509E+002
+1.49851063830E+007, +8.15214137382E+001, +3.25436954476E+002
+1.52040050063E+007, +8.14136024783E+001, +3.31348950382E+002
+1.54229036295E+007, +8.25391206133E+001, +3.36679072346E+002
+1.56418022528E+007, +8.14087359913E+001, +3.42546987661E+002
+1.58607008761E+007, +8.23939687044E+001, +3.47126531774E+002
+1.60795994994E+007, +8.24938127630E+001, +3.53391923264E+002
+1.62984981227E+007, +8.31188223403E+001, +3.58298811423E+002
+1.65173967459E+007, +8.30009449839E+001, +3.64170300476E+002
+1.67362953692E+007, +8.40236372560E+001, +3.69437028516E+002
+1.69551939925E+007, +8.43927704797E+001, +3.72939369331E+002
+1.71740926158E+007, +8.28801434146E+001, +3.80981768562E+002
+1.73929912390E+007, +8.35812271638E+001, +3.85724672051E+002
+1.76118898623E+007, +8.41467064580E+001, +3.91210130423E+002
+1.78307884856E+007, +8.54405731907E+001, +3.96001741411E+002
+1.80496871089E+007, +8.58344551231E+001, +4.02156650046E+002
+1.82685857322E+007, +8.56831725693E+001, +4.08425107650E+002
+1.84874843554E+007, +8.63180892396E+001, +4.13554416641E+002
+1.87063829787E+007, +8.60501574363E+001, +4.20547386927E+002
+1.89252816020E+007, +8.68319484094E+001, +4.26354792455E+002
+1.91441802253E+007, +8.76741110710E+001, +4.30204699750E+002
+1.93630788486E+007, +8.77110104014E+001, +4.37557692029E+002
+1.95819774718E+007, +8.89589811507E+001, +4.42331373269E+002
+1.98008760951E+007, +8.92447092766E+001, +4.48770443854E+002
+2.00197747184E+007, +8.97088398451E+001, +4.54296957314E+002
+2.02386733417E+007, +8.87936236042E+001, +4.60255309380E+002
+2.04575719650E+007, +9.05410918977E+001, +4.65696594586E+002
+2.06764705882E+007, +9.12396755758E+001, +4.72342899010E+002
+2.08953692115E+007, +9.19788229753E+001, +4.79205980110E+002
+2.11142678348E+007, +9.19061661531E+001, +4.84924310758E+002
+2.13331664581E+007, +9.34939665566E+001, +4.91647347657E+002
+2.15520650814E+007, +9.25905470963E+001, +4.95491841833E+002
+2.17709637046E+007, +9.29085189083E+001, +5.03902174829E+002
+2.19898623279E+007, +9.53769952084E+001, +5.10773152889E+002
+2.22087609512E+007, +9.33283673175E+001, +5.15871437539E+002
+2.24276595745E+007, +9.65265313032E+001, +5.24284080745E+002
+2.26465581977E+007, +9.61471339952E+001, +5.28898547397E+002
+2.28654568210E+007, +9.66577981172E+001, +5.34436591002E+002
+2.30843554443E+007, +9.61739984246E+001, +5.42593917102E+002
+2.33032540676E+007, +9.99433038429E+001, +5.48423752479E+002
+2.35221526909E+007, +9.84872795290E+001, +5.56755363695E+002
+2.37410513141E+007, +9.74359164678E+001, +5.60618784495E+002
+2.39599499374E+007, +9.86308871102E+001, +5.68806873865E+002
+2.41788485607E+007, +1.00580389259E+002, +5.74138096657E+002
+2.43977471840E+007, +1.02120931032E+002, +5.83806975135E+002
+2.46166458073E+007, +1.01457293539E+002, +5.90604344282E+002
+2.48355444305E+007, +1.01993136453E+002, +5.96792537065E+002
+2.50544430538E+007, +1.04769741121E+002, +6.03917420079E+002
+2.52733416771E+007, +1.06021240128E+002, +6.09955484707E+002
+2.54922403004E+007, +1.05771835933E+002, +6.16748187762E+002
+2.57111389237E+007, +1.07242207251E+002, +6.26159585149E+002
+2.59300375469E+007, +1.07513746517E+002, +6.31231598402E+002
+2.61489361702E+007, +1.08630271054E+002, +6.39785901772E+002
+2.63678347935E+007, +1.06391292291E+002, +6.49421724523E+002
+2.65867334168E+007, +1.11246624717E+002, +6.55005282715E+002
+2.68056320401E+007, +1.12069921661E+002, +6.62469664878E+002
+2.70245306633E+007, +1.11501104773E+002, +6.68046145918E+002
+2.72434292866E+007, +1.13226833015E+002, +6.75761971210E+002
+2.74623279099E+007, +1.14465388820E+002, +6.85801484332E+002
+2.76812265332E+007, +1.15146451509E+002, +6.92367332488E+002
+2.79001251564E+007, +1.15173424433E+002, +7.02873355222E+002
+2.81190237797E+007, +1.20339673798E+002, +7.07950313366E+002
+2.83379224030E+007, +1.18797184997E+002, +7.14245027934E+002
+2.85568210263E+007, +1.17691019061E+002, +7.23628060255E+002
+2.87757196496E+007, +1.15714827738E+002, +7.33461560992E+002
+2.89946182728E+007, +1.18037359464E+002, +7.45244821839E+002
+2.92135168961E+007, +1.20480479214E+002, +7.51175665456E+002
+2.94324155194E+007, +1.21963266548E+002, +7.59376940137E+002
+2.96513141427E+007, +1.21479810586E+002, +7.68789110564E+002
+2.98702127660E+007, +1.21673845631E+002, +7.72882874430E+002
+3.00891113892E+007, +1.21630436453E+002, +7.82516600590E+002
+3.03080100125E+007, +1.27094825201E+002, +7.90785939962E+002
+3.05269086358E+007, +1.30968314055E+002, +8.01801467805E+002
+3.07458072591E+007, +1.28844581181E+002, +8.04303400362E+002
+3.09647058824E+007, +1.29417339057E+002, +8.16850764342E+002
+3.11836045056E+007, +1.31751238342E+002, +8.30114225842E+002
+3.14025031289E+007, +1.29919081142E+002, +8.39488342584E+002
+3.16214017522E+007, +1.34215722799E+002, +8.45095808596E+002
+3.18403003755E+007, +1.34560787642E+002, +8.61981648030E+002
+3.20591989987E+007, +1.37933574136E+002, +8.64695164126E+002
+3.22780976220E+007, +1.36527249599E+002, +8.76902442951E+002
+3.24969962453E+007, +1.32811523363E+002, +8.86842217738E+002
+3.27158948686E+007, +1.38024408586E+002, +8.97945034690E+002
+3.29347934919E+007, +1.40064349266E+002, +9.04874614883E+002
+3.31536921151E+007, +1.40426214620E+002, +9.11645333033E+002
+3.33725907384E+007, +1.41041107839E+002, +9.30205022210E+002
+3.35914893617E+007, +1.42261542064E+002, +9.39574517012E+002
+3.38103879850E+007, +1.43844813850E+002, +9.46969935564E+002
+3.40292866083E+007, +1.47309845652E+002, +9.61211354841E+002
+3.42481852315E+007, +1.51985531648E+002, +9.69915682265E+002
+3.44670838548E+007, +1.52567069124E+002, +9.80283059280E+002
+3.46859824781E+007, +1.55943639030E+002, +9.91135662740E+002
+3.49048811014E+007, +1.61215701395E+002, +1.00572715366E+003
+3.51237797247E+007, +1.57579444588E+002, +1.01504097232E+003
+3.53426783479E+007, +1.59163999790E+002, +1.03225501605E+003
+3.55615769712E+007, +1.58960688928E+002, +1.04489442606E+003
+3.57804755945E+007, +1.66551134655E+002, +1.04765632128E+003
+3.59993742178E+007, +1.65010750978E+002, +1.07073836163E+003
+3.62182728411E+007, +1.67711299229E+002, +1.07249954806E+003
+3.64371714643E+007, +1.66720286393E+002, +1.08573115179E+003
+3.66560700876E+007, +1.72538863188E+002, +1.10402925835E+003
+3.68749687109E+007, +1.69532126691E+002, +1.12617674828E+003
+3.70938673342E+007, +1.82745874926E+002, +1.13295028363E+003
+3.73127659574E+007, +1.76038278952E+002, +1.13881967808E+003
+3.75316645807E+007, +1.76754462548E+002, +1.15744154203E+003
+3.77505632040E+007, +1.82592891304E+002, +1.17268604536E+003
+3.79694618273E+007, +1.87841427803E+002, +1.18194794442E+003
+3.81883604506E+007, +1.81116787408E+002, +1.19927169533E+003
+3.84072590738E+007, +1.82379097115E+002, +1.21526066776E+003
+3.86261576971E+007, +1.86839894519E+002, +1.23483956267E+003
+3.88450563204E+007, +1.97551357175E+002, +1.24216011951E+003
+3.90639549437E+007, +2.12404794755E+002, +1.25394193168E+003
+3.92828535670E+007, +2.06424041405E+002, +1.28185698862E+003
+3.95017521902E+007, +2.13298162405E+002, +1.29115090706E+003
+3.97206508135E+007, +2.13886203157E+002, +1.32285374686E+003
+3.99395494368E+007, +2.24915215504E+002, +1.33526092002E+003
+4.01584480601E+007, +2.31644013881E+002, +1.33837422025E+003
+4.03773466834E+007, +2.30348381637E+002, +1.37041080732E+003
+4.05962453066E+007, +2.25019926965E+002, +1.38273277367E+003
+4.08151439299E+007, +2.38670962814E+002, +1.39539836829E+003
+4.10340425532E+007, +2.28430886062E+002, +1.41195034046E+003
+4.12529411765E+007, +2.39751625066E+002, +1.42513844669E+003
+4.14718397997E+007, +2.44859179905E+002, +1.45475489281E+003
+4.16907384230E+007, +2.47152815698E+002, +1.46667278730E+003
+4.19096370463E+007, +2.56008436536E+002, +1.49481036215E+003
+4.21285356696E+007, +2.65992072954E+002, +1.50999508386E+003
+4.23474342929E+007, +2.65061915542E+002, +1.53594147380E+003
+4.25663329161E+007, +2.77765840514E+002, +1.54193701928E+003
+4.27852315394E+007, +2.75228114347E+002, +1.57242270051E+003
+4.30041301627E+007, +2.90144050997E+002, +1.59950336058E+003
+4.32230287860E+007, +2.96252385330E+002, +1.62895417179E+003
+4.34419274093E+007, +2.98360316694E+002, +1.65403463335E+003
+4.36608260325E+007, +3.05858719797E+002, +1.66286179117E+003
+4.38797246558E+007, +3.05495234092E+002, +1.68820739437E+003
+4.40986232791E+007, +2.95711655326E+002, +1.71666719470E+003
+4.43175219024E+007, +3.25170567602E+002, +1.74303244274E+003
+4.45364205257E+007, +3.50305887443E+002, +1.77847330536E+003
+4.47553191489E+007, +3.55095690957E+002, +1.79708596801E+003
+4.49742177722E+007, +3.47191729999E+002, +1.83446667682E+003
+4.51931163955E+007, +3.56684740739E+002, +1.85012821302E+003
+4.54120150188E+007, +3.59544864582E+002, +1.86991940902E+003
+4.56309136421E+007, +3.73614758506E+002, +1.89655736789E+003
+4.58498122653E+007, +3.76908011576E+002, +1.90846719832E+003
+4.60687108886E+007, +3.85710030885E+002, +1.97829925132E+003
+4.62876095119E+007, +4.15214333829E+002, +1.99940668278E+003
+4.65065081352E+007, +4.41502660130E+002, +2.03020390002E+003
+4.67254067584E+007, +4.26308988071E+002, +2.04378044064E+003
+4.69443053817E+007, +4.58113221724E+002, +2.08446373370E+003
+4.71632040050E+007, +4.39460615539E+002, +2.14607300116E+003
+4.73821026283E+007, +4.89109428949E+002, +2.16056981866E+003
+4.76010012516E+007, +5.05760608625E+002, +2.20452118396E+003
+4.78198998748E+007, +5.06485492924E+002, +2.24147000535E+003
+4.80387984981E+007, +5.11014163676E+002, +2.27848429040E+003
+4.82576971214E+007, +5.40263903980E+002, +2.31709757198E+003
+4.84765957447E+007, +5.47153926164E+002, +2.35994576988E+003
+4.86954943680E+007, +5.66527504672E+002, +2.40253064390E+003
+4.89143929912E+007, +5.95784026172E+002, +2.45087274545E+003
+4.91332916145E+007, +6.06698732341E+002, +2.49047993922E+003
+4.93521902378E+007, +6.31850683178E+002, +2.53289245379E+003
+4.95710888611E+007, +6.84393460733E+002, +2.58279669311E+003
+4.97899874844E+007, +7.02307129220E+002, +2.58932980226E+003
+5.00088861076E+007, +7.06356127626E+002, +2.65662515555E+003
+5.02277847309E+007, +7.42204487738E+002, +2.75129134346E+003
+5.04466833542E+007, +7.79666898999E+002, +2.77135950906E+003
+5.06655819775E+007, +7.85499157239E+002, +2.83127824452E+003
+5.08844806008E+007, +8.23931913916E+002, +2.86576793922E+003
+5.11033792240E+007, +8.92245237323E+002, +2.94470623207E+003
+5.13222778473E+007, +8.68881614239E+002, +3.03058111855E+003
+5.15411764706E+007, +9.25251212045E+002, +3.06920713203E+003
+5.17600750939E+007, +1.02389059024E+003, +3.14275809227E+003
+5.19789737171E+007, +1.02390416881E+003, +3.19872401635E+003
+5.21978723404E+007, +1.04132257977E+003, +3.27567712761E+003
+5.24167709637E+007, +1.05154198138E+003, +3.39176644469E+003
+5.26356695870E+007, +1.16073747204E+003, +3.37760133672E+003
+5.28545682103E+007, +1.26212811363E+003, +3.55738984436E+003
+5.30734668335E+007, +1.32709099415E+003, +3.67323156955E+003
+5.32923654568E+007, +1.32962894792E+003, +3.76796202797E+003
+5.35112640801E+007, +1.45354992261E+003, +3.77377063262E+003
+5.37301627034E+007, +1.48870394445E+003, +3.93708957133E+003
+5.39490613267E+007, +1.65889506126E+003, +4.09848440146E+003
+5.41679599499E+007, +1.63001623215E+003, +4.17030949738E+003
+5.43868585732E+007, +1.79192525607E+003, +4.21910343537E+003
+5.46057571965E+007, +1.94415599821E+003, +4.38117397367E+003
+5.48246558198E+007, +1.98941243021E+003, +4.45127215927E+003
+5.50435544431E+007, +2.27285053975E+003, +4.66964809069E+003
+5.52624530663E+007, +2.40445731779E+003, +4.82283393349E+003
+5.54813516896E+007, +2.47882195213E+003, +4.77275010577E+003
+5.57002503129E+007, +2.77828947037E+003, +4.82969388132E+003
+5.59191489362E+007, +2.91228735451E+003, +5.05143140387E+003
+5.61380475594E+007, +3.14012857139E+003, +5.22237433882E+003
+5.63569461827E+007, +3.60541937016E+003, +5.35803543547E+003
+5.65758448060E+007, +3.74356360229E+003, +5.37830347513E+003
+5.67947434293E+007, +4.16003091027E+003, +5.47305908716E+003
+5.70136420526E+007, +4.43997698655E+003, +5.57656370057E+003
+5.72325406758E+007, +4.82501347806E+003, +5.70419495556E+003
+5.74514392991E+007, +5.43274257291E+003, +5.85386900963E+003
+5.76703379224E+007, +5.66573695450E+003, +5.78030415446E+003
+5.78892365457E+007, +6.29952540420E+003, +6.00069110475E+003
+5.81081351690E+007, +6.74287461494E+003, +4.98866299709E+003
+5.83270337922E+007, +7.35574251542E+003, +5.66600430764E+003
+5.85459324155E+007, +7.63096045331E+003, +4.83267019201E+003
+5.87648310388E+007, +8.62765725317E+003, +4.98948630314E+003
+5.89837296621E+007, +9.09899437799E+003, +4.52576759358E+003
+5.92026282854E+007, +9.53017146416E+003, +3.31026709448E+003
+5.94215269086E+007, +1.01656199033E+004, +3.26143991778E+003
+5.96404255319E+007, +1.05842895407E+004, +2.43896096382E+003
+5.98593241552E+007, +1.05239341215E+004, +1.85375255506E+003
+6.00782227785E+007, +1.10599960533E+004, +6.66078183809E+002
+6.02971214018E+007, +1.12904914160E+004, -1.53888545780E+002
+6.05160200250E+007, +1.09470154785E+004, -7.51981259869E+002
+6.07349186483E+007, +1.03964082330E+004, -1.63792755814E+003
+6.09538172716E+007, +1.04345630150E+004, -2.64453626985E+003
+6.11727158949E+007, +9.33191831811E+003, -3.34152144297E+003
+6.13916145181E+007, +9.49668798780E+003, -4.18039451664E+003
+6.16105131414E+007, +9.05597666175E+003, -4.27698508615E+003
+6.18294117647E+007, +8.60030979560E+003, -4.67828108269E+003
+6.20483103880E+007, +7.84637469072E+003, -4.82319449583E+003
+6.22672090113E+007, +6.89439959465E+003, -5.12987553416E+003
+6.24861076345E+007, +6.54847582690E+003, -5.20114395640E+003
+6.27050062578E+007, +6.04787169341E+003, -5.10332570381E+003
+6.29239048811E+007, +5.44276794790E+003, -5.62290306868E+003
+6.31428035044E+007, +5.13369904553E+003, -5.36494352653E+003
+6.33617021277E+007, +4.53598173911E+003, -5.29146150861E+003
+6.35806007509E+007, +4.31023819316E+003, -5.30849097357E+003
+6.37994993742E+007, +4.01407471204E+003, -5.20293741466E+003
+6.40183979975E+007, +3.79376092254E+003, -5.00115152846E+003
+6.42372966208E+007, +3.44393781752E+003, -5.01249593236E+003
+6.44561952441E+007, +3.27663397083E+003, -4.73540364652E+003
+6.46750938673E+007, +2.91046126012E+003, -4.52357653411E+003
+6.48939924906E+007, +2.78929364185E+003, -4.46114100280E+003
+6.51128911139E+007, +2.47140669114E+003, -4.38349382480E+003
+6.53317897372E+007, +2.47307951280E+003, -4.10421377870E+003
+6.55506883605E+007, +2.23875390394E+003, -4.01327652190E+003
+6.57695869837E+007, +2.16204841028E+003, -3.96980110392E+003
+6.59884856070E+007, +2.08290306070E+003, -3.78539092433E+003
+6.62073842303E+007, +1.89562044519E+003, -3.73746194316E+003
+6.64262828536E+007, +1.86533413923E+003, -3.65581188035E+003
+6.66451814768E+007, +1.78005977625E+003, -3.57050530904E+003
+6.68640801001E+007, +1.71248917322E+003, -3.46740958729E+003
+6.70829787234E+007, +1.63059620624E+003, -3.37369435120E+003
+6.73018773467E+007, +1.56583415025E+003, -3.29701631696E+003
+6.75207759700E+007, +1.52136025150E+003, -3.16629110906E+003
+6.77396745932E+007, +1.42741174071E+003, -3.17976688800E+003
+6.79585732165E+007, +1.43697641520E+003, -3.02536862375E+003
+6.81774718398E+007, +1.30247372251E+003, -3.01957718673E+003
+6.83963704631E+007, +1.32579145826E+003, -2.91797530015E+003
+6.86152690864E+007, +1.27767315348E+003, -2.83467751236E+003
+6.88341677096E+007, +1.21192879526E+003, -2.79709632872E+003
+6.90530663329E+007, +1.18393651603E+003, -2.71709138197E+003
+6.92719649562E+007, +1.17044824713E+003, -2.66349037833E+003
+6.94908635795E+007, +1.13012578809E+003, -2.61541054028E+003
+6.97097622028E+007, +1.08991997035E+003, -2.56472752300E+003
+6.99286608260E+007, +1.06637220199E+003, -2.54184079611E+003
+7.01475594493E+007, +1.00905883793E+003, -2.45631828133E+003
