"# Channel 1"
"# Trace 1"
Frequency, Formatted Data, Formatted Data
+1.00000000000E+005, +1.90105326986E-001, +1.75249241838E+000
+2.87609511890E+005, +2.38382854627E-001, +5.06126674885E+000
+4.75219023780E+005, +2.16978816948E-001, +8.31290533696E+000
+6.62828535670E+005, +2.90206150016E-001, +1.16141872284E+001
+8.50438047559E+005, +3.21174730154E-001, +1.48274032361E+001
+1.03804755945E+006, +3.63922486877E-001, +1.80241538470E+001
+1.22565707134E+006, +3.77232864269E-001, +2.12535060709E+001
+1.41326658323E+006, +3.76766009289E-001, +2.44918141017E+001
+1.60087609512E+006, +3.92151349963E-001, +2.77325624106E+001
+1.78848560701E+006, +3.93122213810E-001, +3.09570372860E+001
+1.97609511890E+006, +4.06475840961E-001, +3.41938995515E+001
+2.16370463079E+006, +3.85971971122E-001, +3.73705708069E+001
+2.35131414268E+006, +3.60444465494E-001, +4.05625207164E+001
+2.53892365457E+006, +4.08295280815E-001, +4.39009739842E+001
+2.72653316646E+006, +3.35045916259E-001, +4.71400759056E+001
+2.91414267835E+006, +4.03240534857E-001, +5.03443893207E+001
+3.10175219024E+006, +4.86015127010E-001, +5.36543648443E+001
+3.28936170213E+006, +4.69278271068E-001, +5.69014380655E+001
+3.47697121402E+006, +3.14062094694E-001, +6.01490883507E+001
+3.66458072591E+006, +4.89583312738E-001, +6.33732540943E+001
+3.85219023780E+006, +4.21536412872E-001, +6.66079018785E+001
+4.03979974969E+006, +4.41188743310E-001, +6.99602688619E+001
+4.22740926158E+006, +5.50027909675E-001, +7.31873982259E+001
+4.41501877347E+006, +4.11524958832E-001, +7.62171655936E+001
+4.60262828536E+006, +3.11992863553E-001, +7.95371809314E+001
+4.79023779725E+006, +4.03718423328E-001, +8.28541752254E+001
+4.97784730914E+006, +4.29183992350E-001, +8.61825160679E+001
+5.16545682103E+006, +4.13269187591E-001, +8.93755398942E+001
+5.35306633292E+006, +4.61827604401E-001, +9.27880689963E+001
+5.54067584481E+006, +4.15684586179E-001, +9.60758073413E+001
+5.72828535670E+006, +2.50202815629E-001, +9.94360390650E+001
+5.91589486859E+006, +3.94514277272E-001, +1.02643761610E+002
+6.10350438048E+006, +2.70316137351E-001, +1.06103793378E+002
+6.29111389237E+006, +5.75405945367E-001, +1.09344604141E+002
+6.47872340426E+006, +4.15601220119E-001, +1.12781353115E+002
+6.66633291615E+006, +5.69465956021E-001, +1.16003182446E+002
+6.85394242804E+006, +5.81801268007E-001, +1.19544916739E+002
+7.04155193992E+006, +6.41056448945E-001, +1.22700834528E+002
+7.22916145181E+006, +6.85538260599E-001, +1.26038403154E+002
+7.41677096370E+006, +5.81884079961E-001, +1.29467782845E+002
+7.60438047559E+006, +5.66671231557E-001, +1.32870738332E+002
+7.79198998748E+006, +6.74951433263E-001, +1.36230279803E+002
+7.97959949937E+006, +5.61386242744E-001, +1.39616125873E+002
+8.16720901126E+006, +5.85227853908E-001, +1.43053510386E+002
+8.35481852315E+006, +6.50938911249E-001, +1.46397854414E+002
+8.54242803504E+006, +6.68051213759E-001, +1.49748053797E+002
+8.73003754693E+006, +6.84996718772E-001, +1.53296520912E+002
+8.91764705882E+006, +6.51421286289E-001, +1.56559937459E+002
+9.10525657071E+006, +6.40905512749E-001, +1.60003469445E+002
+9.29286608260E+006, +5.78497689618E-001, +1.63562111626E+002
+9.48047559449E+006, +6.91148280080E-001, +1.66849191568E+002
+9.66808510638E+006, +6.45335826351E-001, +1.70383334501E+002
+9.85569461827E+006, +6.70673719202E-001, +1.73685746868E+002
+1.00433041302E+007, +6.55258530080E-001, +1.77150137770E+002
+1.02309136421E+007, +6.07974552313E-001, +1.80724366192E+002
+1.04185231539E+007, +8.27274213239E-001, +1.84048768308E+002
+1.06061326658E+007, +6.85901800751E-001, +1.87647535528E+002
+1.07937421777E+007, +5.54245577497E-001, +1.91247048153E+002
+1.09813516896E+007, +7.97559517246E-001, +1.94703814527E+002
+1.11689612015E+007, +4.81790378473E-001, +1.98258652228E+002
+1.13565707134E+007, +4.89211482629E-001, +2.01741839110E+002
+1.15441802253E+007, +5.40687764000E-001, +2.05392843982E+002
+1.17317897372E+007, +4.12848900596E-001, +2.08733338899E+002
+1.19193992491E+007, +5.54884157927E-001, +2.12402066136E+002
+1.21070087610E+007, +6.08365895344E-001, +2.16086187094E+002
+1.22946182728E+007, +4.15637996031E-001, +2.19771302073E+002
+1.24822277847E+007, +1.30317367047E-001, +2.23124446100E+002
+1.26698372966E+007, +2.22820533649E-001, +2.26809024177E+002
+1.28574468085E+007, +4.35482940785E-001, +2.30366078850E+002
+1.30450563204E+007, +8.10871310796E-001, +2.34071894139E+002
+1.32326658323E+007, +6.73526577316E-001, +2.37756103291E+002
+1.34202753442E+007, +3.02059530042E-001, +2.41353622230E+002
+1.36078848561E+007, +3.01893065337E-001, +2.45005008084E+002
+1.37954943680E+007, +1.47988991797E-001, +2.48928003240E+002
+1.39831038798E+007, +2.16226476153E-001, +2.52691603795E+002
+1.41707133917E+007, +3.09248949696E-001, +2.56368093130E+002
+1.43583229036E+007, +1.70956374251E-001, +2.59973543940E+002
+1.45459324155E+007, +3.82250077258E-001, +2.64160650334E+002
+1.47335419274E+007, +1.35999803596E-001, +2.67563888114E+002
+1.49211514393E+007, +4.11948772091E-002, +2.70854053455E+002
+1.51087609512E+007, +3.94611055294E-001, +2.75182359039E+002
+1.52963704631E+007, +5.80775204886E-001, +2.79302335235E+002
+1.54839799750E+007, +5.03682363054E-002, +2.83005366360E+002
+1.56715894869E+007, +5.17984914432E-001, +2.86791529968E+002
+1.58591989987E+007, +2.93463452494E-001, +2.90753136531E+002
+1.60468085106E+007, +2.17025692506E-001, +2.94128184928E+002
+1.62344180225E+007, +2.84718879336E-002, +2.98641567930E+002
+1.64220275344E+007, -3.36413017228E-001, +3.02781624199E+002
+1.66096370463E+007, +1.01095482293E-001, +3.06794113880E+002
+1.67972465582E+007, -6.54202202928E-001, +3.10285194070E+002
+1.69848560701E+007, -2.21432302502E-001, +3.14102964689E+002
+1.71724655820E+007, -5.98207934874E-001, +3.18068568019E+002
+1.73600750939E+007, -3.00722654767E-001, +3.22621427022E+002
+1.75476846058E+007, -5.78284397481E-001, +3.26782514478E+002
+1.77352941176E+007, -1.44409017463E-001, +3.30042623935E+002
+1.79229036295E+007, -3.57490335824E-001, +3.35375491521E+002
+1.81105131414E+007, +1.11262425431E-001, +3.38777291248E+002
+1.82981226533E+007, -5.25076392166E-001, +3.42787775176E+002
+1.84857321652E+007, -3.13977158404E-001, +3.47154997614E+002
+1.86733416771E+007, -8.15183753271E-001, +3.51201532157E+002
+1.88609511890E+007, -1.03892242801E-001, +3.55738631250E+002
+1.90485607009E+007, -5.00095416653E-001, +3.60263612225E+002
+1.92361702128E+007, -1.55352825085E-002, +3.64075509803E+002
+1.94237797247E+007, -9.18287566278E-001, +3.68880126413E+002
+1.96113892365E+007, -8.46382216891E-002, +3.73082210356E+002
+1.97989987484E+007, -5.72118059868E-001, +3.77015349011E+002
+1.99866082603E+007, -1.05911494862E+000, +3.81069743087E+002
+2.01742177722E+007, -4.44535823423E-001, +3.86035393049E+002
+2.03618272841E+007, +1.64944926437E-001, +3.89809224719E+002
+2.05494367960E+007, -5.93794823147E-001, +3.95785449099E+002
+2.07370463079E+007, -5.00061085810E-001, +3.99200402912E+002
+2.09246558198E+007, -8.44732385933E-001, +4.04185541138E+002
+2.11122653317E+007, -2.78376363582E-001, +4.08649781873E+002
+2.12998748436E+007, -5.10521739696E-002, +4.13537124362E+002
+2.14874843554E+007, -7.78754493032E-001, +4.18453425498E+002
+2.16750938673E+007, -1.59760308483E-001, +4.22544006911E+002
+2.18627033792E+007, -2.05230499338E-003, +4.27201245780E+002
+2.20503128911E+007, -6.31977564631E-001, +4.32023394381E+002
+2.22379224030E+007, -4.73491883376E-001, +4.36936781697E+002
+2.24255319149E+007, -5.71563723039E-001, +4.41567969023E+002
+2.26131414268E+007, -2.04106182520E-001, +4.46151663632E+002
+2.28007509387E+007, +7.45670285258E-001, +4.51172496127E+002
+2.29883604506E+007, +8.07661226615E-001, +4.55723441133E+002
+2.31759699625E+007, -5.46399266760E-001, +4.61002757268E+002
+2.33635794743E+007, +1.56645375559E+000, +4.66208789296E+002
+2.35511889862E+007, +1.36713653599E-001, +4.71291953310E+002
+2.37387984981E+007, +6.10549517416E-001, +4.76695967598E+002
+2.39264080100E+007, +3.34083727251E-001, +4.82176189402E+002
+2.41140175219E+007, -7.19915095255E-001, +4.86519154927E+002
+2.43016270338E+007, +2.79388348768E-001, +4.91597972141E+002
+2.44892365457E+007, +4.07614996996E-001, +4.97080551682E+002
+2.46768460576E+007, -6.85730874608E-001, +5.01120825878E+002
+2.48644555695E+007, +3.92891988393E-001, +5.06791669499E+002
+2.50520650814E+007, +3.13909113330E-001, +5.10956438107E+002
+2.52396745932E+007, +8.12340960597E-001, +5.16472951366E+002
+2.54272841051E+007, +1.26343464553E+000, +5.22775407451E+002
+2.56148936170E+007, +1.05316093467E-001, +5.27789641279E+002
+2.58025031289E+007, +1.79992364198E+000, +5.33815396798E+002
+2.59901126408E+007, +1.86554799693E+000, +5.39357924014E+002
+2.61777221527E+007, +1.07350533730E-001, +5.44134427899E+002
+2.63653316646E+007, +4.34962049658E-001, +5.49188483256E+002
+2.65529411765E+007, -7.41592053528E-001, +5.53179786000E+002
+2.67405506884E+007, +1.97717090212E+000, +5.59773753203E+002
+2.69281602003E+007, +6.70107303255E-001, +5.67093077896E+002
+2.71157697121E+007, +1.04997631558E+000, +5.71883699954E+002
+2.73033792240E+007, -1.07941454448E+000, +5.77986556318E+002
+2.74909887359E+007, +1.13280284800E+000, +5.87152910719E+002
+2.76785982478E+007, +2.02066755439E+000, +5.90500136355E+002
+2.78662077597E+007, +2.14656963685E+000, +5.95004261526E+002
+2.80538172716E+007, +2.64143305845E+000, +6.02485060582E+002
+2.82414267835E+007, +1.53160351903E+000, +6.04261732775E+002
+2.84290362954E+007, -4.17180157035E-002, +6.11663337546E+002
+2.86166458073E+007, +2.37697219528E-001, +6.20238558287E+002
+2.88042553191E+007, -5.93245562861E-001, +6.25769004011E+002
+2.89918648310E+007, -7.74543535581E-001, +6.30006062620E+002
+2.91794743429E+007, -6.67244527018E-001, +6.38506299195E+002
+2.93670838548E+007, -1.41715659576E-001, +6.44460933687E+002
+2.95546933667E+007, +6.65328954122E-001, +6.49981415210E+002
+2.97423028786E+007, -9.01844039620E-001, +6.58776775982E+002
+2.99299123905E+007, -4.56453992043E-001, +6.64716919718E+002
+3.01175219024E+007, +1.07874412611E+000, +6.73486801698E+002
+3.03051314143E+007, -1.77138881955E+000, +6.80163979480E+002
+3.04927409262E+007, -7.80992007883E-001, +6.85831441509E+002
+3.06803504380E+007, -8.27003279568E-001, +6.92425741611E+002
+3.08679599499E+007, -3.73076637561E+000, +7.01429998097E+002
+3.10555694618E+007, -3.30829660278E+000, +7.08234760627E+002
+3.12431789737E+007, -1.74346542534E+000, +7.14348219261E+002
+3.14307884856E+007, -4.20187532807E+000, +7.22703916121E+002
+3.16183979975E+007, -2.99081748788E+000, +7.30479592123E+002
+3.18060075094E+007, -3.45461467442E+000, +7.39208735949E+002
+3.19936170213E+007, -2.84267428647E+000, +7.46280431208E+002
+3.21812265332E+007, -7.61531459284E+000, +7.50405388561E+002
+3.23688360451E+007, -3.83496596117E+000, +7.61133964520E+002
+3.25564455569E+007, -3.36652737159E+000, +7.67712762058E+002
+3.27440550688E+007, -3.17872980773E+000, +7.79391846853E+002
+3.29316645807E+007, -4.33639427390E+000, +7.80523559394E+002
+3.31192740926E+007, -3.17786078191E+000, +7.91266092940E+002
+3.33068836045E+007, -3.91292487391E+000, +7.98083233346E+002
+3.34944931164E+007, -3.50342313432E+000, +8.10932276398E+002
+3.36821026283E+007, -5.32067903016E+000, +8.17382196877E+002
+3.38697121402E+007, -4.03946193811E+000, +8.27366505822E+002
+3.40573216521E+007, -3.49579732578E+000, +8.34679130653E+002
+3.42449311640E+007, -6.58571549460E+000, +8.41794520999E+002
+3.44325406758E+007, -7.21939511166E+000, +8.53981611545E+002
+3.46201501877E+007, -5.73013628094E+000, +8.60577069114E+002
+3.48077596996E+007, -3.76327622708E+000, +8.71213356075E+002
+3.49953692115E+007, -5.31849442428E+000, +8.81966818354E+002
+3.51829787234E+007, -5.94703089756E+000, +8.89455274331E+002
+3.53705882353E+007, +4.87634309838E-001, +9.06321442259E+002
+3.55581977472E+007, -5.25140754175E+000, +9.08041419607E+002
+3.57458072591E+007, -9.11468351241E+000, +9.22422832629E+002
+3.59334167710E+007, -1.15687591970E+001, +9.28848694241E+002
+3.61210262829E+007, +3.00522765477E-001, +9.35925747617E+002
+3.63086357947E+007, -1.90024731726E+000, +9.55136048150E+002
+3.64962453066E+007, -5.70958389070E+000, +9.67109854654E+002
+3.66838548185E+007, -1.02527894609E+001, +9.68519100766E+002
+3.68714643304E+007, -1.05332822329E+001, +9.82863562232E+002
+3.70590738423E+007, -5.81671332945E+000, +9.94058904179E+002
+3.72466833542E+007, -6.04383908152E+000, +1.00532232233E+003
+3.74342928661E+007, -6.50872313958E+000, +1.01766537917E+003
+3.76219023780E+007, -8.96362180250E+000, +1.03054806052E+003
+3.78095118899E+007, -1.14480094443E+001, +1.03863941308E+003
+3.79971214018E+007, -7.84218847636E+000, +1.05432064753E+003
+3.81847309136E+007, -7.14914978162E+000, +1.06325845948E+003
+3.83723404255E+007, -1.52045838192E+001, +1.07674006223E+003
+3.85599499374E+007, -5.82637063259E+000, +1.09046102627E+003
+3.87475594493E+007, -7.90417146017E+000, +1.10731806296E+003
+3.89351689612E+007, -1.36263020297E+001, +1.11866379519E+003
+3.91227784731E+007, -1.18895052249E+001, +1.12832455898E+003
+3.93103879850E+007, -1.48079784610E+001, +1.15012341574E+003
+3.94979974969E+007, -1.58868645157E+001, +1.16372612703E+003
+3.96856070088E+007, -1.62215945444E+001, +1.17884572850E+003
+3.98732165207E+007, -1.62412910928E+001, +1.18835594686E+003
+4.00608260325E+007, -9.44612668481E+000, +1.20338402515E+003
+4.02484355444E+007, -1.08595601166E+001, +1.22415727493E+003
+4.04360450563E+007, -1.55339520558E+001, +1.23674567808E+003
+4.06236545682E+007, -1.80051025261E+001, +1.24348941011E+003
+4.08112640801E+007, -1.03501881156E+001, +1.26605763689E+003
+4.09988735920E+007, -1.36690966285E+001, +1.28436234360E+003
+4.11864831039E+007, -4.68841925986E+000, +1.29845469434E+003
+4.13740926158E+007, -5.89964254929E+000, +1.31754725533E+003
+4.15617021277E+007, -1.74979191380E+001, +1.34336350982E+003
+4.17493116395E+007, -3.52333588027E+000, +1.35479697484E+003
+4.19369211514E+007, -3.13418498129E+000, +1.36691508465E+003
+4.21245306633E+007, -1.20434456780E+001, +1.39184761159E+003
+4.23121401752E+007, -1.67509168600E+001, +1.40885347219E+003
+4.24997496871E+007, -9.41007822684E+000, +1.43772485299E+003
+4.26873591990E+007, -2.13479934848E+000, +1.44605660427E+003
+4.28749687109E+007, -3.79355568403E+000, +1.47011838053E+003
+4.30625782228E+007, -1.26712312376E+001, +1.49169789269E+003
+4.32501877347E+007, -3.22692021145E+000, +1.51598154598E+003
+4.34377972466E+007, -1.65569651741E+001, +1.52315111779E+003
+4.36254067584E+007, -1.60060085113E+001, +1.56176185459E+003
+4.38130162703E+007, -6.48580129937E+000, +1.57486692365E+003
+4.40006257822E+007, -7.57842824721E+000, +1.60804534350E+003
+4.41882352941E+007, -1.91768608301E+001, +1.62272332941E+003
+4.43758448060E+007, -8.58397722055E+000, +1.65149909195E+003
+4.45634543179E+007, -1.25044662542E+001, +1.68459930314E+003
+4.47510638298E+007, -2.50069408599E+001, +1.71139604556E+003
+4.49386733417E+007, -2.45953599557E+001, +1.73860157857E+003
+4.51262828536E+007, -2.11499374940E+001, +1.76375874396E+003
+4.53138923655E+007, -2.41610139922E+001, +1.79338387123E+003
+4.55015018773E+007, -7.95421585147E+000, +1.82535427373E+003
+4.56891113892E+007, -1.55922722088E+001, +1.85611944671E+003
+4.58767209011E+007, -1.57141643190E+001, +1.87925867918E+003
+4.60643304130E+007, -3.20987933960E+001, +1.91560812322E+003
+4.62519399249E+007, -1.06251795075E+001, +1.95530627544E+003
+4.64395494368E+007, -1.03478058212E+001, +1.98828012906E+003
+4.66271589487E+007, -1.21712760657E+001, +2.03072604112E+003
+4.68147684606E+007, -2.70220121899E+001, +2.06517967316E+003
+4.70023779725E+007, -8.88224323424E+000, +2.10994781885E+003
+4.71899874844E+007, -2.51845408362E+001, +2.15550754963E+003
+4.73775969962E+007, -2.99007070995E+001, +2.18659482991E+003
+4.75652065081E+007, -2.23469378154E+001, +2.25002930190E+003
+4.77528160200E+007, -5.70720373976E+000, +2.26262332882E+003
+4.79404255319E+007, +6.25102821421E+000, +2.31587125542E+003
+4.81280350438E+007, -1.74103181239E+001, +2.38528902441E+003
+4.83156445557E+007, +1.60123522943E+001, +2.44155356974E+003
+4.85032540676E+007, +1.15586430132E+001, +2.48534003589E+003
+4.86908635795E+007, -2.81593697315E+000, +2.51312919753E+003
+4.88784730914E+007, +1.23412250947E+001, +2.56885083185E+003
+4.90660826033E+007, +6.42620023885E+000, +2.66828638165E+003
+4.92536921151E+007, +3.47440946840E+001, +2.71708207915E+003
+4.94413016270E+007, +3.30587739838E+001, +2.78971466309E+003
+4.96289111389E+007, +1.34389256806E+001, +2.87796195111E+003
+4.98165206508E+007, -6.66863325442E+000, +2.93523506649E+003
+5.00041301627E+007, +2.96549936477E+001, +3.00712624898E+003
+5.01917396746E+007, +6.43814662907E+001, +3.09209979153E+003
+5.03793491865E+007, +7.52218467547E+001, +3.15326375323E+003
+5.05669586984E+007, +5.85980481883E+001, +3.23416968651E+003
+5.07545682103E+007, +2.93946865347E+001, +3.32127764888E+003
+5.09421777222E+007, +1.32685444802E+002, +3.42612794266E+003
+5.11297872340E+007, +1.39886428706E+002, +3.52579349664E+003
+5.13173967459E+007, +5.56083554857E+001, +3.60587219736E+003
+5.15050062578E+007, +7.45447226723E+001, +3.62640398833E+003
+5.16926157697E+007, +7.86219124292E+001, +3.76831052684E+003
+5.18802252816E+007, +2.46005849876E+001, +3.94465422472E+003
+5.20678347935E+007, +1.45600835694E+002, +4.02618964409E+003
+5.22554443054E+007, +2.89116624869E+001, +4.25604670082E+003
+5.24430538173E+007, +1.78580556467E+002, +4.46150097654E+003
+5.26306633292E+007, +1.16719404247E+002, +4.47806597117E+003
+5.28182728411E+007, +1.38213394265E+002, +4.70603098743E+003
+5.30058823529E+007, +2.86220171308E+002, +4.90565955133E+003
+5.31934918648E+007, +1.50220848103E+002, +5.20697005791E+003
+5.33811013767E+007, +1.96503370786E+002, +5.38096318833E+003
+5.35687108886E+007, +1.07974430221E+002, +5.66017321158E+003
+5.37563204005E+007, +2.10339460411E+002, +5.86616941882E+003
+5.39439299124E+007, +2.41111223310E+002, +6.29654163501E+003
+5.41315394243E+007, +3.30613112455E+002, +6.50620163317E+003
+5.43191489362E+007, +1.34101323975E+002, +6.86194007789E+003
+5.45067584481E+007, +3.93181815986E+002, +7.23483068373E+003
+5.46943679599E+007, +4.65020889333E+002, +7.77181537207E+003
+5.48819774718E+007, +9.06865823210E+002, +8.37156295409E+003
+5.50695869837E+007, +5.45705565322E+002, +9.36525646597E+003
+5.52571964956E+007, +9.05983390465E+002, +9.95588772681E+003
+5.54448060075E+007, +1.13913273304E+003, +1.05997263829E+004
+5.56324155194E+007, +1.65675326484E+003, +1.18630649020E+004
+5.58200250313E+007, +2.06310006864E+003, +1.34063443272E+004
+5.60076345432E+007, +1.49453535147E+003, +1.38944776528E+004
+5.61952440551E+007, +2.84315186053E+003, +1.67884090154E+004
+5.63828535670E+007, +4.13792225715E+003, +1.93661632690E+004
+5.65704630788E+007, +4.68306591994E+003, +2.20392111920E+004
+5.67580725907E+007, +6.51623045935E+003, +3.31017812675E+004
+5.69456821026E+007, +1.24343683692E+004, +4.89957778274E+004
+5.71332916145E+007, +4.26796126104E+004, +4.27781229332E+004
+5.73209011264E+007, +7.85995430484E+004, +2.95167291525E+004
+5.75085106383E+007, +4.11892038179E+004, -1.04683801638E+005
+5.76961201502E+007, +3.46161838190E+004, -3.94148578439E+004
+5.78837296621E+007, +9.83504274604E+003, -3.24381475772E+004
+5.80713391740E+007, +7.53783542413E+003, -2.37066835858E+004
+5.82589486859E+007, +5.93308544249E+003, -1.98813846290E+004
+5.84465581977E+007, +3.93168520576E+003, -1.71556491384E+004
+5.86341677096E+007, +3.07530959996E+003, -1.55521024210E+004
+5.88217772215E+007, +2.10085870998E+003, -1.27865720187E+004
+5.90093867334E+007, +1.58069009037E+003, -1.07007330520E+004
+5.91969962453E+007, +2.66636686840E+003, -9.84798724389E+003
+5.93846057572E+007, +1.92651692039E+003, -9.31136409836E+003
+5.95722152691E+007, +1.51955189484E+003, -8.71995012019E+003
+5.97598247810E+007, +1.63524182779E+003, -7.93681193651E+003
+5.99474342929E+007, +1.75384945595E+003, -7.68280627569E+003
+6.01350438048E+007, +1.51173474023E+003, -7.01898353370E+003
