"# Channel 1"
"# Trace 1"
Frequency, Formatted Data, Formatted Data
+1.00000000000E+005, +4.93411005794E-001, +1.91422787680E+000
+2.25031289111E+005, +4.98469313946E-001, +4.21661567093E+000
+3.50062578223E+005, +5.22727585581E-001, +6.51758974428E+000
+4.75093867334E+005, +5.69851683384E-001, +8.84903675030E+000
+6.00125156446E+005, +6.31765771325E-001, +1.10989650263E+001
+7.25156445557E+005, +6.62982738542E-001, +1.34152583674E+001
+8.50187734668E+005, +6.36938288873E-001, +1.56169378831E+001
+9.75219023780E+005, +6.43204086721E-001, +1.79239827787E+001
+1.10025031289E+006, +7.39073289256E-001, +2.02099995703E+001
+1.22528160200E+006, +7.27175343813E-001, +2.24482159442E+001
+1.35031289111E+006, +7.34368161460E-001, +2.46666447317E+001
+1.47534418023E+006, +7.78416807157E-001, +2.69972699702E+001
+1.60037546934E+006, +7.94522673026E-001, +2.92348193217E+001
+1.72540675845E+006, +8.29892026425E-001, +3.14593348980E+001
+1.85043804756E+006, +8.38598655829E-001, +3.37572659568E+001
+1.97546933667E+006, +8.48950184020E-001, +3.60159064090E+001
+2.10050062578E+006, +8.48322003160E-001, +3.82794494069E+001
+2.22553191489E+006, +7.93063040856E-001, +4.05748055124E+001
+2.35056320401E+006, +8.44473742908E-001, +4.27460707271E+001
+2.47559449312E+006, +8.60522763936E-001, +4.50865865732E+001
+2.60062578223E+006, +8.56323081418E-001, +4.73424885932E+001
+2.72565707134E+006, +8.54241711654E-001, +4.96050417726E+001
+2.85068836045E+006, +9.31407734783E-001, +5.18981658469E+001
+2.97571964956E+006, +8.72643837487E-001, +5.41148768013E+001
+3.10075093867E+006, +9.34853481193E-001, +5.64823862230E+001
+3.22578222778E+006, +8.66918769755E-001, +5.86410595150E+001
+3.35081351690E+006, +8.35297017316E-001, +6.10320259110E+001
+3.47584480601E+006, +9.72312356701E-001, +6.32727779729E+001
+3.60087609512E+006, +8.94238072322E-001, +6.56403651593E+001
+3.72590738423E+006, +1.04839609571E+000, +6.78719970839E+001
+3.85093867334E+006, +1.03962203036E+000, +6.99684974898E+001
+3.97596996245E+006, +9.20580491323E-001, +7.25203976053E+001
+4.10100125156E+006, +9.87407741034E-001, +7.47886180901E+001
+4.22603254068E+006, +9.78914704514E-001, +7.69724023870E+001
+4.35106382979E+006, +9.11654567013E-001, +7.91886029989E+001
+4.47609511890E+006, +1.01862796092E+000, +8.15907983399E+001
+4.60112640801E+006, +9.63662817378E-001, +8.37705513411E+001
+4.72615769712E+006, +9.57921616653E-001, +8.61606768794E+001
+4.85118898623E+006, +1.04369713583E+000, +8.82702856455E+001
+4.97622027534E+006, +1.07285323966E+000, +9.06785222785E+001
+5.10125156446E+006, +8.71404441152E-001, +9.29539894897E+001
+5.22628285357E+006, +1.01283224199E+000, +9.51623349844E+001
+5.35131414268E+006, +8.69300873663E-001, +9.76162164378E+001
+5.47634543179E+006, +1.03129437305E+000, +9.99066286824E+001
+5.60137672090E+006, +9.45999003551E-001, +1.02337706150E+002
+5.72640801001E+006, +1.02533470207E+000, +1.04749184799E+002
+5.85143929912E+006, +1.21181827954E+000, +1.06895461722E+002
+5.97647058824E+006, +1.11345325701E+000, +1.09352823348E+002
+6.10150187735E+006, +1.05224871895E+000, +1.11534548497E+002
+6.22653316646E+006, +1.19424406612E+000, +1.14084223885E+002
+6.35156445557E+006, +1.06805578641E+000, +1.16208629213E+002
+6.47659574468E+006, +1.11748916299E+000, +1.18577324399E+002
+6.60162703379E+006, +1.14615231801E+000, +1.21014181683E+002
+6.72665832290E+006, +1.20478110617E+000, +1.23330998964E+002
+6.85168961202E+006, +1.21794531839E+000, +1.25588290769E+002
+6.97672090113E+006, +1.19616485593E+000, +1.27989795714E+002
+7.10175219024E+006, +1.17626780699E+000, +1.30356352806E+002
+7.22678347935E+006, +1.23702645093E+000, +1.32718861227E+002
+7.35181476846E+006, +1.26939252612E+000, +1.35153709333E+002
+7.47684605757E+006, +1.20559044618E+000, +1.37586104273E+002
+7.60187734668E+006, +1.14751933960E+000, +1.39717586201E+002
+7.72690863579E+006, +1.22058374036E+000, +1.42050915526E+002
+7.85193992491E+006, +1.16188684134E+000, +1.44630975909E+002
+7.97697121402E+006, +1.44051458332E+000, +1.46825263915E+002
+8.10200250313E+006, +1.10654271891E+000, +1.49219579812E+002
+8.22703379224E+006, +1.19820368186E+000, +1.51557322349E+002
+8.35206508135E+006, +1.27218368017E+000, +1.54004450124E+002
+8.47709637046E+006, +1.40121456781E+000, +1.56326681102E+002
+8.60212765957E+006, +1.20354561030E+000, +1.58816755299E+002
+8.72715894869E+006, +1.44549733819E+000, +1.61205211792E+002
+8.85219023780E+006, +1.24579578029E+000, +1.63486023419E+002
+8.97722152691E+006, +1.40049385221E+000, +1.65890240730E+002
+9.10225281602E+006, +1.22465748330E+000, +1.68245922163E+002
+9.22728410513E+006, +1.32591307602E+000, +1.70652574885E+002
+9.35231539424E+006, +1.48162388139E+000, +1.73194359402E+002
+9.47734668335E+006, +1.35209251383E+000, +1.75439015887E+002
+9.60237797247E+006, +1.26552213164E+000, +1.78113439075E+002
+9.72740926158E+006, +1.02464318835E+000, +1.80493654456E+002
+9.85244055069E+006, +1.18584609802E+000, +1.82574094291E+002
+9.97747183980E+006, +1.11853971978E+000, +1.85140313530E+002
+1.01025031289E+007, +1.33837484908E+000, +1.87668845406E+002
+1.02275344180E+007, +1.08849233355E+000, +1.90237647620E+002
+1.03525657071E+007, +1.21207443629E+000, +1.92628543565E+002
+1.04775969962E+007, +1.15212662919E+000, +1.95081852562E+002
+1.06026282854E+007, +1.01910420433E+000, +1.97448522165E+002
+1.07276595745E+007, +1.11680266425E+000, +1.99897299458E+002
+1.08526908636E+007, +1.21114502965E+000, +2.02221453221E+002
+1.09777221527E+007, +1.25252931873E+000, +2.04726458264E+002
+1.11027534418E+007, +1.15541458202E+000, +2.07273016024E+002
+1.12277847309E+007, +9.34141822318E-001, +2.09740853917E+002
+1.13528160200E+007, +8.34744779518E-001, +2.12250471197E+002
+1.14778473091E+007, +1.30033574501E+000, +2.14519398478E+002
+1.16028785982E+007, +8.48393086082E-001, +2.17117209825E+002
+1.17279098874E+007, +1.24874090612E+000, +2.19790577065E+002
+1.18529411765E+007, +9.78557486742E-001, +2.22249020090E+002
+1.19779724656E+007, +1.33293336176E+000, +2.24768002886E+002
+1.21030037547E+007, +1.26174172780E+000, +2.27000706456E+002
+1.22280350438E+007, +1.08613295567E+000, +2.29741138008E+002
+1.23530663329E+007, +9.58179396994E-001, +2.32407724893E+002
+1.24780976220E+007, +1.03505246677E+000, +2.35070718887E+002
+1.26031289111E+007, +1.14815176832E+000, +2.37432235008E+002
+1.27281602003E+007, +1.25757423796E+000, +2.40052305349E+002
+1.28531914894E+007, +1.31583585204E+000, +2.42756780508E+002
+1.29782227785E+007, +1.14741761048E+000, +2.45253964915E+002
+1.31032540676E+007, +1.10163057913E+000, +2.47404777911E+002
+1.32282853567E+007, +1.09486745617E+000, +2.50088868937E+002
+1.33533166458E+007, +9.07886344050E-001, +2.52810371288E+002
+1.34783479349E+007, +7.66296764815E-001, +2.55042760420E+002
+1.36033792240E+007, +1.10389490915E+000, +2.57529432118E+002
+1.37284105131E+007, +1.18622437983E+000, +2.60657356046E+002
+1.38534418023E+007, +1.07503178905E+000, +2.63283700015E+002
+1.39784730914E+007, +1.04200958872E+000, +2.65946708228E+002
+1.41035043805E+007, +1.07739047411E+000, +2.68580701625E+002
+1.42285356696E+007, +6.87770286394E-001, +2.71178093746E+002
+1.43535669587E+007, +6.22101925711E-001, +2.73490780556E+002
+1.44785982478E+007, +1.17167574964E+000, +2.76132633223E+002
+1.46036295369E+007, +4.37706438407E-001, +2.78841696677E+002
+1.47286608260E+007, +1.03606695713E+000, +2.81594384830E+002
+1.48536921151E+007, +1.14284411637E+000, +2.84402954423E+002
+1.49787234043E+007, +3.78639797771E-001, +2.87071278352E+002
+1.51037546934E+007, +1.42407270409E+000, +2.89383976917E+002
+1.52287859825E+007, +6.68869682173E-001, +2.92012518350E+002
+1.53538172716E+007, +8.50555247968E-001, +2.95046545284E+002
+1.54788485607E+007, +5.49990798409E-001, +2.97536051200E+002
+1.56038798498E+007, +4.45257029157E-001, +3.00653432170E+002
+1.57289111389E+007, +8.05591355431E-001, +3.03094039151E+002
+1.58539424280E+007, +7.35957486014E-001, +3.05791436546E+002
+1.59789737171E+007, +1.02863153917E+000, +3.08963611940E+002
+1.61040050063E+007, +7.77870698861E-001, +3.11611525745E+002
+1.62290362954E+007, +9.66027699005E-001, +3.13728208122E+002
+1.63540675845E+007, +1.36962808544E+000, +3.16728791614E+002
+1.64790988736E+007, +4.81948245915E-001, +3.19480772908E+002
+1.66041301627E+007, +1.06486889192E+000, +3.22524148697E+002
+1.67291614518E+007, +1.07532118238E+000, +3.24915808730E+002
+1.68541927409E+007, +1.00427715089E+000, +3.27855587158E+002
+1.69792240300E+007, +8.13433665607E-001, +3.30186700143E+002
+1.71042553191E+007, -1.75182427559E-001, +3.33341082175E+002
+1.72292866083E+007, +4.78727316466E-001, +3.36220883584E+002
+1.73543178974E+007, +1.68037924587E-001, +3.39281367487E+002
+1.74793491865E+007, +3.69558505849E-001, +3.42472312800E+002
+1.76043804756E+007, +4.97978269580E-001, +3.45965089971E+002
+1.77294117647E+007, +8.01783405607E-002, +3.47600063061E+002
+1.78544430538E+007, +5.50279122271E-001, +3.50846439213E+002
+1.79794743429E+007, +6.97746166735E-001, +3.53406985356E+002
+1.81045056320E+007, +8.06026758602E-001, +3.56730058304E+002
+1.82295369212E+007, +6.10705114782E-001, +3.59426880263E+002
+1.83545682103E+007, +1.18945995845E+000, +3.63082875371E+002
+1.84795994994E+007, +7.21297069939E-001, +3.65280560165E+002
+1.86046307885E+007, +1.14957020326E+000, +3.68366578963E+002
+1.87296620776E+007, +7.23554409335E-001, +3.71271942272E+002
+1.88546933667E+007, +3.71537897612E-001, +3.74736908002E+002
+1.89797246558E+007, +5.95498478501E-001, +3.77826159346E+002
+1.91047559449E+007, +4.45595260154E-001, +3.81024932407E+002
+1.92297872340E+007, +1.08483502478E-001, +3.83010463639E+002
+1.93548185232E+007, +4.13892352618E-001, +3.86988224000E+002
+1.94798498123E+007, +8.07684848751E-001, +3.88873416815E+002
+1.96048811014E+007, +5.49488905152E-001, +3.92652419860E+002
+1.97299123905E+007, +9.84055046668E-001, +3.96581146043E+002
+1.98549436796E+007, +1.90190750909E+000, +3.97874199196E+002
+1.99799749687E+007, +1.06797565461E+000, +4.01142595996E+002
+2.01050062578E+007, +9.90756702417E-001, +4.05024468258E+002
+2.02300375469E+007, +1.71901145664E-001, +4.08016040392E+002
+2.03550688360E+007, +1.00451099887E+000, +4.10771765272E+002
+2.04801001252E+007, +4.36618146498E-001, +4.13509564370E+002
+2.06051314143E+007, +9.62381415056E-001, +4.17937917462E+002
+2.07301627034E+007, +9.62485701373E-001, +4.20188881258E+002
+2.08551939925E+007, +3.03354030499E-001, +4.23288883472E+002
+2.09802252816E+007, +9.74732040504E-001, +4.27971983287E+002
+2.11052565707E+007, -1.62695589259E-001, +4.30993487023E+002
+2.12302878598E+007, +5.38493011671E-001, +4.33648938320E+002
+2.13553191489E+007, +3.02226440994E-001, +4.36803170488E+002
+2.14803504380E+007, +1.30475479291E+000, +4.40057450378E+002
+2.16053817272E+007, +2.25344396979E-002, +4.42611669581E+002
+2.17304130163E+007, +1.51406568839E+000, +4.46383784240E+002
+2.18554443054E+007, +8.60126681642E-001, +4.48379013900E+002
+2.19804755945E+007, +5.81935389493E-001, +4.53595790020E+002
+2.21055068836E+007, +6.62583245818E-001, +4.57649113769E+002
+2.22305381727E+007, +3.35825225430E-001, +4.59604203291E+002
+2.23555694618E+007, +5.05961557864E-001, +4.63028598868E+002
+2.24806007509E+007, +1.38033467069E+000, +4.65926336614E+002
+2.26056320401E+007, +6.68434404346E-001, +4.69335625259E+002
+2.27306633292E+007, +2.39863266916E+000, +4.72961017112E+002
+2.28556946183E+007, +1.30657165348E+000, +4.75831530090E+002
+2.29807259074E+007, +1.72661423524E+000, +4.80052092084E+002
+2.31057571965E+007, +1.54813642062E+000, +4.82941357571E+002
+2.32307884856E+007, +1.98781553180E+000, +4.86476206959E+002
+2.33558197747E+007, +1.79545255681E+000, +4.89955665716E+002
+2.34808510638E+007, +3.24972924441E+000, +4.93754980395E+002
+2.36058823529E+007, +2.21069894587E+000, +4.97047710654E+002
+2.37309136421E+007, +1.79698071548E+000, +5.00446726255E+002
+2.38559449312E+007, +2.83711348824E+000, +5.03594688975E+002
+2.39809762203E+007, +2.57478797864E+000, +5.06616899875E+002
+2.41060075094E+007, +2.01483637612E+000, +5.10078412731E+002
+2.42310387985E+007, +2.58591084085E+000, +5.13669416032E+002
+2.43560700876E+007, +3.09344459707E+000, +5.17578993121E+002
+2.44811013767E+007, +2.02028558931E+000, +5.19824811647E+002
+2.46061326658E+007, +2.50096776529E+000, +5.23788227092E+002
+2.47311639549E+007, +1.78627711304E+000, +5.28017297619E+002
+2.48561952441E+007, +3.01795432222E+000, +5.29044413080E+002
+2.49812265332E+007, +7.86500411670E-001, +5.34993975682E+002
+2.51062578223E+007, +3.39878822026E+000, +5.39166859289E+002
+2.52312891114E+007, +9.40918166150E-001, +5.42481196570E+002
+2.53563204005E+007, +2.59741766384E+000, +5.45452174947E+002
+2.54813516896E+007, +2.03275470530E+000, +5.48605883538E+002
+2.56063829787E+007, +2.19216423035E+000, +5.53683228624E+002
+2.57314142678E+007, +3.17711942912E+000, +5.57712327242E+002
+2.58564455569E+007, +2.10700446651E+000, +5.60556429206E+002
+2.59814768461E+007, +1.92251034684E+000, +5.63053491891E+002
+2.61065081352E+007, +2.95406484057E-001, +5.69193060603E+002
+2.62315394243E+007, +2.62506174728E+000, +5.72776825487E+002
+2.63565707134E+007, +2.44434682719E+000, +5.76332555916E+002
+2.64816020025E+007, +1.88856217487E+000, +5.81383384004E+002
+2.66066332916E+007, +3.05376138643E+000, +5.83544805332E+002
+2.67316645807E+007, +2.15123983180E+000, +5.90517120259E+002
+2.68566958698E+007, +2.29259171046E+000, +5.94498617605E+002
+2.69817271589E+007, +1.33362626261E+000, +5.97867747587E+002
+2.71067584481E+007, +2.99682476319E+000, +6.00910304266E+002
+2.72317897372E+007, +1.25731102285E+000, +6.04500529337E+002
+2.73568210263E+007, +3.41330436738E+000, +6.08845255764E+002
+2.74818523154E+007, +1.45195841890E+000, +6.12070063246E+002
+2.76068836045E+007, +2.60368631704E+000, +6.15272572942E+002
+2.77319148936E+007, +2.27389771250E+000, +6.20875518372E+002
+2.78569461827E+007, +2.07631046480E+000, +6.25234896405E+002
+2.79819774718E+007, +2.98634203003E-001, +6.27608525045E+002
+2.81070087610E+007, +2.34405774089E+000, +6.32597190136E+002
+2.82320400501E+007, +2.40748466241E+000, +6.36802544548E+002
+2.83570713392E+007, +1.32075189137E+000, +6.41204385085E+002
+2.84821026283E+007, +1.84864023556E+000, +6.42518306570E+002
+2.86071339174E+007, +2.96686617176E-001, +6.48275937900E+002
+2.87321652065E+007, +3.52387321783E+000, +6.54990094547E+002
+2.88571964956E+007, +9.67500146700E-001, +6.61750136512E+002
+2.89822277847E+007, +3.14544283243E+000, +6.65868373332E+002
+2.91072590738E+007, +7.69197801552E-001, +6.66977040847E+002
+2.92322903630E+007, +3.77255996842E+000, +6.72747297801E+002
+2.93573216521E+007, +5.63660358288E-001, +6.77666278176E+002
+2.94823529412E+007, +7.68796882071E-002, +6.80824711856E+002
+2.96073842303E+007, +4.67172210369E-001, +6.88370406874E+002
+2.97324155194E+007, +1.35584691103E-002, +6.89143133807E+002
+2.98574468085E+007, -1.30984467828E+000, +6.96211550847E+002
+2.99824780976E+007, +1.44410244943E-001, +7.00890314327E+002
+3.01075093867E+007, +2.25684714642E+000, +7.05061782378E+002
+3.02325406758E+007, +9.99573500578E-001, +7.10393448830E+002
+3.03575719650E+007, -1.49190894099E+000, +7.14059504635E+002
+3.04826032541E+007, -5.28836603695E-001, +7.17845693467E+002
+3.06076345432E+007, +4.97067243847E-001, +7.24011606568E+002
+3.07326658323E+007, -2.74073000639E-001, +7.29842693677E+002
+3.08576971214E+007, +2.95185841235E-001, +7.34227767743E+002
+3.09827284105E+007, +2.57345452256E+000, +7.38096350149E+002
+3.11077596996E+007, -1.32752631145E+000, +7.43429552168E+002
+3.12327909887E+007, +1.58552754078E+000, +7.49485467426E+002
+3.13578222778E+007, +9.51210402726E-001, +7.53855843530E+002
+3.14828535670E+007, +9.57213555101E-001, +7.57485883333E+002
+3.16078848561E+007, -3.87505880236E-001, +7.62490481615E+002
+3.17329161452E+007, -6.09603029904E-001, +7.70562386175E+002
+3.18579474343E+007, +1.52166377986E-001, +7.75361752520E+002
+3.19829787234E+007, +1.16580143816E+000, +7.79289026356E+002
+3.21080100125E+007, +9.14573561273E-002, +7.87613002407E+002
+3.22330413016E+007, +1.43028027226E-001, +7.90639177149E+002
+3.23580725907E+007, -8.84594256181E-001, +7.95192577063E+002
+3.24831038798E+007, -4.86570838654E-001, +8.01344020859E+002
+3.26081351690E+007, +1.25247175585E+000, +8.06173803118E+002
+3.27331664581E+007, +1.08580547623E+000, +8.12728068275E+002
+3.28581977472E+007, -2.61265634987E+000, +8.21893835175E+002
+3.29832290363E+007, +1.10460620068E+000, +8.29293694155E+002
+3.31082603254E+007, +2.26702058416E+000, +8.31781953102E+002
+3.32332916145E+007, -8.05453647942E-001, +8.35407541378E+002
+3.33583229036E+007, +2.21726729390E+000, +8.43793628118E+002
+3.34833541927E+007, +8.85294190116E-001, +8.47934798827E+002
+3.36083854819E+007, +2.79477208616E+000, +8.50649517371E+002
+3.37334167710E+007, -1.08705496247E+000, +8.59741004020E+002
+3.38584480601E+007, -7.19393139828E-001, +8.65503208904E+002
+3.39834793492E+007, -5.03219892008E-001, +8.70901326398E+002
+3.41085106383E+007, -1.55319672092E+000, +8.75812245065E+002
+3.42335419274E+007, -4.10055481004E-001, +8.84506550816E+002
+3.43585732165E+007, -1.63293585927E+000, +8.93822511865E+002
+3.44836045056E+007, -3.34920362018E+000, +8.96731108665E+002
+3.46086357947E+007, +1.89607727768E+000, +9.05029065837E+002
+3.47336670839E+007, +4.20328782617E+000, +9.11567401840E+002
+3.48586983730E+007, -2.20648419987E+000, +9.15641667090E+002
+3.49837296621E+007, -4.47398664198E-001, +9.17780018787E+002
+3.51087609512E+007, +3.35622785317E+000, +9.31800884060E+002
+3.52337922403E+007, +3.72389616825E+000, +9.35451218196E+002
+3.53588235294E+007, +1.67410061609E+000, +9.44683108452E+002
+3.54838548185E+007, +3.22778822430E+000, +9.50478637397E+002
+3.56088861076E+007, +2.28113553638E+000, +9.53415523212E+002
+3.57339173967E+007, +1.16339527609E+000, +9.60498390878E+002
+3.58589486859E+007, +3.67611502605E+000, +9.64843945273E+002
+3.59839799750E+007, -3.07826539177E+000, +9.73022234220E+002
+3.61090112641E+007, +4.83102886972E+000, +9.80260879245E+002
+3.62340425532E+007, -1.22648156979E+000, +9.88955075063E+002
+3.63590738423E+007, +1.83790133200E+000, +9.94791765295E+002
+3.64841051314E+007, +7.45053123200E-001, +1.00160821629E+003
+3.66091364205E+007, +2.81953457008E+000, +1.00769486633E+003
+3.67341677096E+007, +2.79335938771E+000, +1.01671354911E+003
+3.68591989987E+007, +2.50012515269E-002, +1.02454853268E+003
+3.69842302879E+007, +3.40411888156E-001, +1.02864901094E+003
+3.71092615770E+007, +2.57024263320E+000, +1.03986242623E+003
+3.72342928661E+007, +3.44826058142E+000, +1.04856672884E+003
+3.73593241552E+007, -3.43007142692E+000, +1.05163136925E+003
+3.74843554443E+007, +2.90283032007E+000, +1.06529043261E+003
+3.76093867334E+007, +2.26685012204E+000, +1.06968469723E+003
+3.77344180225E+007, -1.72744897463E+000, +1.07951990617E+003
+3.78594493116E+007, +2.16494089261E-001, +1.08262119373E+003
+3.79844806008E+007, -5.44430637461E-001, +1.09026840705E+003
+3.81095118899E+007, -3.82547716923E+000, +1.09939362051E+003
+3.82345431790E+007, -1.98802588360E+000, +1.10966545768E+003
+3.83595744681E+007, -4.00383868616E-002, +1.12225318348E+003
+3.84846057572E+007, +3.41876882654E+000, +1.13090887285E+003
+3.86096370463E+007, -2.12144784001E+000, +1.14160575965E+003
+3.87346683354E+007, +6.10502020152E+000, +1.14582716908E+003
+3.88596996245E+007, +1.51729446197E-001, +1.15533729430E+003
+3.89847309136E+007, -2.71272685727E+000, +1.16455542859E+003
+3.91097622028E+007, -3.06982854649E+000, +1.17810521389E+003
+3.92347934919E+007, -4.84938297508E-001, +1.18960180080E+003
+3.93598247810E+007, +6.62751172435E+000, +1.19416627998E+003
+3.94848560701E+007, +7.94943227400E+000, +1.20508121573E+003
+3.96098873592E+007, +4.00854451380E+000, +1.21636424300E+003
+3.97349186483E+007, +1.83832727241E+000, +1.21725025653E+003
+3.98599499374E+007, -7.52636116368E-001, +1.23984703038E+003
+3.99849812265E+007, +1.62923377155E+000, +1.24988426495E+003
+4.01100125156E+007, +1.65068674528E+000, +1.25194565621E+003
