"# Channel 1"
"# Trace 1"
Frequency, Formatted Data, Formatted Data
+1.00000000000E+005, +7.22579121748E+001, +2.33786233658E+000
+3.18898623279E+005, +7.22614636175E+001, +6.63033407610E+000
+5.37797246558E+005, +7.23025368022E+001, +1.12030565019E+001
+7.56695869837E+005, +7.22710263091E+001, +1.57833967207E+001
+9.75594493116E+005, +7.22729866799E+001, +2.04891668676E+001
+1.19449311640E+006, +7.23227048745E+001, +2.49632426072E+001
+1.41339173967E+006, +7.22095926100E+001, +2.95631384798E+001
+1.63229036295E+006, +7.22514188540E+001, +3.40988643581E+001
+1.85118898623E+006, +7.22816532456E+001, +3.88698346009E+001
+2.07008760951E+006, +7.23342994627E+001, +4.33026637301E+001
+2.28898623279E+006, +7.23467849432E+001, +4.80287400563E+001
+2.50788485607E+006, +7.23953076043E+001, +5.24312417201E+001
+2.72678347935E+006, +7.23582189337E+001, +5.72276681604E+001
+2.94568210263E+006, +7.25335459126E+001, +6.17995157691E+001
+3.16458072591E+006, +7.22269540785E+001, +6.64907507716E+001
+3.38347934919E+006, +7.26091530654E+001, +7.10481543224E+001
+3.60237797247E+006, +7.26398452983E+001, +7.54819935332E+001
+3.82127659574E+006, +7.24605212547E+001, +7.99827537354E+001
+4.04017521902E+006, +7.30414979278E+001, +8.46511011559E+001
+4.25907384230E+006, +7.26066685821E+001, +8.93848649396E+001
+4.47797246558E+006, +7.28585899282E+001, +9.41733914864E+001
+4.69687108886E+006, +7.27565475655E+001, +9.88152309788E+001
+4.91576971214E+006, +7.28723868967E+001, +1.03308163826E+002
+5.13466833542E+006, +7.29525584487E+001, +1.07960379739E+002
+5.35356695870E+006, +7.32006888566E+001, +1.12670937187E+002
+5.57246558198E+006, +7.30996813688E+001, +1.17089632321E+002
+5.79136420526E+006, +7.34333448647E+001, +1.21872086263E+002
+6.01026282854E+006, +7.34619451030E+001, +1.26417928271E+002
+6.22916145181E+006, +7.37367656798E+001, +1.31288342578E+002
+6.44806007509E+006, +7.36034667209E+001, +1.35816265673E+002
+6.66695869837E+006, +7.39180626632E+001, +1.40529636856E+002
+6.88585732165E+006, +7.39497240787E+001, +1.45465260696E+002
+7.10475594493E+006, +7.40048345284E+001, +1.50021353654E+002
+7.32365456821E+006, +7.44185974313E+001, +1.54823773181E+002
+7.54255319149E+006, +7.44435024585E+001, +1.59208514452E+002
+7.76145181477E+006, +7.48240023362E+001, +1.64232400864E+002
+7.98035043805E+006, +7.49588348066E+001, +1.69060774539E+002
+8.19924906133E+006, +7.48838632395E+001, +1.73626324334E+002
+8.41814768461E+006, +7.53023420679E+001, +1.78377185831E+002
+8.63704630788E+006, +7.52598644830E+001, +1.83240747036E+002
+8.85594493116E+006, +7.55177953225E+001, +1.88038577123E+002
+9.07484355444E+006, +7.55918170203E+001, +1.93031355748E+002
+9.29374217772E+006, +7.59369090099E+001, +1.97975446788E+002
+9.51264080100E+006, +7.59061394386E+001, +2.02520105292E+002
+9.73153942428E+006, +7.62584412888E+001, +2.07734447673E+002
+9.95043804756E+006, +7.61391826352E+001, +2.12408882998E+002
+1.01693366708E+007, +7.65759788391E+001, +2.16962276277E+002
+1.03882352941E+007, +7.67964510037E+001, +2.21887168245E+002
+1.06071339174E+007, +7.66736318410E+001, +2.26845402743E+002
+1.08260325407E+007, +7.69313809517E+001, +2.31929799101E+002
+1.10449311640E+007, +7.71445471719E+001, +2.36928125271E+002
+1.12638297872E+007, +7.71465562717E+001, +2.42174702869E+002
+1.14827284105E+007, +7.76902281262E+001, +2.46654090135E+002
+1.17016270338E+007, +7.78359038309E+001, +2.51527595457E+002
+1.19205256571E+007, +7.80845610064E+001, +2.56546686168E+002
+1.21394242804E+007, +7.83390670520E+001, +2.61519348801E+002
+1.23583229036E+007, +7.89247332573E+001, +2.66927828472E+002
+1.25772215269E+007, +7.86952510692E+001, +2.71937468013E+002
+1.27961201502E+007, +7.88609341329E+001, +2.77071957929E+002
+1.30150187735E+007, +7.94005363330E+001, +2.81981548953E+002
+1.32339173967E+007, +7.92520649749E+001, +2.87496690232E+002
+1.34528160200E+007, +7.90262822677E+001, +2.92413232294E+002
+1.36717146433E+007, +7.91446771053E+001, +2.97713101335E+002
+1.38906132666E+007, +8.05228246855E+001, +3.03306661634E+002
+1.41095118899E+007, +8.06597264986E+001, +3.08333753285E+002
+1.43284105131E+007, +8.00599591258E+001, +3.13778971035E+002
+1.45473091364E+007, +8.06592069597E+001, +3.19154051319E+002
+1.47662077597E+007, +8.10549604703E+001, +3.23442176936E+002
+1.49851063830E+007, +8.18373304335E+001, +3.28722644771E+002
+1.52040050063E+007, +8.21294036046E+001, +3.35239740567E+002
+1.54229036295E+007, +8.23446869133E+001, +3.40400729105E+002
+1.56418022528E+007, +8.21408132498E+001, +3.45803092905E+002
+1.58607008761E+007, +8.31340615257E+001, +3.51194107199E+002
+1.60795994994E+007, +8.34208199302E+001, +3.57135720389E+002
+1.62984981227E+007, +8.35675093295E+001, +3.62076821302E+002
+1.65173967459E+007, +8.40136359253E+001, +3.68006178998E+002
+1.67362953692E+007, +8.37364159955E+001, +3.73323708384E+002
+1.69551939925E+007, +8.43820421201E+001, +3.78182717478E+002
+1.71740926158E+007, +8.35296072896E+001, +3.85604488275E+002
+1.73929912390E+007, +8.38735220008E+001, +3.90619340440E+002
+1.76118898623E+007, +8.47424629756E+001, +3.94883503891E+002
+1.78307884856E+007, +8.63527122829E+001, +4.01010871346E+002
+1.80496871089E+007, +8.60338572578E+001, +4.07371390772E+002
+1.82685857322E+007, +8.65851744335E+001, +4.13502799383E+002
+1.84874843554E+007, +8.73501064825E+001, +4.18721920592E+002
+1.87063829787E+007, +8.79948146181E+001, +4.24827427596E+002
+1.89252816020E+007, +8.81083688839E+001, +4.31189796399E+002
+1.91441802253E+007, +8.84599053897E+001, +4.35072827898E+002
+1.93630788486E+007, +8.78214000503E+001, +4.42569658505E+002
+1.95819774718E+007, +8.95487051297E+001, +4.47686066699E+002
+1.98008760951E+007, +8.96529343406E+001, +4.54098103915E+002
+2.00197747184E+007, +8.96477757688E+001, +4.60112488833E+002
+2.02386733417E+007, +9.01013585508E+001, +4.65985914383E+002
+2.04575719650E+007, +9.01226563863E+001, +4.72033447150E+002
+2.06764705882E+007, +9.07904155281E+001, +4.79266536684E+002
+2.08953692115E+007, +9.30252607167E+001, +4.85818332292E+002
+2.11142678348E+007, +9.24678330618E+001, +4.91042733399E+002
+2.13331664581E+007, +9.34858333875E+001, +4.98293679109E+002
+2.15520650814E+007, +9.41447971431E+001, +5.02850341214E+002
+2.17709637046E+007, +9.43994721257E+001, +5.10330030249E+002
+2.19898623279E+007, +9.64826836664E+001, +5.17879553278E+002
+2.22087609512E+007, +9.41289759725E+001, +5.23836756533E+002
+2.24276595745E+007, +9.83407507622E+001, +5.30192338206E+002
+2.26465581977E+007, +9.68664189301E+001, +5.34688683748E+002
+2.28654568210E+007, +9.87612196086E+001, +5.41735907338E+002
+2.30843554443E+007, +9.86720902237E+001, +5.51329530907E+002
+2.33032540676E+007, +1.00616954179E+002, +5.55066082421E+002
+2.35221526909E+007, +9.99841043797E+001, +5.63105057860E+002
+2.37410513141E+007, +1.00535962496E+002, +5.68191545770E+002
+2.39599499374E+007, +1.01297567558E+002, +5.76729090902E+002
+2.41788485607E+007, +1.01960723061E+002, +5.81774650824E+002
+2.43977471840E+007, +1.03378934631E+002, +5.91380478295E+002
+2.46166458073E+007, +1.04184656216E+002, +5.97852094317E+002
+2.48355444305E+007, +1.05046240349E+002, +6.03057794417E+002
+2.50544430538E+007, +1.06690701964E+002, +6.09924325846E+002
+2.52733416771E+007, +1.08140137941E+002, +6.17556947618E+002
+2.54922403004E+007, +1.06776033551E+002, +6.26759588980E+002
+2.57111389237E+007, +1.09384905550E+002, +6.33147340866E+002
+2.59300375469E+007, +1.08047219982E+002, +6.40363570869E+002
+2.61489361702E+007, +1.08304095109E+002, +6.47662928857E+002
+2.63678347935E+007, +1.09722880965E+002, +6.56411282330E+002
+2.65867334168E+007, +1.13475134353E+002, +6.63928316489E+002
+2.68056320401E+007, +1.13515332932E+002, +6.70123449729E+002
+2.70245306633E+007, +1.12058032950E+002, +6.78045211837E+002
+2.72434292866E+007, +1.14084456743E+002, +6.85484868821E+002
+2.74623279099E+007, +1.13139436290E+002, +6.94827171616E+002
+2.76812265332E+007, +1.14764219081E+002, +7.03454185680E+002
+2.79001251564E+007, +1.17356529705E+002, +7.13719173448E+002
+2.81190237797E+007, +1.19608775487E+002, +7.16988320315E+002
+2.83379224030E+007, +1.18513746869E+002, +7.23791728213E+002
+2.85568210263E+007, +1.18399729972E+002, +7.33562294019E+002
+2.87757196496E+007, +1.19246508443E+002, +7.44879797336E+002
+2.89946182728E+007, +1.20611037064E+002, +7.54426906287E+002
+2.92135168961E+007, +1.19313802917E+002, +7.64589098867E+002
+2.94324155194E+007, +1.22499930223E+002, +7.70989319045E+002
+2.96513141427E+007, +1.22158227018E+002, +7.81109453507E+002
+2.98702127660E+007, +1.25342355662E+002, +7.88482236371E+002
+3.00891113892E+007, +1.23607401703E+002, +7.97879808674E+002
+3.03080100125E+007, +1.30020993457E+002, +8.02472904636E+002
+3.05269086358E+007, +1.29548165832E+002, +8.17926822219E+002
+3.07458072591E+007, +1.28450912827E+002, +8.23480207922E+002
+3.09647058824E+007, +1.29448673610E+002, +8.33204320688E+002
+3.11836045056E+007, +1.32853489703E+002, +8.40561545817E+002
+3.14025031289E+007, +1.29845626130E+002, +8.52847324742E+002
+3.16214017522E+007, +1.36196638362E+002, +8.62270789467E+002
+3.18403003755E+007, +1.31501977522E+002, +8.78157814990E+002
+3.20591989987E+007, +1.34706241174E+002, +8.83517857528E+002
+3.22780976220E+007, +1.37131869523E+002, +8.91362647482E+002
+3.24969962453E+007, +1.39097311042E+002, +9.02440145348E+002
+3.27158948686E+007, +1.36782076986E+002, +9.14022246961E+002
+3.29347934919E+007, +1.40373753911E+002, +9.22213859859E+002
+3.31536921151E+007, +1.39926468555E+002, +9.32312552693E+002
+3.33725907384E+007, +1.45146905667E+002, +9.47770320381E+002
+3.35914893617E+007, +1.41839585897E+002, +9.57743426394E+002
+3.38103879850E+007, +1.45194555160E+002, +9.70567033882E+002
+3.40292866083E+007, +1.47816660001E+002, +9.80981009676E+002
+3.42481852315E+007, +1.53957103260E+002, +9.89935845765E+002
+3.44670838548E+007, +1.51571350553E+002, +1.00245011630E+003
+3.46859824781E+007, +1.56286802828E+002, +1.01358126482E+003
+3.49048811014E+007, +1.59606941277E+002, +1.03180962918E+003
+3.51237797247E+007, +1.56752695923E+002, +1.04065114523E+003
+3.53426783479E+007, +1.66280992668E+002, +1.05332407607E+003
+3.55615769712E+007, +1.65746569988E+002, +1.06551398654E+003
+3.57804755945E+007, +1.67462370040E+002, +1.07066033382E+003
+3.59993742178E+007, +1.66861808695E+002, +1.09616907703E+003
+3.62182728411E+007, +1.67389206929E+002, +1.09782954517E+003
+3.64371714643E+007, +1.72696428164E+002, +1.11313021991E+003
+3.66560700876E+007, +1.78344950394E+002, +1.13115436594E+003
+3.68749687109E+007, +1.76989124295E+002, +1.14890325226E+003
+3.70938673342E+007, +1.81444102140E+002, +1.15761223068E+003
+3.73127659574E+007, +1.83046820586E+002, +1.17249342231E+003
+3.75316645807E+007, +1.81796092598E+002, +1.18325295660E+003
+3.77505632040E+007, +1.85682865904E+002, +1.20274141224E+003
+3.79694618273E+007, +1.96434532550E+002, +1.20876784772E+003
+3.81883604506E+007, +1.88189594088E+002, +1.23497967376E+003
+3.84072590738E+007, +1.90739647322E+002, +1.25013886491E+003
+3.86261576971E+007, +1.93078166393E+002, +1.26713724880E+003
+3.88450563204E+007, +2.05485240478E+002, +1.27900112835E+003
+3.90639549437E+007, +2.14152725509E+002, +1.28617177144E+003
+3.92828535670E+007, +2.10527790726E+002, +1.31587864189E+003
+3.95017521902E+007, +2.09910485164E+002, +1.32302054984E+003
+3.97206508135E+007, +2.15281097500E+002, +1.35000385231E+003
+3.99395494368E+007, +2.23375024778E+002, +1.36286623359E+003
+4.01584480601E+007, +2.29832011561E+002, +1.38124627738E+003
+4.03773466834E+007, +2.35110057241E+002, +1.40498601363E+003
+4.05962453066E+007, +2.28191737611E+002, +1.42690320394E+003
+4.08151439299E+007, +2.41013450566E+002, +1.43753747989E+003
+4.10340425532E+007, +2.33214781144E+002, +1.45687774279E+003
+4.12529411765E+007, +2.33976505841E+002, +1.47335819568E+003
+4.14718397997E+007, +2.39279108525E+002, +1.49696036643E+003
+4.16907384230E+007, +2.60235018979E+002, +1.51212630297E+003
+4.19096370463E+007, +2.46334151683E+002, +1.54212706499E+003
+4.21285356696E+007, +2.66330909712E+002, +1.56645129547E+003
+4.23474342929E+007, +2.71169535552E+002, +1.59076982511E+003
+4.25663329161E+007, +2.88233753162E+002, +1.59983259805E+003
+4.27852315394E+007, +2.80306988114E+002, +1.63316963839E+003
+4.30041301627E+007, +2.87229701371E+002, +1.66010266082E+003
+4.32230287860E+007, +2.97975725570E+002, +1.68453580674E+003
+4.34419274093E+007, +3.08931782087E+002, +1.69856424187E+003
+4.36608260325E+007, +3.05872241349E+002, +1.72601299541E+003
+4.38797246558E+007, +3.07350366482E+002, +1.75819518304E+003
+4.40986232791E+007, +3.17008908084E+002, +1.78299188530E+003
+4.43175219024E+007, +3.29863430180E+002, +1.81340639676E+003
+4.45364205257E+007, +3.50222792974E+002, +1.84602970323E+003
+4.47553191489E+007, +3.57783984864E+002, +1.87884802415E+003
+4.49742177722E+007, +3.59788683589E+002, +1.89920173357E+003
+4.51931163955E+007, +3.83415690466E+002, +1.92704689224E+003
+4.54120150188E+007, +3.68095349884E+002, +1.94461502375E+003
+4.56309136421E+007, +3.92614057441E+002, +1.99511093354E+003
+4.58498122653E+007, +3.82338488216E+002, +2.00444737762E+003
+4.60687108886E+007, +3.98911096573E+002, +2.06682484676E+003
+4.62876095119E+007, +4.36159726567E+002, +2.09309078202E+003
+4.65065081352E+007, +4.34741940623E+002, +2.10599477445E+003
+4.67254067584E+007, +4.41351065213E+002, +2.14977447204E+003
+4.69443053817E+007, +4.41111834094E+002, +2.17882069137E+003
+4.71632040050E+007, +4.66991194179E+002, +2.22821241184E+003
+4.73821026283E+007, +4.93155153683E+002, +2.26358101445E+003
+4.76010012516E+007, +5.07259135952E+002, +2.31404029212E+003
+4.78198998748E+007, +5.00582734935E+002, +2.37102489576E+003
+4.80387984981E+007, +5.34598041237E+002, +2.41765215723E+003
+4.82576971214E+007, +5.56215935938E+002, +2.44639412787E+003
+4.84765957447E+007, +5.63240079311E+002, +2.46380867423E+003
+4.86954943680E+007, +5.74985857001E+002, +2.52189992179E+003
+4.89143929912E+007, +6.18391667834E+002, +2.59164395020E+003
+4.91332916145E+007, +6.43562476476E+002, +2.64747549034E+003
+4.93521902378E+007, +6.64573670532E+002, +2.67582495530E+003
+4.95710888611E+007, +7.22072074253E+002, +2.74808122191E+003
+4.97899874844E+007, +7.25518831194E+002, +2.76726350589E+003
+5.00088861076E+007, +7.21248478905E+002, +2.84767494701E+003
+5.02277847309E+007, +7.83044460890E+002, +2.92492801201E+003
+5.04466833542E+007, +8.46476626332E+002, +2.97135580928E+003
+5.06655819775E+007, +8.79765735080E+002, +3.02446468879E+003
+5.08844806008E+007, +8.77134643905E+002, +3.09669383278E+003
+5.11033792240E+007, +9.27878339104E+002, +3.19046954864E+003
+5.13222778473E+007, +9.72984591519E+002, +3.29860089342E+003
+5.15411764706E+007, +1.06617144008E+003, +3.32233833413E+003
+5.17600750939E+007, +1.07126600702E+003, +3.45233306954E+003
+5.19789737171E+007, +1.12198484313E+003, +3.55279555813E+003
+5.21978723404E+007, +1.22232654657E+003, +3.57989787808E+003
+5.24167709637E+007, +1.18862936308E+003, +3.73107517976E+003
+5.26356695870E+007, +1.31255166263E+003, +3.70819896158E+003
+5.28545682103E+007, +1.39139827073E+003, +3.85380909001E+003
+5.30734668335E+007, +1.46348513761E+003, +4.09218241708E+003
+5.32923654568E+007, +1.52764436032E+003, +4.12920165194E+003
+5.35112640801E+007, +1.64039427271E+003, +4.14579120201E+003
+5.37301627034E+007, +1.75840465973E+003, +4.37916570642E+003
+5.39490613267E+007, +1.98483120877E+003, +4.51199878058E+003
+5.41679599499E+007, +2.07468447518E+003, +4.68824565608E+003
+5.43868585732E+007, +2.21675857759E+003, +4.72318480571E+003
+5.46057571965E+007, +2.30182040882E+003, +4.90907732898E+003
+5.48246558198E+007, +2.46443239348E+003, +5.04505180812E+003
+5.50435544431E+007, +2.78557031950E+003, +5.41192053678E+003
+5.52624530663E+007, +3.16853246221E+003, +5.38029370554E+003
+5.54813516896E+007, +3.22706625364E+003, +5.39189825299E+003
+5.57002503129E+007, +3.41797463881E+003, +5.50591728227E+003
+5.59191489362E+007, +3.77934648300E+003, +5.72513354429E+003
+5.61380475594E+007, +4.18198516787E+003, +5.71476496929E+003
+5.63569461827E+007, +4.66845873388E+003, +5.93167555608E+003
+5.65758448060E+007, +4.84372052950E+003, +6.02551233547E+003
+5.67947434293E+007, +5.56773292870E+003, +6.20871421468E+003
+5.70136420526E+007, +5.82878525866E+003, +6.07886040520E+003
+5.72325406758E+007, +6.18459701775E+003, +6.13521550080E+003
+5.74514392991E+007, +6.89483322470E+003, +5.83485150079E+003
+5.76703379224E+007, +7.37467367523E+003, +5.45137589503E+003
+5.78892365457E+007, +7.95904763658E+003, +5.72328635869E+003
+5.81081351690E+007, +8.85032553033E+003, +4.86833306999E+003
+5.83270337922E+007, +9.84664225495E+003, +4.75056487669E+003
+5.85459324155E+007, +9.82959098484E+003, +3.65850343909E+003
+5.87648310388E+007, +1.05560543725E+004, +3.60133396544E+003
+5.89837296621E+007, +1.14332562676E+004, +2.91118720727E+003
+5.92026282854E+007, +1.10014381032E+004, +1.44730962693E+003
+5.94215269086E+007, +1.08881212150E+004, +3.46861569085E+002
+5.96404255319E+007, +1.19609566365E+004, -3.16160174123E+002
+5.98593241552E+007, +1.13059073138E+004, -1.42072577452E+003
+6.00782227785E+007, +1.09013470391E+004, -2.03177561897E+003
+6.02971214018E+007, +1.02291524186E+004, -2.77256109046E+003
+6.05160200250E+007, +9.95584545496E+003, -3.20794392604E+003
+6.07349186483E+007, +9.65533678857E+003, -3.67230366162E+003
+6.09538172716E+007, +8.85432969993E+003, -4.75425828615E+003
+6.11727158949E+007, +7.71935018639E+003, -4.62668004307E+003
+6.13916145181E+007, +7.64276067732E+003, -5.22982628548E+003
+6.16105131414E+007, +7.20895801913E+003, -5.43310147555E+003
+6.18294117647E+007, +6.60987864784E+003, -5.28108302489E+003
+6.20483103880E+007, +6.46932110446E+003, -5.72762954082E+003
+6.22672090113E+007, +5.75371492121E+003, -5.32787127308E+003
+6.24861076345E+007, +5.35820421297E+003, -5.29894798266E+003
+6.27050062578E+007, +4.83766580834E+003, -5.19345771304E+003
+6.29239048811E+007, +4.55729254188E+003, -5.39478583298E+003
+6.31428035044E+007, +4.06173212289E+003, -5.37317691787E+003
+6.33617021277E+007, +3.95396322617E+003, -5.16989367037E+003
+6.35806007509E+007, +3.58793328582E+003, -5.05929394103E+003
+6.37994993742E+007, +3.27993731365E+003, -5.01292417136E+003
+6.40183979975E+007, +3.13195231794E+003, -4.82050316817E+003
+6.42372966208E+007, +2.86239804765E+003, -4.77360689276E+003
+6.44561952441E+007, +2.67393103528E+003, -4.58887476200E+003
+6.46750938673E+007, +2.35024644820E+003, -4.47078228263E+003
+6.48939924906E+007, +2.38167951764E+003, -4.25149701078E+003
+6.51128911139E+007, +2.10558308916E+003, -4.25067483904E+003
+6.53317897372E+007, +2.06814140575E+003, -4.07187272258E+003
+6.55506883605E+007, +1.95110658408E+003, -3.96145460387E+003
+6.57695869837E+007, +1.81806575154E+003, -3.88456210061E+003
+6.59884856070E+007, +1.79102554939E+003, -3.71485452853E+003
+6.62073842303E+007, +1.62938797700E+003, -3.64589216852E+003
+6.64262828536E+007, +1.58977348536E+003, -3.58018631826E+003
+6.66451814768E+007, +1.50490796514E+003, -3.47646143687E+003
+6.68640801001E+007, +1.44731490120E+003, -3.40423632390E+003
+6.70829787234E+007, +1.39812820960E+003, -3.30223727415E+003
+6.73018773467E+007, +1.39308271242E+003, -3.23493764518E+003
+6.75207759700E+007, +1.28862608768E+003, -3.12047420966E+003
+6.77396745932E+007, +1.27650568218E+003, -3.13091725248E+003
+6.79585732165E+007, +1.23808169827E+003, -2.99467100616E+003
+6.81774718398E+007, +1.10794580462E+003, -2.96236260330E+003
+6.83963704631E+007, +1.11646672051E+003, -2.86137049802E+003
+6.86152690864E+007, +1.08563368721E+003, -2.79167133109E+003
+6.88341677096E+007, +1.05107294043E+003, -2.77199532244E+003
+6.90530663329E+007, +1.01976320630E+003, -2.69131406100E+003
+6.92719649562E+007, +1.00603356056E+003, -2.64075032618E+003
+6.94908635795E+007, +9.52774078212E+002, -2.58416318334E+003
+6.97097622028E+007, +9.29539623500E+002, -2.56779839163E+003
+6.99286608260E+007, +9.12567528774E+002, -2.50743786125E+003
+7.01475594493E+007, +8.69332729497E+002, -2.42138060717E+003
