"# Channel 1"
"# Trace 1"
Frequency, Formatted Data, Formatted Data
+1.00000000000E+005, +8.95414338484E+001, +2.29188832178E+000
+3.18898623279E+005, +8.93441431107E+001, +6.87590801525E+000
+5.37797246558E+005, +8.93941369052E+001, +1.15323027274E+001
+7.56695869837E+005, +8.94555263251E+001, +1.61898773395E+001
+9.75594493116E+005, +8.94821301101E+001, +2.08844004501E+001
+1.19449311640E+006, +8.93432629560E+001, +2.55821330924E+001
+1.41339173967E+006, +8.93194787818E+001, +3.03881927045E+001
+1.63229036295E+006, +8.94181560975E+001, +3.50278404457E+001
+1.85118898623E+006, +8.94779607342E+001, +3.96638177885E+001
+2.07008760951E+006, +8.95356271235E+001, +4.45898423507E+001
+2.28898623279E+006, +8.96633261188E+001, +4.91489147235E+001
+2.50788485607E+006, +8.96201982371E+001, +5.37016454440E+001
+2.72678347935E+006, +8.94150964721E+001, +5.87204080027E+001
+2.94568210263E+006, +8.96754494021E+001, +6.33034498751E+001
+3.16458072591E+006, +8.94773024367E+001, +6.80398667522E+001
+3.38347934919E+006, +8.98849522279E+001, +7.25669362166E+001
+3.60237797247E+006, +8.96888665225E+001, +7.73524566580E+001
+3.82127659574E+006, +8.98395049172E+001, +8.18313244590E+001
+4.04017521902E+006, +9.00391867757E+001, +8.66848118252E+001
+4.25907384230E+006, +8.97831356667E+001, +9.13453478417E+001
+4.47797246558E+006, +9.00483891600E+001, +9.61851702546E+001
+4.69687108886E+006, +9.00844186104E+001, +1.01142738898E+002
+4.91576971214E+006, +9.00334348413E+001, +1.05596370232E+002
+5.13466833542E+006, +9.02487748334E+001, +1.10337406519E+002
+5.35356695870E+006, +9.04686745825E+001, +1.15145298980E+002
+5.57246558198E+006, +9.02704728264E+001, +1.19731647679E+002
+5.79136420526E+006, +9.08919837582E+001, +1.24591036646E+002
+6.01026282854E+006, +9.05126458012E+001, +1.29075406954E+002
+6.22916145181E+006, +9.09662905019E+001, +1.33902598770E+002
+6.44806007509E+006, +9.09980901960E+001, +1.38943980512E+002
+6.66695869837E+006, +9.14097513387E+001, +1.43859069308E+002
+6.88585732165E+006, +9.14171480269E+001, +1.48585366537E+002
+7.10475594493E+006, +9.16250796857E+001, +1.53218357179E+002
+7.32365456821E+006, +9.17775830757E+001, +1.58130569388E+002
+7.54255319149E+006, +9.18508176358E+001, +1.62729175790E+002
+7.76145181477E+006, +9.23085070298E+001, +1.67647465659E+002
+7.98035043805E+006, +9.25044818070E+001, +1.72637120393E+002
+8.19924906133E+006, +9.23323434435E+001, +1.77241818425E+002
+8.41814768461E+006, +9.28182035955E+001, +1.82233551437E+002
+8.63704630788E+006, +9.28814056225E+001, +1.87060110964E+002
+8.85594493116E+006, +9.32960003650E+001, +1.92078477221E+002
+9.07484355444E+006, +9.31366395730E+001, +1.96999275465E+002
+9.29374217772E+006, +9.33906811272E+001, +2.02095715493E+002
+9.51264080100E+006, +9.37840367509E+001, +2.07031546129E+002
+9.73153942428E+006, +9.40941426935E+001, +2.12356811324E+002
+9.95043804756E+006, +9.36541027350E+001, +2.16441078824E+002
+1.01693366708E+007, +9.39701502182E+001, +2.21505983880E+002
+1.03882352941E+007, +9.44552185934E+001, +2.26473976828E+002
+1.06071339174E+007, +9.45213250744E+001, +2.31836489916E+002
+1.08260325407E+007, +9.48641312071E+001, +2.37132184279E+002
+1.10449311640E+007, +9.46334492785E+001, +2.41707574543E+002
+1.12638297872E+007, +9.52517930169E+001, +2.47292306021E+002
+1.14827284105E+007, +9.54600958082E+001, +2.51768664106E+002
+1.17016270338E+007, +9.57178525935E+001, +2.57213095068E+002
+1.19205256571E+007, +9.60015351671E+001, +2.62267723028E+002
+1.21394242804E+007, +9.63145727599E+001, +2.67207480357E+002
+1.23583229036E+007, +9.70879666974E+001, +2.72821896281E+002
+1.25772215269E+007, +9.66151563831E+001, +2.77442976970E+002
+1.27961201502E+007, +9.73723411603E+001, +2.82856496789E+002
+1.30150187735E+007, +9.77144540128E+001, +2.88469527343E+002
+1.32339173967E+007, +9.75329317757E+001, +2.93302970668E+002
+1.34528160200E+007, +9.72920399888E+001, +2.98612175998E+002
+1.36717146433E+007, +9.79187440168E+001, +3.03945606485E+002
+1.38906132666E+007, +9.84431457810E+001, +3.09678812658E+002
+1.41095118899E+007, +9.88880291826E+001, +3.15219943134E+002
+1.43284105131E+007, +9.86820719665E+001, +3.20625982286E+002
+1.45473091364E+007, +9.95503367523E+001, +3.26155289786E+002
+1.47662077597E+007, +9.95491455190E+001, +3.30193091725E+002
+1.49851063830E+007, +1.00361592428E+002, +3.35897552124E+002
+1.52040050063E+007, +1.00931912923E+002, +3.42369939740E+002
+1.54229036295E+007, +1.00933251395E+002, +3.47593591225E+002
+1.56418022528E+007, +1.00701806510E+002, +3.53260905971E+002
+1.58607008761E+007, +1.01434346632E+002, +3.58442267357E+002
+1.60795994994E+007, +1.02188488556E+002, +3.65242539443E+002
+1.62984981227E+007, +1.02602957322E+002, +3.68876637489E+002
+1.65173967459E+007, +1.02638095441E+002, +3.76054637719E+002
+1.67362953692E+007, +1.02923787674E+002, +3.81701506612E+002
+1.69551939925E+007, +1.03698740645E+002, +3.85533648452E+002
+1.71740926158E+007, +1.02288174824E+002, +3.93503481936E+002
+1.73929912390E+007, +1.03138359871E+002, +3.98862685903E+002
+1.76118898623E+007, +1.04049825963E+002, +4.04041808141E+002
+1.78307884856E+007, +1.05737801152E+002, +4.09425058332E+002
+1.80496871089E+007, +1.05690376472E+002, +4.16785605324E+002
+1.82685857322E+007, +1.06014618978E+002, +4.22727338464E+002
+1.84874843554E+007, +1.07453663047E+002, +4.27567032887E+002
+1.87063829787E+007, +1.06240386258E+002, +4.33642619421E+002
+1.89252816020E+007, +1.07184258681E+002, +4.40855186006E+002
+1.91441802253E+007, +1.08062674778E+002, +4.45705635064E+002
+1.93630788486E+007, +1.08370492159E+002, +4.51468301572E+002
+1.95819774718E+007, +1.09927929034E+002, +4.57516194157E+002
+1.98008760951E+007, +1.09092357656E+002, +4.64791510491E+002
+2.00197747184E+007, +1.09673913779E+002, +4.69726574924E+002
+2.02386733417E+007, +1.10312671946E+002, +4.76229005011E+002
+2.04575719650E+007, +1.11402461286E+002, +4.82729334008E+002
+2.06764705882E+007, +1.12729844099E+002, +4.90955510345E+002
+2.08953692115E+007, +1.13705964002E+002, +4.96769341939E+002
+2.11142678348E+007, +1.13419297807E+002, +5.00825266979E+002
+2.13331664581E+007, +1.14861921360E+002, +5.08355618584E+002
+2.15520650814E+007, +1.14494012608E+002, +5.13238225232E+002
+2.17709637046E+007, +1.15711683262E+002, +5.21765319408E+002
+2.19898623279E+007, +1.17175278181E+002, +5.28881100237E+002
+2.22087609512E+007, +1.16024446610E+002, +5.33978221055E+002
+2.24276595745E+007, +1.19579231705E+002, +5.41736673038E+002
+2.26465581977E+007, +1.19160904570E+002, +5.47550345423E+002
+2.28654568210E+007, +1.20948848574E+002, +5.53948454446E+002
+2.30843554443E+007, +1.19508223391E+002, +5.60782705789E+002
+2.33032540676E+007, +1.22856277450E+002, +5.67426743707E+002
+2.35221526909E+007, +1.21729834310E+002, +5.74534527262E+002
+2.37410513141E+007, +1.23801568774E+002, +5.80818484045E+002
+2.39599499374E+007, +1.23875166856E+002, +5.89202182748E+002
+2.41788485607E+007, +1.25337875192E+002, +5.94710624765E+002
+2.43977471840E+007, +1.25815245932E+002, +6.02827228792E+002
+2.46166458073E+007, +1.26623840410E+002, +6.11117751040E+002
+2.48355444305E+007, +1.27719128364E+002, +6.16202010159E+002
+2.50544430538E+007, +1.31153915033E+002, +6.23800891060E+002
+2.52733416771E+007, +1.31260536356E+002, +6.30210007272E+002
+2.54922403004E+007, +1.29991482212E+002, +6.39244397305E+002
+2.57111389237E+007, +1.34364363838E+002, +6.48140214360E+002
+2.59300375469E+007, +1.31032502288E+002, +6.53196308547E+002
+2.61489361702E+007, +1.33767901024E+002, +6.61327394409E+002
+2.63678347935E+007, +1.33304127908E+002, +6.71340303479E+002
+2.65867334168E+007, +1.35126697307E+002, +6.74709336918E+002
+2.68056320401E+007, +1.37596060588E+002, +6.84040650501E+002
+2.70245306633E+007, +1.37176395050E+002, +6.90917161240E+002
+2.72434292866E+007, +1.37496972152E+002, +6.98281951886E+002
+2.74623279099E+007, +1.39031285212E+002, +7.09495287080E+002
+2.76812265332E+007, +1.37539263239E+002, +7.16758119532E+002
+2.79001251564E+007, +1.43280649054E+002, +7.25148767545E+002
+2.81190237797E+007, +1.43690567507E+002, +7.34061759351E+002
+2.83379224030E+007, +1.43770946040E+002, +7.38891941613E+002
+2.85568210263E+007, +1.42115486484E+002, +7.47782124857E+002
+2.87757196496E+007, +1.45221058283E+002, +7.60120741496E+002
+2.89946182728E+007, +1.44176222083E+002, +7.68818247429E+002
+2.92135168961E+007, +1.45482160821E+002, +7.79275568449E+002
+2.94324155194E+007, +1.48034486269E+002, +7.85548485283E+002
+2.96513141427E+007, +1.48249017215E+002, +7.97697270515E+002
+2.98702127660E+007, +1.49740725400E+002, +8.03955052101E+002
+3.00891113892E+007, +1.51692454271E+002, +8.15947083409E+002
+3.03080100125E+007, +1.55891279053E+002, +8.21648919736E+002
+3.05269086358E+007, +1.55099273164E+002, +8.33760566276E+002
+3.07458072591E+007, +1.58780905049E+002, +8.38259560767E+002
+3.09647058824E+007, +1.56241280954E+002, +8.48310374945E+002
+3.11836045056E+007, +1.58798946374E+002, +8.59924649902E+002
+3.14025031289E+007, +1.59448283518E+002, +8.69949655717E+002
+3.16214017522E+007, +1.65570014133E+002, +8.79975909374E+002
+3.18403003755E+007, +1.61708693123E+002, +8.94950580808E+002
+3.20591989987E+007, +1.64895193700E+002, +9.03431339898E+002
+3.22780976220E+007, +1.65782228210E+002, +9.10951423628E+002
+3.24969962453E+007, +1.66769416077E+002, +9.24842115595E+002
+3.27158948686E+007, +1.72106982899E+002, +9.34832984430E+002
+3.29347934919E+007, +1.70041694709E+002, +9.44899757021E+002
+3.31536921151E+007, +1.72849178817E+002, +9.53040540494E+002
+3.33725907384E+007, +1.73707014894E+002, +9.69303239078E+002
+3.35914893617E+007, +1.75854785552E+002, +9.74824447534E+002
+3.38103879850E+007, +1.75771302898E+002, +9.87030026435E+002
+3.40292866083E+007, +1.78708693917E+002, +1.00245841816E+003
+3.42481852315E+007, +1.88354605384E+002, +1.00935310382E+003
+3.44670838548E+007, +1.86078759301E+002, +1.01904010085E+003
+3.46859824781E+007, +1.89133840021E+002, +1.03626501591E+003
+3.49048811014E+007, +1.93956184716E+002, +1.04755595753E+003
+3.51237797247E+007, +1.92788270343E+002, +1.05897617697E+003
+3.53426783479E+007, +1.97150881153E+002, +1.07947318248E+003
+3.55615769712E+007, +1.98832183560E+002, +1.08920638026E+003
+3.57804755945E+007, +2.05127476131E+002, +1.09343079047E+003
+3.59993742178E+007, +2.02255031884E+002, +1.12499962900E+003
+3.62182728411E+007, +2.00021108207E+002, +1.12767460858E+003
+3.64371714643E+007, +2.06824645659E+002, +1.13462689396E+003
+3.66560700876E+007, +2.07777572876E+002, +1.15515509864E+003
+3.68749687109E+007, +2.16001093461E+002, +1.16968073794E+003
+3.70938673342E+007, +2.18115040386E+002, +1.18287905274E+003
+3.73127659574E+007, +2.16061996096E+002, +1.19951068628E+003
+3.75316645807E+007, +2.20784405204E+002, +1.21112716101E+003
+3.77505632040E+007, +2.27120328428E+002, +1.22359783337E+003
+3.79694618273E+007, +2.35062226027E+002, +1.23650907381E+003
+3.81883604506E+007, +2.27001269013E+002, +1.26067632716E+003
+3.84072590738E+007, +2.24420661241E+002, +1.27376454849E+003
+3.86261576971E+007, +2.35692260814E+002, +1.29469389894E+003
+3.88450563204E+007, +2.42193979813E+002, +1.30520421601E+003
+3.90639549437E+007, +2.57378884972E+002, +1.31152461016E+003
+3.92828535670E+007, +2.52369575422E+002, +1.34307379578E+003
+3.95017521902E+007, +2.53899195617E+002, +1.36301867525E+003
+3.97206508135E+007, +2.56897950039E+002, +1.38276943839E+003
+3.99395494368E+007, +2.59048175268E+002, +1.39308800362E+003
+4.01584480601E+007, +2.88438557758E+002, +1.41152055776E+003
+4.03773466834E+007, +2.81968313949E+002, +1.44381545286E+003
+4.05962453066E+007, +2.76928129557E+002, +1.46380814721E+003
+4.08151439299E+007, +2.92737790978E+002, +1.46632228456E+003
+4.10340425532E+007, +2.88514506407E+002, +1.49993923165E+003
+4.12529411765E+007, +2.78085828329E+002, +1.50207406318E+003
+4.14718397997E+007, +3.05450460603E+002, +1.53466363242E+003
+4.16907384230E+007, +3.04417200300E+002, +1.56279733701E+003
+4.19096370463E+007, +3.11992893808E+002, +1.57917636357E+003
+4.21285356696E+007, +3.15190587846E+002, +1.60105899044E+003
+4.23474342929E+007, +3.30688707280E+002, +1.62924940584E+003
+4.25663329161E+007, +3.40681771435E+002, +1.63628850954E+003
+4.27852315394E+007, +3.41255558113E+002, +1.67182754611E+003
+4.30041301627E+007, +3.47169385610E+002, +1.70509949936E+003
+4.32230287860E+007, +3.73765936115E+002, +1.72068632890E+003
+4.34419274093E+007, +3.64903104226E+002, +1.74126001681E+003
+4.36608260325E+007, +3.67958190999E+002, +1.76589785317E+003
+4.38797246558E+007, +3.90274331578E+002, +1.79209931636E+003
+4.40986232791E+007, +3.90357283262E+002, +1.82428740313E+003
+4.43175219024E+007, +3.97633685984E+002, +1.86010730982E+003
+4.45364205257E+007, +4.25243227280E+002, +1.90529410260E+003
+4.47553191489E+007, +4.38966877510E+002, +1.92452754356E+003
+4.49742177722E+007, +4.32081125043E+002, +1.94759138966E+003
+4.51931163955E+007, +4.41934830707E+002, +1.97003052228E+003
+4.54120150188E+007, +4.53649149599E+002, +1.99156627550E+003
+4.56309136421E+007, +4.67582680625E+002, +2.04684364662E+003
+4.58498122653E+007, +4.89636837040E+002, +2.06235239240E+003
+4.60687108886E+007, +4.93880699119E+002, +2.12813158016E+003
+4.62876095119E+007, +5.19397916211E+002, +2.13970170012E+003
+4.65065081352E+007, +5.40333089147E+002, +2.17750190385E+003
+4.67254067584E+007, +5.44708594302E+002, +2.21607750399E+003
+4.69443053817E+007, +5.63846730456E+002, +2.25989389332E+003
+4.71632040050E+007, +5.52761830984E+002, +2.31423479243E+003
+4.73821026283E+007, +5.91469890900E+002, +2.31637393661E+003
+4.76010012516E+007, +6.28752116428E+002, +2.36455839710E+003
+4.78198998748E+007, +6.04451889770E+002, +2.44158996291E+003
+4.80387984981E+007, +6.44537016937E+002, +2.46268132862E+003
+4.82576971214E+007, +6.83362201105E+002, +2.51737219888E+003
+4.84765957447E+007, +7.08069096042E+002, +2.55656028446E+003
+4.86954943680E+007, +7.08050327577E+002, +2.60144251334E+003
+4.89143929912E+007, +7.65653076034E+002, +2.66800496109E+003
+4.91332916145E+007, +7.97539934232E+002, +2.72403152387E+003
+4.93521902378E+007, +8.38405351360E+002, +2.77391083107E+003
+4.95710888611E+007, +9.03545251777E+002, +2.79942903214E+003
+4.97899874844E+007, +9.13442058078E+002, +2.81845072500E+003
+5.00088861076E+007, +8.95538317419E+002, +2.92203992849E+003
+5.02277847309E+007, +9.99632940534E+002, +2.97394401252E+003
+5.04466833542E+007, +1.08242135999E+003, +3.03509151996E+003
+5.06655819775E+007, +1.06736585555E+003, +3.14148456723E+003
+5.08844806008E+007, +1.04475084409E+003, +3.20509873930E+003
+5.11033792240E+007, +1.12723939783E+003, +3.26405338428E+003
+5.13222778473E+007, +1.19556338899E+003, +3.34306247646E+003
+5.15411764706E+007, +1.29832287774E+003, +3.41958451312E+003
+5.17600750939E+007, +1.37044796291E+003, +3.53136706435E+003
+5.19789737171E+007, +1.44649735399E+003, +3.60491421633E+003
+5.21978723404E+007, +1.54325622652E+003, +3.68882783729E+003
+5.24167709637E+007, +1.51077045011E+003, +3.75549244066E+003
+5.26356695870E+007, +1.66431161467E+003, +3.80217627260E+003
+5.28545682103E+007, +1.78975529873E+003, +3.90408091434E+003
+5.30734668335E+007, +1.94576368029E+003, +4.08928958184E+003
+5.32923654568E+007, +1.99292409808E+003, +4.25452510829E+003
+5.35112640801E+007, +2.17723911888E+003, +4.20784743724E+003
+5.37301627034E+007, +2.30959988936E+003, +4.41793918964E+003
+5.39490613267E+007, +2.38169542270E+003, +4.44321584036E+003
+5.41679599499E+007, +2.54197924150E+003, +4.49479462721E+003
+5.43868585732E+007, +2.69057922755E+003, +4.71956105059E+003
+5.46057571965E+007, +3.07696384912E+003, +4.80606574598E+003
+5.48246558198E+007, +3.07413838330E+003, +4.92942505355E+003
+5.50435544431E+007, +3.57210234315E+003, +5.01331497565E+003
+5.52624530663E+007, +3.89711777854E+003, +5.28012764143E+003
+5.54813516896E+007, +3.97950943326E+003, +5.08251363172E+003
+5.57002503129E+007, +4.25974837647E+003, +5.14647720094E+003
+5.59191489362E+007, +4.62836002838E+003, +5.21833968001E+003
+5.61380475594E+007, +5.01743904911E+003, +5.44801099951E+003
+5.63569461827E+007, +5.57799380733E+003, +5.23249460154E+003
+5.65758448060E+007, +5.67588500011E+003, +5.19753110624E+003
+5.67947434293E+007, +6.40340759755E+003, +5.09602525240E+003
+5.70136420526E+007, +6.79230287207E+003, +5.01193317939E+003
+5.72325406758E+007, +6.99326301235E+003, +4.84105362006E+003
+5.74514392991E+007, +7.63658613324E+003, +4.49433780906E+003
+5.76703379224E+007, +8.03511234975E+003, +4.42768888386E+003
+5.78892365457E+007, +9.13499430674E+003, +4.07734318910E+003
+5.81081351690E+007, +8.85086877163E+003, +2.90771411792E+003
+5.83270337922E+007, +9.92461767344E+003, +2.92239272310E+003
+5.85459324155E+007, +9.20091058067E+003, +2.00054302509E+003
+5.87648310388E+007, +1.06231323952E+004, +1.37706202926E+003
+5.89837296621E+007, +1.02977326440E+004, +7.59530352048E+002
+5.92026282854E+007, +9.72595485012E+003, -1.31098269501E+002
+5.94215269086E+007, +9.73529520786E+003, -6.74573054411E+002
+5.96404255319E+007, +9.95513959775E+003, -1.73345530137E+003
+5.98593241552E+007, +9.48175993352E+003, -2.22268129577E+003
+6.00782227785E+007, +9.00636548924E+003, -3.07003387999E+003
+6.02971214018E+007, +8.62631410873E+003, -3.09520794457E+003
+6.05160200250E+007, +8.50770843579E+003, -3.64029664386E+003
+6.07349186483E+007, +7.74511766420E+003, -3.84594318375E+003
+6.09538172716E+007, +7.49528577253E+003, -4.41546053641E+003
+6.11727158949E+007, +6.69971105895E+003, -4.41993548107E+003
+6.13916145181E+007, +6.40441525619E+003, -4.67417421299E+003
+6.16105131414E+007, +6.10677743665E+003, -4.90818548351E+003
+6.18294117647E+007, +5.70454221593E+003, -4.84672160023E+003
+6.20483103880E+007, +5.39260580058E+003, -4.99485276767E+003
+6.22672090113E+007, +4.98178899919E+003, -4.92459775956E+003
+6.24861076345E+007, +4.63892572051E+003, -4.65571022207E+003
+6.27050062578E+007, +4.37151800460E+003, -4.66086148876E+003
+6.29239048811E+007, +3.92850521574E+003, -4.96240818541E+003
+6.31428035044E+007, +3.73115679709E+003, -4.79820732543E+003
+6.33617021277E+007, +3.53209404392E+003, -4.57621033569E+003
+6.35806007509E+007, +3.19223903882E+003, -4.47854055697E+003
+6.37994993742E+007, +3.00509262401E+003, -4.49413193831E+003
+6.40183979975E+007, +2.92681966655E+003, -4.27212061779E+003
+6.42372966208E+007, +2.62734069021E+003, -4.28088341911E+003
+6.44561952441E+007, +2.60087852429E+003, -4.11193920527E+003
+6.46750938673E+007, +2.33788671084E+003, -3.99270349181E+003
+6.48939924906E+007, +2.29123916044E+003, -3.85550103705E+003
+6.51128911139E+007, +2.04534597559E+003, -3.83464890379E+003
+6.53317897372E+007, +2.00904666588E+003, -3.60244264568E+003
+6.55506883605E+007, +1.91419978970E+003, -3.57972715420E+003
+6.57695869837E+007, +1.84256464541E+003, -3.52184333812E+003
+6.59884856070E+007, +1.76792038178E+003, -3.41319187282E+003
+6.62073842303E+007, +1.64281042736E+003, -3.34530962419E+003
+6.64262828536E+007, +1.61849397788E+003, -3.30786801210E+003
+6.66451814768E+007, +1.50081969538E+003, -3.21788278229E+003
+6.68640801001E+007, +1.45301578617E+003, -3.15366686340E+003
+6.70829787234E+007, +1.42052362709E+003, -3.09598759091E+003
+6.73018773467E+007, +1.39174503859E+003, -3.02089772080E+003
+6.75207759700E+007, +1.36243020504E+003, -2.91585071688E+003
+6.77396745932E+007, +1.32026401839E+003, -2.91179793685E+003
+6.79585732165E+007, +1.26946048203E+003, -2.81969530274E+003
+6.81774718398E+007, +1.16266794244E+003, -2.79000707282E+003
+6.83963704631E+007, +1.16756165644E+003, -2.74019014027E+003
+6.86152690864E+007, +1.13921502273E+003, -2.65410344137E+003
+6.88341677096E+007, +1.09540704656E+003, -2.59978845308E+003
+6.90530663329E+007, +1.07600418448E+003, -2.57753785721E+003
+6.92719649562E+007, +1.04094959543E+003, -2.51735900785E+003
+6.94908635795E+007, +1.00183593497E+003, -2.49909900089E+003
+6.97097622028E+007, +9.80625383990E+002, -2.41568626922E+003
+6.99286608260E+007, +9.44820361086E+002, -2.38502202424E+003
+7.01475594493E+007, +8.95723163357E+002, -2.32918259727E+003
