"# Channel 1"
"# Trace 1"
Frequency, Formatted Data, Formatted Data
+1.00000000000E+005, +6.70569852127E-001, +2.03396534966E+000
+2.66777963272E+005, +6.74325117310E-001, +5.40332016821E+000
+4.33555926544E+005, +6.88505561633E-001, +8.78938786733E+000
+6.00333889816E+005, +7.51194853851E-001, +1.21195792660E+001
+7.67111853088E+005, +7.88789810751E-001, +1.55017106337E+001
+9.33889816361E+005, +8.55277374077E-001, +1.87919003478E+001
+1.10066777963E+006, +7.92971844323E-001, +2.21709724662E+001
+1.26744574290E+006, +8.99197028129E-001, +2.54571592343E+001
+1.43422370618E+006, +8.65551773681E-001, +2.88356760170E+001
+1.60100166945E+006, +9.91193763623E-001, +3.20857477775E+001
+1.76777963272E+006, +1.01213384454E+000, +3.53814249897E+001
+1.93455759599E+006, +1.04330762304E+000, +3.86028543270E+001
+2.10133555927E+006, +1.07975545134E+000, +4.19426284185E+001
+2.26811352254E+006, +1.13786848338E+000, +4.52432706472E+001
+2.43489148581E+006, +1.12856706385E+000, +4.86069548210E+001
+2.60166944908E+006, +1.16062139968E+000, +5.18666983174E+001
+2.76844741235E+006, +1.11690604012E+000, +5.52080200127E+001
+2.93522537563E+006, +1.12684113197E+000, +5.84950083676E+001
+3.10200333890E+006, +1.27103162965E+000, +6.17496958885E+001
+3.26878130217E+006, +1.12172142841E+000, +6.51111789844E+001
+3.43555926544E+006, +1.25753118913E+000, +6.83981743892E+001
+3.60233722871E+006, +1.32508759216E+000, +7.17870359670E+001
+3.76911519199E+006, +1.22042060976E+000, +7.51905743013E+001
+3.93589315526E+006, +1.15958488088E+000, +7.83297383529E+001
+4.10267111853E+006, +1.30515837481E+000, +8.18230496135E+001
+4.26944908180E+006, +1.26250513683E+000, +8.52479980821E+001
+4.43622704508E+006, +1.27508183803E+000, +8.84128841372E+001
+4.60300500835E+006, +1.29287943415E+000, +9.18401797977E+001
+4.76978297162E+006, +1.15764780494E+000, +9.50356288925E+001
+4.93656093489E+006, +1.47487033241E+000, +9.85487265219E+001
+5.10333889816E+006, +1.40960086888E+000, +1.01706610648E+002
+5.27011686144E+006, +1.63678523942E+000, +1.05393519176E+002
+5.43689482471E+006, +1.45791796674E+000, +1.08605710744E+002
+5.60367278798E+006, +1.38251756259E+000, +1.12135282994E+002
+5.77045075125E+006, +1.46341674579E+000, +1.15366248682E+002
+5.93722871452E+006, +1.51317716387E+000, +1.18788432720E+002
+6.10400667780E+006, +1.40636093635E+000, +1.22287153836E+002
+6.27078464107E+006, +1.72544414523E+000, +1.25510615377E+002
+6.43756260434E+006, +1.76945097694E+000, +1.28996317826E+002
+6.60434056761E+006, +1.85594069926E+000, +1.32359824608E+002
+6.77111853088E+006, +2.04537987914E+000, +1.35706820501E+002
+6.93789649416E+006, +1.90906308992E+000, +1.39153995145E+002
+7.10467445743E+006, +1.89969933394E+000, +1.42572589917E+002
+7.27145242070E+006, +1.95236760340E+000, +1.45929615620E+002
+7.43823038397E+006, +2.13541939670E+000, +1.49223854692E+002
+7.60500834725E+006, +1.93446556228E+000, +1.52703084556E+002
+7.77178631052E+006, +2.03882273330E+000, +1.56341207138E+002
+7.93856427379E+006, +2.00667794620E+000, +1.59564587992E+002
+8.10534223706E+006, +2.09586761289E+000, +1.63013865448E+002
+8.27212020033E+006, +2.19954580123E+000, +1.66489090191E+002
+8.43889816361E+006, +1.98499339942E+000, +1.70035023857E+002
+8.60567612688E+006, +1.86074816802E+000, +1.73641694793E+002
+8.77245409015E+006, +1.93381799542E+000, +1.76706619276E+002
+8.93923205342E+006, +2.02917570790E+000, +1.80384624160E+002
+9.10601001669E+006, +1.94817486195E+000, +1.84111295282E+002
+9.27278797997E+006, +2.00367281258E+000, +1.87456808605E+002
+9.43956594324E+006, +1.74282065246E+000, +1.90957818737E+002
+9.60634390651E+006, +2.01852805468E+000, +1.94574420413E+002
+9.77312186978E+006, +1.84105038397E+000, +1.98056470502E+002
+9.93989983306E+006, +2.16043247045E+000, +2.01706030332E+002
+1.01066777963E+007, +1.66289948584E+000, +2.05170080849E+002
+1.02734557596E+007, +1.83965482763E+000, +2.08974835647E+002
+1.04402337229E+007, +1.73786728485E+000, +2.12580462978E+002
+1.06070116861E+007, +1.69023257133E+000, +2.16017753507E+002
+1.07737896494E+007, +1.71757531219E+000, +2.19664242720E+002
+1.09405676127E+007, +1.87745125223E+000, +2.23325598416E+002
+1.11073455760E+007, +1.63094495062E+000, +2.26993834550E+002
+1.12741235392E+007, +1.63239711876E+000, +2.30555457419E+002
+1.14409015025E+007, +1.93878639985E+000, +2.34448002179E+002
+1.16076794658E+007, +1.82848289075E+000, +2.37933706464E+002
+1.17744574290E+007, +1.80045961546E+000, +2.41960126005E+002
+1.19412353923E+007, +1.62608562518E+000, +2.45091736241E+002
+1.21080133556E+007, +1.41420736431E+000, +2.49251398524E+002
+1.22747913189E+007, +1.66898616422E+000, +2.53300093979E+002
+1.24415692821E+007, +1.58552576326E+000, +2.56469398924E+002
+1.26083472454E+007, +1.51885656477E+000, +2.60563410729E+002
+1.27751252087E+007, +1.73363178283E+000, +2.63989194151E+002
+1.29419031720E+007, +1.22849448662E+000, +2.67914421384E+002
+1.31086811352E+007, +1.66712743428E+000, +2.71781400332E+002
+1.32754590985E+007, +1.67558687859E+000, +2.75220045475E+002
+1.34422370618E+007, +1.85960589272E+000, +2.79481365711E+002
+1.36090150250E+007, +1.86950660270E+000, +2.83368448760E+002
+1.37757929883E+007, +1.57212786926E+000, +2.87269763645E+002
+1.39425709516E+007, +1.65256742411E+000, +2.91053129184E+002
+1.41093489149E+007, +1.38514592640E+000, +2.94972574237E+002
+1.42761268781E+007, +2.07083459742E+000, +2.98838113853E+002
+1.44429048414E+007, +2.04892423546E+000, +3.02597176155E+002
+1.46096828047E+007, +1.69146066370E+000, +3.06759032765E+002
+1.47764607679E+007, +1.97347488631E+000, +3.09931705092E+002
+1.49432387312E+007, +1.34525856587E+000, +3.14241114388E+002
+1.51100166945E+007, +1.59337795884E+000, +3.18319771168E+002
+1.52767946578E+007, +2.17360720744E+000, +3.21883497158E+002
+1.54435726210E+007, +1.69807789825E+000, +3.26369829753E+002
+1.56103505843E+007, +1.87204468453E+000, +3.30233343154E+002
+1.57771285476E+007, +1.87240246728E+000, +3.34498559330E+002
+1.59439065109E+007, +1.59459397557E+000, +3.38569025283E+002
+1.61106844741E+007, +1.79094952897E+000, +3.42808491221E+002
+1.62774624374E+007, +1.44971244017E+000, +3.46765071678E+002
+1.64442404007E+007, +1.48591784777E+000, +3.50772094715E+002
+1.66110183639E+007, +1.76321065683E+000, +3.54723012606E+002
+1.67777963272E+007, +1.69713540208E+000, +3.59535490915E+002
+1.69445742905E+007, +2.02657672587E+000, +3.62980833118E+002
+1.71113522538E+007, +5.49965563343E-001, +3.67410110901E+002
+1.72781302170E+007, +1.20822480253E+000, +3.72093331675E+002
+1.74449081803E+007, +1.28003911983E+000, +3.75966407598E+002
+1.76116861436E+007, +2.13308925498E+000, +3.81148664641E+002
+1.77784641068E+007, +1.45450467156E+000, +3.84139037647E+002
+1.79452420701E+007, +1.44408294193E+000, +3.88697983573E+002
+1.81120200334E+007, +1.95091336544E+000, +3.92376989043E+002
+1.82787979967E+007, +2.71395343702E+000, +3.98245932970E+002
+1.84455759599E+007, +1.85653967138E+000, +4.02265564942E+002
+1.86123539232E+007, +2.20336009169E+000, +4.06555639646E+002
+1.87791318865E+007, +2.39946061460E+000, +4.11120573591E+002
+1.89459098497E+007, +2.38617138871E+000, +4.15901094482E+002
+1.91126878130E+007, +2.66813238009E+000, +4.19336448457E+002
+1.92794657763E+007, +2.51240433747E+000, +4.24954348805E+002
+1.94462437396E+007, +2.38231669931E+000, +4.29636955649E+002
+1.96130217028E+007, +2.21340583691E+000, +4.33625775240E+002
+1.97797996661E+007, +2.25892202558E+000, +4.37703667470E+002
+1.99465776294E+007, +2.26167229140E+000, +4.43142699324E+002
+2.01133555927E+007, +1.86812353774E+000, +4.47512192442E+002
+2.02801335559E+007, +2.96893348796E+000, +4.53366738752E+002
+2.04469115192E+007, +2.84791528510E+000, +4.57852646861E+002
+2.06136894825E+007, +2.82768111041E+000, +4.62437079531E+002
+2.07804674457E+007, +3.21532302310E+000, +4.68080752996E+002
+2.09472454090E+007, +2.99304097599E+000, +4.72522339998E+002
+2.11140233723E+007, +3.51045720709E+000, +4.76243165737E+002
+2.12808013356E+007, +3.51871944296E+000, +4.80342374434E+002
+2.14475792988E+007, +3.21002247655E+000, +4.86186789146E+002
+2.16143572621E+007, +4.68886880897E+000, +4.91994304503E+002
+2.17811352254E+007, +3.32118359383E+000, +4.96572346226E+002
+2.19479131886E+007, +3.98980061137E+000, +5.01173224278E+002
+2.21146911519E+007, +5.43831311851E+000, +5.04781317979E+002
+2.22814691152E+007, +3.98750416466E+000, +5.11223300452E+002
+2.24482470785E+007, +5.05553695552E+000, +5.17780210472E+002
+2.26150250417E+007, +6.56267880278E+000, +5.22060137301E+002
+2.27818030050E+007, +5.12288781611E+000, +5.27599609740E+002
+2.29485809683E+007, +7.85717082697E+000, +5.31344511260E+002
+2.31153589316E+007, +5.40519045771E+000, +5.36982224672E+002
+2.32821368948E+007, +7.49295160441E+000, +5.43205104328E+002
+2.34489148581E+007, +7.82291688227E+000, +5.47509284991E+002
+2.36156928214E+007, +6.22273903903E+000, +5.53696924265E+002
+2.37824707846E+007, +7.72202174557E+000, +5.57146612954E+002
+2.39492487479E+007, +6.70641037130E+000, +5.61612022212E+002
+2.41160267112E+007, +6.70237687562E+000, +5.68738660986E+002
+2.42828046745E+007, +6.51025336586E+000, +5.75157472696E+002
+2.44495826377E+007, +8.55033145808E+000, +5.81119757899E+002
+2.46163606010E+007, +7.98570151417E+000, +5.84643914093E+002
+2.47831385643E+007, +8.05431659280E+000, +5.92535720354E+002
+2.49499165275E+007, +1.04411715919E+001, +5.97539302144E+002
+2.51166944908E+007, +9.61813519128E+000, +6.02419174758E+002
+2.52834724541E+007, +9.01734142492E+000, +6.07891648408E+002
+2.54502504174E+007, +1.16387720346E+001, +6.14424564179E+002
+2.56170283806E+007, +9.68153256172E+000, +6.19568235151E+002
+2.57838063439E+007, +1.18866682032E+001, +6.26188061114E+002
+2.59505843072E+007, +1.07772362042E+001, +6.33599240639E+002
+2.61173622705E+007, +1.08283814680E+001, +6.37713076651E+002
+2.62841402337E+007, +1.20864555504E+001, +6.42775284718E+002
+2.64509181970E+007, +1.09174214075E+001, +6.50169527044E+002
+2.66176961603E+007, +1.11968466117E+001, +6.58459341859E+002
+2.67844741235E+007, +1.33314637906E+001, +6.60066468918E+002
+2.69512520868E+007, +1.35677435594E+001, +6.66314226106E+002
+2.71180300501E+007, +1.31523705046E+001, +6.70644782170E+002
+2.72848080134E+007, +1.26756915604E+001, +6.80623316949E+002
+2.74515859766E+007, +1.48526576894E+001, +6.86888785256E+002
+2.76183639399E+007, +1.23228799431E+001, +6.92550933303E+002
+2.77851419032E+007, +1.30490214803E+001, +6.98319114627E+002
+2.79519198664E+007, +1.48609068109E+001, +7.04896568232E+002
+2.81186978297E+007, +1.62696834517E+001, +7.10715733230E+002
+2.82854757930E+007, +1.50651783926E+001, +7.16246116183E+002
+2.84522537563E+007, +1.43449118229E+001, +7.24561351397E+002
+2.86190317195E+007, +1.51116437392E+001, +7.30147177197E+002
+2.87858096828E+007, +1.92009722553E+001, +7.39568018121E+002
+2.89525876461E+007, +1.58082092124E+001, +7.45129913188E+002
+2.91193656093E+007, +1.54366677526E+001, +7.50179448559E+002
+2.92861435726E+007, +1.49534499811E+001, +7.57969386742E+002
+2.94529215359E+007, +1.65263616902E+001, +7.66645455687E+002
+2.96196994992E+007, +1.78076750099E+001, +7.71862185777E+002
+2.97864774624E+007, +1.90994023352E+001, +7.79998721020E+002
+2.99532554257E+007, +2.22088681422E+001, +7.86923689583E+002
+3.01200333890E+007, +1.76649630601E+001, +7.96691879529E+002
+3.02868113523E+007, +1.58361107804E+001, +8.02557561456E+002
+3.04535893155E+007, +1.55977038477E+001, +8.09947326226E+002
+3.06203672788E+007, +1.89254587403E+001, +8.16719496327E+002
+3.07871452421E+007, +2.01866547902E+001, +8.22413536658E+002
+3.09539232053E+007, +1.91998232719E+001, +8.30917851293E+002
+3.11207011686E+007, +1.77813269672E+001, +8.42656910498E+002
+3.12874791319E+007, +1.59865226552E+001, +8.49251365756E+002
+3.14542570952E+007, +2.11708763608E+001, +8.58270749349E+002
+3.16210350584E+007, +1.70097909208E+001, +8.66673881860E+002
+3.17878130217E+007, +1.91085358735E+001, +8.71625463361E+002
+3.19545909850E+007, +2.14121406227E+001, +8.82893416755E+002
+3.21213689482E+007, +1.55111992793E+001, +8.92082085290E+002
+3.22881469115E+007, +1.81228550277E+001, +8.96924006775E+002
+3.24549248748E+007, +1.70787295577E+001, +9.08220637584E+002
+3.26217028381E+007, +1.81593355755E+001, +9.18248379822E+002
+3.27884808013E+007, +2.09739146166E+001, +9.25346593084E+002
+3.29552587646E+007, +2.15224479546E+001, +9.34398137967E+002
+3.31220367279E+007, +1.90921406022E+001, +9.44259407826E+002
+3.32888146912E+007, +2.33919359751E+001, +9.55116406140E+002
+3.34555926544E+007, +1.81101695226E+001, +9.64236963844E+002
+3.36223706177E+007, +2.20228777416E+001, +9.73415009034E+002
+3.37891485810E+007, +2.26526644620E+001, +9.79539446377E+002
+3.39559265442E+007, +2.29745044210E+001, +9.95323497313E+002
+3.41227045075E+007, +1.73775879268E+001, +1.00055321046E+003
+3.42894824708E+007, +2.15106635562E+001, +1.01132585955E+003
+3.44562604341E+007, +2.09489368453E+001, +1.01960450911E+003
+3.46230383973E+007, +2.01780681598E+001, +1.03577387655E+003
+3.47898163606E+007, +2.39477027663E+001, +1.04088263446E+003
+3.49565943239E+007, +2.86104129271E+001, +1.05697791386E+003
+3.51233722871E+007, +2.41023181420E+001, +1.06460976112E+003
+3.52901502504E+007, +2.97768421723E+001, +1.07209684518E+003
+3.54569282137E+007, +2.60274832666E+001, +1.08820272994E+003
+3.56237061770E+007, +1.78194466615E+001, +1.09491752135E+003
+3.57904841402E+007, +2.18150596490E+001, +1.11300808632E+003
+3.59572621035E+007, +2.23163821567E+001, +1.12022376234E+003
+3.61240400668E+007, +2.91230049610E+001, +1.13627666631E+003
+3.62908180301E+007, +2.98045506222E+001, +1.15311933074E+003
+3.64575959933E+007, +2.31817204790E+001, +1.16613343807E+003
+3.66243739566E+007, +2.97403445601E+001, +1.17450148442E+003
+3.67911519199E+007, +2.54573449277E+001, +1.19530844802E+003
+3.69579298831E+007, +2.64673467101E+001, +1.20049389530E+003
+3.71247078464E+007, +2.60844310337E+001, +1.21992822919E+003
+3.72914858097E+007, +2.61418636180E+001, +1.22984374376E+003
+3.74582637730E+007, +2.55248211161E+001, +1.24946503700E+003
+3.76250417362E+007, +3.00380623884E+001, +1.25866580267E+003
+3.77918196995E+007, +2.33052316831E+001, +1.28127329362E+003
+3.79585976628E+007, +2.57138696212E+001, +1.29866893069E+003
+3.81253756260E+007, +3.62588008981E+001, +1.30486680548E+003
+3.82921535893E+007, +3.51085486135E+001, +1.32211462346E+003
+3.84589315526E+007, +3.72548476032E+001, +1.34458108590E+003
+3.86257095159E+007, +3.63874887544E+001, +1.35682758013E+003
+3.87924874791E+007, +3.05418989907E+001, +1.37539780263E+003
+3.89592654424E+007, +3.55059545236E+001, +1.38880184323E+003
+3.91260434057E+007, +4.11447315877E+001, +1.41716336995E+003
+3.92928213689E+007, +4.33995442244E+001, +1.41885744509E+003
+3.94595993322E+007, +4.55007210517E+001, +1.44578913922E+003
+3.96263772955E+007, +3.68299314106E+001, +1.46037064658E+003
+3.97931552588E+007, +3.94584519579E+001, +1.48059066621E+003
+3.99599332220E+007, +4.98402651326E+001, +1.50441936084E+003
+4.01267111853E+007, +4.52266535905E+001, +1.52035612066E+003
+4.02934891486E+007, +4.30099134088E+001, +1.54462511963E+003
+4.04602671119E+007, +5.02065106676E+001, +1.56345827237E+003
+4.06270450751E+007, +5.24291034698E+001, +1.57959439876E+003
+4.07938230384E+007, +5.87756829497E+001, +1.61037913634E+003
+4.09606010017E+007, +6.21647537238E+001, +1.63320289201E+003
+4.11273789649E+007, +6.38741687451E+001, +1.64623145741E+003
+4.12941569282E+007, +5.57990304930E+001, +1.67620636661E+003
+4.14609348915E+007, +6.08875573010E+001, +1.71889331252E+003
+4.16277128548E+007, +7.68340195992E+001, +1.74115830616E+003
+4.17944908180E+007, +7.14448145006E+001, +1.74029918031E+003
+4.19612687813E+007, +7.91700047558E+001, +1.77165622495E+003
+4.21280467446E+007, +7.69143009759E+001, +1.82745758471E+003
+4.22948247078E+007, +7.04104602985E+001, +1.83383248529E+003
+4.24616026711E+007, +8.86662632425E+001, +1.86086994309E+003
+4.26283806344E+007, +9.42725671133E+001, +1.89571655963E+003
+4.27951585977E+007, +6.67602192124E+001, +1.94008321515E+003
+4.29619365609E+007, +1.10662157246E+002, +1.96840924701E+003
+4.31287145242E+007, +1.15102385439E+002, +1.99215499909E+003
+4.32954924875E+007, +1.14020208905E+002, +2.02228012244E+003
+4.34622704508E+007, +9.74506817359E+001, +2.06344818253E+003
+4.36290484140E+007, +1.24896134009E+002, +2.09265521591E+003
+4.37958263773E+007, +1.03552083009E+002, +2.14702848471E+003
+4.39626043406E+007, +1.46117644830E+002, +2.17042793383E+003
+4.41293823038E+007, +1.47729754467E+002, +2.22773903688E+003
+4.42961602671E+007, +1.67069461793E+002, +2.23798272672E+003
+4.44629382304E+007, +1.38115488134E+002, +2.30580763137E+003
+4.46297161937E+007, +1.58935826462E+002, +2.33323590444E+003
+4.47964941569E+007, +1.60228435993E+002, +2.39377878130E+003
+4.49632721202E+007, +1.46092069373E+002, +2.45077954140E+003
+4.51300500835E+007, +1.88020026373E+002, +2.47441043234E+003
+4.52968280467E+007, +2.22743884252E+002, +2.55055555515E+003
+4.54636060100E+007, +2.19383467906E+002, +2.63607093677E+003
+4.56303839733E+007, +2.26324153924E+002, +2.67346161710E+003
+4.57971619366E+007, +2.25780904359E+002, +2.72994300709E+003
+4.59639398998E+007, +2.61111190523E+002, +2.85705535016E+003
+4.61307178631E+007, +2.61903464236E+002, +2.89372362606E+003
+4.62974958264E+007, +3.20696768192E+002, +2.96242359483E+003
+4.64642737896E+007, +2.82521788584E+002, +3.04685316456E+003
+4.66310517529E+007, +2.88356736370E+002, +3.12181773703E+003
+4.67978297162E+007, +4.33695123017E+002, +3.13002630479E+003
+4.69646076795E+007, +3.98963760110E+002, +3.28799089058E+003
+4.71313856427E+007, +4.32887639466E+002, +3.35441514136E+003
+4.72981636060E+007, +4.94560627410E+002, +3.43987607216E+003
+4.74649415693E+007, +5.22860585997E+002, +3.50422016686E+003
+4.76317195326E+007, +6.18714237032E+002, +3.60249469665E+003
+4.77984974958E+007, +6.78886027320E+002, +3.73135420228E+003
+4.79652754591E+007, +7.50913200364E+002, +3.82064513564E+003
+4.81320534224E+007, +7.91401475344E+002, +3.90494180827E+003
+4.82988313856E+007, +8.29896186376E+002, +4.03778155252E+003
+4.84656093489E+007, +9.32396552546E+002, +4.10617817104E+003
+4.86323873122E+007, +1.07264951652E+003, +4.19346499584E+003
+4.87991652755E+007, +1.11903968950E+003, +4.39227226409E+003
+4.89659432387E+007, +1.21040901579E+003, +4.44184821523E+003
+4.91327212020E+007, +1.44922545725E+003, +4.63976492514E+003
+4.92994991653E+007, +1.56254786278E+003, +4.71106643589E+003
+4.94662771285E+007, +1.67913945714E+003, +4.86755329555E+003
+4.96330550918E+007, +1.92616243937E+003, +4.90903681320E+003
+4.97998330551E+007, +2.06447644942E+003, +5.02864780164E+003
+4.99666110184E+007, +2.20849028964E+003, +5.14144513655E+003
+5.01333889816E+007, +2.29224241875E+003, +5.25468773337E+003
+5.03001669449E+007, +2.35644930525E+003, +5.39215762712E+003
+5.04669449082E+007, +2.73743203164E+003, +5.46671837702E+003
+5.06337228715E+007, +2.96390535343E+003, +5.54787464712E+003
+5.08005008347E+007, +2.97863075356E+003, +5.76318686218E+003
+5.09672787980E+007, +3.30313800092E+003, +5.81708268816E+003
+5.11340567613E+007, +3.72922522179E+003, +6.21372308278E+003
+5.13008347245E+007, +3.95730098680E+003, +6.36870430155E+003
+5.14676126878E+007, +4.08681792594E+003, +6.50293896820E+003
+5.16343906511E+007, +4.66146121165E+003, +6.81047074729E+003
+5.18011686144E+007, +5.07565027531E+003, +6.80102091913E+003
+5.19679465776E+007, +5.83999137276E+003, +7.30401627976E+003
+5.21347245409E+007, +6.15375625865E+003, +7.51237733993E+003
+5.23015025042E+007, +7.88265511466E+003, +7.35175540818E+003
+5.24682804674E+007, +8.43365359929E+003, +8.20252936597E+003
+5.26350584307E+007, +9.29817438334E+003, +7.43856401720E+003
+5.28018363940E+007, +1.09810409718E+004, +7.95837654462E+003
+5.29686143573E+007, +1.33746366672E+004, +6.65834872741E+003
+5.31353923205E+007, +1.36227869693E+004, +6.20271623203E+003
+5.33021702838E+007, +1.47959659420E+004, +5.02900834820E+003
+5.34689482471E+007, +1.56163761819E+004, +1.03197543942E+003
