"# Channel 1"
"# Trace 1"
Frequency, Formatted Data, Formatted Data
+1.00000000000E+005, +6.51581899867E+000, +2.20812563697E+000
+2.25031289111E+005, +6.60365018290E+000, +4.75598207679E+000
+3.50062578223E+005, +6.70259622528E+000, +7.37747390774E+000
+4.75093867334E+005, +6.75055243542E+000, +9.87048586901E+000
+6.00125156446E+005, +6.83576463314E+000, +1.23995784387E+001
+7.25156445557E+005, +6.90429633577E+000, +1.49141729824E+001
+8.50187734668E+005, +6.99698998254E+000, +1.73983666697E+001
+9.75219023780E+005, +6.99448583788E+000, +1.99025567786E+001
+1.10025031289E+006, +7.07258367525E+000, +2.23603803425E+001
+1.22528160200E+006, +7.19657624046E+000, +2.48850271901E+001
+1.35031289111E+006, +7.18884354341E+000, +2.73554286988E+001
+1.47534418023E+006, +7.22338649698E+000, +2.98496657630E+001
+1.60037546934E+006, +7.28831866099E+000, +3.23892763018E+001
+1.72540675845E+006, +7.33421374494E+000, +3.47997109189E+001
+1.85043804756E+006, +7.33405020270E+000, +3.72592982745E+001
+1.97546933667E+006, +7.34988486567E+000, +3.97300306754E+001
+2.10050062578E+006, +7.42529628579E+000, +4.22557425608E+001
+2.22553191489E+006, +7.44516258390E+000, +4.46882295293E+001
+2.35056320401E+006, +7.41528408754E+000, +4.72266407990E+001
+2.47559449312E+006, +7.50289312263E+000, +4.97330199925E+001
+2.60062578223E+006, +7.58116193330E+000, +5.21253456533E+001
+2.72565707134E+006, +7.53412087268E+000, +5.46786308416E+001
+2.85068836045E+006, +7.58739811646E+000, +5.71734594777E+001
+2.97571964956E+006, +7.55762747188E+000, +5.95618037533E+001
+3.10075093867E+006, +7.57617713597E+000, +6.21724840227E+001
+3.22578222778E+006, +7.75645027744E+000, +6.45769709342E+001
+3.35081351690E+006, +7.64746492213E+000, +6.71344353925E+001
+3.47584480601E+006, +7.80103247838E+000, +6.96653053050E+001
+3.60087609512E+006, +7.74820983233E+000, +7.21200006378E+001
+3.72590738423E+006, +7.85663508706E+000, +7.45026938252E+001
+3.85093867334E+006, +7.75014397425E+000, +7.71093859141E+001
+3.97596996245E+006, +7.92765356606E+000, +7.95690799728E+001
+4.10100125156E+006, +7.86796535094E+000, +8.19729016430E+001
+4.22603254068E+006, +7.74466910200E+000, +8.47009857268E+001
+4.35106382979E+006, +8.02903905270E+000, +8.71996466735E+001
+4.47609511890E+006, +8.04456356733E+000, +8.95287098497E+001
+4.60112640801E+006, +8.02350893533E+000, +9.21860657410E+001
+4.72615769712E+006, +7.96662716366E+000, +9.47301699310E+001
+4.85118898623E+006, +8.25225173444E+000, +9.71855428987E+001
+4.97622027534E+006, +8.09197500242E+000, +9.95191331374E+001
+5.10125156446E+006, +8.14827824176E+000, +1.02117707807E+002
+5.22628285357E+006, +8.26367492040E+000, +1.04661091432E+002
+5.35131414268E+006, +8.28775927816E+000, +1.07338149545E+002
+5.47634543179E+006, +8.29076494795E+000, +1.09858448135E+002
+5.60137672090E+006, +8.24041139122E+000, +1.12604556243E+002
+5.72640801001E+006, +8.59661244231E+000, +1.15010075565E+002
+5.85143929912E+006, +8.50194651086E+000, +1.17392641773E+002
+5.97647058824E+006, +8.62657257794E+000, +1.20116637138E+002
+6.10150187735E+006, +8.53359689234E+000, +1.22582949800E+002
+6.22653316646E+006, +8.49706745487E+000, +1.24912428836E+002
+6.35156445557E+006, +8.75227577283E+000, +1.27706086840E+002
+6.47659574468E+006, +8.85174596622E+000, +1.30062232294E+002
+6.60162703379E+006, +8.84538108225E+000, +1.32682498633E+002
+6.72665832290E+006, +8.95417009472E+000, +1.35332427207E+002
+6.85168961202E+006, +8.93455856673E+000, +1.37795704637E+002
+6.97672090113E+006, +8.88665847404E+000, +1.40290041477E+002
+7.10175219024E+006, +9.06782895031E+000, +1.42774637489E+002
+7.22678347935E+006, +9.31843459275E+000, +1.45478569136E+002
+7.35181476846E+006, +9.29181235668E+000, +1.48037049243E+002
+7.47684605757E+006, +9.24546022639E+000, +1.50655939592E+002
+7.60187734668E+006, +9.24312756834E+000, +1.53225959362E+002
+7.72690863579E+006, +9.35293795992E+000, +1.55724560734E+002
+7.85193992491E+006, +9.26707870385E+000, +1.58347258692E+002
+7.97697121402E+006, +9.43472744347E+000, +1.61008066252E+002
+8.10200250313E+006, +9.45238546043E+000, +1.63493279823E+002
+8.22703379224E+006, +9.58347128381E+000, +1.66141597940E+002
+8.35206508135E+006, +9.57861356304E+000, +1.68894172309E+002
+8.47709637046E+006, +9.71675831837E+000, +1.71516391161E+002
+8.60212765957E+006, +9.60275746733E+000, +1.74032416984E+002
+8.72715894869E+006, +9.53908362908E+000, +1.76702643074E+002
+8.85219023780E+006, +9.78224409606E+000, +1.79260476693E+002
+8.97722152691E+006, +9.66913121500E+000, +1.82041014158E+002
+9.10225281602E+006, +9.40428659665E+000, +1.84357424873E+002
+9.22728410513E+006, +9.76142098592E+000, +1.87006055135E+002
+9.35231539424E+006, +1.00442337921E+001, +1.89774212991E+002
+9.47734668335E+006, +9.92581668364E+000, +1.92221351424E+002
+9.60237797247E+006, +9.80687860913E+000, +1.94718360738E+002
+9.72740926158E+006, +9.94773037432E+000, +1.97333089449E+002
+9.85244055069E+006, +1.01489380189E+001, +2.00567756171E+002
+9.97747183980E+006, +1.01042837663E+001, +2.03034332448E+002
+1.01025031289E+007, +1.00863958220E+001, +2.05554431434E+002
+1.02275344180E+007, +9.96334010101E+000, +2.08486408528E+002
+1.03525657071E+007, +1.00971235454E+001, +2.10903008479E+002
+1.04775969962E+007, +9.86804379484E+000, +2.13586161367E+002
+1.06026282854E+007, +9.84571072971E+000, +2.16372773094E+002
+1.07276595745E+007, +1.02126266495E+001, +2.19082498804E+002
+1.08526908636E+007, +1.03345290659E+001, +2.21408579889E+002
+1.09777221527E+007, +9.97964629703E+000, +2.24528770554E+002
+1.11027534418E+007, +1.05830402069E+001, +2.27309673649E+002
+1.12277847309E+007, +1.02893140939E+001, +2.29759016136E+002
+1.13528160200E+007, +1.07176138061E+001, +2.32518063156E+002
+1.14778473091E+007, +1.02079250164E+001, +2.35059687735E+002
+1.16028785982E+007, +1.05065722164E+001, +2.38099760381E+002
+1.17279098874E+007, +1.08450612141E+001, +2.40777107069E+002
+1.18529411765E+007, +1.04916387515E+001, +2.43811011770E+002
+1.19779724656E+007, +1.03395831341E+001, +2.46094474097E+002
+1.21030037547E+007, +1.05884213485E+001, +2.49317055408E+002
+1.22280350438E+007, +1.04013674020E+001, +2.51769590529E+002
+1.23530663329E+007, +1.07837495821E+001, +2.54776526537E+002
+1.24780976220E+007, +1.05633491054E+001, +2.57812443638E+002
+1.26031289111E+007, +1.04984290035E+001, +2.60011261036E+002
+1.27281602003E+007, +1.03675332442E+001, +2.63132287323E+002
+1.28531914894E+007, +1.08242014216E+001, +2.65931325489E+002
+1.29782227785E+007, +1.04729074507E+001, +2.68752790931E+002
+1.31032540676E+007, +1.09545549885E+001, +2.71350962758E+002
+1.32282853567E+007, +1.05844030621E+001, +2.74371573959E+002
+1.33533166458E+007, +1.11932903847E+001, +2.77411424398E+002
+1.34783479349E+007, +1.13176257070E+001, +2.79767334530E+002
+1.36033792240E+007, +1.12205226201E+001, +2.82771811209E+002
+1.37284105131E+007, +1.12814845748E+001, +2.85126921755E+002
+1.38534418023E+007, +1.07182880266E+001, +2.88415165124E+002
+1.39784730914E+007, +1.09765089853E+001, +2.91063593899E+002
+1.41035043805E+007, +1.09945734801E+001, +2.94329159836E+002
+1.42285356696E+007, +1.12836998793E+001, +2.97066266839E+002
+1.43535669587E+007, +1.08928024251E+001, +2.99883576690E+002
+1.44785982478E+007, +1.09689210911E+001, +3.03061503297E+002
+1.46036295369E+007, +1.12241429581E+001, +3.05625073062E+002
+1.47286608260E+007, +1.08378081708E+001, +3.08789006950E+002
+1.48536921151E+007, +1.11163072337E+001, +3.11777680206E+002
+1.49787234043E+007, +1.14478800592E+001, +3.15198666715E+002
+1.51037546934E+007, +1.09825397165E+001, +3.17147840986E+002
+1.52287859825E+007, +1.08472858169E+001, +3.20281303403E+002
+1.53538172716E+007, +1.11882444624E+001, +3.23971084341E+002
+1.54788485607E+007, +1.12117883670E+001, +3.26724050238E+002
+1.56038798498E+007, +1.14220066965E+001, +3.29751128297E+002
+1.57289111389E+007, +1.14216341765E+001, +3.32730109170E+002
+1.58539424280E+007, +1.14023014679E+001, +3.35630691678E+002
+1.59789737171E+007, +1.10931218818E+001, +3.39148645394E+002
+1.61040050063E+007, +1.20926927473E+001, +3.42153415213E+002
+1.62290362954E+007, +1.22602613541E+001, +3.45501426754E+002
+1.63540675845E+007, +1.20890468251E+001, +3.48336186670E+002
+1.64790988736E+007, +1.20941106394E+001, +3.51142839841E+002
+1.66041301627E+007, +1.17015962440E+001, +3.54285937750E+002
+1.67291614518E+007, +1.14793426442E+001, +3.56260681384E+002
+1.68541927409E+007, +1.19754379373E+001, +3.60113297358E+002
+1.69792240300E+007, +1.21923509963E+001, +3.62993028048E+002
+1.71042553191E+007, +1.12651116635E+001, +3.66718198309E+002
+1.72292866083E+007, +1.17094805625E+001, +3.69541437983E+002
+1.73543178974E+007, +1.07758104319E+001, +3.73102686378E+002
+1.74793491865E+007, +1.16154861399E+001, +3.77273395567E+002
+1.76043804756E+007, +1.21247658361E+001, +3.79442629011E+002
+1.77294117647E+007, +1.16808305868E+001, +3.82815277406E+002
+1.78544430538E+007, +1.23613510960E+001, +3.85748578641E+002
+1.79794743429E+007, +1.26193180033E+001, +3.89240189371E+002
+1.81045056320E+007, +1.29566243376E+001, +3.92547266339E+002
+1.82295369212E+007, +1.23610579193E+001, +3.94876727187E+002
+1.83545682103E+007, +1.26519536772E+001, +3.98529591767E+002
+1.84795994994E+007, +1.24788343469E+001, +4.01728109991E+002
+1.86046307885E+007, +1.29051202590E+001, +4.04806011398E+002
+1.87296620776E+007, +1.22418705090E+001, +4.08931099195E+002
+1.88546933667E+007, +1.35806315648E+001, +4.12494400764E+002
+1.89797246558E+007, +1.34812154291E+001, +4.14828690740E+002
+1.91047559449E+007, +1.30255865820E+001, +4.17736955514E+002
+1.92297872340E+007, +1.33798672250E+001, +4.21579456320E+002
+1.93548185232E+007, +1.38422016357E+001, +4.24723139356E+002
+1.94798498123E+007, +1.33821587762E+001, +4.28193419598E+002
+1.96048811014E+007, +1.34800233864E+001, +4.32889874727E+002
+1.97299123905E+007, +1.35620929537E+001, +4.34958449220E+002
+1.98549436796E+007, +1.35164554733E+001, +4.38901197236E+002
+1.99799749687E+007, +1.39000070746E+001, +4.42013860419E+002
+2.01050062578E+007, +1.28905798967E+001, +4.45172399022E+002
+2.02300375469E+007, +1.36287733119E+001, +4.49819810335E+002
+2.03550688360E+007, +1.38325042901E+001, +4.54004160119E+002
+2.04801001252E+007, +1.52993024151E+001, +4.56567198950E+002
+2.06051314143E+007, +1.38169634021E+001, +4.60780334077E+002
+2.07301627034E+007, +1.38874036183E+001, +4.64468622993E+002
+2.08551939925E+007, +1.40888673178E+001, +4.67610437395E+002
+2.09802252816E+007, +1.49088276281E+001, +4.71211011768E+002
+2.11052565707E+007, +1.53233824161E+001, +4.73992835310E+002
+2.12302878598E+007, +1.51516034616E+001, +4.78742705189E+002
+2.13553191489E+007, +1.55339824238E+001, +4.82052659680E+002
+2.14803504380E+007, +1.53455843750E+001, +4.84347737577E+002
+2.16053817272E+007, +1.50972512473E+001, +4.90316858026E+002
+2.17304130163E+007, +1.57612204779E+001, +4.92813192391E+002
+2.18554443054E+007, +1.58413425794E+001, +4.97533765826E+002
+2.19804755945E+007, +1.64149643851E+001, +4.98153611254E+002
+2.21055068836E+007, +1.58622644820E+001, +5.03829131658E+002
+2.22305381727E+007, +1.74364976055E+001, +5.07703848959E+002
+2.23555694618E+007, +1.71429840554E+001, +5.11892086655E+002
+2.24806007509E+007, +1.82050617151E+001, +5.13831246259E+002
+2.26056320401E+007, +1.68323552619E+001, +5.20346571660E+002
+2.27306633292E+007, +1.78833941174E+001, +5.21358744215E+002
+2.28556946183E+007, +1.92439447231E+001, +5.26932419295E+002
+2.29807259074E+007, +1.83140340584E+001, +5.31147976095E+002
+2.31057571965E+007, +1.75250928595E+001, +5.33488908600E+002
+2.32307884856E+007, +1.94302441466E+001, +5.36918575457E+002
+2.33558197747E+007, +2.00231030145E+001, +5.38756506831E+002
+2.34808510638E+007, +2.04093554358E+001, +5.44136411049E+002
+2.36058823529E+007, +2.08189636796E+001, +5.48867791067E+002
+2.37309136421E+007, +1.97999965012E+001, +5.50640784488E+002
+2.38559449312E+007, +1.82534412039E+001, +5.57127511778E+002
+2.39809762203E+007, +1.93402248635E+001, +5.59265054448E+002
+2.41060075094E+007, +2.06059398996E+001, +5.63410713804E+002
+2.42310387985E+007, +1.94134389477E+001, +5.67508348567E+002
+2.43560700876E+007, +1.99755292313E+001, +5.71130350779E+002
+2.44811013767E+007, +2.12521962536E+001, +5.75545293242E+002
+2.46061326658E+007, +2.05045644791E+001, +5.77281288315E+002
+2.47311639549E+007, +2.05097824061E+001, +5.84221293154E+002
+2.48561952441E+007, +1.97833068712E+001, +5.85430081904E+002
+2.49812265332E+007, +2.01488011507E+001, +5.91741235979E+002
+2.51062578223E+007, +2.15021020566E+001, +5.97879130542E+002
+2.52312891114E+007, +2.07395850809E+001, +5.99076924302E+002
+2.53563204005E+007, +2.04262350440E+001, +6.03239132114E+002
+2.54813516896E+007, +1.96217554258E+001, +6.06811708169E+002
+2.56063829787E+007, +1.99419574685E+001, +6.09197589876E+002
+2.57314142678E+007, +2.06921851357E+001, +6.16274787914E+002
+2.58564455569E+007, +1.87662437611E+001, +6.19662213499E+002
+2.59814768461E+007, +2.23814604754E+001, +6.25556101001E+002
+2.61065081352E+007, +1.88059326046E+001, +6.30357725658E+002
+2.62315394243E+007, +2.13963966450E+001, +6.34104324742E+002
+2.63565707134E+007, +1.88478367851E+001, +6.37881548777E+002
+2.64816020025E+007, +2.04661632434E+001, +6.44719803846E+002
+2.66066332916E+007, +1.95957347563E+001, +6.47926682360E+002
+2.67316645807E+007, +2.19272831464E+001, +6.51845500503E+002
+2.68566958698E+007, +1.92929854434E+001, +6.57209563096E+002
+2.69817271589E+007, +1.98497822735E+001, +6.61234413236E+002
+2.71067584481E+007, +2.10116436881E+001, +6.67459891776E+002
+2.72317897372E+007, +2.18992531753E+001, +6.70084048845E+002
+2.73568210263E+007, +2.26550437267E+001, +6.74839159697E+002
+2.74818523154E+007, +2.26564608547E+001, +6.80599780225E+002
+2.76068836045E+007, +2.20474780067E+001, +6.86814843760E+002
+2.77319148936E+007, +2.01456059076E+001, +6.91856304363E+002
+2.78569461827E+007, +2.34597236137E+001, +6.97619192536E+002
+2.79819774718E+007, +1.92928468683E+001, +6.99982291432E+002
+2.81070087610E+007, +2.04966396464E+001, +7.06008525309E+002
+2.82320400501E+007, +2.08832231074E+001, +7.10484616565E+002
+2.83570713392E+007, +2.45474852947E+001, +7.12382263576E+002
+2.84821026283E+007, +2.03076403826E+001, +7.18583280720E+002
+2.86071339174E+007, +1.87368406442E+001, +7.26752789227E+002
+2.87321652065E+007, +2.09602069281E+001, +7.29958952957E+002
+2.88571964956E+007, +2.13943559847E+001, +7.34828931711E+002
+2.89822277847E+007, +2.50216598398E+001, +7.42046504797E+002
+2.91072590738E+007, +2.46450338323E+001, +7.44279855694E+002
+2.92322903630E+007, +2.54915460620E+001, +7.49760355312E+002
+2.93573216521E+007, +2.36310301319E+001, +7.56081771011E+002
+2.94823529412E+007, +2.70158399932E+001, +7.65281992060E+002
+2.96073842303E+007, +2.63325147929E+001, +7.68913546298E+002
+2.97324155194E+007, +2.26973080492E+001, +7.71571099838E+002
+2.98574468085E+007, +2.78840476728E+001, +7.77962532771E+002
+2.99824780976E+007, +2.39924920561E+001, +7.84883176990E+002
+3.01075093867E+007, +2.52858188883E+001, +7.86951986714E+002
+3.02325406758E+007, +2.28044917365E+001, +7.94434872378E+002
+3.03575719650E+007, +2.44085979429E+001, +7.98177298721E+002
+3.04826032541E+007, +2.50001776237E+001, +8.07858777860E+002
+3.06076345432E+007, +2.50045939016E+001, +8.11193297921E+002
+3.07326658323E+007, +2.71480768861E+001, +8.18471590964E+002
+3.08576971214E+007, +2.71203403079E+001, +8.27032177077E+002
+3.09827284105E+007, +2.59274442796E+001, +8.31352641571E+002
+3.11077596996E+007, +2.45492457773E+001, +8.38396859272E+002
+3.12327909887E+007, +2.49142894297E+001, +8.41507329641E+002
+3.13578222778E+007, +2.76399670323E+001, +8.48947489285E+002
+3.14828535670E+007, +2.77899086761E+001, +8.52639005771E+002
+3.16078848561E+007, +2.20845099036E+001, +8.59242212420E+002
+3.17329161452E+007, +2.95797888789E+001, +8.63745103353E+002
+3.18579474343E+007, +2.66283583296E+001, +8.72583718602E+002
+3.19829787234E+007, +2.87301633781E+001, +8.80632701222E+002
+3.21080100125E+007, +2.53068084798E+001, +8.82538723413E+002
+3.22330413016E+007, +2.58143744573E+001, +8.88839484334E+002
+3.23580725907E+007, +2.93910218513E+001, +8.98759055871E+002
+3.24831038798E+007, +2.86696281897E+001, +9.02871749878E+002
+3.26081351690E+007, +2.89472117861E+001, +9.08953480346E+002
+3.27331664581E+007, +2.74094149752E+001, +9.12298763070E+002
+3.28581977472E+007, +2.79984267417E+001, +9.24694328255E+002
+3.29832290363E+007, +2.72971253232E+001, +9.27832396961E+002
+3.31082603254E+007, +2.82230831165E+001, +9.39238714623E+002
+3.32332916145E+007, +2.67442976424E+001, +9.47780517786E+002
+3.33583229036E+007, +2.79814368968E+001, +9.52404053836E+002
+3.34833541927E+007, +3.11153773972E+001, +9.59714007360E+002
+3.36083854819E+007, +3.51249952081E+001, +9.66198876323E+002
+3.37334167710E+007, +2.78892615549E+001, +9.78307956973E+002
+3.38584480601E+007, +2.84998526250E+001, +9.78412415532E+002
+3.39834793492E+007, +2.84296413313E+001, +9.91135042176E+002
+3.41085106383E+007, +2.89077622823E+001, +9.99247427796E+002
+3.42335419274E+007, +2.82432535621E+001, +1.00352768609E+003
+3.43585732165E+007, +3.22573172111E+001, +1.01073952701E+003
+3.44836045056E+007, +3.21332001312E+001, +1.02279265921E+003
+3.46086357947E+007, +3.37034289989E+001, +1.02662068720E+003
+3.47336670839E+007, +3.20889503448E+001, +1.03102951985E+003
+3.48586983730E+007, +3.07835588894E+001, +1.04277904933E+003
+3.49837296621E+007, +2.96645124202E+001, +1.05522682922E+003
+3.51087609512E+007, +3.81008180662E+001, +1.05927052006E+003
+3.52337922403E+007, +3.41594979389E+001, +1.06929616208E+003
+3.53588235294E+007, +4.07425559964E+001, +1.07174474139E+003
+3.54838548185E+007, +3.25403941934E+001, +1.08452032657E+003
+3.56088861076E+007, +3.15566644122E+001, +1.09577907948E+003
+3.57339173967E+007, +4.12158623512E+001, +1.10091034013E+003
+3.58589486859E+007, +3.86162732904E+001, +1.10841166066E+003
+3.59839799750E+007, +3.71775922222E+001, +1.11743953875E+003
+3.61090112641E+007, +4.02137453736E+001, +1.12792917378E+003
+3.62340425532E+007, +3.92407753259E+001, +1.13936796485E+003
+3.63590738423E+007, +4.54474480452E+001, +1.14405377769E+003
+3.64841051314E+007, +4.02324087063E+001, +1.15978019433E+003
+3.66091364205E+007, +3.89122333957E+001, +1.16046406531E+003
+3.67341677096E+007, +4.69505971158E+001, +1.16980827240E+003
+3.68591989987E+007, +4.66282841607E+001, +1.18617669286E+003
+3.69842302879E+007, +4.20455759103E+001, +1.19327780361E+003
+3.71092615770E+007, +4.63367628349E+001, +1.20211766539E+003
+3.72342928661E+007, +4.58588263527E+001, +1.21173415345E+003
+3.73593241552E+007, +4.90504004389E+001, +1.22039662334E+003
+3.74843554443E+007, +4.21428604923E+001, +1.22771772983E+003
+3.76093867334E+007, +5.24977629637E+001, +1.23857325753E+003
+3.77344180225E+007, +5.51020183920E+001, +1.25500570150E+003
+3.78594493116E+007, +5.05242973998E+001, +1.26333685793E+003
+3.79844806008E+007, +5.49524674786E+001, +1.26389990733E+003
+3.81095118899E+007, +5.22466136625E+001, +1.28200145881E+003
+3.82345431790E+007, +6.00935114623E+001, +1.30057267629E+003
+3.83595744681E+007, +5.49238411006E+001, +1.30847332585E+003
+3.84846057572E+007, +5.19223370862E+001, +1.32013444518E+003
+3.86096370463E+007, +5.40218115588E+001, +1.32445832639E+003
+3.87346683354E+007, +6.07737356386E+001, +1.33744940991E+003
+3.88596996245E+007, +5.95132768242E+001, +1.34999419392E+003
+3.89847309136E+007, +6.80699143888E+001, +1.35175121857E+003
+3.91097622028E+007, +6.48532215736E+001, +1.37701724245E+003
+3.92347934919E+007, +4.34224874498E+001, +1.38502935897E+003
+3.93598247810E+007, +6.22965290307E+001, +1.40821373385E+003
+3.94848560701E+007, +6.01069094995E+001, +1.40358569259E+003
+3.96098873592E+007, +7.15654791659E+001, +1.42380140920E+003
+3.97349186483E+007, +6.15964572230E+001, +1.43468384163E+003
+3.98599499374E+007, +7.13381305986E+001, +1.45396025406E+003
+3.99849812265E+007, +6.90399473346E+001, +1.45931049575E+003
+4.01100125156E+007, +6.97925166080E+001, +1.46732099517E+003
