"# Channel 1"
"# Trace 1"
Frequency, Formatted Data, Formatted Data
+1.00000000000E+005, +3.97042077971E+001, +1.88682819273E+000
+2.25031289111E+005, +3.96909951184E+001, +4.39727481896E+000
+3.50062578223E+005, +3.97187119762E+001, +6.84774422336E+000
+4.75093867334E+005, +3.97356375901E+001, +9.29292481520E+000
+6.00125156446E+005, +3.97461582174E+001, +1.17872202691E+001
+7.25156445557E+005, +3.97742377188E+001, +1.41638638912E+001
+8.50187734668E+005, +3.97587256864E+001, +1.65782222719E+001
+9.75219023780E+005, +3.97898114822E+001, +1.90415445946E+001
+1.10025031289E+006, +3.97796373142E+001, +2.14645118391E+001
+1.22528160200E+006, +3.98304157826E+001, +2.38546473904E+001
+1.35031289111E+006, +3.98523033335E+001, +2.62848071337E+001
+1.47534418023E+006, +3.98019190825E+001, +2.87435439684E+001
+1.60037546934E+006, +3.98306134720E+001, +3.11422529311E+001
+1.72540675845E+006, +3.98862179636E+001, +3.35804281681E+001
+1.85043804756E+006, +3.98874379019E+001, +3.59862710806E+001
+1.97546933667E+006, +3.98152614699E+001, +3.84305634062E+001
+2.10050062578E+006, +3.99276152660E+001, +4.08583309014E+001
+2.22553191489E+006, +3.99319632880E+001, +4.33258813287E+001
+2.35056320401E+006, +3.99873076339E+001, +4.56788229330E+001
+2.47559449312E+006, +3.99335096550E+001, +4.81278084201E+001
+2.60062578223E+006, +4.00184541056E+001, +5.05400039202E+001
+2.72565707134E+006, +3.99541923754E+001, +5.30254746524E+001
+2.85068836045E+006, +4.00161064580E+001, +5.54193800470E+001
+2.97571964956E+006, +4.00232567665E+001, +5.78283813975E+001
+3.10075093867E+006, +3.99934312310E+001, +6.02481713326E+001
+3.22578222778E+006, +4.00895082554E+001, +6.27261827428E+001
+3.35081351690E+006, +4.00686759019E+001, +6.51035695078E+001
+3.47584480601E+006, +4.01191856646E+001, +6.75707230171E+001
+3.60087609512E+006, +4.00772953991E+001, +7.00614122919E+001
+3.72590738423E+006, +3.99851616583E+001, +7.24657633223E+001
+3.85093867334E+006, +4.00951147871E+001, +7.51089984391E+001
+3.97596996245E+006, +4.01067234064E+001, +7.77773623693E+001
+4.10100125156E+006, +4.12273104150E+001, +7.81470437249E+001
+4.22603254068E+006, +4.01076916061E+001, +8.20820070711E+001
+4.35106382979E+006, +4.01221070120E+001, +8.45800759795E+001
+4.47609511890E+006, +4.01608775473E+001, +8.71868202977E+001
+4.60112640801E+006, +4.02378337519E+001, +8.95619165472E+001
+4.72615769712E+006, +4.02778548633E+001, +9.20488079314E+001
+4.85118898623E+006, +4.03146016032E+001, +9.44671124535E+001
+4.97622027534E+006, +4.02389975332E+001, +9.67579132958E+001
+5.10125156446E+006, +4.03777981249E+001, +9.93108373077E+001
+5.22628285357E+006, +4.03525214071E+001, +1.01858597430E+002
+5.35131414268E+006, +4.04735798727E+001, +1.04212442681E+002
+5.47634543179E+006, +4.04153816712E+001, +1.06645543422E+002
+5.60137672090E+006, +4.03971304318E+001, +1.09087745296E+002
+5.72640801001E+006, +4.04492020845E+001, +1.11610467771E+002
+5.85143929912E+006, +4.04688175772E+001, +1.14229580110E+002
+5.97647058824E+006, +4.05857553583E+001, +1.16569262883E+002
+6.10150187735E+006, +4.04398945165E+001, +1.19074555903E+002
+6.22653316646E+006, +4.05110275868E+001, +1.21531803020E+002
+6.35156445557E+006, +4.05673794717E+001, +1.24095433506E+002
+6.47659574468E+006, +4.06138665735E+001, +1.26521225155E+002
+6.60162703379E+006, +4.07626159899E+001, +1.29056201662E+002
+6.72665832290E+006, +4.08659549643E+001, +1.31646879843E+002
+6.85168961202E+006, +4.08419776354E+001, +1.34111117414E+002
+6.97672090113E+006, +4.08106593282E+001, +1.36458308683E+002
+7.10175219024E+006, +4.10219765868E+001, +1.39091512360E+002
+7.22678347935E+006, +4.10190064831E+001, +1.41563509029E+002
+7.35181476846E+006, +4.10649212058E+001, +1.44046365717E+002
+7.47684605757E+006, +4.09276230849E+001, +1.46516633873E+002
+7.60187734668E+006, +4.10944997867E+001, +1.48963161907E+002
+7.72690863579E+006, +4.12794253295E+001, +1.51553029187E+002
+7.85193992491E+006, +4.11931095013E+001, +1.54014772100E+002
+7.97697121402E+006, +4.12678361031E+001, +1.56591088100E+002
+8.10200250313E+006, +4.13355250722E+001, +1.59032063209E+002
+8.22703379224E+006, +4.14322585015E+001, +1.61525272752E+002
+8.35206508135E+006, +4.14194095915E+001, +1.64043291870E+002
+8.47709637046E+006, +4.12937643875E+001, +1.66683833482E+002
+8.60212765957E+006, +4.15253962502E+001, +1.69000793286E+002
+8.72715894869E+006, +4.15628265268E+001, +1.71370617508E+002
+8.85219023780E+006, +4.17420908661E+001, +1.73736991837E+002
+8.97722152691E+006, +4.18583481784E+001, +1.76374943450E+002
+9.10225281602E+006, +4.17514605795E+001, +1.78971535271E+002
+9.22728410513E+006, +4.16507690393E+001, +1.81683758842E+002
+9.35231539424E+006, +4.16393317507E+001, +1.84234633558E+002
+9.47734668335E+006, +4.17584683501E+001, +1.86435784074E+002
+9.60237797247E+006, +4.18700898398E+001, +1.88661159840E+002
+9.72740926158E+006, +4.18431177125E+001, +1.90924281476E+002
+9.85244055069E+006, +4.19795954892E+001, +1.93190729214E+002
+9.97747183980E+006, +4.20479420639E+001, +1.95547824630E+002
+1.01025031289E+007, +4.20007361617E+001, +1.97710857192E+002
+1.02275344180E+007, +4.20631915654E+001, +2.00167980404E+002
+1.03525657071E+007, +4.20955013290E+001, +2.02924753840E+002
+1.04775969962E+007, +4.20375656282E+001, +2.05370084157E+002
+1.06026282854E+007, +4.20314033639E+001, +2.08113419185E+002
+1.07276595745E+007, +4.21196538447E+001, +2.10454508680E+002
+1.08526908636E+007, +4.20621252840E+001, +2.13292775742E+002
+1.09777221527E+007, +4.19650862503E+001, +2.16211703376E+002
+1.11027534418E+007, +4.23327864762E+001, +2.19295753827E+002
+1.12277847309E+007, +4.25403987565E+001, +2.22021993753E+002
+1.13528160200E+007, +4.23735549990E+001, +2.25171135863E+002
+1.14778473091E+007, +4.23516728490E+001, +2.28463457206E+002
+1.16028785982E+007, +4.22008604531E+001, +2.31010996029E+002
+1.17279098874E+007, +4.24841775086E+001, +2.33435140738E+002
+1.18529411765E+007, +4.25870261797E+001, +2.36183115022E+002
+1.19779724656E+007, +4.24644431042E+001, +2.38630762701E+002
+1.21030037547E+007, +4.25226023357E+001, +2.41247738800E+002
+1.22280350438E+007, +4.27242380416E+001, +2.44025320070E+002
+1.23530663329E+007, +4.25055711753E+001, +2.46770214106E+002
+1.24780976220E+007, +4.30651004885E+001, +2.49493873235E+002
+1.26031289111E+007, +4.29355869395E+001, +2.52125938556E+002
+1.27281602003E+007, +4.30307222808E+001, +2.54776941861E+002
+1.28531914894E+007, +4.27904762021E+001, +2.57100418144E+002
+1.29782227785E+007, +4.29676401510E+001, +2.60407937411E+002
+1.31032540676E+007, +4.25076186412E+001, +2.63101727152E+002
+1.32282853567E+007, +4.33224888297E+001, +2.65608424192E+002
+1.33533166458E+007, +4.33683482184E+001, +2.68625038116E+002
+1.34783479349E+007, +4.29391482762E+001, +2.70886512029E+002
+1.36033792240E+007, +4.30264399851E+001, +2.74014319194E+002
+1.37284105131E+007, +4.33846445691E+001, +2.76431730496E+002
+1.38534418023E+007, +4.35205710292E+001, +2.79203092612E+002
+1.39784730914E+007, +4.34752514570E+001, +2.82320115268E+002
+1.41035043805E+007, +4.33978344772E+001, +2.84891315101E+002
+1.42285356696E+007, +4.38972646447E+001, +2.87677656096E+002
+1.43535669587E+007, +4.36600477831E+001, +2.90626019190E+002
+1.44785982478E+007, +4.39530480318E+001, +2.93099393080E+002
+1.46036295369E+007, +4.35426015317E+001, +2.96021487740E+002
+1.47286608260E+007, +4.33635538379E+001, +2.98795468601E+002
+1.48536921151E+007, +4.39359203354E+001, +3.01406728094E+002
+1.49787234043E+007, +4.35682421748E+001, +3.04110465161E+002
+1.51037546934E+007, +4.39415072102E+001, +3.07365894963E+002
+1.52287859825E+007, +4.38692796975E+001, +3.09946570970E+002
+1.53538172716E+007, +4.43009978645E+001, +3.13148464348E+002
+1.54788485607E+007, +4.46163145451E+001, +3.16048588994E+002
+1.56038798498E+007, +4.44788948959E+001, +3.18284472843E+002
+1.57289111389E+007, +4.44207779030E+001, +3.21593586699E+002
+1.58539424280E+007, +4.49338550382E+001, +3.24957475477E+002
+1.59789737171E+007, +4.41408982651E+001, +3.27679990605E+002
+1.61040050063E+007, +4.50425660331E+001, +3.30500118971E+002
+1.62290362954E+007, +4.46567743070E+001, +3.33032793593E+002
+1.63540675845E+007, +4.45979950065E+001, +3.36155373513E+002
+1.64790988736E+007, +4.49749959250E+001, +3.39277489219E+002
+1.66041301627E+007, +4.51030512976E+001, +3.41743195028E+002
+1.67291614518E+007, +4.52411813722E+001, +3.45066404882E+002
+1.68541927409E+007, +4.52612145280E+001, +3.47945906412E+002
+1.69792240300E+007, +4.57670402098E+001, +3.51177218769E+002
+1.71042553191E+007, +4.53963330896E+001, +3.54318284446E+002
+1.72292866083E+007, +4.56590295549E+001, +3.56830503316E+002
+1.73543178974E+007, +4.53995566022E+001, +3.60159320563E+002
+1.74793491865E+007, +4.59038537204E+001, +3.62479987857E+002
+1.76043804756E+007, +4.58188666584E+001, +3.66094085475E+002
+1.77294117647E+007, +4.60899812955E+001, +3.68741730173E+002
+1.78544430538E+007, +4.55714061433E+001, +3.71732819552E+002
+1.79794743429E+007, +4.63362711306E+001, +3.75215476876E+002
+1.81045056320E+007, +4.66553612896E+001, +3.77815583309E+002
+1.82295369212E+007, +4.64835894352E+001, +3.81260490174E+002
+1.83545682103E+007, +4.67206157009E+001, +3.84600897715E+002
+1.84795994994E+007, +4.72617087878E+001, +3.87413030192E+002
+1.86046307885E+007, +4.68960972378E+001, +3.89781310723E+002
+1.87296620776E+007, +4.73984179663E+001, +3.93374213071E+002
+1.88546933667E+007, +4.71841339664E+001, +3.96841125104E+002
+1.89797246558E+007, +4.72412013029E+001, +4.00405937768E+002
+1.91047559449E+007, +4.76724878140E+001, +4.03124741726E+002
+1.92297872340E+007, +4.75228068516E+001, +4.06009058240E+002
+1.93548185232E+007, +4.78935660617E+001, +4.09173308468E+002
+1.94798498123E+007, +4.79223791449E+001, +4.12854307269E+002
+1.96048811014E+007, +4.79512730490E+001, +4.15436848010E+002
+1.97299123905E+007, +4.74433871693E+001, +4.19541379907E+002
+1.98549436796E+007, +4.82678348731E+001, +4.21665236469E+002
+1.99799749687E+007, +4.87381944299E+001, +4.25419293053E+002
+2.01050062578E+007, +4.86289929663E+001, +4.28797816320E+002
+2.02300375469E+007, +4.84827515920E+001, +4.31651249972E+002
+2.03550688360E+007, +4.91118519486E+001, +4.35040544448E+002
+2.04801001252E+007, +4.95579483257E+001, +4.38703548159E+002
+2.06051314143E+007, +4.93392921914E+001, +4.41064969725E+002
+2.07301627034E+007, +4.93131833994E+001, +4.44629927730E+002
+2.08551939925E+007, +4.98631647650E+001, +4.48599489849E+002
+2.09802252816E+007, +4.99861258616E+001, +4.51897456984E+002
+2.11052565707E+007, +4.96664268412E+001, +4.55141908321E+002
+2.12302878598E+007, +5.05150599421E+001, +4.59144335734E+002
+2.13553191489E+007, +4.96226194018E+001, +4.62110258233E+002
+2.14803504380E+007, +5.03448849287E+001, +4.64951573792E+002
+2.16053817272E+007, +5.09581382887E+001, +4.68926017050E+002
+2.17304130163E+007, +5.08570663324E+001, +4.71969165744E+002
+2.18554443054E+007, +5.14074715552E+001, +4.76150315398E+002
+2.19804755945E+007, +5.09049332766E+001, +4.79740711931E+002
+2.21055068836E+007, +5.09948241345E+001, +4.83528678287E+002
+2.22305381727E+007, +5.17747569636E+001, +4.85920419828E+002
+2.23555694618E+007, +5.11993123918E+001, +4.90344545376E+002
+2.24806007509E+007, +5.17670377179E+001, +4.93444356232E+002
+2.26056320401E+007, +5.17551275082E+001, +4.96800463086E+002
+2.27306633292E+007, +5.20587263089E+001, +5.01021818238E+002
+2.28556946183E+007, +5.24554494352E+001, +5.06246292205E+002
+2.29807259074E+007, +5.25283891807E+001, +5.07878828187E+002
+2.31057571965E+007, +5.29627816513E+001, +5.11189223486E+002
+2.32307884856E+007, +5.33532716432E+001, +5.15337441150E+002
+2.33558197747E+007, +5.39325291811E+001, +5.19728246076E+002
+2.34808510638E+007, +5.49802100816E+001, +5.23380390043E+002
+2.36058823529E+007, +5.46766159450E+001, +5.26803091074E+002
+2.37309136421E+007, +5.32042963350E+001, +5.30084321014E+002
+2.38559449312E+007, +5.29058836113E+001, +5.33718535449E+002
+2.39809762203E+007, +5.39951802861E+001, +5.37185080399E+002
+2.41060075094E+007, +5.41145077892E+001, +5.41323108049E+002
+2.42310387985E+007, +5.50619768907E+001, +5.45919002785E+002
+2.43560700876E+007, +5.55792229200E+001, +5.48432960502E+002
+2.44811013767E+007, +5.61956631291E+001, +5.52346198785E+002
+2.46061326658E+007, +5.68908164704E+001, +5.56735000044E+002
+2.47311639549E+007, +5.66368043661E+001, +5.59872941055E+002
+2.48561952441E+007, +5.73522918586E+001, +5.64124605769E+002
+2.49812265332E+007, +5.83752991729E+001, +5.68766128164E+002
+2.51062578223E+007, +5.64671143721E+001, +5.72349324189E+002
+2.52312891114E+007, +5.74925806345E+001, +5.76600121078E+002
+2.53563204005E+007, +5.83701831368E+001, +5.79081181135E+002
+2.54813516896E+007, +5.86462263770E+001, +5.83539974681E+002
+2.56063829787E+007, +5.96190608259E+001, +5.87968286186E+002
+2.57314142678E+007, +6.01473593070E+001, +5.91247582006E+002
+2.58564455569E+007, +6.01205483535E+001, +5.96365403252E+002
+2.59814768461E+007, +6.06944684662E+001, +5.98461470199E+002
+2.61065081352E+007, +6.14881647773E+001, +6.04089028227E+002
+2.62315394243E+007, +6.16982093287E+001, +6.07362708467E+002
+2.63565707134E+007, +6.06998838124E+001, +6.12397285998E+002
+2.64816020025E+007, +6.28626611808E+001, +6.13408114519E+002
+2.66066332916E+007, +6.27567306196E+001, +6.20017288128E+002
+2.67316645807E+007, +6.14588440774E+001, +6.24790224655E+002
+2.68566958698E+007, +6.24967604329E+001, +6.27512713602E+002
+2.69817271589E+007, +6.32441969451E+001, +6.32346922578E+002
+2.71067584481E+007, +6.44033228835E+001, +6.35962279250E+002
+2.72317897372E+007, +6.34357661030E+001, +6.40454280919E+002
+2.73568210263E+007, +6.33420658879E+001, +6.44586113283E+002
+2.74818523154E+007, +6.42497986128E+001, +6.47705832352E+002
+2.76068836045E+007, +6.53722420692E+001, +6.53822760301E+002
+2.77319148936E+007, +6.42867178935E+001, +6.56489229804E+002
+2.78569461827E+007, +6.60409041217E+001, +6.60727807981E+002
+2.79819774718E+007, +6.67004691500E+001, +6.64990590875E+002
+2.81070087610E+007, +6.71040382803E+001, +6.69529793501E+002
+2.82320400501E+007, +6.76423628417E+001, +6.74766802863E+002
+2.83570713392E+007, +6.69393214295E+001, +6.77283611684E+002
+2.84821026283E+007, +6.60807092973E+001, +6.81951882997E+002
+2.86071339174E+007, +6.51509349993E+001, +6.87198442786E+002
+2.87321652065E+007, +6.90001730702E+001, +6.91951327859E+002
+2.88571964956E+007, +6.79307789895E+001, +6.97264191483E+002
+2.89822277847E+007, +6.84889621141E+001, +7.01597858255E+002
+2.91072590738E+007, +6.90894948283E+001, +7.04032866060E+002
+2.92322903630E+007, +6.86448099542E+001, +7.11169098463E+002
+2.93573216521E+007, +6.84799746215E+001, +7.16480305049E+002
+2.94823529412E+007, +6.99963736693E+001, +7.20144110841E+002
+2.96073842303E+007, +7.01203756657E+001, +7.24096963124E+002
+2.97324155194E+007, +6.91358466493E+001, +7.29179055952E+002
+2.98574468085E+007, +6.83337548144E+001, +7.32461978447E+002
+2.99824780976E+007, +7.05566746081E+001, +7.39973602128E+002
+3.01075093867E+007, +7.09973762670E+001, +7.45063770365E+002
+3.02325406758E+007, +7.02674224921E+001, +7.48696060606E+002
+3.03575719650E+007, +7.33625445398E+001, +7.53918594219E+002
+3.04826032541E+007, +7.39540642134E+001, +7.60617048037E+002
+3.06076345432E+007, +7.10470548464E+001, +7.65530829125E+002
+3.07326658323E+007, +7.36631282970E+001, +7.70117969780E+002
+3.08576971214E+007, +7.54053663471E+001, +7.74583855953E+002
+3.09827284105E+007, +7.50143024560E+001, +7.80717541524E+002
+3.11077596996E+007, +7.47332471024E+001, +7.84461474638E+002
+3.12327909887E+007, +7.61531066157E+001, +7.91041482011E+002
+3.13578222778E+007, +7.66879670746E+001, +7.96216684264E+002
+3.14828535670E+007, +7.58420478780E+001, +8.03381735121E+002
+3.16078848561E+007, +7.49441137728E+001, +8.06487265667E+002
+3.17329161452E+007, +7.83907371299E+001, +8.13373747783E+002
+3.18579474343E+007, +7.95832714333E+001, +8.19344044902E+002
+3.19829787234E+007, +7.92871704504E+001, +8.24164559303E+002
+3.21080100125E+007, +7.90137584862E+001, +8.30738039007E+002
+3.22330413016E+007, +8.23240931849E+001, +8.34926453198E+002
+3.23580725907E+007, +8.04444816378E+001, +8.40712309167E+002
+3.24831038798E+007, +8.19004109925E+001, +8.48729666305E+002
+3.26081351690E+007, +8.28973272324E+001, +8.53518456333E+002
+3.27331664581E+007, +8.41429758492E+001, +8.59895466748E+002
+3.28581977472E+007, +8.81075666466E+001, +8.65078498543E+002
+3.29832290363E+007, +8.40182392272E+001, +8.69716345840E+002
+3.31082603254E+007, +8.67750485410E+001, +8.77874497402E+002
+3.32332916145E+007, +8.58752222272E+001, +8.81366009686E+002
+3.33583229036E+007, +8.74322405955E+001, +8.92283236041E+002
+3.34833541927E+007, +8.82797637728E+001, +8.94158708286E+002
+3.36083854819E+007, +9.02379464082E+001, +8.99116086087E+002
+3.37334167710E+007, +8.84464660917E+001, +9.06028123921E+002
+3.38584480601E+007, +8.96730758137E+001, +9.13059089914E+002
+3.39834793492E+007, +9.55016425158E+001, +9.19672083874E+002
+3.41085106383E+007, +9.19874352554E+001, +9.27305546664E+002
+3.42335419274E+007, +9.39187676167E+001, +9.29950614729E+002
+3.43585732165E+007, +9.41773511830E+001, +9.37730779709E+002
+3.44836045056E+007, +9.70025086504E+001, +9.43846623404E+002
+3.46086357947E+007, +9.53540872078E+001, +9.53455048328E+002
+3.47336670839E+007, +9.39444189970E+001, +9.57655768741E+002
+3.48586983730E+007, +9.86305873310E+001, +9.67770546510E+002
+3.49837296621E+007, +9.78473500554E+001, +9.70927203261E+002
+3.51087609512E+007, +1.01761605134E+002, +9.77356555345E+002
+3.52337922403E+007, +1.04316201498E+002, +9.88005604264E+002
+3.53588235294E+007, +1.01287738912E+002, +9.93051936139E+002
+3.54838548185E+007, +1.05495972096E+002, +9.99733814939E+002
+3.56088861076E+007, +1.04788161451E+002, +1.00693379077E+003
+3.57339173967E+007, +1.07059641157E+002, +1.01447714741E+003
+3.58589486859E+007, +1.06960193821E+002, +1.01933783695E+003
+3.59839799750E+007, +1.04192727270E+002, +1.02964343715E+003
+3.61090112641E+007, +1.09130823420E+002, +1.03487984263E+003
+3.62340425532E+007, +1.08133521842E+002, +1.04708957506E+003
+3.63590738423E+007, +1.10997021741E+002, +1.04939698872E+003
+3.64841051314E+007, +1.14223082092E+002, +1.05519598184E+003
+3.66091364205E+007, +1.12483161571E+002, +1.06509561402E+003
+3.67341677096E+007, +1.13184698006E+002, +1.07706033399E+003
+3.68591989987E+007, +1.11612740623E+002, +1.08027181956E+003
+3.69842302879E+007, +1.16784850230E+002, +1.09037119303E+003
+3.71092615770E+007, +1.21199040047E+002, +1.10670210264E+003
+3.72342928661E+007, +1.23445688138E+002, +1.10717301457E+003
+3.73593241552E+007, +1.19155934475E+002, +1.11597126041E+003
+3.74843554443E+007, +1.22743776780E+002, +1.12291618949E+003
+3.76093867334E+007, +1.26151708436E+002, +1.13234839588E+003
+3.77344180225E+007, +1.23522334834E+002, +1.13981813315E+003
+3.78594493116E+007, +1.30782625437E+002, +1.14886299459E+003
+3.79844806008E+007, +1.28143577794E+002, +1.16142265201E+003
+3.81095118899E+007, +1.27093139409E+002, +1.16619389859E+003
+3.82345431790E+007, +1.31799049302E+002, +1.17761247238E+003
+3.83595744681E+007, +1.31699317703E+002, +1.18403533535E+003
+3.84846057572E+007, +1.39491526638E+002, +1.19311839081E+003
+3.86096370463E+007, +1.37931904364E+002, +1.20660755381E+003
+3.87346683354E+007, +1.37631966086E+002, +1.21863188155E+003
+3.88596996245E+007, +1.45315082936E+002, +1.22712197820E+003
+3.89847309136E+007, +1.44634308729E+002, +1.23866539764E+003
+3.91097622028E+007, +1.47175205863E+002, +1.24347046848E+003
+3.92347934919E+007, +1.47372605955E+002, +1.25484000242E+003
+3.93598247810E+007, +1.49028783310E+002, +1.26922097848E+003
+3.94848560701E+007, +1.52210580420E+002, +1.27689744753E+003
+3.96098873592E+007, +1.56985717413E+002, +1.28245171077E+003
+3.97349186483E+007, +1.54601127267E+002, +1.30073800846E+003
+3.98599499374E+007, +1.60055924308E+002, +1.31151126145E+003
+3.99849812265E+007, +1.69257529114E+002, +1.31716414884E+003
+4.01100125156E+007, +1.60400325786E+002, +1.32933168411E+003
