"# Channel 1"
"# Trace 1"
Frequency, Formatted Data, Formatted Data
+1.00000000000E+005, +4.00069148959E+001, +1.83087443800E+000
+2.25031289111E+005, +3.99262287943E+001, +4.44018290969E+000
+3.50062578223E+005, +3.99843331914E+001, +6.90937824559E+000
+4.75093867334E+005, +3.99930749879E+001, +9.34558885164E+000
+6.00125156446E+005, +3.99921542456E+001, +1.17904816273E+001
+7.25156445557E+005, +3.99942577904E+001, +1.42685366962E+001
+8.50187734668E+005, +4.00451146328E+001, +1.66549443463E+001
+9.75219023780E+005, +4.00026936759E+001, +1.91002799450E+001
+1.10025031289E+006, +4.00704801554E+001, +2.15480029534E+001
+1.22528160200E+006, +4.00260850990E+001, +2.40233387582E+001
+1.35031289111E+006, +4.00686257959E+001, +2.64703609632E+001
+1.47534418023E+006, +4.00366246499E+001, +2.88998529953E+001
+1.60037546934E+006, +4.00300135445E+001, +3.13284106535E+001
+1.72540675845E+006, +4.00694818774E+001, +3.37327736335E+001
+1.85043804756E+006, +4.00687256641E+001, +3.61675777956E+001
+1.97546933667E+006, +4.01059412223E+001, +3.86000044851E+001
+2.10050062578E+006, +4.01457109291E+001, +4.10516979649E+001
+2.22553191489E+006, +4.01069777715E+001, +4.35315989813E+001
+2.35056320401E+006, +4.01289159565E+001, +4.59873376673E+001
+2.47559449312E+006, +4.01220832362E+001, +4.84604140018E+001
+2.60062578223E+006, +4.01070034232E+001, +5.08843342481E+001
+2.72565707134E+006, +3.99825181680E+001, +5.32298144598E+001
+2.85068836045E+006, +4.01363299832E+001, +5.58115343556E+001
+2.97571964956E+006, +4.00726947075E+001, +5.81334546367E+001
+3.10075093867E+006, +4.00401887621E+001, +6.05964607026E+001
+3.22578222778E+006, +4.01157695413E+001, +6.30483388891E+001
+3.35081351690E+006, +4.02736017895E+001, +6.56581452908E+001
+3.47584480601E+006, +4.01362211721E+001, +6.79644978186E+001
+3.60087609512E+006, +4.02094429464E+001, +7.05125512893E+001
+3.72590738423E+006, +4.01930393102E+001, +7.29333950580E+001
+3.85093867334E+006, +4.03165013070E+001, +7.54708360919E+001
+3.97596996245E+006, +4.03622128045E+001, +7.79885103917E+001
+4.10100125156E+006, +4.02826014576E+001, +8.04672915009E+001
+4.22603254068E+006, +4.02446187261E+001, +8.27738560656E+001
+4.35106382979E+006, +4.03618212493E+001, +8.52707828447E+001
+4.47609511890E+006, +4.04085382608E+001, +8.76640511749E+001
+4.60112640801E+006, +4.03801518605E+001, +9.01109949916E+001
+4.72615769712E+006, +4.04337386350E+001, +9.27000022590E+001
+4.85118898623E+006, +4.04046651374E+001, +9.51190082173E+001
+4.97622027534E+006, +4.03728518644E+001, +9.76094898919E+001
+5.10125156446E+006, +4.04437392720E+001, +1.00118017395E+002
+5.22628285357E+006, +4.06413237168E+001, +1.02654579496E+002
+5.35131414268E+006, +4.06786899528E+001, +1.05209618176E+002
+5.47634543179E+006, +4.04493319823E+001, +1.07688861709E+002
+5.60137672090E+006, +4.03985519742E+001, +1.10006940259E+002
+5.72640801001E+006, +4.05941901451E+001, +1.12681161681E+002
+5.85143929912E+006, +4.07108912804E+001, +1.15095525851E+002
+5.97647058824E+006, +4.08481668708E+001, +1.17659822629E+002
+6.10150187735E+006, +4.05443633464E+001, +1.20060413617E+002
+6.22653316646E+006, +4.07505820040E+001, +1.22704895995E+002
+6.35156445557E+006, +4.09342433615E+001, +1.25084023388E+002
+6.47659574468E+006, +4.08967190338E+001, +1.27515872933E+002
+6.60162703379E+006, +4.09493794596E+001, +1.30203875459E+002
+6.72665832290E+006, +4.11261983421E+001, +1.32562256487E+002
+6.85168961202E+006, +4.11147850999E+001, +1.35203575160E+002
+6.97672090113E+006, +4.10444873551E+001, +1.37726038248E+002
+7.10175219024E+006, +4.12678724357E+001, +1.40237100806E+002
+7.22678347935E+006, +4.11865311468E+001, +1.42815925668E+002
+7.35181476846E+006, +4.11205170585E+001, +1.45474060695E+002
+7.47684605757E+006, +4.13544142267E+001, +1.47997749903E+002
+7.60187734668E+006, +4.12529763690E+001, +1.50542878883E+002
+7.72690863579E+006, +4.11926168927E+001, +1.53031504516E+002
+7.85193992491E+006, +4.14875428907E+001, +1.55656651017E+002
+7.97697121402E+006, +4.14641732352E+001, +1.57937565702E+002
+8.10200250313E+006, +4.14498584037E+001, +1.60635348535E+002
+8.22703379224E+006, +4.14589385555E+001, +1.63161407615E+002
+8.35206508135E+006, +4.16530728463E+001, +1.65969242821E+002
+8.47709637046E+006, +4.17259671460E+001, +1.68524552140E+002
+8.60212765957E+006, +4.15796889694E+001, +1.71076013315E+002
+8.72715894869E+006, +4.16402027976E+001, +1.73671152769E+002
+8.85219023780E+006, +4.18198832493E+001, +1.75939620364E+002
+8.97722152691E+006, +4.16284791053E+001, +1.78824011812E+002
+9.10225281602E+006, +4.18715625963E+001, +1.81525767777E+002
+9.22728410513E+006, +4.19277864876E+001, +1.84188145856E+002
+9.35231539424E+006, +4.21086979388E+001, +1.86527114052E+002
+9.47734668335E+006, +4.19403591538E+001, +1.89311653080E+002
+9.60237797247E+006, +4.22570351219E+001, +1.91894237431E+002
+9.72740926158E+006, +4.21106640740E+001, +1.94424337364E+002
+9.85244055069E+006, +4.20031331619E+001, +1.97067330838E+002
+9.97747183980E+006, +4.21211995886E+001, +1.99927668775E+002
+1.01025031289E+007, +4.21092667006E+001, +2.02552899206E+002
+1.02275344180E+007, +4.19834987400E+001, +2.05227940094E+002
+1.03525657071E+007, +4.23816609798E+001, +2.07630983144E+002
+1.04775969962E+007, +4.21332451792E+001, +2.10103181273E+002
+1.06026282854E+007, +4.22923472705E+001, +2.12830962192E+002
+1.07276595745E+007, +4.23224165756E+001, +2.15600125956E+002
+1.08526908636E+007, +4.24238290299E+001, +2.18187410469E+002
+1.09777221527E+007, +4.22478989929E+001, +2.20996478785E+002
+1.11027534418E+007, +4.24490891570E+001, +2.23884093370E+002
+1.12277847309E+007, +4.24698759081E+001, +2.26615168599E+002
+1.13528160200E+007, +4.26012427895E+001, +2.29363846580E+002
+1.14778473091E+007, +4.29665144567E+001, +2.31671111394E+002
+1.16028785982E+007, +4.31736244537E+001, +2.34570055786E+002
+1.17279098874E+007, +4.26016216327E+001, +2.37470961352E+002
+1.18529411765E+007, +4.30855158574E+001, +2.39429511785E+002
+1.19779724656E+007, +4.26736800302E+001, +2.42905871731E+002
+1.21030037547E+007, +4.29459322440E+001, +2.45672019812E+002
+1.22280350438E+007, +4.32532967514E+001, +2.48274700363E+002
+1.23530663329E+007, +4.29087216740E+001, +2.50647137801E+002
+1.24780976220E+007, +4.33707292699E+001, +2.53685771744E+002
+1.26031289111E+007, +4.29793398234E+001, +2.56426411254E+002
+1.27281602003E+007, +4.32135676226E+001, +2.58959064482E+002
+1.28531914894E+007, +4.31921105009E+001, +2.62312869837E+002
+1.29782227785E+007, +4.31719163390E+001, +2.64734348062E+002
+1.31032540676E+007, +4.33500685954E+001, +2.67374545362E+002
+1.32282853567E+007, +4.34541263619E+001, +2.70592332204E+002
+1.33533166458E+007, +4.33050922771E+001, +2.73297593906E+002
+1.34783479349E+007, +4.36407836388E+001, +2.75701604058E+002
+1.36033792240E+007, +4.36251442913E+001, +2.78996094595E+002
+1.37284105131E+007, +4.34831069746E+001, +2.82013693178E+002
+1.38534418023E+007, +4.38210315281E+001, +2.84353471356E+002
+1.39784730914E+007, +4.39294557070E+001, +2.87955037906E+002
+1.41035043805E+007, +4.36509401551E+001, +2.90402769963E+002
+1.42285356696E+007, +4.36543234912E+001, +2.93095244875E+002
+1.43535669587E+007, +4.39036572912E+001, +2.96577769875E+002
+1.44785982478E+007, +4.45949511031E+001, +2.98908823497E+002
+1.46036295369E+007, +4.44009201405E+001, +3.02588156463E+002
+1.47286608260E+007, +4.40780102993E+001, +3.04496304234E+002
+1.48536921151E+007, +4.45452385567E+001, +3.08058004438E+002
+1.49787234043E+007, +4.46682039633E+001, +3.10964316455E+002
+1.51037546934E+007, +4.46491847223E+001, +3.13353077814E+002
+1.52287859825E+007, +4.45686465708E+001, +3.16459849480E+002
+1.53538172716E+007, +4.46947396179E+001, +3.19733773053E+002
+1.54788485607E+007, +4.56673058943E+001, +3.22191155535E+002
+1.56038798498E+007, +4.50532364650E+001, +3.25626205001E+002
+1.57289111389E+007, +4.48494517000E+001, +3.28183193293E+002
+1.58539424280E+007, +4.48102498379E+001, +3.31373997804E+002
+1.59789737171E+007, +4.53706040031E+001, +3.34241636591E+002
+1.61040050063E+007, +4.49155242528E+001, +3.36880468524E+002
+1.62290362954E+007, +4.58494419405E+001, +3.40784745201E+002
+1.63540675845E+007, +4.57174180261E+001, +3.43549039801E+002
+1.64790988736E+007, +4.56224097271E+001, +3.46961764047E+002
+1.66041301627E+007, +4.65480254423E+001, +3.50080497269E+002
+1.67291614518E+007, +4.52085162503E+001, +3.52777052179E+002
+1.68541927409E+007, +4.60269104566E+001, +3.56003787855E+002
+1.69792240300E+007, +4.64345264141E+001, +3.58198440848E+002
+1.71042553191E+007, +4.52167568782E+001, +3.62665557424E+002
+1.72292866083E+007, +4.64142902942E+001, +3.64905119317E+002
+1.73543178974E+007, +4.56166239483E+001, +3.68372420695E+002
+1.74793491865E+007, +4.68202413580E+001, +3.71358302443E+002
+1.76043804756E+007, +4.72901929630E+001, +3.74669700670E+002
+1.77294117647E+007, +4.62889224276E+001, +3.78603809023E+002
+1.78544430538E+007, +4.70302936330E+001, +3.81292415712E+002
+1.79794743429E+007, +4.60561193358E+001, +3.84245239615E+002
+1.81045056320E+007, +4.63750910725E+001, +3.87261737262E+002
+1.82295369212E+007, +4.73019328951E+001, +3.89804728766E+002
+1.83545682103E+007, +4.70865807874E+001, +3.93216791627E+002
+1.84795994994E+007, +4.72567115494E+001, +3.97407836850E+002
+1.86046307885E+007, +4.69929084065E+001, +3.99311268647E+002
+1.87296620776E+007, +4.79977888440E+001, +4.02448283877E+002
+1.88546933667E+007, +4.72476652897E+001, +4.05942802047E+002
+1.89797246558E+007, +4.77248572247E+001, +4.10141075354E+002
+1.91047559449E+007, +4.77658954021E+001, +4.12604872962E+002
+1.92297872340E+007, +4.81077955145E+001, +4.17421261263E+002
+1.93548185232E+007, +4.79561368716E+001, +4.19505137114E+002
+1.94798498123E+007, +4.76093951985E+001, +4.24042180605E+002
+1.96048811014E+007, +4.79025989766E+001, +4.26694320978E+002
+1.97299123905E+007, +4.92235140893E+001, +4.29931248122E+002
+1.98549436796E+007, +4.86948154479E+001, +4.33094822173E+002
+1.99799749687E+007, +4.93201704741E+001, +4.37110283451E+002
+2.01050062578E+007, +4.91899073014E+001, +4.41351011697E+002
+2.02300375469E+007, +4.88317592086E+001, +4.43162260579E+002
+2.03550688360E+007, +4.95838698590E+001, +4.45992147959E+002
+2.04801001252E+007, +4.86955896816E+001, +4.50313526483E+002
+2.06051314143E+007, +4.90420049921E+001, +4.53135601675E+002
+2.07301627034E+007, +4.98440687424E+001, +4.56962075300E+002
+2.08551939925E+007, +4.98419354892E+001, +4.60278594881E+002
+2.09802252816E+007, +5.00338163310E+001, +4.64006430074E+002
+2.11052565707E+007, +4.96691471147E+001, +4.67698472910E+002
+2.12302878598E+007, +4.92914226072E+001, +4.72184104520E+002
+2.13553191489E+007, +4.98947564504E+001, +4.75051150077E+002
+2.14803504380E+007, +5.17094423663E+001, +4.77150346990E+002
+2.16053817272E+007, +5.12798654635E+001, +4.83155475037E+002
+2.17304130163E+007, +5.08937168973E+001, +4.86573804633E+002
+2.18554443054E+007, +5.16610928794E+001, +4.88662247638E+002
+2.19804755945E+007, +5.09754576941E+001, +4.93836388259E+002
+2.21055068836E+007, +5.18535559420E+001, +4.97639472421E+002
+2.22305381727E+007, +5.15119725622E+001, +5.00408632726E+002
+2.23555694618E+007, +5.27597093971E+001, +5.04473853241E+002
+2.24806007509E+007, +5.33319366307E+001, +5.07236724915E+002
+2.26056320401E+007, +5.27737939320E+001, +5.11241109909E+002
+2.27306633292E+007, +5.40978366902E+001, +5.15052988120E+002
+2.28556946183E+007, +5.36848614294E+001, +5.19645575598E+002
+2.29807259074E+007, +5.46446073881E+001, +5.21687059652E+002
+2.31057571965E+007, +5.41011117965E+001, +5.26150088947E+002
+2.32307884856E+007, +5.37097605368E+001, +5.31288886705E+002
+2.33558197747E+007, +5.61690073353E+001, +5.33546863995E+002
+2.34808510638E+007, +5.56867518474E+001, +5.37653785104E+002
+2.36058823529E+007, +5.56830112182E+001, +5.41854392239E+002
+2.37309136421E+007, +5.75862407779E+001, +5.44590557883E+002
+2.38559449312E+007, +5.73235770869E+001, +5.49492451943E+002
+2.39809762203E+007, +5.62823952006E+001, +5.53774243341E+002
+2.41060075094E+007, +5.61758452943E+001, +5.56813751934E+002
+2.42310387985E+007, +5.79014454185E+001, +5.60773000645E+002
+2.43560700876E+007, +5.84016399203E+001, +5.63778189245E+002
+2.44811013767E+007, +5.73285880010E+001, +5.66409863781E+002
+2.46061326658E+007, +5.61254149522E+001, +5.71036326388E+002
+2.47311639549E+007, +5.89282700370E+001, +5.74692032637E+002
+2.48561952441E+007, +5.84400040027E+001, +5.76937878026E+002
+2.49812265332E+007, +5.92841473964E+001, +5.82812684592E+002
+2.51062578223E+007, +5.91698649419E+001, +5.88452017606E+002
+2.52312891114E+007, +5.95377183003E+001, +5.92300680470E+002
+2.53563204005E+007, +5.68502599239E+001, +5.96749965004E+002
+2.54813516896E+007, +5.84537513444E+001, +6.00215994243E+002
+2.56063829787E+007, +5.98965763138E+001, +6.06104977483E+002
+2.57314142678E+007, +5.88053147370E+001, +6.07767361164E+002
+2.58564455569E+007, +5.86567421596E+001, +6.12575328190E+002
+2.59814768461E+007, +6.01416787842E+001, +6.15444779569E+002
+2.61065081352E+007, +5.72368284162E+001, +6.22370894918E+002
+2.62315394243E+007, +5.92965113017E+001, +6.24314225898E+002
+2.63565707134E+007, +6.00130738671E+001, +6.30792230959E+002
+2.64816020025E+007, +5.99069101227E+001, +6.33078920346E+002
+2.66066332916E+007, +6.14243710576E+001, +6.38379493264E+002
+2.67316645807E+007, +6.04627503681E+001, +6.43756088371E+002
+2.68566958698E+007, +6.07921885124E+001, +6.49205237728E+002
+2.69817271589E+007, +5.94784033105E+001, +6.54009775993E+002
+2.71067584481E+007, +6.27194707143E+001, +6.58025241955E+002
+2.72317897372E+007, +6.26273595503E+001, +6.61584296804E+002
+2.73568210263E+007, +6.41828274321E+001, +6.65702584834E+002
+2.74818523154E+007, +6.22921379913E+001, +6.67512000084E+002
+2.76068836045E+007, +6.57207702423E+001, +6.72948327269E+002
+2.77319148936E+007, +6.17796492310E+001, +6.77453776573E+002
+2.78569461827E+007, +6.39200803082E+001, +6.84139949138E+002
+2.79819774718E+007, +6.44001980169E+001, +6.89377369305E+002
+2.81070087610E+007, +6.68810456701E+001, +6.91560449351E+002
+2.82320400501E+007, +6.34994891711E+001, +6.97446227962E+002
+2.83570713392E+007, +6.43066773019E+001, +7.04348796881E+002
+2.84821026283E+007, +6.58334924278E+001, +7.06315280088E+002
+2.86071339174E+007, +6.23701606696E+001, +7.13044446091E+002
+2.87321652065E+007, +6.52554973040E+001, +7.17603302449E+002
+2.88571964956E+007, +6.61361566504E+001, +7.23270762653E+002
+2.89822277847E+007, +6.33932425912E+001, +7.29862149470E+002
+2.91072590738E+007, +6.42085296363E+001, +7.32241803493E+002
+2.92322903630E+007, +6.39220307966E+001, +7.41017145719E+002
+2.93573216521E+007, +6.51151140641E+001, +7.44964256111E+002
+2.94823529412E+007, +6.42211400772E+001, +7.50654963210E+002
+2.96073842303E+007, +6.66756256678E+001, +7.52202965012E+002
+2.97324155194E+007, +6.78437661400E+001, +7.63063051599E+002
+2.98574468085E+007, +6.60704991163E+001, +7.64077513724E+002
+2.99824780976E+007, +6.60097952220E+001, +7.69675944196E+002
+3.01075093867E+007, +6.64868820592E+001, +7.75450810243E+002
+3.02325406758E+007, +7.15239432106E+001, +7.81436269568E+002
+3.03575719650E+007, +6.92957835152E+001, +7.87175240559E+002
+3.04826032541E+007, +6.95038587361E+001, +7.91102382647E+002
+3.06076345432E+007, +6.80105113404E+001, +8.00564752985E+002
+3.07326658323E+007, +6.92902142366E+001, +8.03791137781E+002
+3.08576971214E+007, +7.11387315912E+001, +8.13552805310E+002
+3.09827284105E+007, +7.07029632004E+001, +8.11801268305E+002
+3.11077596996E+007, +7.05551966963E+001, +8.20296203940E+002
+3.12327909887E+007, +7.11163291621E+001, +8.25309582419E+002
+3.13578222778E+007, +7.05983579455E+001, +8.33679083047E+002
+3.14828535670E+007, +6.89190967839E+001, +8.37664195934E+002
+3.16078848561E+007, +7.24288022228E+001, +8.47311972419E+002
+3.17329161452E+007, +7.10639809058E+001, +8.50400207544E+002
+3.18579474343E+007, +7.28196422837E+001, +8.58956663185E+002
+3.19829787234E+007, +7.06026058806E+001, +8.60599408034E+002
+3.21080100125E+007, +7.34892505485E+001, +8.67319574104E+002
+3.22330413016E+007, +7.36193502708E+001, +8.74268908399E+002
+3.23580725907E+007, +7.90135599195E+001, +8.82226911743E+002
+3.24831038798E+007, +7.53793997910E+001, +8.88870185370E+002
+3.26081351690E+007, +7.34035166434E+001, +8.93779589282E+002
+3.27331664581E+007, +7.58871307431E+001, +9.01261216190E+002
+3.28581977472E+007, +7.92356302315E+001, +9.05791908903E+002
+3.29832290363E+007, +7.55943464081E+001, +9.09475502688E+002
+3.31082603254E+007, +8.23180164062E+001, +9.18056954976E+002
+3.32332916145E+007, +8.07614932146E+001, +9.23030236394E+002
+3.33583229036E+007, +7.90336115685E+001, +9.36297982510E+002
+3.34833541927E+007, +8.09442232920E+001, +9.41792334255E+002
+3.36083854819E+007, +8.02791619430E+001, +9.49944268236E+002
+3.37334167710E+007, +8.11595251954E+001, +9.55904771846E+002
+3.38584480601E+007, +8.38978371597E+001, +9.62139627918E+002
+3.39834793492E+007, +8.25272220702E+001, +9.66415452948E+002
+3.41085106383E+007, +8.61950747310E+001, +9.75686921985E+002
+3.42335419274E+007, +8.54264540023E+001, +9.81862690218E+002
+3.43585732165E+007, +8.28676955511E+001, +9.88224436060E+002
+3.44836045056E+007, +8.50887092014E+001, +9.95930285108E+002
+3.46086357947E+007, +9.01260429596E+001, +1.00339413760E+003
+3.47336670839E+007, +8.72710135520E+001, +1.01236747108E+003
+3.48586983730E+007, +8.88495073300E+001, +1.01583485852E+003
+3.49837296621E+007, +8.81477101244E+001, +1.03114439861E+003
+3.51087609512E+007, +8.79805392730E+001, +1.03125632344E+003
+3.52337922403E+007, +8.78984528311E+001, +1.04009576721E+003
+3.53588235294E+007, +9.07772242503E+001, +1.04367395593E+003
+3.54838548185E+007, +9.67760737277E+001, +1.05563951343E+003
+3.56088861076E+007, +9.37412650256E+001, +1.06716862104E+003
+3.57339173967E+007, +9.14785655908E+001, +1.07010033412E+003
+3.58589486859E+007, +9.38252458245E+001, +1.07884075290E+003
+3.59839799750E+007, +9.89027048838E+001, +1.08694494333E+003
+3.61090112641E+007, +9.81090489996E+001, +1.10327138137E+003
+3.62340425532E+007, +9.58016434463E+001, +1.10971851492E+003
+3.63590738423E+007, +9.66714984246E+001, +1.10961515672E+003
+3.64841051314E+007, +9.70509734294E+001, +1.12758571572E+003
+3.66091364205E+007, +9.79784058323E+001, +1.13248210082E+003
+3.67341677096E+007, +1.00985625151E+002, +1.14009221170E+003
+3.68591989987E+007, +9.94983734932E+001, +1.15582745763E+003
+3.69842302879E+007, +9.59675160480E+001, +1.16189909082E+003
+3.71092615770E+007, +1.00203662129E+002, +1.16037559391E+003
+3.72342928661E+007, +1.04943657457E+002, +1.17433980098E+003
+3.73593241552E+007, +1.05621405280E+002, +1.18880044168E+003
+3.74843554443E+007, +1.04411624737E+002, +1.19743724383E+003
+3.76093867334E+007, +1.05961432663E+002, +1.20527170220E+003
+3.77344180225E+007, +1.09140373291E+002, +1.21169105837E+003
+3.78594493116E+007, +1.06192038013E+002, +1.22036820222E+003
+3.79844806008E+007, +1.14300514331E+002, +1.23257839922E+003
+3.81095118899E+007, +1.12710048345E+002, +1.25614778899E+003
+3.82345431790E+007, +1.08815585669E+002, +1.25681606750E+003
+3.83595744681E+007, +1.16861327153E+002, +1.26588277452E+003
+3.84846057572E+007, +1.16404734856E+002, +1.27306589957E+003
+3.86096370463E+007, +1.14791212510E+002, +1.29351129137E+003
+3.87346683354E+007, +1.15856726642E+002, +1.29911521010E+003
+3.88596996245E+007, +1.12106003141E+002, +1.30837353555E+003
+3.89847309136E+007, +1.20434642340E+002, +1.31656832882E+003
+3.91097622028E+007, +1.26675584029E+002, +1.33381638033E+003
+3.92347934919E+007, +1.31173749377E+002, +1.34096929355E+003
+3.93598247810E+007, +1.23456100478E+002, +1.35622773014E+003
+3.94848560701E+007, +1.24783045511E+002, +1.36711429358E+003
+3.96098873592E+007, +1.25527421096E+002, +1.37947245841E+003
+3.97349186483E+007, +1.37236331291E+002, +1.38265565823E+003
+3.98599499374E+007, +1.30539098819E+002, +1.40242706958E+003
+3.99849812265E+007, +1.38852129616E+002, +1.41782643527E+003
+4.01100125156E+007, +1.46550333630E+002, +1.42989248543E+003
