"# Channel 1"
"# Trace 1"
Frequency, Formatted Data, Formatted Data
+1.00000000000E+005, +3.97199924160E+001, +1.87653839443E+000
+2.25031289111E+005, +3.96693834988E+001, +4.46140483193E+000
+3.50062578223E+005, +3.96823651268E+001, +6.88691106039E+000
+4.75093867334E+005, +3.97245507544E+001, +9.34074424404E+000
+6.00125156446E+005, +3.97530033172E+001, +1.17846117628E+001
+7.25156445557E+005, +3.97663152658E+001, +1.41684441695E+001
+8.50187734668E+005, +3.97727766949E+001, +1.66129403187E+001
+9.75219023780E+005, +3.97850639502E+001, +1.90547720551E+001
+1.10025031289E+006, +3.98100428425E+001, +2.14840186791E+001
+1.22528160200E+006, +3.98240130277E+001, +2.39021632694E+001
+1.35031289111E+006, +3.98114959806E+001, +2.63433164739E+001
+1.47534418023E+006, +3.99237008874E+001, +2.87552707337E+001
+1.60037546934E+006, +3.99147082035E+001, +3.12048065376E+001
+1.72540675845E+006, +3.98900609509E+001, +3.35507071395E+001
+1.85043804756E+006, +3.99355098546E+001, +3.60796009649E+001
+1.97546933667E+006, +3.98944698101E+001, +3.84863718310E+001
+2.10050062578E+006, +3.99125369858E+001, +4.09796658068E+001
+2.22553191489E+006, +3.99455939551E+001, +4.33308112343E+001
+2.35056320401E+006, +3.99729140377E+001, +4.57936040537E+001
+2.47559449312E+006, +4.00187193839E+001, +4.82239218936E+001
+2.60062578223E+006, +3.99395861133E+001, +5.06033667433E+001
+2.72565707134E+006, +4.00230932976E+001, +5.30442457513E+001
+2.85068836045E+006, +4.00400806477E+001, +5.54846757312E+001
+2.97571964956E+006, +4.00213875682E+001, +5.79294863789E+001
+3.10075093867E+006, +4.00135637083E+001, +6.03962677545E+001
+3.22578222778E+006, +4.00432717881E+001, +6.28252011480E+001
+3.35081351690E+006, +4.01062580439E+001, +6.52762460415E+001
+3.47584480601E+006, +4.01458883667E+001, +6.76451977901E+001
+3.60087609512E+006, +4.01248581254E+001, +7.00544300054E+001
+3.72590738423E+006, +4.00842904609E+001, +7.26591499586E+001
+3.85093867334E+006, +4.01439386722E+001, +7.52792235269E+001
+3.97596996245E+006, +4.01942157233E+001, +7.78829140557E+001
+4.10100125156E+006, +4.13270426785E+001, +7.82512804641E+001
+4.22603254068E+006, +4.01020428232E+001, +8.22302501295E+001
+4.35106382979E+006, +4.02344362559E+001, +8.47491117684E+001
+4.47609511890E+006, +4.02086934518E+001, +8.72013996224E+001
+4.60112640801E+006, +4.03053844144E+001, +8.96748972367E+001
+4.72615769712E+006, +4.02110649166E+001, +9.21511415497E+001
+4.85118898623E+006, +4.02728329059E+001, +9.46671130449E+001
+4.97622027534E+006, +4.04614876540E+001, +9.70572851659E+001
+5.10125156446E+006, +4.04046260582E+001, +9.95048145981E+001
+5.22628285357E+006, +4.04519456890E+001, +1.01961020535E+002
+5.35131414268E+006, +4.03209143748E+001, +1.04368135382E+002
+5.47634543179E+006, +4.04061812066E+001, +1.06880685030E+002
+5.60137672090E+006, +4.05223975697E+001, +1.09309399173E+002
+5.72640801001E+006, +4.05285138283E+001, +1.11814883021E+002
+5.85143929912E+006, +4.05954826775E+001, +1.14406664693E+002
+5.97647058824E+006, +4.05110650755E+001, +1.16774175888E+002
+6.10150187735E+006, +4.05035457046E+001, +1.19288604637E+002
+6.22653316646E+006, +4.06247481967E+001, +1.21762577675E+002
+6.35156445557E+006, +4.06073126474E+001, +1.24221411795E+002
+6.47659574468E+006, +4.06315311639E+001, +1.26735833714E+002
+6.60162703379E+006, +4.08065255953E+001, +1.29310763540E+002
+6.72665832290E+006, +4.08409422325E+001, +1.31824267335E+002
+6.85168961202E+006, +4.08768159923E+001, +1.34273291139E+002
+6.97672090113E+006, +4.08091985756E+001, +1.36755792417E+002
+7.10175219024E+006, +4.10054419941E+001, +1.39246252676E+002
+7.22678347935E+006, +4.10780850861E+001, +1.41730613806E+002
+7.35181476846E+006, +4.10461456229E+001, +1.44249571801E+002
+7.47684605757E+006, +4.10490133529E+001, +1.46826872153E+002
+7.60187734668E+006, +4.12133131326E+001, +1.49344315217E+002
+7.72690863579E+006, +4.12834365098E+001, +1.51760347518E+002
+7.85193992491E+006, +4.11879665042E+001, +1.54221935574E+002
+7.97697121402E+006, +4.12682221161E+001, +1.56898055479E+002
+8.10200250313E+006, +4.14038523727E+001, +1.59230183984E+002
+8.22703379224E+006, +4.14766500262E+001, +1.61801766653E+002
+8.35206508135E+006, +4.14399897746E+001, +1.64319790864E+002
+8.47709637046E+006, +4.14915453772E+001, +1.66773935456E+002
+8.60212765957E+006, +4.14883092243E+001, +1.69169661776E+002
+8.72715894869E+006, +4.17493896041E+001, +1.71671182798E+002
+8.85219023780E+006, +4.18233381210E+001, +1.74102580535E+002
+8.97722152691E+006, +4.18903985542E+001, +1.76694607221E+002
+9.10225281602E+006, +4.17718906452E+001, +1.79260048137E+002
+9.22728410513E+006, +4.16730773609E+001, +1.81729311562E+002
+9.35231539424E+006, +4.16566978505E+001, +1.84451024506E+002
+9.47734668335E+006, +4.18660798280E+001, +1.86730379449E+002
+9.60237797247E+006, +4.19946509509E+001, +1.88995352210E+002
+9.72740926158E+006, +4.18902619072E+001, +1.91203659470E+002
+9.85244055069E+006, +4.19528398919E+001, +1.93634943212E+002
+9.97747183980E+006, +4.21670347873E+001, +1.95855588962E+002
+1.01025031289E+007, +4.21429129371E+001, +1.98045013676E+002
+1.02275344180E+007, +4.20582282066E+001, +2.00521250298E+002
+1.03525657071E+007, +4.20882023923E+001, +2.03117403802E+002
+1.04775969962E+007, +4.21183060551E+001, +2.05471154450E+002
+1.06026282854E+007, +4.21413671150E+001, +2.08251451009E+002
+1.07276595745E+007, +4.23781820684E+001, +2.11195791624E+002
+1.08526908636E+007, +4.22217814764E+001, +2.13692321318E+002
+1.09777221527E+007, +4.21601420209E+001, +2.16511632483E+002
+1.11027534418E+007, +4.22617075655E+001, +2.19466323306E+002
+1.12277847309E+007, +4.25129004290E+001, +2.22356551273E+002
+1.13528160200E+007, +4.24141169899E+001, +2.25522216897E+002
+1.14778473091E+007, +4.25488280623E+001, +2.28878058077E+002
+1.16028785982E+007, +4.23031365100E+001, +2.31297459124E+002
+1.17279098874E+007, +4.24941362699E+001, +2.33684469728E+002
+1.18529411765E+007, +4.25924199386E+001, +2.36329788173E+002
+1.19779724656E+007, +4.26389830668E+001, +2.38890403488E+002
+1.21030037547E+007, +4.26737218849E+001, +2.41802784350E+002
+1.22280350438E+007, +4.28417447696E+001, +2.44270625361E+002
+1.23530663329E+007, +4.28035564177E+001, +2.47140655197E+002
+1.24780976220E+007, +4.31753221030E+001, +2.50125284216E+002
+1.26031289111E+007, +4.28024919313E+001, +2.52531462694E+002
+1.27281602003E+007, +4.28627939804E+001, +2.55301766121E+002
+1.28531914894E+007, +4.26648061045E+001, +2.58107698898E+002
+1.29782227785E+007, +4.27305562746E+001, +2.60517905031E+002
+1.31032540676E+007, +4.27671235524E+001, +2.63127517429E+002
+1.32282853567E+007, +4.29952364032E+001, +2.65705768837E+002
+1.33533166458E+007, +4.31296840033E+001, +2.68603179002E+002
+1.34783479349E+007, +4.30442010002E+001, +2.71505104509E+002
+1.36033792240E+007, +4.32193239971E+001, +2.74015986751E+002
+1.37284105131E+007, +4.33252974942E+001, +2.76886037503E+002
+1.38534418023E+007, +4.35403086923E+001, +2.79951408628E+002
+1.39784730914E+007, +4.35562313453E+001, +2.82803254046E+002
+1.41035043805E+007, +4.31731710603E+001, +2.85379798415E+002
+1.42285356696E+007, +4.32108787365E+001, +2.87963198455E+002
+1.43535669587E+007, +4.32923273877E+001, +2.91264744071E+002
+1.44785982478E+007, +4.35068050892E+001, +2.93622961453E+002
+1.46036295369E+007, +4.37827019793E+001, +2.96289914679E+002
+1.47286608260E+007, +4.36474008903E+001, +2.99102206727E+002
+1.48536921151E+007, +4.36883051416E+001, +3.01587536699E+002
+1.49787234043E+007, +4.35453194057E+001, +3.04968940662E+002
+1.51037546934E+007, +4.38663748194E+001, +3.07830471209E+002
+1.52287859825E+007, +4.37346521261E+001, +3.10589141266E+002
+1.53538172716E+007, +4.41689423782E+001, +3.13679548708E+002
+1.54788485607E+007, +4.45837361305E+001, +3.16025912713E+002
+1.56038798498E+007, +4.41462028958E+001, +3.19167688293E+002
+1.57289111389E+007, +4.43930754228E+001, +3.22268964156E+002
+1.58539424280E+007, +4.48928097921E+001, +3.25204557295E+002
+1.59789737171E+007, +4.42930839906E+001, +3.28246824149E+002
+1.61040050063E+007, +4.45990285615E+001, +3.30702344082E+002
+1.62290362954E+007, +4.47813004235E+001, +3.34082856821E+002
+1.63540675845E+007, +4.44395957698E+001, +3.36680110569E+002
+1.64790988736E+007, +4.49934890990E+001, +3.39434234094E+002
+1.66041301627E+007, +4.55744319309E+001, +3.42403842782E+002
+1.67291614518E+007, +4.50241571720E+001, +3.45600468324E+002
+1.68541927409E+007, +4.54789930114E+001, +3.48529266738E+002
+1.69792240300E+007, +4.57027569440E+001, +3.51601041268E+002
+1.71042553191E+007, +4.51592636429E+001, +3.54908325147E+002
+1.72292866083E+007, +4.54080636888E+001, +3.57438854118E+002
+1.73543178974E+007, +4.55731859530E+001, +3.60318287836E+002
+1.74793491865E+007, +4.63696410015E+001, +3.63288368422E+002
+1.76043804756E+007, +4.57720249667E+001, +3.66469461838E+002
+1.77294117647E+007, +4.57454313565E+001, +3.69202628848E+002
+1.78544430538E+007, +4.56517378113E+001, +3.72239962822E+002
+1.79794743429E+007, +4.60942190270E+001, +3.75525012287E+002
+1.81045056320E+007, +4.62757969969E+001, +3.79100104796E+002
+1.82295369212E+007, +4.56940027725E+001, +3.81811428038E+002
+1.83545682103E+007, +4.63535182284E+001, +3.84875249270E+002
+1.84795994994E+007, +4.66471639014E+001, +3.87949402412E+002
+1.86046307885E+007, +4.70507531006E+001, +3.91248803861E+002
+1.87296620776E+007, +4.71274432906E+001, +3.94256723719E+002
+1.88546933667E+007, +4.66703244929E+001, +3.97454190564E+002
+1.89797246558E+007, +4.74965016316E+001, +4.00409523915E+002
+1.91047559449E+007, +4.75566402847E+001, +4.03312669281E+002
+1.92297872340E+007, +4.79802429544E+001, +4.06389017781E+002
+1.93548185232E+007, +4.71628958659E+001, +4.10234004746E+002
+1.94798498123E+007, +4.84233758761E+001, +4.12820370030E+002
+1.96048811014E+007, +4.79936701315E+001, +4.15797819058E+002
+1.97299123905E+007, +4.90625058601E+001, +4.19131442042E+002
+1.98549436796E+007, +4.75765217734E+001, +4.23098220924E+002
+1.99799749687E+007, +4.91666794628E+001, +4.25696450023E+002
+2.01050062578E+007, +4.82177400744E+001, +4.29138929841E+002
+2.02300375469E+007, +4.90387674330E+001, +4.32949523471E+002
+2.03550688360E+007, +4.89489127357E+001, +4.36069028018E+002
+2.04801001252E+007, +4.87314769445E+001, +4.38889147488E+002
+2.06051314143E+007, +4.89095060881E+001, +4.41859342079E+002
+2.07301627034E+007, +4.89455818524E+001, +4.45984737914E+002
+2.08551939925E+007, +4.98534536245E+001, +4.47814361166E+002
+2.09802252816E+007, +5.00970190708E+001, +4.52420823169E+002
+2.11052565707E+007, +4.98346421131E+001, +4.55643427328E+002
+2.12302878598E+007, +4.99829135662E+001, +4.59074669039E+002
+2.13553191489E+007, +5.04577118637E+001, +4.62783782349E+002
+2.14803504380E+007, +5.06589970887E+001, +4.66695893643E+002
+2.16053817272E+007, +4.99266279064E+001, +4.69377769440E+002
+2.17304130163E+007, +5.13268688361E+001, +4.72592644364E+002
+2.18554443054E+007, +5.07588444138E+001, +4.76509316182E+002
+2.19804755945E+007, +5.15073842912E+001, +4.79734352392E+002
+2.21055068836E+007, +5.11156587094E+001, +4.84410072139E+002
+2.22305381727E+007, +5.18946865295E+001, +4.87710116638E+002
+2.23555694618E+007, +5.10297283124E+001, +4.91694185184E+002
+2.24806007509E+007, +5.21682416865E+001, +4.93791236314E+002
+2.26056320401E+007, +5.26692773464E+001, +4.98223623631E+002
+2.27306633292E+007, +5.18177315383E+001, +5.01526641033E+002
+2.28556946183E+007, +5.18635392496E+001, +5.04996902315E+002
+2.29807259074E+007, +5.35113642003E+001, +5.09006049374E+002
+2.31057571965E+007, +5.25550448862E+001, +5.12265225947E+002
+2.32307884856E+007, +5.25957178510E+001, +5.16383234305E+002
+2.33558197747E+007, +5.30714600849E+001, +5.18688531237E+002
+2.34808510638E+007, +5.25362885462E+001, +5.23331428478E+002
+2.36058823529E+007, +5.38120359403E+001, +5.27979040761E+002
+2.37309136421E+007, +5.34452879897E+001, +5.31065884892E+002
+2.38559449312E+007, +5.53775758174E+001, +5.34236984295E+002
+2.39809762203E+007, +5.51310620386E+001, +5.37560027361E+002
+2.41060075094E+007, +5.51854647675E+001, +5.43356539722E+002
+2.42310387985E+007, +5.65556920114E+001, +5.46540070482E+002
+2.43560700876E+007, +5.55711707172E+001, +5.49885137344E+002
+2.44811013767E+007, +5.65979023718E+001, +5.53784520798E+002
+2.46061326658E+007, +5.67537727423E+001, +5.57571577053E+002
+2.47311639549E+007, +5.69226056343E+001, +5.60451420010E+002
+2.48561952441E+007, +5.72605957980E+001, +5.64559663371E+002
+2.49812265332E+007, +5.70635036376E+001, +5.67212641075E+002
+2.51062578223E+007, +5.84804444389E+001, +5.71323084772E+002
+2.52312891114E+007, +5.90685902718E+001, +5.74921760525E+002
+2.53563204005E+007, +5.95221950357E+001, +5.79307528194E+002
+2.54813516896E+007, +5.96729106243E+001, +5.83545052328E+002
+2.56063829787E+007, +5.88880132970E+001, +5.86430666800E+002
+2.57314142678E+007, +5.79933411679E+001, +5.91336084270E+002
+2.58564455569E+007, +6.15887122365E+001, +5.93708302746E+002
+2.59814768461E+007, +6.01911656455E+001, +5.99301506894E+002
+2.61065081352E+007, +5.90051072403E+001, +6.02820723004E+002
+2.62315394243E+007, +6.02564407374E+001, +6.06440738795E+002
+2.63565707134E+007, +5.96571481621E+001, +6.10793473137E+002
+2.64816020025E+007, +6.04598286951E+001, +6.14505514015E+002
+2.66066332916E+007, +6.08385736630E+001, +6.19426062817E+002
+2.67316645807E+007, +6.10508814397E+001, +6.23645838812E+002
+2.68566958698E+007, +6.18681382074E+001, +6.27315244818E+002
+2.69817271589E+007, +6.04711121330E+001, +6.31279104241E+002
+2.71067584481E+007, +6.15368554003E+001, +6.34768989540E+002
+2.72317897372E+007, +6.15605029508E+001, +6.41224982565E+002
+2.73568210263E+007, +6.16445897156E+001, +6.45809846835E+002
+2.74818523154E+007, +6.35029110257E+001, +6.48983721050E+002
+2.76068836045E+007, +6.31042600244E+001, +6.52926571134E+002
+2.77319148936E+007, +6.43830891754E+001, +6.58098251198E+002
+2.78569461827E+007, +6.41089970912E+001, +6.60192446198E+002
+2.79819774718E+007, +6.59916451717E+001, +6.64286445532E+002
+2.81070087610E+007, +6.49849419346E+001, +6.70143379769E+002
+2.82320400501E+007, +6.55004488345E+001, +6.73430135727E+002
+2.83570713392E+007, +6.41665533923E+001, +6.77846048113E+002
+2.84821026283E+007, +6.47388846660E+001, +6.83853819519E+002
+2.86071339174E+007, +6.48839644439E+001, +6.86732049032E+002
+2.87321652065E+007, +6.46396318982E+001, +6.92929921170E+002
+2.88571964956E+007, +6.69372174046E+001, +6.95739820245E+002
+2.89822277847E+007, +6.68076786971E+001, +7.02072045019E+002
+2.91072590738E+007, +6.69384332266E+001, +7.07981010653E+002
+2.92322903630E+007, +6.70015706528E+001, +7.13167964953E+002
+2.93573216521E+007, +6.88626634440E+001, +7.16781906289E+002
+2.94823529412E+007, +6.95864657787E+001, +7.21305686282E+002
+2.96073842303E+007, +6.83762813559E+001, +7.27198437289E+002
+2.97324155194E+007, +6.82186804530E+001, +7.31924997112E+002
+2.98574468085E+007, +6.80559742950E+001, +7.37237606170E+002
+2.99824780976E+007, +7.12403032233E+001, +7.39877474660E+002
+3.01075093867E+007, +6.86111507224E+001, +7.46327015113E+002
+3.02325406758E+007, +6.90867345137E+001, +7.52587362628E+002
+3.03575719650E+007, +7.00602737070E+001, +7.53884619180E+002
+3.04826032541E+007, +7.46625654010E+001, +7.63659650836E+002
+3.06076345432E+007, +6.92291613757E+001, +7.66022397553E+002
+3.07326658323E+007, +7.21367090812E+001, +7.69104034029E+002
+3.08576971214E+007, +7.16029306234E+001, +7.75589026343E+002
+3.09827284105E+007, +7.26689390517E+001, +7.82907025156E+002
+3.11077596996E+007, +7.25202593550E+001, +7.86800254770E+002
+3.12327909887E+007, +7.54156572307E+001, +7.91417889327E+002
+3.13578222778E+007, +7.49405029405E+001, +7.97869056414E+002
+3.14828535670E+007, +7.47528884624E+001, +8.02141329978E+002
+3.16078848561E+007, +7.50775229298E+001, +8.10236959557E+002
+3.17329161452E+007, +7.65576019540E+001, +8.12433618523E+002
+3.18579474343E+007, +7.74553944132E+001, +8.19854017432E+002
+3.19829787234E+007, +8.17004789065E+001, +8.24636202699E+002
+3.21080100125E+007, +8.07327181952E+001, +8.29441866000E+002
+3.22330413016E+007, +7.86552180965E+001, +8.35850726138E+002
+3.23580725907E+007, +7.90055693052E+001, +8.42637721678E+002
+3.24831038798E+007, +8.02776380239E+001, +8.50900989173E+002
+3.26081351690E+007, +8.23343430768E+001, +8.57021979216E+002
+3.27331664581E+007, +8.40416228032E+001, +8.61902744548E+002
+3.28581977472E+007, +8.39123139330E+001, +8.64023681939E+002
+3.29832290363E+007, +8.56730726707E+001, +8.71101713001E+002
+3.31082603254E+007, +8.29125095693E+001, +8.77065031163E+002
+3.32332916145E+007, +8.75591256702E+001, +8.83819197700E+002
+3.33583229036E+007, +8.54695300260E+001, +8.88332135559E+002
+3.34833541927E+007, +8.69684715323E+001, +8.94051748034E+002
+3.36083854819E+007, +9.03174390545E+001, +8.98806294416E+002
+3.37334167710E+007, +8.87604035789E+001, +9.09191236660E+002
+3.38584480601E+007, +9.17579961297E+001, +9.17866475817E+002
+3.39834793492E+007, +8.65845957177E+001, +9.20841508443E+002
+3.41085106383E+007, +9.08446237209E+001, +9.28553701622E+002
+3.42335419274E+007, +9.46468327743E+001, +9.36924873142E+002
+3.43585732165E+007, +9.57683252205E+001, +9.39418423043E+002
+3.44836045056E+007, +9.24013976965E+001, +9.49108913511E+002
+3.46086357947E+007, +9.50253388121E+001, +9.56017795081E+002
+3.47336670839E+007, +9.64503542309E+001, +9.61842478260E+002
+3.48586983730E+007, +9.74351228616E+001, +9.66458190846E+002
+3.49837296621E+007, +9.94453012950E+001, +9.73321860652E+002
+3.51087609512E+007, +1.01910433934E+002, +9.76991622364E+002
+3.52337922403E+007, +1.02610209587E+002, +9.85792750334E+002
+3.53588235294E+007, +1.00537818582E+002, +9.96813675339E+002
+3.54838548185E+007, +1.02001707404E+002, +9.99420671728E+002
+3.56088861076E+007, +1.02274855794E+002, +1.00772608684E+003
+3.57339173967E+007, +1.05495333141E+002, +1.01444953532E+003
+3.58589486859E+007, +1.07179914580E+002, +1.02051459388E+003
+3.59839799750E+007, +1.06867077780E+002, +1.02902326212E+003
+3.61090112641E+007, +1.09342432420E+002, +1.03791693000E+003
+3.62340425532E+007, +1.10338211908E+002, +1.04484611809E+003
+3.63590738423E+007, +1.10360808770E+002, +1.05048405262E+003
+3.64841051314E+007, +1.13795268899E+002, +1.05840616404E+003
+3.66091364205E+007, +1.14775737592E+002, +1.06795563192E+003
+3.67341677096E+007, +1.13164226381E+002, +1.07491139144E+003
+3.68591989987E+007, +1.15909192283E+002, +1.08531948293E+003
+3.69842302879E+007, +1.15235516736E+002, +1.09517260846E+003
+3.71092615770E+007, +1.19339795837E+002, +1.09934087863E+003
+3.72342928661E+007, +1.21708989127E+002, +1.10856620589E+003
+3.73593241552E+007, +1.19717498389E+002, +1.12095320665E+003
+3.74843554443E+007, +1.22083781963E+002, +1.12587688597E+003
+3.76093867334E+007, +1.23395728245E+002, +1.13137388861E+003
+3.77344180225E+007, +1.26152696421E+002, +1.14257804555E+003
+3.78594493116E+007, +1.26367866643E+002, +1.14911828782E+003
+3.79844806008E+007, +1.27047578395E+002, +1.15967550476E+003
+3.81095118899E+007, +1.29911730636E+002, +1.16991512492E+003
+3.82345431790E+007, +1.28861205358E+002, +1.17676331454E+003
+3.83595744681E+007, +1.38172800469E+002, +1.18373037014E+003
+3.84846057572E+007, +1.37670305560E+002, +1.20170675419E+003
+3.86096370463E+007, +1.39229118373E+002, +1.20650495513E+003
+3.87346683354E+007, +1.32779405810E+002, +1.22080236067E+003
+3.88596996245E+007, +1.41628327695E+002, +1.22350110762E+003
+3.89847309136E+007, +1.43528367347E+002, +1.23331434782E+003
+3.91097622028E+007, +1.47558987434E+002, +1.23750990918E+003
+3.92347934919E+007, +1.47348686274E+002, +1.25803311000E+003
+3.93598247810E+007, +1.47508302565E+002, +1.26128321781E+003
+3.94848560701E+007, +1.49911946501E+002, +1.27588919627E+003
+3.96098873592E+007, +1.52361047489E+002, +1.28038356810E+003
+3.97349186483E+007, +1.58154571629E+002, +1.29373781360E+003
+3.98599499374E+007, +1.58213076213E+002, +1.31071880575E+003
+3.99849812265E+007, +1.63818351263E+002, +1.31932829917E+003
+4.01100125156E+007, +1.66997705662E+002, +1.32048095564E+003
