"# Channel 1"
"# Trace 1"
Frequency, Formatted Data, Formatted Data
+1.00000000000E+005, +4.96798470364E-001, +1.91130075611E+000
+2.25031289111E+005, +4.79928797902E-001, +4.22133405622E+000
+3.50062578223E+005, +5.21046904208E-001, +6.51840271716E+000
+4.75093867334E+005, +5.52284155491E-001, +8.84793074011E+000
+6.00125156446E+005, +6.27670656234E-001, +1.10925302950E+001
+7.25156445557E+005, +6.51996802615E-001, +1.34286746783E+001
+8.50187734668E+005, +6.39993414364E-001, +1.56160665215E+001
+9.75219023780E+005, +6.36371996892E-001, +1.79280383020E+001
+1.10025031289E+006, +7.40650033303E-001, +2.02078660000E+001
+1.22528160200E+006, +7.18756925998E-001, +2.24395826482E+001
+1.35031289111E+006, +7.25332945429E-001, +2.46852966574E+001
+1.47534418023E+006, +7.84085918065E-001, +2.69931279645E+001
+1.60037546934E+006, +7.99999377789E-001, +2.92515427580E+001
+1.72540675845E+006, +8.00358166012E-001, +3.14652461823E+001
+1.85043804756E+006, +8.30218768321E-001, +3.37384914368E+001
+1.97546933667E+006, +8.86446411032E-001, +3.59872996275E+001
+2.10050062578E+006, +8.58455324715E-001, +3.82659638359E+001
+2.22553191489E+006, +8.26741678012E-001, +4.05447637439E+001
+2.35056320401E+006, +8.67324394618E-001, +4.27402914257E+001
+2.47559449312E+006, +8.70981947947E-001, +4.50505657493E+001
+2.60062578223E+006, +8.87396367386E-001, +4.73797893827E+001
+2.72565707134E+006, +8.48127237850E-001, +4.96134746946E+001
+2.85068836045E+006, +9.46165500654E-001, +5.19340512819E+001
+2.97571964956E+006, +8.64125730124E-001, +5.41413916087E+001
+3.10075093867E+006, +9.01017206907E-001, +5.64589848531E+001
+3.22578222778E+006, +8.79632519750E-001, +5.86197394858E+001
+3.35081351690E+006, +8.10817920497E-001, +6.10411095432E+001
+3.47584480601E+006, +9.72076131408E-001, +6.33035021147E+001
+3.60087609512E+006, +9.09435062577E-001, +6.56145918062E+001
+3.72590738423E+006, +1.07003582786E+000, +6.78410965065E+001
+3.85093867334E+006, +1.03854782287E+000, +7.00195608111E+001
+3.97596996245E+006, +9.34235470619E-001, +7.25385251672E+001
+4.10100125156E+006, +1.03384490763E+000, +7.47549723626E+001
+4.22603254068E+006, +9.33141865871E-001, +7.69602325674E+001
+4.35106382979E+006, +9.60343345356E-001, +7.92071282009E+001
+4.47609511890E+006, +1.01444515117E+000, +8.15583916952E+001
+4.60112640801E+006, +9.75280045963E-001, +8.37111043023E+001
+4.72615769712E+006, +9.09404868345E-001, +8.61582689347E+001
+4.85118898623E+006, +9.95175499267E-001, +8.83164948842E+001
+4.97622027534E+006, +1.12602721027E+000, +9.06856161010E+001
+5.10125156446E+006, +9.75624140593E-001, +9.29504814051E+001
+5.22628285357E+006, +9.79136397284E-001, +9.52158897194E+001
+5.35131414268E+006, +8.90516731165E-001, +9.75141078890E+001
+5.47634543179E+006, +9.80922454828E-001, +9.99267222164E+001
+5.60137672090E+006, +1.03516542242E+000, +1.02156942761E+002
+5.72640801001E+006, +1.03545162769E+000, +1.04691143611E+002
+5.85143929912E+006, +1.15871539368E+000, +1.06878549146E+002
+5.97647058824E+006, +1.17425973520E+000, +1.09355972386E+002
+6.10150187735E+006, +9.94115048400E-001, +1.11541955172E+002
+6.22653316646E+006, +1.10716116967E+000, +1.14037000684E+002
+6.35156445557E+006, +1.07185654550E+000, +1.16267692350E+002
+6.47659574468E+006, +1.08550458587E+000, +1.18545661845E+002
+6.60162703379E+006, +1.15016499779E+000, +1.20887493528E+002
+6.72665832290E+006, +1.21316003397E+000, +1.23320378348E+002
+6.85168961202E+006, +1.26342281692E+000, +1.25571488561E+002
+6.97672090113E+006, +1.25841088539E+000, +1.27967733296E+002
+7.10175219024E+006, +1.13518685647E+000, +1.30317355485E+002
+7.22678347935E+006, +1.29251205121E+000, +1.32783694157E+002
+7.35181476846E+006, +1.21427563295E+000, +1.35022652536E+002
+7.47684605757E+006, +1.20819251205E+000, +1.37586609332E+002
+7.60187734668E+006, +1.28975207273E+000, +1.39718668689E+002
+7.72690863579E+006, +1.13802262630E+000, +1.42129904938E+002
+7.85193992491E+006, +1.25696741929E+000, +1.44492177589E+002
+7.97697121402E+006, +1.45189147572E+000, +1.46820314434E+002
+8.10200250313E+006, +1.22757803404E+000, +1.49168030758E+002
+8.22703379224E+006, +1.25038721491E+000, +1.51514759448E+002
+8.35206508135E+006, +1.38120550975E+000, +1.54035349220E+002
+8.47709637046E+006, +1.39012238530E+000, +1.56302710223E+002
+8.60212765957E+006, +1.30052824504E+000, +1.58824717514E+002
+8.72715894869E+006, +1.44560688060E+000, +1.61220663491E+002
+8.85219023780E+006, +1.16202028262E+000, +1.63466226256E+002
+8.97722152691E+006, +1.46244016893E+000, +1.65836567149E+002
+9.10225281602E+006, +1.27938489191E+000, +1.68362732574E+002
+9.22728410513E+006, +1.23705062653E+000, +1.70712497961E+002
+9.35231539424E+006, +1.50196601298E+000, +1.73324249193E+002
+9.47734668335E+006, +1.40880868279E+000, +1.75438557866E+002
+9.60237797247E+006, +1.19966241487E+000, +1.78001841044E+002
+9.72740926158E+006, +1.04047112567E+000, +1.80465419917E+002
+9.85244055069E+006, +1.25666901679E+000, +1.82689152274E+002
+9.97747183980E+006, +1.30421130230E+000, +1.85297796611E+002
+1.01025031289E+007, +1.29268796888E+000, +1.87673010482E+002
+1.02275344180E+007, +1.25118130540E+000, +1.90142114947E+002
+1.03525657071E+007, +1.26206499039E+000, +1.92767104224E+002
+1.04775969962E+007, +1.26769579553E+000, +1.95003738695E+002
+1.06026282854E+007, +9.82286007750E-001, +1.97424221074E+002
+1.07276595745E+007, +9.87343454714E-001, +1.99887466033E+002
+1.08526908636E+007, +1.13283964480E+000, +2.02275861814E+002
+1.09777221527E+007, +1.11320534464E+000, +2.04851304108E+002
+1.11027534418E+007, +1.12071271004E+000, +2.07480708131E+002
+1.12277847309E+007, +1.17855703006E+000, +2.09637063330E+002
+1.13528160200E+007, +9.70271269610E-001, +2.12214358476E+002
+1.14778473091E+007, +1.18462765666E+000, +2.14393148497E+002
+1.16028785982E+007, +9.20461601668E-001, +2.17323206201E+002
+1.17279098874E+007, +1.32677374595E+000, +2.19952904004E+002
+1.18529411765E+007, +1.14707250701E+000, +2.22473417444E+002
+1.19779724656E+007, +1.48794206423E+000, +2.24846556044E+002
+1.21030037547E+007, +1.26899134794E+000, +2.27257865357E+002
+1.22280350438E+007, +9.84269824778E-001, +2.29753818465E+002
+1.23530663329E+007, +1.19069757931E+000, +2.32311720084E+002
+1.24780976220E+007, +1.17890061341E+000, +2.35159243213E+002
+1.26031289111E+007, +1.07936631632E+000, +2.37402535910E+002
+1.27281602003E+007, +1.16030304475E+000, +2.39909294406E+002
+1.28531914894E+007, +1.28019472689E+000, +2.42485647856E+002
+1.29782227785E+007, +1.21071209015E+000, +2.45050077017E+002
+1.31032540676E+007, +1.19900371569E+000, +2.47831353564E+002
+1.32282853567E+007, +1.01496536402E+000, +2.50252213597E+002
+1.33533166458E+007, +1.25333525567E+000, +2.52811518962E+002
+1.34783479349E+007, +1.01561883054E+000, +2.55378351408E+002
+1.36033792240E+007, +1.18440923007E+000, +2.57837643695E+002
+1.37284105131E+007, +1.26395960158E+000, +2.60658051619E+002
+1.38534418023E+007, +1.06602003846E+000, +2.63197517667E+002
+1.39784730914E+007, +1.20271367722E+000, +2.66047740404E+002
+1.41035043805E+007, +8.62523543805E-001, +2.68331425053E+002
+1.42285356696E+007, +9.37360117829E-001, +2.71172649385E+002
+1.43535669587E+007, +7.24975498859E-001, +2.73463745087E+002
+1.44785982478E+007, +1.26711928461E+000, +2.76102212163E+002
+1.46036295369E+007, +1.03626576265E+000, +2.79216382584E+002
+1.47286608260E+007, +1.34904938745E+000, +2.81658430277E+002
+1.48536921151E+007, +1.59149972410E+000, +2.84359046301E+002
+1.49787234043E+007, +6.69757692211E-001, +2.87357613600E+002
+1.51037546934E+007, +1.37782721429E+000, +2.89546943348E+002
+1.52287859825E+007, +7.69721956764E-001, +2.92354068284E+002
+1.53538172716E+007, +8.86880845616E-001, +2.95159979106E+002
+1.54788485607E+007, +1.12157809945E+000, +2.97644521646E+002
+1.56038798498E+007, +4.94953210133E-001, +3.00440772176E+002
+1.57289111389E+007, +1.17180107745E+000, +3.03264435675E+002
+1.58539424280E+007, +5.87940119967E-001, +3.05824563287E+002
+1.59789737171E+007, +9.12800834857E-001, +3.08742568042E+002
+1.61040050063E+007, +1.08516578619E+000, +3.11614663231E+002
+1.62290362954E+007, +9.65276799861E-001, +3.14110697194E+002
+1.63540675845E+007, +9.07994672410E-001, +3.16047226289E+002
+1.64790988736E+007, +4.25225267751E-001, +3.19222443871E+002
+1.66041301627E+007, +1.45709030910E+000, +3.22622944017E+002
+1.67291614518E+007, +7.33880275910E-001, +3.25404663561E+002
+1.68541927409E+007, +7.83805138501E-001, +3.28148474541E+002
+1.69792240300E+007, +4.23975892873E-001, +3.30682293609E+002
+1.71042553191E+007, +3.56648198913E-001, +3.33217503302E+002
+1.72292866083E+007, +4.53646254558E-001, +3.36288215461E+002
+1.73543178974E+007, +4.26841922512E-002, +3.39375959713E+002
+1.74793491865E+007, +3.58310475199E-001, +3.42353034017E+002
+1.76043804756E+007, +6.93384830050E-001, +3.45865777674E+002
+1.77294117647E+007, +3.24527825349E-001, +3.48425146739E+002
+1.78544430538E+007, +7.36741862524E-001, +3.50416153049E+002
+1.79794743429E+007, +4.15521362293E-001, +3.53071630280E+002
+1.81045056320E+007, +1.10559970519E+000, +3.56848207301E+002
+1.82295369212E+007, +6.54981422461E-001, +3.59317739331E+002
+1.83545682103E+007, +1.19499620446E+000, +3.62372406835E+002
+1.84795994994E+007, +1.41264533594E+000, +3.65355860898E+002
+1.86046307885E+007, +9.20990845049E-001, +3.69202952811E+002
+1.87296620776E+007, +6.63374286789E-001, +3.71689799957E+002
+1.88546933667E+007, +2.53580413750E-001, +3.75123468959E+002
+1.89797246558E+007, +7.20616043595E-001, +3.77415748070E+002
+1.91047559449E+007, +6.13447015204E-001, +3.80584832710E+002
+1.92297872340E+007, +1.13023034322E-001, +3.82769056710E+002
+1.93548185232E+007, +3.15498912301E-001, +3.87138149936E+002
+1.94798498123E+007, +8.55843969219E-001, +3.89610391661E+002
+1.96048811014E+007, +8.55910843393E-001, +3.92298932220E+002
+1.97299123905E+007, +3.43294670076E-001, +3.95575533814E+002
+1.98549436796E+007, +1.44538018539E+000, +3.98133076517E+002
+1.99799749687E+007, +1.44929888738E+000, +4.01548525562E+002
+2.01050062578E+007, +1.42754819509E+000, +4.05304433721E+002
+2.02300375469E+007, +1.08462636675E-001, +4.08583221237E+002
+2.03550688360E+007, +1.61222533517E+000, +4.11031412439E+002
+2.04801001252E+007, +1.00923266238E+000, +4.13784737655E+002
+2.06051314143E+007, +1.43083374002E+000, +4.17799293017E+002
+2.07301627034E+007, +9.83579557320E-001, +4.20101782654E+002
+2.08551939925E+007, +1.68467459866E+000, +4.23221708394E+002
+2.09802252816E+007, +6.45714033177E-001, +4.28365528822E+002
+2.11052565707E+007, -9.89113382317E-003, +4.30658402929E+002
+2.12302878598E+007, +5.67005176969E-001, +4.33970950039E+002
+2.13553191489E+007, -5.02506396319E-003, +4.36569294720E+002
+2.14803504380E+007, +1.57963831336E+000, +4.41008971550E+002
+2.16053817272E+007, -4.27160480374E-001, +4.43107494479E+002
+2.17304130163E+007, +2.68117636950E+000, +4.46455424876E+002
+2.18554443054E+007, +6.33131289635E-001, +4.48451623233E+002
+2.19804755945E+007, +2.56025241566E-001, +4.53188109520E+002
+2.21055068836E+007, +1.57499693570E+000, +4.57255465832E+002
+2.22305381727E+007, +3.70770453552E-001, +4.59762544645E+002
+2.23555694618E+007, +1.04987823103E+000, +4.63492635789E+002
+2.24806007509E+007, +8.01228712108E-001, +4.66137368752E+002
+2.26056320401E+007, +1.31775961574E+000, +4.68515710038E+002
+2.27306633292E+007, +1.97361471409E+000, +4.73227180813E+002
+2.28556946183E+007, +2.51838566674E+000, +4.77324870482E+002
+2.29807259074E+007, +2.58053375082E+000, +4.80428384349E+002
+2.31057571965E+007, +9.62784692678E-001, +4.83237218473E+002
+2.32307884856E+007, +1.29749887397E+000, +4.86208061264E+002
+2.33558197747E+007, +2.17413035085E+000, +4.89791966816E+002
+2.34808510638E+007, +2.90952967163E+000, +4.95092286548E+002
+2.36058823529E+007, +2.21378638681E+000, +4.96344571678E+002
+2.37309136421E+007, +2.32916071511E+000, +4.99720794363E+002
+2.38559449312E+007, +2.70673862364E+000, +5.03748254396E+002
+2.39809762203E+007, +2.88447838064E+000, +5.07050019076E+002
+2.41060075094E+007, +2.41488600358E+000, +5.08565578351E+002
+2.42310387985E+007, +2.47060563017E+000, +5.13097293598E+002
+2.43560700876E+007, +2.97858640100E+000, +5.17099894019E+002
+2.44811013767E+007, +2.28850169005E+000, +5.19693435992E+002
+2.46061326658E+007, +2.91130501469E+000, +5.24826833148E+002
+2.47311639549E+007, +2.58388176109E+000, +5.27947206894E+002
+2.48561952441E+007, +3.88762444715E+000, +5.30263620738E+002
+2.49812265332E+007, +1.33813108209E+000, +5.35255474590E+002
+2.51062578223E+007, +4.13758590154E+000, +5.39844924260E+002
+2.52312891114E+007, +2.47362065869E+000, +5.43448809191E+002
+2.53563204005E+007, +3.67324343009E+000, +5.47715402243E+002
+2.54813516896E+007, +8.35652656833E-001, +5.49258438057E+002
+2.56063829787E+007, +2.14413191834E+000, +5.54164262864E+002
+2.57314142678E+007, +2.48913271949E+000, +5.58052272787E+002
+2.58564455569E+007, +1.54233792464E+000, +5.60611990865E+002
+2.59814768461E+007, +3.35103142193E+000, +5.64760928378E+002
+2.61065081352E+007, +2.18108375993E+000, +5.68755593426E+002
+2.62315394243E+007, +2.65454297841E+000, +5.71138969199E+002
+2.63565707134E+007, +2.44003147489E+000, +5.75317236366E+002
+2.64816020025E+007, +2.51914154842E+000, +5.79453846939E+002
+2.66066332916E+007, +3.35321265634E+000, +5.84493276755E+002
+2.67316645807E+007, +3.01995370837E+000, +5.89579960866E+002
+2.68566958698E+007, +1.59221048343E+000, +5.92650711510E+002
+2.69817271589E+007, +2.90788380761E+000, +5.96583819058E+002
+2.71067584481E+007, +3.17523760861E+000, +6.00314646357E+002
+2.72317897372E+007, +1.83311797476E+000, +6.03740976314E+002
+2.73568210263E+007, +2.65579744082E+000, +6.07601793225E+002
+2.74818523154E+007, +2.66097464876E+000, +6.12500795716E+002
+2.76068836045E+007, +3.26118954856E+000, +6.17367545981E+002
+2.77319148936E+007, +2.37539324261E+000, +6.18894976046E+002
+2.78569461827E+007, +3.35699401884E+000, +6.24024496196E+002
+2.79819774718E+007, +1.90774142198E+000, +6.27654946272E+002
+2.81070087610E+007, +3.90240294366E+000, +6.30770653490E+002
+2.82320400501E+007, +5.57372947658E-001, +6.36357472693E+002
+2.83570713392E+007, +2.38657497765E+000, +6.41027986665E+002
+2.84821026283E+007, +2.18652563695E+000, +6.45544237284E+002
+2.86071339174E+007, -3.29263653741E-001, +6.48189142909E+002
+2.87321652065E+007, +1.39999078756E+000, +6.54518447919E+002
+2.88571964956E+007, +1.85662325054E+000, +6.60197399532E+002
+2.89822277847E+007, +1.88453989393E+000, +6.63856099083E+002
+2.91072590738E+007, +1.15266475136E+000, +6.68690525905E+002
+2.92322903630E+007, +1.24218879453E+000, +6.74061209439E+002
+2.93573216521E+007, +1.08493844898E+000, +6.78748030177E+002
+2.94823529412E+007, +4.22747758819E-001, +6.81826689900E+002
+2.96073842303E+007, +2.09728627389E+000, +6.88787737896E+002
+2.97324155194E+007, +9.41792210625E-001, +6.90801030313E+002
+2.98574468085E+007, -3.53339600384E-001, +6.96486203942E+002
+2.99824780976E+007, +1.04429607239E+000, +7.01795432493E+002
+3.01075093867E+007, +9.57641260354E-002, +7.04245774420E+002
+3.02325406758E+007, -4.59798150695E-002, +7.10761122999E+002
+3.03575719650E+007, -1.48094943132E+000, +7.12336321580E+002
+3.04826032541E+007, -1.12939000679E+000, +7.18831199228E+002
+3.06076345432E+007, +9.27277386252E-001, +7.23111247468E+002
+3.07326658323E+007, -3.69283712388E-001, +7.30248723441E+002
+3.08576971214E+007, +8.31006609375E-001, +7.33740570951E+002
+3.09827284105E+007, -1.38523897031E-001, +7.37059828437E+002
+3.11077596996E+007, -1.59950022139E+000, +7.45091838999E+002
+3.12327909887E+007, +2.02753179103E+000, +7.50710098939E+002
+3.13578222778E+007, +1.92720427576E+000, +7.55604276530E+002
+3.14828535670E+007, +1.78963659853E+000, +7.57878221984E+002
+3.16078848561E+007, +1.43664235756E+000, +7.61414212182E+002
+3.17329161452E+007, +4.10017134452E+000, +7.74835630423E+002
+3.18579474343E+007, -1.54176957796E-001, +7.74899230075E+002
+3.19829787234E+007, +3.71237207790E-001, +7.81796471132E+002
+3.21080100125E+007, +5.41304317150E-001, +7.86992428373E+002
+3.22330413016E+007, +5.82048769835E-001, +7.90631061994E+002
+3.23580725907E+007, -1.05215791260E+000, +7.95066708147E+002
+3.24831038798E+007, +1.72688476969E+000, +7.99593516836E+002
+3.26081351690E+007, +9.94917827785E-001, +8.07739540796E+002
+3.27331664581E+007, +6.93751113480E-001, +8.14191758799E+002
+3.28581977472E+007, -4.13716631251E-001, +8.21581518552E+002
+3.29832290363E+007, +9.85298846082E-001, +8.27155435259E+002
+3.31082603254E+007, +2.79416618998E+000, +8.31071010948E+002
+3.32332916145E+007, -4.87788540747E-001, +8.38819349169E+002
+3.33583229036E+007, +3.60177555484E+000, +8.42608560386E+002
+3.34833541927E+007, +2.27237871896E+000, +8.48122304881E+002
+3.36083854819E+007, -1.39959898233E+000, +8.51902468496E+002
+3.37334167710E+007, -1.06804770498E+000, +8.55776421620E+002
+3.38584480601E+007, -2.79518373919E+000, +8.67547041144E+002
+3.39834793492E+007, +2.61557628465E+000, +8.70942956480E+002
+3.41085106383E+007, -8.85090288285E-001, +8.76026311269E+002
+3.42335419274E+007, +8.46633413210E-001, +8.82828287903E+002
+3.43585732165E+007, +1.24502817622E+000, +8.92598256729E+002
+3.44836045056E+007, -1.92315896524E-001, +8.95450993087E+002
+3.46086357947E+007, -2.78198945678E-003, +9.01378895719E+002
+3.47336670839E+007, +2.21742465315E+000, +9.10039747640E+002
+3.48586983730E+007, -3.56626475494E+000, +9.16347422262E+002
+3.49837296621E+007, -1.14516356103E+000, +9.17938016345E+002
+3.51087609512E+007, -5.89718524176E-001, +9.30990447716E+002
+3.52337922403E+007, -2.03863104450E+000, +9.33606259302E+002
+3.53588235294E+007, -5.77815378005E-001, +9.40062267728E+002
+3.54838548185E+007, +2.48273202214E+000, +9.46934863151E+002
+3.56088861076E+007, +6.34655756860E-001, +9.56597921784E+002
+3.57339173967E+007, +7.53948809107E-001, +9.63968289051E+002
+3.58589486859E+007, +1.30755990784E+000, +9.65162248285E+002
+3.59839799750E+007, -3.06558532332E+000, +9.76860144731E+002
+3.61090112641E+007, +5.68421722394E+000, +9.82482777609E+002
+3.62340425532E+007, -2.95391024336E+000, +9.90770626973E+002
+3.63590738423E+007, +2.95441662109E+000, +9.97514126418E+002
+3.64841051314E+007, -1.50944133184E+000, +1.01099182911E+003
+3.66091364205E+007, +1.19908275258E+000, +1.00969614182E+003
+3.67341677096E+007, -9.33044638505E-001, +1.01913758108E+003
+3.68591989987E+007, +2.74804031294E+000, +1.02849321363E+003
+3.69842302879E+007, -1.73478946749E+000, +1.02950053790E+003
+3.71092615770E+007, -1.83576076490E-001, +1.04058846810E+003
+3.72342928661E+007, -1.85827057698E+000, +1.05495287014E+003
+3.73593241552E+007, -1.05287484029E+000, +1.05764157066E+003
+3.74843554443E+007, +1.70660524316E+000, +1.06698993002E+003
+3.76093867334E+007, +2.40603196268E-001, +1.07437408387E+003
+3.77344180225E+007, +1.26420703536E+000, +1.08430835055E+003
+3.78594493116E+007, +8.71697470821E-001, +1.09314598730E+003
+3.79844806008E+007, -5.49528933166E+000, +1.09419703926E+003
+3.81095118899E+007, -6.62072243840E+000, +1.10826653988E+003
+3.82345431790E+007, -4.40779014346E+000, +1.11629336240E+003
+3.83595744681E+007, +1.48817616095E+000, +1.12940731712E+003
+3.84846057572E+007, -1.06398231181E+000, +1.13144968240E+003
+3.86096370463E+007, -3.63619129821E+000, +1.14650310222E+003
+3.87346683354E+007, +3.79363765100E+000, +1.15225882275E+003
+3.88596996245E+007, +3.18855238356E+000, +1.16354566325E+003
+3.89847309136E+007, -6.42092586876E-001, +1.17871689150E+003
+3.91097622028E+007, -5.65071810330E-002, +1.17853468868E+003
+3.92347934919E+007, -2.65106564953E+000, +1.19403730851E+003
+3.93598247810E+007, +8.64023029216E-001, +1.19769803158E+003
+3.94848560701E+007, +8.55593722471E-002, +1.21382417098E+003
+3.96098873592E+007, +3.88308027288E+000, +1.22053771526E+003
+3.97349186483E+007, +4.90541967800E-001, +1.22036421926E+003
+3.98599499374E+007, +4.49781780989E-001, +1.24372083797E+003
+3.99849812265E+007, +1.59318623062E+000, +1.25093458657E+003
+4.01100125156E+007, +1.65484700855E+000, +1.25835482451E+003
