"# Channel 1"
"# Trace 1"
Frequency, Formatted Data, Formatted Data
+1.00000000000E+005, +6.43428760530E+000, +2.19848390742E+000
+2.25031289111E+005, +6.52915581373E+000, +4.76322689389E+000
+3.50062578223E+005, +6.62205696978E+000, +7.36177267432E+000
+4.75093867334E+005, +6.66228885540E+000, +9.87376985830E+000
+6.00125156446E+005, +6.75142467363E+000, +1.23919072871E+001
+7.25156445557E+005, +6.80134628666E+000, +1.49129235595E+001
+8.50187734668E+005, +6.90987683982E+000, +1.73939644841E+001
+9.75219023780E+005, +6.90235659106E+000, +1.98820012512E+001
+1.10025031289E+006, +6.99646528228E+000, +2.23659770396E+001
+1.22528160200E+006, +7.09898904154E+000, +2.48920429169E+001
+1.35031289111E+006, +7.11179260130E+000, +2.73431610276E+001
+1.47534418023E+006, +7.13036168070E+000, +2.98374665670E+001
+1.60037546934E+006, +7.19389252701E+000, +3.24056978395E+001
+1.72540675845E+006, +7.25730509282E+000, +3.47984466784E+001
+1.85043804756E+006, +7.25980087672E+000, +3.72350688744E+001
+1.97546933667E+006, +7.26572078971E+000, +3.96884998992E+001
+2.10050062578E+006, +7.35466879184E+000, +4.22689185105E+001
+2.22553191489E+006, +7.32792678452E+000, +4.47104891771E+001
+2.35056320401E+006, +7.33486769384E+000, +4.71932985140E+001
+2.47559449312E+006, +7.43712548030E+000, +4.97492577456E+001
+2.60062578223E+006, +7.44710380107E+000, +5.21271285549E+001
+2.72565707134E+006, +7.41098165312E+000, +5.46344905101E+001
+2.85068836045E+006, +7.52714996286E+000, +5.71454423612E+001
+2.97571964956E+006, +7.43876767915E+000, +5.95981220048E+001
+3.10075093867E+006, +7.48684228038E+000, +6.20997615582E+001
+3.22578222778E+006, +7.63657491533E+000, +6.45655763535E+001
+3.35081351690E+006, +7.50402181150E+000, +6.70901532500E+001
+3.47584480601E+006, +7.65078307822E+000, +6.96929428734E+001
+3.60087609512E+006, +7.67953034343E+000, +7.21494273190E+001
+3.72590738423E+006, +7.77933710824E+000, +7.45166430679E+001
+3.85093867334E+006, +7.65917442177E+000, +7.71771342447E+001
+3.97596996245E+006, +7.81600078913E+000, +7.95846438116E+001
+4.10100125156E+006, +7.75756736940E+000, +8.19545283720E+001
+4.22603254068E+006, +7.81779174527E+000, +8.47307889231E+001
+4.35106382979E+006, +7.93686261356E+000, +8.71417730514E+001
+4.47609511890E+006, +7.87749731279E+000, +8.95758151770E+001
+4.60112640801E+006, +7.83989341571E+000, +9.21697759354E+001
+4.72615769712E+006, +7.91131404564E+000, +9.47582354014E+001
+4.85118898623E+006, +8.17234611966E+000, +9.72585082773E+001
+4.97622027534E+006, +8.05372164718E+000, +9.96095261887E+001
+5.10125156446E+006, +8.08349399601E+000, +1.02095220084E+002
+5.22628285357E+006, +8.16530000370E+000, +1.04697074059E+002
+5.35131414268E+006, +8.24922227754E+000, +1.07283401068E+002
+5.47634543179E+006, +8.17423346460E+000, +1.09747837464E+002
+5.60137672090E+006, +8.21155166282E+000, +1.12558145882E+002
+5.72640801001E+006, +8.35449621147E+000, +1.15007849029E+002
+5.85143929912E+006, +8.35929335752E+000, +1.17541169416E+002
+5.97647058824E+006, +8.39590606816E+000, +1.20212715790E+002
+6.10150187735E+006, +8.38165097905E+000, +1.22514887213E+002
+6.22653316646E+006, +8.33702874446E+000, +1.25032814456E+002
+6.35156445557E+006, +8.56331397807E+000, +1.27694896371E+002
+6.47659574468E+006, +8.66549796981E+000, +1.30018236629E+002
+6.60162703379E+006, +8.76560952538E+000, +1.32632874397E+002
+6.72665832290E+006, +8.85577887320E+000, +1.35253751370E+002
+6.85168961202E+006, +8.90660142324E+000, +1.37795812502E+002
+6.97672090113E+006, +8.85680822925E+000, +1.40278230255E+002
+7.10175219024E+006, +8.90957689495E+000, +1.42872127598E+002
+7.22678347935E+006, +9.14033734101E+000, +1.45439331979E+002
+7.35181476846E+006, +9.17836990084E+000, +1.48007862181E+002
+7.47684605757E+006, +9.08798578955E+000, +1.50677632004E+002
+7.60187734668E+006, +9.17050156607E+000, +1.53280000768E+002
+7.72690863579E+006, +9.27280378529E+000, +1.55734135317E+002
+7.85193992491E+006, +9.13375305442E+000, +1.58342957397E+002
+7.97697121402E+006, +9.21801743396E+000, +1.60947902940E+002
+8.10200250313E+006, +9.36081354001E+000, +1.63588987761E+002
+8.22703379224E+006, +9.38879869936E+000, +1.66242496720E+002
+8.35206508135E+006, +9.34206962615E+000, +1.68828439547E+002
+8.47709637046E+006, +9.55995824177E+000, +1.71380669814E+002
+8.60212765957E+006, +9.40748054492E+000, +1.73915286811E+002
+8.72715894869E+006, +9.37346200565E+000, +1.76769191911E+002
+8.85219023780E+006, +9.57577939463E+000, +1.79197339587E+002
+8.97722152691E+006, +9.56560262025E+000, +1.81870051844E+002
+9.10225281602E+006, +9.29958019077E+000, +1.84517141640E+002
+9.22728410513E+006, +9.76678049687E+000, +1.87107027771E+002
+9.35231539424E+006, +9.79254260315E+000, +1.89896095946E+002
+9.47734668335E+006, +9.85705554086E+000, +1.92310558796E+002
+9.60237797247E+006, +9.72732307950E+000, +1.95026703972E+002
+9.72740926158E+006, +9.72409173142E+000, +1.97488674703E+002
+9.85244055069E+006, +9.90577361191E+000, +2.00447004141E+002
+9.97747183980E+006, +9.75287803273E+000, +2.02827591214E+002
+1.01025031289E+007, +9.81496441925E+000, +2.05520489929E+002
+1.02275344180E+007, +1.00081321067E+001, +2.08401147003E+002
+1.03525657071E+007, +9.90536918065E+000, +2.10844063696E+002
+1.04775969962E+007, +1.00740786806E+001, +2.13799107660E+002
+1.06026282854E+007, +9.70663993102E+000, +2.16238427796E+002
+1.07276595745E+007, +1.00059642450E+001, +2.18768956077E+002
+1.08526908636E+007, +1.02916566495E+001, +2.21546490772E+002
+1.09777221527E+007, +1.00164906252E+001, +2.24189040270E+002
+1.11027534418E+007, +1.02088448965E+001, +2.27272483747E+002
+1.12277847309E+007, +1.00025114371E+001, +2.29572723510E+002
+1.13528160200E+007, +1.04272437787E+001, +2.32391049884E+002
+1.14778473091E+007, +1.02235460618E+001, +2.35406481309E+002
+1.16028785982E+007, +1.01860493699E+001, +2.37895542682E+002
+1.17279098874E+007, +1.06872173929E+001, +2.40834599802E+002
+1.18529411765E+007, +1.01990455681E+001, +2.43759784080E+002
+1.19779724656E+007, +1.03799510699E+001, +2.46024303648E+002
+1.21030037547E+007, +1.03648507361E+001, +2.49112536484E+002
+1.22280350438E+007, +1.04598268946E+001, +2.51766615879E+002
+1.23530663329E+007, +1.06695300811E+001, +2.54345559369E+002
+1.24780976220E+007, +9.96672578075E+000, +2.57733047957E+002
+1.26031289111E+007, +1.05029805280E+001, +2.60174028043E+002
+1.27281602003E+007, +1.01774957196E+001, +2.62981210026E+002
+1.28531914894E+007, +1.06890848935E+001, +2.65867813647E+002
+1.29782227785E+007, +1.08136511975E+001, +2.68637255128E+002
+1.31032540676E+007, +1.10230275428E+001, +2.71504704937E+002
+1.32282853567E+007, +1.02024839428E+001, +2.74281034486E+002
+1.33533166458E+007, +1.12870612919E+001, +2.77338095383E+002
+1.34783479349E+007, +1.09220766238E+001, +2.79667298719E+002
+1.36033792240E+007, +1.07599703806E+001, +2.82486519337E+002
+1.37284105131E+007, +1.09389635182E+001, +2.85695048997E+002
+1.38534418023E+007, +1.08284692605E+001, +2.88336694383E+002
+1.39784730914E+007, +1.06195297916E+001, +2.91521233577E+002
+1.41035043805E+007, +1.04893189037E+001, +2.94098735609E+002
+1.42285356696E+007, +1.13288764038E+001, +2.97338094033E+002
+1.43535669587E+007, +1.03572262477E+001, +2.99660233390E+002
+1.44785982478E+007, +1.03449592890E+001, +3.02986684096E+002
+1.46036295369E+007, +1.08302111404E+001, +3.06090507204E+002
+1.47286608260E+007, +1.04042169122E+001, +3.08715702712E+002
+1.48536921151E+007, +1.05533818221E+001, +3.12281315076E+002
+1.49787234043E+007, +1.12706383911E+001, +3.15163705198E+002
+1.51037546934E+007, +1.07875773955E+001, +3.17296040984E+002
+1.52287859825E+007, +1.04939833039E+001, +3.20477863497E+002
+1.53538172716E+007, +1.09827775232E+001, +3.24096223309E+002
+1.54788485607E+007, +1.15122179865E+001, +3.26234032248E+002
+1.56038798498E+007, +1.11096446776E+001, +3.29715120937E+002
+1.57289111389E+007, +1.10444753518E+001, +3.32635402267E+002
+1.58539424280E+007, +1.18240550374E+001, +3.35350503543E+002
+1.59789737171E+007, +1.05663896206E+001, +3.38987278235E+002
+1.61040050063E+007, +1.14069224174E+001, +3.41818286198E+002
+1.62290362954E+007, +1.13722849754E+001, +3.45240102387E+002
+1.63540675845E+007, +1.21058190794E+001, +3.48125060206E+002
+1.64790988736E+007, +1.08205671494E+001, +3.50743223167E+002
+1.66041301627E+007, +1.13728200232E+001, +3.53944824603E+002
+1.67291614518E+007, +1.10759335480E+001, +3.56377996752E+002
+1.68541927409E+007, +1.17072943758E+001, +3.60141149792E+002
+1.69792240300E+007, +1.21336306424E+001, +3.63404335202E+002
+1.71042553191E+007, +1.09538788677E+001, +3.67037948521E+002
+1.72292866083E+007, +1.14699851971E+001, +3.69765459411E+002
+1.73543178974E+007, +1.09239309398E+001, +3.72901713817E+002
+1.74793491865E+007, +1.12965870857E+001, +3.76478220955E+002
+1.76043804756E+007, +1.18404312843E+001, +3.79483173792E+002
+1.77294117647E+007, +1.13212606372E+001, +3.82563425201E+002
+1.78544430538E+007, +1.19687712421E+001, +3.85662367720E+002
+1.79794743429E+007, +1.16426879143E+001, +3.89058668792E+002
+1.81045056320E+007, +1.20989784485E+001, +3.92321521552E+002
+1.82295369212E+007, +1.18314006959E+001, +3.95286858114E+002
+1.83545682103E+007, +1.26544348160E+001, +3.98045940010E+002
+1.84795994994E+007, +1.27739916584E+001, +4.01458306912E+002
+1.86046307885E+007, +1.27542037787E+001, +4.04796149193E+002
+1.87296620776E+007, +1.23063671641E+001, +4.08885386129E+002
+1.88546933667E+007, +1.29142589694E+001, +4.11823959278E+002
+1.89797246558E+007, +1.31931346127E+001, +4.14661434179E+002
+1.91047559449E+007, +1.31897256928E+001, +4.17525967465E+002
+1.92297872340E+007, +1.26026266807E+001, +4.21254340364E+002
+1.93548185232E+007, +1.35896841362E+001, +4.24304937785E+002
+1.94798498123E+007, +1.30033411708E+001, +4.27249396453E+002
+1.96048811014E+007, +1.30655620828E+001, +4.31550857417E+002
+1.97299123905E+007, +1.29673055702E+001, +4.35111505140E+002
+1.98549436796E+007, +1.39458955839E+001, +4.38652634951E+002
+1.99799749687E+007, +1.30549080560E+001, +4.42199945192E+002
+2.01050062578E+007, +1.28441694096E+001, +4.44614493005E+002
+2.02300375469E+007, +1.32796318832E+001, +4.49488610695E+002
+2.03550688360E+007, +1.35760860378E+001, +4.53797194090E+002
+2.04801001252E+007, +1.44846686823E+001, +4.55405112654E+002
+2.06051314143E+007, +1.42166903912E+001, +4.59742780262E+002
+2.07301627034E+007, +1.36391761214E+001, +4.62642930967E+002
+2.08551939925E+007, +1.44563912517E+001, +4.65832783932E+002
+2.09802252816E+007, +1.40677254150E+001, +4.70720804814E+002
+2.11052565707E+007, +1.43869559393E+001, +4.73460557892E+002
+2.12302878598E+007, +1.35248455263E+001, +4.78208569722E+002
+2.13553191489E+007, +1.48996989863E+001, +4.80228230545E+002
+2.14803504380E+007, +1.49303765238E+001, +4.83500022685E+002
+2.16053817272E+007, +1.47443591580E+001, +4.87872805584E+002
+2.17304130163E+007, +1.48404999913E+001, +4.91801192181E+002
+2.18554443054E+007, +1.51660247180E+001, +4.97165262300E+002
+2.19804755945E+007, +1.45399429672E+001, +4.97872753274E+002
+2.21055068836E+007, +1.52362297814E+001, +5.02985492909E+002
+2.22305381727E+007, +1.62038396446E+001, +5.07645967179E+002
+2.23555694618E+007, +1.57772219951E+001, +5.09820462338E+002
+2.24806007509E+007, +1.71140653731E+001, +5.13751294168E+002
+2.26056320401E+007, +1.42325687003E+001, +5.19525794560E+002
+2.27306633292E+007, +1.71790671044E+001, +5.21296781538E+002
+2.28556946183E+007, +1.78608853283E+001, +5.25620604104E+002
+2.29807259074E+007, +1.61921829546E+001, +5.28761752328E+002
+2.31057571965E+007, +1.66380120360E+001, +5.32484456409E+002
+2.32307884856E+007, +1.81107786102E+001, +5.36406148970E+002
+2.33558197747E+007, +1.72847518649E+001, +5.39064037207E+002
+2.34808510638E+007, +1.82784396571E+001, +5.42533469845E+002
+2.36058823529E+007, +1.75972441674E+001, +5.48279339706E+002
+2.37309136421E+007, +1.76285664742E+001, +5.50826501874E+002
+2.38559449312E+007, +1.70132982900E+001, +5.57390500448E+002
+2.39809762203E+007, +1.91219677264E+001, +5.57667552212E+002
+2.41060075094E+007, +1.71898083000E+001, +5.63225320132E+002
+2.42310387985E+007, +1.95286192185E+001, +5.66182689618E+002
+2.43560700876E+007, +1.84116247600E+001, +5.71865702389E+002
+2.44811013767E+007, +2.01316211754E+001, +5.73596564089E+002
+2.46061326658E+007, +1.89759509234E+001, +5.78545165902E+002
+2.47311639549E+007, +1.93233698217E+001, +5.84299940735E+002
+2.48561952441E+007, +1.86877734094E+001, +5.86067399879E+002
+2.49812265332E+007, +1.95291927874E+001, +5.92883573114E+002
+2.51062578223E+007, +1.93056072746E+001, +5.96938839020E+002
+2.52312891114E+007, +2.02214342034E+001, +5.99592091844E+002
+2.53563204005E+007, +1.90354854663E+001, +6.03788684242E+002
+2.54813516896E+007, +1.90883175571E+001, +6.06739215214E+002
+2.56063829787E+007, +1.96201622148E+001, +6.08194565334E+002
+2.57314142678E+007, +2.04107113780E+001, +6.14668110963E+002
+2.58564455569E+007, +1.98313067614E+001, +6.19389819886E+002
+2.59814768461E+007, +2.27147790643E+001, +6.23946577260E+002
+2.61065081352E+007, +1.88800160673E+001, +6.29385523111E+002
+2.62315394243E+007, +1.93855996433E+001, +6.35976905347E+002
+2.63565707134E+007, +1.87590700834E+001, +6.38878951999E+002
+2.64816020025E+007, +1.98542801782E+001, +6.42974319580E+002
+2.66066332916E+007, +2.10836734852E+001, +6.48174309599E+002
+2.67316645807E+007, +2.12363527752E+001, +6.51864202823E+002
+2.68566958698E+007, +1.95940509957E+001, +6.57383237186E+002
+2.69817271589E+007, +1.78293972906E+001, +6.59834345248E+002
+2.71067584481E+007, +2.06739319524E+001, +6.66767965062E+002
+2.72317897372E+007, +2.13526506316E+001, +6.69505180965E+002
+2.73568210263E+007, +2.19006194154E+001, +6.74131780616E+002
+2.74818523154E+007, +2.01732598799E+001, +6.81163901611E+002
+2.76068836045E+007, +2.28793066199E+001, +6.85985985898E+002
+2.77319148936E+007, +2.01600040723E+001, +6.87522627797E+002
+2.78569461827E+007, +2.34304994464E+001, +6.95491234064E+002
+2.79819774718E+007, +1.98629268171E+001, +6.98373222322E+002
+2.81070087610E+007, +2.14231148997E+001, +7.05285672689E+002
+2.82320400501E+007, +2.30906373165E+001, +7.09265294213E+002
+2.83570713392E+007, +2.48817734423E+001, +7.11529223769E+002
+2.84821026283E+007, +2.21008668402E+001, +7.16645441000E+002
+2.86071339174E+007, +1.99740983928E+001, +7.22418799547E+002
+2.87321652065E+007, +2.13426910511E+001, +7.30066245623E+002
+2.88571964956E+007, +2.18637334474E+001, +7.33470653689E+002
+2.89822277847E+007, +2.34274392283E+001, +7.40562955592E+002
+2.91072590738E+007, +2.55520444610E+001, +7.45643414247E+002
+2.92322903630E+007, +2.68509476525E+001, +7.47428881577E+002
+2.93573216521E+007, +2.28671605698E+001, +7.53858459662E+002
+2.94823529412E+007, +2.55266533168E+001, +7.63505287724E+002
+2.96073842303E+007, +2.46505323103E+001, +7.67907929449E+002
+2.97324155194E+007, +2.24746012260E+001, +7.70879780881E+002
+2.98574468085E+007, +2.62113093444E+001, +7.77569584919E+002
+2.99824780976E+007, +2.57224049219E+001, +7.80722309497E+002
+3.01075093867E+007, +2.56271818308E+001, +7.86671659816E+002
+3.02325406758E+007, +2.42897112821E+001, +7.92234033284E+002
+3.03575719650E+007, +2.22909351405E+001, +7.99690125088E+002
+3.04826032541E+007, +2.66566156391E+001, +8.05263622681E+002
+3.06076345432E+007, +2.68451577149E+001, +8.10957432466E+002
+3.07326658323E+007, +2.53861290991E+001, +8.15336818377E+002
+3.08576971214E+007, +2.73911821754E+001, +8.25315825056E+002
+3.09827284105E+007, +2.69209582814E+001, +8.28731967872E+002
+3.11077596996E+007, +2.38498661640E+001, +8.35160857469E+002
+3.12327909887E+007, +2.59685165961E+001, +8.38346858121E+002
+3.13578222778E+007, +2.93122430523E+001, +8.45028190137E+002
+3.14828535670E+007, +2.73467147833E+001, +8.52438078124E+002
+3.16078848561E+007, +2.35962521169E+001, +8.58006156825E+002
+3.17329161452E+007, +2.71558937867E+001, +8.65673438738E+002
+3.18579474343E+007, +2.71871030152E+001, +8.70637197271E+002
+3.19829787234E+007, +2.45385507382E+001, +8.76577280247E+002
+3.21080100125E+007, +2.53835537561E+001, +8.79756241278E+002
+3.22330413016E+007, +2.46747629846E+001, +8.89118450900E+002
+3.23580725907E+007, +2.78753736844E+001, +8.94515488382E+002
+3.24831038798E+007, +2.54789733029E+001, +8.98320974863E+002
+3.26081351690E+007, +3.15293032801E+001, +9.06029651500E+002
+3.27331664581E+007, +2.84504266273E+001, +9.11988491517E+002
+3.28581977472E+007, +2.95484906755E+001, +9.17137790885E+002
+3.29832290363E+007, +3.21402217629E+001, +9.27713199403E+002
+3.31082603254E+007, +2.95779871305E+001, +9.33083664941E+002
+3.32332916145E+007, +2.73137052000E+001, +9.42732253702E+002
+3.33583229036E+007, +2.79777563700E+001, +9.48404564324E+002
+3.34833541927E+007, +3.35647277962E+001, +9.53087673638E+002
+3.36083854819E+007, +2.89451507217E+001, +9.62103285521E+002
+3.37334167710E+007, +2.99652233543E+001, +9.71526953300E+002
+3.38584480601E+007, +2.28453009340E+001, +9.77388680897E+002
+3.39834793492E+007, +2.70221277877E+001, +9.89128589719E+002
+3.41085106383E+007, +2.79920114456E+001, +9.93462422235E+002
+3.42335419274E+007, +2.75533366307E+001, +9.97601685956E+002
+3.43585732165E+007, +2.97841809588E+001, +1.00840318697E+003
+3.44836045056E+007, +3.20822680233E+001, +1.01860945187E+003
+3.46086357947E+007, +3.35972349947E+001, +1.02247251619E+003
+3.47336670839E+007, +2.71826273063E+001, +1.02855936244E+003
+3.48586983730E+007, +3.20395909559E+001, +1.03964347354E+003
+3.49837296621E+007, +2.62879942293E+001, +1.04494387254E+003
+3.51087609512E+007, +2.92354268128E+001, +1.05002858636E+003
+3.52337922403E+007, +3.05792404921E+001, +1.05826524951E+003
+3.53588235294E+007, +3.57377280432E+001, +1.07179984928E+003
+3.54838548185E+007, +2.89736611121E+001, +1.07874755798E+003
+3.56088861076E+007, +3.31303105744E+001, +1.08606605822E+003
+3.57339173967E+007, +3.63970274474E+001, +1.09369911632E+003
+3.58589486859E+007, +3.64569762710E+001, +1.10072983026E+003
+3.59839799750E+007, +4.22897136404E+001, +1.11170180895E+003
+3.61090112641E+007, +3.98519526717E+001, +1.12886690019E+003
+3.62340425532E+007, +3.44505744730E+001, +1.13043306432E+003
+3.63590738423E+007, +4.33507938031E+001, +1.13627607514E+003
+3.64841051314E+007, +3.55594822678E+001, +1.14468229055E+003
+3.66091364205E+007, +3.89797729620E+001, +1.15004369783E+003
+3.67341677096E+007, +4.16018588209E+001, +1.16200309791E+003
+3.68591989987E+007, +4.19724659792E+001, +1.17613118920E+003
+3.69842302879E+007, +4.38454978992E+001, +1.19078456032E+003
+3.71092615770E+007, +4.35247448268E+001, +1.19555748388E+003
+3.72342928661E+007, +3.84554509481E+001, +1.20038731880E+003
+3.73593241552E+007, +4.64751131412E+001, +1.21606390396E+003
+3.74843554443E+007, +4.86505742869E+001, +1.22436950250E+003
+3.76093867334E+007, +3.60650900700E+001, +1.23407068206E+003
+3.77344180225E+007, +5.26609216709E+001, +1.24671327588E+003
+3.78594493116E+007, +5.15545408721E+001, +1.25437333094E+003
+3.79844806008E+007, +4.82896074315E+001, +1.25811146536E+003
+3.81095118899E+007, +5.21795947261E+001, +1.27285048632E+003
+3.82345431790E+007, +5.81033379593E+001, +1.28219399679E+003
+3.83595744681E+007, +5.57421142850E+001, +1.29525633079E+003
+3.84846057572E+007, +4.82456848795E+001, +1.30184045879E+003
+3.86096370463E+007, +5.34771340530E+001, +1.32021735575E+003
+3.87346683354E+007, +5.17100841919E+001, +1.32855601963E+003
+3.88596996245E+007, +6.08524004608E+001, +1.34160318282E+003
+3.89847309136E+007, +6.47915192938E+001, +1.34941740311E+003
+3.91097622028E+007, +5.90987701319E+001, +1.36817572067E+003
+3.92347934919E+007, +5.02335590603E+001, +1.37310486041E+003
+3.93598247810E+007, +5.49628186708E+001, +1.39000277691E+003
+3.94848560701E+007, +5.65129241652E+001, +1.40001153107E+003
+3.96098873592E+007, +6.21573198025E+001, +1.40821907425E+003
+3.97349186483E+007, +5.30684299080E+001, +1.41113902961E+003
+3.98599499374E+007, +6.18324529896E+001, +1.43753822579E+003
+3.99849812265E+007, +6.38284070710E+001, +1.45658609139E+003
+4.01100125156E+007, +6.74234734605E+001, +1.45405809957E+003
