"# Channel 1"
"# Trace 1"
Frequency, Formatted Data, Formatted Data
+1.00000000000E+005, +3.96738231905E+001, +2.00194253035E+000
+2.25031289111E+005, +3.96715178913E+001, +4.51178023980E+000
+3.50062578223E+005, +3.96914992311E+001, +6.98004735628E+000
+4.75093867334E+005, +3.97288231492E+001, +9.47297267464E+000
+6.00125156446E+005, +3.97361943434E+001, +1.19405442512E+001
+7.25156445557E+005, +3.97797975891E+001, +1.43604783813E+001
+8.50187734668E+005, +3.97687213469E+001, +1.68211558820E+001
+9.75219023780E+005, +3.97830109787E+001, +1.92983930973E+001
+1.10025031289E+006, +3.98151676945E+001, +2.17692669183E+001
+1.22528160200E+006, +3.98376493628E+001, +2.42171893235E+001
+1.35031289111E+006, +3.98313005017E+001, +2.66748003619E+001
+1.47534418023E+006, +3.97840114164E+001, +2.91631579154E+001
+1.60037546934E+006, +3.98572030339E+001, +3.15747641797E+001
+1.72540675845E+006, +3.98784823353E+001, +3.40368872446E+001
+1.85043804756E+006, +3.98941035463E+001, +3.65516100631E+001
+1.97546933667E+006, +3.98989312485E+001, +3.90042436980E+001
+2.10050062578E+006, +3.99033568702E+001, +4.14560953814E+001
+2.22553191489E+006, +3.98988531009E+001, +4.38891020385E+001
+2.35056320401E+006, +3.98841898856E+001, +4.63985770788E+001
+2.47559449312E+006, +3.99302953597E+001, +4.88686659210E+001
+2.60062578223E+006, +3.99159295384E+001, +5.12506220629E+001
+2.72565707134E+006, +3.99777655819E+001, +5.37493295785E+001
+2.85068836045E+006, +3.99493545915E+001, +5.62177918013E+001
+2.97571964956E+006, +4.00214404214E+001, +5.86592580382E+001
+3.10075093867E+006, +3.99661471567E+001, +6.11185813003E+001
+3.22578222778E+006, +4.00614147363E+001, +6.36638103271E+001
+3.35081351690E+006, +4.00651545812E+001, +6.60673359069E+001
+3.47584480601E+006, +4.01124712344E+001, +6.85030044525E+001
+3.60087609512E+006, +4.00463325161E+001, +7.09791457047E+001
+3.72590738423E+006, +4.00596890665E+001, +7.35404495608E+001
+3.85093867334E+006, +3.99853961684E+001, +7.61840144364E+001
+3.97596996245E+006, +4.00512861453E+001, +7.88896915270E+001
+4.10100125156E+006, +4.14335994025E+001, +7.93734115821E+001
+4.22603254068E+006, +3.99847782578E+001, +8.31302489981E+001
+4.35106382979E+006, +4.01540529581E+001, +8.57302284718E+001
+4.47609511890E+006, +4.01332076084E+001, +8.82765522812E+001
+4.60112640801E+006, +4.02477981227E+001, +9.08588391351E+001
+4.72615769712E+006, +4.02712431594E+001, +9.32706197496E+001
+4.85118898623E+006, +4.03006359667E+001, +9.56774146489E+001
+4.97622027534E+006, +4.03196950246E+001, +9.82600371426E+001
+5.10125156446E+006, +4.01571973219E+001, +1.00692385664E+002
+5.22628285357E+006, +4.03251300266E+001, +1.03245604276E+002
+5.35131414268E+006, +4.02782696094E+001, +1.05639826640E+002
+5.47634543179E+006, +4.02220695187E+001, +1.08214316429E+002
+5.60137672090E+006, +4.02343241463E+001, +1.10837680782E+002
+5.72640801001E+006, +4.03127557311E+001, +1.13207837054E+002
+5.85143929912E+006, +4.04046306315E+001, +1.15772542177E+002
+5.97647058824E+006, +4.03553313957E+001, +1.18209627280E+002
+6.10150187735E+006, +4.03897431273E+001, +1.20822712832E+002
+6.22653316646E+006, +4.04162082896E+001, +1.23221334926E+002
+6.35156445557E+006, +4.04528160450E+001, +1.25837914314E+002
+6.47659574468E+006, +4.05131729909E+001, +1.28322154229E+002
+6.60162703379E+006, +4.07236782610E+001, +1.30807175639E+002
+6.72665832290E+006, +4.07007769861E+001, +1.33488528493E+002
+6.85168961202E+006, +4.07948419240E+001, +1.35909083592E+002
+6.97672090113E+006, +4.07122155039E+001, +1.38426910998E+002
+7.10175219024E+006, +4.07396838192E+001, +1.40956137469E+002
+7.22678347935E+006, +4.09031091833E+001, +1.43534528346E+002
+7.35181476846E+006, +4.09268616752E+001, +1.46064308445E+002
+7.47684605757E+006, +4.09380142261E+001, +1.48658969096E+002
+7.60187734668E+006, +4.10010868896E+001, +1.51037791523E+002
+7.72690863579E+006, +4.09799950058E+001, +1.53630159764E+002
+7.85193992491E+006, +4.10665420502E+001, +1.56093894920E+002
+7.97697121402E+006, +4.10907581795E+001, +1.58675030355E+002
+8.10200250313E+006, +4.11633607070E+001, +1.61150171880E+002
+8.22703379224E+006, +4.11104933908E+001, +1.63542874691E+002
+8.35206508135E+006, +4.12798635902E+001, +1.66194926754E+002
+8.47709637046E+006, +4.12058251555E+001, +1.68848781482E+002
+8.60212765957E+006, +4.11646589122E+001, +1.71298867885E+002
+8.72715894869E+006, +4.15547823704E+001, +1.73800120561E+002
+8.85219023780E+006, +4.15202031172E+001, +1.76098303166E+002
+8.97722152691E+006, +4.14630195535E+001, +1.78660181298E+002
+9.10225281602E+006, +4.15873125116E+001, +1.81232812885E+002
+9.22728410513E+006, +4.15110442428E+001, +1.84013694275E+002
+9.35231539424E+006, +4.14652597599E+001, +1.86676547174E+002
+9.47734668335E+006, +4.14546782916E+001, +1.88962417317E+002
+9.60237797247E+006, +4.16313770596E+001, +1.91112279159E+002
+9.72740926158E+006, +4.17567296684E+001, +1.93432906864E+002
+9.85244055069E+006, +4.17653478570E+001, +1.95362131762E+002
+9.97747183980E+006, +4.18145411731E+001, +1.97897009682E+002
+1.01025031289E+007, +4.19912710490E+001, +2.00291494364E+002
+1.02275344180E+007, +4.18872852693E+001, +2.02919906962E+002
+1.03525657071E+007, +4.17665274091E+001, +2.05324486275E+002
+1.04775969962E+007, +4.18171814625E+001, +2.08039432327E+002
+1.06026282854E+007, +4.20395451572E+001, +2.10356861398E+002
+1.07276595745E+007, +4.18954974910E+001, +2.13263323964E+002
+1.08526908636E+007, +4.21342883569E+001, +2.16073228571E+002
+1.09777221527E+007, +4.18308730220E+001, +2.18779986083E+002
+1.11027534418E+007, +4.18955647448E+001, +2.21786187524E+002
+1.12277847309E+007, +4.21761402301E+001, +2.24863504984E+002
+1.13528160200E+007, +4.19187720713E+001, +2.27960880251E+002
+1.14778473091E+007, +4.22203895483E+001, +2.31039941325E+002
+1.16028785982E+007, +4.19226671837E+001, +2.33593148202E+002
+1.17279098874E+007, +4.20187123434E+001, +2.36136611667E+002
+1.18529411765E+007, +4.21618886969E+001, +2.38715045003E+002
+1.19779724656E+007, +4.23719486920E+001, +2.41237656879E+002
+1.21030037547E+007, +4.22965550844E+001, +2.44013112712E+002
+1.22280350438E+007, +4.23135185768E+001, +2.46857024220E+002
+1.23530663329E+007, +4.24470637887E+001, +2.49556072260E+002
+1.24780976220E+007, +4.24601180344E+001, +2.52692396167E+002
+1.26031289111E+007, +4.23538289760E+001, +2.54825545813E+002
+1.27281602003E+007, +4.23780717426E+001, +2.57672352263E+002
+1.28531914894E+007, +4.23463496139E+001, +2.60315025850E+002
+1.29782227785E+007, +4.22853663287E+001, +2.62951977792E+002
+1.31032540676E+007, +4.21748521930E+001, +2.65642181763E+002
+1.32282853567E+007, +4.23483673801E+001, +2.68446642656E+002
+1.33533166458E+007, +4.25231150666E+001, +2.71190960412E+002
+1.34783479349E+007, +4.25414069574E+001, +2.74160326830E+002
+1.36033792240E+007, +4.25812156272E+001, +2.76629261897E+002
+1.37284105131E+007, +4.27798548823E+001, +2.79369736930E+002
+1.38534418023E+007, +4.30085222684E+001, +2.82506195673E+002
+1.39784730914E+007, +4.30247702927E+001, +2.85704723556E+002
+1.41035043805E+007, +4.27161794271E+001, +2.88169795143E+002
+1.42285356696E+007, +4.28565227634E+001, +2.91009135471E+002
+1.43535669587E+007, +4.29129790744E+001, +2.93609646394E+002
+1.44785982478E+007, +4.28151579239E+001, +2.96019535557E+002
+1.46036295369E+007, +4.29399922035E+001, +2.99184174473E+002
+1.47286608260E+007, +4.31626427361E+001, +3.01866097800E+002
+1.48536921151E+007, +4.27033599768E+001, +3.04768069575E+002
+1.49787234043E+007, +4.28601086741E+001, +3.07533060218E+002
+1.51037546934E+007, +4.30840365123E+001, +3.10272598271E+002
+1.52287859825E+007, +4.35428747293E+001, +3.12827998667E+002
+1.53538172716E+007, +4.34188780938E+001, +3.16230845476E+002
+1.54788485607E+007, +4.37199986439E+001, +3.19084842615E+002
+1.56038798498E+007, +4.36672791476E+001, +3.21841608968E+002
+1.57289111389E+007, +4.37390325396E+001, +3.24702152976E+002
+1.58539424280E+007, +4.37101995790E+001, +3.27817060422E+002
+1.59789737171E+007, +4.41495221230E+001, +3.30543494840E+002
+1.61040050063E+007, +4.39636378107E+001, +3.33502708990E+002
+1.62290362954E+007, +4.43024777967E+001, +3.35971779034E+002
+1.63540675845E+007, +4.40928265593E+001, +3.38980993018E+002
+1.64790988736E+007, +4.45211181253E+001, +3.42183229680E+002
+1.66041301627E+007, +4.42820804899E+001, +3.45352838756E+002
+1.67291614518E+007, +4.47061752145E+001, +3.47751377984E+002
+1.68541927409E+007, +4.46763229168E+001, +3.50905446630E+002
+1.69792240300E+007, +4.46187560005E+001, +3.54258409797E+002
+1.71042553191E+007, +4.47380955980E+001, +3.57022639789E+002
+1.72292866083E+007, +4.47133392735E+001, +3.60297281816E+002
+1.73543178974E+007, +4.43749981879E+001, +3.62707516660E+002
+1.74793491865E+007, +4.48810034737E+001, +3.65848222281E+002
+1.76043804756E+007, +4.46470379164E+001, +3.68380566212E+002
+1.77294117647E+007, +4.44893987684E+001, +3.71664212103E+002
+1.78544430538E+007, +4.46977555969E+001, +3.74863751287E+002
+1.79794743429E+007, +4.53706797216E+001, +3.77921946584E+002
+1.81045056320E+007, +4.49307334562E+001, +3.81294908227E+002
+1.82295369212E+007, +4.56978851093E+001, +3.84075090440E+002
+1.83545682103E+007, +4.55185525625E+001, +3.87003921568E+002
+1.84795994994E+007, +4.54142171230E+001, +3.90338900344E+002
+1.86046307885E+007, +4.57447082893E+001, +3.93305521853E+002
+1.87296620776E+007, +4.65711113757E+001, +3.96356030362E+002
+1.88546933667E+007, +4.59559780238E+001, +3.99706147953E+002
+1.89797246558E+007, +4.62392376080E+001, +4.02780115815E+002
+1.91047559449E+007, +4.56551242409E+001, +4.05493600315E+002
+1.92297872340E+007, +4.64764193455E+001, +4.08942774566E+002
+1.93548185232E+007, +4.60326486789E+001, +4.12184294996E+002
+1.94798498123E+007, +4.60746581516E+001, +4.16588553610E+002
+1.96048811014E+007, +4.70998141491E+001, +4.19392630259E+002
+1.97299123905E+007, +4.70400005733E+001, +4.21620163280E+002
+1.98549436796E+007, +4.65724254562E+001, +4.25118762122E+002
+1.99799749687E+007, +4.72500996177E+001, +4.28172545906E+002
+2.01050062578E+007, +4.73464547661E+001, +4.31014028727E+002
+2.02300375469E+007, +4.70976643036E+001, +4.34135797464E+002
+2.03550688360E+007, +4.74357406747E+001, +4.37708070130E+002
+2.04801001252E+007, +4.76948657219E+001, +4.41208106980E+002
+2.06051314143E+007, +4.78428209179E+001, +4.44089492292E+002
+2.07301627034E+007, +4.76305804426E+001, +4.47928457359E+002
+2.08551939925E+007, +4.76465746553E+001, +4.51505801492E+002
+2.09802252816E+007, +4.81863778150E+001, +4.53767550544E+002
+2.11052565707E+007, +4.88387885476E+001, +4.57361399439E+002
+2.12302878598E+007, +4.90231187153E+001, +4.60942440429E+002
+2.13553191489E+007, +4.87272680012E+001, +4.63909789325E+002
+2.14803504380E+007, +4.92194738127E+001, +4.67417641976E+002
+2.16053817272E+007, +4.92492983930E+001, +4.71540662427E+002
+2.17304130163E+007, +4.99765980357E+001, +4.74730384990E+002
+2.18554443054E+007, +4.93733492633E+001, +4.77766649535E+002
+2.19804755945E+007, +4.98012839900E+001, +4.81594205283E+002
+2.21055068836E+007, +4.96027038797E+001, +4.84521779412E+002
+2.22305381727E+007, +5.05947759894E+001, +4.89192122948E+002
+2.23555694618E+007, +5.03209899287E+001, +4.92288095592E+002
+2.24806007509E+007, +5.10460519508E+001, +4.96311804256E+002
+2.26056320401E+007, +4.96637863563E+001, +4.98914566416E+002
+2.27306633292E+007, +5.06971674326E+001, +5.02804350300E+002
+2.28556946183E+007, +5.27520649103E+001, +5.06937277082E+002
+2.29807259074E+007, +5.10321383852E+001, +5.09520851316E+002
+2.31057571965E+007, +5.16722002963E+001, +5.13577497062E+002
+2.32307884856E+007, +5.24136994172E+001, +5.17074779712E+002
+2.33558197747E+007, +5.22923765711E+001, +5.20609077775E+002
+2.34808510638E+007, +5.26309266669E+001, +5.22260320938E+002
+2.36058823529E+007, +5.35569288100E+001, +5.27795889100E+002
+2.37309136421E+007, +5.29175588082E+001, +5.30019749304E+002
+2.38559449312E+007, +5.52824664995E+001, +5.34651514035E+002
+2.39809762203E+007, +5.42282016032E+001, +5.37484609383E+002
+2.41060075094E+007, +5.30123493973E+001, +5.40768030742E+002
+2.42310387985E+007, +5.39653675643E+001, +5.44107230750E+002
+2.43560700876E+007, +5.51701941839E+001, +5.48874719435E+002
+2.44811013767E+007, +5.49379690942E+001, +5.51719887183E+002
+2.46061326658E+007, +5.52063139087E+001, +5.54199203124E+002
+2.47311639549E+007, +5.44841739186E+001, +5.59069954801E+002
+2.48561952441E+007, +5.49159265519E+001, +5.63133706206E+002
+2.49812265332E+007, +5.48647895630E+001, +5.66506887934E+002
+2.51062578223E+007, +5.56130087372E+001, +5.69976872986E+002
+2.52312891114E+007, +5.52715854211E+001, +5.73889968834E+002
+2.53563204005E+007, +5.50349978423E+001, +5.77532354869E+002
+2.54813516896E+007, +5.49714820301E+001, +5.79844193158E+002
+2.56063829787E+007, +5.54052595337E+001, +5.86129478159E+002
+2.57314142678E+007, +5.49217052452E+001, +5.89339389127E+002
+2.58564455569E+007, +5.58854694872E+001, +5.94275506800E+002
+2.59814768461E+007, +5.58730630820E+001, +5.96994725847E+002
+2.61065081352E+007, +5.66555755886E+001, +6.00647212296E+002
+2.62315394243E+007, +5.61910644291E+001, +6.05822395518E+002
+2.63565707134E+007, +5.72338485410E+001, +6.08568649667E+002
+2.64816020025E+007, +5.56115696795E+001, +6.11887467340E+002
+2.66066332916E+007, +5.53302756104E+001, +6.17048311134E+002
+2.67316645807E+007, +5.57501820655E+001, +6.21543630381E+002
+2.68566958698E+007, +5.73507921278E+001, +6.25842672890E+002
+2.69817271589E+007, +5.72296655709E+001, +6.29499760332E+002
+2.71067584481E+007, +5.72195601601E+001, +6.33004659227E+002
+2.72317897372E+007, +5.72734168348E+001, +6.38342055955E+002
+2.73568210263E+007, +5.81199368452E+001, +6.42595812778E+002
+2.74818523154E+007, +5.90269886391E+001, +6.46192959868E+002
+2.76068836045E+007, +5.79934325185E+001, +6.50286899871E+002
+2.77319148936E+007, +5.97040620349E+001, +6.56503247032E+002
+2.78569461827E+007, +6.16049823767E+001, +6.58461836773E+002
+2.79819774718E+007, +5.92793571118E+001, +6.63260939724E+002
+2.81070087610E+007, +6.04494279706E+001, +6.67562869035E+002
+2.82320400501E+007, +6.07872306036E+001, +6.69765804899E+002
+2.83570713392E+007, +6.22046943077E+001, +6.74792082737E+002
+2.84821026283E+007, +6.25022201540E+001, +6.79645721459E+002
+2.86071339174E+007, +5.98857317131E+001, +6.83834804260E+002
+2.87321652065E+007, +6.16734193038E+001, +6.88860921862E+002
+2.88571964956E+007, +6.16992441703E+001, +6.93335819987E+002
+2.89822277847E+007, +5.97350430057E+001, +6.97345650058E+002
+2.91072590738E+007, +6.08629910468E+001, +7.01921143461E+002
+2.92322903630E+007, +6.30911056150E+001, +7.05900816167E+002
+2.93573216521E+007, +6.28068778493E+001, +7.11319019300E+002
+2.94823529412E+007, +6.25434835369E+001, +7.17848354109E+002
+2.96073842303E+007, +6.34080158759E+001, +7.21402322552E+002
+2.97324155194E+007, +6.28596744532E+001, +7.23820732862E+002
+2.98574468085E+007, +6.35533820010E+001, +7.30029619173E+002
+2.99824780976E+007, +6.53411344148E+001, +7.36594422264E+002
+3.01075093867E+007, +6.49422316127E+001, +7.40738336434E+002
+3.02325406758E+007, +6.60971759409E+001, +7.45951826106E+002
+3.03575719650E+007, +6.62086627437E+001, +7.50351026912E+002
+3.04826032541E+007, +6.82786969804E+001, +7.54673244299E+002
+3.06076345432E+007, +6.74403660348E+001, +7.59652470816E+002
+3.07326658323E+007, +6.81354440276E+001, +7.64094981955E+002
+3.08576971214E+007, +6.93960862868E+001, +7.67267124387E+002
+3.09827284105E+007, +7.05116165169E+001, +7.75837031024E+002
+3.11077596996E+007, +6.93227731068E+001, +7.81379147868E+002
+3.12327909887E+007, +7.04520928753E+001, +7.84024471437E+002
+3.13578222778E+007, +6.96705882638E+001, +7.89880161437E+002
+3.14828535670E+007, +7.12543895192E+001, +7.98119806212E+002
+3.16078848561E+007, +7.19496000879E+001, +8.00145124261E+002
+3.17329161452E+007, +7.25520950994E+001, +8.05822763310E+002
+3.18579474343E+007, +7.24170916872E+001, +8.11449551169E+002
+3.19829787234E+007, +7.47940649389E+001, +8.15660701478E+002
+3.21080100125E+007, +7.45186583499E+001, +8.22199416370E+002
+3.22330413016E+007, +7.56027133993E+001, +8.26638178431E+002
+3.23580725907E+007, +7.41436647325E+001, +8.31847571874E+002
+3.24831038798E+007, +7.33623433507E+001, +8.37931829967E+002
+3.26081351690E+007, +7.16192619614E+001, +8.42890119577E+002
+3.27331664581E+007, +7.49227636807E+001, +8.49458536037E+002
+3.28581977472E+007, +7.61985058326E+001, +8.51362676560E+002
+3.29832290363E+007, +7.94250876465E+001, +8.57938587123E+002
+3.31082603254E+007, +8.13033380311E+001, +8.63197852590E+002
+3.32332916145E+007, +7.72139133622E+001, +8.71787004936E+002
+3.33583229036E+007, +8.04594914939E+001, +8.75084500949E+002
+3.34833541927E+007, +8.05657472732E+001, +8.80517165089E+002
+3.36083854819E+007, +8.11704150900E+001, +8.86645181300E+002
+3.37334167710E+007, +8.37562322651E+001, +8.92053385766E+002
+3.38584480601E+007, +8.13659145599E+001, +9.01354113106E+002
+3.39834793492E+007, +8.31261175215E+001, +9.05621617350E+002
+3.41085106383E+007, +8.36875783689E+001, +9.11074384747E+002
+3.42335419274E+007, +8.45392666338E+001, +9.20254214653E+002
+3.43585732165E+007, +8.44237422021E+001, +9.23977787107E+002
+3.44836045056E+007, +8.48477516654E+001, +9.30759615872E+002
+3.46086357947E+007, +9.00211453855E+001, +9.34281479456E+002
+3.47336670839E+007, +9.08820442250E+001, +9.40635475241E+002
+3.48586983730E+007, +9.02356773900E+001, +9.48109289339E+002
+3.49837296621E+007, +8.86560983618E+001, +9.52868548732E+002
+3.51087609512E+007, +9.02997312316E+001, +9.62490286784E+002
+3.52337922403E+007, +9.02097680951E+001, +9.65813253478E+002
+3.53588235294E+007, +9.32759329569E+001, +9.76182555838E+002
+3.54838548185E+007, +9.65642475668E+001, +9.81609035847E+002
+3.56088861076E+007, +9.45656649914E+001, +9.87341128027E+002
+3.57339173967E+007, +9.45071489282E+001, +9.94672174147E+002
+3.58589486859E+007, +9.71923920796E+001, +1.00251988558E+003
+3.59839799750E+007, +9.46826760356E+001, +1.00951493880E+003
+3.61090112641E+007, +1.00228160933E+002, +1.01453927264E+003
+3.62340425532E+007, +9.57956690562E+001, +1.02380235453E+003
+3.63590738423E+007, +9.98445370971E+001, +1.02976362901E+003
+3.64841051314E+007, +1.01197436120E+002, +1.03432626632E+003
+3.66091364205E+007, +1.02809721965E+002, +1.04156647969E+003
+3.67341677096E+007, +1.00758862849E+002, +1.04864402818E+003
+3.68591989987E+007, +1.05112761383E+002, +1.05799609744E+003
+3.69842302879E+007, +1.05291216046E+002, +1.06744319073E+003
+3.71092615770E+007, +1.11422420991E+002, +1.07226274845E+003
+3.72342928661E+007, +1.08880942296E+002, +1.07883446686E+003
+3.73593241552E+007, +1.09520565823E+002, +1.08647742518E+003
+3.74843554443E+007, +1.08206248390E+002, +1.09791999057E+003
+3.76093867334E+007, +1.10582400645E+002, +1.10784945766E+003
+3.77344180225E+007, +1.12569873128E+002, +1.10975601630E+003
+3.78594493116E+007, +1.15002140552E+002, +1.11724769338E+003
+3.79844806008E+007, +1.16049703685E+002, +1.12580717517E+003
+3.81095118899E+007, +1.16656571792E+002, +1.13465035299E+003
+3.82345431790E+007, +1.21064614925E+002, +1.14216193242E+003
+3.83595744681E+007, +1.16960093648E+002, +1.15137447110E+003
+3.84846057572E+007, +1.19184759249E+002, +1.16170517115E+003
+3.86096370463E+007, +1.25408944347E+002, +1.16374707345E+003
+3.87346683354E+007, +1.24923973325E+002, +1.17973908716E+003
+3.88596996245E+007, +1.26895769925E+002, +1.18607248921E+003
+3.89847309136E+007, +1.30418534506E+002, +1.19860727899E+003
+3.91097622028E+007, +1.32076004729E+002, +1.20342031528E+003
+3.92347934919E+007, +1.29589184627E+002, +1.21343519103E+003
+3.93598247810E+007, +1.30738470453E+002, +1.21995222611E+003
+3.94848560701E+007, +1.34208403339E+002, +1.23447357570E+003
+3.96098873592E+007, +1.37003945352E+002, +1.24455152199E+003
+3.97349186483E+007, +1.35351329356E+002, +1.24981030476E+003
+3.98599499374E+007, +1.37197653966E+002, +1.26169155398E+003
+3.99849812265E+007, +1.45446787590E+002, +1.26701970155E+003
+4.01100125156E+007, +1.45291091806E+002, +1.27821833607E+003
