"# Channel 1"
"# Trace 1"
Frequency, Formatted Data, Formatted Data
+1.00000000000E+005, +5.01762932284E+001, +2.52864277550E+000
+3.18898623279E+005, +5.03161987582E+001, +6.45816356199E+000
+5.37797246558E+005, +5.04326778934E+001, +1.09497126752E+001
+7.56695869837E+005, +5.04695934602E+001, +1.53144853901E+001
+9.75594493116E+005, +5.05327369675E+001, +1.97303166270E+001
+1.19449311640E+006, +5.05117133271E+001, +2.39651163568E+001
+1.41339173967E+006, +5.03358033492E+001, +2.84326187538E+001
+1.63229036295E+006, +5.05422653626E+001, +3.27433500468E+001
+1.85118898623E+006, +5.05177624181E+001, +3.72666083572E+001
+2.07008760951E+006, +5.05775600152E+001, +4.15738518323E+001
+2.28898623279E+006, +5.07043303009E+001, +4.63148681139E+001
+2.50788485607E+006, +5.06990759384E+001, +5.03511616089E+001
+2.72678347935E+006, +5.05356045608E+001, +5.49182821993E+001
+2.94568210263E+006, +5.07341590466E+001, +5.92483697700E+001
+3.16458072591E+006, +5.06289150868E+001, +6.37755175557E+001
+3.38347934919E+006, +5.08529552251E+001, +6.81078703235E+001
+3.60237797247E+006, +5.08396980094E+001, +7.24012693288E+001
+3.82127659574E+006, +5.09421654781E+001, +7.67180798596E+001
+4.04017521902E+006, +5.11521660723E+001, +8.11869239552E+001
+4.25907384230E+006, +5.08410394184E+001, +8.55449251749E+001
+4.47797246558E+006, +5.10814068457E+001, +9.02102885524E+001
+4.69687108886E+006, +5.09896282736E+001, +9.46837486603E+001
+4.91576971214E+006, +5.09894558864E+001, +9.90638158303E+001
+5.13466833542E+006, +5.11338387538E+001, +1.03416773642E+002
+5.35356695870E+006, +5.11291559231E+001, +1.07854996054E+002
+5.57246558198E+006, +5.11976141452E+001, +1.12098163113E+002
+5.79136420526E+006, +5.16423212636E+001, +1.17102312790E+002
+6.01026282854E+006, +5.16065960689E+001, +1.21157287294E+002
+6.22916145181E+006, +5.16499993961E+001, +1.25651045246E+002
+6.44806007509E+006, +5.16855636061E+001, +1.30030580474E+002
+6.66695869837E+006, +5.19223493251E+001, +1.34450593348E+002
+6.88585732165E+006, +5.17921284687E+001, +1.39256304620E+002
+7.10475594493E+006, +5.21121084448E+001, +1.43602875247E+002
+7.32365456821E+006, +5.21758038938E+001, +1.48137533613E+002
+7.54255319149E+006, +5.22238091945E+001, +1.52489752564E+002
+7.76145181477E+006, +5.24813704783E+001, +1.57108580018E+002
+7.98035043805E+006, +5.25934125810E+001, +1.61602559748E+002
+8.19924906133E+006, +5.25155905752E+001, +1.65970909245E+002
+8.41814768461E+006, +5.28580274853E+001, +1.70665665807E+002
+8.63704630788E+006, +5.27139506375E+001, +1.75211303309E+002
+8.85594493116E+006, +5.28541363614E+001, +1.79703933321E+002
+9.07484355444E+006, +5.28727154977E+001, +1.84584636646E+002
+9.29374217772E+006, +5.29828192177E+001, +1.88976478070E+002
+9.51264080100E+006, +5.32667988290E+001, +1.93514029320E+002
+9.73153942428E+006, +5.32982740012E+001, +1.98435621756E+002
+9.95043804756E+006, +5.32504914627E+001, +2.02594592703E+002
+1.01693366708E+007, +5.35109307489E+001, +2.07321571639E+002
+1.03882352941E+007, +5.35158041745E+001, +2.11840420594E+002
+1.06071339174E+007, +5.36685605787E+001, +2.16533058760E+002
+1.08260325407E+007, +5.36917690743E+001, +2.21369021691E+002
+1.10449311640E+007, +5.38648226841E+001, +2.25879102478E+002
+1.12638297872E+007, +5.40094467713E+001, +2.30794169998E+002
+1.14827284105E+007, +5.43955552667E+001, +2.35283656653E+002
+1.17016270338E+007, +5.44778924614E+001, +2.39968434814E+002
+1.19205256571E+007, +5.45961747124E+001, +2.44577998673E+002
+1.21394242804E+007, +5.47718487201E+001, +2.49592467399E+002
+1.23583229036E+007, +5.50540393795E+001, +2.54284544146E+002
+1.25772215269E+007, +5.47474662275E+001, +2.58973075571E+002
+1.27961201502E+007, +5.50437276574E+001, +2.63660554686E+002
+1.30150187735E+007, +5.52069550667E+001, +2.68172803181E+002
+1.32339173967E+007, +5.50604858954E+001, +2.73393033779E+002
+1.34528160200E+007, +5.52470013400E+001, +2.78471867266E+002
+1.36717146433E+007, +5.53073589103E+001, +2.82921793151E+002
+1.38906132666E+007, +5.59104852201E+001, +2.88415385543E+002
+1.41095118899E+007, +5.59994515795E+001, +2.93405391571E+002
+1.43284105131E+007, +5.54694390179E+001, +2.98430630528E+002
+1.45473091364E+007, +5.61256620015E+001, +3.03894918143E+002
+1.47662077597E+007, +5.61007532962E+001, +3.07833953602E+002
+1.49851063830E+007, +5.67320531665E+001, +3.12876064639E+002
+1.52040050063E+007, +5.68917710527E+001, +3.18854594408E+002
+1.54229036295E+007, +5.65558479178E+001, +3.23747151703E+002
+1.56418022528E+007, +5.62172484809E+001, +3.28890687543E+002
+1.58607008761E+007, +5.68646894572E+001, +3.33051692823E+002
+1.60795994994E+007, +5.68857384530E+001, +3.38760552426E+002
+1.62984981227E+007, +5.74224865624E+001, +3.43977570096E+002
+1.65173967459E+007, +5.73261865499E+001, +3.48967263842E+002
+1.67362953692E+007, +5.69310762612E+001, +3.54159073348E+002
+1.69551939925E+007, +5.81401617325E+001, +3.58684330899E+002
+1.71740926158E+007, +5.65735431733E+001, +3.65078376388E+002
+1.73929912390E+007, +5.70830295228E+001, +3.69830349677E+002
+1.76118898623E+007, +5.81246526474E+001, +3.74711647884E+002
+1.78307884856E+007, +5.87081361774E+001, +3.80209020950E+002
+1.80496871089E+007, +5.88274762084E+001, +3.85597747020E+002
+1.82685857322E+007, +5.85944435904E+001, +3.91068170180E+002
+1.84874843554E+007, +5.97478731003E+001, +3.96532269485E+002
+1.87063829787E+007, +5.89344084022E+001, +4.02082438925E+002
+1.89252816020E+007, +6.00178290505E+001, +4.08303692972E+002
+1.91441802253E+007, +6.00969496622E+001, +4.12283140441E+002
+1.93630788486E+007, +5.98250119335E+001, +4.18096589379E+002
+1.95819774718E+007, +6.05679183050E+001, +4.23889517121E+002
+1.98008760951E+007, +6.13137651692E+001, +4.29768307905E+002
+2.00197747184E+007, +6.06556941453E+001, +4.35758120461E+002
+2.02386733417E+007, +6.05060556507E+001, +4.40448097112E+002
+2.04575719650E+007, +6.14561796681E+001, +4.46247699966E+002
+2.06764705882E+007, +6.19389804601E+001, +4.52473085862E+002
+2.08953692115E+007, +6.26271185919E+001, +4.59070397033E+002
+2.11142678348E+007, +6.21662777782E+001, +4.63185953357E+002
+2.13331664581E+007, +6.38434972182E+001, +4.69790651046E+002
+2.15520650814E+007, +6.35070141988E+001, +4.75269605179E+002
+2.17709637046E+007, +6.34242198566E+001, +4.81322259357E+002
+2.19898623279E+007, +6.44884640791E+001, +4.88185948160E+002
+2.22087609512E+007, +6.36297643469E+001, +4.92528802711E+002
+2.24276595745E+007, +6.62810605731E+001, +5.00938014897E+002
+2.26465581977E+007, +6.47316398989E+001, +5.05474782259E+002
+2.28654568210E+007, +6.75406017567E+001, +5.11919599999E+002
+2.30843554443E+007, +6.60886894704E+001, +5.16669521722E+002
+2.33032540676E+007, +6.85347497362E+001, +5.23247290447E+002
+2.35221526909E+007, +6.80983960581E+001, +5.29723364793E+002
+2.37410513141E+007, +6.79253170821E+001, +5.34327648018E+002
+2.39599499374E+007, +6.80307117146E+001, +5.41725509461E+002
+2.41788485607E+007, +6.96831343701E+001, +5.48343684262E+002
+2.43977471840E+007, +6.97198552389E+001, +5.54203851479E+002
+2.46166458073E+007, +7.02817038667E+001, +5.61293935823E+002
+2.48355444305E+007, +7.05995519375E+001, +5.66657239061E+002
+2.50544430538E+007, +7.19577596155E+001, +5.72438193908E+002
+2.52733416771E+007, +7.23967892931E+001, +5.79389162944E+002
+2.54922403004E+007, +7.28782589952E+001, +5.88508198670E+002
+2.57111389237E+007, +7.40311000143E+001, +5.93892284406E+002
+2.59300375469E+007, +7.22916757186E+001, +5.98812604738E+002
+2.61489361702E+007, +7.31519135777E+001, +6.05446832009E+002
+2.63678347935E+007, +7.18521606625E+001, +6.13242840927E+002
+2.65867334168E+007, +7.44731078645E+001, +6.18853121089E+002
+2.68056320401E+007, +7.43177516749E+001, +6.26277064513E+002
+2.70245306633E+007, +7.48130370253E+001, +6.33255772636E+002
+2.72434292866E+007, +7.54930387354E+001, +6.39160249291E+002
+2.74623279099E+007, +7.51190647145E+001, +6.47432777084E+002
+2.76812265332E+007, +7.54502465326E+001, +6.54916687689E+002
+2.79001251564E+007, +7.54200053338E+001, +6.63577080625E+002
+2.81190237797E+007, +7.88931915650E+001, +6.69190843951E+002
+2.83379224030E+007, +7.78927157833E+001, +6.73343584278E+002
+2.85568210263E+007, +7.68751034870E+001, +6.83494083206E+002
+2.87757196496E+007, +7.62141239255E+001, +6.92440809794E+002
+2.89946182728E+007, +7.63236965511E+001, +6.98997450831E+002
+2.92135168961E+007, +7.60463964578E+001, +7.08054014231E+002
+2.94324155194E+007, +8.07267271134E+001, +7.17645813053E+002
+2.96513141427E+007, +7.85633315339E+001, +7.24638816873E+002
+2.98702127660E+007, +7.88620082096E+001, +7.30710725224E+002
+3.00891113892E+007, +7.92193654213E+001, +7.39729932173E+002
+3.03080100125E+007, +8.22680594821E+001, +7.45423735321E+002
+3.05269086358E+007, +8.12412610754E+001, +7.55551616816E+002
+3.07458072591E+007, +8.45293613663E+001, +7.62783123196E+002
+3.09647058824E+007, +8.05478032351E+001, +7.71668133185E+002
+3.11836045056E+007, +8.52510538635E+001, +7.79103338200E+002
+3.14025031289E+007, +8.51889781204E+001, +7.86994770794E+002
+3.16214017522E+007, +8.59001470208E+001, +7.94659973061E+002
+3.18403003755E+007, +8.30233453270E+001, +8.09212161820E+002
+3.20591989987E+007, +8.44932006672E+001, +8.15916988598E+002
+3.22780976220E+007, +8.53517378381E+001, +8.24517171861E+002
+3.24969962453E+007, +8.25269114762E+001, +8.29845234216E+002
+3.27158948686E+007, +8.56677904984E+001, +8.39805862154E+002
+3.29347934919E+007, +8.73617151824E+001, +8.50562665500E+002
+3.31536921151E+007, +8.70181404654E+001, +8.54225269428E+002
+3.33725907384E+007, +8.87472289872E+001, +8.72170499952E+002
+3.35914893617E+007, +8.96810553677E+001, +8.79090760565E+002
+3.38103879850E+007, +8.84618817070E+001, +8.87307524449E+002
+3.40292866083E+007, +8.91206034514E+001, +8.98515218088E+002
+3.42481852315E+007, +9.63967892950E+001, +9.06648257107E+002
+3.44670838548E+007, +9.29455039410E+001, +9.16638869035E+002
+3.46859824781E+007, +9.48535092755E+001, +9.30253774716E+002
+3.49048811014E+007, +9.77091588876E+001, +9.42574180236E+002
+3.51237797247E+007, +9.79724502215E+001, +9.49668661877E+002
+3.53426783479E+007, +9.72168972279E+001, +9.60624660572E+002
+3.55615769712E+007, +9.80590632849E+001, +9.73939238557E+002
+3.57804755945E+007, +1.02887754995E+002, +9.78198831341E+002
+3.59993742178E+007, +9.80622393056E+001, +9.97190692692E+002
+3.62182728411E+007, +1.02440734267E+002, +1.00088659914E+003
+3.64371714643E+007, +1.02226756517E+002, +1.01010561769E+003
+3.66560700876E+007, +1.02379220062E+002, +1.02507071251E+003
+3.68749687109E+007, +1.02330956517E+002, +1.04213528714E+003
+3.70938673342E+007, +1.04936918935E+002, +1.04858943488E+003
+3.73127659574E+007, +1.06134193568E+002, +1.06115098689E+003
+3.75316645807E+007, +1.02124453970E+002, +1.07399503583E+003
+3.77505632040E+007, +1.09822300978E+002, +1.08558096461E+003
+3.79694618273E+007, +1.16597494494E+002, +1.09569697216E+003
+3.81883604506E+007, +1.07972703734E+002, +1.11225888509E+003
+3.84072590738E+007, +1.10765151266E+002, +1.12367307284E+003
+3.86261576971E+007, +1.13523957144E+002, +1.13548308795E+003
+3.88450563204E+007, +1.20663572820E+002, +1.16047409587E+003
+3.90639549437E+007, +1.23896764801E+002, +1.15641554178E+003
+3.92828535670E+007, +1.20292131016E+002, +1.18345998542E+003
+3.95017521902E+007, +1.23600061798E+002, +1.19283094228E+003
+3.97206508135E+007, +1.26075992409E+002, +1.20852899522E+003
+3.99395494368E+007, +1.29010643548E+002, +1.22595464740E+003
+4.01584480601E+007, +1.33625234357E+002, +1.23514633654E+003
+4.03773466834E+007, +1.35254113655E+002, +1.26096862732E+003
+4.05962453066E+007, +1.29462168726E+002, +1.27951085878E+003
+4.08151439299E+007, +1.33050215834E+002, +1.28209974843E+003
+4.10340425532E+007, +1.33264453336E+002, +1.29991846873E+003
+4.12529411765E+007, +1.26549541306E+002, +1.31375934106E+003
+4.14718397997E+007, +1.34295109003E+002, +1.32978182501E+003
+4.16907384230E+007, +1.42067792715E+002, +1.35164114356E+003
+4.19096370463E+007, +1.42372071972E+002, +1.36151507549E+003
+4.21285356696E+007, +1.43538313684E+002, +1.38192264051E+003
+4.23474342929E+007, +1.42783059144E+002, +1.40871816894E+003
+4.25663329161E+007, +1.60162213098E+002, +1.41452516633E+003
+4.27852315394E+007, +1.46388830904E+002, +1.43521462306E+003
+4.30041301627E+007, +1.61220495466E+002, +1.45018448165E+003
+4.32230287860E+007, +1.71218412733E+002, +1.46855909158E+003
+4.34419274093E+007, +1.62987215681E+002, +1.50287463378E+003
+4.36608260325E+007, +1.69657636479E+002, +1.51161244109E+003
+4.38797246558E+007, +1.72497334198E+002, +1.53987073886E+003
+4.40986232791E+007, +1.73811836639E+002, +1.55397966471E+003
+4.43175219024E+007, +1.81645410166E+002, +1.57563037710E+003
+4.45364205257E+007, +1.86997727735E+002, +1.60291925986E+003
+4.47553191489E+007, +1.86530480199E+002, +1.62738117414E+003
+4.49742177722E+007, +1.93713775404E+002, +1.64934193947E+003
+4.51931163955E+007, +1.94921907778E+002, +1.65712119226E+003
+4.54120150188E+007, +2.01347671338E+002, +1.69593197682E+003
+4.56309136421E+007, +2.16658018920E+002, +1.71943869894E+003
+4.58498122653E+007, +2.14755335742E+002, +1.73846818805E+003
+4.60687108886E+007, +2.06251325531E+002, +1.75750177935E+003
+4.62876095119E+007, +2.23745492278E+002, +1.78579109446E+003
+4.65065081352E+007, +2.25477608944E+002, +1.81195017887E+003
+4.67254067584E+007, +2.23282456409E+002, +1.83879970582E+003
+4.69443053817E+007, +2.28085741727E+002, +1.86683773809E+003
+4.71632040050E+007, +2.12525222903E+002, +1.90467956855E+003
+4.73821026283E+007, +2.36045724876E+002, +1.91227429448E+003
+4.76010012516E+007, +2.56829939898E+002, +1.97001495805E+003
+4.78198998748E+007, +2.55794068274E+002, +1.99189639990E+003
+4.80387984981E+007, +2.59885986256E+002, +2.03776864707E+003
+4.82576971214E+007, +2.72781310382E+002, +2.07164473394E+003
+4.84765957447E+007, +2.87443991591E+002, +2.08917841770E+003
+4.86954943680E+007, +2.76756634106E+002, +2.13562300322E+003
+4.89143929912E+007, +2.96903204965E+002, +2.16846426645E+003
+4.91332916145E+007, +3.24073866158E+002, +2.19988223155E+003
+4.93521902378E+007, +3.07466916757E+002, +2.24805555396E+003
+4.95710888611E+007, +3.50642009590E+002, +2.27503300539E+003
+4.97899874844E+007, +3.55146994783E+002, +2.29139799377E+003
+5.00088861076E+007, +3.47204049578E+002, +2.32708696281E+003
+5.02277847309E+007, +4.00030448933E+002, +2.40538142731E+003
+5.04466833542E+007, +4.01625451238E+002, +2.44237128615E+003
+5.06655819775E+007, +4.14214974404E+002, +2.48117399196E+003
+5.08844806008E+007, +4.16884507224E+002, +2.54675135010E+003
+5.11033792240E+007, +4.19132948064E+002, +2.59357616394E+003
+5.13222778473E+007, +4.48469864949E+002, +2.64858940845E+003
+5.15411764706E+007, +4.78901844025E+002, +2.67453931071E+003
+5.17600750939E+007, +4.85795349899E+002, +2.76736541063E+003
+5.19789737171E+007, +4.98964927431E+002, +2.80301966808E+003
+5.21978723404E+007, +5.48271932720E+002, +2.87251565027E+003
+5.24167709637E+007, +5.05046893922E+002, +2.92992293750E+003
+5.26356695870E+007, +5.81299946146E+002, +2.95761273503E+003
+5.28545682103E+007, +6.38692042709E+002, +3.05529581398E+003
+5.30734668335E+007, +5.97828316308E+002, +3.16130610481E+003
+5.32923654568E+007, +6.30910804935E+002, +3.27861137112E+003
+5.35112640801E+007, +7.19521406404E+002, +3.27684874876E+003
+5.37301627034E+007, +7.20629842462E+002, +3.38847066394E+003
+5.39490613267E+007, +7.32591139939E+002, +3.47939820714E+003
+5.41679599499E+007, +8.02300923885E+002, +3.55165022972E+003
+5.43868585732E+007, +8.93932966643E+002, +3.66531621066E+003
+5.46057571965E+007, +8.78165241704E+002, +3.74059913526E+003
+5.48246558198E+007, +9.49723288788E+002, +3.80388538305E+003
+5.50435544431E+007, +9.54896536511E+002, +3.98237452510E+003
+5.52624530663E+007, +1.11449748234E+003, +4.11309456613E+003
+5.54813516896E+007, +1.15334961329E+003, +4.21235079759E+003
+5.57002503129E+007, +1.23836417712E+003, +4.28745138001E+003
+5.59191489362E+007, +1.36994750375E+003, +4.44914683271E+003
+5.61380475594E+007, +1.39175596974E+003, +4.57091062924E+003
+5.63569461827E+007, +1.53515232993E+003, +4.78950988769E+003
+5.65758448060E+007, +1.64315349134E+003, +4.81890601123E+003
+5.67947434293E+007, +1.74471780602E+003, +4.95502382961E+003
+5.70136420526E+007, +1.91794823851E+003, +5.09361184148E+003
+5.72325406758E+007, +2.04802627551E+003, +5.32561895666E+003
+5.74514392991E+007, +2.20421799346E+003, +5.53348130444E+003
+5.76703379224E+007, +2.39458511828E+003, +5.58603257204E+003
+5.78892365457E+007, +2.67188487021E+003, +5.91167152521E+003
+5.81081351690E+007, +3.18187421303E+003, +5.78975734561E+003
+5.83270337922E+007, +3.45000244640E+003, +6.43355436934E+003
+5.85459324155E+007, +3.60578335336E+003, +6.29266944843E+003
+5.87648310388E+007, +4.02653222866E+003, +6.67008397326E+003
+5.89837296621E+007, +4.16830551855E+003, +6.74322043633E+003
+5.92026282854E+007, +4.75034739280E+003, +6.94811597866E+003
+5.94215269086E+007, +5.53017505370E+003, +7.27757990487E+003
+5.96404255319E+007, +6.30858230294E+003, +7.69646971152E+003
+5.98593241552E+007, +6.73804400660E+003, +7.33725373926E+003
+6.00782227785E+007, +7.96268260106E+003, +7.30992118016E+003
+6.02971214018E+007, +8.60942411314E+003, +6.79385386813E+003
+6.05160200250E+007, +9.48671301855E+003, +6.68602075784E+003
+6.07349186483E+007, +9.81153580893E+003, +6.33032615453E+003
+6.09538172716E+007, +1.12659361721E+004, +5.86985954062E+003
+6.11727158949E+007, +1.16927989740E+004, +4.13639950021E+003
+6.13916145181E+007, +1.27816307872E+004, +3.45835826509E+003
+6.16105131414E+007, +1.31226908182E+004, +3.16229046542E+003
+6.18294117647E+007, +1.32413476873E+004, +2.08103818020E+003
+6.20483103880E+007, +1.41082311724E+004, +1.24844975249E+002
+6.22672090113E+007, +1.33318205424E+004, -1.32935135670E+003
+6.24861076345E+007, +1.22213120312E+004, -1.86597800957E+003
+6.27050062578E+007, +1.17816743027E+004, -2.81750072197E+003
+6.29239048811E+007, +1.20649444218E+004, -4.82181857805E+003
+6.31428035044E+007, +1.07544961100E+004, -5.45022098747E+003
+6.33617021277E+007, +9.78888009999E+003, -5.00223666787E+003
+6.35806007509E+007, +9.06847737737E+003, -6.24629804770E+003
+6.37994993742E+007, +8.01483432560E+003, -6.47233770392E+003
+6.40183979975E+007, +7.53108151825E+003, -6.21225432838E+003
+6.42372966208E+007, +6.76109735819E+003, -6.36224809067E+003
+6.44561952441E+007, +6.30699062370E+003, -6.06602790960E+003
+6.46750938673E+007, +5.46427601949E+003, -6.37461829710E+003
+6.48939924906E+007, +5.20562568358E+003, -5.78985717366E+003
+6.51128911139E+007, +4.38658083190E+003, -5.89987679842E+003
+6.53317897372E+007, +4.34878002150E+003, -5.56614721822E+003
+6.55506883605E+007, +3.73531175153E+003, -5.46832171128E+003
+6.57695869837E+007, +3.55584653450E+003, -5.47753908481E+003
+6.59884856070E+007, +3.37385962758E+003, -5.20281333316E+003
+6.62073842303E+007, +2.94737727593E+003, -5.09530434451E+003
+6.64262828536E+007, +3.03790167313E+003, -4.92087659649E+003
+6.66451814768E+007, +2.73389764775E+003, -4.75931878454E+003
+6.68640801001E+007, +2.57292605524E+003, -4.60176916728E+003
+6.70829787234E+007, +2.44918224948E+003, -4.41897861090E+003
+6.73018773467E+007, +2.40995148290E+003, -4.31027459440E+003
+6.75207759700E+007, +2.26165469306E+003, -4.10400132443E+003
+6.77396745932E+007, +2.12840361525E+003, -4.15670526165E+003
+6.79585732165E+007, +1.97685828096E+003, -3.92693639094E+003
+6.81774718398E+007, +1.84891041066E+003, -3.85995433709E+003
+6.83963704631E+007, +1.78114670700E+003, -3.76920890568E+003
+6.86152690864E+007, +1.74589029391E+003, -3.59720597306E+003
+6.88341677096E+007, +1.66969696058E+003, -3.55227923851E+003
+6.90530663329E+007, +1.60377358997E+003, -3.48720519467E+003
+6.92719649562E+007, +1.53405420754E+003, -3.35556984256E+003
+6.94908635795E+007, +1.45125831406E+003, -3.26034661387E+003
+6.97097622028E+007, +1.38490936620E+003, -3.20605142286E+003
+6.99286608260E+007, +1.37290413683E+003, -3.14554992205E+003
+7.01475594493E+007, +1.27846333990E+003, -3.06046879344E+003
