"# Channel 1"
"# Trace 1"
Frequency, Formatted Data, Formatted Data
+1.00000000000E+005, +8.86886166124E+000, +1.86107006319E+000
+2.66777963272E+005, +8.85332986247E+000, +4.99479745312E+000
+4.33555926544E+005, +8.85766970932E+000, +8.13962971187E+000
+6.00333889816E+005, +8.88391313767E+000, +1.12094788006E+001
+7.67111853088E+005, +8.88318484371E+000, +1.43412880290E+001
+9.33889816361E+005, +8.90458278405E+000, +1.74236074524E+001
+1.10066777963E+006, +8.85073192671E+000, +2.05846382947E+001
+1.26744574290E+006, +8.91167419881E+000, +2.36682502184E+001
+1.43422370618E+006, +8.85369082560E+000, +2.68411338475E+001
+1.60100166945E+006, +8.92595637245E+000, +2.98599925030E+001
+1.76777963272E+006, +8.92066561421E+000, +3.29781334455E+001
+1.93455759599E+006, +8.93079293648E+000, +3.60337646436E+001
+2.10133555927E+006, +8.94524208304E+000, +3.91651681068E+001
+2.26811352254E+006, +8.96531769081E+000, +4.22895497531E+001
+2.43489148581E+006, +8.98102252645E+000, +4.54518953375E+001
+2.60166944908E+006, +8.99280122557E+000, +4.84920536727E+001
+2.76844741235E+006, +8.92475765366E+000, +5.16867149501E+001
+2.93522537563E+006, +8.93436276589E+000, +5.47552266193E+001
+3.10200333890E+006, +9.12875115457E+000, +5.78259877618E+001
+3.26878130217E+006, +8.87458479161E+000, +6.10489758322E+001
+3.43555926544E+006, +9.04476065942E+000, +6.41631966855E+001
+3.60233722871E+006, +9.13390079446E+000, +6.73396412268E+001
+3.76911519199E+006, +9.07520924865E+000, +7.05111725871E+001
+3.93589315526E+006, +9.08545643738E+000, +7.34893448884E+001
+4.10267111853E+006, +8.81003502974E+000, +7.65477856486E+001
+4.26944908180E+006, +9.10073430026E+000, +8.01291210155E+001
+4.43622704508E+006, +9.10996444126E+000, +8.30416810083E+001
+4.60300500835E+006, +9.19676135806E+000, +8.63124416554E+001
+4.76978297162E+006, +9.21791869557E+000, +8.92933695449E+001
+4.93656093489E+006, +9.28713758413E+000, +9.25732376044E+001
+5.10333889816E+006, +9.32518012689E+000, +9.56326524461E+001
+5.27011686144E+006, +9.55690180724E+000, +9.89672323396E+001
+5.43689482471E+006, +9.39677042876E+000, +1.02101636304E+002
+5.60367278798E+006, +9.53335611352E+000, +1.05450328346E+002
+5.77045075125E+006, +9.45449633146E+000, +1.08361986895E+002
+5.93722871452E+006, +9.81070978280E+000, +1.11731227418E+002
+6.10400667780E+006, +9.68710081330E+000, +1.14912184167E+002
+6.27078464107E+006, +9.75377231552E+000, +1.18035837959E+002
+6.43756260434E+006, +9.90741620665E+000, +1.21288418721E+002
+6.60434056761E+006, +9.98378428165E+000, +1.24448059594E+002
+6.77111853088E+006, +1.01715559945E+001, +1.27500975942E+002
+6.93789649416E+006, +1.01062056575E+001, +1.30687853549E+002
+7.10467445743E+006, +1.00768242633E+001, +1.33959748205E+002
+7.27145242070E+006, +1.02753962786E+001, +1.37080592596E+002
+7.43823038397E+006, +1.02876832838E+001, +1.40235855684E+002
+7.60500834725E+006, +1.01950600037E+001, +1.43501618430E+002
+7.77178631052E+006, +1.04001770662E+001, +1.46824991782E+002
+7.93856427379E+006, +1.03327763798E+001, +1.49890807003E+002
+8.10534223706E+006, +1.03724924794E+001, +1.53137139758E+002
+8.27212020033E+006, +1.04092359699E+001, +1.56528139337E+002
+8.43889816361E+006, +1.03024453221E+001, +1.59801768102E+002
+8.60567612688E+006, +1.02665444135E+001, +1.63094184617E+002
+8.77245409015E+006, +1.04151378997E+001, +1.66063707180E+002
+8.93923205342E+006, +1.05007716729E+001, +1.69804973305E+002
+9.10601001669E+006, +1.03817310931E+001, +1.72998714592E+002
+9.27278797997E+006, +1.04870898404E+001, +1.76388617936E+002
+9.43956594324E+006, +1.03825166923E+001, +1.79522211057E+002
+9.60634390651E+006, +1.04846208540E+001, +1.83011319348E+002
+9.77312186978E+006, +1.05049931059E+001, +1.86223341501E+002
+9.93989983306E+006, +1.06911208103E+001, +1.89599589304E+002
+1.01066777963E+007, +1.04368756373E+001, +1.92786161439E+002
+1.02734557596E+007, +1.06257896640E+001, +1.96523280962E+002
+1.04402337229E+007, +1.05769422379E+001, +1.99820000771E+002
+1.06070116861E+007, +1.06297946618E+001, +2.03016489996E+002
+1.07737896494E+007, +1.05567135548E+001, +2.06687640220E+002
+1.09405676127E+007, +1.09985666554E+001, +2.10028451667E+002
+1.11073455760E+007, +1.06947528670E+001, +2.13554027680E+002
+1.12741235392E+007, +1.10360699012E+001, +2.16934849013E+002
+1.14409015025E+007, +1.09065241686E+001, +2.20338037572E+002
+1.16076794658E+007, +1.09382442339E+001, +2.23907912688E+002
+1.17744574290E+007, +1.11020097349E+001, +2.27586129210E+002
+1.19412353923E+007, +1.08156448348E+001, +2.31001542730E+002
+1.21080133556E+007, +1.10146060851E+001, +2.34399917647E+002
+1.22747913189E+007, +1.11952599396E+001, +2.38098005791E+002
+1.24415692821E+007, +1.10176734216E+001, +2.41316938211E+002
+1.26083472454E+007, +1.10753406905E+001, +2.45091238036E+002
+1.27751252087E+007, +1.13742341434E+001, +2.48580803224E+002
+1.29419031720E+007, +1.09742098184E+001, +2.52175413007E+002
+1.31086811352E+007, +1.14264094603E+001, +2.56059381652E+002
+1.32754590985E+007, +1.16402814452E+001, +2.59499682166E+002
+1.34422370618E+007, +1.14582753234E+001, +2.62906641050E+002
+1.36090150250E+007, +1.18295583085E+001, +2.66491922690E+002
+1.37757929883E+007, +1.17219888740E+001, +2.70286972094E+002
+1.39425709516E+007, +1.18594414821E+001, +2.74051934227E+002
+1.41093489149E+007, +1.20922478389E+001, +2.77533027395E+002
+1.42761268781E+007, +1.22457871176E+001, +2.81163107446E+002
+1.44429048414E+007, +1.21581555372E+001, +2.84625922660E+002
+1.46096828047E+007, +1.19430487620E+001, +2.88622669993E+002
+1.47764607679E+007, +1.24017284464E+001, +2.92159084366E+002
+1.49432387312E+007, +1.20959993933E+001, +2.96216709232E+002
+1.51100166945E+007, +1.19603928199E+001, +2.99773264089E+002
+1.52767946578E+007, +1.24647990393E+001, +3.03564185269E+002
+1.54435726210E+007, +1.24686698591E+001, +3.07300772090E+002
+1.56103505843E+007, +1.29349024644E+001, +3.11140821172E+002
+1.57771285476E+007, +1.25984357026E+001, +3.14968856016E+002
+1.59439065109E+007, +1.29443136353E+001, +3.18815936570E+002
+1.61106844741E+007, +1.28319777737E+001, +3.22564859200E+002
+1.62774624374E+007, +1.30029993841E+001, +3.26597071194E+002
+1.64442404007E+007, +1.27704800764E+001, +3.30365196702E+002
+1.66110183639E+007, +1.33738576630E+001, +3.34597675524E+002
+1.67777963272E+007, +1.29685549754E+001, +3.38898835778E+002
+1.69445742905E+007, +1.39523134561E+001, +3.42047035251E+002
+1.71113522538E+007, +1.17159559553E+001, +3.46359009328E+002
+1.72781302170E+007, +1.28776180150E+001, +3.50804678125E+002
+1.74449081803E+007, +1.27016737420E+001, +3.54870138226E+002
+1.76116861436E+007, +1.35332731364E+001, +3.58683283529E+002
+1.77784641068E+007, +1.36308292726E+001, +3.62251574764E+002
+1.79452420701E+007, +1.38026157677E+001, +3.65971895634E+002
+1.81120200334E+007, +1.42108036307E+001, +3.70455524757E+002
+1.82787979967E+007, +1.45222011315E+001, +3.75053074418E+002
+1.84455759599E+007, +1.49330777416E+001, +3.78353745119E+002
+1.86123539232E+007, +1.44665652953E+001, +3.83113689639E+002
+1.87791318865E+007, +1.48546240259E+001, +3.87428377079E+002
+1.89459098497E+007, +1.46300177487E+001, +3.91257592778E+002
+1.91126878130E+007, +1.51053132358E+001, +3.95334467096E+002
+1.92794657763E+007, +1.49724604946E+001, +3.99951173110E+002
+1.94462437396E+007, +1.57871878726E+001, +4.04297024973E+002
+1.96130217028E+007, +1.52463243873E+001, +4.08385445099E+002
+1.97797996661E+007, +1.57595676530E+001, +4.12434221209E+002
+1.99465776294E+007, +1.54625343373E+001, +4.16815683953E+002
+2.01133555927E+007, +1.52116566118E+001, +4.22396859452E+002
+2.02801335559E+007, +1.56514974461E+001, +4.25883180094E+002
+2.04469115192E+007, +1.59823092934E+001, +4.30423321004E+002
+2.06136894825E+007, +1.62742899825E+001, +4.35913947070E+002
+2.07804674457E+007, +1.68534150424E+001, +4.39871952508E+002
+2.09472454090E+007, +1.63466986643E+001, +4.45299439116E+002
+2.11140233723E+007, +1.74780131608E+001, +4.48760489356E+002
+2.12808013356E+007, +1.75884704579E+001, +4.52826093996E+002
+2.14475792988E+007, +1.72189597660E+001, +4.58875113800E+002
+2.16143572621E+007, +1.84450814621E+001, +4.61636996936E+002
+2.17811352254E+007, +1.71239972460E+001, +4.67098934206E+002
+2.19479131886E+007, +1.96053716939E+001, +4.71690247667E+002
+2.21146911519E+007, +1.93923153978E+001, +4.75607599039E+002
+2.22814691152E+007, +1.80930803287E+001, +4.80395581285E+002
+2.24482470785E+007, +1.93506553748E+001, +4.86577577341E+002
+2.26150250417E+007, +2.06751468565E+001, +4.90962634353E+002
+2.27818030050E+007, +1.93029428541E+001, +4.96067548662E+002
+2.29485809683E+007, +2.21547038983E+001, +5.01854035866E+002
+2.31153589316E+007, +2.05531355605E+001, +5.06261110686E+002
+2.32821368948E+007, +2.24016013510E+001, +5.11256601535E+002
+2.34489148581E+007, +2.15547481435E+001, +5.14094541862E+002
+2.36156928214E+007, +2.17654581039E+001, +5.21423859218E+002
+2.37824707846E+007, +2.30330803833E+001, +5.25278551632E+002
+2.39492487479E+007, +2.17321884668E+001, +5.29553897857E+002
+2.41160267112E+007, +2.40395348665E+001, +5.35378287839E+002
+2.42828046745E+007, +2.30834276646E+001, +5.40914835124E+002
+2.44495826377E+007, +2.47656591424E+001, +5.46563708744E+002
+2.46163606010E+007, +2.43009134452E+001, +5.50916009426E+002
+2.47831385643E+007, +2.46839256352E+001, +5.55565217481E+002
+2.49499165275E+007, +2.77989160061E+001, +5.62626236079E+002
+2.51166944908E+007, +2.70885104455E+001, +5.68062626325E+002
+2.52834724541E+007, +2.68380966442E+001, +5.72908415415E+002
+2.54502504174E+007, +2.71052650133E+001, +5.79003304892E+002
+2.56170283806E+007, +2.69731307325E+001, +5.83627837194E+002
+2.57838063439E+007, +2.91037980574E+001, +5.89375073879E+002
+2.59505843072E+007, +2.76956953126E+001, +5.95036431379E+002
+2.61173622705E+007, +2.94025837459E+001, +6.00183845754E+002
+2.62841402337E+007, +2.99061212714E+001, +6.05471828199E+002
+2.64509181970E+007, +2.99029013143E+001, +6.11400805464E+002
+2.66176961603E+007, +2.96520749058E+001, +6.18282537991E+002
+2.67844741235E+007, +2.97984631476E+001, +6.22732981358E+002
+2.69512520868E+007, +3.25878392456E+001, +6.28953697814E+002
+2.71180300501E+007, +3.16282411535E+001, +6.33170039198E+002
+2.72848080134E+007, +3.23473030443E+001, +6.40198745726E+002
+2.74515859766E+007, +3.34910504108E+001, +6.45420038893E+002
+2.76183639399E+007, +3.30385259217E+001, +6.50841623613E+002
+2.77851419032E+007, +3.16977138468E+001, +6.56486792935E+002
+2.79519198664E+007, +3.40735866989E+001, +6.61959875091E+002
+2.81186978297E+007, +3.46981014257E+001, +6.67815880963E+002
+2.82854757930E+007, +3.39590013498E+001, +6.73092612723E+002
+2.84522537563E+007, +3.11709800903E+001, +6.81038499081E+002
+2.86190317195E+007, +3.35023990484E+001, +6.87638099276E+002
+2.87858096828E+007, +3.66251051792E+001, +6.95208761303E+002
+2.89525876461E+007, +3.66339791639E+001, +7.01879148449E+002
+2.91193656093E+007, +3.50394876599E+001, +7.04484083384E+002
+2.92861435726E+007, +3.33279406435E+001, +7.12115461627E+002
+2.94529215359E+007, +3.56257806262E+001, +7.19673460909E+002
+2.96196994992E+007, +3.85887024997E+001, +7.26914275320E+002
+2.97864774624E+007, +3.84705130176E+001, +7.34106443459E+002
+2.99532554257E+007, +3.96694993617E+001, +7.38586113992E+002
+3.01200333890E+007, +3.92065128252E+001, +7.47547546082E+002
+3.02868113523E+007, +3.76716389148E+001, +7.53668383167E+002
+3.04535893155E+007, +3.63484315237E+001, +7.64405487765E+002
+3.06203672788E+007, +4.08863448547E+001, +7.68029786596E+002
+3.07871452421E+007, +3.78687295532E+001, +7.77733257434E+002
+3.09539232053E+007, +3.91153636571E+001, +7.86677501530E+002
+3.11207011686E+007, +3.67691940303E+001, +7.94878432851E+002
+3.12874791319E+007, +4.11050296451E+001, +7.98285872270E+002
+3.14542570952E+007, +4.10035375638E+001, +8.05095436788E+002
+3.16210350584E+007, +3.77475326662E+001, +8.17407353598E+002
+3.17878130217E+007, +3.82112681377E+001, +8.23868572344E+002
+3.19545909850E+007, +4.09413405712E+001, +8.33154136656E+002
+3.21213689482E+007, +3.92100290042E+001, +8.42044712281E+002
+3.22881469115E+007, +3.92235123732E+001, +8.45654297988E+002
+3.24549248748E+007, +3.84861147130E+001, +8.58224104749E+002
+3.26217028381E+007, +4.04710408393E+001, +8.67034143346E+002
+3.27884808013E+007, +4.22697610074E+001, +8.72856113066E+002
+3.29552587646E+007, +4.50295393773E+001, +8.81854680543E+002
+3.31220367279E+007, +4.47108602398E+001, +8.92987478547E+002
+3.32888146912E+007, +4.57720064930E+001, +9.03060060631E+002
+3.34555926544E+007, +4.24429867368E+001, +9.10261288094E+002
+3.36223706177E+007, +4.69365540440E+001, +9.19046754958E+002
+3.37891485810E+007, +4.55155334469E+001, +9.27029593639E+002
+3.39559265442E+007, +4.58902334209E+001, +9.43004517226E+002
+3.41227045075E+007, +4.85049154389E+001, +9.49182723965E+002
+3.42894824708E+007, +4.71294397827E+001, +9.58949477340E+002
+3.44562604341E+007, +5.03307429537E+001, +9.69980492296E+002
+3.46230383973E+007, +4.81537470995E+001, +9.81578055071E+002
+3.47898163606E+007, +5.45678196895E+001, +9.88493540062E+002
+3.49565943239E+007, +5.50440011170E+001, +1.00144280477E+003
+3.51233722871E+007, +5.33765501635E+001, +1.01253472038E+003
+3.52901502504E+007, +5.53302578194E+001, +1.01524870737E+003
+3.54569282137E+007, +5.44188086968E+001, +1.03338100657E+003
+3.56237061770E+007, +5.20903460520E+001, +1.04579268756E+003
+3.57904841402E+007, +5.63434897696E+001, +1.05867878558E+003
+3.59572621035E+007, +5.72082621484E+001, +1.06550743891E+003
+3.61240400668E+007, +5.41695000228E+001, +1.07774610986E+003
+3.62908180301E+007, +6.00736922733E+001, +1.09475226309E+003
+3.64575959933E+007, +5.70955500994E+001, +1.10304110929E+003
+3.66243739566E+007, +6.24449254337E+001, +1.11285863228E+003
+3.67911519199E+007, +7.07328247013E+001, +1.12846069633E+003
+3.69579298831E+007, +6.40554296602E+001, +1.13742420390E+003
+3.71247078464E+007, +6.32652893486E+001, +1.15211197304E+003
+3.72914858097E+007, +6.14173355694E+001, +1.17082576486E+003
+3.74582637730E+007, +7.38779373409E+001, +1.18816001695E+003
+3.76250417362E+007, +6.89652268881E+001, +1.19293544900E+003
+3.77918196995E+007, +6.85087249831E+001, +1.20950809183E+003
+3.79585976628E+007, +6.85511007406E+001, +1.23339054854E+003
+3.81253756260E+007, +7.47083322718E+001, +1.23432911530E+003
+3.82921535893E+007, +8.07678525738E+001, +1.25238856950E+003
+3.84589315526E+007, +7.96979982360E+001, +1.26989763852E+003
+3.86257095159E+007, +8.23341113834E+001, +1.28983271247E+003
+3.87924874791E+007, +7.75686075941E+001, +1.30034008528E+003
+3.89592654424E+007, +8.61348508759E+001, +1.31391598537E+003
+3.91260434057E+007, +8.83591492303E+001, +1.34381640519E+003
+3.92928213689E+007, +9.34221134812E+001, +1.35539854938E+003
+3.94595993322E+007, +8.74811920279E+001, +1.37390650738E+003
+3.96263772955E+007, +8.72554275711E+001, +1.39013138348E+003
+3.97931552588E+007, +8.36169622943E+001, +1.40557244341E+003
+3.99599332220E+007, +8.93442964852E+001, +1.42209468036E+003
+4.01267111853E+007, +1.06662617485E+002, +1.45181309469E+003
+4.02934891486E+007, +9.54753169866E+001, +1.46619713811E+003
+4.04602671119E+007, +9.96215175960E+001, +1.47792744148E+003
+4.06270450751E+007, +1.09107369133E+002, +1.51480169833E+003
+4.07938230384E+007, +1.14553888194E+002, +1.51979863086E+003
+4.09606010017E+007, +1.14802429426E+002, +1.54913202233E+003
+4.11273789649E+007, +1.25897750968E+002, +1.56271425315E+003
+4.12941569282E+007, +1.11961700538E+002, +1.59383653637E+003
+4.14609348915E+007, +1.18211505876E+002, +1.62286657555E+003
+4.16277128548E+007, +1.37302488587E+002, +1.63283196477E+003
+4.17944908180E+007, +1.27921624946E+002, +1.66200419118E+003
+4.19612687813E+007, +1.40455502799E+002, +1.68266712091E+003
+4.21280467446E+007, +1.35248749297E+002, +1.72365604509E+003
+4.22948247078E+007, +1.42098486956E+002, +1.74322108179E+003
+4.24616026711E+007, +1.55752055332E+002, +1.76939146288E+003
+4.26283806344E+007, +1.60916775111E+002, +1.79606883449E+003
+4.27951585977E+007, +1.43476323713E+002, +1.84153790103E+003
+4.29619365609E+007, +1.76870524968E+002, +1.86111454658E+003
+4.31287145242E+007, +1.83735163601E+002, +1.88436394658E+003
+4.32954924875E+007, +1.75136357949E+002, +1.91251719604E+003
+4.34622704508E+007, +1.83534992152E+002, +1.97102196441E+003
+4.36290484140E+007, +2.00748376320E+002, +1.98802932168E+003
+4.37958263773E+007, +1.97701210381E+002, +2.03933290588E+003
+4.39626043406E+007, +2.04998808055E+002, +2.05437754631E+003
+4.41293823038E+007, +2.32593578553E+002, +2.10693860867E+003
+4.42961602671E+007, +2.27586207838E+002, +2.16708745932E+003
+4.44629382304E+007, +2.31982026450E+002, +2.17425670631E+003
+4.46297161937E+007, +2.51270235690E+002, +2.22265511691E+003
+4.47964941569E+007, +2.67817929884E+002, +2.26945574696E+003
+4.49632721202E+007, +2.60100175632E+002, +2.32175855968E+003
+4.51300500835E+007, +2.79791061432E+002, +2.34276307443E+003
+4.52968280467E+007, +3.13025698078E+002, +2.40834710936E+003
+4.54636060100E+007, +3.27998212686E+002, +2.47408017168E+003
+4.56303839733E+007, +3.27521675516E+002, +2.53431367147E+003
+4.57971619366E+007, +3.56364219607E+002, +2.58160337784E+003
+4.59639398998E+007, +3.51926616568E+002, +2.69983113681E+003
+4.61307178631E+007, +3.90487589006E+002, +2.70271157182E+003
+4.62974958264E+007, +4.33609159605E+002, +2.75752351115E+003
+4.64642737896E+007, +4.14258367761E+002, +2.83300788462E+003
+4.66310517529E+007, +4.51237670025E+002, +2.92548628274E+003
+4.67978297162E+007, +4.98199868894E+002, +2.94983284078E+003
+4.69646076795E+007, +5.24278548990E+002, +3.11579180585E+003
+4.71313856427E+007, +6.21241056987E+002, +3.14983573483E+003
+4.72981636060E+007, +5.74279121028E+002, +3.28655020568E+003
+4.74649415693E+007, +6.32750764345E+002, +3.33100190880E+003
+4.76317195326E+007, +7.32273254690E+002, +3.40043515318E+003
+4.77984974958E+007, +8.11280360476E+002, +3.54036066677E+003
+4.79652754591E+007, +8.75978632629E+002, +3.64582721407E+003
+4.81320534224E+007, +9.35654961748E+002, +3.72895427436E+003
+4.82988313856E+007, +9.38786511122E+002, +3.80626993735E+003
+4.84656093489E+007, +1.06911905368E+003, +3.90702200465E+003
+4.86323873122E+007, +1.11983062362E+003, +4.04306711487E+003
+4.87991652755E+007, +1.30284324509E+003, +4.16454462444E+003
+4.89659432387E+007, +1.41941362619E+003, +4.27929629521E+003
+4.91327212020E+007, +1.53124205231E+003, +4.50199168821E+003
+4.92994991653E+007, +1.70006991043E+003, +4.47963083876E+003
+4.94662771285E+007, +1.87899489419E+003, +4.69821874251E+003
+4.96330550918E+007, +2.07374471693E+003, +4.72178199679E+003
+4.97998330551E+007, +2.11540167166E+003, +4.76946093393E+003
+4.99666110184E+007, +2.39783544075E+003, +5.03265436912E+003
+5.01333889816E+007, +2.55549770429E+003, +5.04493567569E+003
+5.03001669449E+007, +2.75574811986E+003, +5.42978520054E+003
+5.04669449082E+007, +3.10429307256E+003, +5.55330351536E+003
+5.06337228715E+007, +3.53317849202E+003, +5.65544895955E+003
+5.08005008347E+007, +3.66775040054E+003, +5.87314932835E+003
+5.09672787980E+007, +4.17360841249E+003, +5.88368918238E+003
+5.11340567613E+007, +4.72945366219E+003, +6.17807380481E+003
+5.13008347245E+007, +5.19248820905E+003, +6.29720639991E+003
+5.14676126878E+007, +5.75575017328E+003, +6.48151925707E+003
+5.16343906511E+007, +6.62694365219E+003, +6.09976856476E+003
+5.18011686144E+007, +7.24379892090E+003, +6.26732951716E+003
+5.19679465776E+007, +8.14275955774E+003, +6.06718164851E+003
+5.21347245409E+007, +9.45703403985E+003, +5.16001488586E+003
+5.23015025042E+007, +1.03159569319E+004, +4.25414296126E+003
+5.24682804674E+007, +1.13916790865E+004, +4.23509213819E+003
+5.26350584307E+007, +1.13801752353E+004, +2.66853136968E+003
+5.28018363940E+007, +1.20707350820E+004, +1.86343393647E+003
+5.29686143573E+007, +1.19139612785E+004, +3.05315796423E+001
+5.31353923205E+007, +1.19919265207E+004, -8.36742568314E+002
+5.33021702838E+007, +1.12826572040E+004, -2.35743019303E+003
+5.34689482471E+007, +1.00861980142E+004, -3.24166869903E+003
