"# Channel 1"
"# Trace 1"
Frequency, Formatted Data, Formatted Data
+1.00000000000E+005, +8.85527291198E+000, +1.85895274291E+000
+2.66777963272E+005, +8.85161192763E+000, +4.96294860038E+000
+4.33555926544E+005, +8.84296766559E+000, +8.06636978570E+000
+6.00333889816E+005, +8.87723136080E+000, +1.11327799472E+001
+7.67111853088E+005, +8.89953298985E+000, +1.42562853071E+001
+9.33889816361E+005, +8.89785321721E+000, +1.73237340284E+001
+1.10066777963E+006, +8.86819583543E+000, +2.04399635182E+001
+1.26744574290E+006, +8.89339361002E+000, +2.34913894009E+001
+1.43422370618E+006, +8.85861575107E+000, +2.66459717994E+001
+1.60100166945E+006, +8.93044883843E+000, +2.96716350533E+001
+1.76777963272E+006, +8.91939371957E+000, +3.27612853357E+001
+1.93455759599E+006, +8.89750250407E+000, +3.58038210142E+001
+2.10133555927E+006, +8.96222350102E+000, +3.89000176870E+001
+2.26811352254E+006, +8.97108444540E+000, +4.20021560019E+001
+2.43489148581E+006, +8.96635569391E+000, +4.51675185529E+001
+2.60166944908E+006, +9.02773480561E+000, +4.81761585238E+001
+2.76844741235E+006, +8.93936522978E+000, +5.13305393247E+001
+2.93522537563E+006, +8.94946307340E+000, +5.44256147685E+001
+3.10200333890E+006, +9.13264752597E+000, +5.73623173446E+001
+3.26878130217E+006, +8.98546625842E+000, +6.06388755520E+001
+3.43555926544E+006, +9.03595677503E+000, +6.37034539517E+001
+3.60233722871E+006, +9.10421457928E+000, +6.68443248916E+001
+3.76911519199E+006, +9.13035540777E+000, +7.00815953232E+001
+3.93589315526E+006, +9.12069440339E+000, +7.29770701591E+001
+4.10267111853E+006, +8.82900886993E+000, +7.59440135673E+001
+4.26944908180E+006, +9.07160462000E+000, +7.96582681197E+001
+4.43622704508E+006, +9.15735950750E+000, +8.24558383805E+001
+4.60300500835E+006, +9.17763966629E+000, +8.57185017452E+001
+4.76978297162E+006, +9.21246356445E+000, +8.87565888889E+001
+4.93656093489E+006, +9.38584561437E+000, +9.19887827210E+001
+5.10333889816E+006, +9.35268325320E+000, +9.50245001635E+001
+5.27011686144E+006, +9.53977301493E+000, +9.83458283774E+001
+5.43689482471E+006, +9.35158792169E+000, +1.01528554186E+002
+5.60367278798E+006, +9.46922044358E+000, +1.04695671523E+002
+5.77045075125E+006, +9.45723438494E+000, +1.07658063573E+002
+5.93722871452E+006, +9.58576793786E+000, +1.10913649336E+002
+6.10400667780E+006, +9.69156053052E+000, +1.14110225507E+002
+6.27078464107E+006, +9.87956309901E+000, +1.17226291332E+002
+6.43756260434E+006, +9.88531294387E+000, +1.20413685616E+002
+6.60434056761E+006, +9.99463400022E+000, +1.23607457083E+002
+6.77111853088E+006, +1.01345284530E+001, +1.26656948665E+002
+6.93789649416E+006, +1.01144923005E+001, +1.29909781328E+002
+7.10467445743E+006, +1.00449848991E+001, +1.32996733911E+002
+7.27145242070E+006, +1.01435516980E+001, +1.36254279245E+002
+7.43823038397E+006, +1.03542715894E+001, +1.39374785025E+002
+7.60500834725E+006, +1.01741919959E+001, +1.42592527616E+002
+7.77178631052E+006, +1.03357125130E+001, +1.45946502562E+002
+7.93856427379E+006, +1.03740813191E+001, +1.48938874425E+002
+8.10534223706E+006, +1.04071459126E+001, +1.52146952838E+002
+8.27212020033E+006, +1.03533246602E+001, +1.55405528909E+002
+8.43889816361E+006, +1.03702158256E+001, +1.58639384361E+002
+8.60567612688E+006, +1.02073581285E+001, +1.62111110120E+002
+8.77245409015E+006, +1.03531140067E+001, +1.65153201101E+002
+8.93923205342E+006, +1.04488653178E+001, +1.68552973025E+002
+9.10601001669E+006, +1.04266165713E+001, +1.71881170392E+002
+9.27278797997E+006, +1.04355890780E+001, +1.75124926027E+002
+9.43956594324E+006, +1.05090130067E+001, +1.78511269149E+002
+9.60634390651E+006, +1.04565425381E+001, +1.81643701860E+002
+9.77312186978E+006, +1.04276968459E+001, +1.85167863300E+002
+9.93989983306E+006, +1.07487282447E+001, +1.88601328622E+002
+1.01066777963E+007, +1.04366593532E+001, +1.91718550015E+002
+1.02734557596E+007, +1.06362188701E+001, +1.95302899634E+002
+1.04402337229E+007, +1.05304004803E+001, +1.98532774829E+002
+1.06070116861E+007, +1.05579527555E+001, +2.01877940137E+002
+1.07737896494E+007, +1.07404169140E+001, +2.05580554285E+002
+1.09405676127E+007, +1.08404106921E+001, +2.08886563359E+002
+1.11073455760E+007, +1.07421438471E+001, +2.12443372144E+002
+1.12741235392E+007, +1.07283321711E+001, +2.15702030405E+002
+1.14409015025E+007, +1.09765483530E+001, +2.19064583585E+002
+1.16076794658E+007, +1.09866327997E+001, +2.22578763480E+002
+1.17744574290E+007, +1.12199165212E+001, +2.26018348924E+002
+1.19412353923E+007, +1.09317963407E+001, +2.29539883878E+002
+1.21080133556E+007, +1.09484519299E+001, +2.33230300527E+002
+1.22747913189E+007, +1.12311314695E+001, +2.36623365018E+002
+1.24415692821E+007, +1.06657668272E+001, +2.40033671302E+002
+1.26083472454E+007, +1.10984755857E+001, +2.43786955805E+002
+1.27751252087E+007, +1.11931349631E+001, +2.47049383758E+002
+1.29419031720E+007, +1.08426823958E+001, +2.50489806378E+002
+1.31086811352E+007, +1.13546332575E+001, +2.54335565595E+002
+1.32754590985E+007, +1.11861523331E+001, +2.57902075781E+002
+1.34422370618E+007, +1.13277459625E+001, +2.61539346232E+002
+1.36090150250E+007, +1.18278758727E+001, +2.65005474055E+002
+1.37757929883E+007, +1.16756447584E+001, +2.68791597063E+002
+1.39425709516E+007, +1.18616607864E+001, +2.72344489741E+002
+1.41093489149E+007, +1.20796835363E+001, +2.76003513104E+002
+1.42761268781E+007, +1.25230588075E+001, +2.79607706809E+002
+1.44429048414E+007, +1.23512840241E+001, +2.83107894493E+002
+1.46096828047E+007, +1.18789112954E+001, +2.86721556302E+002
+1.47764607679E+007, +1.22169799954E+001, +2.90559325270E+002
+1.49432387312E+007, +1.22436941147E+001, +2.94401190033E+002
+1.51100166945E+007, +1.20523892296E+001, +2.98038886627E+002
+1.52767946578E+007, +1.26743505866E+001, +3.02053120073E+002
+1.54435726210E+007, +1.26355815376E+001, +3.05475351243E+002
+1.56103505843E+007, +1.29085362921E+001, +3.09964614187E+002
+1.57771285476E+007, +1.31002113307E+001, +3.12927725798E+002
+1.59439065109E+007, +1.23534839099E+001, +3.17172041393E+002
+1.61106844741E+007, +1.29643712404E+001, +3.20972241072E+002
+1.62774624374E+007, +1.26101023276E+001, +3.24869717589E+002
+1.64442404007E+007, +1.27042346686E+001, +3.28675706639E+002
+1.66110183639E+007, +1.31643974367E+001, +3.32630406521E+002
+1.67777963272E+007, +1.29059159091E+001, +3.37068673765E+002
+1.69445742905E+007, +1.36759051795E+001, +3.40401665820E+002
+1.71113522538E+007, +1.16798941938E+001, +3.44251761653E+002
+1.72781302170E+007, +1.31102869879E+001, +3.49028981256E+002
+1.74449081803E+007, +1.29531781519E+001, +3.52086170238E+002
+1.76116861436E+007, +1.41008686982E+001, +3.56437811797E+002
+1.77784641068E+007, +1.34597663842E+001, +3.60035925027E+002
+1.79452420701E+007, +1.37605273611E+001, +3.64978501629E+002
+1.81120200334E+007, +1.45956917422E+001, +3.68107719012E+002
+1.82787979967E+007, +1.41238241714E+001, +3.72733874799E+002
+1.84455759599E+007, +1.49370751040E+001, +3.77104476947E+002
+1.86123539232E+007, +1.51341599995E+001, +3.80691242720E+002
+1.87791318865E+007, +1.45435907914E+001, +3.85947770481E+002
+1.89459098497E+007, +1.48129128449E+001, +3.89875976137E+002
+1.91126878130E+007, +1.49344029312E+001, +3.93296904984E+002
+1.92794657763E+007, +1.50128483550E+001, +3.98295856511E+002
+1.94462437396E+007, +1.60899107835E+001, +4.03043179584E+002
+1.96130217028E+007, +1.59014608655E+001, +4.06318528491E+002
+1.97797996661E+007, +1.62266596274E+001, +4.10885158157E+002
+1.99465776294E+007, +1.51218428560E+001, +4.14991303195E+002
+2.01133555927E+007, +1.50853035359E+001, +4.19550233647E+002
+2.02801335559E+007, +1.56190456557E+001, +4.24159803505E+002
+2.04469115192E+007, +1.64358728588E+001, +4.29124215261E+002
+2.06136894825E+007, +1.63022552472E+001, +4.33347441257E+002
+2.07804674457E+007, +1.70422510573E+001, +4.37650895130E+002
+2.09472454090E+007, +1.63277566300E+001, +4.43240710896E+002
+2.11140233723E+007, +1.71474265430E+001, +4.46719438877E+002
+2.12808013356E+007, +1.74234746061E+001, +4.52005439935E+002
+2.14475792988E+007, +1.76964241084E+001, +4.56722222655E+002
+2.16143572621E+007, +1.81188438582E+001, +4.60720326816E+002
+2.17811352254E+007, +1.76712377445E+001, +4.64612719179E+002
+2.19479131886E+007, +1.99396842640E+001, +4.69711373738E+002
+2.21146911519E+007, +1.96716727586E+001, +4.74434592593E+002
+2.22814691152E+007, +1.84181908563E+001, +4.79716707869E+002
+2.24482470785E+007, +1.93175174770E+001, +4.84831844754E+002
+2.26150250417E+007, +1.96299203909E+001, +4.89297957550E+002
+2.27818030050E+007, +2.09012238454E+001, +4.94376030062E+002
+2.29485809683E+007, +2.21547894138E+001, +4.98256265798E+002
+2.31153589316E+007, +2.10702348632E+001, +5.04986935777E+002
+2.32821368948E+007, +2.19728526824E+001, +5.08963193070E+002
+2.34489148581E+007, +2.19875163184E+001, +5.13224619415E+002
+2.36156928214E+007, +2.29623991843E+001, +5.19880034183E+002
+2.37824707846E+007, +2.34402864641E+001, +5.24831125084E+002
+2.39492487479E+007, +2.20292667106E+001, +5.28712117856E+002
+2.41160267112E+007, +2.33593881122E+001, +5.33225162953E+002
+2.42828046745E+007, +2.40776658473E+001, +5.38677814643E+002
+2.44495826377E+007, +2.50754067534E+001, +5.44316118505E+002
+2.46163606010E+007, +2.51492917919E+001, +5.48625699193E+002
+2.47831385643E+007, +2.40090839293E+001, +5.55142123986E+002
+2.49499165275E+007, +2.77662623309E+001, +5.59227192946E+002
+2.51166944908E+007, +2.70136307392E+001, +5.65085804254E+002
+2.52834724541E+007, +2.77555471268E+001, +5.69987489645E+002
+2.54502504174E+007, +2.91548839302E+001, +5.76388846545E+002
+2.56170283806E+007, +2.72615986176E+001, +5.80481624851E+002
+2.57838063439E+007, +2.91959683276E+001, +5.87760823198E+002
+2.59505843072E+007, +2.77037569780E+001, +5.94689082074E+002
+2.61173622705E+007, +2.90318888491E+001, +5.99196976065E+002
+2.62841402337E+007, +2.83812604259E+001, +6.03345938711E+002
+2.64509181970E+007, +2.94682207035E+001, +6.09622884714E+002
+2.66176961603E+007, +2.95396136461E+001, +6.16906549325E+002
+2.67844741235E+007, +3.27244960555E+001, +6.21895494142E+002
+2.69512520868E+007, +3.31115393800E+001, +6.27315937121E+002
+2.71180300501E+007, +3.25344571545E+001, +6.30634477185E+002
+2.72848080134E+007, +3.42281402663E+001, +6.38001413053E+002
+2.74515859766E+007, +3.30056379855E+001, +6.44444096941E+002
+2.76183639399E+007, +3.32408344725E+001, +6.49527447241E+002
+2.77851419032E+007, +3.32830939464E+001, +6.54516783583E+002
+2.79519198664E+007, +3.35831483681E+001, +6.64019153628E+002
+2.81186978297E+007, +3.57737596651E+001, +6.66849068606E+002
+2.82854757930E+007, +3.62760612999E+001, +6.72086659857E+002
+2.84522537563E+007, +3.22072964893E+001, +6.78062761792E+002
+2.86190317195E+007, +3.38058827966E+001, +6.85925693450E+002
+2.87858096828E+007, +3.88901815279E+001, +6.92825434439E+002
+2.89525876461E+007, +3.72952686468E+001, +6.96819412533E+002
+2.91193656093E+007, +3.45828477962E+001, +7.04642982201E+002
+2.92861435726E+007, +3.44254603189E+001, +7.10249219391E+002
+2.94529215359E+007, +3.53996199811E+001, +7.19105998720E+002
+2.96196994992E+007, +3.66690586893E+001, +7.25495985657E+002
+2.97864774624E+007, +3.80894456932E+001, +7.31538666306E+002
+2.99532554257E+007, +3.89689837236E+001, +7.40888731213E+002
+3.01200333890E+007, +3.87431988166E+001, +7.47446885013E+002
+3.02868113523E+007, +3.96210670362E+001, +7.53229927184E+002
+3.04535893155E+007, +3.74453056536E+001, +7.63767610690E+002
+3.06203672788E+007, +4.17481719384E+001, +7.71020906296E+002
+3.07871452421E+007, +3.85808046719E+001, +7.75521836322E+002
+3.09539232053E+007, +3.89945652527E+001, +7.85398296304E+002
+3.11207011686E+007, +3.98843793704E+001, +7.95945888925E+002
+3.12874791319E+007, +4.00265660012E+001, +7.97888581358E+002
+3.14542570952E+007, +4.21459979010E+001, +8.04848030947E+002
+3.16210350584E+007, +3.95447062330E+001, +8.19517744024E+002
+3.17878130217E+007, +3.91232667174E+001, +8.24879262121E+002
+3.19545909850E+007, +4.12041385837E+001, +8.30591339811E+002
+3.21213689482E+007, +3.97748214860E+001, +8.41778604578E+002
+3.22881469115E+007, +4.06652831230E+001, +8.48514602102E+002
+3.24549248748E+007, +4.23020997796E+001, +8.57781593254E+002
+3.26217028381E+007, +4.35532778948E+001, +8.66700718507E+002
+3.27884808013E+007, +4.10188686079E+001, +8.72343784659E+002
+3.29552587646E+007, +4.43395014315E+001, +8.83144187587E+002
+3.31220367279E+007, +4.74126948125E+001, +8.90762264938E+002
+3.32888146912E+007, +4.56815516570E+001, +9.04454091626E+002
+3.34555926544E+007, +4.31868371844E+001, +9.09355788146E+002
+3.36223706177E+007, +4.68575574666E+001, +9.22729851106E+002
+3.37891485810E+007, +4.70352574827E+001, +9.25684330222E+002
+3.39559265442E+007, +4.75149163859E+001, +9.42706659252E+002
+3.41227045075E+007, +5.04808588664E+001, +9.48521431602E+002
+3.42894824708E+007, +4.80403244350E+001, +9.57805085799E+002
+3.44562604341E+007, +5.07447957241E+001, +9.69894438381E+002
+3.46230383973E+007, +5.18056627300E+001, +9.81222799175E+002
+3.47898163606E+007, +5.07049217064E+001, +9.89838392007E+002
+3.49565943239E+007, +5.18101710475E+001, +1.00021609693E+003
+3.51233722871E+007, +5.36343922591E+001, +1.00721009799E+003
+3.52901502504E+007, +5.37184993302E+001, +1.01836441584E+003
+3.54569282137E+007, +5.31911265833E+001, +1.03248010719E+003
+3.56237061770E+007, +5.12580579874E+001, +1.04458176336E+003
+3.57904841402E+007, +5.36552759452E+001, +1.05592100589E+003
+3.59572621035E+007, +5.79242856852E+001, +1.06747871629E+003
+3.61240400668E+007, +5.48215685561E+001, +1.08185876727E+003
+3.62908180301E+007, +6.08425121723E+001, +1.09470082322E+003
+3.64575959933E+007, +6.04189936343E+001, +1.10521115960E+003
+3.66243739566E+007, +6.29856020281E+001, +1.11708657169E+003
+3.67911519199E+007, +6.95947742515E+001, +1.13501324305E+003
+3.69579298831E+007, +6.09142589988E+001, +1.14670497500E+003
+3.71247078464E+007, +6.46081911642E+001, +1.15946864472E+003
+3.72914858097E+007, +6.88513541342E+001, +1.17325460802E+003
+3.74582637730E+007, +7.49274362219E+001, +1.18995652147E+003
+3.76250417362E+007, +6.78621006149E+001, +1.20054706084E+003
+3.77918196995E+007, +7.55086518747E+001, +1.21071098451E+003
+3.79585976628E+007, +7.12338116386E+001, +1.22781621932E+003
+3.81253756260E+007, +7.91180357594E+001, +1.24329974002E+003
+3.82921535893E+007, +8.20771153253E+001, +1.25968782122E+003
+3.84589315526E+007, +8.54877711019E+001, +1.26990004852E+003
+3.86257095159E+007, +8.11482344893E+001, +1.28975140444E+003
+3.87924874791E+007, +7.93363449629E+001, +1.30821752768E+003
+3.89592654424E+007, +8.23577598623E+001, +1.32356383614E+003
+3.91260434057E+007, +8.52146469341E+001, +1.34647044153E+003
+3.92928213689E+007, +9.22078438965E+001, +1.35869103182E+003
+3.94595993322E+007, +8.86965285231E+001, +1.37934746335E+003
+3.96263772955E+007, +8.77897201405E+001, +1.39365681396E+003
+3.97931552588E+007, +8.91882328155E+001, +1.41242584086E+003
+3.99599332220E+007, +9.31953069995E+001, +1.43693544246E+003
+4.01267111853E+007, +1.03517377780E+002, +1.46049739400E+003
+4.02934891486E+007, +9.65901804582E+001, +1.47631313383E+003
+4.04602671119E+007, +1.09172118901E+002, +1.48801423717E+003
+4.06270450751E+007, +1.13579993968E+002, +1.50960961225E+003
+4.07938230384E+007, +1.21002268600E+002, +1.53574598475E+003
+4.09606010017E+007, +1.20100469299E+002, +1.55499885407E+003
+4.11273789649E+007, +1.19328061158E+002, +1.57497714223E+003
+4.12941569282E+007, +1.24601624850E+002, +1.60484980416E+003
+4.14609348915E+007, +1.30663884709E+002, +1.64248887872E+003
+4.16277128548E+007, +1.34540743832E+002, +1.64972726740E+003
+4.17944908180E+007, +1.32699760551E+002, +1.66965404885E+003
+4.19612687813E+007, +1.39027689335E+002, +1.69959528626E+003
+4.21280467446E+007, +1.43566916081E+002, +1.72946281378E+003
+4.22948247078E+007, +1.46414277729E+002, +1.76241162053E+003
+4.24616026711E+007, +1.67024463484E+002, +1.78283233696E+003
+4.26283806344E+007, +1.61748997954E+002, +1.81341496511E+003
+4.27951585977E+007, +1.42089206164E+002, +1.85887089172E+003
+4.29619365609E+007, +1.82511547752E+002, +1.87857619738E+003
+4.31287145242E+007, +1.91298128152E+002, +1.90869538870E+003
+4.32954924875E+007, +1.93855306101E+002, +1.92523289979E+003
+4.34622704508E+007, +1.77872660630E+002, +1.97765296036E+003
+4.36290484140E+007, +2.22620198274E+002, +1.99845281167E+003
+4.37958263773E+007, +2.17999700901E+002, +2.06890213635E+003
+4.39626043406E+007, +2.27298627535E+002, +2.08625064245E+003
+4.41293823038E+007, +2.62581635731E+002, +2.14061554947E+003
+4.42961602671E+007, +2.39838426148E+002, +2.16430545412E+003
+4.44629382304E+007, +2.31258767525E+002, +2.22571421119E+003
+4.46297161937E+007, +2.56091556974E+002, +2.25442809445E+003
+4.47964941569E+007, +2.65804216791E+002, +2.29942224912E+003
+4.49632721202E+007, +2.62002125745E+002, +2.36383093364E+003
+4.51300500835E+007, +2.89723664298E+002, +2.36336892601E+003
+4.52968280467E+007, +3.21133186108E+002, +2.44549964497E+003
+4.54636060100E+007, +3.60871264000E+002, +2.52462986894E+003
+4.56303839733E+007, +3.59596385137E+002, +2.58021284745E+003
+4.57971619366E+007, +3.63364463215E+002, +2.61105302842E+003
+4.59639398998E+007, +3.94333888653E+002, +2.72323294217E+003
+4.61307178631E+007, +4.17612279558E+002, +2.74997805961E+003
+4.62974958264E+007, +4.38722263381E+002, +2.80560510461E+003
+4.64642737896E+007, +4.47700680251E+002, +2.88045965903E+003
+4.66310517529E+007, +4.51779260883E+002, +2.96232784393E+003
+4.67978297162E+007, +5.51671521136E+002, +3.00799881627E+003
+4.69646076795E+007, +5.54720297796E+002, +3.14402667044E+003
+4.71313856427E+007, +6.09399001589E+002, +3.19742893106E+003
+4.72981636060E+007, +6.13803636614E+002, +3.36981965350E+003
+4.74649415693E+007, +6.55763643658E+002, +3.42048714930E+003
+4.76317195326E+007, +7.63277729698E+002, +3.50246367159E+003
+4.77984974958E+007, +8.35836061164E+002, +3.59308991389E+003
+4.79652754591E+007, +9.19482794029E+002, +3.66617755808E+003
+4.81320534224E+007, +9.48174751857E+002, +3.76781201899E+003
+4.82988313856E+007, +1.04044021373E+003, +3.95626460873E+003
+4.84656093489E+007, +1.20501902863E+003, +4.04881265963E+003
+4.86323873122E+007, +1.26772554600E+003, +4.14748656388E+003
+4.87991652755E+007, +1.39827313255E+003, +4.24527935726E+003
+4.89659432387E+007, +1.49635094521E+003, +4.37462359157E+003
+4.91327212020E+007, +1.64294264676E+003, +4.58316025247E+003
+4.92994991653E+007, +1.83288095332E+003, +4.59516885433E+003
+4.94662771285E+007, +2.05025119995E+003, +4.88385896670E+003
+4.96330550918E+007, +2.21318932379E+003, +4.93069775695E+003
+4.97998330551E+007, +2.39397181059E+003, +4.95700775123E+003
+4.99666110184E+007, +2.70138920943E+003, +5.16362626444E+003
+5.01333889816E+007, +2.73814446289E+003, +5.25922800014E+003
+5.03001669449E+007, +2.99933148416E+003, +5.45202101648E+003
+5.04669449082E+007, +3.52872667851E+003, +5.60713106057E+003
+5.06337228715E+007, +4.05131599987E+003, +5.69660311711E+003
+5.08005008347E+007, +3.96210800470E+003, +5.89301412769E+003
+5.09672787980E+007, +4.40254466202E+003, +6.03767477795E+003
+5.11340567613E+007, +5.13974608963E+003, +6.11370146513E+003
+5.13008347245E+007, +5.63790398160E+003, +6.65620261020E+003
+5.14676126878E+007, +6.30041448356E+003, +6.38236977619E+003
+5.16343906511E+007, +7.54185952752E+003, +6.05930843757E+003
+5.18011686144E+007, +8.20398080029E+003, +6.00966195841E+003
+5.19679465776E+007, +9.64189012075E+003, +5.83483696762E+003
+5.21347245409E+007, +1.00090525308E+004, +4.24404293828E+003
+5.23015025042E+007, +1.07037994807E+004, +3.50149076820E+003
+5.24682804674E+007, +1.15945078796E+004, +2.51220629504E+003
+5.26350584307E+007, +1.16524857018E+004, +1.01486256059E+003
+5.28018363940E+007, +1.24712370822E+004, -7.53865374510E+002
+5.29686143573E+007, +1.12209805659E+004, -1.60958371547E+003
+5.31353923205E+007, +1.08901080849E+004, -2.05777501095E+003
+5.33021702838E+007, +1.05984764245E+004, -3.25129619730E+003
+5.34689482471E+007, +9.48588370473E+003, -3.77467798207E+003
