"# Channel 1"
"# Trace 1"
Frequency, Formatted Data, Formatted Data
+1.00000000000E+006, +7.77880140755E+000, +1.86748909691E+001
+1.16527545910E+006, +7.79076915878E+000, +2.17640288162E+001
+1.33055091820E+006, +7.83751606545E+000, +2.47595375709E+001
+1.49582637730E+006, +7.81297237910E+000, +2.78462493968E+001
+1.66110183639E+006, +7.84788543472E+000, +3.09315262599E+001
+1.82637729549E+006, +7.81743868101E+000, +3.39324257290E+001
+1.99165275459E+006, +7.87923049071E+000, +3.70305789904E+001
+2.15692821369E+006, +7.84098579656E+000, +4.01004799458E+001
+2.32220367279E+006, +7.77725233490E+000, +4.31894821639E+001
+2.48747913189E+006, +7.84112936610E+000, +4.62293749616E+001
+2.65275459098E+006, +7.78074551990E+000, +4.93461724885E+001
+2.81803005008E+006, +7.80262894477E+000, +5.24158686689E+001
+2.98330550918E+006, +7.76552015917E+000, +5.53916794970E+001
+3.14858096828E+006, +7.87079502390E+000, +5.84424572028E+001
+3.31385642738E+006, +7.99592288270E+000, +6.15543148497E+001
+3.47913188648E+006, +7.81956164447E+000, +6.47422240982E+001
+3.64440734558E+006, +7.84805995157E+000, +6.77316590018E+001
+3.80968280467E+006, +7.95983828961E+000, +7.07849935133E+001
+3.97495826377E+006, +7.96704606394E+000, +7.38184976030E+001
+4.14023372287E+006, +8.10670210215E+000, +7.71857570568E+001
+4.30550918197E+006, +8.06357371900E+000, +7.98983275042E+001
+4.47078464107E+006, +7.95664485089E+000, +8.31409894931E+001
+4.63606010017E+006, +7.92134625519E+000, +8.61946707496E+001
+4.80133555927E+006, +7.91950183472E+000, +8.93718987317E+001
+4.96661101836E+006, +8.00214874145E+000, +9.22931434832E+001
+5.13188647746E+006, +8.04956796397E+000, +9.54816844175E+001
+5.29716193656E+006, +8.02572922399E+000, +9.84550159766E+001
+5.46243739566E+006, +8.16260140449E+000, +1.01683969225E+002
+5.62771285476E+006, +8.22239816975E+000, +1.04748135473E+002
+5.79298831386E+006, +8.36662437850E+000, +1.07987114617E+002
+5.95826377295E+006, +8.25215915064E+000, +1.10978592507E+002
+6.12353923205E+006, +8.54417800567E+000, +1.13883262876E+002
+6.28881469115E+006, +8.35730392161E+000, +1.17186261196E+002
+6.45409015025E+006, +8.61180359416E+000, +1.20237692617E+002
+6.61936560935E+006, +8.49293697543E+000, +1.23382975661E+002
+6.78464106845E+006, +8.59045471531E+000, +1.26474993723E+002
+6.94991652755E+006, +8.62679446330E+000, +1.29576930372E+002
+7.11519198664E+006, +8.80674466147E+000, +1.32655228171E+002
+7.28046744574E+006, +8.78099720885E+000, +1.35796750660E+002
+7.44574290484E+006, +8.87681707476E+000, +1.38842211293E+002
+7.61101836394E+006, +8.89705470185E+000, +1.41897090246E+002
+7.77629382304E+006, +8.99323358910E+000, +1.45074325240E+002
+7.94156928214E+006, +8.80782553830E+000, +1.48124326185E+002
+8.10684474124E+006, +8.81820543657E+000, +1.51018831212E+002
+8.27212020033E+006, +8.97829489318E+000, +1.54163833042E+002
+8.43739565943E+006, +9.12161468061E+000, +1.57477565494E+002
+8.60267111853E+006, +8.84468179208E+000, +1.60579229481E+002
+8.76794657763E+006, +9.11652659021E+000, +1.63642337945E+002
+8.93322203673E+006, +8.97359273819E+000, +1.66941186144E+002
+9.09849749583E+006, +9.10329182921E+000, +1.69794329474E+002
+9.26377295492E+006, +9.02597658237E+000, +1.73337127468E+002
+9.42904841402E+006, +9.12205491799E+000, +1.76165984642E+002
+9.59432387312E+006, +9.05864696516E+000, +1.79162509683E+002
+9.75959933222E+006, +9.06570652989E+000, +1.82430357042E+002
+9.92487479132E+006, +9.16910763511E+000, +1.85563707925E+002
+1.00901502504E+007, +9.20238208369E+000, +1.88789450604E+002
+1.02554257095E+007, +9.02345382316E+000, +1.91775430063E+002
+1.04207011686E+007, +9.10342114487E+000, +1.94858996956E+002
+1.05859766277E+007, +9.07121779956E+000, +1.98484899377E+002
+1.07512520868E+007, +9.10964324761E+000, +2.01244639365E+002
+1.09165275459E+007, +9.25393997967E+000, +2.04435548938E+002
+1.10818030050E+007, +9.28936550659E+000, +2.08060912377E+002
+1.12470784641E+007, +9.26272413382E+000, +2.10797409320E+002
+1.14123539232E+007, +9.45675288372E+000, +2.13912860123E+002
+1.15776293823E+007, +9.65964249609E+000, +2.17312456524E+002
+1.17429048414E+007, +9.44848619820E+000, +2.20392486362E+002
+1.19081803005E+007, +9.40368346688E+000, +2.23783475042E+002
+1.20734557596E+007, +9.45798102743E+000, +2.26980673108E+002
+1.22387312187E+007, +9.10734142335E+000, +2.29994814193E+002
+1.24040066778E+007, +9.51823964925E+000, +2.33229827993E+002
+1.25692821369E+007, +9.44212724316E+000, +2.36436222117E+002
+1.27345575960E+007, +9.48625803717E+000, +2.39493940746E+002
+1.28998330551E+007, +9.54211251809E+000, +2.42814336808E+002
+1.30651085142E+007, +9.43771884474E+000, +2.45703497399E+002
+1.32303839733E+007, +1.00314816908E+001, +2.49382756647E+002
+1.33956594324E+007, +9.56980171683E+000, +2.52899087410E+002
+1.35609348915E+007, +9.87680652598E+000, +2.55694187354E+002
+1.37262103506E+007, +9.61313155193E+000, +2.58628002637E+002
+1.38914858097E+007, +1.00825895731E+001, +2.61772861347E+002
+1.40567612688E+007, +9.92466725993E+000, +2.65055769564E+002
+1.42220367279E+007, +9.49204371562E+000, +2.68570488788E+002
+1.43873121870E+007, +9.74532983743E+000, +2.72247485149E+002
+1.45525876461E+007, +1.00138510271E+001, +2.75378514270E+002
+1.47178631052E+007, +9.96205924502E+000, +2.78614385107E+002
+1.48831385643E+007, +9.87733533352E+000, +2.81557902764E+002
+1.50484140234E+007, +9.92109957823E+000, +2.84961512325E+002
+1.52136894825E+007, +9.84365625074E+000, +2.88345743048E+002
+1.53789649416E+007, +9.72332689881E+000, +2.91943681605E+002
+1.55442404007E+007, +1.02633383352E+001, +2.94918967616E+002
+1.57095158598E+007, +9.96282305127E+000, +2.98245990102E+002
+1.58747913189E+007, +1.07022245342E+001, +3.01631842765E+002
+1.60400667780E+007, +1.02187047840E+001, +3.04591398727E+002
+1.62053422371E+007, +1.02257061921E+001, +3.07933564095E+002
+1.63706176962E+007, +1.03796999488E+001, +3.11124935182E+002
+1.65358931553E+007, +1.04891757669E+001, +3.14465069971E+002
+1.67011686144E+007, +1.08910156319E+001, +3.17728218258E+002
+1.68664440735E+007, +1.06224039121E+001, +3.20854589119E+002
+1.70317195326E+007, +9.72064745598E+000, +3.24724677145E+002
+1.71969949917E+007, +9.52027914213E+000, +3.28479029553E+002
+1.73622704508E+007, +9.99140694689E+000, +3.31722604385E+002
+1.75275459098E+007, +9.94218804262E+000, +3.34464274902E+002
+1.76928213689E+007, +1.02447091006E+001, +3.38562458843E+002
+1.78580968280E+007, +1.06831618421E+001, +3.42238731634E+002
+1.80233722871E+007, +1.06238203011E+001, +3.44779861389E+002
+1.81886477462E+007, +1.07445099431E+001, +3.48686969703E+002
+1.83539232053E+007, +1.13103972062E+001, +3.51925034743E+002
+1.85191986644E+007, +1.14708943118E+001, +3.55885883691E+002
+1.86844741235E+007, +1.06172262376E+001, +3.58006952111E+002
+1.88497495826E+007, +1.05733004234E+001, +3.61991706449E+002
+1.90150250417E+007, +1.07102565075E+001, +3.65954277968E+002
+1.91803005008E+007, +1.13069784212E+001, +3.68784437438E+002
+1.93455759599E+007, +1.13606566327E+001, +3.72160907177E+002
+1.95108514190E+007, +1.21221845080E+001, +3.75974961978E+002
+1.96761268781E+007, +1.16950512145E+001, +3.79606354063E+002
+1.98414023372E+007, +1.18663326614E+001, +3.82601137559E+002
+2.00066777963E+007, +1.08594017214E+001, +3.86172996525E+002
+2.01719532554E+007, +1.20695341645E+001, +3.89889236338E+002
+2.03372287145E+007, +1.21729098069E+001, +3.94337857520E+002
+2.05025041736E+007, +1.16830272842E+001, +3.97082353187E+002
+2.06677796327E+007, +1.25360487503E+001, +4.00987652758E+002
+2.08330550918E+007, +1.18631779514E+001, +4.04266602566E+002
+2.09983305509E+007, +1.23836859715E+001, +4.08374580844E+002
+2.11636060100E+007, +1.17107860138E+001, +4.11416070689E+002
+2.13288814691E+007, +1.22811572266E+001, +4.14683944898E+002
+2.14941569282E+007, +1.19160605896E+001, +4.18465756734E+002
+2.16594323873E+007, +1.24999733891E+001, +4.22334676653E+002
+2.18247078464E+007, +1.23841190087E+001, +4.25581425764E+002
+2.19899833055E+007, +1.21952735622E+001, +4.29921902282E+002
+2.21552587646E+007, +1.21207421157E+001, +4.32240877236E+002
+2.23205342237E+007, +1.31216970536E+001, +4.36618818845E+002
+2.24858096828E+007, +1.25910699709E+001, +4.40107436933E+002
+2.26510851419E+007, +1.36214078617E+001, +4.43321704627E+002
+2.28163606010E+007, +1.34587450035E+001, +4.48119149034E+002
+2.29816360601E+007, +1.25078019801E+001, +4.50551790766E+002
+2.31469115192E+007, +1.47007361460E+001, +4.55419116076E+002
+2.33121869783E+007, +1.45956080791E+001, +4.58778709547E+002
+2.34774624374E+007, +1.58063607461E+001, +4.62060893189E+002
+2.36427378965E+007, +1.49850423880E+001, +4.65703287199E+002
+2.38080133556E+007, +1.53010627279E+001, +4.69716032431E+002
+2.39732888147E+007, +1.55619627376E+001, +4.74037959786E+002
+2.41385642738E+007, +1.62193906830E+001, +4.77426045342E+002
+2.43038397329E+007, +1.50276381219E+001, +4.81530724232E+002
+2.44691151920E+007, +1.57407789887E+001, +4.84278561346E+002
+2.46343906511E+007, +1.50042272874E+001, +4.88295704740E+002
+2.47996661102E+007, +1.56905869174E+001, +4.92186149490E+002
+2.49649415693E+007, +1.68868144018E+001, +4.96491766861E+002
+2.51302170284E+007, +1.61884643344E+001, +4.99370377623E+002
+2.52954924875E+007, +1.73891912284E+001, +5.03005204678E+002
+2.54607679466E+007, +1.67035734928E+001, +5.06538762977E+002
+2.56260434057E+007, +1.64417616049E+001, +5.10216010992E+002
+2.57913188648E+007, +1.69406318764E+001, +5.13442725055E+002
+2.59565943239E+007, +1.76505680997E+001, +5.16475103888E+002
+2.61218697830E+007, +1.72162586087E+001, +5.22030870490E+002
+2.62871452421E+007, +1.82757809753E+001, +5.25566316699E+002
+2.64524207012E+007, +1.65494897981E+001, +5.30041671994E+002
+2.66176961603E+007, +1.76154489715E+001, +5.32943815305E+002
+2.67829716194E+007, +1.69414271823E+001, +5.35861709064E+002
+2.69482470785E+007, +1.64607069133E+001, +5.41517975248E+002
+2.71135225376E+007, +1.74038021908E+001, +5.45772816504E+002
+2.72787979967E+007, +1.87749472301E+001, +5.49699888933E+002
+2.74440734558E+007, +1.92084371034E+001, +5.52368066012E+002
+2.76093489149E+007, +1.87499969332E+001, +5.56049685102E+002
+2.77746243740E+007, +1.79832421773E+001, +5.59610243437E+002
+2.79398998331E+007, +1.74142023753E+001, +5.64938289934E+002
+2.81051752922E+007, +2.03527238649E+001, +5.68163143129E+002
+2.82704507513E+007, +1.73453742120E+001, +5.73586391252E+002
+2.84357262104E+007, +1.90759081096E+001, +5.76935367506E+002
+2.86010016694E+007, +1.77590160299E+001, +5.82354010341E+002
+2.87662771285E+007, +1.86627820915E+001, +5.85491997756E+002
+2.89315525876E+007, +1.86784656668E+001, +5.89343581116E+002
+2.90968280467E+007, +1.97996069168E+001, +5.95016635747E+002
+2.92621035058E+007, +1.83717542349E+001, +5.97407847834E+002
+2.94273789649E+007, +1.83932269068E+001, +6.02985386722E+002
+2.95926544240E+007, +1.62428416925E+001, +6.05868702254E+002
+2.97579298831E+007, +1.87081605627E+001, +6.12152298013E+002
+2.99232053422E+007, +1.91849173449E+001, +6.15477407169E+002
+3.00884808013E+007, +1.94746934080E+001, +6.20644571779E+002
+3.02537562604E+007, +1.84856999908E+001, +6.22226117269E+002
+3.04190317195E+007, +2.05771458087E+001, +6.28271198721E+002
+3.05843071786E+007, +1.92644025483E+001, +6.31527860675E+002
+3.07495826377E+007, +1.69776450356E+001, +6.36467457006E+002
+3.09148580968E+007, +1.79993405023E+001, +6.42836988719E+002
+3.10801335559E+007, +2.02465761421E+001, +6.47345945589E+002
+3.12454090150E+007, +1.82603891058E+001, +6.50373622483E+002
+3.14106844741E+007, +1.92623185174E+001, +6.55618102235E+002
+3.15759599332E+007, +2.04447454990E+001, +6.59582438272E+002
+3.17412353923E+007, +1.95857437208E+001, +6.64311508199E+002
+3.19065108514E+007, +1.98559343641E+001, +6.70678508662E+002
+3.20717863105E+007, +1.79321241991E+001, +6.72040004192E+002
+3.22370617696E+007, +1.99714197973E+001, +6.75393361107E+002
+3.24023372287E+007, +1.77009426448E+001, +6.82619040021E+002
+3.25676126878E+007, +1.99848262184E+001, +6.87983877366E+002
+3.27328881469E+007, +1.90561518553E+001, +6.91775931314E+002
+3.28981636060E+007, +1.86587121314E+001, +6.95291891488E+002
+3.30634390651E+007, +2.01428156615E+001, +7.00104011036E+002
+3.32287145242E+007, +1.70272589408E+001, +7.09845914791E+002
+3.33939899833E+007, +1.87866953031E+001, +7.12792837921E+002
+3.35592654424E+007, +2.03063376511E+001, +7.19172777488E+002
+3.37245409015E+007, +1.97423123435E+001, +7.22073984398E+002
+3.38898163606E+007, +1.84645848258E+001, +7.28093914104E+002
+3.40550918197E+007, +1.91300350154E+001, +7.33500710964E+002
+3.42203672788E+007, +1.83423461253E+001, +7.35880817560E+002
+3.43856427379E+007, +1.97484961832E+001, +7.43073220429E+002
+3.45509181970E+007, +1.93008734995E+001, +7.47608704830E+002
+3.47161936561E+007, +1.96366454143E+001, +7.50685994141E+002
+3.48814691152E+007, +2.15107517700E+001, +7.56090947429E+002
+3.50467445743E+007, +2.06053967367E+001, +7.62974751741E+002
+3.52120200334E+007, +2.40903818385E+001, +7.65616477555E+002
+3.53772954925E+007, +2.07863636293E+001, +7.73281847697E+002
+3.55425709516E+007, +2.11529146917E+001, +7.78973492671E+002
+3.57078464107E+007, +2.11235583492E+001, +7.82532344389E+002
+3.58731218698E+007, +2.32759421718E+001, +7.88105291320E+002
+3.60383973289E+007, +2.08506660327E+001, +7.95829762560E+002
+3.62036727880E+007, +2.04122900738E+001, +8.01216329133E+002
+3.63689482471E+007, +2.39530479369E+001, +8.04880304905E+002
+3.65342237062E+007, +2.23555553971E+001, +8.13730223055E+002
+3.66994991653E+007, +2.01549550277E+001, +8.21306202805E+002
+3.68647746244E+007, +2.72487349595E+001, +8.22444441841E+002
+3.70300500835E+007, +2.07061899131E+001, +8.29230639874E+002
+3.71953255426E+007, +2.32448961350E+001, +8.38517855909E+002
+3.73606010017E+007, +2.48118889580E+001, +8.43048604501E+002
+3.75258764608E+007, +2.46707804148E+001, +8.52391944005E+002
+3.76911519199E+007, +2.27524686027E+001, +8.53589146770E+002
+3.78564273790E+007, +2.17765843287E+001, +8.60639469664E+002
+3.80217028381E+007, +2.49132688372E+001, +8.67366678415E+002
+3.81869782972E+007, +2.26693159346E+001, +8.71456401644E+002
+3.83522537563E+007, +2.60849608541E+001, +8.79170050950E+002
+3.85175292154E+007, +2.42402679425E+001, +8.82432886487E+002
+3.86828046745E+007, +2.30651284087E+001, +8.92592730524E+002
+3.88480801336E+007, +2.84095549855E+001, +8.98500926085E+002
+3.90133555927E+007, +2.69321044528E+001, +9.04792717757E+002
+3.91786310518E+007, +2.75361500867E+001, +9.16261828118E+002
+3.93439065109E+007, +2.67295377400E+001, +9.19276984306E+002
+3.95091819699E+007, +3.25213538713E+001, +9.21930505936E+002
+3.96744574290E+007, +3.14384116682E+001, +9.29530894552E+002
+3.98397328881E+007, +2.87959221773E+001, +9.36561937560E+002
+4.00050083472E+007, +2.82474167115E+001, +9.49234888622E+002
+4.01702838063E+007, +2.58257696863E+001, +9.52243862473E+002
+4.03355592654E+007, +3.27302825338E+001, +9.59840595446E+002
+4.05008347245E+007, +3.17869562831E+001, +9.68743136729E+002
+4.06661101836E+007, +2.88924423280E+001, +9.72171847437E+002
+4.08313856427E+007, +2.82918677731E+001, +9.85699584311E+002
+4.09966611018E+007, +2.74224948597E+001, +9.87016460112E+002
+4.11619365609E+007, +3.59715202939E+001, +9.96355060553E+002
+4.13272120200E+007, +3.16021722429E+001, +1.00151487113E+003
+4.14924874791E+007, +2.95434037353E+001, +1.00923399140E+003
+4.16577629382E+007, +3.04635911924E+001, +1.01947239696E+003
+4.18230383973E+007, +3.03631189625E+001, +1.02474843014E+003
+4.19883138564E+007, +2.94251007691E+001, +1.03211821222E+003
+4.21535893155E+007, +3.32178354733E+001, +1.04042252856E+003
+4.23188647746E+007, +3.68559554832E+001, +1.05028806432E+003
+4.24841402337E+007, +3.29429532059E+001, +1.06530840943E+003
+4.26494156928E+007, +2.99773846613E+001, +1.06828510597E+003
+4.28146911519E+007, +3.46249250105E+001, +1.07483288092E+003
+4.29799666110E+007, +3.53305647303E+001, +1.08613806827E+003
+4.31452420701E+007, +3.26536075539E+001, +1.10060962474E+003
+4.33105175292E+007, +3.84365751668E+001, +1.10352611344E+003
+4.34757929883E+007, +3.71747584333E+001, +1.11184041703E+003
+4.36410684474E+007, +3.09046251312E+001, +1.12040122341E+003
+4.38063439065E+007, +3.38178294024E+001, +1.13481838441E+003
+4.39716193656E+007, +4.85892276456E+001, +1.14036977627E+003
+4.41368948247E+007, +3.96146331794E+001, +1.15552627711E+003
+4.43021702838E+007, +3.76253609646E+001, +1.16006648506E+003
+4.44674457429E+007, +3.93304705545E+001, +1.18264674219E+003
+4.46327212020E+007, +4.57992387434E+001, +1.18550965242E+003
+4.47979966611E+007, +3.91570500270E+001, +1.19244676675E+003
+4.49632721202E+007, +4.57434403177E+001, +1.20897688174E+003
+4.51285475793E+007, +4.37561789405E+001, +1.21657532300E+003
+4.52938230384E+007, +4.71721945306E+001, +1.23537043913E+003
+4.54590984975E+007, +4.30202825183E+001, +1.22995716919E+003
+4.56243739566E+007, +5.01027353497E+001, +1.25266089733E+003
+4.57896494157E+007, +5.54982803405E+001, +1.25242272388E+003
+4.59549248748E+007, +4.18499948891E+001, +1.27889059557E+003
+4.61202003339E+007, +5.39456954264E+001, +1.29038013064E+003
+4.62854757930E+007, +5.84090668833E+001, +1.30402557627E+003
+4.64507512521E+007, +6.10074724485E+001, +1.31136151088E+003
+4.66160267112E+007, +6.10425003060E+001, +1.33189998102E+003
+4.67813021703E+007, +6.33819519521E+001, +1.33916609171E+003
+4.69465776294E+007, +6.65000533298E+001, +1.34914809609E+003
+4.71118530885E+007, +6.68399262607E+001, +1.36748043579E+003
+4.72771285476E+007, +7.77688827658E+001, +1.39298766086E+003
+4.74424040067E+007, +7.80178483264E+001, +1.40458740006E+003
+4.76076794658E+007, +7.54130939852E+001, +1.41185232260E+003
+4.77729549249E+007, +8.97249665142E+001, +1.42473352800E+003
+4.79382303840E+007, +8.31372537073E+001, +1.44346843136E+003
+4.81035058431E+007, +9.82854097592E+001, +1.45981358089E+003
+4.82687813022E+007, +9.87627913615E+001, +1.46860238855E+003
+4.84340567613E+007, +1.03318306741E+002, +1.49532954674E+003
+4.85993322204E+007, +1.12449144936E+002, +1.50674560258E+003
+4.87646076795E+007, +1.18444977713E+002, +1.52359442863E+003
+4.89298831386E+007, +1.22155800861E+002, +1.52381260720E+003
+4.90951585977E+007, +1.19114949936E+002, +1.53384478450E+003
+4.92604340568E+007, +1.28835291518E+002, +1.56230301352E+003
+4.94257095159E+007, +1.51264358627E+002, +1.56849246257E+003
+4.95909849750E+007, +1.49138640713E+002, +1.58975253299E+003
+4.97562604341E+007, +1.55306311625E+002, +1.59665205773E+003
+4.99215358932E+007, +1.48149957391E+002, +1.61991446156E+003
+5.00868113523E+007, +1.61966423671E+002, +1.63842925051E+003
+5.02520868114E+007, +1.78253301220E+002, +1.65697301670E+003
+5.04173622705E+007, +1.71869688507E+002, +1.67055399555E+003
+5.05826377295E+007, +1.75645910433E+002, +1.66240340434E+003
+5.07479131886E+007, +1.87264680284E+002, +1.68832243755E+003
+5.09131886477E+007, +1.80897076600E+002, +1.70224782615E+003
+5.10784641068E+007, +1.98887521269E+002, +1.71961941806E+003
+5.12437395659E+007, +1.91696322651E+002, +1.73550969931E+003
+5.14090150250E+007, +2.00374004941E+002, +1.76084485941E+003
+5.15742904841E+007, +2.01823028394E+002, +1.79092675195E+003
+5.17395659432E+007, +2.08343840165E+002, +1.79501471224E+003
+5.19048414023E+007, +2.12886116654E+002, +1.81429456581E+003
+5.20701168614E+007, +2.11811909461E+002, +1.83215953105E+003
+5.22353923205E+007, +2.17686400909E+002, +1.86298882197E+003
+5.24006677796E+007, +2.17607275753E+002, +1.86281106508E+003
+5.25659432387E+007, +2.13780949954E+002, +1.89972954950E+003
+5.27312186978E+007, +2.47444073682E+002, +1.94423649576E+003
+5.28964941569E+007, +2.32267398435E+002, +1.97828071276E+003
+5.30617696160E+007, +2.23172887191E+002, +2.00140240024E+003
+5.32270450751E+007, +2.43372126967E+002, +2.00860411746E+003
+5.33923205342E+007, +2.46191070160E+002, +2.07816344525E+003
+5.35575959933E+007, +2.60340833604E+002, +2.11096317732E+003
+5.37228714524E+007, +2.67000269146E+002, +2.15173297949E+003
+5.38881469115E+007, +2.77904828507E+002, +2.16205854809E+003
