"# Channel 1"
"# Trace 1"
Frequency, Formatted Data, Formatted Data
+1.00000000000E+005, +6.00454139004E+000, +2.02280845988E+000
+2.25031289111E+005, +5.96115477124E+000, +4.50129941302E+000
+3.50062578223E+005, +5.98361379862E+000, +7.04611822020E+000
+4.75093867334E+005, +6.00508272193E+000, +9.51109439181E+000
+6.00125156446E+005, +5.98179862372E+000, +1.19956342575E+001
+7.25156445557E+005, +5.98727468362E+000, +1.45407979537E+001
+8.50187734668E+005, +5.97391046165E+000, +1.69914810317E+001
+9.75219023780E+005, +6.00338109148E+000, +1.94633515595E+001
+1.10025031289E+006, +5.98699656439E+000, +2.19453835249E+001
+1.22528160200E+006, +5.99909385776E+000, +2.44455991565E+001
+1.35031289111E+006, +5.98340572298E+000, +2.69382164314E+001
+1.47534418023E+006, +6.03716741419E+000, +2.94402118046E+001
+1.60037546934E+006, +6.03812690489E+000, +3.18756793402E+001
+1.72540675845E+006, +6.00838946794E+000, +3.43915400577E+001
+1.85043804756E+006, +6.06042557256E+000, +3.68810318006E+001
+1.97546933667E+006, +6.05312096177E+000, +3.94159112587E+001
+2.10050062578E+006, +6.03178700233E+000, +4.18155525138E+001
+2.22553191489E+006, +6.02924658566E+000, +4.42613871152E+001
+2.35056320401E+006, +6.06721075235E+000, +4.68380090218E+001
+2.47559449312E+006, +6.04591507210E+000, +4.92428564018E+001
+2.60062578223E+006, +5.99296052289E+000, +5.17109601456E+001
+2.72565707134E+006, +6.03429749862E+000, +5.42702575837E+001
+2.85068836045E+006, +6.02227546015E+000, +5.66999146323E+001
+2.97571964956E+006, +6.12755737491E+000, +5.92625594113E+001
+3.10075093867E+006, +6.01090018390E+000, +6.17535975164E+001
+3.22578222778E+006, +6.08275951528E+000, +6.43074702762E+001
+3.35081351690E+006, +6.14224457586E+000, +6.67507086602E+001
+3.47584480601E+006, +6.14910275481E+000, +6.92136637422E+001
+3.60087609512E+006, +6.12603465577E+000, +7.18055976753E+001
+3.72590738423E+006, +6.09543456559E+000, +7.42390822587E+001
+3.85093867334E+006, +6.11582384283E+000, +7.68019774664E+001
+3.97596996245E+006, +6.17285698626E+000, +7.91007714907E+001
+4.10100125156E+006, +6.20769882480E+000, +8.18258528760E+001
+4.22603254068E+006, +6.10102618428E+000, +8.42076084817E+001
+4.35106382979E+006, +6.06965575722E+000, +8.66076681258E+001
+4.47609511890E+006, +6.01556638936E+000, +8.91857332914E+001
+4.60112640801E+006, +6.03491657526E+000, +9.16910923962E+001
+4.72615769712E+006, +6.22423998876E+000, +9.41981267961E+001
+4.85118898623E+006, +6.16404113509E+000, +9.66245257856E+001
+4.97622027534E+006, +6.14147038173E+000, +9.92121096994E+001
+5.10125156446E+006, +6.39315485192E+000, +1.01765920102E+002
+5.22628285357E+006, +6.37321211744E+000, +1.04250304009E+002
+5.35131414268E+006, +6.12294001240E+000, +1.06754594763E+002
+5.47634543179E+006, +6.21456981678E+000, +1.09176811077E+002
+5.60137672090E+006, +6.23173299102E+000, +1.11837148369E+002
+5.72640801001E+006, +6.32126010465E+000, +1.14338190899E+002
+5.85143929912E+006, +6.43649883116E+000, +1.16778646885E+002
+5.97647058824E+006, +6.51148064203E+000, +1.19312240537E+002
+6.10150187735E+006, +6.43500384919E+000, +1.21660287667E+002
+6.22653316646E+006, +6.48020560241E+000, +1.24418156994E+002
+6.35156445557E+006, +6.50763123238E+000, +1.26860069756E+002
+6.47659574468E+006, +6.52566724110E+000, +1.29359751906E+002
+6.60162703379E+006, +6.59186247643E+000, +1.31912211888E+002
+6.72665832290E+006, +6.58977062397E+000, +1.34428109919E+002
+6.85168961202E+006, +6.64250128327E+000, +1.36821891600E+002
+6.97672090113E+006, +6.63472529367E+000, +1.39395967674E+002
+7.10175219024E+006, +6.75806178912E+000, +1.41967272313E+002
+7.22678347935E+006, +6.81490795247E+000, +1.44462106684E+002
+7.35181476846E+006, +6.76899501661E+000, +1.47045856150E+002
+7.47684605757E+006, +6.82691272425E+000, +1.49392569278E+002
+7.60187734668E+006, +6.87025598866E+000, +1.52107226824E+002
+7.72690863579E+006, +6.99000166216E+000, +1.54551457452E+002
+7.85193992491E+006, +6.73003093196E+000, +1.57093349016E+002
+7.97697121402E+006, +6.83436166700E+000, +1.59604474004E+002
+8.10200250313E+006, +7.09746124379E+000, +1.62103185240E+002
+8.22703379224E+006, +7.10600485689E+000, +1.64849087127E+002
+8.35206508135E+006, +7.07590664046E+000, +1.67080932283E+002
+8.47709637046E+006, +7.05683319227E+000, +1.69848768650E+002
+8.60212765957E+006, +7.12086952895E+000, +1.72281185593E+002
+8.72715894869E+006, +7.05003262353E+000, +1.74729350873E+002
+8.85219023780E+006, +7.20811780443E+000, +1.77176093844E+002
+8.97722152691E+006, +7.27634953423E+000, +1.79939676044E+002
+9.10225281602E+006, +7.34889585790E+000, +1.82289109270E+002
+9.22728410513E+006, +7.17241287428E+000, +1.84814665211E+002
+9.35231539424E+006, +7.30528989350E+000, +1.87380782791E+002
+9.47734668335E+006, +7.32698020829E+000, +1.90105323457E+002
+9.60237797247E+006, +7.18560095566E+000, +1.92687803951E+002
+9.72740926158E+006, +7.36768676477E+000, +1.95100900856E+002
+9.85244055069E+006, +7.43047424494E+000, +1.97507549983E+002
+9.97747183980E+006, +7.25318602500E+000, +2.00259329296E+002
+1.01025031289E+007, +7.18922674617E+000, +2.02646818400E+002
+1.02275344180E+007, +7.48933548249E+000, +2.05460860786E+002
+1.03525657071E+007, +7.29738813284E+000, +2.07744552098E+002
+1.04775969962E+007, +7.28724976173E+000, +2.10505904761E+002
+1.06026282854E+007, +7.55534050483E+000, +2.12884904016E+002
+1.07276595745E+007, +7.72079125906E+000, +2.15687661614E+002
+1.08526908636E+007, +7.36712955308E+000, +2.18123322706E+002
+1.09777221527E+007, +7.57581688163E+000, +2.20556137693E+002
+1.11027534418E+007, +7.38554238873E+000, +2.23319209277E+002
+1.12277847309E+007, +7.35691647347E+000, +2.25885355387E+002
+1.13528160200E+007, +7.36673122980E+000, +2.28189025648E+002
+1.14778473091E+007, +7.95950291867E+000, +2.30767751526E+002
+1.16028785982E+007, +7.45626757571E+000, +2.32936219342E+002
+1.17279098874E+007, +7.71471100047E+000, +2.36347409829E+002
+1.18529411765E+007, +7.54021005446E+000, +2.38524964292E+002
+1.19779724656E+007, +7.31536393619E+000, +2.40891604300E+002
+1.21030037547E+007, +7.42271722755E+000, +2.43225023045E+002
+1.22280350438E+007, +7.81379250933E+000, +2.46562295837E+002
+1.23530663329E+007, +8.08742382441E+000, +2.48753527866E+002
+1.24780976220E+007, +7.83122337658E+000, +2.51434482464E+002
+1.26031289111E+007, +7.81672915191E+000, +2.53851003665E+002
+1.27281602003E+007, +7.71679746016E+000, +2.56348215663E+002
+1.28531914894E+007, +7.77931285891E+000, +2.58622174165E+002
+1.29782227785E+007, +7.74438590524E+000, +2.61496695075E+002
+1.31032540676E+007, +8.05880845874E+000, +2.64641941648E+002
+1.32282853567E+007, +8.22556258181E+000, +2.66900347509E+002
+1.33533166458E+007, +8.30129252377E+000, +2.69526237275E+002
+1.34783479349E+007, +7.84900658908E+000, +2.72047461440E+002
+1.36033792240E+007, +7.87352363143E+000, +2.74663951604E+002
+1.37284105131E+007, +7.96524661586E+000, +2.77423398344E+002
+1.38534418023E+007, +8.01567467746E+000, +2.80271881281E+002
+1.39784730914E+007, +8.52227865939E+000, +2.82701764090E+002
+1.41035043805E+007, +8.15395458494E+000, +2.85579393508E+002
+1.42285356696E+007, +8.27401553530E+000, +2.88084957926E+002
+1.43535669587E+007, +8.60333426212E+000, +2.90567977037E+002
+1.44785982478E+007, +8.71849034404E+000, +2.93273795298E+002
+1.46036295369E+007, +8.58329077452E+000, +2.95923788767E+002
+1.47286608260E+007, +7.99794728218E+000, +2.98221278599E+002
+1.48536921151E+007, +8.06501676476E+000, +3.00888115536E+002
+1.49787234043E+007, +8.59777459920E+000, +3.03700899272E+002
+1.51037546934E+007, +8.25278839299E+000, +3.06549039814E+002
+1.52287859825E+007, +8.64745108834E+000, +3.09639504378E+002
+1.53538172716E+007, +8.05394069094E+000, +3.11238113947E+002
+1.54788485607E+007, +8.59779865012E+000, +3.14339805325E+002
+1.56038798498E+007, +8.34776678072E+000, +3.17041437836E+002
+1.57289111389E+007, +8.67294880898E+000, +3.19159652562E+002
+1.58539424280E+007, +8.84789689310E+000, +3.22081951495E+002
+1.59789737171E+007, +8.77272011940E+000, +3.24892725711E+002
+1.61040050063E+007, +8.82807803459E+000, +3.27466038815E+002
+1.62290362954E+007, +8.21660932806E+000, +3.29742472701E+002
+1.63540675845E+007, +8.27266586666E+000, +3.32739570418E+002
+1.64790988736E+007, +9.49745704953E+000, +3.35745174586E+002
+1.66041301627E+007, +9.27312679779E+000, +3.38245774651E+002
+1.67291614518E+007, +8.47141719484E+000, +3.40402827115E+002
+1.68541927409E+007, +8.67629711120E+000, +3.43018942825E+002
+1.69792240300E+007, +9.08052014913E+000, +3.46208134900E+002
+1.71042553191E+007, +8.04917730513E+000, +3.48418658979E+002
+1.72292866083E+007, +7.94572118641E+000, +3.52224130061E+002
+1.73543178974E+007, +9.04419623640E+000, +3.54197598169E+002
+1.74793491865E+007, +8.41334997143E+000, +3.57211315913E+002
+1.76043804756E+007, +8.63669993890E+000, +3.59354805116E+002
+1.77294117647E+007, +8.15271033769E+000, +3.62494036890E+002
+1.78544430538E+007, +7.72148093754E+000, +3.64931759107E+002
+1.79794743429E+007, +8.44764633293E+000, +3.67959073661E+002
+1.81045056320E+007, +8.68487123314E+000, +3.71321772875E+002
+1.82295369212E+007, +8.98485551405E+000, +3.73029018273E+002
+1.83545682103E+007, +8.21798149581E+000, +3.76470332746E+002
+1.84795994994E+007, +9.85033811514E+000, +3.79474636465E+002
+1.86046307885E+007, +7.95269236955E+000, +3.81922270096E+002
+1.87296620776E+007, +9.17417231957E+000, +3.84352763004E+002
+1.88546933667E+007, +9.14484593519E+000, +3.87064139178E+002
+1.89797246558E+007, +9.27555650853E+000, +3.90606876584E+002
+1.91047559449E+007, +8.91318927065E+000, +3.91686782938E+002
+1.92297872340E+007, +8.79360351894E+000, +3.95912303720E+002
+1.93548185232E+007, +9.42688448368E+000, +3.98516500180E+002
+1.94798498123E+007, +8.81727474422E+000, +4.01913528114E+002
+1.96048811014E+007, +1.05074533287E+001, +4.03927205690E+002
+1.97299123905E+007, +9.41605624034E+000, +4.07167033954E+002
+1.98549436796E+007, +1.02438779964E+001, +4.09505119640E+002
+1.99799749687E+007, +9.33969558829E+000, +4.12879750608E+002
+2.01050062578E+007, +9.15360642602E+000, +4.15583129526E+002
+2.02300375469E+007, +9.28584135920E+000, +4.17796057538E+002
+2.03550688360E+007, +9.17719347913E+000, +4.20900274935E+002
+2.04801001252E+007, +9.67127912196E+000, +4.23992368183E+002
+2.06051314143E+007, +1.01191275464E+001, +4.26621114640E+002
+2.07301627034E+007, +9.95452814397E+000, +4.30085400810E+002
+2.08551939925E+007, +1.10178982731E+001, +4.32388225048E+002
+2.09802252816E+007, +1.07827863520E+001, +4.35460339989E+002
+2.11052565707E+007, +9.28713039502E+000, +4.38289130587E+002
+2.12302878598E+007, +9.41980833994E+000, +4.40174477984E+002
+2.13553191489E+007, +9.89571104881E+000, +4.45179791060E+002
+2.14803504380E+007, +9.57600142538E+000, +4.47518416437E+002
+2.16053817272E+007, +1.01524534758E+001, +4.50552843164E+002
+2.17304130163E+007, +1.03870827677E+001, +4.53773135302E+002
+2.18554443054E+007, +9.90088000289E+000, +4.55525071826E+002
+2.19804755945E+007, +1.00814733954E+001, +4.58578125100E+002
+2.21055068836E+007, +1.08403937329E+001, +4.60735504717E+002
+2.22305381727E+007, +9.59074101396E+000, +4.65065971097E+002
+2.23555694618E+007, +1.01482756694E+001, +4.66916819959E+002
+2.24806007509E+007, +1.11402587751E+001, +4.71430102473E+002
+2.26056320401E+007, +1.15616389074E+001, +4.73844083114E+002
+2.27306633292E+007, +1.00097351971E+001, +4.76743153994E+002
+2.28556946183E+007, +1.24374540808E+001, +4.80983363773E+002
+2.29807259074E+007, +1.17226747046E+001, +4.82643274969E+002
+2.31057571965E+007, +1.16819602468E+001, +4.85174068668E+002
+2.32307884856E+007, +1.20444729425E+001, +4.88018162273E+002
+2.33558197747E+007, +1.14558548158E+001, +4.92124316867E+002
+2.34808510638E+007, +1.22668223230E+001, +4.94313763703E+002
+2.36058823529E+007, +1.21910775738E+001, +4.98436938063E+002
+2.37309136421E+007, +1.22055519550E+001, +5.00361040686E+002
+2.38559449312E+007, +1.31196124578E+001, +5.03474484320E+002
+2.39809762203E+007, +1.31300801074E+001, +5.05633229199E+002
+2.41060075094E+007, +1.26105270812E+001, +5.09322369033E+002
+2.42310387985E+007, +1.37047670454E+001, +5.12615236842E+002
+2.43560700876E+007, +1.32785999383E+001, +5.14888842572E+002
+2.44811013767E+007, +1.28561469311E+001, +5.18431332685E+002
+2.46061326658E+007, +1.43146556270E+001, +5.21534077843E+002
+2.47311639549E+007, +1.29806541630E+001, +5.23091792054E+002
+2.48561952441E+007, +1.37088973896E+001, +5.26894921144E+002
+2.49812265332E+007, +1.42232568912E+001, +5.30138883385E+002
+2.51062578223E+007, +1.41347767542E+001, +5.33943376989E+002
+2.52312891114E+007, +1.44774279211E+001, +5.36458316496E+002
+2.53563204005E+007, +1.31361137067E+001, +5.38918789776E+002
+2.54813516896E+007, +1.39179407208E+001, +5.42004294061E+002
+2.56063829787E+007, +1.36626168488E+001, +5.46315390074E+002
+2.57314142678E+007, +1.43456927947E+001, +5.48376188558E+002
+2.58564455569E+007, +1.32167096093E+001, +5.50437639863E+002
+2.59814768461E+007, +1.33778984955E+001, +5.53828162401E+002
+2.61065081352E+007, +1.55510454668E+001, +5.56315137948E+002
+2.62315394243E+007, +1.58470670450E+001, +5.62116232703E+002
+2.63565707134E+007, +1.64632755472E+001, +5.64511427884E+002
+2.64816020025E+007, +1.44271005606E+001, +5.67414055850E+002
+2.66066332916E+007, +1.48408096754E+001, +5.69746742338E+002
+2.67316645807E+007, +1.55353142366E+001, +5.70878044982E+002
+2.68566958698E+007, +1.57823069251E+001, +5.77338912094E+002
+2.69817271589E+007, +1.57031986903E+001, +5.80837626973E+002
+2.71067584481E+007, +1.81099786024E+001, +5.81990728308E+002
+2.72317897372E+007, +1.59074756051E+001, +5.85990768918E+002
+2.73568210263E+007, +1.71935110352E+001, +5.88348158910E+002
+2.74818523154E+007, +1.56336947422E+001, +5.92627709922E+002
+2.76068836045E+007, +1.75845200550E+001, +5.95482479198E+002
+2.77319148936E+007, +1.73401171378E+001, +5.98000332233E+002
+2.78569461827E+007, +1.64474335817E+001, +6.02492976555E+002
+2.79819774718E+007, +1.79999405732E+001, +6.04631610308E+002
+2.81070087610E+007, +1.71046759102E+001, +6.10305868798E+002
+2.82320400501E+007, +1.83518349968E+001, +6.11306434957E+002
+2.83570713392E+007, +1.69669927217E+001, +6.14621610959E+002
+2.84821026283E+007, +1.83277442460E+001, +6.16439722968E+002
+2.86071339174E+007, +1.62031216781E+001, +6.21643867669E+002
+2.87321652065E+007, +1.63644219141E+001, +6.23265830882E+002
+2.88571964956E+007, +1.57715820561E+001, +6.27441387919E+002
+2.89822277847E+007, +1.71849751114E+001, +6.31639804361E+002
+2.91072590738E+007, +1.81568495461E+001, +6.31831832309E+002
+2.92322903630E+007, +1.74521534388E+001, +6.37775315741E+002
+2.93573216521E+007, +1.90920657985E+001, +6.37578019751E+002
+2.94823529412E+007, +1.72530383138E+001, +6.43836750157E+002
+2.96073842303E+007, +1.70481481986E+001, +6.46623416672E+002
+2.97324155194E+007, +1.80264385514E+001, +6.49623235809E+002
+2.98574468085E+007, +1.83431373186E+001, +6.53773263764E+002
+2.99824780976E+007, +1.92326514360E+001, +6.55992106036E+002
+3.01075093867E+007, +2.04479647699E+001, +6.60884817012E+002
+3.02325406758E+007, +1.87960747384E+001, +6.64152989716E+002
+3.03575719650E+007, +1.63012201776E+001, +6.65562211508E+002
+3.04826032541E+007, +1.83777142320E+001, +6.71552375084E+002
+3.06076345432E+007, +1.88886689148E+001, +6.74216529073E+002
+3.07326658323E+007, +1.62800845023E+001, +6.77241292459E+002
+3.08576971214E+007, +1.79834807117E+001, +6.80777157422E+002
+3.09827284105E+007, +1.78830503978E+001, +6.85336894685E+002
+3.11077596996E+007, +1.64423882310E+001, +6.90534445137E+002
+3.12327909887E+007, +1.97230131709E+001, +6.93896367355E+002
+3.13578222778E+007, +1.62414494204E+001, +6.97041676914E+002
+3.14828535670E+007, +1.78277500555E+001, +6.98384558484E+002
+3.16078848561E+007, +1.70880920736E+001, +7.02851706199E+002
+3.17329161452E+007, +1.71770606598E+001, +7.04546001039E+002
+3.18579474343E+007, +1.83451862384E+001, +7.08745553834E+002
+3.19829787234E+007, +1.50004102605E+001, +7.15496097357E+002
+3.21080100125E+007, +1.87852532983E+001, +7.16538750374E+002
+3.22330413016E+007, +1.75945236383E+001, +7.20672311000E+002
+3.23580725907E+007, +1.74955222021E+001, +7.23809821117E+002
+3.24831038798E+007, +1.98848156061E+001, +7.28242743243E+002
+3.26081351690E+007, +1.89828678213E+001, +7.30570851296E+002
+3.27331664581E+007, +1.74966244700E+001, +7.35991614713E+002
+3.28581977472E+007, +1.76386070498E+001, +7.38665529898E+002
+3.29832290363E+007, +1.62709205759E+001, +7.44743783849E+002
+3.31082603254E+007, +2.10131136701E+001, +7.46603551838E+002
+3.32332916145E+007, +1.86106002225E+001, +7.50206869472E+002
+3.33583229036E+007, +1.78886172814E+001, +7.55209545091E+002
+3.34833541927E+007, +1.93836933184E+001, +7.58366976657E+002
+3.36083854819E+007, +1.94516283220E+001, +7.62137708738E+002
+3.37334167710E+007, +1.87643879840E+001, +7.61838472848E+002
+3.38584480601E+007, +1.70854693138E+001, +7.71363615678E+002
+3.39834793492E+007, +1.73311786181E+001, +7.73687918574E+002
+3.41085106383E+007, +2.12130193775E+001, +7.77809086816E+002
+3.42335419274E+007, +2.17352432590E+001, +7.82921773770E+002
+3.43585732165E+007, +1.78518579074E+001, +7.87065849900E+002
+3.44836045056E+007, +1.93047582717E+001, +7.88502311779E+002
+3.46086357947E+007, +2.32900896994E+001, +7.92757177440E+002
+3.47336670839E+007, +1.96618194266E+001, +7.97367306708E+002
+3.48586983730E+007, +1.79547419496E+001, +8.02187576749E+002
+3.49837296621E+007, +1.87148570353E+001, +8.04172894369E+002
+3.51087609512E+007, +1.71081577290E+001, +8.12413661192E+002
+3.52337922403E+007, +1.96453465157E+001, +8.16342407075E+002
+3.53588235294E+007, +2.05477514431E+001, +8.16857567579E+002
+3.54838548185E+007, +2.07345341189E+001, +8.22638536115E+002
+3.56088861076E+007, +2.08820302827E+001, +8.26734418432E+002
+3.57339173967E+007, +2.08698514830E+001, +8.32197748572E+002
+3.58589486859E+007, +1.94064093050E+001, +8.37614009005E+002
+3.59839799750E+007, +1.78895200802E+001, +8.40584619235E+002
+3.61090112641E+007, +1.82966361861E+001, +8.44917053198E+002
+3.62340425532E+007, +1.87160248780E+001, +8.46266798655E+002
+3.63590738423E+007, +2.40051475565E+001, +8.51646550235E+002
+3.64841051314E+007, +1.48933556374E+001, +8.57938545519E+002
+3.66091364205E+007, +2.01482010197E+001, +8.62688771571E+002
+3.67341677096E+007, +2.18589062057E+001, +8.68026560992E+002
+3.68591989987E+007, +2.16662733932E+001, +8.72859085656E+002
+3.69842302879E+007, +1.87386852810E+001, +8.74384331986E+002
+3.71092615770E+007, +2.17018967176E+001, +8.80008657463E+002
+3.72342928661E+007, +1.77370933102E+001, +8.83696270064E+002
+3.73593241552E+007, +1.58933577839E+001, +8.88731967740E+002
+3.74843554443E+007, +2.21468148514E+001, +8.94654330896E+002
+3.76093867334E+007, +1.58841253211E+001, +8.95780995715E+002
+3.77344180225E+007, +2.18133285998E+001, +9.06399948260E+002
+3.78594493116E+007, +1.89792134871E+001, +9.08928998763E+002
+3.79844806008E+007, +1.98058840796E+001, +9.11417674551E+002
+3.81095118899E+007, +1.72307966735E+001, +9.21257364487E+002
+3.82345431790E+007, +2.03781320570E+001, +9.23716987381E+002
+3.83595744681E+007, +2.17260211498E+001, +9.28639433078E+002
+3.84846057572E+007, +1.81612252453E+001, +9.33716182017E+002
+3.86096370463E+007, +1.81529861802E+001, +9.41343918252E+002
+3.87346683354E+007, +2.20284667669E+001, +9.40810178357E+002
+3.88596996245E+007, +2.06859635405E+001, +9.48055169285E+002
+3.89847309136E+007, +2.22091523892E+001, +9.58508851481E+002
+3.91097622028E+007, +1.72382017120E+001, +9.59621018170E+002
+3.92347934919E+007, +2.40169876739E+001, +9.66979851399E+002
+3.93598247810E+007, +1.96665793252E+001, +9.72927120708E+002
+3.94848560701E+007, +2.22843890657E+001, +9.76951405813E+002
+3.96098873592E+007, +2.23530444453E+001, +9.82895477088E+002
+3.97349186483E+007, +2.13927485624E+001, +9.84422174490E+002
+3.98599499374E+007, +2.13478828201E+001, +9.97496441547E+002
+3.99849812265E+007, +2.07531419278E+001, +9.97692442639E+002
+4.01100125156E+007, +2.19597923767E+001, +1.00065620405E+003
