"# Channel 1"
"# Trace 1"
Frequency, Formatted Data, Formatted Data
+1.00000000000E+006, +7.77694966158E+000, +1.88416042083E+001
+1.16527545910E+006, +7.81108901633E+000, +2.19633115499E+001
+1.33055091820E+006, +7.86396909652E+000, +2.49985586551E+001
+1.49582637730E+006, +7.81182543292E+000, +2.81312828692E+001
+1.66110183639E+006, +7.84487300109E+000, +3.11719024713E+001
+1.82637729549E+006, +7.84719367265E+000, +3.42565767899E+001
+1.99165275459E+006, +7.86266999528E+000, +3.73866561171E+001
+2.15692821369E+006, +7.87077975765E+000, +4.04789576190E+001
+2.32220367279E+006, +7.81397804837E+000, +4.35773629112E+001
+2.48747913189E+006, +7.83265766797E+000, +4.66818372207E+001
+2.65275459098E+006, +7.75336472536E+000, +4.97780971161E+001
+2.81803005008E+006, +7.79004580176E+000, +5.28851432112E+001
+2.98330550918E+006, +7.74001587238E+000, +5.58911943952E+001
+3.14858096828E+006, +7.87765298840E+000, +5.90190018938E+001
+3.31385642738E+006, +7.98018742825E+000, +6.21471080767E+001
+3.47913188648E+006, +7.76751517141E+000, +6.53467281680E+001
+3.64440734558E+006, +7.91150280790E+000, +6.83903982290E+001
+3.80968280467E+006, +7.98432450728E+000, +7.14661681044E+001
+3.97495826377E+006, +8.02439421398E+000, +7.45765796950E+001
+4.14023372287E+006, +8.08358054173E+000, +7.79680810650E+001
+4.30550918197E+006, +7.98355590344E+000, +8.05643136456E+001
+4.47078464107E+006, +7.97109583038E+000, +8.38823977059E+001
+4.63606010017E+006, +7.94394580581E+000, +8.70254408937E+001
+4.80133555927E+006, +7.90752540617E+000, +9.01882140248E+001
+4.96661101836E+006, +8.06960887970E+000, +9.32639476227E+001
+5.13188647746E+006, +8.05112938623E+000, +9.64379325920E+001
+5.29716193656E+006, +8.09941773956E+000, +9.93739769728E+001
+5.46243739566E+006, +8.06815326376E+000, +1.02753558913E+002
+5.62771285476E+006, +8.24380391146E+000, +1.05704362045E+002
+5.79298831386E+006, +8.32234048859E+000, +1.08999100776E+002
+5.95826377295E+006, +8.36224467076E+000, +1.12021664270E+002
+6.12353923205E+006, +8.49353241682E+000, +1.14993228363E+002
+6.28881469115E+006, +8.39930211082E+000, +1.18269228759E+002
+6.45409015025E+006, +8.55761142110E+000, +1.21340739107E+002
+6.61936560935E+006, +8.50316891881E+000, +1.24601229398E+002
+6.78464106845E+006, +8.53249581644E+000, +1.27670266442E+002
+6.94991652755E+006, +8.64214574506E+000, +1.30802758010E+002
+7.11519198664E+006, +8.71525871369E+000, +1.33829633155E+002
+7.28046744574E+006, +8.75822536833E+000, +1.36995459877E+002
+7.44574290484E+006, +8.81747521292E+000, +1.40129802875E+002
+7.61101836394E+006, +8.77980387726E+000, +1.43226379873E+002
+7.77629382304E+006, +8.91078813867E+000, +1.46304297586E+002
+7.94156928214E+006, +8.80696570827E+000, +1.49613807246E+002
+8.10684474124E+006, +8.90225429590E+000, +1.52432503630E+002
+8.27212020033E+006, +8.93656625254E+000, +1.55602307515E+002
+8.43739565943E+006, +9.09651836750E+000, +1.58908968289E+002
+8.60267111853E+006, +8.85187731624E+000, +1.61957323780E+002
+8.76794657763E+006, +9.19614934914E+000, +1.65113297402E+002
+8.93322203673E+006, +9.02709267266E+000, +1.68438110066E+002
+9.09849749583E+006, +9.03963056215E+000, +1.71406026257E+002
+9.26377295492E+006, +9.05205612204E+000, +1.74837554750E+002
+9.42904841402E+006, +9.15110138253E+000, +1.77757713174E+002
+9.59432387312E+006, +8.97322850659E+000, +1.80859563476E+002
+9.75959933222E+006, +9.17274006018E+000, +1.84121441844E+002
+9.92487479132E+006, +9.02259177040E+000, +1.87283413346E+002
+1.00901502504E+007, +9.07579994557E+000, +1.90536117546E+002
+1.02554257095E+007, +9.12721186037E+000, +1.93616162688E+002
+1.04207011686E+007, +9.00888755920E+000, +1.96683380121E+002
+1.05859766277E+007, +9.11864097911E+000, +2.00176141024E+002
+1.07512520868E+007, +9.01255437035E+000, +2.03211294406E+002
+1.09165275459E+007, +9.10307745251E+000, +2.06413294197E+002
+1.10818030050E+007, +9.23057892148E+000, +2.09811160539E+002
+1.12470784641E+007, +9.20562213407E+000, +2.12445025908E+002
+1.14123539232E+007, +9.31323612087E+000, +2.15980701223E+002
+1.15776293823E+007, +9.49242114842E+000, +2.19257983101E+002
+1.17429048414E+007, +9.24087003223E+000, +2.22533030139E+002
+1.19081803005E+007, +9.38816109889E+000, +2.25720116706E+002
+1.20734557596E+007, +9.27979101650E+000, +2.29128294804E+002
+1.22387312187E+007, +9.13271063341E+000, +2.32131203173E+002
+1.24040066778E+007, +9.57183302750E+000, +2.35332869389E+002
+1.25692821369E+007, +9.47613514378E+000, +2.38529795313E+002
+1.27345575960E+007, +9.68055496815E+000, +2.41736908244E+002
+1.28998330551E+007, +9.61064288492E+000, +2.44979030936E+002
+1.30651085142E+007, +9.20116906653E+000, +2.48039583042E+002
+1.32303839733E+007, +9.99768974109E+000, +2.51738185929E+002
+1.33956594324E+007, +9.37496899463E+000, +2.54934512927E+002
+1.35609348915E+007, +9.90625947199E+000, +2.58297157772E+002
+1.37262103506E+007, +9.59572513053E+000, +2.61035332647E+002
+1.38914858097E+007, +1.01171219291E+001, +2.64301994251E+002
+1.40567612688E+007, +9.89267439430E+000, +2.67968247747E+002
+1.42220367279E+007, +1.00168126346E+001, +2.71359646076E+002
+1.43873121870E+007, +9.72591654190E+000, +2.74679606928E+002
+1.45525876461E+007, +9.64474816427E+000, +2.77769551330E+002
+1.47178631052E+007, +9.84364966537E+000, +2.80938524455E+002
+1.48831385643E+007, +1.02009295176E+001, +2.84233287954E+002
+1.50484140234E+007, +1.01373797721E+001, +2.87717513611E+002
+1.52136894825E+007, +9.71867304881E+000, +2.90870069382E+002
+1.53789649416E+007, +9.85964377310E+000, +2.94312174333E+002
+1.55442404007E+007, +9.92903447479E+000, +2.97810462219E+002
+1.57095158598E+007, +1.01464827954E+001, +3.00928576085E+002
+1.58747913189E+007, +1.02004876967E+001, +3.04009374660E+002
+1.60400667780E+007, +1.02886289719E+001, +3.07590415498E+002
+1.62053422371E+007, +1.00310473176E+001, +3.11198818088E+002
+1.63706176962E+007, +1.01171893809E+001, +3.13856562027E+002
+1.65358931553E+007, +1.04686173067E+001, +3.17389979482E+002
+1.67011686144E+007, +1.09200748761E+001, +3.20874912133E+002
+1.68664440735E+007, +1.07728849476E+001, +3.24427962265E+002
+1.70317195326E+007, +9.47366595492E+000, +3.27945267881E+002
+1.71969949917E+007, +9.38808317988E+000, +3.31762524825E+002
+1.73622704508E+007, +9.89923700305E+000, +3.34472528199E+002
+1.75275459098E+007, +9.88676589166E+000, +3.38206941175E+002
+1.76928213689E+007, +1.00289928480E+001, +3.41608890452E+002
+1.78580968280E+007, +9.90626049822E+000, +3.45255995283E+002
+1.80233722871E+007, +1.06891257096E+001, +3.48252400310E+002
+1.81886477462E+007, +1.02289422485E+001, +3.51987055918E+002
+1.83539232053E+007, +1.11951862516E+001, +3.55079340835E+002
+1.85191986644E+007, +1.10130298374E+001, +3.58819198804E+002
+1.86844741235E+007, +1.08246795470E+001, +3.61178383229E+002
+1.88497495826E+007, +1.12158903403E+001, +3.65440933784E+002
+1.90150250417E+007, +1.09010803431E+001, +3.69364192477E+002
+1.91803005008E+007, +1.07845775853E+001, +3.72110420372E+002
+1.93455759599E+007, +1.13030488792E+001, +3.74948463639E+002
+1.95108514190E+007, +1.17643482148E+001, +3.80147815188E+002
+1.96761268781E+007, +1.14890023480E+001, +3.82908346936E+002
+1.98414023372E+007, +1.17450053681E+001, +3.86747017216E+002
+2.00066777963E+007, +1.11288549084E+001, +3.89342601192E+002
+2.01719532554E+007, +1.15523603947E+001, +3.93388552863E+002
+2.03372287145E+007, +1.18801954664E+001, +3.97510774724E+002
+2.05025041736E+007, +1.17018979882E+001, +4.01621959815E+002
+2.06677796327E+007, +1.28250369564E+001, +4.04038288014E+002
+2.08330550918E+007, +1.17474505426E+001, +4.08066260465E+002
+2.09983305509E+007, +1.18458067070E+001, +4.12056410229E+002
+2.11636060100E+007, +1.21498669323E+001, +4.15013645000E+002
+2.13288814691E+007, +1.27579001717E+001, +4.18350625649E+002
+2.14941569282E+007, +1.20880584039E+001, +4.21809912255E+002
+2.16594323873E+007, +1.20421074046E+001, +4.26327550934E+002
+2.18247078464E+007, +1.24662547218E+001, +4.29680795296E+002
+2.19899833055E+007, +1.20358987551E+001, +4.33329820846E+002
+2.21552587646E+007, +1.19562795019E+001, +4.35770923848E+002
+2.23205342237E+007, +1.23229087902E+001, +4.40756396639E+002
+2.24858096828E+007, +1.23762411490E+001, +4.43729678030E+002
+2.26510851419E+007, +1.32865528310E+001, +4.46971646031E+002
+2.28163606010E+007, +1.37771012693E+001, +4.51324789319E+002
+2.29816360601E+007, +1.31321098981E+001, +4.54007249989E+002
+2.31469115192E+007, +1.43755353785E+001, +4.58739796407E+002
+2.33121869783E+007, +1.44860284759E+001, +4.63290288582E+002
+2.34774624374E+007, +1.52817299939E+001, +4.67018933717E+002
+2.36427378965E+007, +1.45230274648E+001, +4.70362413743E+002
+2.38080133556E+007, +1.48573311821E+001, +4.74441050940E+002
+2.39732888147E+007, +1.56001953363E+001, +4.78346722959E+002
+2.41385642738E+007, +1.50017811677E+001, +4.80888259257E+002
+2.43038397329E+007, +1.46381339594E+001, +4.85838029089E+002
+2.44691151920E+007, +1.50755643529E+001, +4.89387642946E+002
+2.46343906511E+007, +1.53354868154E+001, +4.93577116738E+002
+2.47996661102E+007, +1.58931953617E+001, +4.96291053377E+002
+2.49649415693E+007, +1.59510043202E+001, +5.01136128572E+002
+2.51302170284E+007, +1.57487831274E+001, +5.05014862057E+002
+2.52954924875E+007, +1.68828393840E+001, +5.08427752237E+002
+2.54607679466E+007, +1.58175737565E+001, +5.11875064317E+002
+2.56260434057E+007, +1.63930946805E+001, +5.14998609240E+002
+2.57913188648E+007, +1.70321553585E+001, +5.19346880506E+002
+2.59565943239E+007, +1.71559877835E+001, +5.23118961465E+002
+2.61218697830E+007, +1.60845902787E+001, +5.26167960271E+002
+2.62871452421E+007, +1.84217745304E+001, +5.29801485995E+002
+2.64524207012E+007, +1.69485696342E+001, +5.34359536301E+002
+2.66176961603E+007, +1.69481116631E+001, +5.39362408235E+002
+2.67829716194E+007, +1.75330368966E+001, +5.42207374199E+002
+2.69482470785E+007, +1.75728048390E+001, +5.46571145911E+002
+2.71135225376E+007, +1.77891579091E+001, +5.51488707659E+002
+2.72787979967E+007, +1.80542014242E+001, +5.55724530218E+002
+2.74440734558E+007, +1.88385535648E+001, +5.58649721161E+002
+2.76093489149E+007, +1.92315871383E+001, +5.60263562887E+002
+2.77746243740E+007, +1.87523142599E+001, +5.65763840839E+002
+2.79398998331E+007, +2.00260721991E+001, +5.70651083953E+002
+2.81051752922E+007, +2.08081038722E+001, +5.74930786475E+002
+2.82704507513E+007, +1.97459413858E+001, +5.80001428598E+002
+2.84357262104E+007, +1.89105495287E+001, +5.82182589415E+002
+2.86010016694E+007, +2.00106477793E+001, +5.88562892024E+002
+2.87662771285E+007, +2.04597908359E+001, +5.91072396966E+002
+2.89315525876E+007, +2.13496759470E+001, +5.96709161391E+002
+2.90968280467E+007, +2.13074689378E+001, +6.01159806272E+002
+2.92621035058E+007, +2.05781365196E+001, +6.03904610223E+002
+2.94273789649E+007, +2.16046580290E+001, +6.07920946659E+002
+2.95926544240E+007, +1.97316031523E+001, +6.11305338520E+002
+2.97579298831E+007, +2.10473963554E+001, +6.16980595631E+002
+2.99232053422E+007, +2.14167878290E+001, +6.20430097231E+002
+3.00884808013E+007, +2.36981745840E+001, +6.26449193068E+002
+3.02537562604E+007, +2.23787806357E+001, +6.31054632702E+002
+3.04190317195E+007, +2.22114243227E+001, +6.34153064523E+002
+3.05843071786E+007, +2.22035346566E+001, +6.36848724937E+002
+3.07495826377E+007, +2.01511621091E+001, +6.41245005383E+002
+3.09148580968E+007, +2.19315390238E+001, +6.48106169075E+002
+3.10801335559E+007, +2.25890262041E+001, +6.52632923742E+002
+3.12454090150E+007, +2.43848831759E+001, +6.56601208898E+002
+3.14106844741E+007, +2.31735573973E+001, +6.58405426623E+002
+3.15759599332E+007, +2.43074882568E+001, +6.64754196482E+002
+3.17412353923E+007, +2.34518544675E+001, +6.69295733816E+002
+3.19065108514E+007, +2.26799424554E+001, +6.74946356966E+002
+3.20717863105E+007, +2.24004673555E+001, +6.79325388766E+002
+3.22370617696E+007, +2.46588423101E+001, +6.80741261404E+002
+3.24023372287E+007, +2.23331969745E+001, +6.88083964616E+002
+3.25676126878E+007, +2.68306622333E+001, +6.92015507243E+002
+3.27328881469E+007, +2.40673656673E+001, +6.96228513375E+002
+3.28981636060E+007, +2.39105577634E+001, +7.01322356474E+002
+3.30634390651E+007, +2.50478346031E+001, +7.08092526665E+002
+3.32287145242E+007, +2.28412462857E+001, +7.15328868592E+002
+3.33939899833E+007, +2.45246274621E+001, +7.17740366678E+002
+3.35592654424E+007, +2.49776828184E+001, +7.20640235065E+002
+3.37245409015E+007, +2.60742012264E+001, +7.23992464671E+002
+3.38898163606E+007, +2.28406746434E+001, +7.32685100394E+002
+3.40550918197E+007, +2.53456871752E+001, +7.35610660716E+002
+3.42203672788E+007, +2.46877361774E+001, +7.39811138077E+002
+3.43856427379E+007, +2.66691003159E+001, +7.43150043806E+002
+3.45509181970E+007, +2.44551288131E+001, +7.52009690472E+002
+3.47161936561E+007, +2.62414834522E+001, +7.54720601228E+002
+3.48814691152E+007, +2.77753572265E+001, +7.58925515606E+002
+3.50467445743E+007, +2.70881744652E+001, +7.65277038072E+002
+3.52120200334E+007, +2.81503591177E+001, +7.70554085117E+002
+3.53772954925E+007, +2.58079224620E+001, +7.76487937812E+002
+3.55425709516E+007, +2.72711091948E+001, +7.81500013752E+002
+3.57078464107E+007, +2.77549761589E+001, +7.84435208536E+002
+3.58731218698E+007, +2.66534178704E+001, +7.94200641084E+002
+3.60383973289E+007, +2.73479855117E+001, +7.94881321897E+002
+3.62036727880E+007, +2.80026973231E+001, +8.03318295398E+002
+3.63689482471E+007, +3.04163173484E+001, +8.08293892198E+002
+3.65342237062E+007, +2.85868031271E+001, +8.12412186715E+002
+3.66994991653E+007, +2.74485913455E+001, +8.19168221313E+002
+3.68647746244E+007, +3.16840007268E+001, +8.24668566180E+002
+3.70300500835E+007, +2.73865601312E+001, +8.31049927523E+002
+3.71953255426E+007, +3.07275230392E+001, +8.38744385484E+002
+3.73606010017E+007, +2.89782182382E+001, +8.42724673389E+002
+3.75258764608E+007, +2.99367572298E+001, +8.51455284198E+002
+3.76911519199E+007, +3.17549652045E+001, +8.52474932381E+002
+3.78564273790E+007, +2.47907293911E+001, +8.61967798543E+002
+3.80217028381E+007, +2.83837141760E+001, +8.66032105404E+002
+3.81869782972E+007, +2.95062152884E+001, +8.72792274488E+002
+3.83522537563E+007, +2.80846154329E+001, +8.79429812276E+002
+3.85175292154E+007, +2.93613983942E+001, +8.85519547948E+002
+3.86828046745E+007, +2.73859765467E+001, +8.93291514616E+002
+3.88480801336E+007, +3.07621296806E+001, +9.00070466745E+002
+3.90133555927E+007, +3.37750754267E+001, +9.08423616110E+002
+3.91786310518E+007, +3.11259239105E+001, +9.18082354873E+002
+3.93439065109E+007, +3.21796747315E+001, +9.22054302297E+002
+3.95091819699E+007, +3.67911955834E+001, +9.26435033753E+002
+3.96744574290E+007, +3.57791325334E+001, +9.32968182959E+002
+3.98397328881E+007, +3.35168989559E+001, +9.40419300143E+002
+4.00050083472E+007, +3.67240989887E+001, +9.45886014109E+002
+4.01702838063E+007, +2.88219213302E+001, +9.54043354455E+002
+4.03355592654E+007, +3.27237678534E+001, +9.58870423493E+002
+4.05008347245E+007, +3.84422171554E+001, +9.70745407295E+002
+4.06661101836E+007, +3.48548150879E+001, +9.72102302826E+002
+4.08313856427E+007, +3.50954276857E+001, +9.84524093972E+002
+4.09966611018E+007, +3.52707173232E+001, +9.87087138813E+002
+4.11619365609E+007, +4.20028870507E+001, +9.92178403847E+002
+4.13272120200E+007, +4.09611845613E+001, +1.00354720990E+003
+4.14924874791E+007, +3.92445324150E+001, +1.01046628337E+003
+4.16577629382E+007, +4.01701959984E+001, +1.01981732675E+003
+4.18230383973E+007, +4.09974436947E+001, +1.02545459202E+003
+4.19883138564E+007, +4.18539268822E+001, +1.03534895057E+003
+4.21535893155E+007, +3.99725646600E+001, +1.04056644361E+003
+4.23188647746E+007, +4.39923622903E+001, +1.05182533877E+003
+4.24841402337E+007, +4.05253398384E+001, +1.06267136759E+003
+4.26494156928E+007, +3.97917530983E+001, +1.06943806519E+003
+4.28146911519E+007, +4.69670770468E+001, +1.07630585660E+003
+4.29799666110E+007, +4.03528943774E+001, +1.08409520716E+003
+4.31452420701E+007, +4.36287522666E+001, +1.09953869789E+003
+4.33105175292E+007, +4.59525392378E+001, +1.10269865417E+003
+4.34757929883E+007, +4.52655192122E+001, +1.11212238722E+003
+4.36410684474E+007, +4.44569537292E+001, +1.12198778567E+003
+4.38063439065E+007, +4.46956752211E+001, +1.13620260612E+003
+4.39716193656E+007, +5.52198956297E+001, +1.13293016415E+003
+4.41368948247E+007, +4.55998381854E+001, +1.14950718468E+003
+4.43021702838E+007, +4.66360798353E+001, +1.15861274332E+003
+4.44674457429E+007, +4.75963194363E+001, +1.16981380390E+003
+4.46327212020E+007, +4.81417038287E+001, +1.17518398281E+003
+4.47979966611E+007, +5.44101902537E+001, +1.19074026167E+003
+4.49632721202E+007, +5.32487344165E+001, +1.20314686193E+003
+4.51285475793E+007, +5.32785567985E+001, +1.21391944819E+003
+4.52938230384E+007, +6.06082002934E+001, +1.22730186503E+003
+4.54590984975E+007, +4.83738483977E+001, +1.22996747778E+003
+4.56243739566E+007, +6.47821610847E+001, +1.24504069590E+003
+4.57896494157E+007, +6.56255554397E+001, +1.25237208275E+003
+4.59549248748E+007, +6.26640674738E+001, +1.27888242019E+003
+4.61202003339E+007, +5.55079746303E+001, +1.28122474797E+003
+4.62854757930E+007, +6.42659038396E+001, +1.29230800763E+003
+4.64507512521E+007, +7.21233744991E+001, +1.30473414612E+003
+4.66160267112E+007, +7.44031776191E+001, +1.32631695922E+003
+4.67813021703E+007, +8.17574832333E+001, +1.33327089259E+003
+4.69465776294E+007, +7.91305846269E+001, +1.34441227235E+003
+4.71118530885E+007, +8.18522427438E+001, +1.36947975120E+003
+4.72771285476E+007, +8.79276342266E+001, +1.37809946003E+003
+4.74424040067E+007, +9.19255999322E+001, +1.39436564265E+003
+4.76076794658E+007, +9.24088090741E+001, +1.39870878378E+003
+4.77729549249E+007, +1.01367362807E+002, +1.41837973002E+003
+4.79382303840E+007, +1.03967006748E+002, +1.42997636826E+003
+4.81035058431E+007, +1.07911731555E+002, +1.45108526196E+003
+4.82687813022E+007, +1.17080751723E+002, +1.46406861750E+003
+4.84340567613E+007, +1.16661422408E+002, +1.48413942684E+003
+4.85993322204E+007, +1.39134719638E+002, +1.49072378076E+003
+4.87646076795E+007, +1.37571198188E+002, +1.51061592985E+003
+4.89298831386E+007, +1.37187320927E+002, +1.52224706367E+003
+4.90951585977E+007, +1.43574503990E+002, +1.53431150379E+003
+4.92604340568E+007, +1.59199453660E+002, +1.55575747522E+003
+4.94257095159E+007, +1.76442380638E+002, +1.56207238970E+003
+4.95909849750E+007, +1.67684591809E+002, +1.57299310216E+003
+4.97562604341E+007, +1.82410507432E+002, +1.58447560943E+003
+4.99215358932E+007, +1.78473245186E+002, +1.61042492762E+003
+5.00868113523E+007, +1.91720535020E+002, +1.62141608771E+003
+5.02520868114E+007, +2.08976559636E+002, +1.64307888461E+003
+5.04173622705E+007, +2.11637930394E+002, +1.65041653577E+003
+5.05826377295E+007, +2.18915876086E+002, +1.65266119841E+003
+5.07479131886E+007, +2.22894644848E+002, +1.66507772623E+003
+5.09131886477E+007, +2.18566265777E+002, +1.67930734905E+003
+5.10784641068E+007, +2.41867690346E+002, +1.69523844472E+003
+5.12437395659E+007, +2.37637305717E+002, +1.71360612303E+003
+5.14090150250E+007, +2.35589991447E+002, +1.72567521809E+003
+5.15742904841E+007, +2.32754850230E+002, +1.73539964706E+003
+5.17395659432E+007, +2.39950962897E+002, +1.73977972064E+003
+5.19048414023E+007, +2.46910360966E+002, +1.76294472776E+003
+5.20701168614E+007, +2.41219086593E+002, +1.80344638699E+003
+5.22353923205E+007, +2.39177848097E+002, +1.81897162550E+003
+5.24006677796E+007, +2.29398267084E+002, +1.82327478280E+003
+5.25659432387E+007, +2.38132924667E+002, +1.85865772506E+003
+5.27312186978E+007, +2.59578681291E+002, +1.89058789803E+003
+5.28964941569E+007, +2.51314653797E+002, +1.91942936980E+003
+5.30617696160E+007, +2.54652518440E+002, +1.96564992163E+003
+5.32270450751E+007, +2.58393984302E+002, +1.97545419308E+003
+5.33923205342E+007, +2.50216107796E+002, +2.02619723949E+003
+5.35575959933E+007, +2.78635196246E+002, +2.03431852425E+003
+5.37228714524E+007, +2.76141899487E+002, +2.08865591902E+003
+5.38881469115E+007, +3.01000113427E+002, +2.09914676485E+003
