"# Channel 1"
"# Trace 1"
Frequency, Formatted Data, Formatted Data
+1.00000000000E+005, +6.80518545564E-001, +1.94171513453E+000
+2.25031289111E+005, +6.89868014514E-001, +4.35927890918E+000
+3.50062578223E+005, +7.00198509513E-001, +6.76966957910E+000
+4.75093867334E+005, +7.00890189257E-001, +9.21821961645E+000
+6.00125156446E+005, +7.30664201129E-001, +1.16241151470E+001
+7.25156445557E+005, +7.61929610061E-001, +1.40127499961E+001
+8.50187734668E+005, +8.33832237465E-001, +1.64125861700E+001
+9.75219023780E+005, +8.28437377366E-001, +1.87932907650E+001
+1.10025031289E+006, +8.91456525619E-001, +2.11685203541E+001
+1.22528160200E+006, +9.28859467108E-001, +2.35854842050E+001
+1.35031289111E+006, +9.23015012452E-001, +2.60075347635E+001
+1.47534418023E+006, +9.78115514462E-001, +2.83205436866E+001
+1.60037546934E+006, +9.60421347835E-001, +3.06649170254E+001
+1.72540675845E+006, +1.02997002861E+000, +3.30548520378E+001
+1.85043804756E+006, +1.06991843268E+000, +3.54157925417E+001
+1.97546933667E+006, +1.07781110384E+000, +3.77904900901E+001
+2.10050062578E+006, +1.09370342723E+000, +4.01735349323E+001
+2.22553191489E+006, +1.05077455812E+000, +4.26021417758E+001
+2.35056320401E+006, +1.06705212929E+000, +4.49388263729E+001
+2.47559449312E+006, +1.10829984306E+000, +4.72521773679E+001
+2.60062578223E+006, +1.16510034282E+000, +4.96359506976E+001
+2.72565707134E+006, +1.20633724495E+000, +5.20030943035E+001
+2.85068836045E+006, +1.11965174196E+000, +5.44004510066E+001
+2.97571964956E+006, +1.20335459511E+000, +5.67577277659E+001
+3.10075093867E+006, +1.12189350848E+000, +5.92189489446E+001
+3.22578222778E+006, +1.21096193612E+000, +6.14841165720E+001
+3.35081351690E+006, +1.26722953892E+000, +6.39211678210E+001
+3.47584480601E+006, +1.29685841279E+000, +6.62062430347E+001
+3.60087609512E+006, +1.41593910257E+000, +6.86055712855E+001
+3.72590738423E+006, +1.30628102074E+000, +7.10814204551E+001
+3.85093867334E+006, +1.35311893205E+000, +7.34184595616E+001
+3.97596996245E+006, +1.29425537805E+000, +7.57300659981E+001
+4.10100125156E+006, +1.27142714030E+000, +7.83566825896E+001
+4.22603254068E+006, +1.39977707341E+000, +8.04397888705E+001
+4.35106382979E+006, +1.33873976879E+000, +8.30069335848E+001
+4.47609511890E+006, +1.41677072719E+000, +8.53349681961E+001
+4.60112640801E+006, +1.29736041416E+000, +8.77706870189E+001
+4.72615769712E+006, +1.30531930135E+000, +9.00628111596E+001
+4.85118898623E+006, +1.37756545097E+000, +9.25109927867E+001
+4.97622027534E+006, +1.48632815624E+000, +9.49261810404E+001
+5.10125156446E+006, +1.40911518067E+000, +9.72224203786E+001
+5.22628285357E+006, +1.47220810177E+000, +9.96014198415E+001
+5.35131414268E+006, +1.43521071983E+000, +1.02105071529E+002
+5.47634543179E+006, +1.40732607294E+000, +1.04600122057E+002
+5.60137672090E+006, +1.46941446280E+000, +1.07170769094E+002
+5.72640801001E+006, +1.47184276477E+000, +1.09405018101E+002
+5.85143929912E+006, +1.51378837054E+000, +1.11866066827E+002
+5.97647058824E+006, +1.57529086921E+000, +1.14099272610E+002
+6.10150187735E+006, +1.43314731070E+000, +1.16488335511E+002
+6.22653316646E+006, +1.88197322814E+000, +1.18986232057E+002
+6.35156445557E+006, +1.64096008244E+000, +1.21515128347E+002
+6.47659574468E+006, +1.79998272432E+000, +1.23998083535E+002
+6.60162703379E+006, +1.64426436457E+000, +1.26444102767E+002
+6.72665832290E+006, +1.69366336711E+000, +1.28800885463E+002
+6.85168961202E+006, +1.70942041609E+000, +1.31408440549E+002
+6.97672090113E+006, +1.68645059671E+000, +1.33737993499E+002
+7.10175219024E+006, +1.73823649267E+000, +1.36120494190E+002
+7.22678347935E+006, +1.74931462071E+000, +1.38485536687E+002
+7.35181476846E+006, +1.78338073183E+000, +1.41014189006E+002
+7.47684605757E+006, +1.77219216488E+000, +1.43508082964E+002
+7.60187734668E+006, +1.75474907691E+000, +1.45800849477E+002
+7.72690863579E+006, +1.88554808949E+000, +1.48249836481E+002
+7.85193992491E+006, +1.95053109875E+000, +1.50926574994E+002
+7.97697121402E+006, +2.02243377009E+000, +1.53282010477E+002
+8.10200250313E+006, +1.91400703358E+000, +1.55947733494E+002
+8.22703379224E+006, +1.91873323415E+000, +1.58328245143E+002
+8.35206508135E+006, +1.83192166023E+000, +1.60703972317E+002
+8.47709637046E+006, +1.86171517751E+000, +1.63051077799E+002
+8.60212765957E+006, +1.94937440054E+000, +1.65577837701E+002
+8.72715894869E+006, +1.95491371952E+000, +1.68178205409E+002
+8.85219023780E+006, +2.20142110676E+000, +1.70777812880E+002
+8.97722152691E+006, +1.99574627586E+000, +1.73292617032E+002
+9.10225281602E+006, +2.10771211962E+000, +1.75630675264E+002
+9.22728410513E+006, +1.89214693336E+000, +1.78136644622E+002
+9.35231539424E+006, +2.03781908037E+000, +1.80926449176E+002
+9.47734668335E+006, +1.92678329596E+000, +1.83056828823E+002
+9.60237797247E+006, +1.95753033448E+000, +1.85532263124E+002
+9.72740926158E+006, +2.13077099434E+000, +1.88233022087E+002
+9.85244055069E+006, +2.14438950748E+000, +1.90562304306E+002
+9.97747183980E+006, +1.99585378693E+000, +1.93228962809E+002
+1.01025031289E+007, +1.99229764793E+000, +1.95483424574E+002
+1.02275344180E+007, +2.15170661431E+000, +1.98435293127E+002
+1.03525657071E+007, +1.99532129181E+000, +2.00629809635E+002
+1.04775969962E+007, +2.24192844657E+000, +2.03417315207E+002
+1.06026282854E+007, +2.02930298301E+000, +2.05888478707E+002
+1.07276595745E+007, +2.23708225459E+000, +2.08445849378E+002
+1.08526908636E+007, +2.18050196067E+000, +2.11062258665E+002
+1.09777221527E+007, +1.98436099521E+000, +2.13593066452E+002
+1.11027534418E+007, +2.43638017933E+000, +2.16035834715E+002
+1.12277847309E+007, +2.09877021308E+000, +2.18594861543E+002
+1.13528160200E+007, +1.83763213222E+000, +2.21480965510E+002
+1.14778473091E+007, +2.15343896838E+000, +2.23787370533E+002
+1.16028785982E+007, +1.63180723886E+000, +2.26489952924E+002
+1.17279098874E+007, +2.13283158870E+000, +2.28987821756E+002
+1.18529411765E+007, +1.85904181939E+000, +2.31554581266E+002
+1.19779724656E+007, +1.94114706969E+000, +2.34202516353E+002
+1.21030037547E+007, +1.91848428449E+000, +2.36687361913E+002
+1.22280350438E+007, +2.13888833971E+000, +2.39320836729E+002
+1.23530663329E+007, +2.12021476500E+000, +2.42723961137E+002
+1.24780976220E+007, +1.87692667687E+000, +2.44834477447E+002
+1.26031289111E+007, +1.81829560617E+000, +2.47143159750E+002
+1.27281602003E+007, +2.06724061032E+000, +2.49940896745E+002
+1.28531914894E+007, +2.02006945340E+000, +2.52648778512E+002
+1.29782227785E+007, +1.81507179341E+000, +2.55277755231E+002
+1.31032540676E+007, +2.21352881000E+000, +2.58073714338E+002
+1.32282853567E+007, +1.96330743241E+000, +2.60996279429E+002
+1.33533166458E+007, +2.28278530853E+000, +2.63201410159E+002
+1.34783479349E+007, +1.68026542335E+000, +2.66175716794E+002
+1.36033792240E+007, +2.37952320997E+000, +2.68631145870E+002
+1.37284105131E+007, +2.00982820768E+000, +2.71450842712E+002
+1.38534418023E+007, +2.21916521216E+000, +2.73945712525E+002
+1.39784730914E+007, +1.98728897430E+000, +2.76541560019E+002
+1.41035043805E+007, +1.61748424040E+000, +2.79486062374E+002
+1.42285356696E+007, +2.55613862861E+000, +2.82343032527E+002
+1.43535669587E+007, +2.27179131582E+000, +2.85486032930E+002
+1.44785982478E+007, +1.60480125958E+000, +2.87887904606E+002
+1.46036295369E+007, +2.18602751379E+000, +2.90214611005E+002
+1.47286608260E+007, +1.99111530020E+000, +2.93877407762E+002
+1.48536921151E+007, +1.68175445716E+000, +2.95812853679E+002
+1.49787234043E+007, +2.27032601417E+000, +2.99072462369E+002
+1.51037546934E+007, +2.01243817734E+000, +3.01498109031E+002
+1.52287859825E+007, +1.83691528088E+000, +3.03933519866E+002
+1.53538172716E+007, +2.21532994409E+000, +3.06555242277E+002
+1.54788485607E+007, +1.92270599622E+000, +3.09964898652E+002
+1.56038798498E+007, +2.19768854616E+000, +3.12653921845E+002
+1.57289111389E+007, +2.02579916039E+000, +3.15715450054E+002
+1.58539424280E+007, +2.24191190454E+000, +3.18392887632E+002
+1.59789737171E+007, +2.15419668997E+000, +3.21064342120E+002
+1.61040050063E+007, +2.18835302178E+000, +3.24068264827E+002
+1.62290362954E+007, +2.20753828510E+000, +3.27018029155E+002
+1.63540675845E+007, +1.89782480663E+000, +3.29781982239E+002
+1.64790988736E+007, +2.06691589881E+000, +3.32690428230E+002
+1.66041301627E+007, +1.47245800410E+000, +3.35952942039E+002
+1.67291614518E+007, +2.03050962282E+000, +3.38599920904E+002
+1.68541927409E+007, +2.16853195010E+000, +3.41875655941E+002
+1.69792240300E+007, +1.69401199563E+000, +3.43737128789E+002
+1.71042553191E+007, +7.47191240111E-001, +3.47513661632E+002
+1.72292866083E+007, +1.29322905849E+000, +3.49682567768E+002
+1.73543178974E+007, +1.73231535202E+000, +3.53705970099E+002
+1.74793491865E+007, +1.25060375531E+000, +3.56202061976E+002
+1.76043804756E+007, +1.36116212653E+000, +3.59005863504E+002
+1.77294117647E+007, +1.59959268173E+000, +3.61436788667E+002
+1.78544430538E+007, +1.98238988237E+000, +3.65065358367E+002
+1.79794743429E+007, +1.77186598978E+000, +3.67383974305E+002
+1.81045056320E+007, +1.77872192079E+000, +3.71395369755E+002
+1.82295369212E+007, +1.60225035525E+000, +3.73669543520E+002
+1.83545682103E+007, +1.49427897077E+000, +3.77580589649E+002
+1.84795994994E+007, +2.63736647465E+000, +3.79760229816E+002
+1.86046307885E+007, +2.06791526747E+000, +3.82610482660E+002
+1.87296620776E+007, +1.71991431515E+000, +3.86075670201E+002
+1.88546933667E+007, +1.20848188302E+000, +3.88390248645E+002
+1.89797246558E+007, +2.06675990943E+000, +3.92112483770E+002
+1.91047559449E+007, +1.48222670433E+000, +3.94818710637E+002
+1.92297872340E+007, +1.89564634793E+000, +3.98579666950E+002
+1.93548185232E+007, +2.78229098719E+000, +4.01479821929E+002
+1.94798498123E+007, +2.08037394929E+000, +4.03874861212E+002
+1.96048811014E+007, +2.16097752061E+000, +4.06962284502E+002
+1.97299123905E+007, +1.26423241848E+000, +4.09821945027E+002
+1.98549436796E+007, +8.20450796071E-001, +4.14427093074E+002
+1.99799749687E+007, +2.00258207828E+000, +4.16776078374E+002
+2.01050062578E+007, +1.94392235397E+000, +4.20194293024E+002
+2.02300375469E+007, +1.70608640883E+000, +4.23356613055E+002
+2.03550688360E+007, +1.41109678196E+000, +4.27277451606E+002
+2.04801001252E+007, +1.70600605033E+000, +4.30838316158E+002
+2.06051314143E+007, +1.96623500588E+000, +4.34737286713E+002
+2.07301627034E+007, +2.08636547096E+000, +4.36523259474E+002
+2.08551939925E+007, +1.86954952085E+000, +4.41252872028E+002
+2.09802252816E+007, +2.17805843606E+000, +4.42861116687E+002
+2.11052565707E+007, +1.87391677733E+000, +4.46650396073E+002
+2.12302878598E+007, +1.70085740183E+000, +4.51502247856E+002
+2.13553191489E+007, +2.39764907743E+000, +4.52349780339E+002
+2.14803504380E+007, +3.33948149938E+000, +4.56526362592E+002
+2.16053817272E+007, +1.50281308995E+000, +4.60343047328E+002
+2.17304130163E+007, +2.47170013322E+000, +4.64518877180E+002
+2.18554443054E+007, +3.36060887434E+000, +4.66081169125E+002
+2.19804755945E+007, +2.32861127457E+000, +4.70828086886E+002
+2.21055068836E+007, +1.90104907434E+000, +4.75133895545E+002
+2.22305381727E+007, +2.88988213345E+000, +4.76411113631E+002
+2.23555694618E+007, +3.04363319075E+000, +4.81002911769E+002
+2.24806007509E+007, +3.56607730082E+000, +4.84631835356E+002
+2.26056320401E+007, +4.77733762664E+000, +4.88069212512E+002
+2.27306633292E+007, +4.17774494690E+000, +4.90207330679E+002
+2.28556946183E+007, +3.45108637421E+000, +4.94428250885E+002
+2.29807259074E+007, +3.58313866148E+000, +4.98387259632E+002
+2.31057571965E+007, +4.02822947646E+000, +5.01377610940E+002
+2.32307884856E+007, +4.47227244595E+000, +5.06114996620E+002
+2.33558197747E+007, +4.15296653755E+000, +5.07719213275E+002
+2.34808510638E+007, +4.05666951788E+000, +5.11494705475E+002
+2.36058823529E+007, +4.69825575480E+000, +5.15296638694E+002
+2.37309136421E+007, +4.35476054147E+000, +5.18820135803E+002
+2.38559449312E+007, +6.57484243792E+000, +5.24938057771E+002
+2.39809762203E+007, +5.71381005091E+000, +5.25378910972E+002
+2.41060075094E+007, +4.37563794556E+000, +5.29966496862E+002
+2.42310387985E+007, +5.21880370188E+000, +5.32656706124E+002
+2.43560700876E+007, +5.90458020565E+000, +5.36524425405E+002
+2.44811013767E+007, +5.67500992901E+000, +5.40017764308E+002
+2.46061326658E+007, +5.60463090390E+000, +5.44431220516E+002
+2.47311639549E+007, +5.03048751292E+000, +5.45940085530E+002
+2.48561952441E+007, +6.12915910675E+000, +5.51240412990E+002
+2.49812265332E+007, +5.76007651906E+000, +5.55626044275E+002
+2.51062578223E+007, +8.04011531846E+000, +5.56793195648E+002
+2.52312891114E+007, +5.21276988258E+000, +5.61240552820E+002
+2.53563204005E+007, +5.28439309321E+000, +5.67234615613E+002
+2.54813516896E+007, +3.70636498390E+000, +5.68457841877E+002
+2.56063829787E+007, +4.20819690261E+000, +5.72095012916E+002
+2.57314142678E+007, +5.01760421154E+000, +5.78327339695E+002
+2.58564455569E+007, +4.28468906873E+000, +5.80855836829E+002
+2.59814768461E+007, +6.97069149811E+000, +5.84412887065E+002
+2.61065081352E+007, +4.72168772081E+000, +5.87605157611E+002
+2.62315394243E+007, +3.54927941264E+000, +5.93916163232E+002
+2.63565707134E+007, +4.71369260236E+000, +5.98052389755E+002
+2.64816020025E+007, +4.34776095140E+000, +6.01828737243E+002
+2.66066332916E+007, +6.24154657831E+000, +6.05188687825E+002
+2.67316645807E+007, +3.72104883453E+000, +6.06602682247E+002
+2.68566958698E+007, +6.02822840968E+000, +6.13591529582E+002
+2.69817271589E+007, +2.70932129206E+000, +6.17761771279E+002
+2.71067584481E+007, +5.49284579146E+000, +6.22820173925E+002
+2.72317897372E+007, +4.82091511513E+000, +6.25373468484E+002
+2.73568210263E+007, +8.38812899040E+000, +6.28663977691E+002
+2.74818523154E+007, +4.70792774073E+000, +6.32117876533E+002
+2.76068836045E+007, +4.84074645464E+000, +6.37628337816E+002
+2.77319148936E+007, +5.38676917627E+000, +6.40967357567E+002
+2.78569461827E+007, +5.64631465151E+000, +6.44066264462E+002
+2.79819774718E+007, +4.61707224278E+000, +6.52944709038E+002
+2.81070087610E+007, +4.75975301367E+000, +6.54134737574E+002
+2.82320400501E+007, +2.21272429943E+000, +6.60280075507E+002
+2.83570713392E+007, +2.23172413036E+000, +6.63527553401E+002
+2.84821026283E+007, +4.89033697053E+000, +6.67006391784E+002
+2.86071339174E+007, +1.44061233627E+000, +6.71137609299E+002
+2.87321652065E+007, +3.56170054491E+000, +6.77609275454E+002
+2.88571964956E+007, +4.78504164652E+000, +6.82392134253E+002
+2.89822277847E+007, +2.14124655846E+000, +6.85640358916E+002
+2.91072590738E+007, +2.08213934309E+000, +6.92285437220E+002
+2.92322903630E+007, +2.80582592717E+000, +6.96459387493E+002
+2.93573216521E+007, +4.16251617839E+000, +7.02707410084E+002
+2.94823529412E+007, +4.77260302688E+000, +7.05152184522E+002
+2.96073842303E+007, +3.57719961613E+000, +7.08606085497E+002
+2.97324155194E+007, +6.31759729387E-001, +7.17247911077E+002
+2.98574468085E+007, +2.92533078587E+000, +7.19604849120E+002
+2.99824780976E+007, +3.41166679132E+000, +7.25351579277E+002
+3.01075093867E+007, +3.67848865906E+000, +7.29958103256E+002
+3.02325406758E+007, +3.47754093942E+000, +7.34092495933E+002
+3.03575719650E+007, +3.08248495117E+000, +7.40199272387E+002
+3.04826032541E+007, +1.18415161534E+000, +7.43431841731E+002
+3.06076345432E+007, +1.18803442021E+000, +7.48568123121E+002
+3.07326658323E+007, +7.51541449771E-001, +7.52825563739E+002
+3.08576971214E+007, +2.94865396872E+000, +7.57471896916E+002
+3.09827284105E+007, +2.93577086166E+000, +7.64313080547E+002
+3.11077596996E+007, +2.04424071203E+000, +7.68244326385E+002
+3.12327909887E+007, +3.24809077969E+000, +7.73672638233E+002
+3.13578222778E+007, +2.12700126875E+000, +7.79786636513E+002
+3.14828535670E+007, +2.56617493495E+000, +7.83881664658E+002
+3.16078848561E+007, +4.22755878569E+000, +7.87644193776E+002
+3.17329161452E+007, +2.22413721314E+000, +7.93608728474E+002
+3.18579474343E+007, +1.28281641029E+000, +8.02254386816E+002
+3.19829787234E+007, +1.81720853801E+000, +8.06110585953E+002
+3.21080100125E+007, +2.31584110005E+000, +8.12648620393E+002
+3.22330413016E+007, +2.77805866058E+000, +8.18997109391E+002
+3.23580725907E+007, +8.84884143420E-001, +8.23464953172E+002
+3.24831038798E+007, +2.20257716459E+000, +8.27800631033E+002
+3.26081351690E+007, +2.67247180556E+000, +8.34357694294E+002
+3.27331664581E+007, +3.03126130526E+000, +8.38842606581E+002
+3.28581977472E+007, +5.40151687931E-001, +8.50054039604E+002
+3.29832290363E+007, +1.52026975622E+000, +8.50287054163E+002
+3.31082603254E+007, +7.55853317624E-001, +8.54475413815E+002
+3.32332916145E+007, +7.13359085979E+000, +8.61680629070E+002
+3.33583229036E+007, -5.39295952140E-001, +8.69093542321E+002
+3.34833541927E+007, -2.84568189850E+000, +8.76771152189E+002
+3.36083854819E+007, +2.12443082298E+000, +8.80667532683E+002
+3.37334167710E+007, +2.27322134863E+000, +8.83506661128E+002
+3.38584480601E+007, -7.59528468756E-001, +8.93414291479E+002
+3.39834793492E+007, +8.92351252459E-002, +9.01920634870E+002
+3.41085106383E+007, +1.20468345374E+000, +9.07771436530E+002
+3.42335419274E+007, +3.56870364613E+000, +9.10337084956E+002
+3.43585732165E+007, +2.06612514639E+000, +9.20470456214E+002
+3.44836045056E+007, +4.83484888382E+000, +9.28035445656E+002
+3.46086357947E+007, +4.12779224396E+000, +9.30278611159E+002
+3.47336670839E+007, +1.73122039532E+000, +9.39433568398E+002
+3.48586983730E+007, +6.58836336341E+000, +9.42392338134E+002
+3.49837296621E+007, +5.53121774152E+000, +9.52145143101E+002
+3.51087609512E+007, +4.12107318971E+000, +9.59514932092E+002
+3.52337922403E+007, +7.91219542967E+000, +9.65473400059E+002
+3.53588235294E+007, +7.04444046492E-001, +9.71403814530E+002
+3.54838548185E+007, +7.88171926957E+000, +9.75343402470E+002
+3.56088861076E+007, +6.08171016316E+000, +9.87199428209E+002
+3.57339173967E+007, +6.21972678889E+000, +9.89852874063E+002
+3.58589486859E+007, -2.72151879701E+000, +9.99287828500E+002
+3.59839799750E+007, +7.05488551743E+000, +1.00683493462E+003
+3.61090112641E+007, +3.17314155679E+000, +1.01665194263E+003
+3.62340425532E+007, +1.73005350748E+000, +1.01519752330E+003
+3.63590738423E+007, +3.00323176605E+000, +1.02388922476E+003
+3.64841051314E+007, +7.10444520292E+000, +1.03081645965E+003
+3.66091364205E+007, +1.63211408624E+000, +1.04030527733E+003
+3.67341677096E+007, +6.83407565038E+000, +1.05079495377E+003
+3.68591989987E+007, +4.41812347254E+000, +1.05861000329E+003
+3.69842302879E+007, +9.86209049567E+000, +1.06333191807E+003
+3.71092615770E+007, +5.58651948586E+000, +1.07591807246E+003
+3.72342928661E+007, +3.53446623036E+000, +1.08162579467E+003
+3.73593241552E+007, +1.94283385598E+000, +1.09576675560E+003
+3.74843554443E+007, +1.92291730716E-002, +1.09651213116E+003
+3.76093867334E+007, +3.62274150396E+000, +1.10475220887E+003
+3.77344180225E+007, +7.08141402535E+000, +1.11386853004E+003
+3.78594493116E+007, +6.04155242094E+000, +1.12346281168E+003
+3.79844806008E+007, +5.16598066391E+000, +1.13071717625E+003
+3.81095118899E+007, +2.15250278965E+000, +1.14273130750E+003
+3.82345431790E+007, +9.67900022836E+000, +1.14871710539E+003
+3.83595744681E+007, +1.04142386260E+001, +1.15077023211E+003
+3.84846057572E+007, +4.41894252464E+000, +1.16114756997E+003
+3.86096370463E+007, +3.56479865785E+000, +1.17561156393E+003
+3.87346683354E+007, +2.49406639199E+000, +1.18105229750E+003
+3.88596996245E+007, +5.06443156470E+000, +1.19645509737E+003
+3.89847309136E+007, +1.26646509401E+001, +1.20408798967E+003
+3.91097622028E+007, +6.81623738358E+000, +1.21064565703E+003
+3.92347934919E+007, +7.85078101196E+000, +1.22048000071E+003
+3.93598247810E+007, +8.62320629530E+000, +1.22897821288E+003
+3.94848560701E+007, +6.34941119384E+000, +1.23854577438E+003
+3.96098873592E+007, +7.75181700002E+000, +1.24883082228E+003
+3.97349186483E+007, +1.68642135563E+001, +1.26277384009E+003
+3.98599499374E+007, +1.01473356407E+001, +1.27035573189E+003
+3.99849812265E+007, +7.97150773611E+000, +1.28676840424E+003
+4.01100125156E+007, +1.70288353455E+001, +1.29956526214E+003
