"# Channel 1"
"# Trace 1"
Frequency, Formatted Data, Formatted Data
+1.00000000000E+005, +3.96761603728E+001, +1.93220210666E+000
+2.25031289111E+005, +3.96406004719E+001, +4.45968726074E+000
+3.50062578223E+005, +3.96786985826E+001, +6.99419536839E+000
+4.75093867334E+005, +3.97304324604E+001, +9.47410226297E+000
+6.00125156446E+005, +3.97131577932E+001, +1.19431950784E+001
+7.25156445557E+005, +3.97213078037E+001, +1.43962328090E+001
+8.50187734668E+005, +3.97535595207E+001, +1.68153983188E+001
+9.75219023780E+005, +3.97719041490E+001, +1.93242814027E+001
+1.10025031289E+006, +3.98096774262E+001, +2.17576491960E+001
+1.22528160200E+006, +3.97836198066E+001, +2.42167924703E+001
+1.35031289111E+006, +3.98588738527E+001, +2.67377181729E+001
+1.47534418023E+006, +3.98163721998E+001, +2.91807035694E+001
+1.60037546934E+006, +3.98322826968E+001, +3.16339469064E+001
+1.72540675845E+006, +3.98601007857E+001, +3.41103047660E+001
+1.85043804756E+006, +3.98609289772E+001, +3.66002994943E+001
+1.97546933667E+006, +3.99105053811E+001, +3.90572163825E+001
+2.10050062578E+006, +3.98501747827E+001, +4.15223528190E+001
+2.22553191489E+006, +3.99334544254E+001, +4.39267066841E+001
+2.35056320401E+006, +3.99000231546E+001, +4.64279183064E+001
+2.47559449312E+006, +3.99386276442E+001, +4.89267950363E+001
+2.60062578223E+006, +3.99359515962E+001, +5.13548899426E+001
+2.72565707134E+006, +3.99692831087E+001, +5.37536727820E+001
+2.85068836045E+006, +3.99973778459E+001, +5.62221820947E+001
+2.97571964956E+006, +3.99712142956E+001, +5.87764987538E+001
+3.10075093867E+006, +4.00497526038E+001, +6.12343940658E+001
+3.22578222778E+006, +4.00259830963E+001, +6.36493300758E+001
+3.35081351690E+006, +4.00595850989E+001, +6.61500190249E+001
+3.47584480601E+006, +4.00564606970E+001, +6.85683537420E+001
+3.60087609512E+006, +4.00660944266E+001, +7.11381428319E+001
+3.72590738423E+006, +4.00300133556E+001, +7.35957303847E+001
+3.85093867334E+006, +4.00898078200E+001, +7.63273583211E+001
+3.97596996245E+006, +4.00607151700E+001, +7.89726152290E+001
+4.10100125156E+006, +4.14553780620E+001, +7.93575851089E+001
+4.22603254068E+006, +4.00114102795E+001, +8.32649043290E+001
+4.35106382979E+006, +4.02168742085E+001, +8.57938937492E+001
+4.47609511890E+006, +4.01691812164E+001, +8.83752397713E+001
+4.60112640801E+006, +4.02209133510E+001, +9.09334341166E+001
+4.72615769712E+006, +4.01945989898E+001, +9.34107553339E+001
+4.85118898623E+006, +4.03432480824E+001, +9.58608510967E+001
+4.97622027534E+006, +4.02231637332E+001, +9.83587124035E+001
+5.10125156446E+006, +4.03760119934E+001, +1.00843423173E+002
+5.22628285357E+006, +4.02813445659E+001, +1.03369192111E+002
+5.35131414268E+006, +4.04319774558E+001, +1.05814797807E+002
+5.47634543179E+006, +4.02886477995E+001, +1.08288243722E+002
+5.60137672090E+006, +4.04176093385E+001, +1.10805910122E+002
+5.72640801001E+006, +4.04381175947E+001, +1.13338065408E+002
+5.85143929912E+006, +4.04324931918E+001, +1.15719528046E+002
+5.97647058824E+006, +4.04093402176E+001, +1.18235300245E+002
+6.10150187735E+006, +4.04472487747E+001, +1.20881635176E+002
+6.22653316646E+006, +4.04769986552E+001, +1.23424640029E+002
+6.35156445557E+006, +4.04813618896E+001, +1.25912128091E+002
+6.47659574468E+006, +4.05323614526E+001, +1.28484740579E+002
+6.60162703379E+006, +4.06152581323E+001, +1.31062952851E+002
+6.72665832290E+006, +4.06405926217E+001, +1.33653477528E+002
+6.85168961202E+006, +4.07401525998E+001, +1.36101032035E+002
+6.97672090113E+006, +4.06623502540E+001, +1.38601875922E+002
+7.10175219024E+006, +4.07702821361E+001, +1.41102146558E+002
+7.22678347935E+006, +4.08553276896E+001, +1.43693289352E+002
+7.35181476846E+006, +4.09397036632E+001, +1.46139405610E+002
+7.47684605757E+006, +4.08881516171E+001, +1.48718639161E+002
+7.60187734668E+006, +4.10327921252E+001, +1.51294542019E+002
+7.72690863579E+006, +4.11450427152E+001, +1.53746269269E+002
+7.85193992491E+006, +4.09607700448E+001, +1.56316619319E+002
+7.97697121402E+006, +4.11226858655E+001, +1.58923170791E+002
+8.10200250313E+006, +4.12659730778E+001, +1.61363029825E+002
+8.22703379224E+006, +4.12033186067E+001, +1.63849684554E+002
+8.35206508135E+006, +4.12376918937E+001, +1.66507945432E+002
+8.47709637046E+006, +4.11700028095E+001, +1.68941618037E+002
+8.60212765957E+006, +4.12193697378E+001, +1.71402395814E+002
+8.72715894869E+006, +4.14859686559E+001, +1.73833853009E+002
+8.85219023780E+006, +4.16551381702E+001, +1.76235599079E+002
+8.97722152691E+006, +4.15770039546E+001, +1.78832645064E+002
+9.10225281602E+006, +4.16287057922E+001, +1.81461773055E+002
+9.22728410513E+006, +4.14503850147E+001, +1.84169870899E+002
+9.35231539424E+006, +4.14059151672E+001, +1.87009910744E+002
+9.47734668335E+006, +4.17129430302E+001, +1.89143392747E+002
+9.60237797247E+006, +4.16482519739E+001, +1.91407247861E+002
+9.72740926158E+006, +4.17832961770E+001, +1.93540602275E+002
+9.85244055069E+006, +4.17633724028E+001, +1.95661784931E+002
+9.97747183980E+006, +4.17997950537E+001, +1.97992215871E+002
+1.01025031289E+007, +4.17037164967E+001, +2.00630284096E+002
+1.02275344180E+007, +4.18326918459E+001, +2.03066466511E+002
+1.03525657071E+007, +4.19449966635E+001, +2.05577097310E+002
+1.04775969962E+007, +4.19048264223E+001, +2.08256628287E+002
+1.06026282854E+007, +4.17085708265E+001, +2.10661623824E+002
+1.07276595745E+007, +4.19626921273E+001, +2.13549472583E+002
+1.08526908636E+007, +4.20029700217E+001, +2.16439197074E+002
+1.09777221527E+007, +4.17531202447E+001, +2.19132275196E+002
+1.11027534418E+007, +4.18770864644E+001, +2.22060761506E+002
+1.12277847309E+007, +4.19792238972E+001, +2.25048476422E+002
+1.13528160200E+007, +4.19927009134E+001, +2.28301292242E+002
+1.14778473091E+007, +4.21454640174E+001, +2.31094194730E+002
+1.16028785982E+007, +4.19538177429E+001, +2.33917175104E+002
+1.17279098874E+007, +4.19417197908E+001, +2.36362043748E+002
+1.18529411765E+007, +4.21298905040E+001, +2.38954995606E+002
+1.19779724656E+007, +4.21414202850E+001, +2.41579848622E+002
+1.21030037547E+007, +4.21830181367E+001, +2.44424770548E+002
+1.22280350438E+007, +4.23856232269E+001, +2.47150169857E+002
+1.23530663329E+007, +4.23162942049E+001, +2.49727453574E+002
+1.24780976220E+007, +4.25872816710E+001, +2.52941544190E+002
+1.26031289111E+007, +4.24252720089E+001, +2.55488436037E+002
+1.27281602003E+007, +4.25053709162E+001, +2.57910875644E+002
+1.28531914894E+007, +4.23179091556E+001, +2.60801740124E+002
+1.29782227785E+007, +4.21267367376E+001, +2.63237792619E+002
+1.31032540676E+007, +4.25188090248E+001, +2.65969539902E+002
+1.32282853567E+007, +4.24667004739E+001, +2.68738580218E+002
+1.33533166458E+007, +4.25364848805E+001, +2.71443486190E+002
+1.34783479349E+007, +4.27119142505E+001, +2.74496232243E+002
+1.36033792240E+007, +4.27377236163E+001, +2.77079381683E+002
+1.37284105131E+007, +4.32340274996E+001, +2.80117980861E+002
+1.38534418023E+007, +4.29965302177E+001, +2.82829154279E+002
+1.39784730914E+007, +4.29643219223E+001, +2.85543003517E+002
+1.41035043805E+007, +4.29529455328E+001, +2.88580891700E+002
+1.42285356696E+007, +4.30275871688E+001, +2.90983463083E+002
+1.43535669587E+007, +4.28077644015E+001, +2.93540761637E+002
+1.44785982478E+007, +4.29996165806E+001, +2.96246534239E+002
+1.46036295369E+007, +4.27870362318E+001, +2.99270533922E+002
+1.47286608260E+007, +4.31946481894E+001, +3.02444054461E+002
+1.48536921151E+007, +4.31838953841E+001, +3.04734582342E+002
+1.49787234043E+007, +4.30302398528E+001, +3.07728717047E+002
+1.51037546934E+007, +4.31469027312E+001, +3.10557366276E+002
+1.52287859825E+007, +4.34843813516E+001, +3.13538612300E+002
+1.53538172716E+007, +4.36154323731E+001, +3.16342952988E+002
+1.54788485607E+007, +4.34939823345E+001, +3.19212769219E+002
+1.56038798498E+007, +4.40401207878E+001, +3.22437336674E+002
+1.57289111389E+007, +4.31467948196E+001, +3.25274492611E+002
+1.58539424280E+007, +4.38069522361E+001, +3.28571141614E+002
+1.59789737171E+007, +4.41311753028E+001, +3.30861983037E+002
+1.61040050063E+007, +4.39475387288E+001, +3.33738916820E+002
+1.62290362954E+007, +4.39697167779E+001, +3.36899006523E+002
+1.63540675845E+007, +4.40940978796E+001, +3.39394121236E+002
+1.64790988736E+007, +4.46083346112E+001, +3.42808942711E+002
+1.66041301627E+007, +4.43173310936E+001, +3.45317246212E+002
+1.67291614518E+007, +4.43885910361E+001, +3.48575692386E+002
+1.68541927409E+007, +4.44761879589E+001, +3.51501589526E+002
+1.69792240300E+007, +4.50769821442E+001, +3.54614213664E+002
+1.71042553191E+007, +4.42749372662E+001, +3.57482198241E+002
+1.72292866083E+007, +4.39743884071E+001, +3.60199699937E+002
+1.73543178974E+007, +4.48341136164E+001, +3.63347617526E+002
+1.74793491865E+007, +4.49651516758E+001, +3.66649512055E+002
+1.76043804756E+007, +4.49929407725E+001, +3.69001669482E+002
+1.77294117647E+007, +4.51070634356E+001, +3.71514720004E+002
+1.78544430538E+007, +4.50071881281E+001, +3.75487409656E+002
+1.79794743429E+007, +4.50530574324E+001, +3.78210050410E+002
+1.81045056320E+007, +4.45543107824E+001, +3.80855642500E+002
+1.82295369212E+007, +4.46516394035E+001, +3.83872833379E+002
+1.83545682103E+007, +4.55961263021E+001, +3.87463165679E+002
+1.84795994994E+007, +4.60760556349E+001, +3.90933900380E+002
+1.86046307885E+007, +4.54289681760E+001, +3.93802506269E+002
+1.87296620776E+007, +4.60862776162E+001, +3.97366042726E+002
+1.88546933667E+007, +4.52203557749E+001, +4.00212629790E+002
+1.89797246558E+007, +4.66836521788E+001, +4.04102064331E+002
+1.91047559449E+007, +4.66268703366E+001, +4.06756457730E+002
+1.92297872340E+007, +4.60719896564E+001, +4.10041202999E+002
+1.93548185232E+007, +4.57333435990E+001, +4.12842907454E+002
+1.94798498123E+007, +4.71407993917E+001, +4.16026347078E+002
+1.96048811014E+007, +4.68579715690E+001, +4.19404778587E+002
+1.97299123905E+007, +4.73199691956E+001, +4.22279575889E+002
+1.98549436796E+007, +4.73026336642E+001, +4.25181407414E+002
+1.99799749687E+007, +4.72970613229E+001, +4.28556407582E+002
+2.01050062578E+007, +4.73048524675E+001, +4.31891222506E+002
+2.02300375469E+007, +4.78490342933E+001, +4.34681274912E+002
+2.03550688360E+007, +4.70318735698E+001, +4.39289331872E+002
+2.04801001252E+007, +4.80877101031E+001, +4.41363269649E+002
+2.06051314143E+007, +4.83392792312E+001, +4.44328404915E+002
+2.07301627034E+007, +4.79349238438E+001, +4.48706778759E+002
+2.08551939925E+007, +4.83341840299E+001, +4.50711849691E+002
+2.09802252816E+007, +4.88737184569E+001, +4.54734815525E+002
+2.11052565707E+007, +4.86795862394E+001, +4.58298038548E+002
+2.12302878598E+007, +4.90578455721E+001, +4.61057328513E+002
+2.13553191489E+007, +4.90196709013E+001, +4.65810744544E+002
+2.14803504380E+007, +4.92867665592E+001, +4.68530484415E+002
+2.16053817272E+007, +4.90066389967E+001, +4.72018866526E+002
+2.17304130163E+007, +4.91077534841E+001, +4.74688415717E+002
+2.18554443054E+007, +4.98026935903E+001, +4.78308170858E+002
+2.19804755945E+007, +4.96197450814E+001, +4.83006175545E+002
+2.21055068836E+007, +4.96209374983E+001, +4.85341591738E+002
+2.22305381727E+007, +4.99318978711E+001, +4.89169387290E+002
+2.23555694618E+007, +5.13424033563E+001, +4.92497079392E+002
+2.24806007509E+007, +5.03816441096E+001, +4.95701258018E+002
+2.26056320401E+007, +5.13053214782E+001, +5.00132512157E+002
+2.27306633292E+007, +5.10785854540E+001, +5.04109922405E+002
+2.28556946183E+007, +5.22487575719E+001, +5.06387093824E+002
+2.29807259074E+007, +5.26742865568E+001, +5.11523512088E+002
+2.31057571965E+007, +5.29228495851E+001, +5.13191920374E+002
+2.32307884856E+007, +5.20811743389E+001, +5.18780077925E+002
+2.33558197747E+007, +5.28815927718E+001, +5.21290789966E+002
+2.34808510638E+007, +5.31158800015E+001, +5.25126036998E+002
+2.36058823529E+007, +5.31790002507E+001, +5.28221524604E+002
+2.37309136421E+007, +5.52089315082E+001, +5.31159882632E+002
+2.38559449312E+007, +5.37261356215E+001, +5.34657025392E+002
+2.39809762203E+007, +5.46088309932E+001, +5.37916174923E+002
+2.41060075094E+007, +5.39274105015E+001, +5.42290056665E+002
+2.42310387985E+007, +5.47653518852E+001, +5.45441546765E+002
+2.43560700876E+007, +5.40238740789E+001, +5.47029158177E+002
+2.44811013767E+007, +5.46730862350E+001, +5.51592159061E+002
+2.46061326658E+007, +5.46125387140E+001, +5.56613580223E+002
+2.47311639549E+007, +5.45244655153E+001, +5.59484490298E+002
+2.48561952441E+007, +5.49084025811E+001, +5.62223626623E+002
+2.49812265332E+007, +5.44576142125E+001, +5.66929610871E+002
+2.51062578223E+007, +5.57142045316E+001, +5.70679285751E+002
+2.52312891114E+007, +5.53387816104E+001, +5.74832413675E+002
+2.53563204005E+007, +5.44317905237E+001, +5.77302441238E+002
+2.54813516896E+007, +5.46375573398E+001, +5.81729455275E+002
+2.56063829787E+007, +5.49999928368E+001, +5.85606617464E+002
+2.57314142678E+007, +5.66636638085E+001, +5.89832608297E+002
+2.58564455569E+007, +5.52243821784E+001, +5.94141521084E+002
+2.59814768461E+007, +5.60169437742E+001, +5.97310669363E+002
+2.61065081352E+007, +5.52646114400E+001, +6.01150271036E+002
+2.62315394243E+007, +5.59765827582E+001, +6.06228216798E+002
+2.63565707134E+007, +5.57075406240E+001, +6.10552672118E+002
+2.64816020025E+007, +5.61566688615E+001, +6.14970472877E+002
+2.66066332916E+007, +5.62912709950E+001, +6.18099235030E+002
+2.67316645807E+007, +5.66995321293E+001, +6.22198057102E+002
+2.68566958698E+007, +5.72187434411E+001, +6.27166008934E+002
+2.69817271589E+007, +5.61457637722E+001, +6.30024595087E+002
+2.71067584481E+007, +5.73724593014E+001, +6.36740083775E+002
+2.72317897372E+007, +5.81416972927E+001, +6.38664014902E+002
+2.73568210263E+007, +5.89917398733E+001, +6.43145157269E+002
+2.74818523154E+007, +5.91557592984E+001, +6.47376417830E+002
+2.76068836045E+007, +5.97829994927E+001, +6.52756267192E+002
+2.77319148936E+007, +5.96276734332E+001, +6.55445680059E+002
+2.78569461827E+007, +6.05435965568E+001, +6.59330477367E+002
+2.79819774718E+007, +6.20330389815E+001, +6.64049415916E+002
+2.81070087610E+007, +6.13422362129E+001, +6.67494482957E+002
+2.82320400501E+007, +6.09736673463E+001, +6.71546997454E+002
+2.83570713392E+007, +6.14899383766E+001, +6.75006084364E+002
+2.84821026283E+007, +6.09731203386E+001, +6.81696017326E+002
+2.86071339174E+007, +6.09155816901E+001, +6.85310500473E+002
+2.87321652065E+007, +6.11636589364E+001, +6.89563910645E+002
+2.88571964956E+007, +6.18038145727E+001, +6.95331259960E+002
+2.89822277847E+007, +6.07116687300E+001, +6.99852832869E+002
+2.91072590738E+007, +6.23380109926E+001, +7.06042487153E+002
+2.92322903630E+007, +6.39718173997E+001, +7.09546350715E+002
+2.93573216521E+007, +6.27880844526E+001, +7.13706122148E+002
+2.94823529412E+007, +6.45410300011E+001, +7.19679976207E+002
+2.96073842303E+007, +6.41780989037E+001, +7.21518177075E+002
+2.97324155194E+007, +6.49444283603E+001, +7.28290849746E+002
+2.98574468085E+007, +6.39997578184E+001, +7.32710958459E+002
+2.99824780976E+007, +6.60296531290E+001, +7.36868497294E+002
+3.01075093867E+007, +6.56575693485E+001, +7.43038505782E+002
+3.02325406758E+007, +6.61597156504E+001, +7.45975437921E+002
+3.03575719650E+007, +6.69891067715E+001, +7.50317660033E+002
+3.04826032541E+007, +6.61889545155E+001, +7.56047524141E+002
+3.06076345432E+007, +6.66433094799E+001, +7.59141095451E+002
+3.07326658323E+007, +6.78115609496E+001, +7.68950153582E+002
+3.08576971214E+007, +6.93213653594E+001, +7.70512824918E+002
+3.09827284105E+007, +6.78530838918E+001, +7.76684577091E+002
+3.11077596996E+007, +6.84950037838E+001, +7.83118143456E+002
+3.12327909887E+007, +6.94724355379E+001, +7.85837299377E+002
+3.13578222778E+007, +7.04166358366E+001, +7.92330471621E+002
+3.14828535670E+007, +6.90618867090E+001, +7.95981908503E+002
+3.16078848561E+007, +7.09164528410E+001, +8.03764215552E+002
+3.17329161452E+007, +7.22407101921E+001, +8.07453167250E+002
+3.18579474343E+007, +7.30898255658E+001, +8.10976427829E+002
+3.19829787234E+007, +7.27834636040E+001, +8.15286416497E+002
+3.21080100125E+007, +7.22665123084E+001, +8.21127753516E+002
+3.22330413016E+007, +7.31745050474E+001, +8.26324600469E+002
+3.23580725907E+007, +7.52666754539E+001, +8.34334162033E+002
+3.24831038798E+007, +7.62200094096E+001, +8.39954069743E+002
+3.26081351690E+007, +7.59321523358E+001, +8.44527054919E+002
+3.27331664581E+007, +7.67230646258E+001, +8.51381563607E+002
+3.28581977472E+007, +7.66826710147E+001, +8.53852187431E+002
+3.29832290363E+007, +7.63105190803E+001, +8.61109002728E+002
+3.31082603254E+007, +7.86447628904E+001, +8.63997678919E+002
+3.32332916145E+007, +7.86026099416E+001, +8.74554031311E+002
+3.33583229036E+007, +7.80842422158E+001, +8.81133731579E+002
+3.34833541927E+007, +8.09022078934E+001, +8.84639110065E+002
+3.36083854819E+007, +8.04973253033E+001, +8.89774872045E+002
+3.37334167710E+007, +8.22688272871E+001, +8.95750812880E+002
+3.38584480601E+007, +8.41929085251E+001, +9.00055637015E+002
+3.39834793492E+007, +8.63089197921E+001, +9.06887032878E+002
+3.41085106383E+007, +8.25495046210E+001, +9.11441797115E+002
+3.42335419274E+007, +8.56446948906E+001, +9.19343565536E+002
+3.43585732165E+007, +8.65152390294E+001, +9.24981313993E+002
+3.44836045056E+007, +8.43212086645E+001, +9.30806903586E+002
+3.46086357947E+007, +8.88999132715E+001, +9.38986636823E+002
+3.47336670839E+007, +9.13182895324E+001, +9.43738288451E+002
+3.48586983730E+007, +9.04010415198E+001, +9.51254090386E+002
+3.49837296621E+007, +9.13160435702E+001, +9.59018221095E+002
+3.51087609512E+007, +9.19163522388E+001, +9.64304369430E+002
+3.52337922403E+007, +9.33735203182E+001, +9.73289349533E+002
+3.53588235294E+007, +9.06785025549E+001, +9.77438433787E+002
+3.54838548185E+007, +9.17751503774E+001, +9.78511000107E+002
+3.56088861076E+007, +9.52045990181E+001, +9.89016520882E+002
+3.57339173967E+007, +9.54898595643E+001, +9.97374438178E+002
+3.58589486859E+007, +9.56889706405E+001, +1.00399271022E+003
+3.59839799750E+007, +9.84169682108E+001, +1.00960865071E+003
+3.61090112641E+007, +1.00613174312E+002, +1.01767335490E+003
+3.62340425532E+007, +1.00395691430E+002, +1.02273883030E+003
+3.63590738423E+007, +9.86173805939E+001, +1.03291858296E+003
+3.64841051314E+007, +9.98217746465E+001, +1.03778921526E+003
+3.66091364205E+007, +1.04803846348E+002, +1.04552213289E+003
+3.67341677096E+007, +1.03920547252E+002, +1.05131848518E+003
+3.68591989987E+007, +1.03123355802E+002, +1.05838867935E+003
+3.69842302879E+007, +1.10403257547E+002, +1.06461581045E+003
+3.71092615770E+007, +1.08203147505E+002, +1.07330960444E+003
+3.72342928661E+007, +1.09317205345E+002, +1.08521462082E+003
+3.73593241552E+007, +1.11471130329E+002, +1.09066099377E+003
+3.74843554443E+007, +1.11690453174E+002, +1.09886509380E+003
+3.76093867334E+007, +1.10255703549E+002, +1.10614338848E+003
+3.77344180225E+007, +1.11294392620E+002, +1.11736908473E+003
+3.78594493116E+007, +1.14816452796E+002, +1.12107899303E+003
+3.79844806008E+007, +1.22038641124E+002, +1.12889641550E+003
+3.81095118899E+007, +1.18079341050E+002, +1.13888446015E+003
+3.82345431790E+007, +1.20378519218E+002, +1.14792494444E+003
+3.83595744681E+007, +1.16709801784E+002, +1.15815602692E+003
+3.84846057572E+007, +1.26462019168E+002, +1.16265729403E+003
+3.86096370463E+007, +1.27248943874E+002, +1.17271238161E+003
+3.87346683354E+007, +1.28493251286E+002, +1.18251897661E+003
+3.88596996245E+007, +1.27800606594E+002, +1.19413267678E+003
+3.89847309136E+007, +1.30891010358E+002, +1.19949541696E+003
+3.91097622028E+007, +1.30260249500E+002, +1.20371925683E+003
+3.92347934919E+007, +1.32535862774E+002, +1.21647015123E+003
+3.93598247810E+007, +1.33844750792E+002, +1.22590487407E+003
+3.94848560701E+007, +1.34747375513E+002, +1.23681527143E+003
+3.96098873592E+007, +1.38965340911E+002, +1.24379836900E+003
+3.97349186483E+007, +1.40275343930E+002, +1.25592961500E+003
+3.98599499374E+007, +1.47933336315E+002, +1.26894630145E+003
+3.99849812265E+007, +1.40527802360E+002, +1.28184434193E+003
+4.01100125156E+007, +1.39932524084E+002, +1.28400047735E+003
