"# Channel 1"
"# Trace 1"
Frequency, Formatted Data, Formatted Data
+1.00000000000E+005, +7.90265919007E-001, +1.99134853376E+000
+2.25031289111E+005, +7.94321834754E-001, +4.41451319563E+000
+3.50062578223E+005, +8.31005035916E-001, +6.85518299886E+000
+4.75093867334E+005, +8.67679480221E-001, +9.26456696676E+000
+6.00125156446E+005, +8.96590431786E-001, +1.16937084910E+001
+7.25156445557E+005, +9.50121235808E-001, +1.41068644273E+001
+8.50187734668E+005, +9.89198150635E-001, +1.65101476326E+001
+9.75219023780E+005, +1.02510195101E+000, +1.89159385000E+001
+1.10025031289E+006, +1.05574198142E+000, +2.13071391987E+001
+1.22528160200E+006, +1.11420628579E+000, +2.37091421289E+001
+1.35031289111E+006, +1.13579932818E+000, +2.60957789386E+001
+1.47534418023E+006, +1.17930734564E+000, +2.84749813471E+001
+1.60037546934E+006, +1.23272755399E+000, +3.08562889926E+001
+1.72540675845E+006, +1.26274224198E+000, +3.32320864214E+001
+1.85043804756E+006, +1.27606282781E+000, +3.56188683838E+001
+1.97546933667E+006, +1.32993666994E+000, +3.79977778390E+001
+2.10050062578E+006, +1.34896663782E+000, +4.03712894835E+001
+2.22553191489E+006, +1.39928550002E+000, +4.27348010746E+001
+2.35056320401E+006, +1.41269396125E+000, +4.51148135562E+001
+2.47559449312E+006, +1.40930089755E+000, +4.75028036249E+001
+2.60062578223E+006, +1.46911117180E+000, +4.99048607869E+001
+2.72565707134E+006, +1.49978472285E+000, +5.22326823180E+001
+2.85068836045E+006, +1.52350391999E+000, +5.46184859899E+001
+2.97571964956E+006, +1.54786769453E+000, +5.70027712902E+001
+3.10075093867E+006, +1.54627632923E+000, +5.94049941751E+001
+3.22578222778E+006, +1.56255062569E+000, +6.17698161693E+001
+3.35081351690E+006, +1.67243400765E+000, +6.41546037491E+001
+3.47584480601E+006, +1.65903273347E+000, +6.65226071124E+001
+3.60087609512E+006, +1.66474381365E+000, +6.88990103417E+001
+3.72590738423E+006, +1.68546012239E+000, +7.12572661997E+001
+3.85093867334E+006, +1.54702924607E+000, +7.37747692285E+001
+3.97596996245E+006, +1.38804860336E+000, +7.62031270869E+001
+4.10100125156E+006, +3.31301012394E+000, +7.83183378247E+001
+4.22603254068E+006, +1.79475696926E+000, +8.05588120714E+001
+4.35106382979E+006, +1.79290685698E+000, +8.30045733401E+001
+4.47609511890E+006, +1.72892491782E+000, +8.54504565446E+001
+4.60112640801E+006, +1.75869552574E+000, +8.79798367525E+001
+4.72615769712E+006, +1.86680652101E+000, +9.03288535010E+001
+4.85118898623E+006, +1.84970390234E+000, +9.27409577469E+001
+4.97622027534E+006, +1.84017008427E+000, +9.51897779704E+001
+5.10125156446E+006, +1.86647365740E+000, +9.74339747089E+001
+5.22628285357E+006, +1.96746236950E+000, +9.99022790785E+001
+5.35131414268E+006, +1.94382307822E+000, +1.02262934677E+002
+5.47634543179E+006, +1.87272200038E+000, +1.04714750867E+002
+5.60137672090E+006, +1.87512525952E+000, +1.07071816297E+002
+5.72640801001E+006, +1.91185003088E+000, +1.09432455953E+002
+5.85143929912E+006, +1.89756182950E+000, +1.11929806176E+002
+5.97647058824E+006, +1.82487451683E+000, +1.14221987515E+002
+6.10150187735E+006, +1.97853498824E+000, +1.16779214078E+002
+6.22653316646E+006, +1.99533397245E+000, +1.19103413416E+002
+6.35156445557E+006, +1.92360997662E+000, +1.21538283664E+002
+6.47659574468E+006, +1.92296010643E+000, +1.24011910600E+002
+6.60162703379E+006, +1.99638738792E+000, +1.26484286590E+002
+6.72665832290E+006, +2.03180594170E+000, +1.28964977432E+002
+6.85168961202E+006, +2.05788560809E+000, +1.31450587215E+002
+6.97672090113E+006, +2.03294956537E+000, +1.33812131530E+002
+7.10175219024E+006, +2.10490504444E+000, +1.36196999033E+002
+7.22678347935E+006, +2.21001157465E+000, +1.38715634166E+002
+7.35181476846E+006, +2.16632486521E+000, +1.41145570542E+002
+7.47684605757E+006, +2.09337502395E+000, +1.43490903806E+002
+7.60187734668E+006, +2.24317514935E+000, +1.45972133565E+002
+7.72690863579E+006, +2.39117170348E+000, +1.48470303612E+002
+7.85193992491E+006, +2.25406000554E+000, +1.50822054292E+002
+7.97697121402E+006, +2.24004257475E+000, +1.53291320261E+002
+8.10200250313E+006, +2.36405537158E+000, +1.55676414163E+002
+8.22703379224E+006, +2.40325900124E+000, +1.58156609798E+002
+8.35206508135E+006, +2.40673848812E+000, +1.60541433746E+002
+8.47709637046E+006, +2.25488007074E+000, +1.63032975949E+002
+8.60212765957E+006, +2.41852998337E+000, +1.65341351204E+002
+8.72715894869E+006, +2.64483208365E+000, +1.67780751203E+002
+8.85219023780E+006, +2.75095467354E+000, +1.70202109105E+002
+8.97722152691E+006, +2.82547373829E+000, +1.72679640879E+002
+9.10225281602E+006, +2.60374845034E+000, +1.75083549313E+002
+9.22728410513E+006, +2.62616710274E+000, +1.77582631241E+002
+9.35231539424E+006, +2.36916952698E+000, +1.80227468185E+002
+9.47734668335E+006, +2.57838582310E+000, +1.82509783135E+002
+9.60237797247E+006, +2.78012296768E+000, +1.84587369886E+002
+9.72740926158E+006, +2.93008415205E+000, +1.86927034175E+002
+9.85244055069E+006, +3.06606834209E+000, +1.89013908844E+002
+9.97747183980E+006, +3.08575787076E+000, +1.91298027788E+002
+1.01025031289E+007, +3.15406116674E+000, +1.93597028342E+002
+1.02275344180E+007, +3.10835956096E+000, +1.95947005732E+002
+1.03525657071E+007, +3.35608973001E+000, +1.98311887522E+002
+1.04775969962E+007, +3.12677468866E+000, +2.00732646516E+002
+1.06026282854E+007, +3.14264148741E+000, +2.03279991499E+002
+1.07276595745E+007, +3.14255183242E+000, +2.05838018263E+002
+1.08526908636E+007, +3.00879486479E+000, +2.08657274193E+002
+1.09777221527E+007, +2.87031690069E+000, +2.11410437453E+002
+1.11027534418E+007, +2.92250411993E+000, +2.14158046322E+002
+1.12277847309E+007, +2.70860913979E+000, +2.16735809485E+002
+1.13528160200E+007, +2.76135565578E+000, +2.19862943590E+002
+1.14778473091E+007, +2.46705346304E+000, +2.22694544151E+002
+1.16028785982E+007, +2.26085409080E+000, +2.25305906669E+002
+1.17279098874E+007, +2.35820240284E+000, +2.27746154436E+002
+1.18529411765E+007, +2.29600300087E+000, +2.30089452006E+002
+1.19779724656E+007, +2.36391043989E+000, +2.32700528141E+002
+1.21030037547E+007, +2.26957624914E+000, +2.35054078260E+002
+1.22280350438E+007, +2.62929174895E+000, +2.37905039988E+002
+1.23530663329E+007, +2.27938641540E+000, +2.40546930882E+002
+1.24780976220E+007, +2.48887633807E+000, +2.43379473502E+002
+1.26031289111E+007, +2.53261100561E+000, +2.45711448336E+002
+1.27281602003E+007, +2.29317713270E+000, +2.48444820502E+002
+1.28531914894E+007, +2.60033703072E+000, +2.50873009753E+002
+1.29782227785E+007, +2.33667430252E+000, +2.53478659978E+002
+1.31032540676E+007, +2.39086566613E+000, +2.56018743937E+002
+1.32282853567E+007, +2.18338639404E+000, +2.58422187495E+002
+1.33533166458E+007, +2.21231043962E+000, +2.61255031660E+002
+1.34783479349E+007, +2.50847954086E+000, +2.63989222364E+002
+1.36033792240E+007, +2.36007922428E+000, +2.66624639800E+002
+1.37284105131E+007, +2.34063097071E+000, +2.69413086221E+002
+1.38534418023E+007, +2.49488077888E+000, +2.71913779838E+002
+1.39784730914E+007, +2.16608744243E+000, +2.74654070924E+002
+1.41035043805E+007, +2.06760659767E+000, +2.77578060861E+002
+1.42285356696E+007, +2.19833506366E+000, +2.79621673862E+002
+1.43535669587E+007, +2.14304154727E+000, +2.82634310457E+002
+1.44785982478E+007, +1.97291141593E+000, +2.85334429077E+002
+1.46036295369E+007, +2.26925497446E+000, +2.87920499944E+002
+1.47286608260E+007, +2.05988366937E+000, +2.90744606881E+002
+1.48536921151E+007, +2.17428247110E+000, +2.93087611611E+002
+1.49787234043E+007, +2.17263155252E+000, +2.96117973278E+002
+1.51037546934E+007, +1.77818749676E+000, +2.98634115124E+002
+1.52287859825E+007, +2.06224740239E+000, +3.01721870691E+002
+1.53538172716E+007, +2.10809530960E+000, +3.03898870959E+002
+1.54788485607E+007, +2.03180256521E+000, +3.06746917358E+002
+1.56038798498E+007, +2.35077264874E+000, +3.10011242337E+002
+1.57289111389E+007, +2.13538251471E+000, +3.12617041156E+002
+1.58539424280E+007, +2.19258833794E+000, +3.15371913428E+002
+1.59789737171E+007, +1.96099900698E+000, +3.18197524384E+002
+1.61040050063E+007, +2.30275043798E+000, +3.21035891913E+002
+1.62290362954E+007, +2.26174188390E+000, +3.23296142269E+002
+1.63540675845E+007, +2.18127787708E+000, +3.26274441390E+002
+1.64790988736E+007, +2.11782477016E+000, +3.29274680065E+002
+1.66041301627E+007, +2.08903858138E+000, +3.32288695779E+002
+1.67291614518E+007, +2.15700416388E+000, +3.34692302230E+002
+1.68541927409E+007, +2.51318512322E+000, +3.37698993113E+002
+1.69792240300E+007, +2.46140166083E+000, +3.40258050034E+002
+1.71042553191E+007, +2.07361487428E+000, +3.43917934147E+002
+1.72292866083E+007, +2.18044817348E+000, +3.45880793271E+002
+1.73543178974E+007, +1.95888518783E+000, +3.48570457335E+002
+1.74793491865E+007, +1.97034116335E+000, +3.51207086983E+002
+1.76043804756E+007, +1.64342075731E+000, +3.54691232494E+002
+1.77294117647E+007, +2.03754322036E+000, +3.57687502040E+002
+1.78544430538E+007, +1.77162176137E+000, +3.60479122528E+002
+1.79794743429E+007, +2.15934009364E+000, +3.62763953696E+002
+1.81045056320E+007, +1.35148943499E+000, +3.66194233823E+002
+1.82295369212E+007, +2.14214236886E+000, +3.69067400264E+002
+1.83545682103E+007, +2.19321304661E+000, +3.71810095940E+002
+1.84795994994E+007, +2.42518204510E+000, +3.74876461487E+002
+1.86046307885E+007, +2.09389577201E+000, +3.78512991939E+002
+1.87296620776E+007, +2.57827087861E+000, +3.81038255000E+002
+1.88546933667E+007, +2.40715651555E+000, +3.84324171858E+002
+1.89797246558E+007, +2.46156762292E+000, +3.87030577349E+002
+1.91047559449E+007, +2.12465311984E+000, +3.89759668929E+002
+1.92297872340E+007, +2.67917040993E+000, +3.92841510373E+002
+1.93548185232E+007, +1.61477538341E+000, +3.96337859262E+002
+1.94798498123E+007, +2.04237827008E+000, +3.98696028762E+002
+1.96048811014E+007, +2.51505600366E+000, +4.01903939328E+002
+1.97299123905E+007, +2.96714500531E+000, +4.05828056871E+002
+1.98549436796E+007, +2.44181879947E+000, +4.08425536096E+002
+1.99799749687E+007, +2.56947806727E+000, +4.11919672538E+002
+2.01050062578E+007, +1.60352413773E+000, +4.15088879973E+002
+2.02300375469E+007, +2.29963168351E+000, +4.17671005763E+002
+2.03550688360E+007, +2.06067341973E+000, +4.20621527084E+002
+2.04801001252E+007, +2.29075717318E+000, +4.24114808937E+002
+2.06051314143E+007, +2.77048568577E+000, +4.27217192590E+002
+2.07301627034E+007, +2.16816956867E+000, +4.29486096976E+002
+2.08551939925E+007, +3.47239174474E+000, +4.33145471300E+002
+2.09802252816E+007, +2.90431926810E+000, +4.35816648876E+002
+2.11052565707E+007, +2.42389833267E+000, +4.39492947523E+002
+2.12302878598E+007, +2.77619557911E+000, +4.42836191628E+002
+2.13553191489E+007, +3.25742936272E+000, +4.45205934930E+002
+2.14803504380E+007, +2.71836371304E+000, +4.49071633332E+002
+2.16053817272E+007, +3.02338698931E+000, +4.51921167302E+002
+2.17304130163E+007, +3.28349740208E+000, +4.56739692642E+002
+2.18554443054E+007, +3.19894969777E+000, +4.58922948409E+002
+2.19804755945E+007, +2.26607680244E+000, +4.62911787902E+002
+2.21055068836E+007, +3.29142223909E+000, +4.65386946866E+002
+2.22305381727E+007, +2.84206492897E+000, +4.69371457773E+002
+2.23555694618E+007, +3.21488392708E+000, +4.72756715840E+002
+2.24806007509E+007, +3.01113742021E+000, +4.75869345996E+002
+2.26056320401E+007, +2.07569200740E+000, +4.80052540579E+002
+2.27306633292E+007, +3.17080994010E+000, +4.82330872123E+002
+2.28556946183E+007, +2.56580885346E+000, +4.85774904515E+002
+2.29807259074E+007, +4.12132080976E+000, +4.88986540262E+002
+2.31057571965E+007, +3.12531699730E+000, +4.92197903261E+002
+2.32307884856E+007, +2.71654336059E+000, +4.96247245382E+002
+2.33558197747E+007, +3.57480946824E+000, +5.00335143826E+002
+2.34808510638E+007, +3.90067546686E+000, +5.02162617419E+002
+2.36058823529E+007, +4.47063186576E+000, +5.05901808615E+002
+2.37309136421E+007, +4.89614852541E+000, +5.09124152299E+002
+2.38559449312E+007, +4.93355901179E+000, +5.12436833295E+002
+2.39809762203E+007, +4.46963513884E+000, +5.15413684724E+002
+2.41060075094E+007, +3.88133542431E+000, +5.18589933986E+002
+2.42310387985E+007, +3.92058439181E+000, +5.22395088991E+002
+2.43560700876E+007, +4.96863681798E+000, +5.26157885264E+002
+2.44811013767E+007, +4.76827750670E+000, +5.29344918282E+002
+2.46061326658E+007, +4.77009329510E+000, +5.33129906773E+002
+2.47311639549E+007, +4.00286094016E+000, +5.35598183590E+002
+2.48561952441E+007, +4.03642063845E+000, +5.38966466386E+002
+2.49812265332E+007, +3.59568712421E+000, +5.43269874452E+002
+2.51062578223E+007, +3.93212154566E+000, +5.45424169848E+002
+2.52312891114E+007, +3.02495859541E+000, +5.49327328545E+002
+2.53563204005E+007, +3.38295470054E+000, +5.52703557127E+002
+2.54813516896E+007, +3.08471916998E+000, +5.57402097820E+002
+2.56063829787E+007, +2.87966830693E+000, +5.61128799548E+002
+2.57314142678E+007, +4.84869992922E+000, +5.64610014619E+002
+2.58564455569E+007, +2.37004977790E+000, +5.67669913639E+002
+2.59814768461E+007, +3.42344090051E+000, +5.70795321676E+002
+2.61065081352E+007, +2.83174407108E+000, +5.76054828696E+002
+2.62315394243E+007, +2.54781535504E+000, +5.78739248465E+002
+2.63565707134E+007, +3.57421844049E+000, +5.83745790330E+002
+2.64816020025E+007, +2.58944699316E+000, +5.87209235880E+002
+2.66066332916E+007, +3.42668462778E+000, +5.90862954497E+002
+2.67316645807E+007, +2.45295350201E+000, +5.95140402282E+002
+2.68566958698E+007, +2.08563746844E+000, +5.99345198457E+002
+2.69817271589E+007, +4.41259710582E+000, +6.03190316441E+002
+2.71067584481E+007, +2.75719031753E+000, +6.09374123506E+002
+2.72317897372E+007, +2.41467094336E+000, +6.10833102443E+002
+2.73568210263E+007, +2.74624224408E+000, +6.15631722216E+002
+2.74818523154E+007, +3.94626276776E+000, +6.20090656712E+002
+2.76068836045E+007, +2.20259175221E+000, +6.23560977245E+002
+2.77319148936E+007, +3.98247215819E+000, +6.26811604323E+002
+2.78569461827E+007, +3.51761816520E+000, +6.31535195168E+002
+2.79819774718E+007, +3.51954248267E+000, +6.33002917330E+002
+2.81070087610E+007, +3.75011189682E+000, +6.38344838935E+002
+2.82320400501E+007, +3.34692820043E+000, +6.43145353489E+002
+2.83570713392E+007, +4.17680623241E+000, +6.46618658616E+002
+2.84821026283E+007, +3.57269416363E+000, +6.50785716855E+002
+2.86071339174E+007, +4.07503587021E+000, +6.54563748420E+002
+2.87321652065E+007, +2.83776060071E+000, +6.59908861651E+002
+2.88571964956E+007, +1.47973498171E+000, +6.63817702619E+002
+2.89822277847E+007, +4.27584096557E+000, +6.66521049992E+002
+2.91072590738E+007, +5.57051578417E+000, +6.72849979828E+002
+2.92322903630E+007, +3.75495648104E+000, +6.77236381493E+002
+2.93573216521E+007, +4.28223650073E+000, +6.83017473556E+002
+2.94823529412E+007, +4.81168899199E+000, +6.85162924071E+002
+2.96073842303E+007, +3.50742133420E+000, +6.90431587289E+002
+2.97324155194E+007, +5.48148408803E+000, +6.95132001768E+002
+2.98574468085E+007, +5.68362342001E+000, +6.99352684160E+002
+2.99824780976E+007, +5.32183574899E+000, +7.04104793839E+002
+3.01075093867E+007, +5.09337192950E+000, +7.08120778893E+002
+3.02325406758E+007, +4.81134319299E+000, +7.12609613969E+002
+3.03575719650E+007, +4.72129354220E+000, +7.16905422422E+002
+3.04826032541E+007, +5.26005598950E+000, +7.24382845262E+002
+3.06076345432E+007, +3.82174399969E+000, +7.27580971850E+002
+3.07326658323E+007, +4.74112123324E+000, +7.31435548629E+002
+3.08576971214E+007, +4.67895014342E+000, +7.37145573072E+002
+3.09827284105E+007, +6.81451458184E+000, +7.43720134897E+002
+3.11077596996E+007, +5.55837176945E+000, +7.44911125283E+002
+3.12327909887E+007, +6.87803033917E+000, +7.52348870091E+002
+3.13578222778E+007, +6.14082635968E+000, +7.54098775964E+002
+3.14828535670E+007, +5.51925530593E+000, +7.60376356576E+002
+3.16078848561E+007, +7.83030431633E+000, +7.65404216928E+002
+3.17329161452E+007, +8.32661191833E+000, +7.70923545746E+002
+3.18579474343E+007, +5.89300348756E+000, +7.75280718341E+002
+3.19829787234E+007, +7.38740690772E+000, +7.81968722658E+002
+3.21080100125E+007, +5.55360837106E+000, +7.84859487268E+002
+3.22330413016E+007, +6.71016525486E+000, +7.91066445575E+002
+3.23580725907E+007, +9.14451143962E+000, +7.94753086131E+002
+3.24831038798E+007, +7.86971538046E+000, +7.98561337312E+002
+3.26081351690E+007, +7.89197604266E+000, +8.04339956117E+002
+3.27331664581E+007, +1.03886786713E+001, +8.10547119525E+002
+3.28581977472E+007, +7.62519416403E+000, +8.16184831647E+002
+3.29832290363E+007, +9.83942051582E+000, +8.23039781482E+002
+3.31082603254E+007, +1.06472600322E+001, +8.30927018479E+002
+3.32332916145E+007, +9.14208757684E+000, +8.34769446584E+002
+3.33583229036E+007, +8.77994689187E+000, +8.36089227533E+002
+3.34833541927E+007, +1.02557367284E+001, +8.44154783779E+002
+3.36083854819E+007, +1.07644897242E+001, +8.48573167989E+002
+3.37334167710E+007, +9.68748146880E+000, +8.54954622222E+002
+3.38584480601E+007, +1.08563034109E+001, +8.59826403112E+002
+3.39834793492E+007, +9.73243499227E+000, +8.64423813858E+002
+3.41085106383E+007, +8.75663850511E+000, +8.67778335886E+002
+3.42335419274E+007, +1.03953518175E+001, +8.79337260992E+002
+3.43585732165E+007, +1.11662046609E+001, +8.86042292295E+002
+3.44836045056E+007, +1.18451494587E+001, +8.88684737166E+002
+3.46086357947E+007, +1.29115218101E+001, +8.90859208779E+002
+3.47336670839E+007, +1.34872557572E+001, +9.02111789300E+002
+3.48586983730E+007, +1.27739205619E+001, +9.04927525952E+002
+3.49837296621E+007, +1.22787819509E+001, +9.11751442633E+002
+3.51087609512E+007, +1.60752180431E+001, +9.15530995763E+002
+3.52337922403E+007, +1.45678100767E+001, +9.23631501864E+002
+3.53588235294E+007, +1.50397049553E+001, +9.27786406130E+002
+3.54838548185E+007, +1.32696022275E+001, +9.36957717358E+002
+3.56088861076E+007, +1.35947833094E+001, +9.42527398420E+002
+3.57339173967E+007, +1.67018087719E+001, +9.51093685733E+002
+3.58589486859E+007, +1.44703024873E+001, +9.55841645060E+002
+3.59839799750E+007, +1.53247529827E+001, +9.61065240735E+002
+3.61090112641E+007, +1.27427182360E+001, +9.67514155516E+002
+3.62340425532E+007, +1.91581809043E+001, +9.76409769870E+002
+3.63590738423E+007, +1.90535163647E+001, +9.83633174800E+002
+3.64841051314E+007, +1.97961567558E+001, +9.92325790218E+002
+3.66091364205E+007, +1.73146165404E+001, +9.98877196169E+002
+3.67341677096E+007, +1.77924795784E+001, +1.00312579378E+003
+3.68591989987E+007, +1.88462314464E+001, +1.00993930818E+003
+3.69842302879E+007, +1.99070825269E+001, +1.01785101376E+003
+3.71092615770E+007, +1.66618027006E+001, +1.02635277201E+003
+3.72342928661E+007, +1.96350928186E+001, +1.03068719982E+003
+3.73593241552E+007, +2.05219040076E+001, +1.03696073666E+003
+3.74843554443E+007, +1.85056608005E+001, +1.04652335546E+003
+3.76093867334E+007, +1.97415702192E+001, +1.05490026254E+003
+3.77344180225E+007, +2.11924207229E+001, +1.06238286823E+003
+3.78594493116E+007, +2.36411828111E+001, +1.06775343202E+003
+3.79844806008E+007, +2.42839315124E+001, +1.07506648172E+003
+3.81095118899E+007, +2.13333602488E+001, +1.08943726683E+003
+3.82345431790E+007, +2.28794804797E+001, +1.09071527540E+003
+3.83595744681E+007, +2.33306156906E+001, +1.09858739706E+003
+3.84846057572E+007, +2.76515527326E+001, +1.10708617624E+003
+3.86096370463E+007, +2.37573895096E+001, +1.11584052550E+003
+3.87346683354E+007, +2.27212054682E+001, +1.12039306880E+003
+3.88596996245E+007, +2.66062453037E+001, +1.13661772904E+003
+3.89847309136E+007, +2.76687644267E+001, +1.13786435581E+003
+3.91097622028E+007, +2.61173319264E+001, +1.14683052663E+003
+3.92347934919E+007, +2.22425184786E+001, +1.15852529842E+003
+3.93598247810E+007, +2.60418993250E+001, +1.16435649040E+003
+3.94848560701E+007, +3.14087726483E+001, +1.17373046367E+003
+3.96098873592E+007, +2.83927937344E+001, +1.18377054584E+003
+3.97349186483E+007, +3.23942785665E+001, +1.19531275697E+003
+3.98599499374E+007, +3.19546427548E+001, +1.19425849071E+003
+3.99849812265E+007, +3.07718744112E+001, +1.21482115187E+003
+4.01100125156E+007, +3.44754356092E+001, +1.22621222930E+003
