"# Channel 1"
"# Trace 1"
Frequency, Formatted Data, Formatted Data
+1.00000000000E+005, +2.55532248535E+001, +1.93575629795E+000
+2.66777963272E+005, +2.55558188920E+001, +5.29554800088E+000
+4.33555926544E+005, +2.55444708668E+001, +8.63572081889E+000
+6.00333889816E+005, +2.55464250733E+001, +1.19505470386E+001
+7.67111853088E+005, +2.55663613315E+001, +1.52492906271E+001
+9.33889816361E+005, +2.55947195174E+001, +1.85417206792E+001
+1.10066777963E+006, +2.55321921660E+001, +2.19311946758E+001
+1.26744574290E+006, +2.55701476329E+001, +2.52203660639E+001
+1.43422370618E+006, +2.55876313586E+001, +2.86094103214E+001
+1.60100166945E+006, +2.55972283007E+001, +3.18410727069E+001
+1.76777963272E+006, +2.55590656073E+001, +3.51712100553E+001
+1.93455759599E+006, +2.55438672868E+001, +3.84462949732E+001
+2.10133555927E+006, +2.55627646469E+001, +4.16719210119E+001
+2.26811352254E+006, +2.56248757191E+001, +4.50748097240E+001
+2.43489148581E+006, +2.55899422352E+001, +4.84863247313E+001
+2.60166944908E+006, +2.55540176165E+001, +5.17464371836E+001
+2.76844741235E+006, +2.55942695600E+001, +5.51412988188E+001
+2.93522537563E+006, +2.55534833756E+001, +5.84052183153E+001
+3.10200333890E+006, +2.56995622678E+001, +6.16475790084E+001
+3.26878130217E+006, +2.55635197147E+001, +6.51329673388E+001
+3.43555926544E+006, +2.56050150930E+001, +6.83861370330E+001
+3.60233722871E+006, +2.57252260768E+001, +7.17388167054E+001
+3.76911519199E+006, +2.56968297454E+001, +7.51930743583E+001
+3.93589315526E+006, +2.55093990915E+001, +7.83647809937E+001
+4.10267111853E+006, +2.57285301904E+001, +8.20321580198E+001
+4.26944908180E+006, +2.57735806899E+001, +8.52542545069E+001
+4.43622704508E+006, +2.57478949592E+001, +8.84746528929E+001
+4.60300500835E+006, +2.56631787845E+001, +9.19756386593E+001
+4.76978297162E+006, +2.57781051659E+001, +9.53072823483E+001
+4.93656093489E+006, +2.58329544550E+001, +9.86438798614E+001
+5.10333889816E+006, +2.58952488224E+001, +1.02039129256E+002
+5.27011686144E+006, +2.60563484077E+001, +1.05470310101E+002
+5.43689482471E+006, +2.59160034881E+001, +1.08801438753E+002
+5.60367278798E+006, +2.61486068314E+001, +1.12541871038E+002
+5.77045075125E+006, +2.58548490003E+001, +1.15669123257E+002
+5.93722871452E+006, +2.60422572739E+001, +1.19272202568E+002
+6.10400667780E+006, +2.60449111055E+001, +1.22617417483E+002
+6.27078464107E+006, +2.63976778709E+001, +1.25883835932E+002
+6.43756260434E+006, +2.63489552386E+001, +1.29384210478E+002
+6.60434056761E+006, +2.64002279914E+001, +1.32734844899E+002
+6.77111853088E+006, +2.65908935540E+001, +1.36031132405E+002
+6.93789649416E+006, +2.66061351860E+001, +1.39615474176E+002
+7.10467445743E+006, +2.65345637328E+001, +1.42966231492E+002
+7.27145242070E+006, +2.66813950424E+001, +1.46342476431E+002
+7.43823038397E+006, +2.68225779137E+001, +1.49681042666E+002
+7.60500834725E+006, +2.66740517759E+001, +1.53253571385E+002
+7.77178631052E+006, +2.68017216076E+001, +1.56849683755E+002
+7.93856427379E+006, +2.67663737819E+001, +1.60239163075E+002
+8.10534223706E+006, +2.67824059195E+001, +1.63771750441E+002
+8.27212020033E+006, +2.68514730965E+001, +1.67190412116E+002
+8.43889816361E+006, +2.69707213945E+001, +1.70758918001E+002
+8.60567612688E+006, +2.67488372627E+001, +1.74376151803E+002
+8.77245409015E+006, +2.67836689500E+001, +1.77667591024E+002
+8.93923205342E+006, +2.69538723628E+001, +1.81340063372E+002
+9.10601001669E+006, +2.70562019444E+001, +1.84921098654E+002
+9.27278797997E+006, +2.70390219007E+001, +1.88351883543E+002
+9.43956594324E+006, +2.69830294860E+001, +1.92048326144E+002
+9.60634390651E+006, +2.68936759637E+001, +1.95684914874E+002
+9.77312186978E+006, +2.70182021630E+001, +1.99109521115E+002
+9.93989983306E+006, +2.72260102342E+001, +2.03018020236E+002
+1.01066777963E+007, +2.71496750865E+001, +2.06409574785E+002
+1.02734557596E+007, +2.69641640814E+001, +2.10315345381E+002
+1.04402337229E+007, +2.72465609989E+001, +2.13786041351E+002
+1.06070116861E+007, +2.72085881427E+001, +2.17312730896E+002
+1.07737896494E+007, +2.70829011470E+001, +2.21127159832E+002
+1.09405676127E+007, +2.74601645524E+001, +2.24839460967E+002
+1.11073455760E+007, +2.73604747120E+001, +2.28555888121E+002
+1.12741235392E+007, +2.76739954759E+001, +2.31916485432E+002
+1.14409015025E+007, +2.76541133555E+001, +2.35945389900E+002
+1.16076794658E+007, +2.76872360562E+001, +2.39476357646E+002
+1.17744574290E+007, +2.79271627532E+001, +2.43539637491E+002
+1.19412353923E+007, +2.76995959176E+001, +2.47069654160E+002
+1.21080133556E+007, +2.75439681278E+001, +2.51291690714E+002
+1.22747913189E+007, +2.78848260613E+001, +2.54965716439E+002
+1.24415692821E+007, +2.77329048513E+001, +2.58802155154E+002
+1.26083472454E+007, +2.76349202008E+001, +2.62388288133E+002
+1.27751252087E+007, +2.84637234815E+001, +2.66237671581E+002
+1.29419031720E+007, +2.80096720934E+001, +2.70015590305E+002
+1.31086811352E+007, +2.81921615421E+001, +2.74107877405E+002
+1.32754590985E+007, +2.83440906295E+001, +2.77951585503E+002
+1.34422370618E+007, +2.86222375262E+001, +2.81873348928E+002
+1.36090150250E+007, +2.88255339766E+001, +2.85491640549E+002
+1.37757929883E+007, +2.83737216810E+001, +2.89652216486E+002
+1.39425709516E+007, +2.86880266287E+001, +2.93319341017E+002
+1.41093489149E+007, +2.89143348261E+001, +2.97322622429E+002
+1.42761268781E+007, +2.89658584904E+001, +3.01365949934E+002
+1.44429048414E+007, +2.93745200462E+001, +3.05279008279E+002
+1.46096828047E+007, +2.90450351307E+001, +3.09333719755E+002
+1.47764607679E+007, +2.98693418228E+001, +3.12819740958E+002
+1.49432387312E+007, +2.93227873895E+001, +3.16703461080E+002
+1.51100166945E+007, +2.87999983988E+001, +3.21767863302E+002
+1.52767946578E+007, +2.96982598843E+001, +3.25120292871E+002
+1.54435726210E+007, +2.99979834803E+001, +3.29402951103E+002
+1.56103505843E+007, +2.99655561458E+001, +3.33710790464E+002
+1.57771285476E+007, +2.97171713047E+001, +3.37588203409E+002
+1.59439065109E+007, +2.96585431134E+001, +3.41873953073E+002
+1.61106844741E+007, +2.99099324710E+001, +3.46376929214E+002
+1.62774624374E+007, +3.00115644263E+001, +3.49966139268E+002
+1.64442404007E+007, +2.96158102839E+001, +3.54446626956E+002
+1.66110183639E+007, +3.05560329394E+001, +3.58723441336E+002
+1.67777963272E+007, +3.07547216937E+001, +3.63535878994E+002
+1.69445742905E+007, +3.11476197420E+001, +3.66937189571E+002
+1.71113522538E+007, +2.91289496984E+001, +3.71578458665E+002
+1.72781302170E+007, +3.02470920088E+001, +3.76882315672E+002
+1.74449081803E+007, +3.00826806770E+001, +3.80012400401E+002
+1.76116861436E+007, +3.09611990055E+001, +3.84817928461E+002
+1.77784641068E+007, +3.05339584397E+001, +3.88392290460E+002
+1.79452420701E+007, +3.11139192944E+001, +3.92856497254E+002
+1.81120200334E+007, +3.18677635685E+001, +3.96825492095E+002
+1.82787979967E+007, +3.21037829046E+001, +4.02343910038E+002
+1.84455759599E+007, +3.20745755950E+001, +4.06955134627E+002
+1.86123539232E+007, +3.31427888298E+001, +4.11645310368E+002
+1.87791318865E+007, +3.25228936470E+001, +4.16172570687E+002
+1.89459098497E+007, +3.31922876889E+001, +4.20702018357E+002
+1.91126878130E+007, +3.37626856696E+001, +4.24755650479E+002
+1.92794657763E+007, +3.33707226458E+001, +4.29963769074E+002
+1.94462437396E+007, +3.40577135147E+001, +4.35346674764E+002
+1.96130217028E+007, +3.39533608877E+001, +4.39699076049E+002
+1.97797996661E+007, +3.36917266923E+001, +4.43112971743E+002
+1.99465776294E+007, +3.32430565839E+001, +4.47617986563E+002
+2.01133555927E+007, +3.41645690822E+001, +4.53926400363E+002
+2.02801335559E+007, +3.44436509345E+001, +4.58195634179E+002
+2.04469115192E+007, +3.51116012521E+001, +4.62287302824E+002
+2.06136894825E+007, +3.51873500761E+001, +4.67602111628E+002
+2.07804674457E+007, +3.48847443517E+001, +4.72847100030E+002
+2.09472454090E+007, +3.46985010131E+001, +4.78638780336E+002
+2.11140233723E+007, +3.60908447711E+001, +4.83197521327E+002
+2.12808013356E+007, +3.59509270741E+001, +4.86712350508E+002
+2.14475792988E+007, +3.76522278241E+001, +4.93149071351E+002
+2.16143572621E+007, +3.81467838481E+001, +4.97882622855E+002
+2.17811352254E+007, +3.60129667551E+001, +5.01973979312E+002
+2.19479131886E+007, +3.88280646747E+001, +5.08736075178E+002
+2.21146911519E+007, +3.89664743386E+001, +5.12115926567E+002
+2.22814691152E+007, +3.71196281706E+001, +5.18824397200E+002
+2.24482470785E+007, +3.99289552072E+001, +5.23549357032E+002
+2.26150250417E+007, +4.14762514034E+001, +5.28030564579E+002
+2.27818030050E+007, +4.06343504935E+001, +5.35266779612E+002
+2.29485809683E+007, +4.30417497818E+001, +5.39008384076E+002
+2.31153589316E+007, +4.08450940865E+001, +5.46123496674E+002
+2.32821368948E+007, +4.25563785912E+001, +5.51419575683E+002
+2.34489148581E+007, +4.37571775137E+001, +5.55079454736E+002
+2.36156928214E+007, +4.44032871913E+001, +5.62183926640E+002
+2.37824707846E+007, +4.34684912852E+001, +5.65170220767E+002
+2.39492487479E+007, +4.44913162453E+001, +5.70589897640E+002
+2.41160267112E+007, +4.31003410052E+001, +5.76906078265E+002
+2.42828046745E+007, +4.39730836983E+001, +5.82790581557E+002
+2.44495826377E+007, +4.65998214352E+001, +5.90143429121E+002
+2.46163606010E+007, +4.62890600881E+001, +5.94553856350E+002
+2.47831385643E+007, +4.58555338687E+001, +6.00286497332E+002
+2.49499165275E+007, +4.84780231050E+001, +6.04722488034E+002
+2.51166944908E+007, +4.97700905180E+001, +6.12271810371E+002
+2.52834724541E+007, +4.94824927824E+001, +6.17827819850E+002
+2.54502504174E+007, +4.93824430762E+001, +6.23327844286E+002
+2.56170283806E+007, +4.95047932783E+001, +6.28484775727E+002
+2.57838063439E+007, +5.03467452638E+001, +6.37423607699E+002
+2.59505843072E+007, +5.04641944886E+001, +6.43507563232E+002
+2.61173622705E+007, +5.25144694011E+001, +6.49340023531E+002
+2.62841402337E+007, +5.18605147338E+001, +6.55793839128E+002
+2.64509181970E+007, +5.21528865004E+001, +6.62041589466E+002
+2.66176961603E+007, +5.40208884316E+001, +6.67706551370E+002
+2.67844741235E+007, +5.36457553413E+001, +6.74542009626E+002
+2.69512520868E+007, +5.43104371131E+001, +6.78969358289E+002
+2.71180300501E+007, +5.50341699508E+001, +6.81099054187E+002
+2.72848080134E+007, +5.45586085692E+001, +6.91094239889E+002
+2.74515859766E+007, +5.73033167497E+001, +6.98104139664E+002
+2.76183639399E+007, +5.49413888850E+001, +7.03188949250E+002
+2.77851419032E+007, +5.69520200710E+001, +7.10588371298E+002
+2.79519198664E+007, +5.85948340767E+001, +7.16913556221E+002
+2.81186978297E+007, +5.87191902344E+001, +7.23646656990E+002
+2.82854757930E+007, +6.21733465516E+001, +7.31622286712E+002
+2.84522537563E+007, +5.89568196184E+001, +7.39872423999E+002
+2.86190317195E+007, +5.87271934161E+001, +7.44493686955E+002
+2.87858096828E+007, +6.38182370565E+001, +7.52869317436E+002
+2.89525876461E+007, +6.25779406384E+001, +7.58374023018E+002
+2.91193656093E+007, +6.04884704306E+001, +7.65268276266E+002
+2.92861435726E+007, +6.08799602787E+001, +7.73644957398E+002
+2.94529215359E+007, +6.36813499233E+001, +7.80733496389E+002
+2.96196994992E+007, +6.72706334327E+001, +7.88299628055E+002
+2.97864774624E+007, +6.67651902184E+001, +7.93310791320E+002
+2.99532554257E+007, +6.57132446759E+001, +8.00473902157E+002
+3.01200333890E+007, +6.36227090476E+001, +8.09074808119E+002
+3.02868113523E+007, +6.66566024121E+001, +8.19153783978E+002
+3.04535893155E+007, +6.58365287119E+001, +8.26623371211E+002
+3.06203672788E+007, +6.96547310266E+001, +8.34942176713E+002
+3.07871452421E+007, +6.94677438546E+001, +8.41901057365E+002
+3.09539232053E+007, +6.88837270447E+001, +8.48989061833E+002
+3.11207011686E+007, +7.04077964095E+001, +8.59531574011E+002
+3.12874791319E+007, +7.21040550103E+001, +8.67268316790E+002
+3.14542570952E+007, +7.31601351256E+001, +8.74807083483E+002
+3.16210350584E+007, +7.09157947008E+001, +8.81300965786E+002
+3.17878130217E+007, +7.30876729289E+001, +8.92575653701E+002
+3.19545909850E+007, +7.62398526434E+001, +9.03506191899E+002
+3.21213689482E+007, +7.35260968807E+001, +9.10957692162E+002
+3.22881469115E+007, +7.42511808293E+001, +9.19503756666E+002
+3.24549248748E+007, +7.44538061050E+001, +9.32551605453E+002
+3.26217028381E+007, +7.61919698372E+001, +9.38433791538E+002
+3.27884808013E+007, +7.54830389084E+001, +9.49478232294E+002
+3.29552587646E+007, +7.98813268506E+001, +9.56270303041E+002
+3.31220367279E+007, +8.19461605782E+001, +9.66956355029E+002
+3.32888146912E+007, +8.20161410141E+001, +9.80828483889E+002
+3.34555926544E+007, +7.81261259161E+001, +9.88854152825E+002
+3.36223706177E+007, +8.41220715291E+001, +9.96275829196E+002
+3.37891485810E+007, +8.11141763871E+001, +1.00296395271E+003
+3.39559265442E+007, +8.30857546385E+001, +1.02039032902E+003
+3.41227045075E+007, +8.24607576531E+001, +1.02727986557E+003
+3.42894824708E+007, +8.67346446841E+001, +1.03642050561E+003
+3.44562604341E+007, +8.68024585177E+001, +1.05247593415E+003
+3.46230383973E+007, +8.95009069199E+001, +1.06760890126E+003
+3.47898163606E+007, +9.01756643003E+001, +1.07169911121E+003
+3.49565943239E+007, +9.53229779008E+001, +1.08825148544E+003
+3.51233722871E+007, +9.44793923638E+001, +1.09826933779E+003
+3.52901502504E+007, +9.44985684970E+001, +1.10498643382E+003
+3.54569282137E+007, +9.62623545182E+001, +1.11683753946E+003
+3.56237061770E+007, +9.21250207043E+001, +1.13684156899E+003
+3.57904841402E+007, +9.44517737785E+001, +1.15619463654E+003
+3.59572621035E+007, +9.55234756505E+001, +1.16719882050E+003
+3.61240400668E+007, +1.02203983836E+002, +1.17470591765E+003
+3.62908180301E+007, +9.93376858181E+001, +1.19398738449E+003
+3.64575959933E+007, +1.00981651460E+002, +1.20514771649E+003
+3.66243739566E+007, +1.06773163449E+002, +1.21120911227E+003
+3.67911519199E+007, +1.04319573228E+002, +1.23103315007E+003
+3.69579298831E+007, +1.02932955667E+002, +1.23899841748E+003
+3.71247078464E+007, +1.00421396525E+002, +1.26096513595E+003
+3.72914858097E+007, +1.12266604049E+002, +1.27438775812E+003
+3.74582637730E+007, +1.20251658520E+002, +1.29068325229E+003
+3.76250417362E+007, +1.22270616412E+002, +1.29961309330E+003
+3.77918196995E+007, +1.15804240978E+002, +1.31840067168E+003
+3.79585976628E+007, +1.17459605365E+002, +1.33673205916E+003
+3.81253756260E+007, +1.30418964562E+002, +1.34723216147E+003
+3.82921535893E+007, +1.33851131763E+002, +1.36579187144E+003
+3.84589315526E+007, +1.30100798077E+002, +1.38830666081E+003
+3.86257095159E+007, +1.38470602944E+002, +1.41033971181E+003
+3.87924874791E+007, +1.36827225550E+002, +1.42996676575E+003
+3.89592654424E+007, +1.41130978248E+002, +1.44350660634E+003
+3.91260434057E+007, +1.50648597612E+002, +1.46449853047E+003
+3.92928213689E+007, +1.43387588913E+002, +1.47627882857E+003
+3.94595993322E+007, +1.54871467989E+002, +1.50839782680E+003
+3.96263772955E+007, +1.53223534822E+002, +1.51833220587E+003
+3.97931552588E+007, +1.50325801665E+002, +1.54986276600E+003
+3.99599332220E+007, +1.50651872122E+002, +1.56031209535E+003
+4.01267111853E+007, +1.56048490736E+002, +1.58376183217E+003
+4.02934891486E+007, +1.63036009114E+002, +1.59809411115E+003
+4.04602671119E+007, +1.71355013485E+002, +1.62368972640E+003
+4.06270450751E+007, +1.79650913507E+002, +1.64975716529E+003
+4.07938230384E+007, +1.83538490085E+002, +1.67951596408E+003
+4.09606010017E+007, +1.89707644185E+002, +1.70483777482E+003
+4.11273789649E+007, +1.93095321965E+002, +1.72806896753E+003
+4.12941569282E+007, +1.96749228142E+002, +1.76003738500E+003
+4.14609348915E+007, +2.11855685108E+002, +1.78922718754E+003
+4.16277128548E+007, +2.14839045376E+002, +1.81226219243E+003
+4.17944908180E+007, +2.16322689161E+002, +1.82815879476E+003
+4.19612687813E+007, +2.17817395652E+002, +1.86581272047E+003
+4.21280467446E+007, +2.32833481078E+002, +1.90409657240E+003
+4.22948247078E+007, +2.27980897356E+002, +1.92404986115E+003
+4.24616026711E+007, +2.44112210246E+002, +1.93695132868E+003
+4.26283806344E+007, +2.68606084264E+002, +1.99381904540E+003
+4.27951585977E+007, +2.31181176222E+002, +2.03140287908E+003
+4.29619365609E+007, +2.75450255777E+002, +2.05525268830E+003
+4.31287145242E+007, +2.98575532880E+002, +2.09891817522E+003
+4.32954924875E+007, +2.90985554191E+002, +2.14044772781E+003
+4.34622704508E+007, +2.84910201418E+002, +2.17777919429E+003
+4.36290484140E+007, +3.15402533936E+002, +2.19685257388E+003
+4.37958263773E+007, +3.11506860001E+002, +2.27076543531E+003
+4.39626043406E+007, +3.35268075132E+002, +2.29273892479E+003
+4.41293823038E+007, +3.78639949053E+002, +2.34965400609E+003
+4.42961602671E+007, +3.58474440712E+002, +2.38649665866E+003
+4.44629382304E+007, +3.91473776648E+002, +2.45583367260E+003
+4.46297161937E+007, +3.99616132890E+002, +2.48641842557E+003
+4.47964941569E+007, +4.25681462262E+002, +2.55150686709E+003
+4.49632721202E+007, +4.11065682864E+002, +2.59487585359E+003
+4.51300500835E+007, +4.37522759486E+002, +2.64267075801E+003
+4.52968280467E+007, +4.96509086036E+002, +2.71066696062E+003
+4.54636060100E+007, +5.12904814748E+002, +2.78122303888E+003
+4.56303839733E+007, +5.28162535790E+002, +2.86600390396E+003
+4.57971619366E+007, +5.33999038403E+002, +2.90908309899E+003
+4.59639398998E+007, +5.80788280767E+002, +3.05718311549E+003
+4.61307178631E+007, +6.52524395780E+002, +3.08054455213E+003
+4.62974958264E+007, +7.09702957901E+002, +3.11551448130E+003
+4.64642737896E+007, +6.93632680323E+002, +3.21716124699E+003
+4.66310517529E+007, +7.01765255171E+002, +3.35627985754E+003
+4.67978297162E+007, +8.31120928458E+002, +3.35475383781E+003
+4.69646076795E+007, +8.81600908850E+002, +3.50028521632E+003
+4.71313856427E+007, +9.52629464648E+002, +3.61367321396E+003
+4.72981636060E+007, +1.02978068828E+003, +3.71978039130E+003
+4.74649415693E+007, +1.05837864621E+003, +3.84803287404E+003
+4.76317195326E+007, +1.19461952539E+003, +3.91056011661E+003
+4.77984974958E+007, +1.34354324650E+003, +4.01448581488E+003
+4.79652754591E+007, +1.33444359808E+003, +4.11455728017E+003
+4.81320534224E+007, +1.48987668753E+003, +4.22297382520E+003
+4.82988313856E+007, +1.67635460245E+003, +4.33124398461E+003
+4.84656093489E+007, +1.75120036997E+003, +4.52223518103E+003
+4.86323873122E+007, +1.96163379407E+003, +4.57815159488E+003
+4.87991652755E+007, +2.17458449483E+003, +4.75823350010E+003
+4.89659432387E+007, +2.29029430734E+003, +4.85866541041E+003
+4.91327212020E+007, +2.50421282065E+003, +4.88297583169E+003
+4.92994991653E+007, +2.73179809962E+003, +4.94202556789E+003
+4.94662771285E+007, +3.10494649476E+003, +5.04264141932E+003
+4.96330550918E+007, +3.26723084807E+003, +4.93515407598E+003
+4.97998330551E+007, +3.52937884668E+003, +5.15090651056E+003
+4.99666110184E+007, +3.77941500151E+003, +5.06581277239E+003
+5.01333889816E+007, +4.11088858979E+003, +5.28260894547E+003
+5.03001669449E+007, +4.39812973448E+003, +5.36260851693E+003
+5.04669449082E+007, +4.75662542404E+003, +5.08043087129E+003
+5.06337228715E+007, +5.17426834125E+003, +4.98135463406E+003
+5.08005008347E+007, +5.40128710181E+003, +5.12608963623E+003
+5.09672787980E+007, +5.62152280434E+003, +4.90658066548E+003
+5.11340567613E+007, +6.20657674234E+003, +4.97900995482E+003
+5.13008347245E+007, +6.59542145549E+003, +5.04110519912E+003
+5.14676126878E+007, +7.19434566658E+003, +4.84307190615E+003
+5.16343906511E+007, +7.43659211297E+003, +4.55788964131E+003
+5.18011686144E+007, +7.68756211203E+003, +4.59810009390E+003
+5.19679465776E+007, +8.59056402117E+003, +4.09747867882E+003
+5.21347245409E+007, +9.11132749641E+003, +3.70855646925E+003
+5.23015025042E+007, +9.92023332325E+003, +2.98766385058E+003
+5.24682804674E+007, +1.06487078644E+004, +2.51824460801E+003
+5.26350584307E+007, +1.07200771884E+004, +1.62232687215E+003
+5.28018363940E+007, +1.17403896811E+004, +4.07568715840E+002
+5.29686143573E+007, +1.18331863816E+004, -1.27306967723E+003
+5.31353923205E+007, +1.17625189927E+004, -1.67469601057E+003
+5.33021702838E+007, +1.09734892580E+004, -2.68680642134E+003
+5.34689482471E+007, +1.01315171575E+004, -3.87392199623E+003
