"# Channel 1"
"# Trace 1"
Frequency, Formatted Data, Formatted Data
+1.00000000000E+005, +3.50610869824E+002, -6.99563443314E+000
+2.25031289111E+005, +3.47285856247E+002, +4.10159137858E+000
+3.50062578223E+005, +3.45731819023E+002, +7.12486905973E+000
+4.75093867334E+005, +3.46544083440E+002, +9.88779848799E+000
+6.00125156446E+005, +3.46259858259E+002, +1.20188167647E+001
+7.25156445557E+005, +3.46796207382E+002, +1.41731197013E+001
+8.50187734668E+005, +3.45477293288E+002, +1.80947963810E+001
+9.75219023780E+005, +3.48498117042E+002, +2.05753827467E+001
+1.10025031289E+006, +3.48385758828E+002, +2.17172638932E+001
+1.22528160200E+006, +3.46819723188E+002, +2.42111434730E+001
+1.35031289111E+006, +3.48109065635E+002, +2.71231058584E+001
+1.47534418023E+006, +3.48902896234E+002, +2.87047963516E+001
+1.60037546934E+006, +3.49760081361E+002, +3.11265634745E+001
+1.72540675845E+006, +3.49458060563E+002, +3.30210654432E+001
+1.85043804756E+006, +3.49837872583E+002, +3.73066589124E+001
+1.97546933667E+006, +3.50184115500E+002, +3.90298237249E+001
+2.10050062578E+006, +3.49874881420E+002, +4.29485176467E+001
+2.22553191489E+006, +3.49330171148E+002, +4.45091263240E+001
+2.35056320401E+006, +3.50039591003E+002, +4.72935696489E+001
+2.47559449312E+006, +3.50267640952E+002, +4.71633069802E+001
+2.60062578223E+006, +3.49621912711E+002, +5.10326783060E+001
+2.72565707134E+006, +3.50962008483E+002, +5.31836365374E+001
+2.85068836045E+006, +3.49177712524E+002, +5.63020896937E+001
+2.97571964956E+006, +3.50135262439E+002, +5.81619749198E+001
+3.10075093867E+006, +3.50376044630E+002, +5.93360108034E+001
+3.22578222778E+006, +3.49671188719E+002, +6.29172773791E+001
+3.35081351690E+006, +3.50524867159E+002, +6.46141583098E+001
+3.47584480601E+006, +3.49305583881E+002, +6.68336896756E+001
+3.60087609512E+006, +3.49690662294E+002, +6.93039992810E+001
+3.72590738423E+006, +3.49962068816E+002, +7.33755736222E+001
+3.85093867334E+006, +3.48803715981E+002, +7.49239858958E+001
+3.97596996245E+006, +3.49424299155E+002, +7.78897938007E+001
+4.10100125156E+006, +3.51250395809E+002, +8.28327107117E+001
+4.22603254068E+006, +3.52154132877E+002, +8.18969010826E+001
+4.35106382979E+006, +3.51037000612E+002, +8.47390225906E+001
+4.47609511890E+006, +3.49847898931E+002, +8.46604179398E+001
+4.60112640801E+006, +3.52822344719E+002, +8.79713235620E+001
+4.72615769712E+006, +3.50882006521E+002, +9.07518738657E+001
+4.85118898623E+006, +3.50709297626E+002, +9.32123050178E+001
+4.97622027534E+006, +3.51449989069E+002, +9.55154615945E+001
+5.10125156446E+006, +3.52873518902E+002, +9.83656292769E+001
+5.22628285357E+006, +3.51514057236E+002, +9.97135783247E+001
+5.35131414268E+006, +3.50460848932E+002, +1.01965940946E+002
+5.47634543179E+006, +3.52244713814E+002, +1.06775717447E+002
+5.60137672090E+006, +3.50736787918E+002, +1.07721222175E+002
+5.72640801001E+006, +3.51247730835E+002, +1.09131937546E+002
+5.85143929912E+006, +3.53031277666E+002, +1.12794471415E+002
+5.97647058824E+006, +3.53040096620E+002, +1.15459828414E+002
+6.10150187735E+006, +3.52714704320E+002, +1.16787304754E+002
+6.22653316646E+006, +3.52569638675E+002, +1.19340697735E+002
+6.35156445557E+006, +3.53023586940E+002, +1.22150695876E+002
+6.47659574468E+006, +3.53368142583E+002, +1.24218676859E+002
+6.60162703379E+006, +3.53689868969E+002, +1.25874347101E+002
+6.72665832290E+006, +3.53643024529E+002, +1.29035351959E+002
+6.85168961202E+006, +3.53663169000E+002, +1.30837559030E+002
+6.97672090113E+006, +3.54262596560E+002, +1.34348113280E+002
+7.10175219024E+006, +3.54452509874E+002, +1.36210812027E+002
+7.22678347935E+006, +3.55113728884E+002, +1.38340899468E+002
+7.35181476846E+006, +3.55473735680E+002, +1.41163229241E+002
+7.47684605757E+006, +3.54949211640E+002, +1.43091012989E+002
+7.60187734668E+006, +3.56808716056E+002, +1.45434705969E+002
+7.72690863579E+006, +3.56728477021E+002, +1.48977312058E+002
+7.85193992491E+006, +3.56339320039E+002, +1.49989644997E+002
+7.97697121402E+006, +3.56904462039E+002, +1.52354848002E+002
+8.10200250313E+006, +3.56795468808E+002, +1.54581602219E+002
+8.22703379224E+006, +3.57866296274E+002, +1.57871978001E+002
+8.35206508135E+006, +3.58104941696E+002, +1.60014291166E+002
+8.47709637046E+006, +3.58478131647E+002, +1.62616372418E+002
+8.60212765957E+006, +3.58636757447E+002, +1.65133766961E+002
+8.72715894869E+006, +3.59058768668E+002, +1.68286583913E+002
+8.85219023780E+006, +3.59556852650E+002, +1.70369852064E+002
+8.97722152691E+006, +3.59764216817E+002, +1.72484832173E+002
+9.10225281602E+006, +3.61560715378E+002, +1.75355260310E+002
+9.22728410513E+006, +3.60365461459E+002, +1.77338005207E+002
+9.35231539424E+006, +3.61595082173E+002, +1.80374671197E+002
+9.47734668335E+006, +3.61087061446E+002, +1.83120210811E+002
+9.60237797247E+006, +3.62624765918E+002, +1.85896781648E+002
+9.72740926158E+006, +3.62938144590E+002, +1.87328029633E+002
+9.85244055069E+006, +3.63208450009E+002, +1.90429508765E+002
+9.97747183980E+006, +3.63782585678E+002, +1.92854553025E+002
+1.01025031289E+007, +3.65093365402E+002, +1.96575341433E+002
+1.02275344180E+007, +3.64821975268E+002, +1.97702739860E+002
+1.03525657071E+007, +3.65008247058E+002, +2.00427413746E+002
+1.04775969962E+007, +3.66291343291E+002, +2.03570501628E+002
+1.06026282854E+007, +3.66652353010E+002, +2.05913179888E+002
+1.07276595745E+007, +3.67067391653E+002, +2.08441684164E+002
+1.08526908636E+007, +3.68551384841E+002, +2.10932740560E+002
+1.09777221527E+007, +3.68464294116E+002, +2.12728135753E+002
+1.11027534418E+007, +3.69428864409E+002, +2.16400626834E+002
+1.12277847309E+007, +3.69274408944E+002, +2.19405716815E+002
+1.13528160200E+007, +3.71237834497E+002, +2.21011093850E+002
+1.14778473091E+007, +3.70915355711E+002, +2.24309601635E+002
+1.16028785982E+007, +3.71864032459E+002, +2.26319669617E+002
+1.17279098874E+007, +3.71546989592E+002, +2.28092815202E+002
+1.18529411765E+007, +3.72798776357E+002, +2.31162342818E+002
+1.19779724656E+007, +3.73310693275E+002, +2.35131232910E+002
+1.21030037547E+007, +3.73083100377E+002, +2.35336312942E+002
+1.22280350438E+007, +3.74478179582E+002, +2.39076605055E+002
+1.23530663329E+007, +3.74826795148E+002, +2.41319787705E+002
+1.24780976220E+007, +3.75220084920E+002, +2.43916342755E+002
+1.26031289111E+007, +3.76877904422E+002, +2.47260784721E+002
+1.27281602003E+007, +3.77887670057E+002, +2.49973390395E+002
+1.28531914894E+007, +3.76991433947E+002, +2.53289401090E+002
+1.29782227785E+007, +3.78467045082E+002, +2.55282905750E+002
+1.31032540676E+007, +3.78916605150E+002, +2.56868675266E+002
+1.32282853567E+007, +3.80066670834E+002, +2.60413164767E+002
+1.33533166458E+007, +3.79092792699E+002, +2.61047780872E+002
+1.34783479349E+007, +3.81805479690E+002, +2.64947775726E+002
+1.36033792240E+007, +3.81190117366E+002, +2.67524015936E+002
+1.37284105131E+007, +3.82686238402E+002, +2.72090627625E+002
+1.38534418023E+007, +3.82785781729E+002, +2.73446493190E+002
+1.39784730914E+007, +3.84515880792E+002, +2.76780328811E+002
+1.41035043805E+007, +3.85198840730E+002, +2.79306150145E+002
+1.42285356696E+007, +3.86014342883E+002, +2.80016392177E+002
+1.43535669587E+007, +3.86569991307E+002, +2.84240248248E+002
+1.44785982478E+007, +3.87492268035E+002, +2.87339004204E+002
+1.46036295369E+007, +3.88070730016E+002, +2.89278266679E+002
+1.47286608260E+007, +3.89980175608E+002, +2.91774523615E+002
+1.48536921151E+007, +3.90419618695E+002, +2.94667794836E+002
+1.49787234043E+007, +3.90862493231E+002, +2.96976053442E+002
+1.51037546934E+007, +3.90910556233E+002, +3.01472588109E+002
+1.52287859825E+007, +3.91140565962E+002, +3.03478177075E+002
+1.53538172716E+007, +3.93493709415E+002, +3.05741880584E+002
+1.54788485607E+007, +3.93333842529E+002, +3.08340574069E+002
+1.56038798498E+007, +3.95562997697E+002, +3.11575915109E+002
+1.57289111389E+007, +3.95415834834E+002, +3.14149287857E+002
+1.58539424280E+007, +3.94955292462E+002, +3.16555264723E+002
+1.59789737171E+007, +3.97174556361E+002, +3.19435841145E+002
+1.61040050063E+007, +3.98128794785E+002, +3.22480214933E+002
+1.62290362954E+007, +4.00087415670E+002, +3.24840507091E+002
+1.63540675845E+007, +4.00813968768E+002, +3.27135113547E+002
+1.64790988736E+007, +4.00653521506E+002, +3.31101506632E+002
+1.66041301627E+007, +4.02455510583E+002, +3.33624344170E+002
+1.67291614518E+007, +4.02917508828E+002, +3.36576773701E+002
+1.68541927409E+007, +4.04317048050E+002, +3.39960306471E+002
+1.69792240300E+007, +4.05369725109E+002, +3.43103789393E+002
+1.71042553191E+007, +4.06574820976E+002, +3.47875958997E+002
+1.72292866083E+007, +4.07826733769E+002, +3.49662880476E+002
+1.73543178974E+007, +4.11049315133E+002, +3.51146814030E+002
+1.74793491865E+007, +4.10491254061E+002, +3.54910491132E+002
+1.76043804756E+007, +4.10796643955E+002, +3.58953724303E+002
+1.77294117647E+007, +4.10865319819E+002, +3.60763461382E+002
+1.78544430538E+007, +4.11692335859E+002, +3.62663254168E+002
+1.79794743429E+007, +4.13624475344E+002, +3.67448659837E+002
+1.81045056320E+007, +4.14836255573E+002, +3.69187707940E+002
+1.82295369212E+007, +4.16444376689E+002, +3.71669100713E+002
+1.83545682103E+007, +4.17188634130E+002, +3.74802018466E+002
+1.84795994994E+007, +4.18826573500E+002, +3.76324011928E+002
+1.86046307885E+007, +4.19987585926E+002, +3.80674264898E+002
+1.87296620776E+007, +4.18954753175E+002, +3.83227914822E+002
+1.88546933667E+007, +4.21370054965E+002, +3.86560762758E+002
+1.89797246558E+007, +4.21882971281E+002, +3.89370817776E+002
+1.91047559449E+007, +4.23782914150E+002, +3.90636454425E+002
+1.92297872340E+007, +4.24656502916E+002, +3.95515145289E+002
+1.93548185232E+007, +4.26507742752E+002, +3.97743700630E+002
+1.94798498123E+007, +4.27913786159E+002, +4.00953344273E+002
+1.96048811014E+007, +4.28788504642E+002, +4.05415256888E+002
+1.97299123905E+007, +4.29219580737E+002, +4.06764462681E+002
+1.98549436796E+007, +4.32793801093E+002, +4.11061005537E+002
+1.99799749687E+007, +4.33030914745E+002, +4.16569874511E+002
+2.01050062578E+007, +4.33413949298E+002, +4.17348833196E+002
+2.02300375469E+007, +4.37091763595E+002, +4.19402855384E+002
+2.03550688360E+007, +4.34981707467E+002, +4.24296123471E+002
+2.04801001252E+007, +4.40669833315E+002, +4.26645820772E+002
+2.06051314143E+007, +4.39745823077E+002, +4.30223849964E+002
+2.07301627034E+007, +4.40988011495E+002, +4.32715706817E+002
+2.08551939925E+007, +4.43543867454E+002, +4.33149552150E+002
+2.09802252816E+007, +4.41575795457E+002, +4.37956409417E+002
+2.11052565707E+007, +4.43457240706E+002, +4.42231934104E+002
+2.12302878598E+007, +4.47293171736E+002, +4.45502386311E+002
+2.13553191489E+007, +4.48333755505E+002, +4.46594309237E+002
+2.14803504380E+007, +4.50940184516E+002, +4.51927247040E+002
+2.16053817272E+007, +4.49312886719E+002, +4.53294845494E+002
+2.17304130163E+007, +4.51425397218E+002, +4.56630508845E+002
+2.18554443054E+007, +4.53017909070E+002, +4.59752529354E+002
+2.19804755945E+007, +4.55508588144E+002, +4.64360221033E+002
+2.21055068836E+007, +4.56905729545E+002, +4.68484020229E+002
+2.22305381727E+007, +4.59204138642E+002, +4.70580372444E+002
+2.23555694618E+007, +4.58596469699E+002, +4.74579410500E+002
+2.24806007509E+007, +4.59605983347E+002, +4.75454821125E+002
+2.26056320401E+007, +4.64376080956E+002, +4.79846426673E+002
+2.27306633292E+007, +4.66003073519E+002, +4.84081010489E+002
+2.28556946183E+007, +4.67460449334E+002, +4.87628504253E+002
+2.29807259074E+007, +4.69714328679E+002, +4.92138966746E+002
+2.31057571965E+007, +4.71724666467E+002, +4.93381763833E+002
+2.32307884856E+007, +4.76311347948E+002, +4.96678452557E+002
+2.33558197747E+007, +4.73228014722E+002, +4.98866800697E+002
+2.34808510638E+007, +4.75749980010E+002, +5.02544198330E+002
+2.36058823529E+007, +4.78626169950E+002, +5.07188973143E+002
+2.37309136421E+007, +4.80583955886E+002, +5.11673544355E+002
+2.38559449312E+007, +4.84176818993E+002, +5.13814249184E+002
+2.39809762203E+007, +4.85299639476E+002, +5.16373673556E+002
+2.41060075094E+007, +4.83261091709E+002, +5.23078052150E+002
+2.42310387985E+007, +4.88139408377E+002, +5.23229677088E+002
+2.43560700876E+007, +4.90003542196E+002, +5.28930685019E+002
+2.44811013767E+007, +4.90320691448E+002, +5.28506476097E+002
+2.46061326658E+007, +4.92934882452E+002, +5.34704056243E+002
+2.47311639549E+007, +4.94071488195E+002, +5.39384525267E+002
+2.48561952441E+007, +4.97610940390E+002, +5.43300232892E+002
+2.49812265332E+007, +4.99659854722E+002, +5.45202481972E+002
+2.51062578223E+007, +5.02473768228E+002, +5.47072133789E+002
+2.52312891114E+007, +5.05701877279E+002, +5.51665014776E+002
+2.53563204005E+007, +5.03483123481E+002, +5.55729428703E+002
+2.54813516896E+007, +5.08091980885E+002, +5.58660635509E+002
+2.56063829787E+007, +5.13893821603E+002, +5.66649837213E+002
+2.57314142678E+007, +5.11805920440E+002, +5.67472065116E+002
+2.58564455569E+007, +5.10966586647E+002, +5.71174984939E+002
+2.59814768461E+007, +5.19350664020E+002, +5.75196851988E+002
+2.61065081352E+007, +5.20789467238E+002, +5.78111512327E+002
+2.62315394243E+007, +5.24149946115E+002, +5.81047600856E+002
+2.63565707134E+007, +5.23821866774E+002, +5.85084610649E+002
+2.64816020025E+007, +5.26871031589E+002, +5.88969268453E+002
+2.66066332916E+007, +5.28436739067E+002, +5.92277739371E+002
+2.67316645807E+007, +5.27441277288E+002, +5.93467393953E+002
+2.68566958698E+007, +5.34998682591E+002, +6.01688664432E+002
+2.69817271589E+007, +5.33219517435E+002, +6.05417278309E+002
+2.71067584481E+007, +5.37726269727E+002, +6.07831337069E+002
+2.72317897372E+007, +5.41486705486E+002, +6.13858578300E+002
+2.73568210263E+007, +5.42959969490E+002, +6.18227569387E+002
+2.74818523154E+007, +5.44690315865E+002, +6.22814621640E+002
+2.76068836045E+007, +5.49475300660E+002, +6.22623839326E+002
+2.77319148936E+007, +5.50992886927E+002, +6.28953865762E+002
+2.78569461827E+007, +5.52382420547E+002, +6.27228285755E+002
+2.79819774718E+007, +5.57533441835E+002, +6.36063638968E+002
+2.81070087610E+007, +5.60726046120E+002, +6.42652893462E+002
+2.82320400501E+007, +5.64580036590E+002, +6.44421426209E+002
+2.83570713392E+007, +5.63332467043E+002, +6.45600797665E+002
+2.84821026283E+007, +5.67379909784E+002, +6.49058878651E+002
+2.86071339174E+007, +5.69267113779E+002, +6.55431469915E+002
+2.87321652065E+007, +5.73622856291E+002, +6.57388329116E+002
+2.88571964956E+007, +5.76842446137E+002, +6.64678088353E+002
+2.89822277847E+007, +5.79763874994E+002, +6.69720892896E+002
+2.91072590738E+007, +5.82814536031E+002, +6.76929980614E+002
+2.92322903630E+007, +5.81544732218E+002, +6.77844447631E+002
+2.93573216521E+007, +5.92587394086E+002, +6.84883574525E+002
+2.94823529412E+007, +5.90687592158E+002, +6.84423357456E+002
+2.96073842303E+007, +5.95554630471E+002, +6.89370737099E+002
+2.97324155194E+007, +5.99439731233E+002, +6.91951746957E+002
+2.98574468085E+007, +6.02906014958E+002, +6.99020333763E+002
+2.99824780976E+007, +6.00466149333E+002, +7.05472026471E+002
+3.01075093867E+007, +6.09568148289E+002, +7.05526459145E+002
+3.02325406758E+007, +6.12642662343E+002, +7.09853805758E+002
+3.03575719650E+007, +6.13089548946E+002, +7.12486969414E+002
+3.04826032541E+007, +6.18823532248E+002, +7.17987035818E+002
+3.06076345432E+007, +6.22796479108E+002, +7.25325452181E+002
+3.07326658323E+007, +6.33395050313E+002, +7.31952886088E+002
+3.08576971214E+007, +6.30217037122E+002, +7.32348634134E+002
+3.09827284105E+007, +6.32377089744E+002, +7.38335648969E+002
+3.11077596996E+007, +6.41720691665E+002, +7.47487806368E+002
+3.12327909887E+007, +6.39141464479E+002, +7.49708970992E+002
+3.13578222778E+007, +6.43700068514E+002, +7.54219833092E+002
+3.14828535670E+007, +6.49483644005E+002, +7.56364132930E+002
+3.16078848561E+007, +6.55254468943E+002, +7.63844868820E+002
+3.17329161452E+007, +6.55829505987E+002, +7.62403782572E+002
+3.18579474343E+007, +6.60112561769E+002, +7.65590715673E+002
+3.19829787234E+007, +6.67058008002E+002, +7.75914897777E+002
+3.21080100125E+007, +6.67855834533E+002, +7.77634542883E+002
+3.22330413016E+007, +6.75847114329E+002, +7.89033987816E+002
+3.23580725907E+007, +6.78607210115E+002, +7.86178638877E+002
+3.24831038798E+007, +6.88563146369E+002, +7.95852013300E+002
+3.26081351690E+007, +6.89285821873E+002, +8.00423234859E+002
+3.27331664581E+007, +6.91948708790E+002, +8.02610391017E+002
+3.28581977472E+007, +7.01584098098E+002, +8.10188003435E+002
+3.29832290363E+007, +7.02705974659E+002, +8.13816759267E+002
+3.31082603254E+007, +7.03751352145E+002, +8.17533024943E+002
+3.32332916145E+007, +7.03215164617E+002, +8.24056238671E+002
+3.33583229036E+007, +7.13665539448E+002, +8.26175380690E+002
+3.34833541927E+007, +7.23425605883E+002, +8.31616021971E+002
+3.36083854819E+007, +7.25025924359E+002, +8.37726620463E+002
+3.37334167710E+007, +7.27817526749E+002, +8.42677394730E+002
+3.38584480601E+007, +7.36054096386E+002, +8.49350246011E+002
+3.39834793492E+007, +7.43738910865E+002, +8.52879602615E+002
+3.41085106383E+007, +7.47298523121E+002, +8.63082534432E+002
+3.42335419274E+007, +7.56448052563E+002, +8.66291281245E+002
+3.43585732165E+007, +7.54451925619E+002, +8.69935823866E+002
+3.44836045056E+007, +7.57909433703E+002, +8.77214156484E+002
+3.46086357947E+007, +7.70942304186E+002, +8.81336264869E+002
+3.47336670839E+007, +7.82152203785E+002, +8.84580997827E+002
+3.48586983730E+007, +7.81849278456E+002, +8.94841996592E+002
+3.49837296621E+007, +7.92410052500E+002, +8.96823387968E+002
+3.51087609512E+007, +7.86313337161E+002, +9.06178602652E+002
+3.52337922403E+007, +8.00114462577E+002, +9.09751369160E+002
+3.53588235294E+007, +8.00717321843E+002, +9.08427638793E+002
+3.54838548185E+007, +8.14164212722E+002, +9.13176565310E+002
+3.56088861076E+007, +8.16866628509E+002, +9.18443661397E+002
+3.57339173967E+007, +8.19254128800E+002, +9.21845726638E+002
+3.58589486859E+007, +8.35406660485E+002, +9.32523134107E+002
+3.59839799750E+007, +8.35509846750E+002, +9.46147215244E+002
+3.61090112641E+007, +8.48641232124E+002, +9.38659765550E+002
+3.62340425532E+007, +8.51303958889E+002, +9.36604746676E+002
+3.63590738423E+007, +8.53022717056E+002, +9.60081796728E+002
+3.64841051314E+007, +8.62691826912E+002, +9.59135115354E+002
+3.66091364205E+007, +8.74835324705E+002, +9.64585541874E+002
+3.67341677096E+007, +8.86921752419E+002, +9.62203799212E+002
+3.68591989987E+007, +8.86755578228E+002, +9.80921506177E+002
+3.69842302879E+007, +8.96162300691E+002, +9.80262993335E+002
+3.71092615770E+007, +9.05864896949E+002, +9.84305567802E+002
+3.72342928661E+007, +9.06518543441E+002, +9.94793211267E+002
+3.73593241552E+007, +9.18098404717E+002, +9.92954921489E+002
+3.74843554443E+007, +9.22486423986E+002, +1.00497917580E+003
+3.76093867334E+007, +9.36640963829E+002, +1.00471543255E+003
+3.77344180225E+007, +9.40137349237E+002, +1.01097011198E+003
+3.78594493116E+007, +9.56017991358E+002, +1.01239502321E+003
+3.79844806008E+007, +9.61039608712E+002, +1.02829589736E+003
+3.81095118899E+007, +9.66353805280E+002, +1.03338311620E+003
+3.82345431790E+007, +9.77656469415E+002, +1.02280118512E+003
+3.83595744681E+007, +9.80478461701E+002, +1.03926882516E+003
+3.84846057572E+007, +9.97267054079E+002, +1.04185555128E+003
+3.86096370463E+007, +1.01173531430E+003, +1.05699575560E+003
+3.87346683354E+007, +1.01736759078E+003, +1.04309030514E+003
+3.88596996245E+007, +1.03886249913E+003, +1.06639349453E+003
+3.89847309136E+007, +1.03545625908E+003, +1.06259783844E+003
+3.91097622028E+007, +1.04102849423E+003, +1.06148673343E+003
+3.92347934919E+007, +1.05309888012E+003, +1.07581247997E+003
+3.93598247810E+007, +1.07445266810E+003, +1.08601891972E+003
+3.94848560701E+007, +1.08960158772E+003, +1.08356097950E+003
+3.96098873592E+007, +1.08487522294E+003, +1.08559377727E+003
+3.97349186483E+007, +1.10142868647E+003, +1.10252298647E+003
+3.98599499374E+007, +1.10501345461E+003, +1.10337997091E+003
+3.99849812265E+007, +1.12232292672E+003, +1.11158234767E+003
+4.01100125156E+007, +1.13091680277E+003, +1.12071010701E+003
