"# Channel 1"
"# Trace 1"
Frequency, Formatted Data, Formatted Data
+1.00000000000E+005, +2.00618403509E-001, +1.76566395130E+000
+2.87609511890E+005, +2.44183399906E-001, +5.10582029203E+000
+4.75219023780E+005, +2.18023570518E-001, +8.41716907317E+000
+6.62828535670E+005, +2.85611448990E-001, +1.17405537285E+001
+8.50438047559E+005, +3.38048987430E-001, +1.49823584937E+001
+1.03804755945E+006, +3.67943013845E-001, +1.82222884683E+001
+1.22565707134E+006, +3.76087697619E-001, +2.14896226202E+001
+1.41326658323E+006, +3.78038754336E-001, +2.47631543666E+001
+1.60087609512E+006, +4.00970835144E-001, +2.80388280050E+001
+1.78848560701E+006, +4.19002803637E-001, +3.13082417077E+001
+1.97609511890E+006, +4.37961575009E-001, +3.45723236893E+001
+2.16370463079E+006, +4.06632607089E-001, +3.77490577480E+001
+2.35131414268E+006, +3.76795661450E-001, +4.09928513959E+001
+2.53892365457E+006, +4.09127671833E-001, +4.43680883476E+001
+2.72653316646E+006, +3.64604613358E-001, +4.76365925287E+001
+2.91414267835E+006, +3.90012214359E-001, +5.08728913504E+001
+3.10175219024E+006, +4.83570968775E-001, +5.42106962288E+001
+3.28936170213E+006, +4.48467170524E-001, +5.75522547731E+001
+3.47697121402E+006, +3.83121457821E-001, +6.07752725892E+001
+3.66458072591E+006, +4.91102975715E-001, +6.39914861669E+001
+3.85219023780E+006, +4.65698850756E-001, +6.73280775107E+001
+4.03979974969E+006, +4.80526696228E-001, +7.07388214363E+001
+4.22740926158E+006, +5.55954754450E-001, +7.39163692344E+001
+4.41501877347E+006, +3.65411593720E-001, +7.69921198378E+001
+4.60262828536E+006, +4.46641013251E-001, +8.03303945951E+001
+4.79023779725E+006, +3.77697328953E-001, +8.37638900488E+001
+4.97784730914E+006, +3.59446750735E-001, +8.70950471287E+001
+5.16545682103E+006, +4.43922321376E-001, +9.03666045610E+001
+5.35306633292E+006, +5.17652798917E-001, +9.36492934730E+001
+5.54067584481E+006, +3.32111548869E-001, +9.70885161201E+001
+5.72828535670E+006, +2.38087182770E-001, +1.00411284312E+002
+5.91589486859E+006, +3.91459535863E-001, +1.03676031462E+002
+6.10350438048E+006, +2.43636825215E-001, +1.07120087715E+002
+6.29111389237E+006, +5.71502543997E-001, +1.10440005277E+002
+6.47872340426E+006, +4.22604412651E-001, +1.13882470947E+002
+6.66633291615E+006, +5.59585544455E-001, +1.17083008921E+002
+6.85394242804E+006, +5.91176689347E-001, +1.20721585628E+002
+7.04155193992E+006, +6.67238411835E-001, +1.23743372388E+002
+7.22916145181E+006, +6.07528665242E-001, +1.27183916855E+002
+7.41677096370E+006, +6.57445035264E-001, +1.30770815165E+002
+7.60438047559E+006, +5.66938803281E-001, +1.34063093471E+002
+7.79198998748E+006, +6.88142572717E-001, +1.37515426568E+002
+7.97959949937E+006, +6.03270598335E-001, +1.40885172326E+002
+8.16720901126E+006, +6.74507513677E-001, +1.44335906450E+002
+8.35481852315E+006, +5.17637752732E-001, +1.47711752640E+002
+8.54242803504E+006, +5.43581301147E-001, +1.51048151529E+002
+8.73003754693E+006, +6.88091237184E-001, +1.54570974074E+002
+8.91764705882E+006, +6.37990028387E-001, +1.57936087624E+002
+9.10525657071E+006, +5.97850375173E-001, +1.61301317463E+002
+9.29286608260E+006, +5.36751998211E-001, +1.64736559928E+002
+9.48047559449E+006, +6.10430506290E-001, +1.68244862460E+002
+9.66808510638E+006, +6.26352485288E-001, +1.71713946963E+002
+9.85569461827E+006, +6.94966448364E-001, +1.75008522001E+002
+1.00433041302E+007, +5.93180058669E-001, +1.78530662998E+002
+1.02309136421E+007, +5.81557779162E-001, +1.82098446519E+002
+1.04185231539E+007, +6.99740807266E-001, +1.85419091891E+002
+1.06061326658E+007, +7.17052434154E-001, +1.89232501554E+002
+1.07937421777E+007, +5.16429384909E-001, +1.92503307797E+002
+1.09813516896E+007, +6.43142848156E-001, +1.96131661142E+002
+1.11689612015E+007, +5.39715203611E-001, +1.99611304771E+002
+1.13565707134E+007, +5.89718083747E-001, +2.03092751179E+002
+1.15441802253E+007, +4.47456478424E-001, +2.06951065439E+002
+1.17317897372E+007, +3.11566388759E-001, +2.10070486920E+002
+1.19193992491E+007, +6.00721582318E-001, +2.14060020227E+002
+1.21070087610E+007, +5.50170498058E-001, +2.17379916362E+002
+1.22946182728E+007, +5.90535765538E-001, +2.20955424891E+002
+1.24822277847E+007, +7.94363020401E-002, +2.24820022242E+002
+1.26698372966E+007, +3.73441485330E-001, +2.28254967869E+002
+1.28574468085E+007, +1.94643571048E-001, +2.31601913250E+002
+1.30450563204E+007, +5.29905692900E-001, +2.35524818211E+002
+1.32326658323E+007, +4.06653078975E-001, +2.39045378836E+002
+1.34202753442E+007, +2.62476986256E-001, +2.42779335607E+002
+1.36078848561E+007, +1.96624211932E-001, +2.46585646985E+002
+1.37954943680E+007, +1.91180958973E-002, +2.50342241420E+002
+1.39831038798E+007, +1.26602029107E-001, +2.53854961478E+002
+1.41707133917E+007, -4.93505366236E-002, +2.57338104776E+002
+1.43583229036E+007, +2.20980647459E-001, +2.61315337253E+002
+1.45459324155E+007, +1.81631505509E-001, +2.65002743869E+002
+1.47335419274E+007, +2.83980414200E-001, +2.68732987530E+002
+1.49211514393E+007, +7.92541206490E-002, +2.71987487778E+002
+1.51087609512E+007, +2.33838428446E-001, +2.76307545894E+002
+1.52963704631E+007, +5.32644421235E-001, +2.79864116330E+002
+1.54839799750E+007, +2.28356549771E-001, +2.84167080661E+002
+1.56715894869E+007, +5.04207267287E-001, +2.87601386620E+002
+1.58591989987E+007, +3.54874515449E-001, +2.91287999293E+002
+1.60468085106E+007, +1.63861911397E-001, +2.95489085407E+002
+1.62344180225E+007, -9.50362284662E-002, +2.99370719456E+002
+1.64220275344E+007, -6.48085449229E-001, +3.03408055610E+002
+1.66096370463E+007, +9.52895116378E-002, +3.07312976982E+002
+1.67972465582E+007, -6.57029419376E-001, +3.10792078970E+002
+1.69848560701E+007, -1.24989302964E-001, +3.14546617365E+002
+1.71724655820E+007, -8.41667382981E-001, +3.18948175655E+002
+1.73600750939E+007, -4.97123000646E-001, +3.23417403647E+002
+1.75476846058E+007, -6.44422277653E-001, +3.26736263515E+002
+1.77352941176E+007, -9.21111559770E-001, +3.30322299417E+002
+1.79229036295E+007, -7.92664762384E-001, +3.35116383818E+002
+1.81105131414E+007, +7.57275051621E-002, +3.38708647933E+002
+1.82981226533E+007, -1.07291686429E-001, +3.42998034893E+002
+1.84857321652E+007, -5.71578593491E-002, +3.47374936723E+002
+1.86733416771E+007, -1.09691836297E+000, +3.50963396747E+002
+1.88609511890E+007, -4.49137369315E-001, +3.55670268915E+002
+1.90485607009E+007, -2.33432823509E-001, +3.59856891733E+002
+1.92361702128E+007, -2.15446940458E-001, +3.63373344106E+002
+1.94237797247E+007, -9.12337250128E-001, +3.67898531470E+002
+1.96113892365E+007, -5.09939103499E-001, +3.72642306019E+002
+1.97989987484E+007, -6.15462889726E-001, +3.77101023715E+002
+1.99866082603E+007, -8.94670051204E-001, +3.80398642439E+002
+2.01742177722E+007, -5.23326587890E-001, +3.85221782932E+002
+2.03618272841E+007, -9.80969252574E-001, +3.89078169035E+002
+2.05494367960E+007, -8.52195572330E-001, +3.94451930749E+002
+2.07370463079E+007, -8.77170226609E-001, +3.98228728264E+002
+2.09246558198E+007, -7.79275747226E-001, +4.02566501209E+002
+2.11122653317E+007, -1.11619497885E-001, +4.06815800559E+002
+2.12998748436E+007, -5.68125142575E-001, +4.10711185264E+002
+2.14874843554E+007, -1.07366883579E+000, +4.16228997706E+002
+2.16750938673E+007, -3.66895940191E-001, +4.20339342002E+002
+2.18627033792E+007, -2.47012601612E-001, +4.25213298719E+002
+2.20503128911E+007, -4.75260512260E-001, +4.29298898942E+002
+2.22379224030E+007, -3.51258924924E-001, +4.33307671736E+002
+2.24255319149E+007, -4.54761756819E-001, +4.37969449320E+002
+2.26131414268E+007, -7.41850807532E-001, +4.43088149800E+002
+2.28007509387E+007, +2.21292884458E-001, +4.47949235696E+002
+2.29883604506E+007, +2.39701579228E-001, +4.52352948683E+002
+2.31759699625E+007, -5.40494832901E-002, +4.57636245640E+002
+2.33635794743E+007, +1.99340139374E+000, +4.62500172183E+002
+2.35511889862E+007, +3.72113362891E-001, +4.67822715447E+002
+2.37387984981E+007, +3.13128716974E-001, +4.71658133172E+002
+2.39264080100E+007, +4.88991912354E-001, +4.77256787805E+002
+2.41140175219E+007, +1.36620661091E+000, +4.81402273633E+002
+2.43016270338E+007, +9.65684145296E-001, +4.86176504462E+002
+2.44892365457E+007, +2.47460560290E+000, +4.90574656429E+002
+2.46768460576E+007, +1.04100044902E-001, +4.94639166975E+002
+2.48644555695E+007, +6.77256008178E-002, +4.99522205194E+002
+2.50520650814E+007, +9.97028172957E-001, +5.05433499042E+002
+2.52396745932E+007, +2.09808466854E+000, +5.10230278805E+002
+2.54272841051E+007, +1.18945936111E+000, +5.15069329510E+002
+2.56148936170E+007, +1.37440990777E+000, +5.19669004455E+002
+2.58025031289E+007, +1.20870637997E+000, +5.25982813455E+002
+2.59901126408E+007, +2.16476415767E-001, +5.28464165217E+002
+2.61777221527E+007, +5.03681730369E-002, +5.34037001211E+002
+2.63653316646E+007, +3.27513766037E-001, +5.40430187283E+002
+2.65529411765E+007, +1.44243608479E+000, +5.43644877053E+002
+2.67405506884E+007, +9.11870122875E-001, +5.49651056194E+002
+2.69281602003E+007, +1.83547185254E+000, +5.55382837288E+002
+2.71157697121E+007, +1.41484959085E-002, +5.61138846779E+002
+2.73033792240E+007, -1.38574125193E+000, +5.67894308276E+002
+2.74909887359E+007, +5.64427537437E-001, +5.75076715716E+002
+2.76785982478E+007, +2.72245828604E+000, +5.79429573566E+002
+2.78662077597E+007, +2.57766549512E+000, +5.83220788311E+002
+2.80538172716E+007, +2.72819196444E+000, +5.89135165263E+002
+2.82414267835E+007, +1.11825360309E+000, +5.92078481216E+002
+2.84290362954E+007, -9.44948877791E-001, +5.99373738749E+002
+2.86166458073E+007, +1.05816914454E+000, +6.06107627672E+002
+2.88042553191E+007, -2.47459538281E+000, +6.10520509715E+002
+2.89918648310E+007, -2.22584163216E+000, +6.15065135315E+002
+2.91794743429E+007, -1.30385765749E+000, +6.21776120170E+002
+2.93670838548E+007, -5.60627685518E-001, +6.28213332342E+002
+2.95546933667E+007, -1.39470587972E+000, +6.33832892876E+002
+2.97423028786E+007, -1.05595323608E+000, +6.41636379684E+002
+2.99299123905E+007, -1.51143781376E+000, +6.48478640205E+002
+3.01175219024E+007, -2.00428471502E+000, +6.55035874729E+002
+3.03051314143E+007, -2.70738993231E+000, +6.62342507663E+002
+3.04927409262E+007, +1.00555848469E-001, +6.66600645483E+002
+3.06803504380E+007, -2.80946796788E+000, +6.74975505375E+002
+3.08679599499E+007, -2.47226236405E+000, +6.78008909626E+002
+3.10555694618E+007, -3.74231925079E+000, +6.87521929853E+002
+3.12431789737E+007, -3.64615234468E+000, +6.91028056677E+002
+3.14307884856E+007, -3.72609529110E+000, +7.00061461954E+002
+3.16183979975E+007, -3.14682271983E-001, +7.06031348449E+002
+3.18060075094E+007, -2.22779104338E+000, +7.11964761582E+002
+3.19936170213E+007, -4.42611192907E+000, +7.18795137951E+002
+3.21812265332E+007, -8.11392508254E+000, +7.24684659709E+002
+3.23688360451E+007, -4.66033323360E+000, +7.31844290674E+002
+3.25564455569E+007, -2.68644349188E+000, +7.38906472665E+002
+3.27440550688E+007, -3.76579853939E+000, +7.48266710389E+002
+3.29316645807E+007, -6.31408858866E+000, +7.51374270442E+002
+3.31192740926E+007, -5.32456237006E+000, +7.65089427952E+002
+3.33068836045E+007, -6.05364034139E+000, +7.68238772503E+002
+3.34944931164E+007, -4.83879663448E+000, +7.75350228522E+002
+3.36821026283E+007, -3.68667532110E+000, +7.85171671577E+002
+3.38697121402E+007, -7.49021542422E+000, +7.90774368271E+002
+3.40573216521E+007, -3.62952412035E+000, +7.99849209455E+002
+3.42449311640E+007, -6.88015874378E+000, +8.08704598271E+002
+3.44325406758E+007, -6.39740586642E+000, +8.16757216187E+002
+3.46201501877E+007, -4.34438139084E+000, +8.22664267830E+002
+3.48077596996E+007, -5.89025758210E+000, +8.30336521353E+002
+3.49953692115E+007, -5.64494109577E+000, +8.38539185548E+002
+3.51829787234E+007, -5.26257151343E+000, +8.44592443333E+002
+3.53705882353E+007, -9.56839066341E-001, +8.56182035172E+002
+3.55581977472E+007, -5.39012411926E+000, +8.66199390222E+002
+3.57458072591E+007, -7.85456042467E+000, +8.72035119609E+002
+3.59334167710E+007, -9.99563192542E+000, +8.79842954260E+002
+3.61210262829E+007, -1.50537765730E+000, +8.90895616964E+002
+3.63086357947E+007, -5.17593569852E+000, +9.00774280264E+002
+3.64962453066E+007, -2.47958037145E+000, +9.11640708019E+002
+3.66838548185E+007, -6.68607189182E+000, +9.12511634669E+002
+3.68714643304E+007, -9.97410090426E+000, +9.25707136575E+002
+3.70590738423E+007, -3.21268648608E+000, +9.29898729787E+002
+3.72466833542E+007, -6.11024557723E+000, +9.39146134169E+002
+3.74342928661E+007, -4.37705223081E+000, +9.52811407738E+002
+3.76219023780E+007, -7.37857638191E+000, +9.60679600052E+002
+3.78095118899E+007, -6.81104174663E+000, +9.69205789184E+002
+3.79971214018E+007, -9.25482547585E+000, +9.81700452266E+002
+3.81847309136E+007, -6.69956536866E+000, +9.91858287798E+002
+3.83723404255E+007, -8.54787930226E+000, +1.00099097838E+003
+3.85599499374E+007, -7.15660202372E+000, +1.01416824884E+003
+3.87475594493E+007, -8.03835580722E+000, +1.02350766993E+003
+3.89351689612E+007, -9.85459706678E+000, +1.03731340709E+003
+3.91227784731E+007, -1.16462964920E+001, +1.04819607538E+003
+3.93103879850E+007, -1.20200389325E+001, +1.05955832364E+003
+3.94979974969E+007, -9.76993445683E+000, +1.06734067657E+003
+3.96856070088E+007, -1.45685245297E+001, +1.07914228308E+003
+3.98732165207E+007, -1.15126560805E+001, +1.09558814642E+003
+4.00608260325E+007, -9.79272473070E+000, +1.10131368224E+003
+4.02484355444E+007, -1.42220163737E+001, +1.12055979611E+003
+4.04360450563E+007, -1.44728864837E+001, +1.12916695414E+003
+4.06236545682E+007, -1.08629485936E+001, +1.13384756572E+003
+4.08112640801E+007, -8.27487688637E+000, +1.14876422198E+003
+4.09988735920E+007, -8.67345729208E+000, +1.17038683292E+003
+4.11864831039E+007, -5.80834412546E+000, +1.17622056907E+003
+4.13740926158E+007, -5.22810630983E+000, +1.19167010040E+003
+4.15617021277E+007, -8.92218539938E+000, +1.21037045544E+003
+4.17493116395E+007, -3.73815088733E+000, +1.22205081190E+003
+4.19369211514E+007, -2.44736591805E+000, +1.22660823354E+003
+4.21245306633E+007, -6.00718576057E+000, +1.24782249915E+003
+4.23121401752E+007, -1.34887038288E+001, +1.25918293833E+003
+4.24997496871E+007, -4.29794037926E+000, +1.28444914008E+003
+4.26873591990E+007, -3.15423464855E+000, +1.28164429784E+003
+4.28749687109E+007, -7.57868763849E+000, +1.30347705446E+003
+4.30625782228E+007, -6.52384234428E+000, +1.31936829799E+003
+4.32501877347E+007, -1.36140862546E+000, +1.33931013877E+003
+4.34377972466E+007, -1.27985469401E+001, +1.35149851183E+003
+4.36254067584E+007, -9.01870053214E+000, +1.37005975041E+003
+4.38130162703E+007, -1.15255147950E+001, +1.37467444076E+003
+4.40006257822E+007, -6.68857691332E+000, +1.39901598697E+003
+4.41882352941E+007, -3.89378871313E+000, +1.41345221113E+003
+4.43758448060E+007, -7.55842947110E+000, +1.42792793233E+003
+4.45634543179E+007, -1.10596451318E+001, +1.45170380673E+003
+4.47510638298E+007, -2.07997005899E+001, +1.47180962048E+003
+4.49386733417E+007, -1.79188533129E+001, +1.48409685418E+003
+4.51262828536E+007, -1.78546617020E+001, +1.50864172964E+003
+4.53138923655E+007, -1.24358290294E+001, +1.51786550004E+003
+4.55015018773E+007, -1.57951887907E+001, +1.55169821606E+003
+4.56891113892E+007, -6.51082158635E+000, +1.56635534598E+003
+4.58767209011E+007, -4.51576506075E+000, +1.58786415662E+003
+4.60643304130E+007, -1.71315982489E+001, +1.60948696767E+003
+4.62519399249E+007, -8.34892725175E+000, +1.63298536235E+003
+4.64395494368E+007, -1.74663264992E+001, +1.64777493859E+003
+4.66271589487E+007, -1.06036292683E+001, +1.69498480995E+003
+4.68147684606E+007, -1.17280608943E+001, +1.70723042633E+003
+4.70023779725E+007, +6.58406008025E+000, +1.72850364023E+003
+4.71899874844E+007, -1.43305547652E+001, +1.75228488357E+003
+4.73775969962E+007, -1.33892629029E+001, +1.76973611362E+003
+4.75652065081E+007, -1.19153828704E+001, +1.79414683895E+003
+4.77528160200E+007, +7.40739012721E-001, +1.82166092256E+003
+4.79404255319E+007, -1.11655804374E+001, +1.85746887052E+003
+4.81280350438E+007, -4.05349697117E+000, +1.88685036078E+003
+4.83156445557E+007, -3.33967217819E+000, +1.92062845834E+003
+4.85032540676E+007, -3.02086282720E+000, +1.95154661461E+003
+4.86908635795E+007, +9.08045287234E+000, +1.96716902969E+003
+4.88784730914E+007, -1.75338600319E+000, +2.00108522136E+003
+4.90660826033E+007, -4.71220955871E+000, +2.04772905884E+003
+4.92536921151E+007, +1.87357126113E+001, +2.07514263204E+003
+4.94413016270E+007, +8.79679226793E+000, +2.11167946573E+003
+4.96289111389E+007, -4.33881353283E+000, +2.14171804064E+003
+4.98165206508E+007, +7.38199691473E+000, +2.17693273920E+003
+5.00041301627E+007, +2.79120363075E+000, +2.20935302421E+003
+5.01917396746E+007, +1.72715713463E+001, +2.26225867944E+003
+5.03793491865E+007, +1.02687359690E+001, +2.27618310103E+003
+5.05669586984E+007, -1.19775096627E-001, +2.34918004231E+003
+5.07545682103E+007, +5.56927571643E-001, +2.37028299978E+003
+5.09421777222E+007, +2.29413294831E+001, +2.43415652388E+003
+5.11297872340E+007, +3.20918022992E+001, +2.45301369771E+003
+5.13173967459E+007, +2.92775606338E+001, +2.47385207341E+003
+5.15050062578E+007, +3.12198242134E+001, +2.50235454861E+003
+5.16926157697E+007, +5.10622297410E+001, +2.57994583308E+003
+5.18802252816E+007, +2.30792110558E+001, +2.63810444716E+003
+5.20678347935E+007, +4.29049307554E+001, +2.67325959735E+003
+5.22554443054E+007, +4.46125813647E+001, +2.73459106414E+003
+5.24430538173E+007, +6.76779813655E+001, +2.78040647019E+003
+5.26306633292E+007, +4.36496373697E+001, +2.82908329064E+003
+5.28182728411E+007, +6.32054259573E+001, +2.90185484759E+003
+5.30058823529E+007, +5.79454202594E+001, +2.90851361373E+003
+5.31934918648E+007, +5.30962333029E+001, +3.01477863072E+003
+5.33811013767E+007, +5.98247510185E+001, +3.13877534952E+003
+5.35687108886E+007, +3.86560511591E+001, +3.17335100218E+003
+5.37563204005E+007, +7.62269616031E+000, +3.23165455023E+003
+5.39439299124E+007, +5.95212521533E+001, +3.35074448719E+003
+5.41315394243E+007, -1.19761829182E+000, +3.41269462515E+003
+5.43191489362E+007, -1.00682179631E+001, +3.48050319096E+003
+5.45067584481E+007, +3.99063786390E+001, +3.61541672073E+003
+5.46943679599E+007, +6.96233854235E+001, +3.71657866955E+003
+5.48819774718E+007, +6.18416373067E+001, +3.86031342219E+003
+5.50695869837E+007, +4.01223383354E+001, +3.97124361160E+003
+5.52571964956E+007, +9.26960011172E+001, +4.06857372873E+003
+5.54448060075E+007, +6.85773686592E+001, +4.21790898614E+003
+5.56324155194E+007, +1.52689137277E+002, +4.32593799879E+003
+5.58200250313E+007, +1.16588186487E+002, +4.46537460668E+003
+5.60076345432E+007, +3.48914397181E+001, +4.58298297401E+003
+5.61952440551E+007, +9.73605467626E+001, +4.87537647083E+003
+5.63828535670E+007, +1.47420141734E+002, +4.98587397040E+003
+5.65704630788E+007, +1.96189348762E+002, +5.13954978703E+003
+5.67580725907E+007, +1.25161707007E+002, +5.41748373804E+003
+5.69456821026E+007, +1.30134453860E+002, +5.68314702584E+003
+5.71332916145E+007, +3.77161705207E+002, +5.95680335984E+003
+5.73209011264E+007, +3.47208085513E+002, +6.18865653721E+003
+5.75085106383E+007, +3.17425897127E+002, +6.71441719346E+003
+5.76961201502E+007, +4.66250580433E+002, +6.93333008630E+003
+5.78837296621E+007, +4.59840575073E+002, +7.58227111979E+003
+5.80713391740E+007, +7.29819229411E+002, +8.03946161849E+003
+5.82589486859E+007, +6.40018608691E+002, +8.40346901726E+003
+5.84465581977E+007, +9.32174035032E+002, +8.93614112789E+003
+5.86341677096E+007, +1.16356804480E+003, +9.41581357801E+003
+5.88217772215E+007, +1.32884440010E+003, +1.09085383904E+004
+5.90093867334E+007, +2.20286233365E+003, +1.20314842362E+004
+5.91969962453E+007, +2.85870829347E+003, +1.18938125056E+004
+5.93846057572E+007, +2.99092080557E+003, +1.27405654815E+004
+5.95722152691E+007, +4.27209773674E+003, +1.45432130254E+004
+5.97598247810E+007, +6.41727893056E+003, +1.64346425511E+004
+5.99474342929E+007, +8.24597820818E+003, +1.66241623469E+004
+6.01350438048E+007, +1.01547161373E+004, +1.73978221304E+004
