"# Channel 1"
"# Trace 1"
Frequency, Formatted Data, Formatted Data
+1.00000000000E+005, +2.55311401768E+001, +1.91329193417E+000
+2.66777963272E+005, +2.55432274708E+001, +5.32615766897E+000
+4.33555926544E+005, +2.55151827245E+001, +8.64693770522E+000
+6.00333889816E+005, +2.55484336833E+001, +1.19481053191E+001
+7.67111853088E+005, +2.55881425963E+001, +1.52313467824E+001
+9.33889816361E+005, +2.55480468574E+001, +1.85209551086E+001
+1.10066777963E+006, +2.55672482733E+001, +2.19186366329E+001
+1.26744574290E+006, +2.55855560407E+001, +2.51920321733E+001
+1.43422370618E+006, +2.55428781561E+001, +2.85557409885E+001
+1.60100166945E+006, +2.55951850818E+001, +3.18451999968E+001
+1.76777963272E+006, +2.55861978310E+001, +3.51330748771E+001
+1.93455759599E+006, +2.55757626877E+001, +3.84326273702E+001
+2.10133555927E+006, +2.55267541722E+001, +4.17243618318E+001
+2.26811352254E+006, +2.55685437580E+001, +4.49832144366E+001
+2.43489148581E+006, +2.56242623874E+001, +4.84258505262E+001
+2.60166944908E+006, +2.55845812540E+001, +5.16517053528E+001
+2.76844741235E+006, +2.55874970224E+001, +5.50644343894E+001
+2.93522537563E+006, +2.55460616360E+001, +5.83693218840E+001
+3.10200333890E+006, +2.57110022730E+001, +6.15681972019E+001
+3.26878130217E+006, +2.55141007005E+001, +6.51144327663E+001
+3.43555926544E+006, +2.56375581311E+001, +6.83339361951E+001
+3.60233722871E+006, +2.56632843332E+001, +7.17242436320E+001
+3.76911519199E+006, +2.57704943750E+001, +7.51715006178E+001
+3.93589315526E+006, +2.55231958876E+001, +7.83364381369E+001
+4.10267111853E+006, +2.56996739365E+001, +8.19024788645E+001
+4.26944908180E+006, +2.56906957384E+001, +8.53192457139E+001
+4.43622704508E+006, +2.56920752267E+001, +8.84157131634E+001
+4.60300500835E+006, +2.58086040807E+001, +9.18567051765E+001
+4.76978297162E+006, +2.57212440926E+001, +9.52005434457E+001
+4.93656093489E+006, +2.58454171932E+001, +9.86418570108E+001
+5.10333889816E+006, +2.58471187417E+001, +1.01854095296E+002
+5.27011686144E+006, +2.61059204172E+001, +1.05501814518E+002
+5.43689482471E+006, +2.58946982342E+001, +1.08765882429E+002
+5.60367278798E+006, +2.60124673714E+001, +1.12373139492E+002
+5.77045075125E+006, +2.59621938387E+001, +1.15533476572E+002
+5.93722871452E+006, +2.61498324235E+001, +1.18968210088E+002
+6.10400667780E+006, +2.61759461524E+001, +1.22634856055E+002
+6.27078464107E+006, +2.63306922701E+001, +1.25745564451E+002
+6.43756260434E+006, +2.63217025600E+001, +1.29283110308E+002
+6.60434056761E+006, +2.63860213529E+001, +1.32586512966E+002
+6.77111853088E+006, +2.66084764630E+001, +1.35926421288E+002
+6.93789649416E+006, +2.65704635345E+001, +1.39544125080E+002
+7.10467445743E+006, +2.65793751565E+001, +1.42908857243E+002
+7.27145242070E+006, +2.65758569642E+001, +1.46204913307E+002
+7.43823038397E+006, +2.66423954616E+001, +1.49613367592E+002
+7.60500834725E+006, +2.66864777444E+001, +1.53100044961E+002
+7.77178631052E+006, +2.67875269093E+001, +1.56728072309E+002
+7.93856427379E+006, +2.67536821092E+001, +1.60095486889E+002
+8.10534223706E+006, +2.68697009740E+001, +1.63510332285E+002
+8.27212020033E+006, +2.67836629894E+001, +1.67030976198E+002
+8.43889816361E+006, +2.68586352182E+001, +1.70748476407E+002
+8.60567612688E+006, +2.67946173921E+001, +1.74223269747E+002
+8.77245409015E+006, +2.68066579426E+001, +1.77562769123E+002
+8.93923205342E+006, +2.68456786579E+001, +1.81256761091E+002
+9.10601001669E+006, +2.70171854771E+001, +1.84764751436E+002
+9.27278797997E+006, +2.69112360427E+001, +1.88485173167E+002
+9.43956594324E+006, +2.69496986573E+001, +1.91914846437E+002
+9.60634390651E+006, +2.69431262547E+001, +1.95465588789E+002
+9.77312186978E+006, +2.71091774551E+001, +1.99122122803E+002
+9.93989983306E+006, +2.72847551427E+001, +2.02792944180E+002
+1.01066777963E+007, +2.70306469426E+001, +2.06281675827E+002
+1.02734557596E+007, +2.70960226560E+001, +2.10105012843E+002
+1.04402337229E+007, +2.71105134455E+001, +2.13573897538E+002
+1.06070116861E+007, +2.70792022038E+001, +2.17351706653E+002
+1.07737896494E+007, +2.74960878153E+001, +2.21152432189E+002
+1.09405676127E+007, +2.75334124977E+001, +2.24434689158E+002
+1.11073455760E+007, +2.72930619797E+001, +2.28389572230E+002
+1.12741235392E+007, +2.76022886383E+001, +2.32051103366E+002
+1.14409015025E+007, +2.77414713254E+001, +2.35646986661E+002
+1.16076794658E+007, +2.77143680885E+001, +2.39251940982E+002
+1.17744574290E+007, +2.81794761708E+001, +2.43462319575E+002
+1.19412353923E+007, +2.79764450219E+001, +2.47069347262E+002
+1.21080133556E+007, +2.75654921333E+001, +2.50986858583E+002
+1.22747913189E+007, +2.78649292301E+001, +2.54591917770E+002
+1.24415692821E+007, +2.77519620237E+001, +2.58323075242E+002
+1.26083472454E+007, +2.76522313234E+001, +2.62095200832E+002
+1.27751252087E+007, +2.80408394879E+001, +2.66160749732E+002
+1.29419031720E+007, +2.80978065060E+001, +2.69478650742E+002
+1.31086811352E+007, +2.83338751468E+001, +2.73836120595E+002
+1.32754590985E+007, +2.84668639047E+001, +2.77515964604E+002
+1.34422370618E+007, +2.81400702052E+001, +2.81438437862E+002
+1.36090150250E+007, +2.90006950522E+001, +2.85206096308E+002
+1.37757929883E+007, +2.86359782428E+001, +2.89186567269E+002
+1.39425709516E+007, +2.88707834401E+001, +2.92983510953E+002
+1.41093489149E+007, +2.90225085085E+001, +2.97051539665E+002
+1.42761268781E+007, +2.89715919057E+001, +3.01039752033E+002
+1.44429048414E+007, +2.92678833179E+001, +3.04784094102E+002
+1.46096828047E+007, +2.92492151002E+001, +3.08872006368E+002
+1.47764607679E+007, +2.94096212210E+001, +3.12522164507E+002
+1.49432387312E+007, +2.94230954636E+001, +3.17141042211E+002
+1.51100166945E+007, +2.92444784824E+001, +3.21269495373E+002
+1.52767946578E+007, +2.94543260509E+001, +3.24774104664E+002
+1.54435726210E+007, +2.98241331272E+001, +3.28990927444E+002
+1.56103505843E+007, +3.05514511226E+001, +3.33457938547E+002
+1.57771285476E+007, +2.99939777393E+001, +3.36590432806E+002
+1.59439065109E+007, +3.00774001607E+001, +3.41688167216E+002
+1.61106844741E+007, +2.99056621994E+001, +3.45887153774E+002
+1.62774624374E+007, +3.03947206063E+001, +3.49823227907E+002
+1.64442404007E+007, +2.97098217655E+001, +3.53526753403E+002
+1.66110183639E+007, +3.05708712467E+001, +3.58185662565E+002
+1.67777963272E+007, +3.08923749849E+001, +3.63150763918E+002
+1.69445742905E+007, +3.08742547823E+001, +3.66844216583E+002
+1.71113522538E+007, +3.01279850381E+001, +3.71116081798E+002
+1.72781302170E+007, +3.05085394779E+001, +3.75344167074E+002
+1.74449081803E+007, +3.06798406681E+001, +3.79694976551E+002
+1.76116861436E+007, +3.17059887891E+001, +3.84026489241E+002
+1.77784641068E+007, +3.12931588662E+001, +3.88097883157E+002
+1.79452420701E+007, +3.14126700098E+001, +3.92606199296E+002
+1.81120200334E+007, +3.18211637158E+001, +3.96403965671E+002
+1.82787979967E+007, +3.25444907768E+001, +4.01817705305E+002
+1.84455759599E+007, +3.27505857863E+001, +4.05957131386E+002
+1.86123539232E+007, +3.24981116526E+001, +4.11066431123E+002
+1.87791318865E+007, +3.20310096381E+001, +4.15444339268E+002
+1.89459098497E+007, +3.28136414969E+001, +4.19393215612E+002
+1.91126878130E+007, +3.31091205472E+001, +4.24279274703E+002
+1.92794657763E+007, +3.32610439619E+001, +4.29291532498E+002
+1.94462437396E+007, +3.33782188640E+001, +4.34646586665E+002
+1.96130217028E+007, +3.39883768340E+001, +4.38508153587E+002
+1.97797996661E+007, +3.42418754748E+001, +4.41523783185E+002
+1.99465776294E+007, +3.33219946649E+001, +4.47270762733E+002
+2.01133555927E+007, +3.35980526215E+001, +4.52187740766E+002
+2.02801335559E+007, +3.42493932687E+001, +4.58260386783E+002
+2.04469115192E+007, +3.57657104579E+001, +4.62340334946E+002
+2.06136894825E+007, +3.53204513724E+001, +4.67458824359E+002
+2.07804674457E+007, +3.48615399326E+001, +4.72145122553E+002
+2.09472454090E+007, +3.51731456386E+001, +4.77602077712E+002
+2.11140233723E+007, +3.54821995777E+001, +4.81233707075E+002
+2.12808013356E+007, +3.62987636350E+001, +4.86647715818E+002
+2.14475792988E+007, +3.65981703791E+001, +4.92143377369E+002
+2.16143572621E+007, +3.67100467708E+001, +4.96871079734E+002
+2.17811352254E+007, +3.73770928729E+001, +5.02194231685E+002
+2.19479131886E+007, +3.81723362283E+001, +5.07965750209E+002
+2.21146911519E+007, +3.91229955805E+001, +5.12232923416E+002
+2.22814691152E+007, +3.81412247203E+001, +5.16290311303E+002
+2.24482470785E+007, +3.82255625127E+001, +5.22746044176E+002
+2.26150250417E+007, +4.08267991808E+001, +5.28309001906E+002
+2.27818030050E+007, +4.00925371466E+001, +5.33876943564E+002
+2.29485809683E+007, +4.17697340748E+001, +5.38729531320E+002
+2.31153589316E+007, +4.04832738833E+001, +5.43155389823E+002
+2.32821368948E+007, +4.30269107079E+001, +5.48207069335E+002
+2.34489148581E+007, +4.24396651324E+001, +5.55037371720E+002
+2.36156928214E+007, +4.35842584701E+001, +5.59537530236E+002
+2.37824707846E+007, +4.36485877086E+001, +5.64957361869E+002
+2.39492487479E+007, +4.24970653259E+001, +5.70521936811E+002
+2.41160267112E+007, +4.38937113041E+001, +5.75429210681E+002
+2.42828046745E+007, +4.45681427082E+001, +5.81801822106E+002
+2.44495826377E+007, +4.55749808692E+001, +5.89784618832E+002
+2.46163606010E+007, +4.56370309976E+001, +5.92823161968E+002
+2.47831385643E+007, +4.54022250896E+001, +5.99318530133E+002
+2.49499165275E+007, +4.92204890469E+001, +6.04340079121E+002
+2.51166944908E+007, +4.91217762635E+001, +6.10007333728E+002
+2.52834724541E+007, +4.93593179658E+001, +6.15463443049E+002
+2.54502504174E+007, +4.87872711324E+001, +6.20625132777E+002
+2.56170283806E+007, +4.89858726560E+001, +6.27623500913E+002
+2.57838063439E+007, +5.04546006936E+001, +6.34940389822E+002
+2.59505843072E+007, +5.09659036170E+001, +6.40866393545E+002
+2.61173622705E+007, +5.11657069725E+001, +6.46179098489E+002
+2.62841402337E+007, +5.18908158943E+001, +6.51880864209E+002
+2.64509181970E+007, +5.11543908933E+001, +6.58547724557E+002
+2.66176961603E+007, +5.34264926431E+001, +6.65253275343E+002
+2.67844741235E+007, +5.33718961274E+001, +6.71886547410E+002
+2.69512520868E+007, +5.55643230562E+001, +6.74720057044E+002
+2.71180300501E+007, +5.47752014904E+001, +6.80640789313E+002
+2.72848080134E+007, +5.58857646210E+001, +6.91481984843E+002
+2.74515859766E+007, +5.89787105093E+001, +6.95197196675E+002
+2.76183639399E+007, +5.61851606656E+001, +7.01396618540E+002
+2.77851419032E+007, +5.62991219974E+001, +7.07250850898E+002
+2.79519198664E+007, +5.73732408894E+001, +7.12064950424E+002
+2.81186978297E+007, +6.12398928368E+001, +7.19375485251E+002
+2.82854757930E+007, +6.09669251067E+001, +7.25305131477E+002
+2.84522537563E+007, +5.75662180058E+001, +7.33645818960E+002
+2.86190317195E+007, +5.79347486939E+001, +7.39813664031E+002
+2.87858096828E+007, +6.11695115782E+001, +7.47428805163E+002
+2.89525876461E+007, +5.97322134193E+001, +7.54368615271E+002
+2.91193656093E+007, +5.97073438505E+001, +7.55751801464E+002
+2.92861435726E+007, +5.94456928267E+001, +7.67672394041E+002
+2.94529215359E+007, +6.11646061038E+001, +7.74915743860E+002
+2.96196994992E+007, +6.26192159793E+001, +7.83960894296E+002
+2.97864774624E+007, +6.40337390165E+001, +7.90629216385E+002
+2.99532554257E+007, +6.59063056574E+001, +7.98477467459E+002
+3.01200333890E+007, +6.56106478312E+001, +8.06415329246E+002
+3.02868113523E+007, +6.14298624516E+001, +8.15532356194E+002
+3.04535893155E+007, +6.30422985761E+001, +8.22571596304E+002
+3.06203672788E+007, +6.35865792806E+001, +8.29880535256E+002
+3.07871452421E+007, +6.56470637360E+001, +8.37998003660E+002
+3.09539232053E+007, +6.80596819774E+001, +8.47430033023E+002
+3.11207011686E+007, +6.39179916259E+001, +8.57713065065E+002
+3.12874791319E+007, +6.79906039447E+001, +8.59897576468E+002
+3.14542570952E+007, +6.78875366494E+001, +8.70677361731E+002
+3.16210350584E+007, +6.55474774756E+001, +8.81468478447E+002
+3.17878130217E+007, +6.68495231382E+001, +8.89801583226E+002
+3.19545909850E+007, +7.10443186282E+001, +8.95314027294E+002
+3.21213689482E+007, +6.60603875070E+001, +9.07174611974E+002
+3.22881469115E+007, +6.78654386771E+001, +9.12654968152E+002
+3.24549248748E+007, +7.13466465912E+001, +9.28342543453E+002
+3.26217028381E+007, +6.93615222058E+001, +9.34848408175E+002
+3.27884808013E+007, +6.92966132989E+001, +9.44364700181E+002
+3.29552587646E+007, +7.46516400558E+001, +9.53622708513E+002
+3.31220367279E+007, +7.75408383034E+001, +9.65203055276E+002
+3.32888146912E+007, +7.50446126871E+001, +9.73026525240E+002
+3.34555926544E+007, +7.32084526918E+001, +9.86068583545E+002
+3.36223706177E+007, +7.82238301286E+001, +9.92220704797E+002
+3.37891485810E+007, +7.67206107326E+001, +1.00008738833E+003
+3.39559265442E+007, +7.87949540216E+001, +1.01529562550E+003
+3.41227045075E+007, +7.81599509178E+001, +1.02430916821E+003
+3.42894824708E+007, +7.92736308716E+001, +1.03198023853E+003
+3.44562604341E+007, +8.07821623377E+001, +1.04419570347E+003
+3.46230383973E+007, +8.57159672920E+001, +1.06326683788E+003
+3.47898163606E+007, +9.16899399356E+001, +1.07039743084E+003
+3.49565943239E+007, +8.93271367016E+001, +1.08284626093E+003
+3.51233722871E+007, +8.89921999559E+001, +1.09378570273E+003
+3.52901502504E+007, +8.61776791158E+001, +1.09903056613E+003
+3.54569282137E+007, +9.05953803567E+001, +1.11951765778E+003
+3.56237061770E+007, +8.12646218039E+001, +1.13741413933E+003
+3.57904841402E+007, +8.76209875362E+001, +1.14699195506E+003
+3.59572621035E+007, +9.72243105895E+001, +1.15624043527E+003
+3.61240400668E+007, +9.36521433153E+001, +1.17065789268E+003
+3.62908180301E+007, +1.00996916465E+002, +1.18823979490E+003
+3.64575959933E+007, +9.63000753032E+001, +1.19539530064E+003
+3.66243739566E+007, +1.01588302410E+002, +1.20214116021E+003
+3.67911519199E+007, +1.03058290021E+002, +1.22137839498E+003
+3.69579298831E+007, +1.00114559540E+002, +1.23706440945E+003
+3.71247078464E+007, +1.07726291202E+002, +1.25717857201E+003
+3.72914858097E+007, +1.01152604080E+002, +1.27214306905E+003
+3.74582637730E+007, +1.11153649368E+002, +1.29243652821E+003
+3.76250417362E+007, +1.12670357174E+002, +1.30068418762E+003
+3.77918196995E+007, +1.12191201086E+002, +1.31740212339E+003
+3.79585976628E+007, +1.10645183808E+002, +1.32980105437E+003
+3.81253756260E+007, +1.17204756308E+002, +1.35034160673E+003
+3.82921535893E+007, +1.29247932594E+002, +1.36255434516E+003
+3.84589315526E+007, +1.31856389429E+002, +1.38985751986E+003
+3.86257095159E+007, +1.24747526604E+002, +1.40097287285E+003
+3.87924874791E+007, +1.27963541354E+002, +1.41167811775E+003
+3.89592654424E+007, +1.37650357313E+002, +1.43303624347E+003
+3.91260434057E+007, +1.39506767603E+002, +1.44767132921E+003
+3.92928213689E+007, +1.46672341257E+002, +1.47148738989E+003
+3.94595993322E+007, +1.44277606779E+002, +1.49703829029E+003
+3.96263772955E+007, +1.46522767032E+002, +1.51361104319E+003
+3.97931552588E+007, +1.36178773773E+002, +1.53077868025E+003
+3.99599332220E+007, +1.45842984920E+002, +1.55217801960E+003
+4.01267111853E+007, +1.62926668789E+002, +1.57464609430E+003
+4.02934891486E+007, +1.50634014481E+002, +1.58731062913E+003
+4.04602671119E+007, +1.61540739100E+002, +1.61417665057E+003
+4.06270450751E+007, +1.68841305273E+002, +1.63587853374E+003
+4.07938230384E+007, +1.76939952106E+002, +1.66175801374E+003
+4.09606010017E+007, +1.71230514052E+002, +1.68789165122E+003
+4.11273789649E+007, +1.85180040272E+002, +1.70335733433E+003
+4.12941569282E+007, +1.83307644039E+002, +1.73706003981E+003
+4.14609348915E+007, +1.89055004092E+002, +1.78051937192E+003
+4.16277128548E+007, +1.99175473564E+002, +1.78715771627E+003
+4.17944908180E+007, +2.09027245720E+002, +1.81439022434E+003
+4.19612687813E+007, +2.05922210081E+002, +1.85088500300E+003
+4.21280467446E+007, +2.11217385519E+002, +1.88464579241E+003
+4.22948247078E+007, +2.08472360044E+002, +1.91368781340E+003
+4.24616026711E+007, +2.37899101915E+002, +1.92366234759E+003
+4.26283806344E+007, +2.50477742928E+002, +1.97796827041E+003
+4.27951585977E+007, +2.19949672799E+002, +2.03098709392E+003
+4.29619365609E+007, +2.62867934600E+002, +2.03810649969E+003
+4.31287145242E+007, +2.71581395999E+002, +2.08608957087E+003
+4.32954924875E+007, +2.83987202251E+002, +2.09888042427E+003
+4.34622704508E+007, +2.84337207858E+002, +2.17447284855E+003
+4.36290484140E+007, +3.09978944169E+002, +2.17957751533E+003
+4.37958263773E+007, +2.85119017024E+002, +2.25147580846E+003
+4.39626043406E+007, +3.38249554057E+002, +2.28055523892E+003
+4.41293823038E+007, +3.45021181694E+002, +2.33580399260E+003
+4.42961602671E+007, +3.29282499737E+002, +2.34779927623E+003
+4.44629382304E+007, +3.50255695121E+002, +2.41451601569E+003
+4.46297161937E+007, +3.86793396116E+002, +2.45361540551E+003
+4.47964941569E+007, +3.72842956797E+002, +2.51430486750E+003
+4.49632721202E+007, +3.86522897892E+002, +2.55968771817E+003
+4.51300500835E+007, +4.08286384642E+002, +2.59430065368E+003
+4.52968280467E+007, +4.29390630734E+002, +2.66938013033E+003
+4.54636060100E+007, +4.77567057719E+002, +2.75180913809E+003
+4.56303839733E+007, +4.70334565904E+002, +2.82113476109E+003
+4.57971619366E+007, +4.73949210626E+002, +2.89840683534E+003
+4.59639398998E+007, +5.45898811614E+002, +3.00846756029E+003
+4.61307178631E+007, +5.72331602544E+002, +3.02317646354E+003
+4.62974958264E+007, +6.31830005201E+002, +3.13805526889E+003
+4.64642737896E+007, +5.94932168433E+002, +3.17875923860E+003
+4.66310517529E+007, +6.60854010606E+002, +3.27852872398E+003
+4.67978297162E+007, +7.68690980450E+002, +3.31619521346E+003
+4.69646076795E+007, +7.76379431939E+002, +3.45406871703E+003
+4.71313856427E+007, +8.45139590149E+002, +3.56979919241E+003
+4.72981636060E+007, +8.80725895446E+002, +3.69866689559E+003
+4.74649415693E+007, +9.51961627981E+002, +3.71739395518E+003
+4.76317195326E+007, +1.05243799079E+003, +3.79965330605E+003
+4.77984974958E+007, +1.12590429182E+003, +3.89482893373E+003
+4.79652754591E+007, +1.24221629365E+003, +4.00088295006E+003
+4.81320534224E+007, +1.36099098589E+003, +4.10158299020E+003
+4.82988313856E+007, +1.34540270024E+003, +4.30116734038E+003
+4.84656093489E+007, +1.51661527845E+003, +4.44206660543E+003
+4.86323873122E+007, +1.75190487851E+003, +4.40891793114E+003
+4.87991652755E+007, +1.77292880433E+003, +4.66694205174E+003
+4.89659432387E+007, +1.98715512989E+003, +4.69366953912E+003
+4.91327212020E+007, +2.20098345891E+003, +4.93017065099E+003
+4.92994991653E+007, +2.28456594535E+003, +4.89529320234E+003
+4.94662771285E+007, +2.61269363827E+003, +5.14101566053E+003
+4.96330550918E+007, +2.75423417165E+003, +5.27793474162E+003
+4.97998330551E+007, +3.03099565997E+003, +5.29737337938E+003
+4.99666110184E+007, +3.47452616271E+003, +5.38961140654E+003
+5.01333889816E+007, +3.63135648402E+003, +5.51268440444E+003
+5.03001669449E+007, +3.94239412640E+003, +5.76210671244E+003
+5.04669449082E+007, +4.40519029625E+003, +5.71316788132E+003
+5.06337228715E+007, +4.83211119732E+003, +5.67968630602E+003
+5.08005008347E+007, +5.06081541682E+003, +5.91051122410E+003
+5.09672787980E+007, +5.41092682837E+003, +5.59843612824E+003
+5.11340567613E+007, +5.99037544398E+003, +5.77466975532E+003
+5.13008347245E+007, +6.31621340938E+003, +5.81258562420E+003
+5.14676126878E+007, +6.96928676969E+003, +5.69615784197E+003
+5.16343906511E+007, +7.41194742393E+003, +5.14075561593E+003
+5.18011686144E+007, +7.99646271312E+003, +5.28948638481E+003
+5.19679465776E+007, +8.99817259990E+003, +5.16011833823E+003
+5.21347245409E+007, +9.74035558186E+003, +4.42840936748E+003
+5.23015025042E+007, +1.01384037100E+004, +3.17725103249E+003
+5.24682804674E+007, +1.14075712741E+004, +3.35241050649E+003
+5.26350584307E+007, +1.19505385056E+004, +2.77001460522E+003
+5.28018363940E+007, +1.29468831134E+004, +1.05615644991E+003
+5.29686143573E+007, +1.26284159696E+004, -5.11765381825E+002
+5.31353923205E+007, +1.30060258329E+004, -1.15124872946E+003
+5.33021702838E+007, +1.30626125932E+004, -3.09455961895E+003
+5.34689482471E+007, +1.19263349907E+004, -3.98711543410E+003
