"# Channel 1"
"# Trace 1"
Frequency, Formatted Data, Formatted Data
+1.00000000000E+005, +2.24725416133E-001, +1.82829534843E+000
+2.66777963272E+005, +2.55481938654E-001, +4.82917574042E+000
+4.33555926544E+005, +2.84401937078E-001, +7.82023854554E+000
+6.00333889816E+005, +3.29649052957E-001, +1.07671439060E+001
+7.67111853088E+005, +3.65251414756E-001, +1.37708514023E+001
+9.33889816361E+005, +3.91106094635E-001, +1.66833285338E+001
+1.10066777963E+006, +3.36388412361E-001, +1.96592358994E+001
+1.26744574290E+006, +4.29984104353E-001, +2.25932730202E+001
+1.43422370618E+006, +3.21974516273E-001, +2.56084785939E+001
+1.60100166945E+006, +4.45961524186E-001, +2.84968941271E+001
+1.76777963272E+006, +4.41907114733E-001, +3.14531415719E+001
+1.93455759599E+006, +4.51977209756E-001, +3.43343909831E+001
+2.10133555927E+006, +4.39689263019E-001, +3.73016722988E+001
+2.26811352254E+006, +5.03569428425E-001, +4.02782343918E+001
+2.43489148581E+006, +4.66022394949E-001, +4.32795260573E+001
+2.60166944908E+006, +5.19977174325E-001, +4.61831400960E+001
+2.76844741235E+006, +4.36924955559E-001, +4.91946442229E+001
+2.93522537563E+006, +4.29716396986E-001, +5.21090743896E+001
+3.10200333890E+006, +5.77483238585E-001, +5.50589085218E+001
+3.26878130217E+006, +3.94298392842E-001, +5.80751503620E+001
+3.43555926544E+006, +4.75233622886E-001, +6.09595196754E+001
+3.60233722871E+006, +5.35668868310E-001, +6.40156567831E+001
+3.76911519199E+006, +4.87194578733E-001, +6.71120222850E+001
+3.93589315526E+006, +5.66510763909E-001, +6.99462521536E+001
+4.10267111853E+006, +1.91160158239E-001, +7.25547202220E+001
+4.26944908180E+006, +3.56823868355E-001, +7.62104647364E+001
+4.43622704508E+006, +4.83738404852E-001, +7.90043602394E+001
+4.60300500835E+006, +5.28603299160E-001, +8.20926737107E+001
+4.76978297162E+006, +3.95566432952E-001, +8.48869758176E+001
+4.93656093489E+006, +6.17131133532E-001, +8.79707262518E+001
+5.10333889816E+006, +5.98241759685E-001, +9.09147593285E+001
+5.27011686144E+006, +7.29148521644E-001, +9.41305025978E+001
+5.43689482471E+006, +6.46412759658E-001, +9.70381101696E+001
+5.60367278798E+006, +6.46557867997E-001, +1.00260989841E+002
+5.77045075125E+006, +5.32814193955E-001, +1.03042951259E+002
+5.93722871452E+006, +7.40081836890E-001, +1.06179918921E+002
+6.10400667780E+006, +6.90043829428E-001, +1.09232322893E+002
+6.27078464107E+006, +8.60551679340E-001, +1.12173675115E+002
+6.43756260434E+006, +9.41913325848E-001, +1.15379806833E+002
+6.60434056761E+006, +9.33669430466E-001, +1.18270321192E+002
+6.77111853088E+006, +1.09526968957E+000, +1.21278665777E+002
+6.93789649416E+006, +9.69868524935E-001, +1.24455879594E+002
+7.10467445743E+006, +9.97451398602E-001, +1.27362827985E+002
+7.27145242070E+006, +1.05505914035E+000, +1.30381200250E+002
+7.43823038397E+006, +1.09428544111E+000, +1.33412368217E+002
+7.60500834725E+006, +1.03730309421E+000, +1.36402182740E+002
+7.77178631052E+006, +1.07755794498E+000, +1.39660757844E+002
+7.93856427379E+006, +1.00649350373E+000, +1.42516271574E+002
+8.10534223706E+006, +9.99880888524E-001, +1.45611023715E+002
+8.27212020033E+006, +9.79611201382E-001, +1.48852416080E+002
+8.43889816361E+006, +7.85657595228E-001, +1.51831857815E+002
+8.60567612688E+006, +6.38710353782E-001, +1.55112457661E+002
+8.77245409015E+006, +7.91173733834E-001, +1.57964322184E+002
+8.93923205342E+006, +7.00788150296E-001, +1.61260122315E+002
+9.10601001669E+006, +6.93177935845E-001, +1.64503979921E+002
+9.27278797997E+006, +6.79507969467E-001, +1.67667094214E+002
+9.43956594324E+006, +7.70612142185E-001, +1.70739028754E+002
+9.60634390651E+006, +5.70107714356E-001, +1.73972224725E+002
+9.77312186978E+006, +5.86642387933E-001, +1.77199049421E+002
+9.93989983306E+006, +7.37515040978E-001, +1.80400890358E+002
+1.01066777963E+007, +4.34457660563E-001, +1.83688810297E+002
+1.02734557596E+007, +4.48063535985E-001, +1.87021778517E+002
+1.04402337229E+007, +6.29159082237E-001, +1.89918509295E+002
+1.06070116861E+007, +4.40729071676E-001, +1.93284646586E+002
+1.07737896494E+007, +3.86949196160E-001, +1.96606295287E+002
+1.09405676127E+007, +6.42641450607E-001, +1.99817883699E+002
+1.11073455760E+007, +4.86846698980E-001, +2.03195617656E+002
+1.12741235392E+007, +3.33558909816E-001, +2.06317220937E+002
+1.14409015025E+007, +6.03433904645E-001, +2.09925106167E+002
+1.16076794658E+007, +5.04826191822E-001, +2.13150137360E+002
+1.17744574290E+007, +5.96642310521E-001, +2.16643806183E+002
+1.19412353923E+007, +3.98861453110E-001, +2.19866665316E+002
+1.21080133556E+007, +1.48776214789E-001, +2.23113495564E+002
+1.22747913189E+007, +4.22899006164E-001, +2.26804432192E+002
+1.24415692821E+007, +1.82880114821E-001, +2.29991250896E+002
+1.26083472454E+007, +3.56063500309E-001, +2.33428956895E+002
+1.27751252087E+007, +2.79390814759E-001, +2.36604425523E+002
+1.29419031720E+007, +6.20638395740E-002, +2.39835360290E+002
+1.31086811352E+007, +4.07471570706E-001, +2.43486902312E+002
+1.32754590985E+007, +4.83399838994E-001, +2.46820707239E+002
+1.34422370618E+007, +2.40409028278E-001, +2.50392675353E+002
+1.36090150250E+007, +7.45875492232E-001, +2.53592663896E+002
+1.37757929883E+007, +3.92933065394E-001, +2.57176450150E+002
+1.39425709516E+007, +6.60125079931E-001, +2.60662134344E+002
+1.41093489149E+007, +3.68376292813E-001, +2.64301090725E+002
+1.42761268781E+007, +8.54398450545E-001, +2.67775548115E+002
+1.44429048414E+007, +7.21190452987E-001, +2.70888722886E+002
+1.46096828047E+007, +6.06891477144E-001, +2.74899391361E+002
+1.47764607679E+007, +6.84961348127E-001, +2.78090928889E+002
+1.49432387312E+007, +6.23795340054E-001, +2.81609644926E+002
+1.51100166945E+007, +2.12174379053E-001, +2.85573204229E+002
+1.52767946578E+007, +6.07828513983E-001, +2.88913708196E+002
+1.54435726210E+007, +5.65257111438E-001, +2.92520106148E+002
+1.56103505843E+007, +8.42528835465E-001, +2.96163765056E+002
+1.57771285476E+007, +7.56883270853E-001, +2.99188077005E+002
+1.59439065109E+007, +6.43126151250E-001, +3.03516332265E+002
+1.61106844741E+007, +3.92856860823E-001, +3.07132069174E+002
+1.62774624374E+007, +7.19996296937E-001, +3.10941067104E+002
+1.64442404007E+007, +5.56615476805E-001, +3.14782366339E+002
+1.66110183639E+007, +7.73955524979E-001, +3.17835658212E+002
+1.67777963272E+007, +5.70680071405E-001, +3.22446704396E+002
+1.69445742905E+007, +8.38906064163E-001, +3.25783742873E+002
+1.71113522538E+007, -1.71870431425E-001, +3.29178619324E+002
+1.72781302170E+007, +2.40217125664E-001, +3.33757051165E+002
+1.74449081803E+007, +3.64253309791E-001, +3.37053141664E+002
+1.76116861436E+007, +6.53726925599E-001, +3.40786278780E+002
+1.77784641068E+007, +8.10595333889E-001, +3.44046454688E+002
+1.79452420701E+007, +7.27363838038E-001, +3.48817628746E+002
+1.81120200334E+007, +1.42928965634E+000, +3.52142252478E+002
+1.82787979967E+007, +7.80930078231E-001, +3.56180631892E+002
+1.84455759599E+007, +1.63600926963E+000, +3.60745227985E+002
+1.86123539232E+007, +1.66180082061E+000, +3.65044750367E+002
+1.87791318865E+007, +1.71256148416E+000, +3.68179425946E+002
+1.89459098497E+007, +1.21498903780E+000, +3.72693203629E+002
+1.91126878130E+007, +8.35013483858E-001, +3.76398645427E+002
+1.92794657763E+007, +1.15369487139E+000, +3.80076149306E+002
+1.94462437396E+007, +2.03499448268E+000, +3.84696470695E+002
+1.96130217028E+007, +1.86390297542E+000, +3.89089898850E+002
+1.97797996661E+007, +2.04810424348E+000, +3.92670634207E+002
+1.99465776294E+007, +1.55919305783E+000, +3.96488910775E+002
+2.01133555927E+007, +1.33364254320E+000, +4.01557863848E+002
+2.02801335559E+007, +1.54968683784E+000, +4.06081340866E+002
+2.04469115192E+007, +2.63323447716E+000, +4.09759083724E+002
+2.06136894825E+007, +2.61375245836E+000, +4.14033833463E+002
+2.07804674457E+007, +2.19945584402E+000, +4.18580589856E+002
+2.09472454090E+007, +1.76184795409E+000, +4.23514642320E+002
+2.11140233723E+007, +2.65319304324E+000, +4.27240475198E+002
+2.12808013356E+007, +3.00059298135E+000, +4.31265137164E+002
+2.14475792988E+007, +2.77529395948E+000, +4.35593139112E+002
+2.16143572621E+007, +2.86531938017E+000, +4.40044957515E+002
+2.17811352254E+007, +3.06697046719E+000, +4.43619178783E+002
+2.19479131886E+007, +3.39193337407E+000, +4.49110955531E+002
+2.21146911519E+007, +5.10704756628E+000, +4.52039937488E+002
+2.22814691152E+007, +3.09075665883E+000, +4.56943046569E+002
+2.24482470785E+007, +3.18362131592E+000, +4.61944437340E+002
+2.26150250417E+007, +4.63628820004E+000, +4.66468970228E+002
+2.27818030050E+007, +4.14012280499E+000, +4.71268721048E+002
+2.29485809683E+007, +6.21795417534E+000, +4.75148662589E+002
+2.31153589316E+007, +4.40636794034E+000, +4.81094926263E+002
+2.32821368948E+007, +6.39280644583E+000, +4.85779155160E+002
+2.34489148581E+007, +5.56153313297E+000, +4.89594922139E+002
+2.36156928214E+007, +6.07944933847E+000, +4.95107020785E+002
+2.37824707846E+007, +5.71088349212E+000, +5.00120955211E+002
+2.39492487479E+007, +5.60479258241E+000, +5.04102085041E+002
+2.41160267112E+007, +5.07166363672E+000, +5.09948383513E+002
+2.42828046745E+007, +6.63902948674E+000, +5.13657184524E+002
+2.44495826377E+007, +7.80675279071E+000, +5.19530539259E+002
+2.46163606010E+007, +6.39024267898E+000, +5.23132224638E+002
+2.47831385643E+007, +6.96279421520E+000, +5.28585280264E+002
+2.49499165275E+007, +7.99713290213E+000, +5.33616987955E+002
+2.51166944908E+007, +9.03360179331E+000, +5.38705314221E+002
+2.52834724541E+007, +8.74023488861E+000, +5.44179110230E+002
+2.54502504174E+007, +9.52296478952E+000, +5.48893706877E+002
+2.56170283806E+007, +7.44409699388E+000, +5.53983822344E+002
+2.57838063439E+007, +8.38829671075E+000, +5.59994005377E+002
+2.59505843072E+007, +9.80773347218E+000, +5.64980597884E+002
+2.61173622705E+007, +9.97375895769E+000, +5.70036467127E+002
+2.62841402337E+007, +1.06753286189E+001, +5.75018915898E+002
+2.64509181970E+007, +8.69057607558E+000, +5.80499172092E+002
+2.66176961603E+007, +1.25560176876E+001, +5.87735547926E+002
+2.67844741235E+007, +1.01384835061E+001, +5.91775995957E+002
+2.69512520868E+007, +1.12071514484E+001, +5.95899156836E+002
+2.71180300501E+007, +1.11688767868E+001, +6.01925867976E+002
+2.72848080134E+007, +1.16913505695E+001, +6.07869502973E+002
+2.74515859766E+007, +1.30208130115E+001, +6.13768484076E+002
+2.76183639399E+007, +1.27723679729E+001, +6.17546218305E+002
+2.77851419032E+007, +1.20160705314E+001, +6.22015966328E+002
+2.79519198664E+007, +1.20562368967E+001, +6.29497495438E+002
+2.81186978297E+007, +1.37274677888E+001, +6.32995139659E+002
+2.82854757930E+007, +1.47997476036E+001, +6.38219938700E+002
+2.84522537563E+007, +1.08837942563E+001, +6.45545044838E+002
+2.86190317195E+007, +1.42685608081E+001, +6.51424691389E+002
+2.87858096828E+007, +1.68462292673E+001, +6.57588188017E+002
+2.89525876461E+007, +1.61310893632E+001, +6.63550486383E+002
+2.91193656093E+007, +1.27279090642E+001, +6.68293315228E+002
+2.92861435726E+007, +1.22264508657E+001, +6.74307685903E+002
+2.94529215359E+007, +1.42497265630E+001, +6.81690673243E+002
+2.96196994992E+007, +1.22350955877E+001, +6.87122933888E+002
+2.97864774624E+007, +1.71708612398E+001, +6.95126200789E+002
+2.99532554257E+007, +1.75537958794E+001, +6.99508261345E+002
+3.01200333890E+007, +1.34078321162E+001, +7.06731067853E+002
+3.02868113523E+007, +1.54753740299E+001, +7.13544287693E+002
+3.04535893155E+007, +1.25258727747E+001, +7.20111112512E+002
+3.06203672788E+007, +1.52189454431E+001, +7.26996236597E+002
+3.07871452421E+007, +1.32785141732E+001, +7.33153400573E+002
+3.09539232053E+007, +1.50199198066E+001, +7.40402619944E+002
+3.11207011686E+007, +1.32835117513E+001, +7.49747126453E+002
+3.12874791319E+007, +1.31788397893E+001, +7.54031039240E+002
+3.14542570952E+007, +1.47184874212E+001, +7.61607389454E+002
+3.16210350584E+007, +1.14808531783E+001, +7.70381330656E+002
+3.17878130217E+007, +1.30832362368E+001, +7.75812443584E+002
+3.19545909850E+007, +1.50285974919E+001, +7.84341106069E+002
+3.21213689482E+007, +1.02943180024E+001, +7.91009361629E+002
+3.22881469115E+007, +1.32673263016E+001, +7.99345399060E+002
+3.24549248748E+007, +1.36735234327E+001, +8.07269670665E+002
+3.26217028381E+007, +1.40521652632E+001, +8.16322204871E+002
+3.27884808013E+007, +1.60122509239E+001, +8.23457736410E+002
+3.29552587646E+007, +1.40476966720E+001, +8.31677936221E+002
+3.31220367279E+007, +1.68997448576E+001, +8.37125817905E+002
+3.32888146912E+007, +1.33318516544E+001, +8.48436728736E+002
+3.34555926544E+007, +9.34732741122E+000, +8.55404146144E+002
+3.36223706177E+007, +1.46324768234E+001, +8.63891052158E+002
+3.37891485810E+007, +1.29229573044E+001, +8.71525625243E+002
+3.39559265442E+007, +1.65462202958E+001, +8.82775829036E+002
+3.41227045075E+007, +1.24066362624E+001, +8.92186890138E+002
+3.42894824708E+007, +1.46159568966E+001, +9.00704099521E+002
+3.44562604341E+007, +1.48029180951E+001, +9.09397071162E+002
+3.46230383973E+007, +1.83878980446E+001, +9.21211507914E+002
+3.47898163606E+007, +1.69995817709E+001, +9.26127131044E+002
+3.49565943239E+007, +2.03139820951E+001, +9.36379469583E+002
+3.51233722871E+007, +1.74494306753E+001, +9.47080775972E+002
+3.52901502504E+007, +2.17938172159E+001, +9.51382301881E+002
+3.54569282137E+007, +1.93270857385E+001, +9.64406335854E+002
+3.56237061770E+007, +1.66127800799E+001, +9.78933529801E+002
+3.57904841402E+007, +1.75294267250E+001, +9.90499902780E+002
+3.59572621035E+007, +1.64328433170E+001, +9.99125749085E+002
+3.61240400668E+007, +1.73113034694E+001, +1.00771261915E+003
+3.62908180301E+007, +1.79915501389E+001, +1.02094131108E+003
+3.64575959933E+007, +1.47930429732E+001, +1.02934398566E+003
+3.66243739566E+007, +2.19802812206E+001, +1.04082910985E+003
+3.67911519199E+007, +1.75966367584E+001, +1.05593524777E+003
+3.69579298831E+007, +1.90828231880E+001, +1.06090572171E+003
+3.71247078464E+007, +1.67338171603E+001, +1.08050752970E+003
+3.72914858097E+007, +1.78775644575E+001, +1.08959114538E+003
+3.74582637730E+007, +3.05120197075E+001, +1.10889927863E+003
+3.76250417362E+007, +2.07124462977E+001, +1.11316901222E+003
+3.77918196995E+007, +2.05226778965E+001, +1.12883969070E+003
+3.79585976628E+007, +1.89012782916E+001, +1.14190528829E+003
+3.81253756260E+007, +2.64548007989E+001, +1.15815690236E+003
+3.82921535893E+007, +3.28426437707E+001, +1.16911013508E+003
+3.84589315526E+007, +2.95814469171E+001, +1.18407821953E+003
+3.86257095159E+007, +2.59835398560E+001, +1.19726256728E+003
+3.87924874791E+007, +2.55301792542E+001, +1.21694483480E+003
+3.89592654424E+007, +2.66913646957E+001, +1.22632144170E+003
+3.91260434057E+007, +2.67623016759E+001, +1.24726463809E+003
+3.92928213689E+007, +2.57328728180E+001, +1.25655224437E+003
+3.94595993322E+007, +2.59979050275E+001, +1.27555567738E+003
+3.96263772955E+007, +2.85195414324E+001, +1.29134145665E+003
+3.97931552588E+007, +2.95946074717E+001, +1.30361794904E+003
+3.99599332220E+007, +3.12868016052E+001, +1.32253465658E+003
+4.01267111853E+007, +3.50708978941E+001, +1.34429713463E+003
+4.02934891486E+007, +2.72809113868E+001, +1.35361106967E+003
+4.04602671119E+007, +3.77502948010E+001, +1.36977675273E+003
+4.06270450751E+007, +3.36662368137E+001, +1.39379029700E+003
+4.07938230384E+007, +4.21053584654E+001, +1.41409384161E+003
+4.09606010017E+007, +3.54401421932E+001, +1.42682613669E+003
+4.11273789649E+007, +3.95850949275E+001, +1.44857341896E+003
+4.12941569282E+007, +5.04045793508E+001, +1.47263498007E+003
+4.14609348915E+007, +4.57025455499E+001, +1.49775477601E+003
+4.16277128548E+007, +4.83112529352E+001, +1.51269545990E+003
+4.17944908180E+007, +4.57265634098E+001, +1.52454187509E+003
+4.19612687813E+007, +5.32820941723E+001, +1.54482306691E+003
+4.21280467446E+007, +4.84826785780E+001, +1.57841824628E+003
+4.22948247078E+007, +4.55674344475E+001, +1.60719579920E+003
+4.24616026711E+007, +5.96851904701E+001, +1.61896896889E+003
+4.26283806344E+007, +5.54815484482E+001, +1.64764229109E+003
+4.27951585977E+007, +5.49016365871E+001, +1.68494564354E+003
+4.29619365609E+007, +7.80620797816E+001, +1.69947286955E+003
+4.31287145242E+007, +8.07079796966E+001, +1.73916432601E+003
+4.32954924875E+007, +7.82012513096E+001, +1.75740863712E+003
+4.34622704508E+007, +6.65541853354E+001, +1.79805239699E+003
+4.36290484140E+007, +8.50776983539E+001, +1.82171793329E+003
+4.37958263773E+007, +7.42937028421E+001, +1.83871430666E+003
+4.39626043406E+007, +9.16927597305E+001, +1.87834206671E+003
+4.41293823038E+007, +9.05475974241E+001, +1.91931939138E+003
+4.42961602671E+007, +8.09428141571E+001, +1.94967447294E+003
+4.44629382304E+007, +8.69196695347E+001, +1.97972057677E+003
+4.46297161937E+007, +9.31377959988E+001, +2.01309817923E+003
+4.47964941569E+007, +9.74442000180E+001, +2.06782190870E+003
+4.49632721202E+007, +8.61478529121E+001, +2.09545403485E+003
+4.51300500835E+007, +1.11411121197E+002, +2.11145826748E+003
+4.52968280467E+007, +1.35520260681E+002, +2.17785562693E+003
+4.54636060100E+007, +1.26218288242E+002, +2.23847925587E+003
+4.56303839733E+007, +1.38016146640E+002, +2.29436253347E+003
+4.57971619366E+007, +1.22902262046E+002, +2.33961296315E+003
+4.59639398998E+007, +1.35154420584E+002, +2.41987892267E+003
+4.61307178631E+007, +1.65641044485E+002, +2.44700027138E+003
+4.62974958264E+007, +1.84458458189E+002, +2.51847338951E+003
+4.64642737896E+007, +1.63906709436E+002, +2.53125352925E+003
+4.66310517529E+007, +1.80647632537E+002, +2.63412643669E+003
+4.67978297162E+007, +2.20070621180E+002, +2.67123520828E+003
+4.69646076795E+007, +1.97097085163E+002, +2.77861730835E+003
+4.71313856427E+007, +2.45673588818E+002, +2.80861637208E+003
+4.72981636060E+007, +2.34096157821E+002, +2.89855254587E+003
+4.74649415693E+007, +2.49989179989E+002, +2.97084570279E+003
+4.76317195326E+007, +3.17754416157E+002, +3.02453178658E+003
+4.77984974958E+007, +3.23647702852E+002, +3.12759739713E+003
+4.79652754591E+007, +3.65526398241E+002, +3.21565888433E+003
+4.81320534224E+007, +4.03471345725E+002, +3.30393681685E+003
+4.82988313856E+007, +4.17473333170E+002, +3.38336080098E+003
+4.84656093489E+007, +5.20713111766E+002, +3.52465026233E+003
+4.86323873122E+007, +5.65858392098E+002, +3.56586463138E+003
+4.87991652755E+007, +5.46668100288E+002, +3.72311371157E+003
+4.89659432387E+007, +6.45349618387E+002, +3.86897954347E+003
+4.91327212020E+007, +6.77297163834E+002, +3.98683261340E+003
+4.92994991653E+007, +8.03268128289E+002, +4.05063550764E+003
+4.94662771285E+007, +9.22515345866E+002, +4.20648270469E+003
+4.96330550918E+007, +9.50923089577E+002, +4.42083668106E+003
+4.97998330551E+007, +1.09928642533E+003, +4.52170490684E+003
+4.99666110184E+007, +1.25809428737E+003, +4.70720669383E+003
+5.01333889816E+007, +1.27319521952E+003, +4.82696933198E+003
+5.03001669449E+007, +1.41423949441E+003, +4.94284746032E+003
+5.04669449082E+007, +1.52320597713E+003, +5.20448350098E+003
+5.06337228715E+007, +1.74427171214E+003, +5.34306764308E+003
+5.08005008347E+007, +1.74331117895E+003, +5.62455888161E+003
+5.09672787980E+007, +2.13638144574E+003, +5.85925015709E+003
+5.11340567613E+007, +2.37773291034E+003, +6.20969761553E+003
+5.13008347245E+007, +2.40921650224E+003, +6.66555429775E+003
+5.14676126878E+007, +2.92655792916E+003, +6.74754111410E+003
+5.16343906511E+007, +3.35496948163E+003, +7.07655356072E+003
+5.18011686144E+007, +4.02794615608E+003, +7.38417520652E+003
+5.19679465776E+007, +4.45222411136E+003, +7.74932193284E+003
+5.21347245409E+007, +5.80104382030E+003, +7.88579901052E+003
+5.23015025042E+007, +6.75077927637E+003, +8.28845346301E+003
+5.24682804674E+007, +7.87366856110E+003, +8.93278388734E+003
+5.26350584307E+007, +8.85664124136E+003, +8.35695069980E+003
+5.28018363940E+007, +1.13404033925E+004, +8.33383756779E+003
+5.29686143573E+007, +1.27656148674E+004, +7.49603403537E+003
+5.31353923205E+007, +1.30812613606E+004, +6.50251442580E+003
+5.33021702838E+007, +1.50180984291E+004, +4.27118272036E+003
+5.34689482471E+007, +1.53126089439E+004, +1.59110283473E+003
