"# Channel 1"
"# Trace 1"
Frequency, Formatted Data, Formatted Data
+1.00000000000E+005, +8.89173404349E+000, +1.88271151298E+000
+2.66777963272E+005, +8.88509628997E+000, +5.04504551134E+000
+4.33555926544E+005, +8.87679930252E+000, +8.22230657468E+000
+6.00333889816E+005, +8.90525512038E+000, +1.13467300984E+001
+7.67111853088E+005, +8.92702352090E+000, +1.45132563263E+001
+9.33889816361E+005, +8.92826548278E+000, +1.76365069027E+001
+1.10066777963E+006, +8.88832267365E+000, +2.08293537530E+001
+1.26744574290E+006, +8.92517906333E+000, +2.39523863567E+001
+1.43422370618E+006, +8.88984550340E+000, +2.71750384833E+001
+1.60100166945E+006, +8.95690909612E+000, +3.02200078118E+001
+1.76777963272E+006, +8.93901227859E+000, +3.34078598548E+001
+1.93455759599E+006, +8.94663681523E+000, +3.64884824647E+001
+2.10133555927E+006, +8.97916399862E+000, +3.96452157962E+001
+2.26811352254E+006, +8.99397343133E+000, +4.27904879066E+001
+2.43489148581E+006, +8.98290289269E+000, +4.60174331759E+001
+2.60166944908E+006, +8.99977720419E+000, +4.91102094898E+001
+2.76844741235E+006, +8.97355115445E+000, +5.23372629729E+001
+2.93522537563E+006, +8.95944844985E+000, +5.53891589264E+001
+3.10200333890E+006, +9.08949020842E+000, +5.84610944505E+001
+3.26878130217E+006, +8.97027572631E+000, +6.18283665013E+001
+3.43555926544E+006, +9.09460873932E+000, +6.49478466939E+001
+3.60233722871E+006, +9.15255978171E+000, +6.81228924725E+001
+3.76911519199E+006, +9.13691244215E+000, +7.13754899373E+001
+3.93589315526E+006, +9.20287624177E+000, +7.44057917013E+001
+4.10267111853E+006, +8.77547281182E+000, +7.73600839715E+001
+4.26944908180E+006, +8.97506768640E+000, +8.11894213162E+001
+4.43622704508E+006, +9.17623089968E+000, +8.40433359835E+001
+4.60300500835E+006, +9.23800322435E+000, +8.73811826983E+001
+4.76978297162E+006, +9.17013629979E+000, +9.04126165791E+001
+4.93656093489E+006, +9.36399072121E+000, +9.37078208848E+001
+5.10333889816E+006, +9.38561482941E+000, +9.68414344929E+001
+5.27011686144E+006, +9.64611199058E+000, +1.00216087643E+002
+5.43689482471E+006, +9.44294417496E+000, +1.03432335206E+002
+5.60367278798E+006, +9.48863071167E+000, +1.06727838123E+002
+5.77045075125E+006, +9.51220162832E+000, +1.09790932915E+002
+5.93722871452E+006, +9.82517636945E+000, +1.13156072122E+002
+6.10400667780E+006, +9.73517083935E+000, +1.16391588222E+002
+6.27078464107E+006, +9.92543531294E+000, +1.19483749117E+002
+6.43756260434E+006, +9.94064809801E+000, +1.22789392857E+002
+6.60434056761E+006, +1.00020078208E+001, +1.25971249549E+002
+6.77111853088E+006, +1.01552588609E+001, +1.29177639885E+002
+6.93789649416E+006, +1.02208970211E+001, +1.32529519334E+002
+7.10467445743E+006, +1.01720955808E+001, +1.35725957937E+002
+7.27145242070E+006, +1.03610030395E+001, +1.38891181146E+002
+7.43823038397E+006, +1.03876980386E+001, +1.42175096986E+002
+7.60500834725E+006, +1.03786953088E+001, +1.45329844770E+002
+7.77178631052E+006, +1.04120602975E+001, +1.48759068016E+002
+7.93856427379E+006, +1.03480413734E+001, +1.51897417877E+002
+8.10534223706E+006, +1.04961562572E+001, +1.55141141378E+002
+8.27212020033E+006, +1.05413250440E+001, +1.58543227635E+002
+8.43889816361E+006, +1.04458489558E+001, +1.62012467653E+002
+8.60567612688E+006, +1.03767816158E+001, +1.65170112618E+002
+8.77245409015E+006, +1.03558889652E+001, +1.68582111945E+002
+8.93923205342E+006, +1.04762122022E+001, +1.71995470847E+002
+9.10601001669E+006, +1.04688857852E+001, +1.75395170314E+002
+9.27278797997E+006, +1.04945985757E+001, +1.78634623066E+002
+9.43956594324E+006, +1.04659354599E+001, +1.81967031932E+002
+9.60634390651E+006, +1.03839677512E+001, +1.85448003473E+002
+9.77312186978E+006, +1.03667203782E+001, +1.88809669337E+002
+9.93989983306E+006, +1.08342061177E+001, +1.92431215376E+002
+1.01066777963E+007, +1.06398340251E+001, +1.95671831225E+002
+1.02734557596E+007, +1.06333783795E+001, +1.99136408821E+002
+1.04402337229E+007, +1.04915352410E+001, +2.02714106577E+002
+1.06070116861E+007, +1.05431970460E+001, +2.06145725621E+002
+1.07737896494E+007, +1.06519687359E+001, +2.09665763735E+002
+1.09405676127E+007, +1.11035564613E+001, +2.13195372924E+002
+1.11073455760E+007, +1.08198496559E+001, +2.16511678093E+002
+1.12741235392E+007, +1.08275573558E+001, +2.20084259706E+002
+1.14409015025E+007, +1.11077115899E+001, +2.23687578552E+002
+1.16076794658E+007, +1.12323474780E+001, +2.27104841301E+002
+1.17744574290E+007, +1.12604417867E+001, +2.30999114419E+002
+1.19412353923E+007, +1.10856471635E+001, +2.34397908082E+002
+1.21080133556E+007, +1.09742229698E+001, +2.38012189877E+002
+1.22747913189E+007, +1.13233150970E+001, +2.41826973373E+002
+1.24415692821E+007, +1.11539876495E+001, +2.45065884496E+002
+1.26083472454E+007, +1.11280847670E+001, +2.48820854419E+002
+1.27751252087E+007, +1.13103365818E+001, +2.52375356125E+002
+1.29419031720E+007, +1.12300518001E+001, +2.56020092263E+002
+1.31086811352E+007, +1.14125284845E+001, +2.59551617704E+002
+1.32754590985E+007, +1.14913748503E+001, +2.63536131361E+002
+1.34422370618E+007, +1.14771502915E+001, +2.67205460275E+002
+1.36090150250E+007, +1.21330573320E+001, +2.70486592035E+002
+1.37757929883E+007, +1.17125792090E+001, +2.74527834781E+002
+1.39425709516E+007, +1.19284949143E+001, +2.78204224653E+002
+1.41093489149E+007, +1.18555547400E+001, +2.81913538924E+002
+1.42761268781E+007, +1.20610129499E+001, +2.85930532757E+002
+1.44429048414E+007, +1.22747969679E+001, +2.89543222507E+002
+1.46096828047E+007, +1.18624065642E+001, +2.93384293396E+002
+1.47764607679E+007, +1.25826374679E+001, +2.96747409816E+002
+1.49432387312E+007, +1.23304552832E+001, +3.00595661127E+002
+1.51100166945E+007, +1.27670798288E+001, +3.04805706590E+002
+1.52767946578E+007, +1.26569566585E+001, +3.08392341123E+002
+1.54435726210E+007, +1.32475241044E+001, +3.12314290098E+002
+1.56103505843E+007, +1.30497879566E+001, +3.16711439011E+002
+1.57771285476E+007, +1.26206460092E+001, +3.19958227317E+002
+1.59439065109E+007, +1.30170579142E+001, +3.23991473340E+002
+1.61106844741E+007, +1.30817424973E+001, +3.28192753519E+002
+1.62774624374E+007, +1.33544605432E+001, +3.31807060544E+002
+1.64442404007E+007, +1.30351674552E+001, +3.36175910085E+002
+1.66110183639E+007, +1.36714264267E+001, +3.39644959438E+002
+1.67777963272E+007, +1.35507857141E+001, +3.44465818901E+002
+1.69445742905E+007, +1.41521191314E+001, +3.47932981255E+002
+1.71113522538E+007, +1.23528488707E+001, +3.51940647563E+002
+1.72781302170E+007, +1.32654789965E+001, +3.56442529148E+002
+1.74449081803E+007, +1.27970189024E+001, +3.60235249468E+002
+1.76116861436E+007, +1.39901284973E+001, +3.65136129626E+002
+1.77784641068E+007, +1.37038467711E+001, +3.67856902011E+002
+1.79452420701E+007, +1.41691195673E+001, +3.72878456297E+002
+1.81120200334E+007, +1.46958717691E+001, +3.76650187419E+002
+1.82787979967E+007, +1.47409030016E+001, +3.81222096288E+002
+1.84455759599E+007, +1.51536407349E+001, +3.85203357545E+002
+1.86123539232E+007, +1.50029731869E+001, +3.89086972663E+002
+1.87791318865E+007, +1.45242930377E+001, +3.93714137685E+002
+1.89459098497E+007, +1.52508243624E+001, +3.98732654177E+002
+1.91126878130E+007, +1.50766867574E+001, +4.03075547565E+002
+1.92794657763E+007, +1.57776381437E+001, +4.07677713511E+002
+1.94462437396E+007, +1.57652281702E+001, +4.12714148767E+002
+1.96130217028E+007, +1.55570176423E+001, +4.16675966093E+002
+1.97797996661E+007, +1.59165014660E+001, +4.21241593520E+002
+1.99465776294E+007, +1.48681498472E+001, +4.24802446607E+002
+2.01133555927E+007, +1.58354866850E+001, +4.30344858818E+002
+2.02801335559E+007, +1.65266781305E+001, +4.35749792785E+002
+2.04469115192E+007, +1.73542807439E+001, +4.39539981657E+002
+2.06136894825E+007, +1.71330765403E+001, +4.44425074591E+002
+2.07804674457E+007, +1.62604899526E+001, +4.49675658836E+002
+2.09472454090E+007, +1.72051683064E+001, +4.54665370468E+002
+2.11140233723E+007, +1.81174420521E+001, +4.58336674906E+002
+2.12808013356E+007, +1.73759569992E+001, +4.62308055673E+002
+2.14475792988E+007, +1.81856510386E+001, +4.68377808551E+002
+2.16143572621E+007, +1.83984587351E+001, +4.72867939314E+002
+2.17811352254E+007, +1.80167868331E+001, +4.77778194546E+002
+2.19479131886E+007, +1.86410530862E+001, +4.82608092399E+002
+2.21146911519E+007, +2.00688424467E+001, +4.86621808712E+002
+2.22814691152E+007, +1.96654360682E+001, +4.92636396710E+002
+2.24482470785E+007, +2.05287771392E+001, +4.98765683889E+002
+2.26150250417E+007, +2.12793944869E+001, +5.02446616928E+002
+2.27818030050E+007, +2.04181116007E+001, +5.08748116325E+002
+2.29485809683E+007, +2.28316460155E+001, +5.11874962153E+002
+2.31153589316E+007, +2.11959329522E+001, +5.19011473687E+002
+2.32821368948E+007, +2.27594456881E+001, +5.23120010090E+002
+2.34489148581E+007, +2.37132613418E+001, +5.27426252456E+002
+2.36156928214E+007, +2.37475529026E+001, +5.33718425505E+002
+2.37824707846E+007, +2.51016786502E+001, +5.38390736158E+002
+2.39492487479E+007, +2.60317371493E+001, +5.42670516062E+002
+2.41160267112E+007, +2.62243548587E+001, +5.49598674820E+002
+2.42828046745E+007, +2.61436313457E+001, +5.54389212054E+002
+2.44495826377E+007, +2.70267871270E+001, +5.60579069664E+002
+2.46163606010E+007, +2.65620091344E+001, +5.64764452204E+002
+2.47831385643E+007, +2.78117526649E+001, +5.72530462499E+002
+2.49499165275E+007, +3.07690680554E+001, +5.76263430798E+002
+2.51166944908E+007, +2.95044467710E+001, +5.81128149112E+002
+2.52834724541E+007, +3.18762189431E+001, +5.86745108434E+002
+2.54502504174E+007, +3.02535523569E+001, +5.92590313981E+002
+2.56170283806E+007, +3.10786649923E+001, +5.97306369778E+002
+2.57838063439E+007, +3.14395863352E+001, +6.03024089307E+002
+2.59505843072E+007, +3.24201806486E+001, +6.11348890285E+002
+2.61173622705E+007, +3.21582120382E+001, +6.15135069029E+002
+2.62841402337E+007, +3.30147784726E+001, +6.19412418876E+002
+2.64509181970E+007, +3.29590911558E+001, +6.27531672168E+002
+2.66176961603E+007, +3.33610497361E+001, +6.34932544800E+002
+2.67844741235E+007, +3.41176145191E+001, +6.37406994274E+002
+2.69512520868E+007, +3.35107941901E+001, +6.45670172997E+002
+2.71180300501E+007, +3.55333164309E+001, +6.47466039104E+002
+2.72848080134E+007, +3.52989245283E+001, +6.57159882538E+002
+2.74515859766E+007, +3.52250436245E+001, +6.61379843373E+002
+2.76183639399E+007, +3.42865071862E+001, +6.67409146822E+002
+2.77851419032E+007, +3.63462605070E+001, +6.74265852040E+002
+2.79519198664E+007, +3.92248058252E+001, +6.82045788018E+002
+2.81186978297E+007, +3.79481201407E+001, +6.86793525798E+002
+2.82854757930E+007, +3.86113456894E+001, +6.92222579113E+002
+2.84522537563E+007, +3.57560430957E+001, +7.01335539188E+002
+2.86190317195E+007, +3.68367850236E+001, +7.06956505514E+002
+2.87858096828E+007, +4.13961782644E+001, +7.15357812408E+002
+2.89525876461E+007, +4.02866463370E+001, +7.20981139014E+002
+2.91193656093E+007, +4.02768326519E+001, +7.25114571048E+002
+2.92861435726E+007, +3.83134366494E+001, +7.34694962285E+002
+2.94529215359E+007, +4.19218120235E+001, +7.42998141989E+002
+2.96196994992E+007, +4.21583636372E+001, +7.48583861650E+002
+2.97864774624E+007, +4.56619526983E+001, +7.56071407061E+002
+2.99532554257E+007, +4.47932066219E+001, +7.63942626975E+002
+3.01200333890E+007, +4.34992272905E+001, +7.72397786142E+002
+3.02868113523E+007, +4.34232085515E+001, +7.79818366364E+002
+3.04535893155E+007, +4.20805436395E+001, +7.89644553062E+002
+3.06203672788E+007, +4.55357441303E+001, +7.93937077366E+002
+3.07871452421E+007, +4.48183261931E+001, +8.02680909997E+002
+3.09539232053E+007, +4.54381366046E+001, +8.08699651685E+002
+3.11207011686E+007, +4.68183538976E+001, +8.19020914345E+002
+3.12874791319E+007, +4.83692898754E+001, +8.23662549445E+002
+3.14542570952E+007, +4.76848557055E+001, +8.32600346768E+002
+3.16210350584E+007, +4.88061122871E+001, +8.41905522791E+002
+3.17878130217E+007, +4.80247720344E+001, +8.50728621690E+002
+3.19545909850E+007, +5.15524959273E+001, +8.59518369297E+002
+3.21213689482E+007, +4.48840554214E+001, +8.68036623848E+002
+3.22881469115E+007, +4.82617864379E+001, +8.75029132379E+002
+3.24549248748E+007, +4.82418603912E+001, +8.85320303807E+002
+3.26217028381E+007, +4.79071496447E+001, +8.95630026761E+002
+3.27884808013E+007, +4.99221295371E+001, +9.02376021326E+002
+3.29552587646E+007, +5.50024222090E+001, +9.11786901865E+002
+3.31220367279E+007, +5.61456312068E+001, +9.20551080650E+002
+3.32888146912E+007, +5.10096301440E+001, +9.32510201316E+002
+3.34555926544E+007, +5.05476071665E+001, +9.40348960543E+002
+3.36223706177E+007, +5.37216745405E+001, +9.48513279578E+002
+3.37891485810E+007, +5.70682648804E+001, +9.56003677693E+002
+3.39559265442E+007, +5.70437543294E+001, +9.73922265598E+002
+3.41227045075E+007, +5.46799266470E+001, +9.79826289311E+002
+3.42894824708E+007, +6.00878813683E+001, +9.93726193155E+002
+3.44562604341E+007, +5.35629829312E+001, +1.00666552538E+003
+3.46230383973E+007, +5.78686128742E+001, +1.01569513113E+003
+3.47898163606E+007, +5.81919837405E+001, +1.02087791331E+003
+3.49565943239E+007, +6.53003364469E+001, +1.03649415998E+003
+3.51233722871E+007, +6.10710016193E+001, +1.05098735891E+003
+3.52901502504E+007, +6.36080554007E+001, +1.05364867978E+003
+3.54569282137E+007, +6.61735101949E+001, +1.07166317227E+003
+3.56237061770E+007, +6.27960097147E+001, +1.08637695219E+003
+3.57904841402E+007, +6.28058290654E+001, +1.09845959543E+003
+3.59572621035E+007, +6.78151312401E+001, +1.11120521466E+003
+3.61240400668E+007, +6.95414389782E+001, +1.12159819576E+003
+3.62908180301E+007, +7.04675023578E+001, +1.14145572814E+003
+3.64575959933E+007, +6.73324384141E+001, +1.15123307573E+003
+3.66243739566E+007, +7.08519323788E+001, +1.16413781536E+003
+3.67911519199E+007, +7.32720134017E+001, +1.18044188213E+003
+3.69579298831E+007, +6.52022587079E+001, +1.18796918983E+003
+3.71247078464E+007, +7.75205642541E+001, +1.20637449628E+003
+3.72914858097E+007, +7.20367559345E+001, +1.22886225484E+003
+3.74582637730E+007, +8.16714849277E+001, +1.24299575596E+003
+3.76250417362E+007, +8.29999441963E+001, +1.25141909973E+003
+3.77918196995E+007, +7.93782299872E+001, +1.26579343319E+003
+3.79585976628E+007, +7.89858906416E+001, +1.28914754367E+003
+3.81253756260E+007, +8.18365665428E+001, +1.30498429800E+003
+3.82921535893E+007, +9.04249661592E+001, +1.31837739304E+003
+3.84589315526E+007, +9.17983335872E+001, +1.33793099229E+003
+3.86257095159E+007, +9.35605032173E+001, +1.35616948132E+003
+3.87924874791E+007, +9.16097665435E+001, +1.37891322951E+003
+3.89592654424E+007, +9.77405405875E+001, +1.39032018196E+003
+3.91260434057E+007, +1.01839739745E+002, +1.42230701957E+003
+3.92928213689E+007, +1.09997298621E+002, +1.43329234852E+003
+3.94595993322E+007, +1.11255648960E+002, +1.45355583277E+003
+3.96263772955E+007, +1.06931535781E+002, +1.47493826618E+003
+3.97931552588E+007, +1.18746928902E+002, +1.49454770352E+003
+3.99599332220E+007, +1.26348937750E+002, +1.51443363808E+003
+4.01267111853E+007, +1.26848624589E+002, +1.54067556231E+003
+4.02934891486E+007, +1.27697913206E+002, +1.55340986933E+003
+4.04602671119E+007, +1.28134187259E+002, +1.58453458044E+003
+4.06270450751E+007, +1.33941985858E+002, +1.60738547405E+003
+4.07938230384E+007, +1.46283676197E+002, +1.63057250233E+003
+4.09606010017E+007, +1.59042313652E+002, +1.65665599158E+003
+4.11273789649E+007, +1.54231235239E+002, +1.68356811729E+003
+4.12941569282E+007, +1.52727561450E+002, +1.70610581650E+003
+4.14609348915E+007, +1.75565601753E+002, +1.74702336405E+003
+4.16277128548E+007, +1.73042656553E+002, +1.77246249959E+003
+4.17944908180E+007, +1.73695908948E+002, +1.79181418947E+003
+4.19612687813E+007, +1.71177383818E+002, +1.81882369531E+003
+4.21280467446E+007, +1.94633994745E+002, +1.85702368137E+003
+4.22948247078E+007, +2.04347886876E+002, +1.89792331962E+003
+4.24616026711E+007, +2.07399667483E+002, +1.91431018551E+003
+4.26283806344E+007, +2.20060873412E+002, +1.96973241503E+003
+4.27951585977E+007, +2.07753666387E+002, +2.00783698363E+003
+4.29619365609E+007, +2.50714040597E+002, +2.03097700440E+003
+4.31287145242E+007, +2.59863802803E+002, +2.06214348825E+003
+4.32954924875E+007, +2.57102601267E+002, +2.11200740173E+003
+4.34622704508E+007, +2.59668306269E+002, +2.15331938738E+003
+4.36290484140E+007, +2.94240878820E+002, +2.18126609969E+003
+4.37958263773E+007, +2.91111434233E+002, +2.26376331937E+003
+4.39626043406E+007, +3.29114413946E+002, +2.27951051092E+003
+4.41293823038E+007, +3.52510776283E+002, +2.33573143777E+003
+4.42961602671E+007, +3.36585911329E+002, +2.38247214527E+003
+4.44629382304E+007, +3.57171709173E+002, +2.43166674929E+003
+4.46297161937E+007, +3.91094524367E+002, +2.45012312315E+003
+4.47964941569E+007, +3.93366010681E+002, +2.56595928387E+003
+4.49632721202E+007, +4.39628010088E+002, +2.62547832933E+003
+4.51300500835E+007, +4.50271113463E+002, +2.64548197800E+003
+4.52968280467E+007, +4.94574884185E+002, +2.71104519152E+003
+4.54636060100E+007, +5.66506048447E+002, +2.83103261968E+003
+4.56303839733E+007, +5.71408725614E+002, +2.90661532720E+003
+4.57971619366E+007, +6.03838524614E+002, +2.97672318852E+003
+4.59639398998E+007, +6.63489856443E+002, +3.10860330656E+003
+4.61307178631E+007, +7.15741534699E+002, +3.13800981774E+003
+4.62974958264E+007, +8.21588087811E+002, +3.21500657970E+003
+4.64642737896E+007, +8.49641312389E+002, +3.26559711489E+003
+4.66310517529E+007, +9.10081047707E+002, +3.44792627522E+003
+4.67978297162E+007, +1.02341571691E+003, +3.43027482319E+003
+4.69646076795E+007, +1.07280000403E+003, +3.59104604389E+003
+4.71313856427E+007, +1.25381842667E+003, +3.67019741696E+003
+4.72981636060E+007, +1.31488024786E+003, +3.77672864884E+003
+4.74649415693E+007, +1.44318793936E+003, +3.81414049241E+003
+4.76317195326E+007, +1.60981753385E+003, +3.88934407458E+003
+4.77984974958E+007, +1.77157574241E+003, +4.01070559103E+003
+4.79652754591E+007, +1.89994461265E+003, +3.99420244830E+003
+4.81320534224E+007, +2.09471723343E+003, +4.08076305208E+003
+4.82988313856E+007, +2.29015566587E+003, +4.18568917790E+003
+4.84656093489E+007, +2.50835099109E+003, +4.21216310191E+003
+4.86323873122E+007, +2.65377966785E+003, +4.13711819128E+003
+4.87991652755E+007, +2.95256173530E+003, +4.11029389021E+003
+4.89659432387E+007, +3.11683000898E+003, +4.12513567150E+003
+4.91327212020E+007, +3.39466147103E+003, +4.18672705206E+003
+4.92994991653E+007, +3.61916025390E+003, +3.94225632012E+003
+4.94662771285E+007, +3.74924103674E+003, +3.78501453254E+003
+4.96330550918E+007, +3.99304154110E+003, +3.64730633442E+003
+4.97998330551E+007, +4.12317108671E+003, +3.54978436356E+003
+4.99666110184E+007, +4.16563115225E+003, +3.37762609846E+003
+5.01333889816E+007, +4.38383694522E+003, +3.25071062639E+003
+5.03001669449E+007, +4.46428102083E+003, +3.21541819427E+003
+5.04669449082E+007, +4.53188497072E+003, +2.94344030617E+003
+5.06337228715E+007, +4.49991399274E+003, +2.77883605374E+003
+5.08005008347E+007, +4.54414805541E+003, +2.82931581608E+003
+5.09672787980E+007, +4.48931134461E+003, +2.74717154674E+003
+5.11340567613E+007, +4.66469325824E+003, +2.67677721497E+003
+5.13008347245E+007, +4.73639184737E+003, +2.80567579696E+003
+5.14676126878E+007, +4.78356776105E+003, +2.80099302017E+003
+5.16343906511E+007, +4.94277729165E+003, +2.73555765477E+003
+5.18011686144E+007, +4.98471783631E+003, +2.96009016899E+003
+5.19679465776E+007, +5.26628171675E+003, +3.02810291969E+003
+5.21347245409E+007, +5.64749989884E+003, +2.92083622974E+003
+5.23015025042E+007, +6.11784762794E+003, +2.78874800115E+003
+5.24682804674E+007, +6.57272789917E+003, +2.98739277868E+003
+5.26350584307E+007, +6.78440298581E+003, +2.88075573221E+003
+5.28018363940E+007, +7.48167320697E+003, +2.47842011069E+003
+5.29686143573E+007, +7.91675177847E+003, +2.25043326709E+003
+5.31353923205E+007, +8.36770536271E+003, +2.09101736955E+003
+5.33021702838E+007, +8.83125553792E+003, +1.40000389297E+003
+5.34689482471E+007, +9.00376711354E+003, +3.94987777670E+002
