"# Channel 1"
"# Trace 1"
Frequency, Formatted Data, Formatted Data
+1.00000000000E+005, +8.89179203326E+000, +1.89256768458E+000
+2.66777963272E+005, +8.87950321480E+000, +5.06811328498E+000
+4.33555926544E+005, +8.87413395761E+000, +8.21583722159E+000
+6.00333889816E+005, +8.90017061158E+000, +1.13614737013E+001
+7.67111853088E+005, +8.93368973471E+000, +1.45221899399E+001
+9.33889816361E+005, +8.92478439566E+000, +1.76339160478E+001
+1.10066777963E+006, +8.89430982680E+000, +2.08184659077E+001
+1.26744574290E+006, +8.93684735863E+000, +2.39516186085E+001
+1.43422370618E+006, +8.87484873003E+000, +2.71703843544E+001
+1.60100166945E+006, +8.97123284782E+000, +3.02365554721E+001
+1.76777963272E+006, +8.96597586085E+000, +3.34104882762E+001
+1.93455759599E+006, +8.95096194900E+000, +3.64655978716E+001
+2.10133555927E+006, +8.93417808251E+000, +3.96408449753E+001
+2.26811352254E+006, +9.02711371571E+000, +4.27932867079E+001
+2.43489148581E+006, +8.99672141753E+000, +4.60174068445E+001
+2.60166944908E+006, +9.01016932257E+000, +4.90782389077E+001
+2.76844741235E+006, +8.95782224440E+000, +5.23178347756E+001
+2.93522537563E+006, +8.94937230114E+000, +5.54062823201E+001
+3.10200333890E+006, +9.11907419845E+000, +5.85649036001E+001
+3.26878130217E+006, +8.97170244215E+000, +6.17839095872E+001
+3.43555926544E+006, +9.08734541401E+000, +6.49582140446E+001
+3.60233722871E+006, +9.17081364217E+000, +6.81525308850E+001
+3.76911519199E+006, +9.09379298549E+000, +7.14323205896E+001
+3.93589315526E+006, +9.11253410785E+000, +7.44169654317E+001
+4.10267111853E+006, +8.77168039995E+000, +7.73786283199E+001
+4.26944908180E+006, +9.01807006287E+000, +8.11850031884E+001
+4.43622704508E+006, +9.19251427390E+000, +8.40654687985E+001
+4.60300500835E+006, +9.19315582467E+000, +8.74688912769E+001
+4.76978297162E+006, +9.12276409441E+000, +9.04657031747E+001
+4.93656093489E+006, +9.34984733418E+000, +9.37789274046E+001
+5.10333889816E+006, +9.35558259750E+000, +9.68227714436E+001
+5.27011686144E+006, +9.61897413225E+000, +1.00356545794E+002
+5.43689482471E+006, +9.38340428134E+000, +1.03358532420E+002
+5.60367278798E+006, +9.50800166949E+000, +1.06784883291E+002
+5.77045075125E+006, +9.46440343843E+000, +1.09852364852E+002
+5.93722871452E+006, +9.72082651347E+000, +1.13025793074E+002
+6.10400667780E+006, +9.72181401529E+000, +1.16429304697E+002
+6.27078464107E+006, +9.79953559972E+000, +1.19540347458E+002
+6.43756260434E+006, +9.96333596191E+000, +1.22811814816E+002
+6.60434056761E+006, +1.00346098297E+001, +1.25995951927E+002
+6.77111853088E+006, +1.02357792001E+001, +1.29181628660E+002
+6.93789649416E+006, +1.01312316439E+001, +1.32519527971E+002
+7.10467445743E+006, +1.00818498338E+001, +1.35661774379E+002
+7.27145242070E+006, +1.02540729023E+001, +1.38866287780E+002
+7.43823038397E+006, +1.03899102738E+001, +1.42075425041E+002
+7.60500834725E+006, +1.02427261401E+001, +1.45361882863E+002
+7.77178631052E+006, +1.03808440886E+001, +1.48857409370E+002
+7.93856427379E+006, +1.04524920925E+001, +1.52008019660E+002
+8.10534223706E+006, +1.04836079733E+001, +1.55324432814E+002
+8.27212020033E+006, +1.04254456245E+001, +1.58544709553E+002
+8.43889816361E+006, +1.04082911492E+001, +1.61959952375E+002
+8.60567612688E+006, +1.02726989312E+001, +1.65368516325E+002
+8.77245409015E+006, +1.03248398830E+001, +1.68415614352E+002
+8.93923205342E+006, +1.05178751919E+001, +1.71976257790E+002
+9.10601001669E+006, +1.05754444836E+001, +1.75454874234E+002
+9.27278797997E+006, +1.05001117119E+001, +1.78669792909E+002
+9.43956594324E+006, +1.05384033099E+001, +1.82042813670E+002
+9.60634390651E+006, +1.04164965641E+001, +1.85435731494E+002
+9.77312186978E+006, +1.05533949178E+001, +1.88901825390E+002
+9.93989983306E+006, +1.08890660757E+001, +1.92382908554E+002
+1.01066777963E+007, +1.04771730031E+001, +1.95852766702E+002
+1.02734557596E+007, +1.06050032623E+001, +1.99294360025E+002
+1.04402337229E+007, +1.05067426567E+001, +2.02626078335E+002
+1.06070116861E+007, +1.07624151381E+001, +2.05921887994E+002
+1.07737896494E+007, +1.07041940915E+001, +2.09731620623E+002
+1.09405676127E+007, +1.09689189287E+001, +2.13042468081E+002
+1.11073455760E+007, +1.08708528708E+001, +2.16763887638E+002
+1.12741235392E+007, +1.08505098444E+001, +2.20168761520E+002
+1.14409015025E+007, +1.11686083984E+001, +2.23500680682E+002
+1.16076794658E+007, +1.11567093625E+001, +2.27072074508E+002
+1.17744574290E+007, +1.12323288804E+001, +2.31060578207E+002
+1.19412353923E+007, +1.10028664541E+001, +2.34234106680E+002
+1.21080133556E+007, +1.08798985850E+001, +2.37957860246E+002
+1.22747913189E+007, +1.11130012231E+001, +2.41812477332E+002
+1.24415692821E+007, +1.10442967039E+001, +2.45177665688E+002
+1.26083472454E+007, +1.13098388895E+001, +2.48804003884E+002
+1.27751252087E+007, +1.11467496694E+001, +2.52438268418E+002
+1.29419031720E+007, +1.11075092885E+001, +2.56004897512E+002
+1.31086811352E+007, +1.16054593121E+001, +2.59825862109E+002
+1.32754590985E+007, +1.15076042347E+001, +2.63120435318E+002
+1.34422370618E+007, +1.12336221684E+001, +2.67308499329E+002
+1.36090150250E+007, +1.20085443297E+001, +2.70905971616E+002
+1.37757929883E+007, +1.15314141450E+001, +2.74264971082E+002
+1.39425709516E+007, +1.21115579657E+001, +2.77883272587E+002
+1.41093489149E+007, +1.20381695179E+001, +2.81779725926E+002
+1.42761268781E+007, +1.21055330350E+001, +2.86093799266E+002
+1.44429048414E+007, +1.24060746375E+001, +2.89398485834E+002
+1.46096828047E+007, +1.22871184385E+001, +2.93758134358E+002
+1.47764607679E+007, +1.24234135341E+001, +2.97032578372E+002
+1.49432387312E+007, +1.25076647022E+001, +3.00773539506E+002
+1.51100166945E+007, +1.23320476915E+001, +3.04715863396E+002
+1.52767946578E+007, +1.28735067760E+001, +3.08479480100E+002
+1.54435726210E+007, +1.29294931750E+001, +3.12295887979E+002
+1.56103505843E+007, +1.33552590039E+001, +3.16257576065E+002
+1.57771285476E+007, +1.28914017420E+001, +3.20295031860E+002
+1.59439065109E+007, +1.28157610185E+001, +3.23816046113E+002
+1.61106844741E+007, +1.34602415529E+001, +3.27898736153E+002
+1.62774624374E+007, +1.36074063782E+001, +3.32418681774E+002
+1.64442404007E+007, +1.33509484674E+001, +3.36094784257E+002
+1.66110183639E+007, +1.36334667870E+001, +3.40010105464E+002
+1.67777963272E+007, +1.40298920841E+001, +3.44718731263E+002
+1.69445742905E+007, +1.40499661485E+001, +3.47975321979E+002
+1.71113522538E+007, +1.30884996617E+001, +3.52365096269E+002
+1.72781302170E+007, +1.37690874783E+001, +3.56735562034E+002
+1.74449081803E+007, +1.34388164572E+001, +3.60673459200E+002
+1.76116861436E+007, +1.43337883894E+001, +3.64559189765E+002
+1.77784641068E+007, +1.39340651686E+001, +3.67851173706E+002
+1.79452420701E+007, +1.41879265686E+001, +3.73120137413E+002
+1.81120200334E+007, +1.48667488508E+001, +3.76803523262E+002
+1.82787979967E+007, +1.46106647586E+001, +3.81518216603E+002
+1.84455759599E+007, +1.56051404082E+001, +3.85318162088E+002
+1.86123539232E+007, +1.50199007569E+001, +3.89976387622E+002
+1.87791318865E+007, +1.52242235384E+001, +3.94097074455E+002
+1.89459098497E+007, +1.56711120650E+001, +3.98161278731E+002
+1.91126878130E+007, +1.54643729418E+001, +4.02425924798E+002
+1.92794657763E+007, +1.57703314710E+001, +4.07177748611E+002
+1.94462437396E+007, +1.55333048004E+001, +4.12119207731E+002
+1.96130217028E+007, +1.60258870536E+001, +4.16570277186E+002
+1.97797996661E+007, +1.63273608990E+001, +4.20584292577E+002
+1.99465776294E+007, +1.48134572527E+001, +4.25544238995E+002
+2.01133555927E+007, +1.55890245111E+001, +4.29510030081E+002
+2.02801335559E+007, +1.60978143567E+001, +4.34192092403E+002
+2.04469115192E+007, +1.71054299787E+001, +4.39384141301E+002
+2.06136894825E+007, +1.73991601812E+001, +4.44059067331E+002
+2.07804674457E+007, +1.73257507711E+001, +4.48811897425E+002
+2.09472454090E+007, +1.62785006062E+001, +4.53837902859E+002
+2.11140233723E+007, +1.72159759271E+001, +4.56951925790E+002
+2.12808013356E+007, +1.79019183915E+001, +4.63062827404E+002
+2.14475792988E+007, +1.84917733122E+001, +4.67926248889E+002
+2.16143572621E+007, +1.84933364149E+001, +4.71360304364E+002
+2.17811352254E+007, +1.80220025729E+001, +4.76921606467E+002
+2.19479131886E+007, +1.98704662896E+001, +4.81855120770E+002
+2.21146911519E+007, +2.13239568504E+001, +4.86320075448E+002
+2.22814691152E+007, +1.97323625821E+001, +4.91234729831E+002
+2.24482470785E+007, +1.87924889180E+001, +4.97074809732E+002
+2.26150250417E+007, +2.12333023392E+001, +5.02650913219E+002
+2.27818030050E+007, +2.05973758429E+001, +5.07889128733E+002
+2.29485809683E+007, +2.30657605021E+001, +5.11863226874E+002
+2.31153589316E+007, +2.23791012759E+001, +5.19654242145E+002
+2.32821368948E+007, +2.36925852249E+001, +5.22453183624E+002
+2.34489148581E+007, +2.37285624955E+001, +5.28215607926E+002
+2.36156928214E+007, +2.51561630353E+001, +5.35280659508E+002
+2.37824707846E+007, +2.56724867600E+001, +5.38894382291E+002
+2.39492487479E+007, +2.43956213950E+001, +5.43843789003E+002
+2.41160267112E+007, +2.55193272612E+001, +5.48697993910E+002
+2.42828046745E+007, +2.56148977552E+001, +5.54835226013E+002
+2.44495826377E+007, +2.70684406096E+001, +5.60719097321E+002
+2.46163606010E+007, +2.64039088484E+001, +5.65798476433E+002
+2.47831385643E+007, +2.81741466673E+001, +5.70875010961E+002
+2.49499165275E+007, +2.96257391994E+001, +5.75393098357E+002
+2.51166944908E+007, +3.03561990617E+001, +5.81096812801E+002
+2.52834724541E+007, +3.00079142807E+001, +5.86624166053E+002
+2.54502504174E+007, +3.16703213917E+001, +5.92592989713E+002
+2.56170283806E+007, +3.02383819573E+001, +5.98115389418E+002
+2.57838063439E+007, +3.15245377522E+001, +6.05039496182E+002
+2.59505843072E+007, +3.37006845763E+001, +6.10804026853E+002
+2.61173622705E+007, +3.43259044241E+001, +6.15028010575E+002
+2.62841402337E+007, +3.33416521211E+001, +6.22320522379E+002
+2.64509181970E+007, +3.24188029758E+001, +6.26428741892E+002
+2.66176961603E+007, +3.32541081069E+001, +6.35113377715E+002
+2.67844741235E+007, +3.59643785100E+001, +6.38673242075E+002
+2.69512520868E+007, +3.44268556375E+001, +6.43540377455E+002
+2.71180300501E+007, +3.51994546270E+001, +6.49581868173E+002
+2.72848080134E+007, +3.57787467897E+001, +6.56849462455E+002
+2.74515859766E+007, +3.67585869319E+001, +6.62518690177E+002
+2.76183639399E+007, +3.45471471003E+001, +6.67331628782E+002
+2.77851419032E+007, +3.62709431805E+001, +6.73196487610E+002
+2.79519198664E+007, +3.81876233067E+001, +6.82309699406E+002
+2.81186978297E+007, +3.84624717072E+001, +6.86699406101E+002
+2.82854757930E+007, +3.99977847848E+001, +6.93534316224E+002
+2.84522537563E+007, +3.57953401714E+001, +7.01055675107E+002
+2.86190317195E+007, +3.83883925271E+001, +7.07850025635E+002
+2.87858096828E+007, +4.33828099418E+001, +7.12431684589E+002
+2.89525876461E+007, +4.17339569463E+001, +7.20221003575E+002
+2.91193656093E+007, +4.01270656474E+001, +7.24844725508E+002
+2.92861435726E+007, +4.01274593340E+001, +7.33923292361E+002
+2.94529215359E+007, +4.26656973398E+001, +7.38044251754E+002
+2.96196994992E+007, +4.24948283551E+001, +7.47613530603E+002
+2.97864774624E+007, +4.28911468862E+001, +7.56930743603E+002
+2.99532554257E+007, +4.66417969862E+001, +7.62735830031E+002
+3.01200333890E+007, +4.21027977714E+001, +7.71706916153E+002
+3.02868113523E+007, +4.30820579182E+001, +7.77921086416E+002
+3.04535893155E+007, +4.13586582068E+001, +7.86242965391E+002
+3.06203672788E+007, +4.76010706098E+001, +7.94681259559E+002
+3.07871452421E+007, +4.47237498491E+001, +8.02286086238E+002
+3.09539232053E+007, +4.72825499546E+001, +8.09139864412E+002
+3.11207011686E+007, +4.29441439018E+001, +8.20277385934E+002
+3.12874791319E+007, +4.89313499890E+001, +8.24175794114E+002
+3.14542570952E+007, +4.90689494710E+001, +8.31558512820E+002
+3.16210350584E+007, +4.63468407095E+001, +8.42843149673E+002
+3.17878130217E+007, +4.74076367501E+001, +8.51097620488E+002
+3.19545909850E+007, +4.92070958782E+001, +8.57919082635E+002
+3.21213689482E+007, +4.52639386947E+001, +8.69724322299E+002
+3.22881469115E+007, +4.85523363598E+001, +8.73898166972E+002
+3.24549248748E+007, +4.99214238803E+001, +8.89328063175E+002
+3.26217028381E+007, +4.98692254036E+001, +8.97102095950E+002
+3.27884808013E+007, +5.39163655392E+001, +9.03940740135E+002
+3.29552587646E+007, +5.06078457921E+001, +9.09426076238E+002
+3.31220367279E+007, +5.61777495642E+001, +9.22491144170E+002
+3.32888146912E+007, +5.15066592113E+001, +9.35265034231E+002
+3.34555926544E+007, +5.40286469000E+001, +9.42621874930E+002
+3.36223706177E+007, +5.88159762267E+001, +9.48884002815E+002
+3.37891485810E+007, +5.68225435826E+001, +9.59399094696E+002
+3.39559265442E+007, +5.96395827777E+001, +9.73640668455E+002
+3.41227045075E+007, +5.68586218848E+001, +9.84038399234E+002
+3.42894824708E+007, +6.19114465177E+001, +9.94632004551E+002
+3.44562604341E+007, +5.66513468931E+001, +1.00343852277E+003
+3.46230383973E+007, +5.96030290886E+001, +1.01959544922E+003
+3.47898163606E+007, +5.91410427124E+001, +1.02685867724E+003
+3.49565943239E+007, +6.45995637704E+001, +1.04289526917E+003
+3.51233722871E+007, +6.80690145533E+001, +1.05274493768E+003
+3.52901502504E+007, +6.70063330518E+001, +1.05370895214E+003
+3.54569282137E+007, +6.76598617339E+001, +1.07744746098E+003
+3.56237061770E+007, +6.39474319062E+001, +1.08902402283E+003
+3.57904841402E+007, +6.30969110705E+001, +1.10139547125E+003
+3.59572621035E+007, +6.83227646270E+001, +1.11013763726E+003
+3.61240400668E+007, +6.86842962384E+001, +1.12295292895E+003
+3.62908180301E+007, +6.95645105142E+001, +1.13875911966E+003
+3.64575959933E+007, +6.98352362442E+001, +1.15389455575E+003
+3.66243739566E+007, +7.40221395694E+001, +1.16399046196E+003
+3.67911519199E+007, +7.52894024175E+001, +1.18550872812E+003
+3.69579298831E+007, +7.58187193850E+001, +1.18984889594E+003
+3.71247078464E+007, +7.44518939372E+001, +1.20812314538E+003
+3.72914858097E+007, +8.06079382047E+001, +1.23274053013E+003
+3.74582637730E+007, +8.52855161683E+001, +1.24480692241E+003
+3.76250417362E+007, +8.83762848136E+001, +1.25349369422E+003
+3.77918196995E+007, +8.92560233382E+001, +1.27152983463E+003
+3.79585976628E+007, +8.79810811575E+001, +1.28633621642E+003
+3.81253756260E+007, +9.60083121989E+001, +1.30797674842E+003
+3.82921535893E+007, +9.83389506967E+001, +1.32721004190E+003
+3.84589315526E+007, +1.02109395683E+002, +1.34032406612E+003
+3.86257095159E+007, +9.44018574606E+001, +1.36023223381E+003
+3.87924874791E+007, +9.90321247820E+001, +1.38110287136E+003
+3.89592654424E+007, +1.11947158066E+002, +1.39730990262E+003
+3.91260434057E+007, +1.10304888127E+002, +1.42626802592E+003
+3.92928213689E+007, +1.12738226833E+002, +1.44233186620E+003
+3.94595993322E+007, +1.27176052514E+002, +1.46155854031E+003
+3.96263772955E+007, +1.08971664716E+002, +1.47495776741E+003
+3.97931552588E+007, +1.23717647699E+002, +1.50026744932E+003
+3.99599332220E+007, +1.20468299474E+002, +1.52182677037E+003
+4.01267111853E+007, +1.35489168573E+002, +1.54592454904E+003
+4.02934891486E+007, +1.24362608442E+002, +1.55427592418E+003
+4.04602671119E+007, +1.47720821624E+002, +1.58369120586E+003
+4.06270450751E+007, +1.52669239440E+002, +1.61130774903E+003
+4.07938230384E+007, +1.48830552875E+002, +1.63147353627E+003
+4.09606010017E+007, +1.65239460133E+002, +1.66914079609E+003
+4.11273789649E+007, +1.60016897314E+002, +1.68418430399E+003
+4.12941569282E+007, +1.76410756678E+002, +1.72197191530E+003
+4.14609348915E+007, +1.74311241576E+002, +1.75392924740E+003
+4.16277128548E+007, +1.82966412675E+002, +1.76902435988E+003
+4.17944908180E+007, +1.91125621326E+002, +1.79322867895E+003
+4.19612687813E+007, +1.84963920718E+002, +1.81878662829E+003
+4.21280467446E+007, +1.99907449560E+002, +1.86227246959E+003
+4.22948247078E+007, +2.16731747623E+002, +1.88330158812E+003
+4.24616026711E+007, +2.23965797482E+002, +1.91709086653E+003
+4.26283806344E+007, +2.26729633276E+002, +1.97510728959E+003
+4.27951585977E+007, +2.19057999376E+002, +2.01464840171E+003
+4.29619365609E+007, +2.60068087812E+002, +2.02162559070E+003
+4.31287145242E+007, +2.62523137264E+002, +2.07549672346E+003
+4.32954924875E+007, +2.59644535438E+002, +2.10374657611E+003
+4.34622704508E+007, +2.71431749890E+002, +2.16586978487E+003
+4.36290484140E+007, +3.16248489399E+002, +2.19852856782E+003
+4.37958263773E+007, +2.99246859347E+002, +2.27855176258E+003
+4.39626043406E+007, +3.36496816527E+002, +2.31119755044E+003
+4.41293823038E+007, +3.59743599709E+002, +2.35537694964E+003
+4.42961602671E+007, +3.78308813690E+002, +2.38296493867E+003
+4.44629382304E+007, +3.77313347080E+002, +2.43723437409E+003
+4.46297161937E+007, +4.15938135845E+002, +2.50604779006E+003
+4.47964941569E+007, +4.29543571152E+002, +2.58666853433E+003
+4.49632721202E+007, +4.74803380234E+002, +2.62487627904E+003
+4.51300500835E+007, +4.96282866351E+002, +2.66688883546E+003
+4.52968280467E+007, +5.55490229389E+002, +2.77022473494E+003
+4.54636060100E+007, +5.90761468985E+002, +2.86478898290E+003
+4.56303839733E+007, +6.14624533590E+002, +2.90940038414E+003
+4.57971619366E+007, +6.69328944532E+002, +2.95558327318E+003
+4.59639398998E+007, +7.25787827502E+002, +3.11997325240E+003
+4.61307178631E+007, +7.95528699502E+002, +3.16711376717E+003
+4.62974958264E+007, +8.76355066605E+002, +3.22615366956E+003
+4.64642737896E+007, +8.72774054922E+002, +3.29634027289E+003
+4.66310517529E+007, +9.81385448739E+002, +3.43139774632E+003
+4.67978297162E+007, +1.13744357829E+003, +3.40759912806E+003
+4.69646076795E+007, +1.14885551957E+003, +3.58942451194E+003
+4.71313856427E+007, +1.31105621550E+003, +3.67527187380E+003
+4.72981636060E+007, +1.42633494694E+003, +3.77250577039E+003
+4.74649415693E+007, +1.48210625650E+003, +3.81540753727E+003
+4.76317195326E+007, +1.78515685423E+003, +3.86564463620E+003
+4.77984974958E+007, +1.86654018444E+003, +3.94419324300E+003
+4.79652754591E+007, +2.03071546186E+003, +4.00613714802E+003
+4.81320534224E+007, +2.20567979123E+003, +4.08371389574E+003
+4.82988313856E+007, +2.44876643935E+003, +4.02953191490E+003
+4.84656093489E+007, +2.61744592254E+003, +4.15240803493E+003
+4.86323873122E+007, +2.81688125917E+003, +4.11058021301E+003
+4.87991652755E+007, +3.02736357214E+003, +4.02078014419E+003
+4.89659432387E+007, +3.30288097430E+003, +3.94074078207E+003
+4.91327212020E+007, +3.52959013344E+003, +3.86971627605E+003
+4.92994991653E+007, +3.64521353027E+003, +3.77629344738E+003
+4.94662771285E+007, +3.99778234946E+003, +3.62011685849E+003
+4.96330550918E+007, +4.04045098271E+003, +3.43919677769E+003
+4.97998330551E+007, +4.22120907117E+003, +3.30672019120E+003
+4.99666110184E+007, +4.39405125722E+003, +3.09655439271E+003
+5.01333889816E+007, +4.39693107716E+003, +2.95869007064E+003
+5.03001669449E+007, +4.47484380806E+003, +2.85977308309E+003
+5.04669449082E+007, +4.52142164313E+003, +2.72842681287E+003
+5.06337228715E+007, +4.42011589689E+003, +2.55104401737E+003
+5.08005008347E+007, +4.39429362107E+003, +2.54421530167E+003
+5.09672787980E+007, +4.36005397723E+003, +2.41854501854E+003
+5.11340567613E+007, +4.43822371248E+003, +2.41197585295E+003
+5.13008347245E+007, +4.57453432426E+003, +2.53393131387E+003
+5.14676126878E+007, +4.62513521782E+003, +2.63712850126E+003
+5.16343906511E+007, +4.69737931292E+003, +2.56275705623E+003
+5.18011686144E+007, +4.80673866699E+003, +2.75033591924E+003
+5.19679465776E+007, +5.09603502533E+003, +2.68589835580E+003
+5.21347245409E+007, +5.51050485986E+003, +2.66048728472E+003
+5.23015025042E+007, +5.83235908290E+003, +2.44321210959E+003
+5.24682804674E+007, +6.26898262098E+003, +2.68015083241E+003
+5.26350584307E+007, +6.63867143522E+003, +2.46775371385E+003
+5.28018363940E+007, +7.11724005765E+003, +2.34551551910E+003
+5.29686143573E+007, +7.57838306686E+003, +1.91552229922E+003
+5.31353923205E+007, +7.80292917968E+003, +1.88145986452E+003
+5.33021702838E+007, +8.35249482185E+003, +9.63451874664E+002
+5.34689482471E+007, +8.60442272262E+003, +3.24117536604E+002
