"# Channel 1"
"# Trace 1"
Frequency, Formatted Data, Formatted Data
+1.00000000000E+005, +2.23930607756E+001, +1.88310515291E+000
+2.66777963272E+005, +2.23479118913E+001, +5.25542450938E+000
+4.33555926544E+005, +2.23567652485E+001, +8.62291372831E+000
+6.00333889816E+005, +2.23741442808E+001, +1.19762845004E+001
+7.67111853088E+005, +2.23648891332E+001, +1.53192155336E+001
+9.33889816361E+005, +2.24221744137E+001, +1.86456573398E+001
+1.10066777963E+006, +2.24598796018E+001, +2.19642622898E+001
+1.26744574290E+006, +2.24568553449E+001, +2.52490997137E+001
+1.43422370618E+006, +2.24639302128E+001, +2.85429391017E+001
+1.60100166945E+006, +2.24647717825E+001, +3.18919598312E+001
+1.76777963272E+006, +2.24282027125E+001, +3.51769580544E+001
+1.93455759599E+006, +2.24823065834E+001, +3.84837706847E+001
+2.10133555927E+006, +2.24423094666E+001, +4.17799520281E+001
+2.26811352254E+006, +2.24138373617E+001, +4.51139028939E+001
+2.43489148581E+006, +2.24377953723E+001, +4.84211600584E+001
+2.60166944908E+006, +2.23708592098E+001, +5.17470661466E+001
+2.76844741235E+006, +2.23458414222E+001, +5.50849297715E+001
+2.93522537563E+006, +2.23012437555E+001, +5.83443034961E+001
+3.10200333890E+006, +2.23634728444E+001, +6.16588622224E+001
+3.26878130217E+006, +2.24448583795E+001, +6.50072579995E+001
+3.43555926544E+006, +2.24025124164E+001, +6.84105132296E+001
+3.60233722871E+006, +2.24221264285E+001, +7.17143140313E+001
+3.76911519199E+006, +2.24267461136E+001, +7.49062307542E+001
+3.93589315526E+006, +2.24547840877E+001, +7.83655557077E+001
+4.10267111853E+006, +2.34891478010E+001, +8.14083782752E+001
+4.26944908180E+006, +2.23113257834E+001, +8.50882515360E+001
+4.43622704508E+006, +2.25036646387E+001, +8.82382716814E+001
+4.60300500835E+006, +2.23814681517E+001, +9.15754524290E+001
+4.76978297162E+006, +2.24006979072E+001, +9.49089981828E+001
+4.93656093489E+006, +2.24400486412E+001, +9.81903269197E+001
+5.10333889816E+006, +2.24831826968E+001, +1.01614803925E+002
+5.27011686144E+006, +2.24473619571E+001, +1.04830635601E+002
+5.43689482471E+006, +2.25612102232E+001, +1.08104813013E+002
+5.60367278798E+006, +2.25693618515E+001, +1.11664382675E+002
+5.77045075125E+006, +2.28193456227E+001, +1.15038485658E+002
+5.93722871452E+006, +2.28050849333E+001, +1.18205481874E+002
+6.10400667780E+006, +2.28018398813E+001, +1.21407383948E+002
+6.27078464107E+006, +2.28007450801E+001, +1.24917624744E+002
+6.43756260434E+006, +2.29628857499E+001, +1.28224673739E+002
+6.60434056761E+006, +2.29072835123E+001, +1.31539988354E+002
+6.77111853088E+006, +2.29648364997E+001, +1.34910105741E+002
+6.93789649416E+006, +2.30580125731E+001, +1.38283268582E+002
+7.10467445743E+006, +2.31307396360E+001, +1.41674854366E+002
+7.27145242070E+006, +2.30903206427E+001, +1.44926950651E+002
+7.43823038397E+006, +2.32036438540E+001, +1.48287184538E+002
+7.60500834725E+006, +2.31464217612E+001, +1.51655525697E+002
+7.77178631052E+006, +2.32566789372E+001, +1.54914396717E+002
+7.93856427379E+006, +2.28962367376E+001, +1.58258138122E+002
+8.10534223706E+006, +2.30320702911E+001, +1.61627571313E+002
+8.27212020033E+006, +2.32742143626E+001, +1.65041842912E+002
+8.43889816361E+006, +2.32231495518E+001, +1.68442351550E+002
+8.60567612688E+006, +2.29139416667E+001, +1.71826291873E+002
+8.77245409015E+006, +2.32078085112E+001, +1.75061278374E+002
+8.93923205342E+006, +2.31409475320E+001, +1.78637201436E+002
+9.10601001669E+006, +2.32791882647E+001, +1.81977229540E+002
+9.27278797997E+006, +2.31779885569E+001, +1.85664219420E+002
+9.43956594324E+006, +2.32284657016E+001, +1.88777656908E+002
+9.60634390651E+006, +2.32427942716E+001, +1.92192179932E+002
+9.77312186978E+006, +2.29426624798E+001, +1.95417837016E+002
+9.93989983306E+006, +2.30481631657E+001, +1.98802062450E+002
+1.01066777963E+007, +2.33162246834E+001, +2.02433232770E+002
+1.02734557596E+007, +2.30436252448E+001, +2.05635766749E+002
+1.04402337229E+007, +2.30956770068E+001, +2.09106245941E+002
+1.06070116861E+007, +2.31717992346E+001, +2.12698779868E+002
+1.07737896494E+007, +2.32942823482E+001, +2.16260744502E+002
+1.09405676127E+007, +2.29783898691E+001, +2.19654049454E+002
+1.11073455760E+007, +2.34664266313E+001, +2.23048338263E+002
+1.12741235392E+007, +2.32462309127E+001, +2.26024588392E+002
+1.14409015025E+007, +2.32931392889E+001, +2.29727549374E+002
+1.16076794658E+007, +2.35889674171E+001, +2.33508615336E+002
+1.17744574290E+007, +2.33305447437E+001, +2.36735738162E+002
+1.19412353923E+007, +2.34325490783E+001, +2.40396376963E+002
+1.21080133556E+007, +2.32856728634E+001, +2.43910066411E+002
+1.22747913189E+007, +2.34548393437E+001, +2.47306862715E+002
+1.24415692821E+007, +2.37735875363E+001, +2.50606049721E+002
+1.26083472454E+007, +2.34466798104E+001, +2.54198185591E+002
+1.27751252087E+007, +2.36759364066E+001, +2.57536065369E+002
+1.29419031720E+007, +2.35192160601E+001, +2.61072070430E+002
+1.31086811352E+007, +2.34837566552E+001, +2.64665897094E+002
+1.32754590985E+007, +2.37897723699E+001, +2.68140817064E+002
+1.34422370618E+007, +2.37889192827E+001, +2.71834479602E+002
+1.36090150250E+007, +2.41418617392E+001, +2.74831960044E+002
+1.37757929883E+007, +2.37655026930E+001, +2.78387360019E+002
+1.39425709516E+007, +2.39868739801E+001, +2.81848557164E+002
+1.41093489149E+007, +2.41562322707E+001, +2.85358907260E+002
+1.42761268781E+007, +2.37007649831E+001, +2.89157944132E+002
+1.44429048414E+007, +2.36081712028E+001, +2.93455825278E+002
+1.46096828047E+007, +2.37713102595E+001, +2.96563590552E+002
+1.47764607679E+007, +2.38425001741E+001, +3.00077277034E+002
+1.49432387312E+007, +2.42429217170E+001, +3.03485450116E+002
+1.51100166945E+007, +2.41168293288E+001, +3.07186730866E+002
+1.52767946578E+007, +2.40271386903E+001, +3.10550762111E+002
+1.54435726210E+007, +2.40990323526E+001, +3.13928240461E+002
+1.56103505843E+007, +2.41253477127E+001, +3.17366148797E+002
+1.57771285476E+007, +2.44031526019E+001, +3.20867448623E+002
+1.59439065109E+007, +2.43698906054E+001, +3.25030926867E+002
+1.61106844741E+007, +2.40739766552E+001, +3.28265836202E+002
+1.62774624374E+007, +2.45586271720E+001, +3.31873022982E+002
+1.64442404007E+007, +2.44240098304E+001, +3.34514766958E+002
+1.66110183639E+007, +2.48602616322E+001, +3.38784848041E+002
+1.67777963272E+007, +2.45825556327E+001, +3.42656735316E+002
+1.69445742905E+007, +2.46627735338E+001, +3.46508760274E+002
+1.71113522538E+007, +2.35915715944E+001, +3.50342039303E+002
+1.72781302170E+007, +2.43300024147E+001, +3.53874839773E+002
+1.74449081803E+007, +2.40825343626E+001, +3.56970330178E+002
+1.76116861436E+007, +2.38831052855E+001, +3.60562157754E+002
+1.77784641068E+007, +2.45827202695E+001, +3.64994381070E+002
+1.79452420701E+007, +2.46090081028E+001, +3.68758769161E+002
+1.81120200334E+007, +2.53934608921E+001, +3.71948388634E+002
+1.82787979967E+007, +2.51666968658E+001, +3.75804108033E+002
+1.84455759599E+007, +2.53622398374E+001, +3.79161097125E+002
+1.86123539232E+007, +2.56111922224E+001, +3.82826160859E+002
+1.87791318865E+007, +2.52378562092E+001, +3.85834926388E+002
+1.89459098497E+007, +2.54082130370E+001, +3.90587657034E+002
+1.91126878130E+007, +2.54089167154E+001, +3.94097481845E+002
+1.92794657763E+007, +2.58499704527E+001, +3.97631239705E+002
+1.94462437396E+007, +2.59518851911E+001, +4.01213584303E+002
+1.96130217028E+007, +2.59138359843E+001, +4.05197181125E+002
+1.97797996661E+007, +2.60622997944E+001, +4.08534720293E+002
+1.99465776294E+007, +2.59455249164E+001, +4.12056548631E+002
+2.01133555927E+007, +2.55644703307E+001, +4.16603191125E+002
+2.02801335559E+007, +2.59641785752E+001, +4.20667279458E+002
+2.04469115192E+007, +2.65111690848E+001, +4.23999478093E+002
+2.06136894825E+007, +2.67386258613E+001, +4.28767985818E+002
+2.07804674457E+007, +2.71261960714E+001, +4.31913346942E+002
+2.09472454090E+007, +2.62981892574E+001, +4.34956029569E+002
+2.11140233723E+007, +2.66178308811E+001, +4.39933034976E+002
+2.12808013356E+007, +2.70413049249E+001, +4.43472319335E+002
+2.14475792988E+007, +2.76309525925E+001, +4.47129431082E+002
+2.16143572621E+007, +2.72525078086E+001, +4.51634099268E+002
+2.17811352254E+007, +2.76183748559E+001, +4.55559154281E+002
+2.19479131886E+007, +2.79927691288E+001, +4.59130182522E+002
+2.21146911519E+007, +2.73096127170E+001, +4.62392079771E+002
+2.22814691152E+007, +2.83337620447E+001, +4.66506347475E+002
+2.24482470785E+007, +2.87327891043E+001, +4.70244113908E+002
+2.26150250417E+007, +2.93600606835E+001, +4.75144368627E+002
+2.27818030050E+007, +2.91849311435E+001, +4.78334225520E+002
+2.29485809683E+007, +2.88535736298E+001, +4.81878625977E+002
+2.31153589316E+007, +3.06415706848E+001, +4.85962155556E+002
+2.32821368948E+007, +3.10185047580E+001, +4.90392042681E+002
+2.34489148581E+007, +3.10495041142E+001, +4.94593103059E+002
+2.36156928214E+007, +3.02435801196E+001, +4.97873519739E+002
+2.37824707846E+007, +3.17823870328E+001, +5.00925576870E+002
+2.39492487479E+007, +3.15509071127E+001, +5.06064854890E+002
+2.41160267112E+007, +3.19464488027E+001, +5.10215016009E+002
+2.42828046745E+007, +3.16189694022E+001, +5.13672640503E+002
+2.44495826377E+007, +3.13767027100E+001, +5.17202335248E+002
+2.46163606010E+007, +3.14377367433E+001, +5.21246643495E+002
+2.47831385643E+007, +3.16076051522E+001, +5.24997375633E+002
+2.49499165275E+007, +3.10416836601E+001, +5.30883373754E+002
+2.51166944908E+007, +3.06627371260E+001, +5.34062000710E+002
+2.52834724541E+007, +3.24552920382E+001, +5.37232307513E+002
+2.54502504174E+007, +3.25360936424E+001, +5.41957825466E+002
+2.56170283806E+007, +3.32277926447E+001, +5.45070262600E+002
+2.57838063439E+007, +3.20416172296E+001, +5.48103777216E+002
+2.59505843072E+007, +3.24689783686E+001, +5.51483325449E+002
+2.61173622705E+007, +3.07790065894E+001, +5.56597034759E+002
+2.62841402337E+007, +3.40358499930E+001, +5.60073775859E+002
+2.64509181970E+007, +3.34626438656E+001, +5.65477919586E+002
+2.66176961603E+007, +3.36172642025E+001, +5.69984326261E+002
+2.67844741235E+007, +3.30308397002E+001, +5.72852476162E+002
+2.69512520868E+007, +3.34740537608E+001, +5.78174200660E+002
+2.71180300501E+007, +3.39642843196E+001, +5.83801073992E+002
+2.72848080134E+007, +3.35558686080E+001, +5.87179555288E+002
+2.74515859766E+007, +3.28537041467E+001, +5.91654369319E+002
+2.76183639399E+007, +3.41983253026E+001, +5.93649690563E+002
+2.77851419032E+007, +3.46726897458E+001, +6.00145893706E+002
+2.79519198664E+007, +3.39160028253E+001, +6.06071904697E+002
+2.81186978297E+007, +3.51110370095E+001, +6.07077988317E+002
+2.82854757930E+007, +3.48526019584E+001, +6.13088742130E+002
+2.84522537563E+007, +3.61092292158E+001, +6.16679748985E+002
+2.86190317195E+007, +3.32201801892E+001, +6.22944854821E+002
+2.87858096828E+007, +3.47061811464E+001, +6.24978694193E+002
+2.89525876461E+007, +3.48082962011E+001, +6.30871843041E+002
+2.91193656093E+007, +3.49929285929E+001, +6.35593569497E+002
+2.92861435726E+007, +3.45080276302E+001, +6.40012629995E+002
+2.94529215359E+007, +3.46405129205E+001, +6.45113807035E+002
+2.96196994992E+007, +3.33794342241E+001, +6.49113549128E+002
+2.97864774624E+007, +3.47821000806E+001, +6.51930107428E+002
+2.99532554257E+007, +3.48851268205E+001, +6.62017408849E+002
+3.01200333890E+007, +3.69310873500E+001, +6.63792935221E+002
+3.02868113523E+007, +3.59385608665E+001, +6.65113846416E+002
+3.04535893155E+007, +3.68742116274E+001, +6.72696692947E+002
+3.06203672788E+007, +3.67972512519E+001, +6.75167919972E+002
+3.07871452421E+007, +3.44832714674E+001, +6.81948660075E+002
+3.09539232053E+007, +3.61636407659E+001, +6.86058750598E+002
+3.11207011686E+007, +3.62312662207E+001, +6.92658785358E+002
+3.12874791319E+007, +3.71418580718E+001, +6.94739224792E+002
+3.14542570952E+007, +3.74765084944E+001, +6.99171785693E+002
+3.16210350584E+007, +3.81387878401E+001, +7.04875518508E+002
+3.17878130217E+007, +3.73869110469E+001, +7.09859880963E+002
+3.19545909850E+007, +3.82026699189E+001, +7.16639050835E+002
+3.21213689482E+007, +3.47394405674E+001, +7.18771864444E+002
+3.22881469115E+007, +3.86128535689E+001, +7.24542068917E+002
+3.24549248748E+007, +3.68242430912E+001, +7.29757799007E+002
+3.26217028381E+007, +3.90307983509E+001, +7.34717785671E+002
+3.27884808013E+007, +3.79959203666E+001, +7.37933853902E+002
+3.29552587646E+007, +3.75710116804E+001, +7.44801934789E+002
+3.31220367279E+007, +3.82750687560E+001, +7.50205795135E+002
+3.32888146912E+007, +3.81714001727E+001, +7.58628851450E+002
+3.34555926544E+007, +3.96908944802E+001, +7.61292040263E+002
+3.36223706177E+007, +4.06127675875E+001, +7.65815715768E+002
+3.37891485810E+007, +4.00140780281E+001, +7.70761704929E+002
+3.39559265442E+007, +3.93057021832E+001, +7.74890879234E+002
+3.41227045075E+007, +3.91767004945E+001, +7.82940323145E+002
+3.42894824708E+007, +4.00423095518E+001, +7.85716625167E+002
+3.44562604341E+007, +3.75323075413E+001, +7.94195880417E+002
+3.46230383973E+007, +4.07035260621E+001, +7.99389930400E+002
+3.47898163606E+007, +4.13860199904E+001, +8.03241289379E+002
+3.49565943239E+007, +4.38794188447E+001, +8.07645908840E+002
+3.51233722871E+007, +4.14317507045E+001, +8.13760069813E+002
+3.52901502504E+007, +3.97835882697E+001, +8.21281473499E+002
+3.54569282137E+007, +3.99170864625E+001, +8.27584832480E+002
+3.56237061770E+007, +4.21976223462E+001, +8.32426930267E+002
+3.57904841402E+007, +4.46205229377E+001, +8.36403590991E+002
+3.59572621035E+007, +4.37152895611E+001, +8.43199538693E+002
+3.61240400668E+007, +4.34124413570E+001, +8.46957831954E+002
+3.62908180301E+007, +4.29607349906E+001, +8.54326078455E+002
+3.64575959933E+007, +4.35952828158E+001, +8.60427708817E+002
+3.66243739566E+007, +4.32324194907E+001, +8.65969049858E+002
+3.67911519199E+007, +4.60465066544E+001, +8.75027148531E+002
+3.69579298831E+007, +4.52742254308E+001, +8.77540898907E+002
+3.71247078464E+007, +4.40419094941E+001, +8.87309991852E+002
+3.72914858097E+007, +4.73713562811E+001, +8.92837368210E+002
+3.74582637730E+007, +4.32091941863E+001, +9.01387179423E+002
+3.76250417362E+007, +4.70796037547E+001, +9.08031745542E+002
+3.77918196995E+007, +4.59821802706E+001, +9.08527806179E+002
+3.79585976628E+007, +4.52813421395E+001, +9.17337047290E+002
+3.81253756260E+007, +4.66161794488E+001, +9.23225907615E+002
+3.82921535893E+007, +4.39550904049E+001, +9.33654831243E+002
+3.84589315526E+007, +4.71591259546E+001, +9.37342821120E+002
+3.86257095159E+007, +4.66422301267E+001, +9.42713112716E+002
+3.87924874791E+007, +4.89481558291E+001, +9.52125036361E+002
+3.89592654424E+007, +4.88411030773E+001, +9.54752975044E+002
+3.91260434057E+007, +4.91824775620E+001, +9.68645987273E+002
+3.92928213689E+007, +4.71665986131E+001, +9.74694560656E+002
+3.94595993322E+007, +5.37601142543E+001, +9.77509966295E+002
+3.96263772955E+007, +5.01085634661E+001, +9.84686175635E+002
+3.97931552588E+007, +4.96321542134E+001, +9.93625932001E+002
+3.99599332220E+007, +4.80028387464E+001, +1.00363723794E+003
+4.01267111853E+007, +4.72381883880E+001, +1.00791165607E+003
+4.02934891486E+007, +5.13947532974E+001, +1.01247793048E+003
+4.04602671119E+007, +4.98909187631E+001, +1.02198680395E+003
+4.06270450751E+007, +4.69488340618E+001, +1.02756420425E+003
+4.07938230384E+007, +4.90062476212E+001, +1.04160995150E+003
+4.09606010017E+007, +5.20229801750E+001, +1.04587115432E+003
+4.11273789649E+007, +5.70296909475E+001, +1.05476349246E+003
+4.12941569282E+007, +5.78217337896E+001, +1.06367840368E+003
+4.14609348915E+007, +5.65697954111E+001, +1.06808466358E+003
+4.16277128548E+007, +5.65446209949E+001, +1.07929745130E+003
+4.17944908180E+007, +5.49789475987E+001, +1.08846513273E+003
+4.19612687813E+007, +5.33835044111E+001, +1.09740365682E+003
+4.21280467446E+007, +5.94412969951E+001, +1.10043858449E+003
+4.22948247078E+007, +5.80574026624E+001, +1.11302007796E+003
+4.24616026711E+007, +6.13974230533E+001, +1.12792516461E+003
+4.26283806344E+007, +5.66731585328E+001, +1.12855620482E+003
+4.27951585977E+007, +6.35588570640E+001, +1.13633276902E+003
+4.29619365609E+007, +6.16795036532E+001, +1.14879889313E+003
+4.31287145242E+007, +6.14482655484E+001, +1.16469691038E+003
+4.32954924875E+007, +6.04875920929E+001, +1.17546257561E+003
+4.34622704508E+007, +5.76250239161E+001, +1.17569472635E+003
+4.36290484140E+007, +5.98907000508E+001, +1.18810821766E+003
+4.37958263773E+007, +6.29156054273E+001, +1.19836200161E+003
+4.39626043406E+007, +6.94251569060E+001, +1.21129730257E+003
+4.41293823038E+007, +6.61495307337E+001, +1.21321073669E+003
+4.42961602671E+007, +7.00781044929E+001, +1.22807064441E+003
+4.44629382304E+007, +6.83561487017E+001, +1.23887570299E+003
+4.46297161937E+007, +7.22044514276E+001, +1.24819378305E+003
+4.47964941569E+007, +7.32407535895E+001, +1.25516462640E+003
+4.49632721202E+007, +7.72391205630E+001, +1.27478385547E+003
+4.51300500835E+007, +7.27241532030E+001, +1.28080157625E+003
+4.52968280467E+007, +7.31736747616E+001, +1.29825648302E+003
+4.54636060100E+007, +7.33367531053E+001, +1.29584274353E+003
+4.56303839733E+007, +8.67054014736E+001, +1.31759067251E+003
+4.57971619366E+007, +8.19677333127E+001, +1.32442378455E+003
+4.59639398998E+007, +8.14980556134E+001, +1.34367996833E+003
+4.61307178631E+007, +7.66558700052E+001, +1.36034852320E+003
+4.62974958264E+007, +8.73029838513E+001, +1.37135131543E+003
+4.64642737896E+007, +9.37248386539E+001, +1.38429302370E+003
+4.66310517529E+007, +8.85458990700E+001, +1.39732181204E+003
+4.67978297162E+007, +9.62234907004E+001, +1.40913302302E+003
+4.69646076795E+007, +9.65647844519E+001, +1.41369677051E+003
+4.71313856427E+007, +9.50376292590E+001, +1.43704686055E+003
+4.72981636060E+007, +1.03579288580E+002, +1.45153873094E+003
+4.74649415693E+007, +1.14248058174E+002, +1.47399757855E+003
+4.76317195326E+007, +1.04940822092E+002, +1.48222210307E+003
+4.77984974958E+007, +1.12711601099E+002, +1.49807642057E+003
+4.79652754591E+007, +1.21625475822E+002, +1.50482424683E+003
+4.81320534224E+007, +1.22020985776E+002, +1.52962121336E+003
+4.82988313856E+007, +1.28048237217E+002, +1.52872654579E+003
+4.84656093489E+007, +1.37246562259E+002, +1.56991174428E+003
+4.86323873122E+007, +1.48932743168E+002, +1.58148320862E+003
+4.87991652755E+007, +1.50105137779E+002, +1.58955101644E+003
+4.89659432387E+007, +1.55355632668E+002, +1.59778062687E+003
+4.91327212020E+007, +1.42376428301E+002, +1.61416032842E+003
+4.92994991653E+007, +1.65649575869E+002, +1.63758099371E+003
+4.94662771285E+007, +1.67758509368E+002, +1.65207469951E+003
+4.96330550918E+007, +1.81855641476E+002, +1.67192876907E+003
+4.97998330551E+007, +1.77510530557E+002, +1.67794772600E+003
+4.99666110184E+007, +1.81298151096E+002, +1.70840735535E+003
+5.01333889816E+007, +1.88079551258E+002, +1.73627131949E+003
+5.03001669449E+007, +1.97199507860E+002, +1.74709689767E+003
+5.04669449082E+007, +2.08274895273E+002, +1.76140364721E+003
+5.06337228715E+007, +2.03296555675E+002, +1.77320328175E+003
+5.08005008347E+007, +2.16978576773E+002, +1.77778680697E+003
+5.09672787980E+007, +2.24799029237E+002, +1.80843833930E+003
+5.11340567613E+007, +2.27823177861E+002, +1.83340662955E+003
+5.13008347245E+007, +2.32084189857E+002, +1.84519697050E+003
+5.14676126878E+007, +2.45599042543E+002, +1.85848489068E+003
+5.16343906511E+007, +2.40576383618E+002, +1.86871418333E+003
+5.18011686144E+007, +2.46323080253E+002, +1.89676054753E+003
+5.19679465776E+007, +2.75269964511E+002, +1.92264140036E+003
+5.21347245409E+007, +2.51274480920E+002, +1.95864827645E+003
+5.23015025042E+007, +2.50365972873E+002, +1.96556851916E+003
+5.24682804674E+007, +2.64586748764E+002, +1.99187366791E+003
+5.26350584307E+007, +2.78704082515E+002, +2.03819349853E+003
+5.28018363940E+007, +2.71145377878E+002, +2.06563388184E+003
+5.29686143573E+007, +2.68112423573E+002, +2.10407727445E+003
+5.31353923205E+007, +2.70237299979E+002, +2.12169534283E+003
+5.33021702838E+007, +2.79672296070E+002, +2.15845110625E+003
+5.34689482471E+007, +2.87830140897E+002, +2.19680242732E+003
