"# Channel 1"
"# Trace 1"
Frequency, Formatted Data, Formatted Data
+1.00000000000E+005, +3.99951896495E+001, +1.85358155731E+000
+2.25031289111E+005, +3.99222451999E+001, +4.39607317045E+000
+3.50062578223E+005, +3.99414503830E+001, +6.85186596593E+000
+4.75093867334E+005, +3.99885012094E+001, +9.29251140244E+000
+6.00125156446E+005, +3.99581258966E+001, +1.17710099003E+001
+7.25156445557E+005, +3.99667202599E+001, +1.41436161844E+001
+8.50187734668E+005, +4.00271576964E+001, +1.66136911113E+001
+9.75219023780E+005, +3.99981671612E+001, +1.90253308110E+001
+1.10025031289E+006, +4.00483336902E+001, +2.14823644423E+001
+1.22528160200E+006, +4.00769326477E+001, +2.39255956233E+001
+1.35031289111E+006, +4.00233983427E+001, +2.63298638732E+001
+1.47534418023E+006, +4.00254954679E+001, +2.88087638091E+001
+1.60037546934E+006, +4.00356218782E+001, +3.12566384973E+001
+1.72540675845E+006, +4.00923496923E+001, +3.36004942318E+001
+1.85043804756E+006, +4.00688665126E+001, +3.60452660553E+001
+1.97546933667E+006, +4.01178630953E+001, +3.85074633980E+001
+2.10050062578E+006, +4.00776545236E+001, +4.08959376888E+001
+2.22553191489E+006, +4.01212354086E+001, +4.34301025449E+001
+2.35056320401E+006, +4.00365831834E+001, +4.58238255073E+001
+2.47559449312E+006, +4.01943430907E+001, +4.83065374635E+001
+2.60062578223E+006, +4.01150788955E+001, +5.06683161782E+001
+2.72565707134E+006, +3.99652805093E+001, +5.29907441968E+001
+2.85068836045E+006, +4.00743194097E+001, +5.55902896436E+001
+2.97571964956E+006, +4.01213077761E+001, +5.79584252599E+001
+3.10075093867E+006, +4.00629140314E+001, +6.04294153364E+001
+3.22578222778E+006, +4.01327878734E+001, +6.27997726454E+001
+3.35081351690E+006, +4.02812592740E+001, +6.53391862782E+001
+3.47584480601E+006, +4.02183381165E+001, +6.77158977937E+001
+3.60087609512E+006, +4.02278449736E+001, +7.03145039125E+001
+3.72590738423E+006, +4.02495851692E+001, +7.27273263098E+001
+3.85093867334E+006, +4.02603523943E+001, +7.51174638852E+001
+3.97596996245E+006, +4.03510174981E+001, +7.75953584893E+001
+4.10100125156E+006, +4.03349113615E+001, +8.02154235099E+001
+4.22603254068E+006, +4.04526287167E+001, +8.24438140382E+001
+4.35106382979E+006, +4.02478409137E+001, +8.49526722430E+001
+4.47609511890E+006, +4.03609814250E+001, +8.73441656022E+001
+4.60112640801E+006, +4.03386659326E+001, +8.97851683465E+001
+4.72615769712E+006, +4.04285666863E+001, +9.23351419969E+001
+4.85118898623E+006, +4.04409621730E+001, +9.46784695093E+001
+4.97622027534E+006, +4.03289460390E+001, +9.73025107894E+001
+5.10125156446E+006, +4.05418708029E+001, +9.97634209977E+001
+5.22628285357E+006, +4.05914235601E+001, +1.02279156379E+002
+5.35131414268E+006, +4.05921842054E+001, +1.04752478601E+002
+5.47634543179E+006, +4.04838141439E+001, +1.07236354027E+002
+5.60137672090E+006, +4.04952661899E+001, +1.09802230662E+002
+5.72640801001E+006, +4.05103960393E+001, +1.12319168810E+002
+5.85143929912E+006, +4.08404975796E+001, +1.14811144029E+002
+5.97647058824E+006, +4.09081646585E+001, +1.17437652368E+002
+6.10150187735E+006, +4.06459411436E+001, +1.19728466853E+002
+6.22653316646E+006, +4.06461924084E+001, +1.22317878947E+002
+6.35156445557E+006, +4.09121051444E+001, +1.24708198107E+002
+6.47659574468E+006, +4.09166787835E+001, +1.27150115940E+002
+6.60162703379E+006, +4.09854416459E+001, +1.29706907525E+002
+6.72665832290E+006, +4.11600456710E+001, +1.32199737529E+002
+6.85168961202E+006, +4.10906880929E+001, +1.34715397698E+002
+6.97672090113E+006, +4.10940863297E+001, +1.37327997183E+002
+7.10175219024E+006, +4.12739195749E+001, +1.39716398066E+002
+7.22678347935E+006, +4.11353036046E+001, +1.42321329139E+002
+7.35181476846E+006, +4.12050904814E+001, +1.44958069801E+002
+7.47684605757E+006, +4.13009473514E+001, +1.47475372755E+002
+7.60187734668E+006, +4.12281122804E+001, +1.50098167917E+002
+7.72690863579E+006, +4.13273266138E+001, +1.52462308220E+002
+7.85193992491E+006, +4.15160465113E+001, +1.55230667598E+002
+7.97697121402E+006, +4.15222964070E+001, +1.57454933279E+002
+8.10200250313E+006, +4.15014786307E+001, +1.60133487960E+002
+8.22703379224E+006, +4.14282416329E+001, +1.62590984585E+002
+8.35206508135E+006, +4.17644941319E+001, +1.65296125710E+002
+8.47709637046E+006, +4.16732149253E+001, +1.67990077056E+002
+8.60212765957E+006, +4.16022099635E+001, +1.70296054020E+002
+8.72715894869E+006, +4.19053806664E+001, +1.73250209498E+002
+8.85219023780E+006, +4.19554515141E+001, +1.75537613359E+002
+8.97722152691E+006, +4.16903403560E+001, +1.78392996121E+002
+9.10225281602E+006, +4.18903976337E+001, +1.80981087648E+002
+9.22728410513E+006, +4.20467124863E+001, +1.83600241972E+002
+9.35231539424E+006, +4.20997580423E+001, +1.85960990294E+002
+9.47734668335E+006, +4.19723429969E+001, +1.88660659856E+002
+9.60237797247E+006, +4.22863028870E+001, +1.91602503655E+002
+9.72740926158E+006, +4.21130732763E+001, +1.94043549382E+002
+9.85244055069E+006, +4.20740067528E+001, +1.96393625062E+002
+9.97747183980E+006, +4.19785757780E+001, +1.99109066375E+002
+1.01025031289E+007, +4.22104078876E+001, +2.01889190630E+002
+1.02275344180E+007, +4.21339452391E+001, +2.04624839593E+002
+1.03525657071E+007, +4.24779312547E+001, +2.06997539683E+002
+1.04775969962E+007, +4.23446067726E+001, +2.09612368738E+002
+1.06026282854E+007, +4.24739981485E+001, +2.12198191955E+002
+1.07276595745E+007, +4.25629493759E+001, +2.14990101413E+002
+1.08526908636E+007, +4.24287947483E+001, +2.17461556731E+002
+1.09777221527E+007, +4.23743987236E+001, +2.20075766778E+002
+1.11027534418E+007, +4.25650115970E+001, +2.23184212973E+002
+1.12277847309E+007, +4.27824398825E+001, +2.26004067867E+002
+1.13528160200E+007, +4.26485759596E+001, +2.28613856145E+002
+1.14778473091E+007, +4.28594727435E+001, +2.31050913680E+002
+1.16028785982E+007, +4.32310067478E+001, +2.33907638270E+002
+1.17279098874E+007, +4.26868266983E+001, +2.36908637234E+002
+1.18529411765E+007, +4.30558538817E+001, +2.39048359275E+002
+1.19779724656E+007, +4.28160134326E+001, +2.42588999772E+002
+1.21030037547E+007, +4.30373924015E+001, +2.44991893037E+002
+1.22280350438E+007, +4.36095145564E+001, +2.47917482985E+002
+1.23530663329E+007, +4.31857188400E+001, +2.49819187777E+002
+1.24780976220E+007, +4.33107716404E+001, +2.52929967684E+002
+1.26031289111E+007, +4.36119550894E+001, +2.56046823447E+002
+1.27281602003E+007, +4.32344932442E+001, +2.58167035221E+002
+1.28531914894E+007, +4.32538375335E+001, +2.61570539668E+002
+1.29782227785E+007, +4.30458010951E+001, +2.63729965714E+002
+1.31032540676E+007, +4.34074237720E+001, +2.66749038757E+002
+1.32282853567E+007, +4.33849043032E+001, +2.69942506452E+002
+1.33533166458E+007, +4.33715739326E+001, +2.72791278720E+002
+1.34783479349E+007, +4.42265830883E+001, +2.75047849630E+002
+1.36033792240E+007, +4.37009922325E+001, +2.78594103236E+002
+1.37284105131E+007, +4.38516048108E+001, +2.81217934416E+002
+1.38534418023E+007, +4.43059610693E+001, +2.84173839641E+002
+1.39784730914E+007, +4.42668413510E+001, +2.87206936657E+002
+1.41035043805E+007, +4.40274494232E+001, +2.89668667908E+002
+1.42285356696E+007, +4.39248539642E+001, +2.92720784279E+002
+1.43535669587E+007, +4.36181270016E+001, +2.95411082877E+002
+1.44785982478E+007, +4.48507053819E+001, +2.98513927917E+002
+1.46036295369E+007, +4.43794224479E+001, +3.01812347289E+002
+1.47286608260E+007, +4.42513712267E+001, +3.04375827468E+002
+1.48536921151E+007, +4.44535322622E+001, +3.07168395696E+002
+1.49787234043E+007, +4.48141972179E+001, +3.10582485408E+002
+1.51037546934E+007, +4.45718532408E+001, +3.13004361848E+002
+1.52287859825E+007, +4.47718718032E+001, +3.16087808897E+002
+1.53538172716E+007, +4.43965685968E+001, +3.19098970316E+002
+1.54788485607E+007, +4.52581062652E+001, +3.21302339017E+002
+1.56038798498E+007, +4.54809466599E+001, +3.25564345702E+002
+1.57289111389E+007, +4.50698859461E+001, +3.27351305698E+002
+1.58539424280E+007, +4.48934194375E+001, +3.30688241163E+002
+1.59789737171E+007, +4.59507766119E+001, +3.33773484378E+002
+1.61040050063E+007, +4.51740089939E+001, +3.36593548202E+002
+1.62290362954E+007, +4.65145827852E+001, +3.40177892942E+002
+1.63540675845E+007, +4.58855798263E+001, +3.42887070246E+002
+1.64790988736E+007, +4.56183556115E+001, +3.46424623492E+002
+1.66041301627E+007, +4.68401984641E+001, +3.49532666481E+002
+1.67291614518E+007, +4.58001870173E+001, +3.51815623909E+002
+1.68541927409E+007, +4.63376859596E+001, +3.55229146971E+002
+1.69792240300E+007, +4.69210229426E+001, +3.57877426536E+002
+1.71042553191E+007, +4.55171317918E+001, +3.61600861743E+002
+1.72292866083E+007, +4.67335444740E+001, +3.64115767016E+002
+1.73543178974E+007, +4.57339644109E+001, +3.67970366931E+002
+1.74793491865E+007, +4.65153254459E+001, +3.70897906555E+002
+1.76043804756E+007, +4.64573854682E+001, +3.74448125099E+002
+1.77294117647E+007, +4.64494304347E+001, +3.77465286148E+002
+1.78544430538E+007, +4.70734929786E+001, +3.80136294546E+002
+1.79794743429E+007, +4.59382605867E+001, +3.83285045113E+002
+1.81045056320E+007, +4.73199058190E+001, +3.87518897309E+002
+1.82295369212E+007, +4.75162637784E+001, +3.89504625825E+002
+1.83545682103E+007, +4.70373232764E+001, +3.93083346032E+002
+1.84795994994E+007, +4.71612655412E+001, +3.97527283481E+002
+1.86046307885E+007, +4.77282394715E+001, +3.99144426560E+002
+1.87296620776E+007, +4.81432664626E+001, +4.03280662767E+002
+1.88546933667E+007, +4.79022603581E+001, +4.05875896801E+002
+1.89797246558E+007, +4.78540687237E+001, +4.09502154985E+002
+1.91047559449E+007, +4.85457334346E+001, +4.12795494798E+002
+1.92297872340E+007, +4.85452547268E+001, +4.17070853802E+002
+1.93548185232E+007, +4.81511029900E+001, +4.19263614066E+002
+1.94798498123E+007, +4.85839947013E+001, +4.22790887788E+002
+1.96048811014E+007, +4.82522694645E+001, +4.26978892567E+002
+1.97299123905E+007, +4.93239767679E+001, +4.29873821068E+002
+1.98549436796E+007, +4.97650445362E+001, +4.33107155424E+002
+1.99799749687E+007, +4.96545695014E+001, +4.36608459358E+002
+2.01050062578E+007, +4.98941519328E+001, +4.40440344008E+002
+2.02300375469E+007, +4.97291097940E+001, +4.42223673667E+002
+2.03550688360E+007, +4.93081762797E+001, +4.46215313108E+002
+2.04801001252E+007, +4.86576887366E+001, +4.49956282023E+002
+2.06051314143E+007, +4.92356263371E+001, +4.54183810733E+002
+2.07301627034E+007, +5.00870796739E+001, +4.57810075361E+002
+2.08551939925E+007, +5.03583999753E+001, +4.61317169880E+002
+2.09802252816E+007, +5.01031232001E+001, +4.65132462105E+002
+2.11052565707E+007, +5.13085326657E+001, +4.68613805385E+002
+2.12302878598E+007, +5.02817959308E+001, +4.72078559874E+002
+2.13553191489E+007, +4.99996595697E+001, +4.74796980007E+002
+2.14803504380E+007, +5.20047213295E+001, +4.77922426182E+002
+2.16053817272E+007, +5.12474660348E+001, +4.83726069477E+002
+2.17304130163E+007, +5.16188136555E+001, +4.87006825583E+002
+2.18554443054E+007, +5.16567881722E+001, +4.88827100559E+002
+2.19804755945E+007, +5.20441586502E+001, +4.94032194779E+002
+2.21055068836E+007, +5.17548348288E+001, +4.97975099914E+002
+2.22305381727E+007, +5.26185241353E+001, +5.00519531722E+002
+2.23555694618E+007, +5.30960833655E+001, +5.05650252179E+002
+2.24806007509E+007, +5.33227055387E+001, +5.08739915749E+002
+2.26056320401E+007, +5.41192934183E+001, +5.12221134012E+002
+2.27306633292E+007, +5.48913878866E+001, +5.14682338012E+002
+2.28556946183E+007, +5.37854986756E+001, +5.20441225799E+002
+2.29807259074E+007, +5.49944920119E+001, +5.22480150465E+002
+2.31057571965E+007, +5.37749320883E+001, +5.28092541575E+002
+2.32307884856E+007, +5.49922757843E+001, +5.31613520160E+002
+2.33558197747E+007, +5.57213693105E+001, +5.34074430789E+002
+2.34808510638E+007, +5.69569443946E+001, +5.38169934805E+002
+2.36058823529E+007, +5.66970293448E+001, +5.41313386817E+002
+2.37309136421E+007, +5.71940579599E+001, +5.45281013668E+002
+2.38559449312E+007, +5.66808466268E+001, +5.50237846429E+002
+2.39809762203E+007, +5.63884235198E+001, +5.54018767717E+002
+2.41060075094E+007, +5.61733686637E+001, +5.56682312030E+002
+2.42310387985E+007, +5.79247845486E+001, +5.61134717172E+002
+2.43560700876E+007, +5.88449787504E+001, +5.64409626844E+002
+2.44811013767E+007, +5.62620319258E+001, +5.68051870241E+002
+2.46061326658E+007, +5.80544432393E+001, +5.73052145456E+002
+2.47311639549E+007, +5.86141275090E+001, +5.77238699254E+002
+2.48561952441E+007, +5.85901048534E+001, +5.80430459449E+002
+2.49812265332E+007, +5.85181329226E+001, +5.85852048828E+002
+2.51062578223E+007, +5.93550703346E+001, +5.88483911204E+002
+2.52312891114E+007, +6.03021043347E+001, +5.93562366394E+002
+2.53563204005E+007, +5.79555615960E+001, +5.97446919505E+002
+2.54813516896E+007, +5.91634319690E+001, +6.02666525001E+002
+2.56063829787E+007, +5.96387779799E+001, +6.08607527221E+002
+2.57314142678E+007, +6.09502891226E+001, +6.11318579346E+002
+2.58564455569E+007, +5.89022080761E+001, +6.13758268898E+002
+2.59814768461E+007, +6.14092021427E+001, +6.20090645292E+002
+2.61065081352E+007, +5.72865644159E+001, +6.23055898155E+002
+2.62315394243E+007, +5.98249200523E+001, +6.27386871557E+002
+2.63565707134E+007, +5.96537562640E+001, +6.33583802508E+002
+2.64816020025E+007, +6.09650198612E+001, +6.35522446348E+002
+2.66066332916E+007, +6.20289250824E+001, +6.42985093950E+002
+2.67316645807E+007, +6.24093235843E+001, +6.45455407610E+002
+2.68566958698E+007, +6.16344792547E+001, +6.51542405692E+002
+2.69817271589E+007, +6.08377800930E+001, +6.55001593989E+002
+2.71067584481E+007, +6.43219068911E+001, +6.59825988972E+002
+2.72317897372E+007, +6.37077925904E+001, +6.65360347928E+002
+2.73568210263E+007, +6.34492883517E+001, +6.68067332372E+002
+2.74818523154E+007, +6.17222284555E+001, +6.70750350981E+002
+2.76068836045E+007, +6.50551741019E+001, +6.76964632593E+002
+2.77319148936E+007, +6.40023289934E+001, +6.83316228894E+002
+2.78569461827E+007, +6.41037350093E+001, +6.86113835932E+002
+2.79819774718E+007, +6.33965139288E+001, +6.94188900379E+002
+2.81070087610E+007, +6.53106117307E+001, +6.97336464766E+002
+2.82320400501E+007, +6.30740599279E+001, +6.99292515118E+002
+2.83570713392E+007, +6.59678721128E+001, +7.07103217490E+002
+2.84821026283E+007, +6.59297635227E+001, +7.13501092209E+002
+2.86071339174E+007, +6.47915644683E+001, +7.16345997060E+002
+2.87321652065E+007, +6.69666581538E+001, +7.22390069817E+002
+2.88571964956E+007, +6.80491049869E+001, +7.28066026500E+002
+2.89822277847E+007, +6.48789697156E+001, +7.31170333999E+002
+2.91072590738E+007, +6.80044812861E+001, +7.40934033478E+002
+2.92322903630E+007, +6.50052395286E+001, +7.42047461415E+002
+2.93573216521E+007, +6.81448825678E+001, +7.48561371895E+002
+2.94823529412E+007, +6.71720651318E+001, +7.55412104109E+002
+2.96073842303E+007, +6.57969156103E+001, +7.60159712237E+002
+2.97324155194E+007, +6.94141112379E+001, +7.66445984466E+002
+2.98574468085E+007, +6.74391502572E+001, +7.69252127488E+002
+2.99824780976E+007, +6.91679900031E+001, +7.76079552170E+002
+3.01075093867E+007, +6.59692488331E+001, +7.80634406463E+002
+3.02325406758E+007, +7.08791721920E+001, +7.87570912039E+002
+3.03575719650E+007, +7.09385744635E+001, +7.94103656985E+002
+3.04826032541E+007, +6.88086356843E+001, +7.95274082971E+002
+3.06076345432E+007, +7.22700204389E+001, +8.05600674251E+002
+3.07326658323E+007, +6.87840992301E+001, +8.09906606247E+002
+3.08576971214E+007, +6.77228187585E+001, +8.19045473820E+002
+3.09827284105E+007, +7.19137644894E+001, +8.20179525093E+002
+3.11077596996E+007, +6.93739233033E+001, +8.29735225795E+002
+3.12327909887E+007, +7.19909376849E+001, +8.31507189502E+002
+3.13578222778E+007, +7.27961884346E+001, +8.39516759027E+002
+3.14828535670E+007, +7.42785995148E+001, +8.43548346339E+002
+3.16078848561E+007, +7.33252521750E+001, +8.49633237779E+002
+3.17329161452E+007, +7.40627334253E+001, +8.56207049222E+002
+3.18579474343E+007, +7.71803812774E+001, +8.64622715142E+002
+3.19829787234E+007, +7.60321828108E+001, +8.71851361986E+002
+3.21080100125E+007, +7.52036140558E+001, +8.78463146088E+002
+3.22330413016E+007, +7.49096067027E+001, +8.82889450467E+002
+3.23580725907E+007, +7.75766580669E+001, +8.91971017097E+002
+3.24831038798E+007, +7.44915824138E+001, +8.97784176142E+002
+3.26081351690E+007, +7.57398892254E+001, +9.03854779476E+002
+3.27331664581E+007, +7.54873424422E+001, +9.10193595185E+002
+3.28581977472E+007, +8.07028340810E+001, +9.15323164565E+002
+3.29832290363E+007, +7.97415840403E+001, +9.19112544509E+002
+3.31082603254E+007, +8.25395731227E+001, +9.28279553131E+002
+3.32332916145E+007, +8.32132949479E+001, +9.36775369437E+002
+3.33583229036E+007, +8.56527267747E+001, +9.45569872718E+002
+3.34833541927E+007, +8.15257163090E+001, +9.49870724176E+002
+3.36083854819E+007, +8.19243364745E+001, +9.58566911086E+002
+3.37334167710E+007, +8.20529135794E+001, +9.65588878321E+002
+3.38584480601E+007, +8.16678566957E+001, +9.73042353440E+002
+3.39834793492E+007, +8.10911265057E+001, +9.77841997107E+002
+3.41085106383E+007, +8.81116595662E+001, +9.86843346911E+002
+3.42335419274E+007, +8.75556711734E+001, +9.95652559300E+002
+3.43585732165E+007, +8.48347959294E+001, +1.00278147221E+003
+3.44836045056E+007, +8.51209735219E+001, +1.00787252903E+003
+3.46086357947E+007, +9.08236843244E+001, +1.01482718841E+003
+3.47336670839E+007, +9.08230560001E+001, +1.02330121536E+003
+3.48586983730E+007, +8.81997439163E+001, +1.03232351375E+003
+3.49837296621E+007, +8.88414890855E+001, +1.04825253297E+003
+3.51087609512E+007, +8.98442625645E+001, +1.04744480746E+003
+3.52337922403E+007, +9.38954784723E+001, +1.05661828883E+003
+3.53588235294E+007, +9.39933591025E+001, +1.06459717116E+003
+3.54838548185E+007, +1.00750374349E+002, +1.07603567163E+003
+3.56088861076E+007, +9.85058095109E+001, +1.08178155132E+003
+3.57339173967E+007, +9.43583740962E+001, +1.08891436290E+003
+3.58589486859E+007, +9.88248079410E+001, +1.09759359993E+003
+3.59839799750E+007, +9.66379716265E+001, +1.10886712678E+003
+3.61090112641E+007, +9.99785381978E+001, +1.11347553752E+003
+3.62340425532E+007, +9.63361761013E+001, +1.13062968682E+003
+3.63590738423E+007, +9.67707463115E+001, +1.13457900711E+003
+3.64841051314E+007, +9.78043222959E+001, +1.14530385765E+003
+3.66091364205E+007, +9.91750617408E+001, +1.15160297014E+003
+3.67341677096E+007, +1.07169139813E+002, +1.16049330642E+003
+3.68591989987E+007, +1.02755068310E+002, +1.17436166967E+003
+3.69842302879E+007, +1.02994376860E+002, +1.17540517336E+003
+3.71092615770E+007, +1.04773945015E+002, +1.18718698942E+003
+3.72342928661E+007, +1.03007088989E+002, +1.20237280123E+003
+3.73593241552E+007, +1.09089259342E+002, +1.21611305875E+003
+3.74843554443E+007, +1.05332971252E+002, +1.21798957174E+003
+3.76093867334E+007, +1.13481847402E+002, +1.23411972278E+003
+3.77344180225E+007, +1.08449381958E+002, +1.23360764285E+003
+3.78594493116E+007, +1.07813762626E+002, +1.24771057580E+003
+3.79844806008E+007, +1.09079308366E+002, +1.25755413143E+003
+3.81095118899E+007, +1.08905533021E+002, +1.27933086266E+003
+3.82345431790E+007, +1.13884056065E+002, +1.28003643748E+003
+3.83595744681E+007, +1.16793962276E+002, +1.30064951677E+003
+3.84846057572E+007, +1.12197238563E+002, +1.30159732798E+003
+3.86096370463E+007, +1.16465075306E+002, +1.31638565196E+003
+3.87346683354E+007, +1.25702428609E+002, +1.33493348351E+003
+3.88596996245E+007, +1.21299874184E+002, +1.34885254183E+003
+3.89847309136E+007, +1.25942280266E+002, +1.35020066748E+003
+3.91097622028E+007, +1.26175245060E+002, +1.36094964733E+003
+3.92347934919E+007, +1.31023449573E+002, +1.37659141820E+003
+3.93598247810E+007, +1.26225572771E+002, +1.38334046915E+003
+3.94848560701E+007, +1.34284467259E+002, +1.40296408596E+003
+3.96098873592E+007, +1.33064639023E+002, +1.41878280270E+003
+3.97349186483E+007, +1.30600442940E+002, +1.41771684016E+003
+3.98599499374E+007, +1.34085811269E+002, +1.44456569394E+003
+3.99849812265E+007, +1.43800598489E+002, +1.45056355958E+003
+4.01100125156E+007, +1.51596717347E+002, +1.46723681295E+003
