"# Channel 1"
"# Trace 1"
Frequency, Formatted Data, Formatted Data
+1.00000000000E+005, +2.23715766605E+001, +1.91876133619E+000
+2.25031289111E+005, +2.23514868137E+001, +4.39128499739E+000
+3.50062578223E+005, +2.23464165468E+001, +6.79797322295E+000
+4.75093867334E+005, +2.23778684040E+001, +9.19562282870E+000
+6.00125156446E+005, +2.23886572872E+001, +1.15587012100E+001
+7.25156445557E+005, +2.23841288183E+001, +1.39863170787E+001
+8.50187734668E+005, +2.24038173658E+001, +1.64209371525E+001
+9.75219023780E+005, +2.24051887272E+001, +1.87807655685E+001
+1.10025031289E+006, +2.24157754154E+001, +2.11868656950E+001
+1.22528160200E+006, +2.24230664231E+001, +2.35988715927E+001
+1.35031289111E+006, +2.24760381265E+001, +2.60133291383E+001
+1.47534418023E+006, +2.24450947647E+001, +2.83493176658E+001
+1.60037546934E+006, +2.24236648119E+001, +3.07816709612E+001
+1.72540675845E+006, +2.24610386711E+001, +3.31485418405E+001
+1.85043804756E+006, +2.23923691887E+001, +3.56056343755E+001
+1.97546933667E+006, +2.23799477088E+001, +3.79677367157E+001
+2.10050062578E+006, +2.24477383316E+001, +4.03955566595E+001
+2.22553191489E+006, +2.24233258026E+001, +4.26946276801E+001
+2.35056320401E+006, +2.23580324466E+001, +4.51696208215E+001
+2.47559449312E+006, +2.24708828833E+001, +4.76081232375E+001
+2.60062578223E+006, +2.24920836236E+001, +4.99924346216E+001
+2.72565707134E+006, +2.25180395379E+001, +5.24276605148E+001
+2.85068836045E+006, +2.24864273139E+001, +5.48537142781E+001
+2.97571964956E+006, +2.23568286277E+001, +5.71814487011E+001
+3.10075093867E+006, +2.25839733301E+001, +5.96499340681E+001
+3.22578222778E+006, +2.25972121156E+001, +6.19794485729E+001
+3.35081351690E+006, +2.25262698595E+001, +6.44569399648E+001
+3.47584480601E+006, +2.25324405150E+001, +6.67992665111E+001
+3.60087609512E+006, +2.25195520219E+001, +6.93520542415E+001
+3.72590738423E+006, +2.25322937372E+001, +7.18076012284E+001
+3.85093867334E+006, +2.24155486288E+001, +7.41442262854E+001
+3.97596996245E+006, +2.25537539245E+001, +7.64439493755E+001
+4.10100125156E+006, +2.27121405662E+001, +7.89996478061E+001
+4.22603254068E+006, +2.24671058122E+001, +8.13679697343E+001
+4.35106382979E+006, +2.25964254368E+001, +8.38027834698E+001
+4.47609511890E+006, +2.24426522399E+001, +8.64509370997E+001
+4.60112640801E+006, +2.25459979181E+001, +8.86953290323E+001
+4.72615769712E+006, +2.26041017713E+001, +9.11695536735E+001
+4.85118898623E+006, +2.26919260692E+001, +9.34705317927E+001
+4.97622027534E+006, +2.25331821572E+001, +9.60300836610E+001
+5.10125156446E+006, +2.25477094889E+001, +9.82198374281E+001
+5.22628285357E+006, +2.26718013467E+001, +1.00729635607E+002
+5.35131414268E+006, +2.26614810362E+001, +1.03280787437E+002
+5.47634543179E+006, +2.26020478662E+001, +1.05696318901E+002
+5.60137672090E+006, +2.27011399162E+001, +1.08296762252E+002
+5.72640801001E+006, +2.26449088814E+001, +1.10699945973E+002
+5.85143929912E+006, +2.25754346552E+001, +1.13097904075E+002
+5.97647058824E+006, +2.27047460763E+001, +1.15636691140E+002
+6.10150187735E+006, +2.27748471837E+001, +1.17988775009E+002
+6.22653316646E+006, +2.28688349771E+001, +1.20431690229E+002
+6.35156445557E+006, +2.29183620070E+001, +1.23001645388E+002
+6.47659574468E+006, +2.29528614844E+001, +1.25479032071E+002
+6.60162703379E+006, +2.29938220737E+001, +1.28047078323E+002
+6.72665832290E+006, +2.28892048103E+001, +1.30390161689E+002
+6.85168961202E+006, +2.30779436823E+001, +1.32899920759E+002
+6.97672090113E+006, +2.30823776922E+001, +1.35627132682E+002
+7.10175219024E+006, +2.30344069903E+001, +1.37900573410E+002
+7.22678347935E+006, +2.31109398214E+001, +1.40403862437E+002
+7.35181476846E+006, +2.32324640369E+001, +1.42860343775E+002
+7.47684605757E+006, +2.31832327156E+001, +1.45327885489E+002
+7.60187734668E+006, +2.32713205590E+001, +1.47791268685E+002
+7.72690863579E+006, +2.31656369279E+001, +1.50491207800E+002
+7.85193992491E+006, +2.31849704418E+001, +1.53051575467E+002
+7.97697121402E+006, +2.33567502696E+001, +1.55358447036E+002
+8.10200250313E+006, +2.34587224951E+001, +1.58157697473E+002
+8.22703379224E+006, +2.30763105716E+001, +1.60529302407E+002
+8.35206508135E+006, +2.33835319843E+001, +1.63240902800E+002
+8.47709637046E+006, +2.33066514501E+001, +1.65485418894E+002
+8.60212765957E+006, +2.34848591671E+001, +1.67968697345E+002
+8.72715894869E+006, +2.32437963344E+001, +1.70661248126E+002
+8.85219023780E+006, +2.35988691759E+001, +1.73157417725E+002
+8.97722152691E+006, +2.36116203257E+001, +1.75830396883E+002
+9.10225281602E+006, +2.32433408685E+001, +1.78387457965E+002
+9.22728410513E+006, +2.34249691500E+001, +1.80858662464E+002
+9.35231539424E+006, +2.34907964107E+001, +1.83219726773E+002
+9.47734668335E+006, +2.36495920738E+001, +1.85777967573E+002
+9.60237797247E+006, +2.35353005416E+001, +1.88697687183E+002
+9.72740926158E+006, +2.38033683560E+001, +1.90983338199E+002
+9.85244055069E+006, +2.36009207665E+001, +1.93641756122E+002
+9.97747183980E+006, +2.35080292101E+001, +1.96149434352E+002
+1.01025031289E+007, +2.35052607722E+001, +1.98898197608E+002
+1.02275344180E+007, +2.37575191170E+001, +2.01370838963E+002
+1.03525657071E+007, +2.37830107090E+001, +2.03937334701E+002
+1.04775969962E+007, +2.36691127979E+001, +2.06531137667E+002
+1.06026282854E+007, +2.37871835867E+001, +2.09119392736E+002
+1.07276595745E+007, +2.36727731180E+001, +2.11858103966E+002
+1.08526908636E+007, +2.40538519897E+001, +2.14154286878E+002
+1.09777221527E+007, +2.37697103337E+001, +2.16721468414E+002
+1.11027534418E+007, +2.37249798314E+001, +2.19652313347E+002
+1.12277847309E+007, +2.41013624945E+001, +2.22062229805E+002
+1.13528160200E+007, +2.39662106581E+001, +2.25000087378E+002
+1.14778473091E+007, +2.38683937658E+001, +2.27595713466E+002
+1.16028785982E+007, +2.38989965312E+001, +2.30150600564E+002
+1.17279098874E+007, +2.38488592780E+001, +2.32813798323E+002
+1.18529411765E+007, +2.42197679101E+001, +2.35519083701E+002
+1.19779724656E+007, +2.39790245847E+001, +2.38051995872E+002
+1.21030037547E+007, +2.39472638071E+001, +2.40666562983E+002
+1.22280350438E+007, +2.42700280100E+001, +2.43357873127E+002
+1.23530663329E+007, +2.42436679894E+001, +2.46301439257E+002
+1.24780976220E+007, +2.40262788323E+001, +2.48617907704E+002
+1.26031289111E+007, +2.39965738925E+001, +2.51280864939E+002
+1.27281602003E+007, +2.41595120934E+001, +2.54336931460E+002
+1.28531914894E+007, +2.45684350886E+001, +2.56823286970E+002
+1.29782227785E+007, +2.42096072097E+001, +2.60203255854E+002
+1.31032540676E+007, +2.36300843705E+001, +2.62548680472E+002
+1.32282853567E+007, +2.45111857984E+001, +2.65181863331E+002
+1.33533166458E+007, +2.43541777283E+001, +2.67879449140E+002
+1.34783479349E+007, +2.41829279805E+001, +2.70567932169E+002
+1.36033792240E+007, +2.43622340894E+001, +2.73444522468E+002
+1.37284105131E+007, +2.43720146301E+001, +2.76272974337E+002
+1.38534418023E+007, +2.47045462333E+001, +2.78963129815E+002
+1.39784730914E+007, +2.43724124130E+001, +2.81844675393E+002
+1.41035043805E+007, +2.45487956241E+001, +2.84471947043E+002
+1.42285356696E+007, +2.41821583783E+001, +2.87409552112E+002
+1.43535669587E+007, +2.46432008265E+001, +2.90091756322E+002
+1.44785982478E+007, +2.41524468139E+001, +2.92467302933E+002
+1.46036295369E+007, +2.51513326822E+001, +2.95676524038E+002
+1.47286608260E+007, +2.42239170080E+001, +2.98658602827E+002
+1.48536921151E+007, +2.47569288388E+001, +3.01398062268E+002
+1.49787234043E+007, +2.45524552875E+001, +3.04137532440E+002
+1.51037546934E+007, +2.49528753505E+001, +3.07198857913E+002
+1.52287859825E+007, +2.46360531043E+001, +3.09788304553E+002
+1.53538172716E+007, +2.47085924078E+001, +3.12762877156E+002
+1.54788485607E+007, +2.48214484880E+001, +3.15329678695E+002
+1.56038798498E+007, +2.51264776147E+001, +3.18894507377E+002
+1.57289111389E+007, +2.51117648218E+001, +3.21371542825E+002
+1.58539424280E+007, +2.51080762262E+001, +3.24319695852E+002
+1.59789737171E+007, +2.52378110175E+001, +3.26704938954E+002
+1.61040050063E+007, +2.54221545221E+001, +3.30784799901E+002
+1.62290362954E+007, +2.51709227845E+001, +3.32932387357E+002
+1.63540675845E+007, +2.52634041914E+001, +3.36173937469E+002
+1.64790988736E+007, +2.54476883085E+001, +3.38379682597E+002
+1.66041301627E+007, +2.51945112221E+001, +3.41442798816E+002
+1.67291614518E+007, +2.48751644640E+001, +3.45124135100E+002
+1.68541927409E+007, +2.57989551689E+001, +3.46833854918E+002
+1.69792240300E+007, +2.51606612337E+001, +3.50150840179E+002
+1.71042553191E+007, +2.52681415524E+001, +3.53873315566E+002
+1.72292866083E+007, +2.46322942321E+001, +3.57168719711E+002
+1.73543178974E+007, +2.49976267589E+001, +3.59669976013E+002
+1.74793491865E+007, +2.50450031219E+001, +3.62313666492E+002
+1.76043804756E+007, +2.46767387577E+001, +3.65720085786E+002
+1.77294117647E+007, +2.53862548106E+001, +3.69878518120E+002
+1.78544430538E+007, +2.52414811559E+001, +3.71908852039E+002
+1.79794743429E+007, +2.58634837618E+001, +3.74691868375E+002
+1.81045056320E+007, +2.56264792811E+001, +3.78299631087E+002
+1.82295369212E+007, +2.56287295928E+001, +3.81391526036E+002
+1.83545682103E+007, +2.63811299501E+001, +3.84486668804E+002
+1.84795994994E+007, +2.63875562768E+001, +3.87700044129E+002
+1.86046307885E+007, +2.63570203681E+001, +3.89623968099E+002
+1.87296620776E+007, +2.65119960397E+001, +3.93347263696E+002
+1.88546933667E+007, +2.61060624480E+001, +3.97672679397E+002
+1.89797246558E+007, +2.66816568424E+001, +4.00527330995E+002
+1.91047559449E+007, +2.61726666042E+001, +4.03376476133E+002
+1.92297872340E+007, +2.60953246290E+001, +4.05612795798E+002
+1.93548185232E+007, +2.76237245075E+001, +4.10183844003E+002
+1.94798498123E+007, +2.64280530083E+001, +4.12422640546E+002
+1.96048811014E+007, +2.73074335028E+001, +4.15497286480E+002
+1.97299123905E+007, +2.61801614242E+001, +4.19567407056E+002
+1.98549436796E+007, +2.65970687088E+001, +4.21575426230E+002
+1.99799749687E+007, +2.67063233870E+001, +4.25401305201E+002
+2.01050062578E+007, +2.68214815765E+001, +4.28909793012E+002
+2.02300375469E+007, +2.71319648736E+001, +4.32217156769E+002
+2.03550688360E+007, +2.74792397543E+001, +4.36006580838E+002
+2.04801001252E+007, +2.75459282167E+001, +4.38476867458E+002
+2.06051314143E+007, +2.71916439299E+001, +4.40946323433E+002
+2.07301627034E+007, +2.77559178741E+001, +4.45154585148E+002
+2.08551939925E+007, +2.78793460994E+001, +4.48914626640E+002
+2.09802252816E+007, +2.83357903183E+001, +4.51653279121E+002
+2.11052565707E+007, +2.76171702177E+001, +4.56728947802E+002
+2.12302878598E+007, +2.83204299473E+001, +4.59600914916E+002
+2.13553191489E+007, +2.88297830204E+001, +4.62502614017E+002
+2.14803504380E+007, +2.87114400079E+001, +4.65021878356E+002
+2.16053817272E+007, +2.85746762269E+001, +4.69044480636E+002
+2.17304130163E+007, +2.86428416666E+001, +4.72896445547E+002
+2.18554443054E+007, +2.81965424737E+001, +4.76207388848E+002
+2.19804755945E+007, +2.88461881135E+001, +4.80194496725E+002
+2.21055068836E+007, +2.96199233687E+001, +4.84241226442E+002
+2.22305381727E+007, +2.94946059949E+001, +4.86968082603E+002
+2.23555694618E+007, +2.95157531339E+001, +4.90076979010E+002
+2.24806007509E+007, +2.94177626988E+001, +4.93352555606E+002
+2.26056320401E+007, +2.95752202859E+001, +4.97258802007E+002
+2.27306633292E+007, +2.94468767505E+001, +5.01808330486E+002
+2.28556946183E+007, +3.21195009949E+001, +5.03816745088E+002
+2.29807259074E+007, +2.93435459764E+001, +5.09810137649E+002
+2.31057571965E+007, +3.05715114993E+001, +5.12099037735E+002
+2.32307884856E+007, +3.08276735972E+001, +5.14496285002E+002
+2.33558197747E+007, +3.18644872636E+001, +5.19077135607E+002
+2.34808510638E+007, +3.21081010341E+001, +5.20172912277E+002
+2.36058823529E+007, +3.05410838030E+001, +5.26484900631E+002
+2.37309136421E+007, +3.21414773936E+001, +5.31274700418E+002
+2.38559449312E+007, +3.27225995984E+001, +5.33233887434E+002
+2.39809762203E+007, +3.26308997743E+001, +5.35873054721E+002
+2.41060075094E+007, +3.39981581344E+001, +5.39626089529E+002
+2.42310387985E+007, +3.20908218092E+001, +5.43086397316E+002
+2.43560700876E+007, +3.39770713824E+001, +5.46730456122E+002
+2.44811013767E+007, +3.41138805615E+001, +5.50395053273E+002
+2.46061326658E+007, +3.33814466594E+001, +5.54394232420E+002
+2.47311639549E+007, +3.35685456780E+001, +5.58089620724E+002
+2.48561952441E+007, +3.30996520079E+001, +5.61795986295E+002
+2.49812265332E+007, +3.39038964071E+001, +5.64547852948E+002
+2.51062578223E+007, +3.53073558152E+001, +5.68839159484E+002
+2.52312891114E+007, +3.48163384838E+001, +5.73293492960E+002
+2.53563204005E+007, +3.45085395697E+001, +5.78354666127E+002
+2.54813516896E+007, +3.34762921369E+001, +5.80572793103E+002
+2.56063829787E+007, +3.40794450004E+001, +5.84312158787E+002
+2.57314142678E+007, +3.48716439713E+001, +5.86347903684E+002
+2.58564455569E+007, +3.53683708363E+001, +5.93138388303E+002
+2.59814768461E+007, +3.33381299171E+001, +5.96913309315E+002
+2.61065081352E+007, +3.32455709322E+001, +6.01457670353E+002
+2.62315394243E+007, +3.27935762334E+001, +6.04794098185E+002
+2.63565707134E+007, +3.41206969433E+001, +6.08147105882E+002
+2.64816020025E+007, +3.41410721356E+001, +6.12995148004E+002
+2.66066332916E+007, +3.45742747278E+001, +6.16516329386E+002
+2.67316645807E+007, +3.42628455904E+001, +6.23264227927E+002
+2.68566958698E+007, +3.38334634876E+001, +6.25966273055E+002
+2.69817271589E+007, +3.49331472692E+001, +6.29936908329E+002
+2.71067584481E+007, +3.60683317328E+001, +6.35517250515E+002
+2.72317897372E+007, +3.50333798083E+001, +6.39722321047E+002
+2.73568210263E+007, +3.49011258636E+001, +6.42704368223E+002
+2.74818523154E+007, +3.54914596181E+001, +6.45494328142E+002
+2.76068836045E+007, +3.76106313069E+001, +6.51115275233E+002
+2.77319148936E+007, +3.69363634437E+001, +6.53952731366E+002
+2.78569461827E+007, +3.64337783724E+001, +6.58126848863E+002
+2.79819774718E+007, +3.74775894584E+001, +6.63774521802E+002
+2.81070087610E+007, +3.63128140780E+001, +6.69389669650E+002
+2.82320400501E+007, +3.25316512876E+001, +6.71425807132E+002
+2.83570713392E+007, +3.59791306747E+001, +6.76700654435E+002
+2.84821026283E+007, +3.68861628051E+001, +6.81847463983E+002
+2.86071339174E+007, +3.67859879997E+001, +6.85290522969E+002
+2.87321652065E+007, +3.45783420204E+001, +6.93070587529E+002
+2.88571964956E+007, +3.63804220722E+001, +6.96288076262E+002
+2.89822277847E+007, +3.77051654595E+001, +7.00257947504E+002
+2.91072590738E+007, +3.80718639173E+001, +7.07189104359E+002
+2.92322903630E+007, +3.83979885774E+001, +7.09094266597E+002
+2.93573216521E+007, +3.95793344598E+001, +7.13284405351E+002
+2.94823529412E+007, +3.52867536757E+001, +7.19408876066E+002
+2.96073842303E+007, +3.87153352131E+001, +7.25392773106E+002
+2.97324155194E+007, +3.56418104479E+001, +7.28084783268E+002
+2.98574468085E+007, +3.76957181954E+001, +7.35774891798E+002
+2.99824780976E+007, +3.69395237806E+001, +7.40712130247E+002
+3.01075093867E+007, +3.69448278667E+001, +7.45071426383E+002
+3.02325406758E+007, +3.79722149261E+001, +7.50148900462E+002
+3.03575719650E+007, +3.86785833472E+001, +7.57120965994E+002
+3.04826032541E+007, +3.70772157049E+001, +7.58103867282E+002
+3.06076345432E+007, +3.83932809616E+001, +7.67398123339E+002
+3.07326658323E+007, +3.91218042405E+001, +7.71032646120E+002
+3.08576971214E+007, +3.75793083859E+001, +7.77147197460E+002
+3.09827284105E+007, +3.85369575020E+001, +7.80146381543E+002
+3.11077596996E+007, +3.98049911654E+001, +7.85549896469E+002
+3.12327909887E+007, +3.95453159047E+001, +7.87398734318E+002
+3.13578222778E+007, +3.96259639773E+001, +7.96385569107E+002
+3.14828535670E+007, +3.84064333999E+001, +8.03267497563E+002
+3.16078848561E+007, +3.75046685683E+001, +8.05205750149E+002
+3.17329161452E+007, +3.97031571310E+001, +8.10528652702E+002
+3.18579474343E+007, +3.64372756534E+001, +8.21286130790E+002
+3.19829787234E+007, +4.05164707084E+001, +8.23429116499E+002
+3.21080100125E+007, +3.94379429671E+001, +8.30259027239E+002
+3.22330413016E+007, +4.02458319623E+001, +8.34922667315E+002
+3.23580725907E+007, +4.06437248549E+001, +8.39424472430E+002
+3.24831038798E+007, +4.12396837117E+001, +8.44541816540E+002
+3.26081351690E+007, +4.33705110826E+001, +8.51914445283E+002
+3.27331664581E+007, +3.92663670282E+001, +8.54787506807E+002
+3.28581977472E+007, +4.32818489375E+001, +8.64150597574E+002
+3.29832290363E+007, +4.33951669814E+001, +8.71792111394E+002
+3.31082603254E+007, +4.46764405598E+001, +8.75622942553E+002
+3.32332916145E+007, +4.31990049266E+001, +8.81418843223E+002
+3.33583229036E+007, +4.34802241381E+001, +8.91434772667E+002
+3.34833541927E+007, +4.16851327308E+001, +8.95405498241E+002
+3.36083854819E+007, +4.61869168156E+001, +8.99665127330E+002
+3.37334167710E+007, +4.61084911627E+001, +9.08319438865E+002
+3.38584480601E+007, +4.57330386291E+001, +9.13922037557E+002
+3.39834793492E+007, +4.94527739650E+001, +9.15433312070E+002
+3.41085106383E+007, +4.44629638919E+001, +9.22494581048E+002
+3.42335419274E+007, +4.59891469668E+001, +9.31458904622E+002
+3.43585732165E+007, +5.10712654777E+001, +9.35085866632E+002
+3.44836045056E+007, +5.03249209448E+001, +9.43264460227E+002
+3.46086357947E+007, +4.49112800124E+001, +9.47315145895E+002
+3.47336670839E+007, +5.13061513399E+001, +9.53980419515E+002
+3.48586983730E+007, +4.88466218560E+001, +9.67425586062E+002
+3.49837296621E+007, +4.66378027579E+001, +9.71074911835E+002
+3.51087609512E+007, +4.93984938353E+001, +9.79609132186E+002
+3.52337922403E+007, +4.55446823610E+001, +9.86339569443E+002
+3.53588235294E+007, +4.92242393615E+001, +9.90094927208E+002
+3.54838548185E+007, +4.86577857055E+001, +9.96203414781E+002
+3.56088861076E+007, +5.05715853245E+001, +1.00376711484E+003
+3.57339173967E+007, +4.76876960458E+001, +1.01747626509E+003
+3.58589486859E+007, +4.87795592523E+001, +1.01725269317E+003
+3.59839799750E+007, +5.62073322838E+001, +1.02629683387E+003
+3.61090112641E+007, +5.09535760181E+001, +1.02993232864E+003
+3.62340425532E+007, +4.79968844097E+001, +1.04068913142E+003
+3.63590738423E+007, +5.70888887138E+001, +1.04787630068E+003
+3.64841051314E+007, +5.02417745020E+001, +1.05283497370E+003
+3.66091364205E+007, +5.10113875677E+001, +1.06508170879E+003
+3.67341677096E+007, +5.31417242068E+001, +1.07090578181E+003
+3.68591989987E+007, +5.24620039831E+001, +1.08301517244E+003
+3.69842302879E+007, +5.72155186426E+001, +1.08411096390E+003
+3.71092615770E+007, +5.80338896742E+001, +1.09351548712E+003
+3.72342928661E+007, +5.25260997538E+001, +1.10359175600E+003
+3.73593241552E+007, +6.02844601257E+001, +1.11066229767E+003
+3.74843554443E+007, +5.93079911896E+001, +1.11888972694E+003
+3.76093867334E+007, +5.60989701976E+001, +1.12417428135E+003
+3.77344180225E+007, +5.89025744649E+001, +1.13669946085E+003
+3.78594493116E+007, +5.23575849912E+001, +1.15029492822E+003
+3.79844806008E+007, +5.92925599052E+001, +1.15934796707E+003
+3.81095118899E+007, +5.89747748695E+001, +1.16411347672E+003
+3.82345431790E+007, +5.53712870363E+001, +1.17652207601E+003
+3.83595744681E+007, +6.33016785565E+001, +1.18639073916E+003
+3.84846057572E+007, +6.20123350405E+001, +1.18470630338E+003
+3.86096370463E+007, +6.38882081371E+001, +1.20357426424E+003
+3.87346683354E+007, +6.33734866065E+001, +1.20743756687E+003
+3.88596996245E+007, +6.30483718816E+001, +1.21972401686E+003
+3.89847309136E+007, +7.30796836400E+001, +1.22789447593E+003
+3.91097622028E+007, +6.26150859747E+001, +1.23965360525E+003
+3.92347934919E+007, +7.21253638750E+001, +1.24784057457E+003
+3.93598247810E+007, +6.49816326491E+001, +1.26134965924E+003
+3.94848560701E+007, +6.73087921695E+001, +1.26800539022E+003
+3.96098873592E+007, +6.67548228642E+001, +1.28285514767E+003
+3.97349186483E+007, +7.06976396985E+001, +1.27677824204E+003
+3.98599499374E+007, +6.44161895802E+001, +1.29992569462E+003
+3.99849812265E+007, +7.04615186055E+001, +1.30519772182E+003
+4.01100125156E+007, +7.41078870294E+001, +1.32469888285E+003
