"# Channel 1"
"# Trace 1"
Frequency, Formatted Data, Formatted Data
+1.00000000000E+005, +6.38284657777E+000, +2.19739218308E+000
+2.25031289111E+005, +6.49234171188E+000, +4.76260050829E+000
+3.50062578223E+005, +6.58875031665E+000, +7.35324002481E+000
+4.75093867334E+005, +6.61760328785E+000, +9.86193303432E+000
+6.00125156446E+005, +6.70072179897E+000, +1.24038248088E+001
+7.25156445557E+005, +6.77581025876E+000, +1.49005856764E+001
+8.50187734668E+005, +6.85029402355E+000, +1.73927975144E+001
+9.75219023780E+005, +6.85523660961E+000, +1.98889808347E+001
+1.10025031289E+006, +6.93352112259E+000, +2.23711677379E+001
+1.22528160200E+006, +7.05615811062E+000, +2.48805837014E+001
+1.35031289111E+006, +7.08867349055E+000, +2.73259545010E+001
+1.47534418023E+006, +7.08214984127E+000, +2.98354733201E+001
+1.60037546934E+006, +7.13891151869E+000, +3.23688385119E+001
+1.72540675845E+006, +7.18288434361E+000, +3.47763675354E+001
+1.85043804756E+006, +7.21489102897E+000, +3.72232433106E+001
+1.97546933667E+006, +7.20470907225E+000, +3.97141771306E+001
+2.10050062578E+006, +7.28184320278E+000, +4.22524963857E+001
+2.22553191489E+006, +7.28701345335E+000, +4.46754694256E+001
+2.35056320401E+006, +7.29876571663E+000, +4.71893847618E+001
+2.47559449312E+006, +7.34470638980E+000, +4.97534701811E+001
+2.60062578223E+006, +7.43757769438E+000, +5.21356808613E+001
+2.72565707134E+006, +7.38186206105E+000, +5.46665134331E+001
+2.85068836045E+006, +7.46073854272E+000, +5.71498721080E+001
+2.97571964956E+006, +7.35579175103E+000, +5.95660281323E+001
+3.10075093867E+006, +7.46855568875E+000, +6.21012312336E+001
+3.22578222778E+006, +7.54170351883E+000, +6.45835021918E+001
+3.35081351690E+006, +7.48114630595E+000, +6.70759348169E+001
+3.47584480601E+006, +7.58787818487E+000, +6.96862326893E+001
+3.60087609512E+006, +7.66199451321E+000, +7.21378489953E+001
+3.72590738423E+006, +7.69446290164E+000, +7.44784466201E+001
+3.85093867334E+006, +7.64844378148E+000, +7.70934051417E+001
+3.97596996245E+006, +7.79976908610E+000, +7.96012505080E+001
+4.10100125156E+006, +7.60149894941E+000, +8.19413659120E+001
+4.22603254068E+006, +7.70139599247E+000, +8.47118035886E+001
+4.35106382979E+006, +7.85235906488E+000, +8.71053255903E+001
+4.47609511890E+006, +7.77266948106E+000, +8.96075513718E+001
+4.60112640801E+006, +7.80377286460E+000, +9.21388549774E+001
+4.72615769712E+006, +7.74189221486E+000, +9.46230983045E+001
+4.85118898623E+006, +8.11370909346E+000, +9.71890218511E+001
+4.97622027534E+006, +8.06951172796E+000, +9.95992409134E+001
+5.10125156446E+006, +8.01936115175E+000, +1.02161155964E+002
+5.22628285357E+006, +8.16338656309E+000, +1.04663549921E+002
+5.35131414268E+006, +8.13613713604E+000, +1.07334712998E+002
+5.47634543179E+006, +8.21061190767E+000, +1.09777912107E+002
+5.60137672090E+006, +8.04729912449E+000, +1.12600126533E+002
+5.72640801001E+006, +8.29079257447E+000, +1.14963116158E+002
+5.85143929912E+006, +8.10785119262E+000, +1.17549049419E+002
+5.97647058824E+006, +8.52044124622E+000, +1.20115933684E+002
+6.10150187735E+006, +8.36829461082E+000, +1.22650696188E+002
+6.22653316646E+006, +8.28594592087E+000, +1.24959678724E+002
+6.35156445557E+006, +8.58683966476E+000, +1.27695545043E+002
+6.47659574468E+006, +8.66904620285E+000, +1.29975716946E+002
+6.60162703379E+006, +8.64718950768E+000, +1.32653431274E+002
+6.72665832290E+006, +8.73083616907E+000, +1.35270814974E+002
+6.85168961202E+006, +8.78688546786E+000, +1.37770388885E+002
+6.97672090113E+006, +8.84002546831E+000, +1.40352804294E+002
+7.10175219024E+006, +8.90927235199E+000, +1.42828478137E+002
+7.22678347935E+006, +9.11132454548E+000, +1.45441141810E+002
+7.35181476846E+006, +9.04889494586E+000, +1.48023530200E+002
+7.47684605757E+006, +9.01859136511E+000, +1.50610602140E+002
+7.60187734668E+006, +9.03837151976E+000, +1.53226652046E+002
+7.72690863579E+006, +9.12831523901E+000, +1.55812153706E+002
+7.85193992491E+006, +9.16201676980E+000, +1.58286535922E+002
+7.97697121402E+006, +9.18253130208E+000, +1.60913207461E+002
+8.10200250313E+006, +9.29064032271E+000, +1.63659706273E+002
+8.22703379224E+006, +9.22610663352E+000, +1.66114822356E+002
+8.35206508135E+006, +9.38494760462E+000, +1.68774763310E+002
+8.47709637046E+006, +9.47407078953E+000, +1.71520350203E+002
+8.60212765957E+006, +9.29096894329E+000, +1.73905192190E+002
+8.72715894869E+006, +9.35510934378E+000, +1.76605937920E+002
+8.85219023780E+006, +9.49125954664E+000, +1.79158843382E+002
+8.97722152691E+006, +9.56149089697E+000, +1.81932031406E+002
+9.10225281602E+006, +9.30205802077E+000, +1.84421451856E+002
+9.22728410513E+006, +9.65576225917E+000, +1.87031985184E+002
+9.35231539424E+006, +9.83638939437E+000, +1.89573704423E+002
+9.47734668335E+006, +9.89758745169E+000, +1.92225261480E+002
+9.60237797247E+006, +9.48079612375E+000, +1.94865975990E+002
+9.72740926158E+006, +9.67602441285E+000, +1.97460899299E+002
+9.85244055069E+006, +9.85108892654E+000, +2.00310764346E+002
+9.97747183980E+006, +9.78934856424E+000, +2.02859512312E+002
+1.01025031289E+007, +1.00771817873E+001, +2.05412649557E+002
+1.02275344180E+007, +9.92479685396E+000, +2.08094219846E+002
+1.03525657071E+007, +1.00033768288E+001, +2.10848136923E+002
+1.04775969962E+007, +9.66627758669E+000, +2.13625131788E+002
+1.06026282854E+007, +9.57673420772E+000, +2.16308644185E+002
+1.07276595745E+007, +9.87803462818E+000, +2.19022528841E+002
+1.08526908636E+007, +1.01267527118E+001, +2.21752847849E+002
+1.09777221527E+007, +9.93012790169E+000, +2.24309399062E+002
+1.11027534418E+007, +1.01665203919E+001, +2.27096349226E+002
+1.12277847309E+007, +9.96591108210E+000, +2.29813897311E+002
+1.13528160200E+007, +1.04105405580E+001, +2.32537983159E+002
+1.14778473091E+007, +9.76420839778E+000, +2.35382511035E+002
+1.16028785982E+007, +1.01641080232E+001, +2.38014747937E+002
+1.17279098874E+007, +1.03714653992E+001, +2.41090782292E+002
+1.18529411765E+007, +1.02433414421E+001, +2.43777127820E+002
+1.19779724656E+007, +9.87770922511E+000, +2.46291212469E+002
+1.21030037547E+007, +1.05093416120E+001, +2.48895054186E+002
+1.22280350438E+007, +1.03390041890E+001, +2.51846466238E+002
+1.23530663329E+007, +1.03219840910E+001, +2.54581496549E+002
+1.24780976220E+007, +1.02949564083E+001, +2.57523742717E+002
+1.26031289111E+007, +1.04275684756E+001, +2.59949120562E+002
+1.27281602003E+007, +1.03909217434E+001, +2.62900580398E+002
+1.28531914894E+007, +1.05730604550E+001, +2.65476055963E+002
+1.29782227785E+007, +1.05532783441E+001, +2.68846938564E+002
+1.31032540676E+007, +1.05495420329E+001, +2.71309916410E+002
+1.32282853567E+007, +1.02639730917E+001, +2.74303042869E+002
+1.33533166458E+007, +1.11305683785E+001, +2.77147748028E+002
+1.34783479349E+007, +1.07667310886E+001, +2.79602926098E+002
+1.36033792240E+007, +1.09310569460E+001, +2.82594021657E+002
+1.37284105131E+007, +1.12269440105E+001, +2.85465798947E+002
+1.38534418023E+007, +1.07566913897E+001, +2.88238867642E+002
+1.39784730914E+007, +1.06027585667E+001, +2.91365656749E+002
+1.41035043805E+007, +1.08384237897E+001, +2.94431998466E+002
+1.42285356696E+007, +1.13584333694E+001, +2.97149479770E+002
+1.43535669587E+007, +1.06964410254E+001, +3.00020298944E+002
+1.44785982478E+007, +1.07669249636E+001, +3.03008718411E+002
+1.46036295369E+007, +1.06456630814E+001, +3.05671206843E+002
+1.47286608260E+007, +1.07374135759E+001, +3.08250309107E+002
+1.48536921151E+007, +1.10883531142E+001, +3.12136083334E+002
+1.49787234043E+007, +1.11941598204E+001, +3.14583289863E+002
+1.51037546934E+007, +1.09127804399E+001, +3.16990917619E+002
+1.52287859825E+007, +1.09089798660E+001, +3.20292559533E+002
+1.53538172716E+007, +1.09116669065E+001, +3.24061035290E+002
+1.54788485607E+007, +1.10424698752E+001, +3.26440215725E+002
+1.56038798498E+007, +1.13486742068E+001, +3.30019666606E+002
+1.57289111389E+007, +1.11537683665E+001, +3.32279925419E+002
+1.58539424280E+007, +1.17302396939E+001, +3.35474982874E+002
+1.59789737171E+007, +1.11252243782E+001, +3.38102168856E+002
+1.61040050063E+007, +1.12853942108E+001, +3.41938640634E+002
+1.62290362954E+007, +1.13363849444E+001, +3.44561901112E+002
+1.63540675845E+007, +1.14979113599E+001, +3.47533226189E+002
+1.64790988736E+007, +1.15963543017E+001, +3.51098413893E+002
+1.66041301627E+007, +1.15261426720E+001, +3.53542713061E+002
+1.67291614518E+007, +1.11764350143E+001, +3.56363262535E+002
+1.68541927409E+007, +1.14900393641E+001, +3.60228870043E+002
+1.69792240300E+007, +1.17306326461E+001, +3.63396670326E+002
+1.71042553191E+007, +1.12418546551E+001, +3.66692227555E+002
+1.72292866083E+007, +1.12608958665E+001, +3.69428883572E+002
+1.73543178974E+007, +1.11539070875E+001, +3.73241724891E+002
+1.74793491865E+007, +1.16675408827E+001, +3.76511364518E+002
+1.76043804756E+007, +1.20754458744E+001, +3.79450268369E+002
+1.77294117647E+007, +1.17952248998E+001, +3.83177905352E+002
+1.78544430538E+007, +1.19172343712E+001, +3.85682537571E+002
+1.79794743429E+007, +1.22574927754E+001, +3.88461931730E+002
+1.81045056320E+007, +1.23863775665E+001, +3.92267780324E+002
+1.82295369212E+007, +1.13548929082E+001, +3.94819915713E+002
+1.83545682103E+007, +1.22097854980E+001, +3.98371618560E+002
+1.84795994994E+007, +1.27471191350E+001, +4.01268935644E+002
+1.86046307885E+007, +1.29116011238E+001, +4.04702405052E+002
+1.87296620776E+007, +1.15030495621E+001, +4.08364666411E+002
+1.88546933667E+007, +1.28007555798E+001, +4.12126413281E+002
+1.89797246558E+007, +1.20182936236E+001, +4.14646068469E+002
+1.91047559449E+007, +1.24645310947E+001, +4.18093400046E+002
+1.92297872340E+007, +1.29937087141E+001, +4.21384976914E+002
+1.93548185232E+007, +1.31363447169E+001, +4.25080518129E+002
+1.94798498123E+007, +1.29615182262E+001, +4.27407706382E+002
+1.96048811014E+007, +1.32524640858E+001, +4.32393960004E+002
+1.97299123905E+007, +1.38944661770E+001, +4.34888850132E+002
+1.98549436796E+007, +1.39582959456E+001, +4.39121620590E+002
+1.99799749687E+007, +1.31310388607E+001, +4.41982703167E+002
+2.01050062578E+007, +1.31173513694E+001, +4.45145850011E+002
+2.02300375469E+007, +1.32538439872E+001, +4.48869990158E+002
+2.03550688360E+007, +1.42999547619E+001, +4.54031230298E+002
+2.04801001252E+007, +1.42577621246E+001, +4.55865913563E+002
+2.06051314143E+007, +1.51453045725E+001, +4.59492203660E+002
+2.07301627034E+007, +1.37497048548E+001, +4.63282285781E+002
+2.08551939925E+007, +1.39302170021E+001, +4.66180035943E+002
+2.09802252816E+007, +1.43524757599E+001, +4.70415746868E+002
+2.11052565707E+007, +1.43125951096E+001, +4.72595930369E+002
+2.12302878598E+007, +1.39094979315E+001, +4.78405949759E+002
+2.13553191489E+007, +1.47731647628E+001, +4.81060946149E+002
+2.14803504380E+007, +1.48201965256E+001, +4.83372748311E+002
+2.16053817272E+007, +1.48600815947E+001, +4.88656227206E+002
+2.17304130163E+007, +1.57772152059E+001, +4.92251982994E+002
+2.18554443054E+007, +1.68710088381E+001, +4.96061604132E+002
+2.19804755945E+007, +1.57009938405E+001, +4.97783976830E+002
+2.21055068836E+007, +1.59448117503E+001, +5.03298543871E+002
+2.22305381727E+007, +1.66046775440E+001, +5.05588649064E+002
+2.23555694618E+007, +1.73714403764E+001, +5.10813888903E+002
+2.24806007509E+007, +1.71762011086E+001, +5.14396153043E+002
+2.26056320401E+007, +1.53992164532E+001, +5.19045541066E+002
+2.27306633292E+007, +1.74452573867E+001, +5.21170197918E+002
+2.28556946183E+007, +1.90819403252E+001, +5.26062065645E+002
+2.29807259074E+007, +1.78121761229E+001, +5.29235674538E+002
+2.31057571965E+007, +1.68271520819E+001, +5.33550217678E+002
+2.32307884856E+007, +2.03002220870E+001, +5.34468790969E+002
+2.33558197747E+007, +1.91775738394E+001, +5.38724701806E+002
+2.34808510638E+007, +1.91991793954E+001, +5.41353526042E+002
+2.36058823529E+007, +1.88698769428E+001, +5.47966840985E+002
+2.37309136421E+007, +1.91206201217E+001, +5.50114602827E+002
+2.38559449312E+007, +1.90310124988E+001, +5.55618375341E+002
+2.39809762203E+007, +1.98225147871E+001, +5.58078252197E+002
+2.41060075094E+007, +1.87304511397E+001, +5.63800575765E+002
+2.42310387985E+007, +2.05992639862E+001, +5.66031264284E+002
+2.43560700876E+007, +2.03723118397E+001, +5.70372825187E+002
+2.44811013767E+007, +2.06982059643E+001, +5.73352333526E+002
+2.46061326658E+007, +2.10888677308E+001, +5.76653053570E+002
+2.47311639549E+007, +1.98261442021E+001, +5.82020653589E+002
+2.48561952441E+007, +2.00418869975E+001, +5.83195220500E+002
+2.49812265332E+007, +1.95247474097E+001, +5.89988801182E+002
+2.51062578223E+007, +2.19438955616E+001, +5.95612815478E+002
+2.52312891114E+007, +2.05848374010E+001, +5.98668942821E+002
+2.53563204005E+007, +2.03796754716E+001, +6.01052213120E+002
+2.54813516896E+007, +1.99912586098E+001, +6.06524173934E+002
+2.56063829787E+007, +1.79828204097E+001, +6.07798945943E+002
+2.57314142678E+007, +2.04424436367E+001, +6.14637540575E+002
+2.58564455569E+007, +1.94596777937E+001, +6.18401723634E+002
+2.59814768461E+007, +2.28152267068E+001, +6.24456191039E+002
+2.61065081352E+007, +2.16718614287E+001, +6.29213019794E+002
+2.62315394243E+007, +2.15647048717E+001, +6.32363775364E+002
+2.63565707134E+007, +1.94969636444E+001, +6.36577151026E+002
+2.64816020025E+007, +1.89997889467E+001, +6.43059773801E+002
+2.66066332916E+007, +2.16403980201E+001, +6.47095531216E+002
+2.67316645807E+007, +2.14372943045E+001, +6.51126166687E+002
+2.68566958698E+007, +1.94020866079E+001, +6.55323829460E+002
+2.69817271589E+007, +1.91063572297E+001, +6.59144821083E+002
+2.71067584481E+007, +2.06581646236E+001, +6.66199165150E+002
+2.72317897372E+007, +2.24758412139E+001, +6.69185301447E+002
+2.73568210263E+007, +2.28458412151E+001, +6.73631360082E+002
+2.74818523154E+007, +2.02739070340E+001, +6.77454888712E+002
+2.76068836045E+007, +2.06344587942E+001, +6.83455787966E+002
+2.77319148936E+007, +2.19009735935E+001, +6.88250429106E+002
+2.78569461827E+007, +2.23954506913E+001, +6.93159385654E+002
+2.79819774718E+007, +1.94601542781E+001, +6.97870625474E+002
+2.81070087610E+007, +2.17720937305E+001, +7.04604605349E+002
+2.82320400501E+007, +2.35933256955E+001, +7.09730593982E+002
+2.83570713392E+007, +2.23234666898E+001, +7.10296482265E+002
+2.84821026283E+007, +2.28191512962E+001, +7.16381745771E+002
+2.86071339174E+007, +2.07588923902E+001, +7.23384906801E+002
+2.87321652065E+007, +2.16624292015E+001, +7.27261870506E+002
+2.88571964956E+007, +2.29211112810E+001, +7.32837818710E+002
+2.89822277847E+007, +2.53970562668E+001, +7.40056681139E+002
+2.91072590738E+007, +2.42675899826E+001, +7.43808666895E+002
+2.92322903630E+007, +2.55304183354E+001, +7.45991533139E+002
+2.93573216521E+007, +2.18555425901E+001, +7.55275816460E+002
+2.94823529412E+007, +2.62611839488E+001, +7.63891031684E+002
+2.96073842303E+007, +2.46706913333E+001, +7.66428370347E+002
+2.97324155194E+007, +2.13763582853E+001, +7.69377676062E+002
+2.98574468085E+007, +2.40469562608E+001, +7.75485860834E+002
+2.99824780976E+007, +2.41111902516E+001, +7.79751291682E+002
+3.01075093867E+007, +2.72636367859E+001, +7.84805686446E+002
+3.02325406758E+007, +2.48679591129E+001, +7.92667049516E+002
+3.03575719650E+007, +2.35545353282E+001, +7.99601112148E+002
+3.04826032541E+007, +2.76438256254E+001, +8.06093277057E+002
+3.06076345432E+007, +2.65654797098E+001, +8.08383508186E+002
+3.07326658323E+007, +2.61362189976E+001, +8.14782113950E+002
+3.08576971214E+007, +2.67713514727E+001, +8.23196986684E+002
+3.09827284105E+007, +2.50702774487E+001, +8.29166694959E+002
+3.11077596996E+007, +2.44426775833E+001, +8.32984964244E+002
+3.12327909887E+007, +2.64745281054E+001, +8.35714333854E+002
+3.13578222778E+007, +2.68122796231E+001, +8.44476249556E+002
+3.14828535670E+007, +2.63185580070E+001, +8.53033145878E+002
+3.16078848561E+007, +2.69962006689E+001, +8.53941488248E+002
+3.17329161452E+007, +2.72692050612E+001, +8.63143066721E+002
+3.18579474343E+007, +2.82041124017E+001, +8.69425627493E+002
+3.19829787234E+007, +2.57812825767E+001, +8.76659436316E+002
+3.21080100125E+007, +2.73591346950E+001, +8.80951027232E+002
+3.22330413016E+007, +3.03067373720E+001, +8.88547927200E+002
+3.23580725907E+007, +2.68047710785E+001, +8.95822826134E+002
+3.24831038798E+007, +3.05686097518E+001, +9.00015841439E+002
+3.26081351690E+007, +3.05750253837E+001, +9.06204019477E+002
+3.27331664581E+007, +2.34138716373E+001, +9.08957658587E+002
+3.28581977472E+007, +2.75325760076E+001, +9.19926775873E+002
+3.29832290363E+007, +2.46349169021E+001, +9.27272372675E+002
+3.31082603254E+007, +2.72691407247E+001, +9.31449420051E+002
+3.32332916145E+007, +2.55608063087E+001, +9.39812755769E+002
+3.33583229036E+007, +2.86717142570E+001, +9.43749667458E+002
+3.34833541927E+007, +2.85618385358E+001, +9.53959607445E+002
+3.36083854819E+007, +3.02164242084E+001, +9.59259170146E+002
+3.37334167710E+007, +2.97779980952E+001, +9.68659720341E+002
+3.38584480601E+007, +2.78975840191E+001, +9.78645038328E+002
+3.39834793492E+007, +3.06221999190E+001, +9.78967520873E+002
+3.41085106383E+007, +3.05091746258E+001, +9.95161657413E+002
+3.42335419274E+007, +2.50851900314E+001, +9.96130633019E+002
+3.43585732165E+007, +3.16223935868E+001, +1.00448436503E+003
+3.44836045056E+007, +2.83740965636E+001, +1.01551411211E+003
+3.46086357947E+007, +2.79076557742E+001, +1.02195711826E+003
+3.47336670839E+007, +3.04807145941E+001, +1.03044508476E+003
+3.48586983730E+007, +3.29793019921E+001, +1.04146693779E+003
+3.49837296621E+007, +2.81195732301E+001, +1.04658637217E+003
+3.51087609512E+007, +3.27121186367E+001, +1.05234497388E+003
+3.52337922403E+007, +3.49895918338E+001, +1.06355740009E+003
+3.53588235294E+007, +3.68456553041E+001, +1.07045156211E+003
+3.54838548185E+007, +3.44440847634E+001, +1.07332887304E+003
+3.56088861076E+007, +3.58767878222E+001, +1.08559487309E+003
+3.57339173967E+007, +3.78113816509E+001, +1.09168018940E+003
+3.58589486859E+007, +3.56655437363E+001, +1.09818516633E+003
+3.59839799750E+007, +3.93950610096E+001, +1.11877607176E+003
+3.61090112641E+007, +3.98343352514E+001, +1.12640043223E+003
+3.62340425532E+007, +3.63089117424E+001, +1.13084391038E+003
+3.63590738423E+007, +4.41451933712E+001, +1.13843263502E+003
+3.64841051314E+007, +3.22120775699E+001, +1.14423562169E+003
+3.66091364205E+007, +3.75349659796E+001, +1.15198220969E+003
+3.67341677096E+007, +4.37992964441E+001, +1.16023004485E+003
+3.68591989987E+007, +4.36262211796E+001, +1.17215349713E+003
+3.69842302879E+007, +4.70111097894E+001, +1.18486604432E+003
+3.71092615770E+007, +4.33154447648E+001, +1.19408976643E+003
+3.72342928661E+007, +4.52405435202E+001, +1.20375915316E+003
+3.73593241552E+007, +4.23533895047E+001, +1.21419776095E+003
+3.74843554443E+007, +4.39903910998E+001, +1.21849697809E+003
+3.76093867334E+007, +4.57687971899E+001, +1.22822248677E+003
+3.77344180225E+007, +5.21789027421E+001, +1.24141379659E+003
+3.78594493116E+007, +5.10514477239E+001, +1.25848898942E+003
+3.79844806008E+007, +5.42767289964E+001, +1.26481747453E+003
+3.81095118899E+007, +5.42305837011E+001, +1.27421321935E+003
+3.82345431790E+007, +5.55779317870E+001, +1.28804230786E+003
+3.83595744681E+007, +5.58535513427E+001, +1.29717146706E+003
+3.84846057572E+007, +5.30063079041E+001, +1.30220163546E+003
+3.86096370463E+007, +5.05819400677E+001, +1.31290405810E+003
+3.87346683354E+007, +5.45434010075E+001, +1.32906414765E+003
+3.88596996245E+007, +6.18527859859E+001, +1.33930433118E+003
+3.89847309136E+007, +7.51199067644E+001, +1.34851952560E+003
+3.91097622028E+007, +6.13903628181E+001, +1.36608820955E+003
+3.92347934919E+007, +5.44753664787E+001, +1.37402892312E+003
+3.93598247810E+007, +6.47876861480E+001, +1.39234527338E+003
+3.94848560701E+007, +6.02908827903E+001, +1.39256274935E+003
+3.96098873592E+007, +6.86261249376E+001, +1.41227934171E+003
+3.97349186483E+007, +6.05701633755E+001, +1.42060179784E+003
+3.98599499374E+007, +6.82412811494E+001, +1.43022313829E+003
+3.99849812265E+007, +7.22601542814E+001, +1.44728677212E+003
+4.01100125156E+007, +6.58891075298E+001, +1.45500848776E+003
