"# Channel 1"
"# Trace 1"
Frequency, Formatted Data, Formatted Data
+1.00000000000E+005, +7.20011253983E+001, +1.92649822880E+000
+2.25031289111E+005, +7.20280917270E+001, +4.69520216903E+000
+3.50062578223E+005, +7.20073703094E+001, +7.34694441061E+000
+4.75093867334E+005, +7.20918421271E+001, +9.90186300121E+000
+6.00125156446E+005, +7.22807882546E+001, +1.25479403028E+001
+7.25156445557E+005, +7.21464107909E+001, +1.50563051003E+001
+8.50187734668E+005, +7.20905871620E+001, +1.77854961948E+001
+9.75219023780E+005, +7.21460075275E+001, +2.04475041448E+001
+1.10025031289E+006, +7.23888239426E+001, +2.30323191000E+001
+1.22528160200E+006, +7.22376728870E+001, +2.53996297337E+001
+1.35031289111E+006, +7.24521753496E+001, +2.80259802177E+001
+1.47534418023E+006, +7.23568211691E+001, +3.06885471365E+001
+1.60037546934E+006, +7.23289860984E+001, +3.31242877932E+001
+1.72540675845E+006, +7.23968419362E+001, +3.57417121289E+001
+1.85043804756E+006, +7.23184188967E+001, +3.86377314685E+001
+1.97546933667E+006, +7.23856283414E+001, +4.10359921342E+001
+2.10050062578E+006, +7.24428117020E+001, +4.38481521124E+001
+2.22553191489E+006, +7.22714384894E+001, +4.63585701329E+001
+2.35056320401E+006, +7.24052019977E+001, +4.88070954174E+001
+2.47559449312E+006, +7.24009420039E+001, +5.15748467938E+001
+2.60062578223E+006, +7.27013899512E+001, +5.41952906666E+001
+2.72565707134E+006, +7.25781975736E+001, +5.67995107733E+001
+2.85068836045E+006, +7.28213987047E+001, +5.93055953881E+001
+2.97571964956E+006, +7.27360526225E+001, +6.20386423243E+001
+3.10075093867E+006, +7.26315754839E+001, +6.46011970624E+001
+3.22578222778E+006, +7.27696813981E+001, +6.72366363257E+001
+3.35081351690E+006, +7.28554987908E+001, +6.98464515743E+001
+3.47584480601E+006, +7.27894004265E+001, +7.23887266795E+001
+3.60087609512E+006, +7.29594732151E+001, +7.51818844735E+001
+3.72590738423E+006, +7.36945922697E+001, +7.78329287485E+001
+3.85093867334E+006, +7.29260727496E+001, +8.01163845883E+001
+3.97596996245E+006, +7.29972513575E+001, +8.31194506224E+001
+4.10100125156E+006, +7.32624674304E+001, +8.54670524335E+001
+4.22603254068E+006, +7.29921361603E+001, +8.82669602827E+001
+4.35106382979E+006, +7.33559420740E+001, +9.06432479914E+001
+4.47609511890E+006, +7.33942643003E+001, +9.35685542131E+001
+4.60112640801E+006, +7.34131499937E+001, +9.61441769736E+001
+4.72615769712E+006, +7.35125601425E+001, +9.85231024383E+001
+4.85118898623E+006, +7.37751659242E+001, +1.01403012823E+002
+4.97622027534E+006, +7.36788735284E+001, +1.03978985660E+002
+5.10125156446E+006, +7.36058539740E+001, +1.06761305788E+002
+5.22628285357E+006, +7.41779610220E+001, +1.09524026702E+002
+5.35131414268E+006, +7.40771628774E+001, +1.12071923298E+002
+5.47634543179E+006, +7.42866257186E+001, +1.14636271368E+002
+5.60137672090E+006, +7.42674325382E+001, +1.17182849037E+002
+5.72640801001E+006, +7.41515502490E+001, +1.19616426582E+002
+5.85143929912E+006, +7.46536731391E+001, +1.22685664843E+002
+5.97647058824E+006, +7.46317385856E+001, +1.25361175742E+002
+6.10150187735E+006, +7.49400605732E+001, +1.27880810283E+002
+6.22653316646E+006, +7.47959977327E+001, +1.30849180348E+002
+6.35156445557E+006, +7.48994783469E+001, +1.33069127545E+002
+6.47659574468E+006, +7.50102341956E+001, +1.35916687269E+002
+6.60162703379E+006, +7.50824661526E+001, +1.38639743329E+002
+6.72665832290E+006, +7.53687930827E+001, +1.41241990305E+002
+6.85168961202E+006, +7.54358665092E+001, +1.43959173716E+002
+6.97672090113E+006, +7.55777128086E+001, +1.46509544647E+002
+7.10175219024E+006, +7.58605107617E+001, +1.49249202889E+002
+7.22678347935E+006, +7.58182839317E+001, +1.51940711645E+002
+7.35181476846E+006, +7.58869229356E+001, +1.54740287681E+002
+7.47684605757E+006, +7.61106802077E+001, +1.57276507702E+002
+7.60187734668E+006, +7.59205379796E+001, +1.60021158548E+002
+7.72690863579E+006, +7.64346633315E+001, +1.62703661776E+002
+7.85193992491E+006, +7.64760960167E+001, +1.65458665607E+002
+7.97697121402E+006, +7.64876315405E+001, +1.68205172316E+002
+8.10200250313E+006, +7.67331052332E+001, +1.70866327718E+002
+8.22703379224E+006, +7.68577658503E+001, +1.73599214604E+002
+8.35206508135E+006, +7.70042965943E+001, +1.76089390314E+002
+8.47709637046E+006, +7.70932110932E+001, +1.78954722347E+002
+8.60212765957E+006, +7.74981908901E+001, +1.81729517477E+002
+8.72715894869E+006, +7.72924813052E+001, +1.84567948239E+002
+8.85219023780E+006, +7.76052597469E+001, +1.87179826378E+002
+8.97722152691E+006, +7.78428983513E+001, +1.90102122669E+002
+9.10225281602E+006, +7.77886913838E+001, +1.92715466260E+002
+9.22728410513E+006, +7.82607335867E+001, +1.95532972594E+002
+9.35231539424E+006, +7.79735015911E+001, +1.98278994474E+002
+9.47734668335E+006, +7.81705834925E+001, +2.00865221098E+002
+9.60237797247E+006, +7.84081234108E+001, +2.03743164363E+002
+9.72740926158E+006, +7.84241274880E+001, +2.06216685463E+002
+9.85244055069E+006, +7.86526530724E+001, +2.09387028483E+002
+9.97747183980E+006, +7.88610141533E+001, +2.12184509980E+002
+1.01025031289E+007, +7.87588528252E+001, +2.15188265222E+002
+1.02275344180E+007, +7.85607848548E+001, +2.17437162929E+002
+1.03525657071E+007, +7.90612347463E+001, +2.20704513264E+002
+1.04775969962E+007, +7.94192459325E+001, +2.23451784683E+002
+1.06026282854E+007, +7.93776116348E+001, +2.26227926673E+002
+1.07276595745E+007, +7.99357597733E+001, +2.28873088828E+002
+1.08526908636E+007, +8.00509630485E+001, +2.31492078831E+002
+1.09777221527E+007, +8.00335704156E+001, +2.34532038645E+002
+1.11027534418E+007, +8.02760771518E+001, +2.37554526200E+002
+1.12277847309E+007, +8.08158537276E+001, +2.40142781466E+002
+1.13528160200E+007, +8.05652398963E+001, +2.42957472566E+002
+1.14778473091E+007, +8.07164691296E+001, +2.45814159719E+002
+1.16028785982E+007, +8.12285671852E+001, +2.48552071597E+002
+1.17279098874E+007, +8.09914328592E+001, +2.51554934296E+002
+1.18529411765E+007, +8.15126303042E+001, +2.54035603258E+002
+1.19779724656E+007, +8.16740028214E+001, +2.57576938201E+002
+1.21030037547E+007, +8.21577221153E+001, +2.59978659147E+002
+1.22280350438E+007, +8.16634807101E+001, +2.62988767777E+002
+1.23530663329E+007, +8.27544255054E+001, +2.66413812001E+002
+1.24780976220E+007, +8.28254741151E+001, +2.68796588727E+002
+1.26031289111E+007, +8.26740032814E+001, +2.71703573560E+002
+1.27281602003E+007, +8.28967793760E+001, +2.74369204077E+002
+1.28531914894E+007, +8.29517554392E+001, +2.77318939428E+002
+1.29782227785E+007, +8.29604149843E+001, +2.80530512927E+002
+1.31032540676E+007, +8.33486128114E+001, +2.83595376745E+002
+1.32282853567E+007, +8.38408193353E+001, +2.86509000630E+002
+1.33533166458E+007, +8.40619220667E+001, +2.89399754074E+002
+1.34783479349E+007, +8.43965722128E+001, +2.91947920734E+002
+1.36033792240E+007, +8.43520213259E+001, +2.95378829219E+002
+1.37284105131E+007, +8.47626074250E+001, +2.97260029311E+002
+1.38534418023E+007, +8.44633757600E+001, +3.00884852562E+002
+1.39784730914E+007, +8.51511352432E+001, +3.04151550614E+002
+1.41035043805E+007, +8.51308877314E+001, +3.07009920541E+002
+1.42285356696E+007, +8.55276806647E+001, +3.09663145698E+002
+1.43535669587E+007, +8.58207100728E+001, +3.12637000552E+002
+1.44785982478E+007, +8.58403605266E+001, +3.15624840699E+002
+1.46036295369E+007, +8.65684594052E+001, +3.19273591278E+002
+1.47286608260E+007, +8.64727125427E+001, +3.21969476907E+002
+1.48536921151E+007, +8.66635266807E+001, +3.24424253561E+002
+1.49787234043E+007, +8.68377328639E+001, +3.27678321336E+002
+1.51037546934E+007, +8.76029344000E+001, +3.31213334775E+002
+1.52287859825E+007, +8.73107634689E+001, +3.33486239347E+002
+1.53538172716E+007, +8.80025379262E+001, +3.36805554802E+002
+1.54788485607E+007, +8.81217060871E+001, +3.40418307893E+002
+1.56038798498E+007, +8.84194435056E+001, +3.43266213349E+002
+1.57289111389E+007, +8.74643568290E+001, +3.45659756152E+002
+1.58539424280E+007, +8.79247938608E+001, +3.49704436983E+002
+1.59789737171E+007, +8.94118756208E+001, +3.52903645683E+002
+1.61040050063E+007, +9.00037687751E+001, +3.55467761403E+002
+1.62290362954E+007, +8.96817994949E+001, +3.59105610005E+002
+1.63540675845E+007, +8.92957066186E+001, +3.61944997926E+002
+1.64790988736E+007, +8.92270084436E+001, +3.64995565996E+002
+1.66041301627E+007, +9.02632113517E+001, +3.67161983104E+002
+1.67291614518E+007, +9.05402367283E+001, +3.71539215389E+002
+1.68541927409E+007, +9.02181233376E+001, +3.74107857172E+002
+1.69792240300E+007, +9.10457915340E+001, +3.77171459974E+002
+1.71042553191E+007, +9.09541966696E+001, +3.80519737645E+002
+1.72292866083E+007, +9.07923537273E+001, +3.84146223164E+002
+1.73543178974E+007, +9.14334217140E+001, +3.87518814462E+002
+1.74793491865E+007, +9.24913801333E+001, +3.90231573748E+002
+1.76043804756E+007, +9.11543874924E+001, +3.93411938791E+002
+1.77294117647E+007, +9.27489073958E+001, +3.96722733114E+002
+1.78544430538E+007, +9.33096192083E+001, +4.00166054148E+002
+1.79794743429E+007, +9.32276649225E+001, +4.02841879074E+002
+1.81045056320E+007, +9.36636731141E+001, +4.06310614163E+002
+1.82295369212E+007, +9.40016271381E+001, +4.10177814634E+002
+1.83545682103E+007, +9.43243948372E+001, +4.12951841947E+002
+1.84795994994E+007, +9.47442577495E+001, +4.16102772032E+002
+1.86046307885E+007, +9.58809455118E+001, +4.19882694293E+002
+1.87296620776E+007, +9.55133412418E+001, +4.23190364138E+002
+1.88546933667E+007, +9.61894464617E+001, +4.26060378720E+002
+1.89797246558E+007, +9.62181308478E+001, +4.29689323547E+002
+1.91047559449E+007, +9.76082861677E+001, +4.33254798613E+002
+1.92297872340E+007, +9.66792470796E+001, +4.36370000802E+002
+1.93548185232E+007, +9.76378708555E+001, +4.40347249347E+002
+1.94798498123E+007, +9.75839766085E+001, +4.42271589482E+002
+1.96048811014E+007, +9.88629619122E+001, +4.46408144508E+002
+1.97299123905E+007, +9.89405708698E+001, +4.49979117378E+002
+1.98549436796E+007, +9.91554348789E+001, +4.52136125413E+002
+1.99799749687E+007, +9.97572552521E+001, +4.56632038006E+002
+2.01050062578E+007, +9.98865334206E+001, +4.60490403280E+002
+2.02300375469E+007, +1.00192832657E+002, +4.63161603520E+002
+2.03550688360E+007, +1.00670959614E+002, +4.66904957966E+002
+2.04801001252E+007, +1.01546245866E+002, +4.70932169731E+002
+2.06051314143E+007, +1.01314255774E+002, +4.74420022421E+002
+2.07301627034E+007, +1.02447955154E+002, +4.76813471664E+002
+2.08551939925E+007, +1.02260282899E+002, +4.80645317215E+002
+2.09802252816E+007, +1.03327677264E+002, +4.85242696367E+002
+2.11052565707E+007, +1.04807849520E+002, +4.87563903017E+002
+2.12302878598E+007, +1.03134350830E+002, +4.91939833049E+002
+2.13553191489E+007, +1.03324765269E+002, +4.93752698322E+002
+2.14803504380E+007, +1.04645962036E+002, +4.96998412957E+002
+2.16053817272E+007, +1.04573716207E+002, +5.01453889185E+002
+2.17304130163E+007, +1.05333886053E+002, +5.04492300387E+002
+2.18554443054E+007, +1.06576443658E+002, +5.07373092778E+002
+2.19804755945E+007, +1.06876013126E+002, +5.12957370576E+002
+2.21055068836E+007, +1.07263581915E+002, +5.15646178726E+002
+2.22305381727E+007, +1.07325049307E+002, +5.17956047749E+002
+2.23555694618E+007, +1.07862492393E+002, +5.21695165574E+002
+2.24806007509E+007, +1.07932362466E+002, +5.26560278846E+002
+2.26056320401E+007, +1.08157297887E+002, +5.29943359647E+002
+2.27306633292E+007, +1.08587902575E+002, +5.35122635576E+002
+2.28556946183E+007, +1.09513140521E+002, +5.35830197223E+002
+2.29807259074E+007, +1.10316076007E+002, +5.40686796003E+002
+2.31057571965E+007, +1.12329877137E+002, +5.44275107103E+002
+2.32307884856E+007, +1.09983900755E+002, +5.50444373329E+002
+2.33558197747E+007, +1.11134730103E+002, +5.52789439735E+002
+2.34808510638E+007, +1.12690922837E+002, +5.56142299182E+002
+2.36058823529E+007, +1.12932324243E+002, +5.60891587152E+002
+2.37309136421E+007, +1.13414658447E+002, +5.63301510132E+002
+2.38559449312E+007, +1.14447239179E+002, +5.67548675621E+002
+2.39809762203E+007, +1.17404419931E+002, +5.69847966690E+002
+2.41060075094E+007, +1.15371639285E+002, +5.76587483141E+002
+2.42310387985E+007, +1.17465588287E+002, +5.78289322191E+002
+2.43560700876E+007, +1.18993725527E+002, +5.82241996552E+002
+2.44811013767E+007, +1.18085166323E+002, +5.86782312251E+002
+2.46061326658E+007, +1.18782484484E+002, +5.89836200422E+002
+2.47311639549E+007, +1.19772318615E+002, +5.93864005314E+002
+2.48561952441E+007, +1.20058650706E+002, +5.96137258841E+002
+2.49812265332E+007, +1.21168347409E+002, +6.02206344051E+002
+2.51062578223E+007, +1.18322784595E+002, +6.04950652003E+002
+2.52312891114E+007, +1.21527479673E+002, +6.11865165955E+002
+2.53563204005E+007, +1.22871455219E+002, +6.12295060850E+002
+2.54813516896E+007, +1.22601305750E+002, +6.15681604096E+002
+2.56063829787E+007, +1.22046631926E+002, +6.20067807252E+002
+2.57314142678E+007, +1.24093563817E+002, +6.27351750193E+002
+2.58564455569E+007, +1.25591740204E+002, +6.28749531618E+002
+2.59814768461E+007, +1.25153837849E+002, +6.34499185558E+002
+2.61065081352E+007, +1.24713988104E+002, +6.39777693737E+002
+2.62315394243E+007, +1.27051336564E+002, +6.42315447627E+002
+2.63565707134E+007, +1.25594848594E+002, +6.44715843121E+002
+2.64816020025E+007, +1.27727873421E+002, +6.49642533810E+002
+2.66066332916E+007, +1.28297767951E+002, +6.51576474864E+002
+2.67316645807E+007, +1.30008873152E+002, +6.58918101507E+002
+2.68566958698E+007, +1.28624548703E+002, +6.61400790588E+002
+2.69817271589E+007, +1.31235671294E+002, +6.66905556760E+002
+2.71067584481E+007, +1.31371051154E+002, +6.70995514539E+002
+2.72317897372E+007, +1.31260320345E+002, +6.72873140028E+002
+2.73568210263E+007, +1.31819472469E+002, +6.76918374454E+002
+2.74818523154E+007, +1.32383354009E+002, +6.83736122939E+002
+2.76068836045E+007, +1.32090454954E+002, +6.88094749370E+002
+2.77319148936E+007, +1.32618069935E+002, +6.93084313485E+002
+2.78569461827E+007, +1.35726034096E+002, +6.97514644060E+002
+2.79819774718E+007, +1.36463659544E+002, +7.03616146779E+002
+2.81070087610E+007, +1.36611325172E+002, +7.06207821596E+002
+2.82320400501E+007, +1.37626010489E+002, +7.09966145685E+002
+2.83570713392E+007, +1.36985825657E+002, +7.16373776669E+002
+2.84821026283E+007, +1.41421833726E+002, +7.22119562462E+002
+2.86071339174E+007, +1.38524951419E+002, +7.23286118255E+002
+2.87321652065E+007, +1.39379439563E+002, +7.32833405887E+002
+2.88571964956E+007, +1.39105542442E+002, +7.33898939365E+002
+2.89822277847E+007, +1.42193984652E+002, +7.39344171329E+002
+2.91072590738E+007, +1.41610660825E+002, +7.45869100075E+002
+2.92322903630E+007, +1.41384525706E+002, +7.50336131772E+002
+2.93573216521E+007, +1.45169440121E+002, +7.49969748788E+002
+2.94823529412E+007, +1.43346065977E+002, +7.60032166935E+002
+2.96073842303E+007, +1.43857452925E+002, +7.63565225848E+002
+2.97324155194E+007, +1.44966722344E+002, +7.66782310660E+002
+2.98574468085E+007, +1.43684298563E+002, +7.70626757755E+002
+2.99824780976E+007, +1.49115755011E+002, +7.74895297405E+002
+3.01075093867E+007, +1.49275330313E+002, +7.83203914132E+002
+3.02325406758E+007, +1.48175214311E+002, +7.89452825282E+002
+3.03575719650E+007, +1.51775776161E+002, +7.92706021456E+002
+3.04826032541E+007, +1.50188882375E+002, +7.98262448478E+002
+3.06076345432E+007, +1.52063124293E+002, +8.02124170765E+002
+3.07326658323E+007, +1.52325219752E+002, +8.10762996338E+002
+3.08576971214E+007, +1.50598510993E+002, +8.18141052180E+002
+3.09827284105E+007, +1.55109930731E+002, +8.16695429398E+002
+3.11077596996E+007, +1.55003586006E+002, +8.26319279284E+002
+3.12327909887E+007, +1.55997366436E+002, +8.27709395791E+002
+3.13578222778E+007, +1.57520356327E+002, +8.30710769261E+002
+3.14828535670E+007, +1.61543887821E+002, +8.38121170442E+002
+3.16078848561E+007, +1.61307188006E+002, +8.45620640338E+002
+3.17329161452E+007, +1.61015915746E+002, +8.48464320159E+002
+3.18579474343E+007, +1.59605338274E+002, +8.54246174317E+002
+3.19829787234E+007, +1.61704698404E+002, +8.60226602098E+002
+3.21080100125E+007, +1.61932314013E+002, +8.68271592013E+002
+3.22330413016E+007, +1.64390779580E+002, +8.72850317414E+002
+3.23580725907E+007, +1.66080528752E+002, +8.78687516231E+002
+3.24831038798E+007, +1.67203832697E+002, +8.83238225081E+002
+3.26081351690E+007, +1.67618623663E+002, +8.90956776857E+002
+3.27331664581E+007, +1.66503429925E+002, +8.93339308857E+002
+3.28581977472E+007, +1.70877781187E+002, +9.00585104429E+002
+3.29832290363E+007, +1.72187618676E+002, +9.08692155140E+002
+3.31082603254E+007, +1.72591248888E+002, +9.10864445997E+002
+3.32332916145E+007, +1.73339400851E+002, +9.22850180730E+002
+3.33583229036E+007, +1.76200745041E+002, +9.20820298767E+002
+3.34833541927E+007, +1.77743108519E+002, +9.31937619013E+002
+3.36083854819E+007, +1.73305967234E+002, +9.37108781315E+002
+3.37334167710E+007, +1.79669798189E+002, +9.38740997519E+002
+3.38584480601E+007, +1.82078618641E+002, +9.54348437626E+002
+3.39834793492E+007, +1.79858131160E+002, +9.51070090891E+002
+3.41085106383E+007, +1.77322721957E+002, +9.58566523379E+002
+3.42335419274E+007, +1.84202690404E+002, +9.65491870995E+002
+3.43585732165E+007, +1.83845007194E+002, +9.75679873692E+002
+3.44836045056E+007, +1.88106327958E+002, +9.76816788352E+002
+3.46086357947E+007, +1.84602065041E+002, +9.85377629632E+002
+3.47336670839E+007, +1.91702723196E+002, +9.94054089432E+002
+3.48586983730E+007, +1.91615738365E+002, +1.00106734436E+003
+3.49837296621E+007, +1.94357349100E+002, +1.00863442556E+003
+3.51087609512E+007, +1.96785456686E+002, +1.00864675900E+003
+3.52337922403E+007, +1.93878655318E+002, +1.01541443926E+003
+3.53588235294E+007, +1.96476963808E+002, +1.02305528536E+003
+3.54838548185E+007, +1.99757386729E+002, +1.03393103656E+003
+3.56088861076E+007, +1.96648354744E+002, +1.04258312043E+003
+3.57339173967E+007, +1.97638333709E+002, +1.04391939143E+003
+3.58589486859E+007, +2.03887906399E+002, +1.04770799538E+003
+3.59839799750E+007, +2.10375691263E+002, +1.05277902899E+003
+3.61090112641E+007, +2.07104074723E+002, +1.06333675956E+003
+3.62340425532E+007, +2.09761053334E+002, +1.06894925365E+003
+3.63590738423E+007, +2.08929373161E+002, +1.07482323571E+003
+3.64841051314E+007, +2.10017053318E+002, +1.08079685521E+003
+3.66091364205E+007, +2.15589421750E+002, +1.08538903007E+003
+3.67341677096E+007, +2.18587061322E+002, +1.09491430467E+003
+3.68591989987E+007, +2.11271874641E+002, +1.10028694341E+003
+3.69842302879E+007, +2.19569224314E+002, +1.12099604649E+003
+3.71092615770E+007, +2.24878019974E+002, +1.11617201520E+003
+3.72342928661E+007, +2.25415533917E+002, +1.12953738993E+003
+3.73593241552E+007, +2.22309771029E+002, +1.13472334705E+003
+3.74843554443E+007, +2.24810079779E+002, +1.14499681131E+003
+3.76093867334E+007, +2.34037084955E+002, +1.16122208998E+003
+3.77344180225E+007, +2.32568683257E+002, +1.15555672768E+003
+3.78594493116E+007, +2.32002005990E+002, +1.16941651448E+003
+3.79844806008E+007, +2.37394701910E+002, +1.17111794614E+003
+3.81095118899E+007, +2.31534624318E+002, +1.17873515536E+003
+3.82345431790E+007, +2.41796518012E+002, +1.19321832516E+003
+3.83595744681E+007, +2.37436687199E+002, +1.19527955737E+003
+3.84846057572E+007, +2.44400086976E+002, +1.19762408668E+003
+3.86096370463E+007, +2.50491363207E+002, +1.21750541129E+003
+3.87346683354E+007, +2.50489793902E+002, +1.22254314441E+003
+3.88596996245E+007, +2.55994956099E+002, +1.23339480666E+003
+3.89847309136E+007, +2.51105399316E+002, +1.24173369973E+003
+3.91097622028E+007, +2.67555904176E+002, +1.24986682091E+003
+3.92347934919E+007, +2.55945946696E+002, +1.25639488757E+003
+3.93598247810E+007, +2.62595673828E+002, +1.25983226353E+003
+3.94848560701E+007, +2.64995548205E+002, +1.27647901917E+003
+3.96098873592E+007, +2.66553180590E+002, +1.28220437328E+003
+3.97349186483E+007, +2.70406122874E+002, +1.28959017972E+003
+3.98599499374E+007, +2.77130923831E+002, +1.29825970195E+003
+3.99849812265E+007, +2.75638228740E+002, +1.31546801924E+003
+4.01100125156E+007, +2.82048003179E+002, +1.31804465701E+003
