"# Channel 1"
"# Trace 1"
Frequency, Formatted Data, Formatted Data
+1.00000000000E+005, +8.88218017096E+000, +1.89941146089E+000
+2.66777963272E+005, +8.88211428851E+000, +5.06355646036E+000
+4.33555926544E+005, +8.88096368251E+000, +8.23219633441E+000
+6.00333889816E+005, +8.91311499665E+000, +1.13498447764E+001
+7.67111853088E+005, +8.93184974222E+000, +1.45410853063E+001
+9.33889816361E+005, +8.92625860121E+000, +1.76391767276E+001
+1.10066777963E+006, +8.88974237667E+000, +2.08270551045E+001
+1.26744574290E+006, +8.94714754954E+000, +2.39579598006E+001
+1.43422370618E+006, +8.87698162660E+000, +2.71652977992E+001
+1.60100166945E+006, +8.94804041958E+000, +3.02381896377E+001
+1.76777963272E+006, +8.94671289705E+000, +3.33933940073E+001
+1.93455759599E+006, +8.95110544260E+000, +3.64943432446E+001
+2.10133555927E+006, +8.95313568426E+000, +3.96188646379E+001
+2.26811352254E+006, +8.99424356992E+000, +4.27871191658E+001
+2.43489148581E+006, +8.97615807002E+000, +4.60072691794E+001
+2.60166944908E+006, +8.97487109795E+000, +4.90844979530E+001
+2.76844741235E+006, +8.94564259918E+000, +5.23247989601E+001
+2.93522537563E+006, +8.99769564860E+000, +5.54334059510E+001
+3.10200333890E+006, +9.10836541754E+000, +5.85269710884E+001
+3.26878130217E+006, +8.98441454773E+000, +6.18191670118E+001
+3.43555926544E+006, +9.08444811841E+000, +6.49491246917E+001
+3.60233722871E+006, +9.13003548525E+000, +6.81519386017E+001
+3.76911519199E+006, +9.15543894284E+000, +7.14359481290E+001
+3.93589315526E+006, +9.13564909120E+000, +7.44158260255E+001
+4.10267111853E+006, +8.77424150758E+000, +7.73323178019E+001
+4.26944908180E+006, +9.03449354481E+000, +8.11748961117E+001
+4.43622704508E+006, +9.13772311396E+000, +8.40617872503E+001
+4.60300500835E+006, +9.27065722166E+000, +8.74206886721E+001
+4.76978297162E+006, +9.13317462496E+000, +9.04138445929E+001
+4.93656093489E+006, +9.39968955196E+000, +9.37836440824E+001
+5.10333889816E+006, +9.38946629726E+000, +9.68493505210E+001
+5.27011686144E+006, +9.61950002238E+000, +1.00215391172E+002
+5.43689482471E+006, +9.45779720006E+000, +1.03381863245E+002
+5.60367278798E+006, +9.54519004199E+000, +1.06785078147E+002
+5.77045075125E+006, +9.48448201982E+000, +1.09817186852E+002
+5.93722871452E+006, +9.65569629776E+000, +1.12972841230E+002
+6.10400667780E+006, +9.76256234316E+000, +1.16368676586E+002
+6.27078464107E+006, +9.87014941547E+000, +1.19505813169E+002
+6.43756260434E+006, +9.96883374285E+000, +1.22751246975E+002
+6.60434056761E+006, +1.00377598468E+001, +1.26026310614E+002
+6.77111853088E+006, +1.02423645376E+001, +1.29110085222E+002
+6.93789649416E+006, +1.01774875440E+001, +1.32438392054E+002
+7.10467445743E+006, +1.02256098308E+001, +1.35766395304E+002
+7.27145242070E+006, +1.02689704112E+001, +1.38894884795E+002
+7.43823038397E+006, +1.03890191216E+001, +1.42106131434E+002
+7.60500834725E+006, +1.03237138810E+001, +1.45346071736E+002
+7.77178631052E+006, +1.04850679536E+001, +1.48809390852E+002
+7.93856427379E+006, +1.04407386564E+001, +1.51928840489E+002
+8.10534223706E+006, +1.04950027678E+001, +1.55230590263E+002
+8.27212020033E+006, +1.05211242951E+001, +1.58415345339E+002
+8.43889816361E+006, +1.04125664448E+001, +1.61901777711E+002
+8.60567612688E+006, +1.04040884372E+001, +1.65206607937E+002
+8.77245409015E+006, +1.04308075960E+001, +1.68542031842E+002
+8.93923205342E+006, +1.05147113856E+001, +1.71844599553E+002
+9.10601001669E+006, +1.05522840252E+001, +1.75318430777E+002
+9.27278797997E+006, +1.05847554545E+001, +1.78569565018E+002
+9.43956594324E+006, +1.05480742376E+001, +1.81987630941E+002
+9.60634390651E+006, +1.05330093019E+001, +1.85611068187E+002
+9.77312186978E+006, +1.06220393431E+001, +1.88757494838E+002
+9.93989983306E+006, +1.07660945391E+001, +1.92391424306E+002
+1.01066777963E+007, +1.06567853962E+001, +1.95610272565E+002
+1.02734557596E+007, +1.05926795664E+001, +1.99146299165E+002
+1.04402337229E+007, +1.05979029778E+001, +2.02423626492E+002
+1.06070116861E+007, +1.07667423246E+001, +2.06008836677E+002
+1.07737896494E+007, +1.07579510700E+001, +2.09628337339E+002
+1.09405676127E+007, +1.10824127039E+001, +2.13083666899E+002
+1.11073455760E+007, +1.08443602619E+001, +2.16665691287E+002
+1.12741235392E+007, +1.10838649589E+001, +2.20155953109E+002
+1.14409015025E+007, +1.10869671872E+001, +2.23593678631E+002
+1.16076794658E+007, +1.13538779071E+001, +2.27198111825E+002
+1.17744574290E+007, +1.11873278228E+001, +2.30896275048E+002
+1.19412353923E+007, +1.11834140314E+001, +2.34362074605E+002
+1.21080133556E+007, +1.11293702646E+001, +2.38061115199E+002
+1.22747913189E+007, +1.11536747033E+001, +2.41692718018E+002
+1.24415692821E+007, +1.10951274967E+001, +2.45121724376E+002
+1.26083472454E+007, +1.14325591806E+001, +2.48987956068E+002
+1.27751252087E+007, +1.14106908059E+001, +2.52308326269E+002
+1.29419031720E+007, +1.11540981067E+001, +2.56057288348E+002
+1.31086811352E+007, +1.16175918281E+001, +2.59786905860E+002
+1.32754590985E+007, +1.18017080689E+001, +2.63283467217E+002
+1.34422370618E+007, +1.15425795872E+001, +2.66928087663E+002
+1.36090150250E+007, +1.20037963917E+001, +2.70559856493E+002
+1.37757929883E+007, +1.17254445906E+001, +2.74586627785E+002
+1.39425709516E+007, +1.19601861532E+001, +2.77956527543E+002
+1.41093489149E+007, +1.20974124105E+001, +2.81853137523E+002
+1.42761268781E+007, +1.21978503140E+001, +2.85515387653E+002
+1.44429048414E+007, +1.19592122917E+001, +2.89115607189E+002
+1.46096828047E+007, +1.20459216928E+001, +2.93409980858E+002
+1.47764607679E+007, +1.23487283297E+001, +2.97182925445E+002
+1.49432387312E+007, +1.22546268051E+001, +3.00796463272E+002
+1.51100166945E+007, +1.21775491303E+001, +3.05207412986E+002
+1.52767946578E+007, +1.26900675084E+001, +3.08256908931E+002
+1.54435726210E+007, +1.30572836183E+001, +3.12582636614E+002
+1.56103505843E+007, +1.32338012433E+001, +3.16042671190E+002
+1.57771285476E+007, +1.28769435378E+001, +3.20178518287E+002
+1.59439065109E+007, +1.33760624420E+001, +3.23807660899E+002
+1.61106844741E+007, +1.30682277785E+001, +3.28095894770E+002
+1.62774624374E+007, +1.35056609132E+001, +3.32387102613E+002
+1.64442404007E+007, +1.32779187501E+001, +3.36111376221E+002
+1.66110183639E+007, +1.41374266116E+001, +3.40285479884E+002
+1.67777963272E+007, +1.40410233605E+001, +3.44363753606E+002
+1.69445742905E+007, +1.42618693093E+001, +3.47923035979E+002
+1.71113522538E+007, +1.26898324433E+001, +3.51989067254E+002
+1.72781302170E+007, +1.36968872852E+001, +3.56243651540E+002
+1.74449081803E+007, +1.32806950020E+001, +3.59993300938E+002
+1.76116861436E+007, +1.43450204092E+001, +3.64674170872E+002
+1.77784641068E+007, +1.42757510019E+001, +3.68124829808E+002
+1.79452420701E+007, +1.45593008260E+001, +3.72974375640E+002
+1.81120200334E+007, +1.47748778612E+001, +3.76563045386E+002
+1.82787979967E+007, +1.47197085261E+001, +3.81282676910E+002
+1.84455759599E+007, +1.52513230324E+001, +3.85831785211E+002
+1.86123539232E+007, +1.51495011726E+001, +3.89294035637E+002
+1.87791318865E+007, +1.52418687006E+001, +3.93996585831E+002
+1.89459098497E+007, +1.50991116115E+001, +3.98926177204E+002
+1.91126878130E+007, +1.61028334355E+001, +4.02154135539E+002
+1.92794657763E+007, +1.56155071227E+001, +4.06822436656E+002
+1.94462437396E+007, +1.63491579811E+001, +4.11622878642E+002
+1.96130217028E+007, +1.58244997417E+001, +4.16637455533E+002
+1.97797996661E+007, +1.68282537227E+001, +4.19701390071E+002
+1.99465776294E+007, +1.52981307305E+001, +4.24475095100E+002
+2.01133555927E+007, +1.62110676445E+001, +4.29541549395E+002
+2.02801335559E+007, +1.66678715304E+001, +4.35161765407E+002
+2.04469115192E+007, +1.79233055703E+001, +4.39500423834E+002
+2.06136894825E+007, +1.73672522174E+001, +4.43771037678E+002
+2.07804674457E+007, +1.70607928505E+001, +4.49406018655E+002
+2.09472454090E+007, +1.72557612340E+001, +4.54178420468E+002
+2.11140233723E+007, +1.73182428863E+001, +4.58376868718E+002
+2.12808013356E+007, +1.78677668292E+001, +4.62439645789E+002
+2.14475792988E+007, +1.85105271317E+001, +4.67577424756E+002
+2.16143572621E+007, +1.92901000163E+001, +4.72371103086E+002
+2.17811352254E+007, +1.94509125560E+001, +4.77323739055E+002
+2.19479131886E+007, +2.08015698292E+001, +4.83407790111E+002
+2.21146911519E+007, +2.11800617711E+001, +4.86516057554E+002
+2.22814691152E+007, +1.99924193508E+001, +4.92688297754E+002
+2.24482470785E+007, +2.01412051447E+001, +4.97147637678E+002
+2.26150250417E+007, +2.24776633623E+001, +5.01537484101E+002
+2.27818030050E+007, +2.18987700870E+001, +5.08378363561E+002
+2.29485809683E+007, +2.39006796348E+001, +5.11816704051E+002
+2.31153589316E+007, +2.25244448075E+001, +5.18688144526E+002
+2.32821368948E+007, +2.50451800051E+001, +5.22899918210E+002
+2.34489148581E+007, +2.46155849184E+001, +5.27439209982E+002
+2.36156928214E+007, +2.48358215078E+001, +5.32538346665E+002
+2.37824707846E+007, +2.48253820233E+001, +5.38473056081E+002
+2.39492487479E+007, +2.62972262007E+001, +5.42605772768E+002
+2.41160267112E+007, +2.60911855553E+001, +5.48510489415E+002
+2.42828046745E+007, +2.58804152844E+001, +5.53958799985E+002
+2.44495826377E+007, +2.64486555546E+001, +5.60449727555E+002
+2.46163606010E+007, +2.78318680798E+001, +5.64349909096E+002
+2.47831385643E+007, +2.74421610403E+001, +5.71284137065E+002
+2.49499165275E+007, +3.01834454720E+001, +5.74399933382E+002
+2.51166944908E+007, +3.10063986560E+001, +5.79529826538E+002
+2.52834724541E+007, +2.95101876143E+001, +5.86884816811E+002
+2.54502504174E+007, +3.20185701705E+001, +5.93078759803E+002
+2.56170283806E+007, +3.17786895717E+001, +5.97926626121E+002
+2.57838063439E+007, +3.20207885207E+001, +6.03957084960E+002
+2.59505843072E+007, +3.36315520241E+001, +6.11214496870E+002
+2.61173622705E+007, +3.35693081266E+001, +6.12960366579E+002
+2.62841402337E+007, +3.21171854543E+001, +6.21250698073E+002
+2.64509181970E+007, +3.21988567992E+001, +6.27251025980E+002
+2.66176961603E+007, +3.39379317964E+001, +6.34861733515E+002
+2.67844741235E+007, +3.36429245026E+001, +6.38722286428E+002
+2.69512520868E+007, +3.43286461876E+001, +6.44062821591E+002
+2.71180300501E+007, +3.61206860362E+001, +6.48560942712E+002
+2.72848080134E+007, +3.68917497126E+001, +6.55943707479E+002
+2.74515859766E+007, +3.80291527394E+001, +6.62324779595E+002
+2.76183639399E+007, +3.47863719489E+001, +6.67532190467E+002
+2.77851419032E+007, +3.62740067179E+001, +6.73339301033E+002
+2.79519198664E+007, +3.82378207239E+001, +6.82489516473E+002
+2.81186978297E+007, +3.99713942452E+001, +6.86149232425E+002
+2.82854757930E+007, +3.99240671982E+001, +6.93635272533E+002
+2.84522537563E+007, +3.61479138657E+001, +7.01796175443E+002
+2.86190317195E+007, +3.89689416814E+001, +7.06225290861E+002
+2.87858096828E+007, +4.06997051656E+001, +7.15068608559E+002
+2.89525876461E+007, +4.08442245545E+001, +7.21238942096E+002
+2.91193656093E+007, +3.80471614312E+001, +7.25067423673E+002
+2.92861435726E+007, +3.87555051597E+001, +7.35637119932E+002
+2.94529215359E+007, +4.23548692216E+001, +7.40653142210E+002
+2.96196994992E+007, +4.39994333636E+001, +7.47485767996E+002
+2.97864774624E+007, +4.40872623823E+001, +7.55417009168E+002
+2.99532554257E+007, +4.60631270943E+001, +7.65140720979E+002
+3.01200333890E+007, +4.45109953131E+001, +7.69534436713E+002
+3.02868113523E+007, +4.46724707681E+001, +7.79490338567E+002
+3.04535893155E+007, +4.31423966683E+001, +7.86373963467E+002
+3.06203672788E+007, +4.43680210687E+001, +7.93418073620E+002
+3.07871452421E+007, +4.73679390419E+001, +8.01312224456E+002
+3.09539232053E+007, +4.73028924865E+001, +8.09142026804E+002
+3.11207011686E+007, +4.33152676754E+001, +8.19980080004E+002
+3.12874791319E+007, +4.80982405139E+001, +8.24714662373E+002
+3.14542570952E+007, +4.68414742911E+001, +8.34064876921E+002
+3.16210350584E+007, +4.73062869738E+001, +8.42636951406E+002
+3.17878130217E+007, +4.95634247374E+001, +8.51667442297E+002
+3.19545909850E+007, +5.05579422095E+001, +8.59274143575E+002
+3.21213689482E+007, +4.65281857311E+001, +8.67767576770E+002
+3.22881469115E+007, +4.81377538991E+001, +8.73499386962E+002
+3.24549248748E+007, +4.98740083131E+001, +8.87262420430E+002
+3.26217028381E+007, +5.00264425849E+001, +8.94863988130E+002
+3.27884808013E+007, +5.05174955137E+001, +9.05686818091E+002
+3.29552587646E+007, +5.33815364127E+001, +9.09723364959E+002
+3.31220367279E+007, +5.42713255536E+001, +9.18432277679E+002
+3.32888146912E+007, +5.46641655175E+001, +9.33951563425E+002
+3.34555926544E+007, +5.33177528099E+001, +9.44166913870E+002
+3.36223706177E+007, +5.91942183661E+001, +9.52650383472E+002
+3.37891485810E+007, +5.62039622701E+001, +9.59029365749E+002
+3.39559265442E+007, +5.64836712283E+001, +9.74419218877E+002
+3.41227045075E+007, +5.54316114848E+001, +9.84879699075E+002
+3.42894824708E+007, +5.79660595922E+001, +9.92406108067E+002
+3.44562604341E+007, +5.90215571493E+001, +1.00432367686E+003
+3.46230383973E+007, +5.79736513620E+001, +1.01778415075E+003
+3.47898163606E+007, +6.21839618064E+001, +1.02571851674E+003
+3.49565943239E+007, +6.59145542490E+001, +1.03878742207E+003
+3.51233722871E+007, +6.46205848105E+001, +1.04505320519E+003
+3.52901502504E+007, +6.22542582103E+001, +1.05747765759E+003
+3.54569282137E+007, +6.55658125584E+001, +1.07519781932E+003
+3.56237061770E+007, +6.18629616094E+001, +1.08616524333E+003
+3.57904841402E+007, +6.86276832545E+001, +1.09990615907E+003
+3.59572621035E+007, +7.45703332615E+001, +1.11309050080E+003
+3.61240400668E+007, +6.96395274571E+001, +1.12522600849E+003
+3.62908180301E+007, +7.55494030045E+001, +1.14349315019E+003
+3.64575959933E+007, +7.18300203302E+001, +1.15618540249E+003
+3.66243739566E+007, +7.80711169689E+001, +1.16236660367E+003
+3.67911519199E+007, +7.68952183433E+001, +1.17987585839E+003
+3.69579298831E+007, +7.08561011559E+001, +1.19151421327E+003
+3.71247078464E+007, +7.13777325154E+001, +1.20622682425E+003
+3.72914858097E+007, +7.54671473109E+001, +1.22641517094E+003
+3.74582637730E+007, +8.53911510059E+001, +1.24600772569E+003
+3.76250417362E+007, +8.46783695769E+001, +1.25875081713E+003
+3.77918196995E+007, +8.37659887947E+001, +1.26958619806E+003
+3.79585976628E+007, +8.30792940544E+001, +1.29107934371E+003
+3.81253756260E+007, +9.28478169914E+001, +1.30663023903E+003
+3.82921535893E+007, +9.52018218294E+001, +1.32234791092E+003
+3.84589315526E+007, +1.03825271643E+002, +1.34167630492E+003
+3.86257095159E+007, +1.03846625536E+002, +1.35880195178E+003
+3.87924874791E+007, +9.49394473084E+001, +1.37629533241E+003
+3.89592654424E+007, +1.04563946473E+002, +1.39813954742E+003
+3.91260434057E+007, +1.12401649247E+002, +1.41467680989E+003
+3.92928213689E+007, +1.17859494217E+002, +1.43439099299E+003
+3.94595993322E+007, +1.17023819922E+002, +1.46001576727E+003
+3.96263772955E+007, +1.16464182985E+002, +1.47511551950E+003
+3.97931552588E+007, +1.11023964758E+002, +1.49289681582E+003
+3.99599332220E+007, +1.18008609604E+002, +1.52001506058E+003
+4.01267111853E+007, +1.36776153076E+002, +1.54803863442E+003
+4.02934891486E+007, +1.37416662625E+002, +1.56499978181E+003
+4.04602671119E+007, +1.41853574008E+002, +1.57730960248E+003
+4.06270450751E+007, +1.52763143813E+002, +1.61268334679E+003
+4.07938230384E+007, +1.58385279954E+002, +1.63430654705E+003
+4.09606010017E+007, +1.50779375740E+002, +1.66069112584E+003
+4.11273789649E+007, +1.63189303367E+002, +1.68116083627E+003
+4.12941569282E+007, +1.62057464617E+002, +1.71506064903E+003
+4.14609348915E+007, +1.78640166671E+002, +1.75297567703E+003
+4.16277128548E+007, +1.91730107830E+002, +1.76898266655E+003
+4.17944908180E+007, +1.76927661851E+002, +1.78227233588E+003
+4.19612687813E+007, +1.84765117485E+002, +1.83572711574E+003
+4.21280467446E+007, +1.98037182976E+002, +1.85871805865E+003
+4.22948247078E+007, +2.02153362503E+002, +1.89483675113E+003
+4.24616026711E+007, +2.26693389322E+002, +1.92077778820E+003
+4.26283806344E+007, +2.32588872997E+002, +1.94238368761E+003
+4.27951585977E+007, +2.13811133374E+002, +1.99958358054E+003
+4.29619365609E+007, +2.66987311218E+002, +2.02710144001E+003
+4.31287145242E+007, +2.79847841976E+002, +2.05511836431E+003
+4.32954924875E+007, +2.73869441907E+002, +2.09068128872E+003
+4.34622704508E+007, +2.75834624336E+002, +2.16258439966E+003
+4.36290484140E+007, +3.19775214115E+002, +2.21031460075E+003
+4.37958263773E+007, +3.10477876623E+002, +2.25105840992E+003
+4.39626043406E+007, +3.31473024710E+002, +2.29621871553E+003
+4.41293823038E+007, +3.66184169339E+002, +2.35899419823E+003
+4.42961602671E+007, +3.55563842366E+002, +2.37445318183E+003
+4.44629382304E+007, +3.71295610430E+002, +2.43412425162E+003
+4.46297161937E+007, +4.18703219031E+002, +2.47734970291E+003
+4.47964941569E+007, +4.28460095389E+002, +2.54912758490E+003
+4.49632721202E+007, +4.69349478307E+002, +2.62922530553E+003
+4.51300500835E+007, +4.62144542307E+002, +2.65281038279E+003
+4.52968280467E+007, +5.60228517872E+002, +2.75186055779E+003
+4.54636060100E+007, +5.69829715251E+002, +2.86211831132E+003
+4.56303839733E+007, +6.08780454608E+002, +2.89895398232E+003
+4.57971619366E+007, +6.59961515089E+002, +2.98428592017E+003
+4.59639398998E+007, +7.29050606830E+002, +3.09249434427E+003
+4.61307178631E+007, +7.81069427960E+002, +3.12887292852E+003
+4.62974958264E+007, +8.79714110795E+002, +3.19372542952E+003
+4.64642737896E+007, +8.66461892322E+002, +3.28173570898E+003
+4.66310517529E+007, +9.64313093644E+002, +3.41205192454E+003
+4.67978297162E+007, +1.08914687501E+003, +3.39955423560E+003
+4.69646076795E+007, +1.20756327444E+003, +3.55766970959E+003
+4.71313856427E+007, +1.33312553323E+003, +3.68454535142E+003
+4.72981636060E+007, +1.40729927906E+003, +3.68719603264E+003
+4.74649415693E+007, +1.55437708692E+003, +3.82163740042E+003
+4.76317195326E+007, +1.71804550022E+003, +3.80040649152E+003
+4.77984974958E+007, +1.94438639129E+003, +3.89255457901E+003
+4.79652754591E+007, +2.10097097279E+003, +3.98587266026E+003
+4.81320534224E+007, +2.19865302829E+003, +4.01173118692E+003
+4.82988313856E+007, +2.43489232064E+003, +4.07849842533E+003
+4.84656093489E+007, +2.74379721997E+003, +3.99056063586E+003
+4.86323873122E+007, +2.85072611084E+003, +3.97692339117E+003
+4.87991652755E+007, +3.01426935047E+003, +3.96983966590E+003
+4.89659432387E+007, +3.19569582389E+003, +3.91771586600E+003
+4.91327212020E+007, +3.51739185633E+003, +3.81033777038E+003
+4.92994991653E+007, +3.63938507092E+003, +3.80186229855E+003
+4.94662771285E+007, +3.97673439503E+003, +3.44677096774E+003
+4.96330550918E+007, +4.04557334405E+003, +3.38031132671E+003
+4.97998330551E+007, +4.14320996365E+003, +3.21669926389E+003
+4.99666110184E+007, +4.32140424616E+003, +2.95682203742E+003
+5.01333889816E+007, +4.32076149217E+003, +2.94464945385E+003
+5.03001669449E+007, +4.42907911585E+003, +2.84966784668E+003
+5.04669449082E+007, +4.37341239634E+003, +2.65539515379E+003
+5.06337228715E+007, +4.33383847239E+003, +2.54950972167E+003
+5.08005008347E+007, +4.46404465150E+003, +2.54650780386E+003
+5.09672787980E+007, +4.40140982656E+003, +2.54462121235E+003
+5.11340567613E+007, +4.45697547039E+003, +2.46138691560E+003
+5.13008347245E+007, +4.52985525298E+003, +2.61357298306E+003
+5.14676126878E+007, +4.48483716994E+003, +2.56107287380E+003
+5.16343906511E+007, +4.67438587719E+003, +2.53115209474E+003
+5.18011686144E+007, +4.82116684755E+003, +2.66206516992E+003
+5.19679465776E+007, +5.10739053028E+003, +2.78361083209E+003
+5.21347245409E+007, +5.36483020244E+003, +2.67600971443E+003
+5.23015025042E+007, +5.80201122643E+003, +2.53611192061E+003
+5.24682804674E+007, +6.17474866272E+003, +2.71727036780E+003
+5.26350584307E+007, +6.31241353003E+003, +2.58658574593E+003
+5.28018363940E+007, +6.96175974200E+003, +2.33680517699E+003
+5.29686143573E+007, +7.35357632279E+003, +2.11738460993E+003
+5.31353923205E+007, +7.65086220325E+003, +1.95189930626E+003
+5.33021702838E+007, +8.20443632973E+003, +1.21597346710E+003
+5.34689482471E+007, +8.45891087561E+003, +3.03279360013E+002
