"# Channel 1"
"# Trace 1"
Frequency, Formatted Data, Formatted Data
+1.00000000000E+005, +6.01275463911E+000, +2.03655703157E+000
+2.25031289111E+005, +5.97407285443E+000, +4.51163680001E+000
+3.50062578223E+005, +5.98725119887E+000, +7.04301677466E+000
+4.75093867334E+005, +6.01823997134E+000, +9.51984926968E+000
+6.00125156446E+005, +6.00954690968E+000, +1.20254643387E+001
+7.25156445557E+005, +5.99257899646E+000, +1.45509500297E+001
+8.50187734668E+005, +5.98103010562E+000, +1.70213466305E+001
+9.75219023780E+005, +6.01284295496E+000, +1.95131885492E+001
+1.10025031289E+006, +6.01116959384E+000, +2.19653529888E+001
+1.22528160200E+006, +6.00678534806E+000, +2.44856924340E+001
+1.35031289111E+006, +6.03285393762E+000, +2.70145403507E+001
+1.47534418023E+006, +6.01781618092E+000, +2.94677463709E+001
+1.60037546934E+006, +6.04402534598E+000, +3.19234739526E+001
+1.72540675845E+006, +5.99177867769E+000, +3.44245484394E+001
+1.85043804756E+006, +6.06781357919E+000, +3.69467599740E+001
+1.97546933667E+006, +6.06902335536E+000, +3.94737618923E+001
+2.10050062578E+006, +6.06320283016E+000, +4.18696719723E+001
+2.22553191489E+006, +6.03601201049E+000, +4.43375620754E+001
+2.35056320401E+006, +6.06233351548E+000, +4.69325674964E+001
+2.47559449312E+006, +6.05814613152E+000, +4.93416284526E+001
+2.60062578223E+006, +5.99775296847E+000, +5.18535587147E+001
+2.72565707134E+006, +6.05388561673E+000, +5.43209054404E+001
+2.85068836045E+006, +6.06426282259E+000, +5.68323905091E+001
+2.97571964956E+006, +6.11453447785E+000, +5.93870802367E+001
+3.10075093867E+006, +6.00868836527E+000, +6.18417833813E+001
+3.22578222778E+006, +6.07602474209E+000, +6.43610826555E+001
+3.35081351690E+006, +6.18163358095E+000, +6.68019398507E+001
+3.47584480601E+006, +6.20390067083E+000, +6.93262867860E+001
+3.60087609512E+006, +6.08073687767E+000, +7.19373683423E+001
+3.72590738423E+006, +6.11745047649E+000, +7.43109271406E+001
+3.85093867334E+006, +6.17837801461E+000, +7.69313335214E+001
+3.97596996245E+006, +6.16123296238E+000, +7.92656458281E+001
+4.10100125156E+006, +6.17481355792E+000, +8.18664071297E+001
+4.22603254068E+006, +6.07234565658E+000, +8.43281687180E+001
+4.35106382979E+006, +6.07957367614E+000, +8.67569646425E+001
+4.47609511890E+006, +6.09269534069E+000, +8.92973957484E+001
+4.60112640801E+006, +6.05117099556E+000, +9.17875630447E+001
+4.72615769712E+006, +6.22642445634E+000, +9.43116528557E+001
+4.85118898623E+006, +6.26874793169E+000, +9.67170838195E+001
+4.97622027534E+006, +6.17093439027E+000, +9.93474745690E+001
+5.10125156446E+006, +6.30949331025E+000, +1.02000927731E+002
+5.22628285357E+006, +6.27599293774E+000, +1.04354411438E+002
+5.35131414268E+006, +6.19119892176E+000, +1.06802168494E+002
+5.47634543179E+006, +6.21053362954E+000, +1.09364053708E+002
+5.60137672090E+006, +6.15351848115E+000, +1.11975920228E+002
+5.72640801001E+006, +6.29444349413E+000, +1.14397082455E+002
+5.85143929912E+006, +6.49186399798E+000, +1.16979086772E+002
+5.97647058824E+006, +6.56741243653E+000, +1.19574570393E+002
+6.10150187735E+006, +6.47462494014E+000, +1.21805712022E+002
+6.22653316646E+006, +6.51530778708E+000, +1.24503375876E+002
+6.35156445557E+006, +6.55010153310E+000, +1.27001466753E+002
+6.47659574468E+006, +6.54852738053E+000, +1.29535519803E+002
+6.60162703379E+006, +6.64939888233E+000, +1.32016610411E+002
+6.72665832290E+006, +6.50906457278E+000, +1.34631511135E+002
+6.85168961202E+006, +6.66795762156E+000, +1.37111220640E+002
+6.97672090113E+006, +6.73238196882E+000, +1.39612042857E+002
+7.10175219024E+006, +6.73947828087E+000, +1.42201884360E+002
+7.22678347935E+006, +6.78851413908E+000, +1.44581405731E+002
+7.35181476846E+006, +6.82936079651E+000, +1.47270079586E+002
+7.47684605757E+006, +6.84623295818E+000, +1.49587131596E+002
+7.60187734668E+006, +6.89487687121E+000, +1.52265877511E+002
+7.72690863579E+006, +7.00313558491E+000, +1.54653560961E+002
+7.85193992491E+006, +6.78051148006E+000, +1.57242919235E+002
+7.97697121402E+006, +6.83307271998E+000, +1.59908443079E+002
+8.10200250313E+006, +6.93377776859E+000, +1.62325914779E+002
+8.22703379224E+006, +7.01237779676E+000, +1.64976890058E+002
+8.35206508135E+006, +7.12157957393E+000, +1.67578637605E+002
+8.47709637046E+006, +7.05609475935E+000, +1.69928309476E+002
+8.60212765957E+006, +7.04563174843E+000, +1.72504106004E+002
+8.72715894869E+006, +7.13927980619E+000, +1.74910498739E+002
+8.85219023780E+006, +7.19247128501E+000, +1.77399604553E+002
+8.97722152691E+006, +7.30036820439E+000, +1.80112251460E+002
+9.10225281602E+006, +7.33066418319E+000, +1.82635923753E+002
+9.22728410513E+006, +7.25754074987E+000, +1.85021765684E+002
+9.35231539424E+006, +7.03783334545E+000, +1.87510086632E+002
+9.47734668335E+006, +7.23172658951E+000, +1.90426937084E+002
+9.60237797247E+006, +7.18687323095E+000, +1.92861888221E+002
+9.72740926158E+006, +7.55541337758E+000, +1.95156128651E+002
+9.85244055069E+006, +7.34122529437E+000, +1.97950225909E+002
+9.97747183980E+006, +7.28768875182E+000, +2.00598065312E+002
+1.01025031289E+007, +7.24212793727E+000, +2.02754957021E+002
+1.02275344180E+007, +7.31749718639E+000, +2.05595869636E+002
+1.03525657071E+007, +7.38585454036E+000, +2.07994988634E+002
+1.04775969962E+007, +7.38393688221E+000, +2.10570798390E+002
+1.06026282854E+007, +7.71726997437E+000, +2.13201553397E+002
+1.07276595745E+007, +7.65059775361E+000, +2.15999036214E+002
+1.08526908636E+007, +7.36693115031E+000, +2.18306170296E+002
+1.09777221527E+007, +7.48105094228E+000, +2.20887417367E+002
+1.11027534418E+007, +7.53287731940E+000, +2.23553036763E+002
+1.12277847309E+007, +7.69435745662E+000, +2.26115625925E+002
+1.13528160200E+007, +7.44457960791E+000, +2.28502865817E+002
+1.14778473091E+007, +7.70631079595E+000, +2.30998409435E+002
+1.16028785982E+007, +7.74394034581E+000, +2.33353123601E+002
+1.17279098874E+007, +7.85251072976E+000, +2.36740750963E+002
+1.18529411765E+007, +7.46355603733E+000, +2.38640305906E+002
+1.19779724656E+007, +7.50754818944E+000, +2.41103785144E+002
+1.21030037547E+007, +7.51991561678E+000, +2.43698217145E+002
+1.22280350438E+007, +7.65185384665E+000, +2.46836655455E+002
+1.23530663329E+007, +8.19700492256E+000, +2.49493832500E+002
+1.24780976220E+007, +7.99265594382E+000, +2.51485208827E+002
+1.26031289111E+007, +7.85924318683E+000, +2.54215443935E+002
+1.27281602003E+007, +7.74295983582E+000, +2.56660727199E+002
+1.28531914894E+007, +7.84049022740E+000, +2.58803536592E+002
+1.29782227785E+007, +7.71762289667E+000, +2.62134088872E+002
+1.31032540676E+007, +7.99615900086E+000, +2.65139619182E+002
+1.32282853567E+007, +8.10233394681E+000, +2.67138244060E+002
+1.33533166458E+007, +8.13031000517E+000, +2.69737321927E+002
+1.34783479349E+007, +7.85825866348E+000, +2.72360159727E+002
+1.36033792240E+007, +8.01886824063E+000, +2.75074452770E+002
+1.37284105131E+007, +7.85380342518E+000, +2.77748976510E+002
+1.38534418023E+007, +8.25777890735E+000, +2.80493711575E+002
+1.39784730914E+007, +8.22929408300E+000, +2.82941861476E+002
+1.41035043805E+007, +7.98259395120E+000, +2.85765350036E+002
+1.42285356696E+007, +8.24632151231E+000, +2.88288995868E+002
+1.43535669587E+007, +8.32807197572E+000, +2.90921288245E+002
+1.44785982478E+007, +8.44480470569E+000, +2.93834017279E+002
+1.46036295369E+007, +8.48432208887E+000, +2.96439240807E+002
+1.47286608260E+007, +8.11671181323E+000, +2.98268908339E+002
+1.48536921151E+007, +8.37538505258E+000, +3.01492766954E+002
+1.49787234043E+007, +8.25970613096E+000, +3.04138843096E+002
+1.51037546934E+007, +8.85438624734E+000, +3.06939713143E+002
+1.52287859825E+007, +8.39930207184E+000, +3.09689704065E+002
+1.53538172716E+007, +8.17926667991E+000, +3.11752837781E+002
+1.54788485607E+007, +8.29863272246E+000, +3.14483512275E+002
+1.56038798498E+007, +8.18455740854E+000, +3.17517093564E+002
+1.57289111389E+007, +8.56054121000E+000, +3.19653935007E+002
+1.58539424280E+007, +8.88050877413E+000, +3.22289906720E+002
+1.59789737171E+007, +8.43017409022E+000, +3.25627242937E+002
+1.61040050063E+007, +8.86950053618E+000, +3.27774057349E+002
+1.62290362954E+007, +8.40113242047E+000, +3.30457957130E+002
+1.63540675845E+007, +8.78493466778E+000, +3.33482831539E+002
+1.64790988736E+007, +9.27429774039E+000, +3.36343838263E+002
+1.66041301627E+007, +9.18300001711E+000, +3.38808421496E+002
+1.67291614518E+007, +9.41129003712E+000, +3.40627378921E+002
+1.68541927409E+007, +8.94090890095E+000, +3.43642668241E+002
+1.69792240300E+007, +9.11799267925E+000, +3.46278362157E+002
+1.71042553191E+007, +7.59715609626E+000, +3.48652068977E+002
+1.72292866083E+007, +8.36890144743E+000, +3.52109923361E+002
+1.73543178974E+007, +9.03270197290E+000, +3.54837970814E+002
+1.74793491865E+007, +8.82018115768E+000, +3.57282492256E+002
+1.76043804756E+007, +8.65084167672E+000, +3.60613448835E+002
+1.77294117647E+007, +8.64310433077E+000, +3.63206863226E+002
+1.78544430538E+007, +8.46480560142E+000, +3.65245313105E+002
+1.79794743429E+007, +8.39300693555E+000, +3.68277967294E+002
+1.81045056320E+007, +9.05595545754E+000, +3.72146903011E+002
+1.82295369212E+007, +9.18509339486E+000, +3.73411355659E+002
+1.83545682103E+007, +8.71758586373E+000, +3.76908577345E+002
+1.84795994994E+007, +9.28225563709E+000, +3.80034590087E+002
+1.86046307885E+007, +8.41070887241E+000, +3.82635801633E+002
+1.87296620776E+007, +9.01748139437E+000, +3.84772045042E+002
+1.88546933667E+007, +9.42560363572E+000, +3.87983903759E+002
+1.89797246558E+007, +9.33481757379E+000, +3.90609553567E+002
+1.91047559449E+007, +9.46253531939E+000, +3.92402860811E+002
+1.92297872340E+007, +8.53852804412E+000, +3.95866166302E+002
+1.93548185232E+007, +9.67263889333E+000, +3.99039259915E+002
+1.94798498123E+007, +8.17837972412E+000, +4.01931492745E+002
+1.96048811014E+007, +9.94288881235E+000, +4.04076645020E+002
+1.97299123905E+007, +8.69023738654E+000, +4.07588499653E+002
+1.98549436796E+007, +9.46295301749E+000, +4.10058521733E+002
+1.99799749687E+007, +9.94187589170E+000, +4.13356637095E+002
+2.01050062578E+007, +9.74843859434E+000, +4.16814956279E+002
+2.02300375469E+007, +8.90460897060E+000, +4.17899366607E+002
+2.03550688360E+007, +9.37935663466E+000, +4.20770694112E+002
+2.04801001252E+007, +9.65066879760E+000, +4.24467776255E+002
+2.06051314143E+007, +9.44394774972E+000, +4.27025523418E+002
+2.07301627034E+007, +9.58009653573E+000, +4.29759216401E+002
+2.08551939925E+007, +9.55815088401E+000, +4.32860607377E+002
+2.09802252816E+007, +9.72717500505E+000, +4.35816673293E+002
+2.11052565707E+007, +9.58118240156E+000, +4.39468276133E+002
+2.12302878598E+007, +1.00017929530E+001, +4.41933900517E+002
+2.13553191489E+007, +9.42914220156E+000, +4.44520029244E+002
+2.14803504380E+007, +1.00992050573E+001, +4.47771436857E+002
+2.16053817272E+007, +1.06441857219E+001, +4.50586392491E+002
+2.17304130163E+007, +1.03419758166E+001, +4.54368970216E+002
+2.18554443054E+007, +9.84605665118E+000, +4.56462701281E+002
+2.19804755945E+007, +9.95557535047E+000, +4.59133697586E+002
+2.21055068836E+007, +1.07106033959E+001, +4.61258604590E+002
+2.22305381727E+007, +9.62835371797E+000, +4.65323504883E+002
+2.23555694618E+007, +1.00906393671E+001, +4.67705103983E+002
+2.24806007509E+007, +1.08208123973E+001, +4.71467751340E+002
+2.26056320401E+007, +1.15777259405E+001, +4.73970797840E+002
+2.27306633292E+007, +9.28526327851E+000, +4.77261083864E+002
+2.28556946183E+007, +1.18228686272E+001, +4.81071972263E+002
+2.29807259074E+007, +1.18397667239E+001, +4.83732708546E+002
+2.31057571965E+007, +1.18407995571E+001, +4.85950550352E+002
+2.32307884856E+007, +1.20002389824E+001, +4.88605157593E+002
+2.33558197747E+007, +1.17792053107E+001, +4.91421961189E+002
+2.34808510638E+007, +1.27325142720E+001, +4.93359089777E+002
+2.36058823529E+007, +1.29410483057E+001, +4.97790409228E+002
+2.37309136421E+007, +1.10603478245E+001, +5.00552444544E+002
+2.38559449312E+007, +1.37199457665E+001, +5.04024956558E+002
+2.39809762203E+007, +1.24620359626E+001, +5.07248202536E+002
+2.41060075094E+007, +1.16995481995E+001, +5.10390651382E+002
+2.42310387985E+007, +1.39794833500E+001, +5.12559048781E+002
+2.43560700876E+007, +1.33610989967E+001, +5.15779852295E+002
+2.44811013767E+007, +1.24689054084E+001, +5.18073824792E+002
+2.46061326658E+007, +1.34922857406E+001, +5.21471564424E+002
+2.47311639549E+007, +1.29966135264E+001, +5.24279131426E+002
+2.48561952441E+007, +1.31723979629E+001, +5.27557602344E+002
+2.49812265332E+007, +1.38082833746E+001, +5.31196951395E+002
+2.51062578223E+007, +1.42009266774E+001, +5.33607569595E+002
+2.52312891114E+007, +1.42679425343E+001, +5.36201726325E+002
+2.53563204005E+007, +1.31647924231E+001, +5.40337483686E+002
+2.54813516896E+007, +1.32807641389E+001, +5.43127156063E+002
+2.56063829787E+007, +1.46888156870E+001, +5.45912747392E+002
+2.57314142678E+007, +1.49132955997E+001, +5.49940126805E+002
+2.58564455569E+007, +1.47114552512E+001, +5.51673955935E+002
+2.59814768461E+007, +1.46900171117E+001, +5.55564146340E+002
+2.61065081352E+007, +1.54534492441E+001, +5.58102054081E+002
+2.62315394243E+007, +1.51444109624E+001, +5.62949496475E+002
+2.63565707134E+007, +1.51277089930E+001, +5.65195916482E+002
+2.64816020025E+007, +1.47311359283E+001, +5.68434716795E+002
+2.66066332916E+007, +1.62104536533E+001, +5.70780125857E+002
+2.67316645807E+007, +1.73346902285E+001, +5.74245098011E+002
+2.68566958698E+007, +1.59254544490E+001, +5.78053391365E+002
+2.69817271589E+007, +1.70523624382E+001, +5.82200880443E+002
+2.71067584481E+007, +1.77215634720E+001, +5.82619526391E+002
+2.72317897372E+007, +1.76692913521E+001, +5.86107548203E+002
+2.73568210263E+007, +1.83962690787E+001, +5.90316018320E+002
+2.74818523154E+007, +1.56822572286E+001, +5.93912193174E+002
+2.76068836045E+007, +1.77141172848E+001, +5.95857379795E+002
+2.77319148936E+007, +1.75556031950E+001, +5.98667392926E+002
+2.78569461827E+007, +1.73562751527E+001, +6.01158796379E+002
+2.79819774718E+007, +1.73561160100E+001, +6.04725558568E+002
+2.81070087610E+007, +1.89356375676E+001, +6.09435332852E+002
+2.82320400501E+007, +1.69414711799E+001, +6.12767291175E+002
+2.83570713392E+007, +1.70869269920E+001, +6.14785958459E+002
+2.84821026283E+007, +1.91150547545E+001, +6.17420971900E+002
+2.86071339174E+007, +1.66373854862E+001, +6.22931651262E+002
+2.87321652065E+007, +1.78668376465E+001, +6.24888531694E+002
+2.88571964956E+007, +1.75674399488E+001, +6.26745703177E+002
+2.89822277847E+007, +1.67982057837E+001, +6.31367516014E+002
+2.91072590738E+007, +1.82172467767E+001, +6.32692404766E+002
+2.92322903630E+007, +1.80363940195E+001, +6.39647399388E+002
+2.93573216521E+007, +1.89410425902E+001, +6.39292911765E+002
+2.94823529412E+007, +1.73878687208E+001, +6.46995050811E+002
+2.96073842303E+007, +1.82074815719E+001, +6.48762794870E+002
+2.97324155194E+007, +1.83969806470E+001, +6.49626049347E+002
+2.98574468085E+007, +1.75221984252E+001, +6.56027458397E+002
+2.99824780976E+007, +1.85398594497E+001, +6.56844495295E+002
+3.01075093867E+007, +1.92468270785E+001, +6.60330645037E+002
+3.02325406758E+007, +1.80073960764E+001, +6.64825930685E+002
+3.03575719650E+007, +1.85797411761E+001, +6.68931254023E+002
+3.04826032541E+007, +1.75447415304E+001, +6.69854593003E+002
+3.06076345432E+007, +1.90885621887E+001, +6.74412188121E+002
+3.07326658323E+007, +1.91618618816E+001, +6.77974864300E+002
+3.08576971214E+007, +1.92763133569E+001, +6.80946431490E+002
+3.09827284105E+007, +1.81029366705E+001, +6.87184111846E+002
+3.11077596996E+007, +1.72615616074E+001, +6.91464706471E+002
+3.12327909887E+007, +1.84501730625E+001, +6.91356363382E+002
+3.13578222778E+007, +1.76177163157E+001, +6.98388358846E+002
+3.14828535670E+007, +1.72725523711E+001, +6.99638091648E+002
+3.16078848561E+007, +2.02731834998E+001, +7.04665525206E+002
+3.17329161452E+007, +2.02513815006E+001, +7.06162686424E+002
+3.18579474343E+007, +1.94687914395E+001, +7.10594518648E+002
+3.19829787234E+007, +1.75792132552E+001, +7.16799982095E+002
+3.21080100125E+007, +1.73533977890E+001, +7.16935477459E+002
+3.22330413016E+007, +1.85333467820E+001, +7.20629141192E+002
+3.23580725907E+007, +1.98950792163E+001, +7.26354137785E+002
+3.24831038798E+007, +2.08596649435E+001, +7.29274868520E+002
+3.26081351690E+007, +1.90105024417E+001, +7.31569459225E+002
+3.27331664581E+007, +1.85058060230E+001, +7.36166292837E+002
+3.28581977472E+007, +2.06995938492E+001, +7.40975774442E+002
+3.29832290363E+007, +1.74041115875E+001, +7.44836423064E+002
+3.31082603254E+007, +2.06096936542E+001, +7.46517913483E+002
+3.32332916145E+007, +2.10817884841E+001, +7.53017359151E+002
+3.33583229036E+007, +1.84112226140E+001, +7.56013980770E+002
+3.34833541927E+007, +2.00917682539E+001, +7.57553831823E+002
+3.36083854819E+007, +1.79023749307E+001, +7.64100964955E+002
+3.37334167710E+007, +2.01253920759E+001, +7.62685849587E+002
+3.38584480601E+007, +2.08177086124E+001, +7.69023458990E+002
+3.39834793492E+007, +1.82890150268E+001, +7.75833824395E+002
+3.41085106383E+007, +2.26571558750E+001, +7.79908977594E+002
+3.42335419274E+007, +2.21063888564E+001, +7.84211227763E+002
+3.43585732165E+007, +2.03954821277E+001, +7.87590654474E+002
+3.44836045056E+007, +2.16635764642E+001, +7.93539902438E+002
+3.46086357947E+007, +2.16096644091E+001, +7.93380147127E+002
+3.47336670839E+007, +2.02791618269E+001, +7.99302497802E+002
+3.48586983730E+007, +2.16188620416E+001, +8.02769071187E+002
+3.49837296621E+007, +2.34720969362E+001, +8.05405954560E+002
+3.51087609512E+007, +1.97063808599E+001, +8.11525317166E+002
+3.52337922403E+007, +2.19581896945E+001, +8.14721025155E+002
+3.53588235294E+007, +2.21687447691E+001, +8.18282962621E+002
+3.54838548185E+007, +2.05201843966E+001, +8.20685675550E+002
+3.56088861076E+007, +2.40512623599E+001, +8.26362365212E+002
+3.57339173967E+007, +2.06481489412E+001, +8.35208431652E+002
+3.58589486859E+007, +2.24860047926E+001, +8.35086826609E+002
+3.59839799750E+007, +2.01591727623E+001, +8.41862781025E+002
+3.61090112641E+007, +1.70333239317E+001, +8.45241316358E+002
+3.62340425532E+007, +2.10169652902E+001, +8.47955810985E+002
+3.63590738423E+007, +2.44953656389E+001, +8.53107204097E+002
+3.64841051314E+007, +1.62283829877E+001, +8.58573218182E+002
+3.66091364205E+007, +2.09109289348E+001, +8.60505594480E+002
+3.67341677096E+007, +2.27270102010E+001, +8.66950271309E+002
+3.68591989987E+007, +2.17796031884E+001, +8.72264189715E+002
+3.69842302879E+007, +1.56772983461E+001, +8.76822641400E+002
+3.71092615770E+007, +2.24406590140E+001, +8.80937178632E+002
+3.72342928661E+007, +1.75007405968E+001, +8.84065023778E+002
+3.73593241552E+007, +1.90751094292E+001, +8.88453076190E+002
+3.74843554443E+007, +2.23518098676E+001, +8.96763436454E+002
+3.76093867334E+007, +1.94772918943E+001, +8.99487594692E+002
+3.77344180225E+007, +2.09228134716E+001, +9.05033194650E+002
+3.78594493116E+007, +2.01935535851E+001, +9.08555503026E+002
+3.79844806008E+007, +2.06163413390E+001, +9.16499298841E+002
+3.81095118899E+007, +1.76554837600E+001, +9.20573411809E+002
+3.82345431790E+007, +2.09526129953E+001, +9.24414517254E+002
+3.83595744681E+007, +2.11585200521E+001, +9.30146871242E+002
+3.84846057572E+007, +2.19565918134E+001, +9.33935931279E+002
+3.86096370463E+007, +1.79783245186E+001, +9.40645157814E+002
+3.87346683354E+007, +2.28841857261E+001, +9.41413503068E+002
+3.88596996245E+007, +2.09993115482E+001, +9.50261094260E+002
+3.89847309136E+007, +2.26592340226E+001, +9.57935688462E+002
+3.91097622028E+007, +1.86746267505E+001, +9.56907703358E+002
+3.92347934919E+007, +2.85496899244E+001, +9.66292676926E+002
+3.93598247810E+007, +2.32223339805E+001, +9.71945131781E+002
+3.94848560701E+007, +2.38803992014E+001, +9.78204014699E+002
+3.96098873592E+007, +2.22189177031E+001, +9.86520265601E+002
+3.97349186483E+007, +2.23441733986E+001, +9.89716674088E+002
+3.98599499374E+007, +2.28398985564E+001, +9.95121371575E+002
+3.99849812265E+007, +2.70816656647E+001, +9.97333503213E+002
+4.01100125156E+007, +2.39351382929E+001, +1.00226969119E+003
