"# Channel 1"
"# Trace 1"
Frequency, Formatted Data, Formatted Data
+1.00000000000E+005, +3.14866292626E-001, +1.95231396598E+000
+2.66777963272E+005, +3.31124814409E-001, +5.17472704136E+000
+4.33555926544E+005, +3.75692557540E-001, +8.39702795292E+000
+6.00333889816E+005, +4.50758584969E-001, +1.15502318980E+001
+7.67111853088E+005, +4.93801242369E-001, +1.47594288199E+001
+9.33889816361E+005, +5.32692846503E-001, +1.78702758573E+001
+1.10066777963E+006, +5.00509144035E-001, +2.10652155843E+001
+1.26744574290E+006, +5.61081531849E-001, +2.41712581033E+001
+1.43422370618E+006, +4.99227689463E-001, +2.74075590001E+001
+1.60100166945E+006, +6.23396783148E-001, +3.04806790166E+001
+1.76777963272E+006, +6.49809606239E-001, +3.36404463996E+001
+1.93455759599E+006, +6.56619225497E-001, +3.66981311727E+001
+2.10133555927E+006, +6.71752162899E-001, +3.98719023240E+001
+2.26811352254E+006, +7.20226360727E-001, +4.30402682162E+001
+2.43489148581E+006, +6.67696257633E-001, +4.62704832742E+001
+2.60166944908E+006, +7.05750263517E-001, +4.93204825199E+001
+2.76844741235E+006, +7.02466330760E-001, +5.25258820092E+001
+2.93522537563E+006, +6.44298944709E-001, +5.56559018539E+001
+3.10200333890E+006, +7.85373809408E-001, +5.87610791141E+001
+3.26878130217E+006, +6.09941969522E-001, +6.20233464446E+001
+3.43555926544E+006, +7.27445008962E-001, +6.51169521402E+001
+3.60233722871E+006, +7.75647742670E-001, +6.84018842956E+001
+3.76911519199E+006, +6.88820337257E-001, +7.16652169517E+001
+3.93589315526E+006, +6.54464736263E-001, +7.45897746790E+001
+4.10267111853E+006, +6.72776095480E-001, +7.80138117465E+001
+4.26944908180E+006, +7.29457100635E-001, +8.12499600421E+001
+4.43622704508E+006, +7.28506120471E-001, +8.42050626442E+001
+4.60300500835E+006, +6.85103215586E-001, +8.75961622640E+001
+4.76978297162E+006, +7.28554661283E-001, +9.06477019982E+001
+4.93656093489E+006, +8.06624506713E-001, +9.38219581046E+001
+5.10333889816E+006, +8.11184128113E-001, +9.69868377685E+001
+5.27011686144E+006, +1.00608458481E+000, +1.00423865610E+002
+5.43689482471E+006, +8.38018801840E-001, +1.03507483108E+002
+5.60367278798E+006, +8.86394468779E-001, +1.07039006300E+002
+5.77045075125E+006, +7.88863056339E-001, +1.09946660888E+002
+5.93722871452E+006, +9.59666141884E-001, +1.13345528602E+002
+6.10400667780E+006, +9.51065388596E-001, +1.16608314047E+002
+6.27078464107E+006, +1.12523396934E+000, +1.19692499996E+002
+6.43756260434E+006, +1.10339680112E+000, +1.22989287469E+002
+6.60434056761E+006, +1.15043262106E+000, +1.26196686773E+002
+6.77111853088E+006, +1.30106762263E+000, +1.29302266001E+002
+6.93789649416E+006, +1.19919240319E+000, +1.32682214216E+002
+7.10467445743E+006, +1.13216711833E+000, +1.35938807287E+002
+7.27145242070E+006, +1.26361123655E+000, +1.39193618420E+002
+7.43823038397E+006, +1.33462565488E+000, +1.42416185373E+002
+7.60500834725E+006, +1.20442604879E+000, +1.45787062248E+002
+7.77178631052E+006, +1.34482427686E+000, +1.49204207992E+002
+7.93856427379E+006, +1.25469306651E+000, +1.52220134176E+002
+8.10534223706E+006, +1.28415759607E+000, +1.55443378243E+002
+8.27212020033E+006, +1.29728682316E+000, +1.58776607711E+002
+8.43889816361E+006, +1.25433248904E+000, +1.62223950007E+002
+8.60567612688E+006, +1.00083729431E+000, +1.65538772686E+002
+8.77245409015E+006, +1.07512244887E+000, +1.68803900283E+002
+8.93923205342E+006, +1.13648939880E+000, +1.72202668528E+002
+9.10601001669E+006, +1.28398488212E+000, +1.75542649160E+002
+9.27278797997E+006, +1.16572820711E+000, +1.78905018221E+002
+9.43956594324E+006, +1.15813262362E+000, +1.82240436981E+002
+9.60634390651E+006, +1.10850957988E+000, +1.85636586726E+002
+9.77312186978E+006, +8.89457309519E-001, +1.88973790949E+002
+9.93989983306E+006, +1.23060951523E+000, +1.92469217226E+002
+1.01066777963E+007, +8.22760642224E-001, +1.95814888297E+002
+1.02734557596E+007, +9.41327600036E-001, +1.99217758820E+002
+1.04402337229E+007, +7.51253998820E-001, +2.02728470076E+002
+1.06070116861E+007, +8.71127899066E-001, +2.06078332954E+002
+1.07737896494E+007, +1.01264004270E+000, +2.09628617675E+002
+1.09405676127E+007, +1.08733481051E+000, +2.13157297578E+002
+1.11073455760E+007, +1.01284478597E+000, +2.16722820000E+002
+1.12741235392E+007, +9.34274134409E-001, +2.20131753127E+002
+1.14409015025E+007, +9.64788097118E-001, +2.23532499854E+002
+1.16076794658E+007, +1.03694138891E+000, +2.26985101407E+002
+1.17744574290E+007, +1.07677657818E+000, +2.30668808741E+002
+1.19412353923E+007, +8.19347341104E-001, +2.34012535186E+002
+1.21080133556E+007, +3.84334306294E-001, +2.37603868519E+002
+1.22747913189E+007, +8.28258968587E-001, +2.41646798831E+002
+1.24415692821E+007, +7.61941923604E-001, +2.44770430764E+002
+1.26083472454E+007, +6.86788893731E-001, +2.48653996470E+002
+1.27751252087E+007, +8.62992295685E-001, +2.52011700449E+002
+1.29419031720E+007, +5.26938379534E-001, +2.55344254647E+002
+1.31086811352E+007, +6.83295366901E-001, +2.59164275582E+002
+1.32754590985E+007, +7.48433417269E-001, +2.63009531128E+002
+1.34422370618E+007, +4.28641999035E-001, +2.66681604714E+002
+1.36090150250E+007, +1.05282302578E+000, +2.70256498535E+002
+1.37757929883E+007, +8.10500493228E-001, +2.73731030330E+002
+1.39425709516E+007, +7.29882132382E-001, +2.77820748528E+002
+1.41093489149E+007, +4.26886513067E-001, +2.81474065717E+002
+1.42761268781E+007, +8.69041896194E-001, +2.85022914216E+002
+1.44429048414E+007, +8.05983844398E-001, +2.88454197244E+002
+1.46096828047E+007, +5.49159597507E-001, +2.92594340802E+002
+1.47764607679E+007, +6.57663512451E-001, +2.96242694381E+002
+1.49432387312E+007, +8.35280088722E-001, +3.00182860618E+002
+1.51100166945E+007, +6.98571132330E-001, +3.04078891624E+002
+1.52767946578E+007, +9.52505804622E-001, +3.07420033336E+002
+1.54435726210E+007, +9.69761488570E-001, +3.11449293444E+002
+1.56103505843E+007, +1.45860163256E+000, +3.15533041619E+002
+1.57771285476E+007, +1.19978822769E+000, +3.19241498282E+002
+1.59439065109E+007, +4.60081314618E-001, +3.23442944574E+002
+1.61106844741E+007, +6.67299812086E-001, +3.26999227516E+002
+1.62774624374E+007, +1.15318710400E+000, +3.30396590284E+002
+1.64442404007E+007, +1.62584085661E-001, +3.34844479831E+002
+1.66110183639E+007, +9.71669037449E-001, +3.38317796549E+002
+1.67777963272E+007, +1.15940499748E+000, +3.42606361824E+002
+1.69445742905E+007, +9.45642333470E-001, +3.46489793123E+002
+1.71113522538E+007, -4.22102081466E-001, +3.50561715587E+002
+1.72781302170E+007, -1.38303697932E-001, +3.54998260190E+002
+1.74449081803E+007, -2.10869148512E-001, +3.58074037061E+002
+1.76116861436E+007, +7.40931211009E-001, +3.62868233680E+002
+1.77784641068E+007, +7.54081130644E-002, +3.66490960903E+002
+1.79452420701E+007, +5.34654606435E-001, +3.71058409896E+002
+1.81120200334E+007, +6.66892588267E-001, +3.74279764163E+002
+1.82787979967E+007, +1.16925009325E+000, +3.79628604307E+002
+1.84455759599E+007, +1.20605974315E+000, +3.83370192589E+002
+1.86123539232E+007, +1.31531002130E+000, +3.88683173953E+002
+1.87791318865E+007, +5.92440830875E-001, +3.92079215973E+002
+1.89459098497E+007, +8.38247277011E-001, +3.96960649971E+002
+1.91126878130E+007, +8.39090650559E-001, +4.00140356493E+002
+1.92794657763E+007, +3.35730841232E-001, +4.04484814983E+002
+1.94462437396E+007, +1.60677428412E+000, +4.09491365789E+002
+1.96130217028E+007, +2.54383926347E-001, +4.14315996068E+002
+1.97797996661E+007, +1.55608579275E+000, +4.17421436248E+002
+1.99465776294E+007, +2.72187448503E-001, +4.22165561566E+002
+2.01133555927E+007, +7.05096057175E-001, +4.27469699601E+002
+2.02801335559E+007, +6.74374261315E-001, +4.31859427244E+002
+2.04469115192E+007, +1.27091855889E+000, +4.35841646071E+002
+2.06136894825E+007, +1.23679096944E+000, +4.40976249076E+002
+2.07804674457E+007, +1.05329883670E+000, +4.45777022335E+002
+2.09472454090E+007, +7.97148335508E-001, +4.51262352906E+002
+2.11140233723E+007, +1.74109546328E+000, +4.53874842697E+002
+2.12808013356E+007, +1.13219895834E+000, +4.58537949751E+002
+2.14475792988E+007, +2.15120328921E+000, +4.64280791101E+002
+2.16143572621E+007, +2.02519252450E+000, +4.68194171292E+002
+2.17811352254E+007, +9.73263175530E-001, +4.72293852102E+002
+2.19479131886E+007, +2.66766621375E+000, +4.78196155445E+002
+2.21146911519E+007, +3.20286343462E+000, +4.81777603158E+002
+2.22814691152E+007, +2.25020994393E+000, +4.87500392139E+002
+2.24482470785E+007, +2.55683477978E+000, +4.93200244642E+002
+2.26150250417E+007, +3.59351301200E+000, +4.97361286728E+002
+2.27818030050E+007, +3.53717915265E+000, +5.01494632298E+002
+2.29485809683E+007, +4.65035376964E+000, +5.06266742422E+002
+2.31153589316E+007, +2.44217992696E+000, +5.12617891004E+002
+2.32821368948E+007, +4.34127323016E+000, +5.17571191013E+002
+2.34489148581E+007, +4.01869362726E+000, +5.20970161459E+002
+2.36156928214E+007, +5.29704591197E+000, +5.27648569847E+002
+2.37824707846E+007, +4.17200408849E+000, +5.31702891461E+002
+2.39492487479E+007, +3.65651535392E+000, +5.37363923539E+002
+2.41160267112E+007, +4.67332018297E+000, +5.41836447372E+002
+2.42828046745E+007, +4.66754774358E+000, +5.47483321113E+002
+2.44495826377E+007, +6.29356960538E+000, +5.55669254525E+002
+2.46163606010E+007, +6.43558806819E+000, +5.57402077488E+002
+2.47831385643E+007, +4.47104329140E+000, +5.63678469686E+002
+2.49499165275E+007, +6.87173306165E+000, +5.69936522158E+002
+2.51166944908E+007, +7.94572505881E+000, +5.74734394571E+002
+2.52834724541E+007, +8.87994067543E+000, +5.79367268554E+002
+2.54502504174E+007, +9.50188922125E+000, +5.86258128780E+002
+2.56170283806E+007, +6.77300183028E+000, +5.90844265626E+002
+2.57838063439E+007, +8.82766318154E+000, +5.98754076246E+002
+2.59505843072E+007, +1.08462907124E+001, +6.03123390815E+002
+2.61173622705E+007, +8.96458372342E+000, +6.08049887179E+002
+2.62841402337E+007, +1.02569114000E+001, +6.13721976912E+002
+2.64509181970E+007, +8.82838339561E+000, +6.18725277920E+002
+2.66176961603E+007, +1.03784743730E+001, +6.26199289417E+002
+2.67844741235E+007, +1.20930571531E+001, +6.30551559638E+002
+2.69512520868E+007, +1.20696117834E+001, +6.36760413503E+002
+2.71180300501E+007, +1.24395081037E+001, +6.38065335412E+002
+2.72848080134E+007, +1.21503924803E+001, +6.46180075607E+002
+2.74515859766E+007, +1.35758180433E+001, +6.50667528861E+002
+2.76183639399E+007, +1.16283769820E+001, +6.55285028798E+002
+2.77851419032E+007, +1.25177157960E+001, +6.62874113121E+002
+2.79519198664E+007, +1.46453228329E+001, +6.67164877021E+002
+2.81186978297E+007, +1.34458758592E+001, +6.73207927579E+002
+2.82854757930E+007, +1.23160516867E+001, +6.79402116939E+002
+2.84522537563E+007, +9.91282104248E+000, +6.87933722519E+002
+2.86190317195E+007, +1.06840477803E+001, +6.92341608956E+002
+2.87858096828E+007, +1.43933246247E+001, +6.99832586611E+002
+2.89525876461E+007, +1.17364690909E+001, +7.05674034208E+002
+2.91193656093E+007, +9.32656874694E+000, +7.11802417468E+002
+2.92861435726E+007, +9.03449806333E+000, +7.17730832964E+002
+2.94529215359E+007, +1.02718221819E+001, +7.25689343240E+002
+2.96196994992E+007, +1.05524525306E+001, +7.33776676117E+002
+2.97864774624E+007, +1.10477270977E+001, +7.38991172193E+002
+2.99532554257E+007, +1.10898405361E+001, +7.49558541768E+002
+3.01200333890E+007, +1.17202810761E+001, +7.54531646395E+002
+3.02868113523E+007, +1.03121688492E+001, +7.60877682811E+002
+3.04535893155E+007, +1.12405142168E+001, +7.71017614560E+002
+3.06203672788E+007, +1.21297957727E+001, +7.75209052555E+002
+3.07871452421E+007, +1.10598509116E+001, +7.84675653207E+002
+3.09539232053E+007, +1.28732662217E+001, +7.90564631795E+002
+3.11207011686E+007, +1.11244221472E+001, +7.97964631924E+002
+3.12874791319E+007, +9.18063424270E+000, +8.05766995088E+002
+3.14542570952E+007, +1.03221915065E+001, +8.12947891637E+002
+3.16210350584E+007, +1.02076710610E+001, +8.20486864367E+002
+3.17878130217E+007, +9.25670752187E+000, +8.30120822621E+002
+3.19545909850E+007, +1.19677134699E+001, +8.36098072724E+002
+3.21213689482E+007, +6.25666512729E+000, +8.45267397374E+002
+3.22881469115E+007, +8.74880673844E+000, +8.52387588893E+002
+3.24549248748E+007, +1.23413497310E+001, +8.62848901498E+002
+3.26217028381E+007, +9.99633886271E+000, +8.69293468858E+002
+3.27884808013E+007, +9.51312817880E+000, +8.79677949393E+002
+3.29552587646E+007, +1.41798520539E+001, +8.88117502310E+002
+3.31220367279E+007, +1.26025797644E+001, +8.97226890615E+002
+3.32888146912E+007, +1.10894283895E+001, +9.10992256890E+002
+3.34555926544E+007, +1.06552395398E+001, +9.14031689787E+002
+3.36223706177E+007, +1.29013897394E+001, +9.20753172949E+002
+3.37891485810E+007, +1.22075085368E+001, +9.30369427973E+002
+3.39559265442E+007, +1.30642876454E+001, +9.44522292885E+002
+3.41227045075E+007, +9.23458885475E+000, +9.52265019805E+002
+3.42894824708E+007, +1.19289932745E+001, +9.61336904904E+002
+3.44562604341E+007, +1.24895482543E+001, +9.74153859962E+002
+3.46230383973E+007, +1.41249968288E+001, +9.83155069118E+002
+3.47898163606E+007, +1.18164578377E+001, +9.89867281640E+002
+3.49565943239E+007, +1.74580658372E+001, +1.00295162200E+003
+3.51233722871E+007, +1.31567125477E+001, +1.01614800098E+003
+3.52901502504E+007, +1.89998266233E+001, +1.02395361550E+003
+3.54569282137E+007, +1.19801433011E+001, +1.03582925076E+003
+3.56237061770E+007, +1.01525225425E+001, +1.04898310215E+003
+3.57904841402E+007, +1.64007612095E+001, +1.05840018713E+003
+3.59572621035E+007, +1.50427042697E+001, +1.06984658811E+003
+3.61240400668E+007, +1.56432951914E+001, +1.07847869731E+003
+3.62908180301E+007, +1.58176726791E+001, +1.09776857675E+003
+3.64575959933E+007, +1.48288309267E+001, +1.10478449536E+003
+3.66243739566E+007, +2.16659061489E+001, +1.11643797006E+003
+3.67911519199E+007, +2.49827561924E+001, +1.13471051698E+003
+3.69579298831E+007, +1.55463518327E+001, +1.13930729555E+003
+3.71247078464E+007, +1.66041145503E+001, +1.15686247897E+003
+3.72914858097E+007, +1.63210949531E+001, +1.17123041059E+003
+3.74582637730E+007, +2.51384852461E+001, +1.19363907157E+003
+3.76250417362E+007, +2.08153056292E+001, +1.19986807714E+003
+3.77918196995E+007, +1.96202769864E+001, +1.21413229143E+003
+3.79585976628E+007, +2.06816780630E+001, +1.22853548402E+003
+3.81253756260E+007, +2.15902173658E+001, +1.23701520300E+003
+3.82921535893E+007, +2.57342416647E+001, +1.25071715904E+003
+3.84589315526E+007, +2.57340811542E+001, +1.27132049594E+003
+3.86257095159E+007, +2.32435121485E+001, +1.28923952345E+003
+3.87924874791E+007, +2.32945660167E+001, +1.30881053405E+003
+3.89592654424E+007, +2.29711571495E+001, +1.31468628654E+003
+3.91260434057E+007, +2.47734933278E+001, +1.34502309173E+003
+3.92928213689E+007, +2.96065984988E+001, +1.35126498220E+003
+3.94595993322E+007, +2.20329222626E+001, +1.37848713731E+003
+3.96263772955E+007, +2.35884092226E+001, +1.38931460938E+003
+3.97931552588E+007, +2.43405923346E+001, +1.40503793225E+003
+3.99599332220E+007, +2.74130432230E+001, +1.41542758013E+003
+4.01267111853E+007, +3.41456423871E+001, +1.45272799255E+003
+4.02934891486E+007, +3.02756319486E+001, +1.44891880630E+003
+4.04602671119E+007, +3.24430778639E+001, +1.47611705062E+003
+4.06270450751E+007, +3.65436990907E+001, +1.49309562651E+003
+4.07938230384E+007, +3.76351738511E+001, +1.51877691533E+003
+4.09606010017E+007, +3.65733103455E+001, +1.53414035445E+003
+4.11273789649E+007, +3.99440298234E+001, +1.55609441694E+003
+4.12941569282E+007, +3.57174269060E+001, +1.58197941141E+003
+4.14609348915E+007, +4.67873861137E+001, +1.61676532685E+003
+4.16277128548E+007, +4.72825626257E+001, +1.63410704337E+003
+4.17944908180E+007, +4.21027518438E+001, +1.65505472776E+003
+4.19612687813E+007, +4.71009295901E+001, +1.67512433034E+003
+4.21280467446E+007, +4.89526565045E+001, +1.70535282353E+003
+4.22948247078E+007, +5.43932090272E+001, +1.73478222058E+003
+4.24616026711E+007, +6.56853623800E+001, +1.75305939564E+003
+4.26283806344E+007, +5.91651877957E+001, +1.78619004231E+003
+4.27951585977E+007, +5.30397308251E+001, +1.82135301009E+003
+4.29619365609E+007, +8.00443433868E+001, +1.84551440601E+003
+4.31287145242E+007, +6.67128586507E+001, +1.86754771882E+003
+4.32954924875E+007, +6.99813141678E+001, +1.90312904902E+003
+4.34622704508E+007, +5.71247202501E+001, +1.96071390974E+003
+4.36290484140E+007, +8.53231443101E+001, +1.97021895506E+003
+4.37958263773E+007, +8.49798739845E+001, +2.02362945643E+003
+4.39626043406E+007, +8.45162286362E+001, +2.04093596164E+003
+4.41293823038E+007, +9.37375448645E+001, +2.10160177207E+003
+4.42961602671E+007, +9.69588305824E+001, +2.10571505839E+003
+4.44629382304E+007, +9.38023134052E+001, +2.17300611049E+003
+4.46297161937E+007, +1.19969970693E+002, +2.20320248427E+003
+4.47964941569E+007, +1.15503406165E+002, +2.25371853056E+003
+4.49632721202E+007, +1.18295472102E+002, +2.28757346994E+003
+4.51300500835E+007, +1.20404617890E+002, +2.32498180639E+003
+4.52968280467E+007, +1.50239285513E+002, +2.36304128658E+003
+4.54636060100E+007, +1.44510451246E+002, +2.46563497063E+003
+4.56303839733E+007, +1.44733856633E+002, +2.50773839847E+003
+4.57971619366E+007, +1.72999356096E+002, +2.55848697564E+003
+4.59639398998E+007, +1.51360172550E+002, +2.66589934454E+003
+4.61307178631E+007, +1.88285174045E+002, +2.69744645648E+003
+4.62974958264E+007, +2.30986591365E+002, +2.74927541704E+003
+4.64642737896E+007, +2.09078783529E+002, +2.81926814674E+003
+4.66310517529E+007, +2.42888089179E+002, +2.88207732600E+003
+4.67978297162E+007, +2.44942042861E+002, +2.92571872799E+003
+4.69646076795E+007, +2.77287033102E+002, +3.05504068601E+003
+4.71313856427E+007, +3.22253368039E+002, +3.11970165343E+003
+4.72981636060E+007, +3.39392987898E+002, +3.21396150743E+003
+4.74649415693E+007, +3.22163080356E+002, +3.27557048056E+003
+4.76317195326E+007, +4.76125875132E+002, +3.35751657452E+003
+4.77984974958E+007, +4.78091318550E+002, +3.47702530970E+003
+4.79652754591E+007, +5.08161815346E+002, +3.55186359138E+003
+4.81320534224E+007, +5.80312592450E+002, +3.63296824929E+003
+4.82988313856E+007, +5.82595855743E+002, +3.73014873431E+003
+4.84656093489E+007, +6.85631694921E+002, +3.89167333951E+003
+4.86323873122E+007, +8.21074552959E+002, +3.96408577534E+003
+4.87991652755E+007, +8.45913834480E+002, +4.09130015607E+003
+4.89659432387E+007, +8.71326734896E+002, +4.18154720708E+003
+4.91327212020E+007, +1.01338126007E+003, +4.30624559132E+003
+4.92994991653E+007, +1.12214798613E+003, +4.47576059317E+003
+4.94662771285E+007, +1.28089932760E+003, +4.59427907641E+003
+4.96330550918E+007, +1.39147691305E+003, +4.58345288726E+003
+4.97998330551E+007, +1.47129528959E+003, +4.77298011345E+003
+4.99666110184E+007, +1.65567135273E+003, +4.98765600294E+003
+5.01333889816E+007, +1.83154413611E+003, +5.08244353123E+003
+5.03001669449E+007, +1.84291310910E+003, +5.12718331454E+003
+5.04669449082E+007, +2.18617047870E+003, +5.35384327458E+003
+5.06337228715E+007, +2.43505849786E+003, +5.39336118062E+003
+5.08005008347E+007, +2.33819100200E+003, +5.57798341218E+003
+5.09672787980E+007, +2.53988078257E+003, +5.64411103952E+003
+5.11340567613E+007, +2.89823473463E+003, +6.03647234132E+003
+5.13008347245E+007, +2.99666663865E+003, +6.28875588866E+003
+5.14676126878E+007, +3.32618302635E+003, +6.45097310144E+003
+5.16343906511E+007, +3.58773275185E+003, +6.63544604752E+003
+5.18011686144E+007, +4.03344501977E+003, +7.00010868367E+003
+5.19679465776E+007, +4.48777995842E+003, +7.34905477397E+003
+5.21347245409E+007, +5.23268724805E+003, +7.56887371860E+003
+5.23015025042E+007, +6.34277283332E+003, +7.93128102875E+003
+5.24682804674E+007, +7.17614303136E+003, +8.59623833455E+003
+5.26350584307E+007, +7.92425719701E+003, +8.18594917984E+003
+5.28018363940E+007, +9.66338151743E+003, +8.67121281476E+003
+5.29686143573E+007, +1.17029148776E+004, +8.55423685657E+003
+5.31353923205E+007, +1.22035454017E+004, +8.01183540843E+003
+5.33021702838E+007, +1.45982755353E+004, +5.52244724828E+003
+5.34689482471E+007, +1.54998736079E+004, +3.17655694762E+003
