"# Channel 1"
"# Trace 1"
Frequency, Formatted Data, Formatted Data
+1.00000000000E+005, +3.19190484865E-001, +1.95086406227E+000
+2.66777963272E+005, +3.34083026517E-001, +5.17373040690E+000
+4.33555926544E+005, +3.67803200016E-001, +8.39762304610E+000
+6.00333889816E+005, +4.32946305557E-001, +1.15476906352E+001
+7.67111853088E+005, +5.03171043905E-001, +1.47446294063E+001
+9.33889816361E+005, +5.26659741965E-001, +1.78744846944E+001
+1.10066777963E+006, +4.86166359646E-001, +2.10727657567E+001
+1.26744574290E+006, +5.90497188677E-001, +2.41849667536E+001
+1.43422370618E+006, +5.26691260188E-001, +2.74163063875E+001
+1.60100166945E+006, +6.38084112509E-001, +3.04650253951E+001
+1.76777963272E+006, +6.32653268363E-001, +3.36412092197E+001
+1.93455759599E+006, +6.50372407387E-001, +3.67035345757E+001
+2.10133555927E+006, +6.56381995977E-001, +3.98766408011E+001
+2.26811352254E+006, +7.10203610127E-001, +4.30519046233E+001
+2.43489148581E+006, +6.62762283413E-001, +4.62291698849E+001
+2.60166944908E+006, +6.93134205913E-001, +4.93142581326E+001
+2.76844741235E+006, +6.45434780023E-001, +5.25775123273E+001
+2.93522537563E+006, +6.87389059333E-001, +5.56865556286E+001
+3.10200333890E+006, +8.35377156337E-001, +5.87734282099E+001
+3.26878130217E+006, +6.15632511248E-001, +6.19877697382E+001
+3.43555926544E+006, +7.27748468766E-001, +6.51047777475E+001
+3.60233722871E+006, +7.71293487665E-001, +6.83812040084E+001
+3.76911519199E+006, +6.60823079901E-001, +7.16210347771E+001
+3.93589315526E+006, +6.39004261198E-001, +7.46365544606E+001
+4.10267111853E+006, +7.20682938935E-001, +7.79865665611E+001
+4.26944908180E+006, +6.98781833953E-001, +8.12395579767E+001
+4.43622704508E+006, +7.31088686936E-001, +8.42249052834E+001
+4.60300500835E+006, +7.80877596583E-001, +8.75283261780E+001
+4.76978297162E+006, +6.42735893839E-001, +9.06745885193E+001
+4.93656093489E+006, +8.25330646531E-001, +9.38925129267E+001
+5.10333889816E+006, +8.71291311748E-001, +9.70071195566E+001
+5.27011686144E+006, +9.45220883420E-001, +1.00479092267E+002
+5.43689482471E+006, +7.53623215620E-001, +1.03602850951E+002
+5.60367278798E+006, +8.35827752162E-001, +1.06856585270E+002
+5.77045075125E+006, +8.06994488532E-001, +1.09909151331E+002
+5.93722871452E+006, +8.84239787034E-001, +1.13205459133E+002
+6.10400667780E+006, +9.55118991903E-001, +1.16497551516E+002
+6.27078464107E+006, +1.12050912429E+000, +1.19735395187E+002
+6.43756260434E+006, +1.16111318482E+000, +1.22993489626E+002
+6.60434056761E+006, +1.24903775815E+000, +1.26252176660E+002
+6.77111853088E+006, +1.33429155854E+000, +1.29394822705E+002
+6.93789649416E+006, +1.24913372319E+000, +1.32700749413E+002
+7.10467445743E+006, +1.20556279857E+000, +1.35936672268E+002
+7.27145242070E+006, +1.29810299484E+000, +1.39182709348E+002
+7.43823038397E+006, +1.36178890733E+000, +1.42356138530E+002
+7.60500834725E+006, +1.23462850285E+000, +1.45630654114E+002
+7.77178631052E+006, +1.36443277276E+000, +1.49105668515E+002
+7.93856427379E+006, +1.30897232039E+000, +1.52156980287E+002
+8.10534223706E+006, +1.29478165801E+000, +1.55533186510E+002
+8.27212020033E+006, +1.30215614595E+000, +1.58797823581E+002
+8.43889816361E+006, +1.10246471808E+000, +1.62179060865E+002
+8.60567612688E+006, +1.15946968316E+000, +1.65575896063E+002
+8.77245409015E+006, +1.08988098164E+000, +1.68663538401E+002
+8.93923205342E+006, +1.17807800591E+000, +1.72160085026E+002
+9.10601001669E+006, +1.19491141139E+000, +1.75466324528E+002
+9.27278797997E+006, +1.12214189878E+000, +1.78839948725E+002
+9.43956594324E+006, +1.05111411178E+000, +1.82169239544E+002
+9.60634390651E+006, +9.58840401237E-001, +1.85654273178E+002
+9.77312186978E+006, +1.14314174314E+000, +1.88949660585E+002
+9.93989983306E+006, +1.32815136028E+000, +1.92563007185E+002
+1.01066777963E+007, +1.01121479858E+000, +1.95712252660E+002
+1.02734557596E+007, +1.10587547568E+000, +1.99315802359E+002
+1.04402337229E+007, +9.11966222726E-001, +2.02639692154E+002
+1.06070116861E+007, +8.17693267856E-001, +2.06177238576E+002
+1.07737896494E+007, +9.55873770877E-001, +2.09572452672E+002
+1.09405676127E+007, +1.12324093504E+000, +2.12853340837E+002
+1.11073455760E+007, +1.02819119508E+000, +2.16558958954E+002
+1.12741235392E+007, +9.36045558036E-001, +2.20193677820E+002
+1.14409015025E+007, +9.47393034201E-001, +2.23494863243E+002
+1.16076794658E+007, +1.02739948467E+000, +2.27136005284E+002
+1.17744574290E+007, +9.93193076592E-001, +2.30780375448E+002
+1.19412353923E+007, +8.74606845476E-001, +2.33993199566E+002
+1.21080133556E+007, +7.54804552008E-001, +2.37838935385E+002
+1.22747913189E+007, +1.12556547179E+000, +2.41437478102E+002
+1.24415692821E+007, +6.82095186041E-001, +2.44996210856E+002
+1.26083472454E+007, +4.66012067476E-001, +2.48393936308E+002
+1.27751252087E+007, +7.95774643071E-001, +2.52041170401E+002
+1.29419031720E+007, +6.74215774878E-001, +2.55602726825E+002
+1.31086811352E+007, +1.07111607948E+000, +2.59128243773E+002
+1.32754590985E+007, +6.19721588702E-001, +2.62751184494E+002
+1.34422370618E+007, +5.12217079936E-001, +2.66647474233E+002
+1.36090150250E+007, +1.15629784538E+000, +2.69935445021E+002
+1.37757929883E+007, +6.68272306949E-001, +2.73806488602E+002
+1.39425709516E+007, +8.11361004930E-001, +2.77808952549E+002
+1.41093489149E+007, +8.28865528703E-001, +2.81274762076E+002
+1.42761268781E+007, +8.74704977483E-001, +2.85166081758E+002
+1.44429048414E+007, +9.21321975194E-001, +2.88563932799E+002
+1.46096828047E+007, +7.99373439184E-001, +2.92757610826E+002
+1.47764607679E+007, +1.05498416664E+000, +2.96028191557E+002
+1.49432387312E+007, +7.47134763699E-001, +3.00220929240E+002
+1.51100166945E+007, +7.14343001974E-001, +3.04184292483E+002
+1.52767946578E+007, +1.05005416724E+000, +3.07841681691E+002
+1.54435726210E+007, +7.79225584398E-001, +3.11461472130E+002
+1.56103505843E+007, +1.35472434456E+000, +3.15361711988E+002
+1.57771285476E+007, +1.03390330267E+000, +3.18971631917E+002
+1.59439065109E+007, +1.31131717041E+000, +3.23127061579E+002
+1.61106844741E+007, +1.06869258776E+000, +3.27085029418E+002
+1.62774624374E+007, +9.80078966789E-001, +3.30630009110E+002
+1.64442404007E+007, +9.09046071494E-001, +3.34907991413E+002
+1.66110183639E+007, +9.79789122993E-001, +3.38685627939E+002
+1.67777963272E+007, +9.48883062741E-001, +3.42780167202E+002
+1.69445742905E+007, +9.78142346350E-001, +3.46617166849E+002
+1.71113522538E+007, -4.23029417364E-001, +3.50294148320E+002
+1.72781302170E+007, +5.19624548912E-001, +3.54716812564E+002
+1.74449081803E+007, -5.32027740368E-002, +3.58307272416E+002
+1.76116861436E+007, +7.33468491951E-001, +3.62657413290E+002
+1.77784641068E+007, +6.23389041484E-001, +3.66673339450E+002
+1.79452420701E+007, +7.65584271211E-001, +3.70373754595E+002
+1.81120200334E+007, +6.60948636562E-001, +3.74572357582E+002
+1.82787979967E+007, +9.02334650426E-001, +3.79267914135E+002
+1.84455759599E+007, +1.32062098205E+000, +3.83685094432E+002
+1.86123539232E+007, +8.47249775877E-001, +3.87582562309E+002
+1.87791318865E+007, +8.95405331221E-001, +3.91680619746E+002
+1.89459098497E+007, +6.14533208411E-001, +3.96362663080E+002
+1.91126878130E+007, +1.47229755227E+000, +4.00407732663E+002
+1.92794657763E+007, +1.09700347067E+000, +4.04176580252E+002
+1.94462437396E+007, +1.53644070229E+000, +4.09395275460E+002
+1.96130217028E+007, +1.00889775118E+000, +4.13518094695E+002
+1.97797996661E+007, +1.10825219068E+000, +4.17301513304E+002
+1.99465776294E+007, +5.57691710657E-001, +4.21728390896E+002
+2.01133555927E+007, +9.89732525450E-001, +4.26341704770E+002
+2.02801335559E+007, +8.58781374780E-001, +4.31470785185E+002
+2.04469115192E+007, +1.31223294805E+000, +4.36714278032E+002
+2.06136894825E+007, +1.56921218794E+000, +4.39947458889E+002
+2.07804674457E+007, +1.87606915001E+000, +4.45738114744E+002
+2.09472454090E+007, +4.95894634458E-002, +4.49973416220E+002
+2.11140233723E+007, +1.65903967663E+000, +4.54481631818E+002
+2.12808013356E+007, +1.76918422169E+000, +4.58485049958E+002
+2.14475792988E+007, +2.00906371556E+000, +4.63512797709E+002
+2.16143572621E+007, +2.82714557510E+000, +4.67684327753E+002
+2.17811352254E+007, +1.89209172637E+000, +4.72179381797E+002
+2.19479131886E+007, +2.67031581453E+000, +4.78095207151E+002
+2.21146911519E+007, +4.11852146307E+000, +4.82453862891E+002
+2.22814691152E+007, +2.47332493851E+000, +4.87188402908E+002
+2.24482470785E+007, +2.50446374039E+000, +4.93002003453E+002
+2.26150250417E+007, +3.24243939405E+000, +4.96826363444E+002
+2.27818030050E+007, +2.98595545750E+000, +5.02223111916E+002
+2.29485809683E+007, +4.98162129999E+000, +5.07256635352E+002
+2.31153589316E+007, +3.54548879453E+000, +5.12648315437E+002
+2.32821368948E+007, +5.44945922734E+000, +5.17869378755E+002
+2.34489148581E+007, +5.57366338985E+000, +5.20889520689E+002
+2.36156928214E+007, +5.13664633192E+000, +5.28371297996E+002
+2.37824707846E+007, +4.82574898570E+000, +5.32337042232E+002
+2.39492487479E+007, +5.31518618074E+000, +5.37024605919E+002
+2.41160267112E+007, +5.07561999139E+000, +5.42789543088E+002
+2.42828046745E+007, +4.97554850033E+000, +5.47094054314E+002
+2.44495826377E+007, +6.99038120507E+000, +5.54365625906E+002
+2.46163606010E+007, +6.76311167502E+000, +5.57831551488E+002
+2.47831385643E+007, +6.24541086845E+000, +5.64808036274E+002
+2.49499165275E+007, +7.51251295052E+000, +5.69197926425E+002
+2.51166944908E+007, +9.30383279851E+000, +5.75268334879E+002
+2.52834724541E+007, +8.58784057724E+000, +5.79307318063E+002
+2.54502504174E+007, +8.72774564094E+000, +5.85996500969E+002
+2.56170283806E+007, +7.99350985800E+000, +5.90918426177E+002
+2.57838063439E+007, +9.87989229782E+000, +5.96383302776E+002
+2.59505843072E+007, +9.39707059384E+000, +6.02706950665E+002
+2.61173622705E+007, +1.13667977336E+001, +6.08531899543E+002
+2.62841402337E+007, +1.00180762480E+001, +6.14341521989E+002
+2.64509181970E+007, +8.54613472301E+000, +6.18884732889E+002
+2.66176961603E+007, +1.01681263412E+001, +6.24093286866E+002
+2.67844741235E+007, +1.07847537346E+001, +6.28585940411E+002
+2.69512520868E+007, +1.16776499369E+001, +6.34570464581E+002
+2.71180300501E+007, +1.18400759818E+001, +6.39171260870E+002
+2.72848080134E+007, +1.14168752836E+001, +6.46878023787E+002
+2.74515859766E+007, +1.28360027918E+001, +6.52451792589E+002
+2.76183639399E+007, +1.06581918899E+001, +6.54795295170E+002
+2.77851419032E+007, +1.05685886224E+001, +6.59672774632E+002
+2.79519198664E+007, +1.30802782171E+001, +6.69121030964E+002
+2.81186978297E+007, +1.36929754171E+001, +6.72927825609E+002
+2.82854757930E+007, +1.28912403482E+001, +6.79463842856E+002
+2.84522537563E+007, +1.04792494042E+001, +6.86846330386E+002
+2.86190317195E+007, +9.28753333658E+000, +6.92180398060E+002
+2.87858096828E+007, +1.29068176192E+001, +6.99449881162E+002
+2.89525876461E+007, +1.18932263369E+001, +7.04635997906E+002
+2.91193656093E+007, +1.16174381469E+001, +7.09022915335E+002
+2.92861435726E+007, +1.00019080300E+001, +7.16882676783E+002
+2.94529215359E+007, +1.13596776507E+001, +7.25401012693E+002
+2.96196994992E+007, +1.24427486296E+001, +7.32199936317E+002
+2.97864774624E+007, +1.16372818314E+001, +7.39189174499E+002
+2.99532554257E+007, +1.39719501829E+001, +7.47587483177E+002
+3.01200333890E+007, +8.34739733822E+000, +7.54627937009E+002
+3.02868113523E+007, +8.87322553676E+000, +7.62033884431E+002
+3.04535893155E+007, +9.63800210693E+000, +7.69671300123E+002
+3.06203672788E+007, +1.27274498346E+001, +7.77401752513E+002
+3.07871452421E+007, +9.96265545094E+000, +7.84218563503E+002
+3.09539232053E+007, +9.84964250293E+000, +7.88237900060E+002
+3.11207011686E+007, +1.00567134421E+001, +8.01112800574E+002
+3.12874791319E+007, +1.25681773772E+001, +8.04963758529E+002
+3.14542570952E+007, +9.86293069741E+000, +8.13192465428E+002
+3.16210350584E+007, +9.50522756410E+000, +8.22288838489E+002
+3.17878130217E+007, +9.66782073768E+000, +8.29788241922E+002
+3.19545909850E+007, +9.84420493278E+000, +8.37266100872E+002
+3.21213689482E+007, +9.90289437602E+000, +8.46315571011E+002
+3.22881469115E+007, +1.21232900463E+001, +8.52164590625E+002
+3.24549248748E+007, +1.22833448188E+001, +8.65075451687E+002
+3.26217028381E+007, +6.54028784810E+000, +8.72353969186E+002
+3.27884808013E+007, +1.04474854508E+001, +8.80314061061E+002
+3.29552587646E+007, +1.27611729820E+001, +8.85495676756E+002
+3.31220367279E+007, +1.10102777556E+001, +8.96847994123E+002
+3.32888146912E+007, +1.17453612273E+001, +9.09425349705E+002
+3.34555926544E+007, +1.07036153385E+001, +9.14425388319E+002
+3.36223706177E+007, +1.23600639369E+001, +9.23519239561E+002
+3.37891485810E+007, +1.19038580832E+001, +9.30530996962E+002
+3.39559265442E+007, +1.30178592842E+001, +9.45140242209E+002
+3.41227045075E+007, +1.39279075454E+001, +9.52691939729E+002
+3.42894824708E+007, +1.31865868869E+001, +9.63677919474E+002
+3.44562604341E+007, +1.31340683927E+001, +9.71942134135E+002
+3.46230383973E+007, +1.10825535545E+001, +9.85677114161E+002
+3.47898163606E+007, +1.04829578196E+001, +9.90394723950E+002
+3.49565943239E+007, +1.71632735576E+001, +1.00412619740E+003
+3.51233722871E+007, +1.28335887912E+001, +1.01857436405E+003
+3.52901502504E+007, +1.66246784567E+001, +1.01885697382E+003
+3.54569282137E+007, +1.52428619819E+001, +1.03174797436E+003
+3.56237061770E+007, +1.36852131101E+001, +1.04870795115E+003
+3.57904841402E+007, +1.26606636234E+001, +1.05958548531E+003
+3.59572621035E+007, +1.39377565269E+001, +1.06814643088E+003
+3.61240400668E+007, +1.17020034340E+001, +1.07817521733E+003
+3.62908180301E+007, +2.04330140216E+001, +1.09793071171E+003
+3.64575959933E+007, +1.18379951684E+001, +1.10886010277E+003
+3.66243739566E+007, +2.16701450126E+001, +1.11445671032E+003
+3.67911519199E+007, +1.72745337908E+001, +1.13385753063E+003
+3.69579298831E+007, +1.96682616002E+001, +1.13964655643E+003
+3.71247078464E+007, +1.73324322429E+001, +1.15902074802E+003
+3.72914858097E+007, +2.27423963420E+001, +1.17335938268E+003
+3.74582637730E+007, +2.20088081628E+001, +1.18793015217E+003
+3.76250417362E+007, +2.01718940493E+001, +1.20094784340E+003
+3.77918196995E+007, +1.92278989454E+001, +1.21299825245E+003
+3.79585976628E+007, +2.40507064243E+001, +1.22513651666E+003
+3.81253756260E+007, +2.62020101694E+001, +1.23545157861E+003
+3.82921535893E+007, +3.17693343441E+001, +1.25870658094E+003
+3.84589315526E+007, +2.54290041182E+001, +1.27184510290E+003
+3.86257095159E+007, +2.09510727259E+001, +1.28933844738E+003
+3.87924874791E+007, +1.44699301576E+001, +1.30127743413E+003
+3.89592654424E+007, +2.57632471199E+001, +1.31742959419E+003
+3.91260434057E+007, +2.83828718889E+001, +1.34223103224E+003
+3.92928213689E+007, +2.93347839332E+001, +1.35237904829E+003
+3.94595993322E+007, +2.86902212011E+001, +1.37436874204E+003
+3.96263772955E+007, +2.66885073877E+001, +1.37965819480E+003
+3.97931552588E+007, +2.89351828121E+001, +1.40529602705E+003
+3.99599332220E+007, +2.54349065047E+001, +1.42521931076E+003
+4.01267111853E+007, +3.20398883787E+001, +1.44797007663E+003
+4.02934891486E+007, +2.84923598452E+001, +1.46061887771E+003
+4.04602671119E+007, +3.68138581374E+001, +1.47768036273E+003
+4.06270450751E+007, +3.69077669409E+001, +1.50219099976E+003
+4.07938230384E+007, +4.20030897083E+001, +1.52282639887E+003
+4.09606010017E+007, +5.03312771200E+001, +1.54290205977E+003
+4.11273789649E+007, +4.33052065374E+001, +1.56212851322E+003
+4.12941569282E+007, +4.30733047521E+001, +1.58922727388E+003
+4.14609348915E+007, +4.67657834705E+001, +1.62572699935E+003
+4.16277128548E+007, +5.67597125529E+001, +1.63538618318E+003
+4.17944908180E+007, +4.99241222218E+001, +1.64653919351E+003
+4.19612687813E+007, +5.79233590515E+001, +1.67741627429E+003
+4.21280467446E+007, +4.78952723066E+001, +1.70684216524E+003
+4.22948247078E+007, +6.07764080052E+001, +1.73915780146E+003
+4.24616026711E+007, +7.34026242410E+001, +1.76156823605E+003
+4.26283806344E+007, +6.53473022036E+001, +1.78193565760E+003
+4.27951585977E+007, +5.02095785996E+001, +1.82400418261E+003
+4.29619365609E+007, +7.64741761114E+001, +1.85219431621E+003
+4.31287145242E+007, +7.44057476125E+001, +1.87718732981E+003
+4.32954924875E+007, +7.84557730136E+001, +1.90910283164E+003
+4.34622704508E+007, +6.49586478034E+001, +1.94811620460E+003
+4.36290484140E+007, +9.66679964777E+001, +1.98086359366E+003
+4.37958263773E+007, +9.36713432049E+001, +2.01986231338E+003
+4.39626043406E+007, +8.68732231533E+001, +2.04103545789E+003
+4.41293823038E+007, +1.09359145962E+002, +2.08966058494E+003
+4.42961602671E+007, +8.45214181049E+001, +2.11647615642E+003
+4.44629382304E+007, +8.81819726296E+001, +2.15040223592E+003
+4.46297161937E+007, +1.14279788647E+002, +2.20024420587E+003
+4.47964941569E+007, +1.02261170195E+002, +2.24107482213E+003
+4.49632721202E+007, +1.10002441837E+002, +2.29426725875E+003
+4.51300500835E+007, +1.14815993477E+002, +2.31615199856E+003
+4.52968280467E+007, +1.56262855791E+002, +2.37773090576E+003
+4.54636060100E+007, +1.79828051163E+002, +2.46409073631E+003
+4.56303839733E+007, +1.70404252276E+002, +2.49958886189E+003
+4.57971619366E+007, +1.73610426079E+002, +2.56356993778E+003
+4.59639398998E+007, +1.45622159561E+002, +2.67276670655E+003
+4.61307178631E+007, +1.86851079191E+002, +2.68653195446E+003
+4.62974958264E+007, +2.22079851371E+002, +2.74594271996E+003
+4.64642737896E+007, +2.05449157935E+002, +2.79708285276E+003
+4.66310517529E+007, +2.26005029771E+002, +2.89928243322E+003
+4.67978297162E+007, +2.94994961481E+002, +2.93139260622E+003
+4.69646076795E+007, +2.88404583019E+002, +3.07146174985E+003
+4.71313856427E+007, +3.20356417554E+002, +3.10584393021E+003
+4.72981636060E+007, +3.42486618601E+002, +3.22640426504E+003
+4.74649415693E+007, +3.40326055715E+002, +3.28966870041E+003
+4.76317195326E+007, +4.45774358125E+002, +3.33752121336E+003
+4.77984974958E+007, +4.56081590004E+002, +3.45016663131E+003
+4.79652754591E+007, +5.14685244212E+002, +3.58466859784E+003
+4.81320534224E+007, +5.56972966744E+002, +3.65294594458E+003
+4.82988313856E+007, +5.61128474597E+002, +3.74014623636E+003
+4.84656093489E+007, +7.21982808494E+002, +3.84076613020E+003
+4.86323873122E+007, +7.59600519773E+002, +3.90503521913E+003
+4.87991652755E+007, +8.45437259570E+002, +4.08045809910E+003
+4.89659432387E+007, +8.87294449145E+002, +4.19392546427E+003
+4.91327212020E+007, +1.07786427768E+003, +4.41168883562E+003
+4.92994991653E+007, +1.07777058384E+003, +4.40209089892E+003
+4.94662771285E+007, +1.26361893742E+003, +4.61158226605E+003
+4.96330550918E+007, +1.38544399372E+003, +4.68389462864E+003
+4.97998330551E+007, +1.53253646307E+003, +4.71450832485E+003
+4.99666110184E+007, +1.66898572092E+003, +4.91612436398E+003
+5.01333889816E+007, +1.67027411896E+003, +5.03685858974E+003
+5.03001669449E+007, +1.80854177607E+003, +5.19462162687E+003
+5.04669449082E+007, +2.05618063800E+003, +5.48410044296E+003
+5.06337228715E+007, +2.38787188462E+003, +5.55855310127E+003
+5.08005008347E+007, +2.37707241378E+003, +5.87837586471E+003
+5.09672787980E+007, +2.61671799720E+003, +5.75032945420E+003
+5.11340567613E+007, +2.97787384476E+003, +6.05655071806E+003
+5.13008347245E+007, +3.18089028397E+003, +6.53607485478E+003
+5.14676126878E+007, +3.28466114740E+003, +6.57566073423E+003
+5.16343906511E+007, +3.90175697013E+003, +6.77584566317E+003
+5.18011686144E+007, +4.00669410505E+003, +7.24844890818E+003
+5.19679465776E+007, +4.72198226453E+003, +7.52120285249E+003
+5.21347245409E+007, +5.65387982082E+003, +7.82193752894E+003
+5.23015025042E+007, +6.95370579893E+003, +8.40703416805E+003
+5.24682804674E+007, +7.40553006706E+003, +8.68898942094E+003
+5.26350584307E+007, +8.85283143183E+003, +8.29232228774E+003
+5.28018363940E+007, +1.05988561570E+004, +9.47057920599E+003
+5.29686143573E+007, +1.23889816643E+004, +8.62755833468E+003
+5.31353923205E+007, +1.25652880592E+004, +8.14533759127E+003
+5.33021702838E+007, +1.53644279480E+004, +6.49638838342E+003
+5.34689482471E+007, +1.59267672099E+004, +2.93239182068E+003
