"# Channel 1"
"# Trace 1"
Frequency, Formatted Data, Formatted Data
+1.00000000000E+005, +6.88658594552E-001, +1.93547217194E+000
+2.25031289111E+005, +6.84535423331E-001, +4.36299420958E+000
+3.50062578223E+005, +6.97268661790E-001, +6.77291066401E+000
+4.75093867334E+005, +7.14431879619E-001, +9.20390503423E+000
+6.00125156446E+005, +7.15790228408E-001, +1.16162933174E+001
+7.25156445557E+005, +7.72853456258E-001, +1.40123042726E+001
+8.50187734668E+005, +8.29173508718E-001, +1.64123881411E+001
+9.75219023780E+005, +8.40955506888E-001, +1.87814972977E+001
+1.10025031289E+006, +8.86577591375E-001, +2.11643618696E+001
+1.22528160200E+006, +9.20849621568E-001, +2.35801721727E+001
+1.35031289111E+006, +9.20003450875E-001, +2.59905382685E+001
+1.47534418023E+006, +9.70485089000E-001, +2.83059139757E+001
+1.60037546934E+006, +9.60361555090E-001, +3.06770579359E+001
+1.72540675845E+006, +1.05007170433E+000, +3.30946219108E+001
+1.85043804756E+006, +1.06301139874E+000, +3.54110528469E+001
+1.97546933667E+006, +1.04689228832E+000, +3.77760838619E+001
+2.10050062578E+006, +1.08254019696E+000, +4.01523081036E+001
+2.22553191489E+006, +1.04216007282E+000, +4.25894882568E+001
+2.35056320401E+006, +1.04612765568E+000, +4.49242106720E+001
+2.47559449312E+006, +1.10627974243E+000, +4.72460237690E+001
+2.60062578223E+006, +1.10261746241E+000, +4.96171360280E+001
+2.72565707134E+006, +1.18051031570E+000, +5.19959401644E+001
+2.85068836045E+006, +1.13165473491E+000, +5.43332030869E+001
+2.97571964956E+006, +1.19143937456E+000, +5.67756453913E+001
+3.10075093867E+006, +1.12446870211E+000, +5.92271714862E+001
+3.22578222778E+006, +1.18979711388E+000, +6.14645941115E+001
+3.35081351690E+006, +1.32920895467E+000, +6.39626869560E+001
+3.47584480601E+006, +1.31287130164E+000, +6.62021860957E+001
+3.60087609512E+006, +1.41308005110E+000, +6.86065210288E+001
+3.72590738423E+006, +1.31345668918E+000, +7.11187772010E+001
+3.85093867334E+006, +1.40068751580E+000, +7.33867118363E+001
+3.97596996245E+006, +1.32824123575E+000, +7.57598872814E+001
+4.10100125156E+006, +1.29406334005E+000, +7.83460323426E+001
+4.22603254068E+006, +1.42233625352E+000, +8.04282628105E+001
+4.35106382979E+006, +1.40558842816E+000, +8.29838713773E+001
+4.47609511890E+006, +1.44297464414E+000, +8.52782805618E+001
+4.60112640801E+006, +1.21195388272E+000, +8.77868071086E+001
+4.72615769712E+006, +1.39624503481E+000, +9.00644080343E+001
+4.85118898623E+006, +1.37278819391E+000, +9.25018929923E+001
+4.97622027534E+006, +1.40094817784E+000, +9.49275880714E+001
+5.10125156446E+006, +1.36317804992E+000, +9.71456851812E+001
+5.22628285357E+006, +1.39461493789E+000, +9.95504690576E+001
+5.35131414268E+006, +1.43584578342E+000, +1.02090764930E+002
+5.47634543179E+006, +1.45971433908E+000, +1.04580648691E+002
+5.60137672090E+006, +1.44506166173E+000, +1.07004835339E+002
+5.72640801001E+006, +1.36568785685E+000, +1.09328815683E+002
+5.85143929912E+006, +1.61322024132E+000, +1.11913740487E+002
+5.97647058824E+006, +1.52582639089E+000, +1.14244829423E+002
+6.10150187735E+006, +1.40095919465E+000, +1.16623524088E+002
+6.22653316646E+006, +1.80810020137E+000, +1.19026008350E+002
+6.35156445557E+006, +1.66318832425E+000, +1.21553819995E+002
+6.47659574468E+006, +1.76035992203E+000, +1.24028158671E+002
+6.60162703379E+006, +1.64292594979E+000, +1.26392519024E+002
+6.72665832290E+006, +1.73083807689E+000, +1.28807086262E+002
+6.85168961202E+006, +1.71734758700E+000, +1.31378338002E+002
+6.97672090113E+006, +1.73184694465E+000, +1.33707229776E+002
+7.10175219024E+006, +1.74520633758E+000, +1.36151730573E+002
+7.22678347935E+006, +1.67256499985E+000, +1.38552152371E+002
+7.35181476846E+006, +1.78636779667E+000, +1.40939644555E+002
+7.47684605757E+006, +1.83090717920E+000, +1.43554916794E+002
+7.60187734668E+006, +1.90837022005E+000, +1.45852382017E+002
+7.72690863579E+006, +1.90597814153E+000, +1.48288328291E+002
+7.85193992491E+006, +2.00690918652E+000, +1.50876706283E+002
+7.97697121402E+006, +2.00630081266E+000, +1.53255393014E+002
+8.10200250313E+006, +1.94463501194E+000, +1.55839132840E+002
+8.22703379224E+006, +1.84830817771E+000, +1.58420979050E+002
+8.35206508135E+006, +1.90775018108E+000, +1.60793180101E+002
+8.47709637046E+006, +1.92080576977E+000, +1.63070977258E+002
+8.60212765957E+006, +1.87067328447E+000, +1.65526303613E+002
+8.72715894869E+006, +1.96912028888E+000, +1.68225915857E+002
+8.85219023780E+006, +2.04682390368E+000, +1.70876226660E+002
+8.97722152691E+006, +2.02776214688E+000, +1.73239403215E+002
+9.10225281602E+006, +2.10839124111E+000, +1.75818568882E+002
+9.22728410513E+006, +2.13102574010E+000, +1.78113297941E+002
+9.35231539424E+006, +1.93225567455E+000, +1.80759720494E+002
+9.47734668335E+006, +1.95317303931E+000, +1.82962273118E+002
+9.60237797247E+006, +1.97964084371E+000, +1.85550695331E+002
+9.72740926158E+006, +1.91239056392E+000, +1.88304150303E+002
+9.85244055069E+006, +2.11786265498E+000, +1.90516038844E+002
+9.97747183980E+006, +1.89715157674E+000, +1.93074654636E+002
+1.01025031289E+007, +2.14778804797E+000, +1.95607954423E+002
+1.02275344180E+007, +2.21075946701E+000, +1.98306544281E+002
+1.03525657071E+007, +2.01504064959E+000, +2.00690592060E+002
+1.04775969962E+007, +2.09372173026E+000, +2.03346361717E+002
+1.06026282854E+007, +2.01069222646E+000, +2.05958039457E+002
+1.07276595745E+007, +2.25496558566E+000, +2.08518252366E+002
+1.08526908636E+007, +2.18818044502E+000, +2.11043063315E+002
+1.09777221527E+007, +2.04722213322E+000, +2.13603790533E+002
+1.11027534418E+007, +2.03552291562E+000, +2.16180992120E+002
+1.12277847309E+007, +2.06815707893E+000, +2.18475729377E+002
+1.13528160200E+007, +1.89571823170E+000, +2.21343369908E+002
+1.14778473091E+007, +2.09839185500E+000, +2.23790611530E+002
+1.16028785982E+007, +1.83880451790E+000, +2.26645748150E+002
+1.17279098874E+007, +2.19361806446E+000, +2.29092380961E+002
+1.18529411765E+007, +1.96375210344E+000, +2.31721537280E+002
+1.19779724656E+007, +1.95089651239E+000, +2.34065417232E+002
+1.21030037547E+007, +2.14208743004E+000, +2.36905287020E+002
+1.22280350438E+007, +1.85855121363E+000, +2.39497321988E+002
+1.23530663329E+007, +2.03266289390E+000, +2.42596197704E+002
+1.24780976220E+007, +1.77199434299E+000, +2.44850043818E+002
+1.26031289111E+007, +1.68617950386E+000, +2.47361464989E+002
+1.27281602003E+007, +1.99626291620E+000, +2.49817341587E+002
+1.28531914894E+007, +2.07239078034E+000, +2.52778540682E+002
+1.29782227785E+007, +1.66135619795E+000, +2.55293186119E+002
+1.31032540676E+007, +2.43206490069E+000, +2.58104858066E+002
+1.32282853567E+007, +1.72097717352E+000, +2.60733546805E+002
+1.33533166458E+007, +2.23946020106E+000, +2.63394234558E+002
+1.34783479349E+007, +1.85484032243E+000, +2.66199824027E+002
+1.36033792240E+007, +2.22047788026E+000, +2.68743790460E+002
+1.37284105131E+007, +1.85789362296E+000, +2.71560525927E+002
+1.38534418023E+007, +1.82581872577E+000, +2.74063243990E+002
+1.39784730914E+007, +2.18370509716E+000, +2.76355439766E+002
+1.41035043805E+007, +1.61306181486E+000, +2.79455332812E+002
+1.42285356696E+007, +2.32720206788E+000, +2.82583171317E+002
+1.43535669587E+007, +2.32076371365E+000, +2.85050703829E+002
+1.44785982478E+007, +1.76981626745E+000, +2.87542559681E+002
+1.46036295369E+007, +1.89319276791E+000, +2.90113016903E+002
+1.47286608260E+007, +1.84749834617E+000, +2.93480490995E+002
+1.48536921151E+007, +1.76822976975E+000, +2.96265535021E+002
+1.49787234043E+007, +2.36864762060E+000, +2.99141879485E+002
+1.51037546934E+007, +2.34644656166E+000, +3.01276207195E+002
+1.52287859825E+007, +2.35236727196E+000, +3.03829028601E+002
+1.53538172716E+007, +2.15546211150E+000, +3.06996728258E+002
+1.54788485607E+007, +1.94775225813E+000, +3.09911393497E+002
+1.56038798498E+007, +2.11861178977E+000, +3.12368527368E+002
+1.57289111389E+007, +1.98759039454E+000, +3.15761578958E+002
+1.58539424280E+007, +1.72777590119E+000, +3.18440851663E+002
+1.59789737171E+007, +1.91705446282E+000, +3.21230617065E+002
+1.61040050063E+007, +2.27685210668E+000, +3.24038797605E+002
+1.62290362954E+007, +1.67986180826E+000, +3.27069147064E+002
+1.63540675845E+007, +2.46009358443E+000, +3.29702689478E+002
+1.64790988736E+007, +2.27803323109E+000, +3.32468001541E+002
+1.66041301627E+007, +1.83029982987E+000, +3.35253012264E+002
+1.67291614518E+007, +1.92450791028E+000, +3.39091343876E+002
+1.68541927409E+007, +2.02192842351E+000, +3.41490315668E+002
+1.69792240300E+007, +1.36400846596E+000, +3.43931952586E+002
+1.71042553191E+007, +9.33030029295E-001, +3.47538732609E+002
+1.72292866083E+007, +1.38593493220E+000, +3.49638531605E+002
+1.73543178974E+007, +1.84784012273E+000, +3.53772849805E+002
+1.74793491865E+007, +1.30460640657E+000, +3.56104497838E+002
+1.76043804756E+007, +1.01768373777E+000, +3.59226531365E+002
+1.77294117647E+007, +1.68963127214E+000, +3.61502936661E+002
+1.78544430538E+007, +1.91007792117E+000, +3.65088268346E+002
+1.79794743429E+007, +1.60542063729E+000, +3.67389617230E+002
+1.81045056320E+007, +1.82577702903E+000, +3.71469506703E+002
+1.82295369212E+007, +2.05933120723E+000, +3.74077628260E+002
+1.83545682103E+007, +2.42366237776E+000, +3.76990773763E+002
+1.84795994994E+007, +2.63235061214E+000, +3.79760711526E+002
+1.86046307885E+007, +2.57993994976E+000, +3.82826705189E+002
+1.87296620776E+007, +1.50052052331E+000, +3.85996339252E+002
+1.88546933667E+007, +1.81653280657E+000, +3.88824050613E+002
+1.89797246558E+007, +2.24696514501E+000, +3.92368699895E+002
+1.91047559449E+007, +2.22906209903E+000, +3.94497666368E+002
+1.92297872340E+007, +1.32820297557E+000, +4.00095826500E+002
+1.93548185232E+007, +2.69537033765E+000, +4.01841141625E+002
+1.94798498123E+007, +1.89992945288E+000, +4.03808094098E+002
+1.96048811014E+007, +1.78684754648E+000, +4.07010137528E+002
+1.97299123905E+007, +1.99564480630E+000, +4.10743289321E+002
+1.98549436796E+007, +1.97802290109E+000, +4.14985282800E+002
+1.99799749687E+007, +2.73875248944E+000, +4.16889006954E+002
+2.01050062578E+007, +1.51633909399E+000, +4.20064970488E+002
+2.02300375469E+007, +2.40492423225E+000, +4.23344404775E+002
+2.03550688360E+007, +1.15511748174E+000, +4.27384304022E+002
+2.04801001252E+007, +1.80951101941E+000, +4.29836812680E+002
+2.06051314143E+007, +1.61358285351E+000, +4.34420027033E+002
+2.07301627034E+007, +1.76961142499E+000, +4.37051748050E+002
+2.08551939925E+007, +2.26519779605E+000, +4.40486065069E+002
+2.09802252816E+007, +2.03347335511E+000, +4.42790597102E+002
+2.11052565707E+007, +2.20070242565E+000, +4.47247822033E+002
+2.12302878598E+007, +1.87875020370E+000, +4.51184182461E+002
+2.13553191489E+007, +2.11113874174E+000, +4.52079548631E+002
+2.14803504380E+007, +2.96477240098E+000, +4.56781595206E+002
+2.16053817272E+007, +1.90772616852E+000, +4.60356579095E+002
+2.17304130163E+007, +3.00795517799E+000, +4.64421267035E+002
+2.18554443054E+007, +2.36610455856E+000, +4.67151459387E+002
+2.19804755945E+007, +2.91931297753E+000, +4.71146798861E+002
+2.21055068836E+007, +1.90730191581E+000, +4.73789172068E+002
+2.22305381727E+007, +2.89906812975E+000, +4.77865257152E+002
+2.23555694618E+007, +3.59398424045E+000, +4.81206034438E+002
+2.24806007509E+007, +2.99004875891E+000, +4.84986626756E+002
+2.26056320401E+007, +3.44961654801E+000, +4.88714720116E+002
+2.27306633292E+007, +4.30719489834E+000, +4.91174961345E+002
+2.28556946183E+007, +3.32491068367E+000, +4.94660679390E+002
+2.29807259074E+007, +3.49010560294E+000, +4.99680539515E+002
+2.31057571965E+007, +3.64646000310E+000, +5.02012764871E+002
+2.32307884856E+007, +4.37479667135E+000, +5.06592831143E+002
+2.33558197747E+007, +4.83590471364E+000, +5.07197732764E+002
+2.34808510638E+007, +3.74621703871E+000, +5.12127537238E+002
+2.36058823529E+007, +4.84816406545E+000, +5.15993809393E+002
+2.37309136421E+007, +6.02493370510E+000, +5.18767003157E+002
+2.38559449312E+007, +4.91141408603E+000, +5.24770278664E+002
+2.39809762203E+007, +5.60981192076E+000, +5.25963529346E+002
+2.41060075094E+007, +4.62256437876E+000, +5.28784858182E+002
+2.42310387985E+007, +5.48466021057E+000, +5.33995308219E+002
+2.43560700876E+007, +5.94276581858E+000, +5.37105615483E+002
+2.44811013767E+007, +5.05209961424E+000, +5.39621506393E+002
+2.46061326658E+007, +5.04649468216E+000, +5.43707039314E+002
+2.47311639549E+007, +4.65320478272E+000, +5.46957078670E+002
+2.48561952441E+007, +5.65837430879E+000, +5.51767629372E+002
+2.49812265332E+007, +5.07259712344E+000, +5.55721193057E+002
+2.51062578223E+007, +7.19490162379E+000, +5.57180429813E+002
+2.52312891114E+007, +3.82577415830E+000, +5.60937516131E+002
+2.53563204005E+007, +3.39666582132E+000, +5.67546663064E+002
+2.54813516896E+007, +2.71370965706E+000, +5.69399437801E+002
+2.56063829787E+007, +4.87833805664E+000, +5.72151604080E+002
+2.57314142678E+007, +5.61084495454E+000, +5.77772757186E+002
+2.58564455569E+007, +5.04917906145E+000, +5.79781361911E+002
+2.59814768461E+007, +5.05241630451E+000, +5.85509887362E+002
+2.61065081352E+007, +4.08468982543E+000, +5.89597363747E+002
+2.62315394243E+007, +3.04883036867E+000, +5.93114438708E+002
+2.63565707134E+007, +3.32853277078E+000, +5.96502448258E+002
+2.64816020025E+007, +4.32605519685E+000, +6.00497204679E+002
+2.66066332916E+007, +4.16843497109E+000, +6.05719869114E+002
+2.67316645807E+007, +4.70912738290E+000, +6.07231978865E+002
+2.68566958698E+007, +6.52226881314E+000, +6.13056322533E+002
+2.69817271589E+007, +2.42896860620E+000, +6.18894640793E+002
+2.71067584481E+007, +5.86911301550E+000, +6.21582528337E+002
+2.72317897372E+007, +4.26400239477E+000, +6.26262774676E+002
+2.73568210263E+007, +6.35105514418E+000, +6.29386867073E+002
+2.74818523154E+007, +5.97673570723E+000, +6.33007554480E+002
+2.76068836045E+007, +5.24334286533E+000, +6.38872436815E+002
+2.77319148936E+007, +4.96827344892E+000, +6.41574112591E+002
+2.78569461827E+007, +4.70753958394E+000, +6.44433144859E+002
+2.79819774718E+007, +3.03192583178E+000, +6.52949983144E+002
+2.81070087610E+007, +6.13353641191E+000, +6.54304437862E+002
+2.82320400501E+007, +3.05370070687E+000, +6.60518014414E+002
+2.83570713392E+007, +2.03504875386E+000, +6.63684620498E+002
+2.84821026283E+007, +6.16745409877E+000, +6.66034132073E+002
+2.86071339174E+007, +8.36409933663E-001, +6.71055276439E+002
+2.87321652065E+007, +3.78188402016E+000, +6.78591667162E+002
+2.88571964956E+007, +4.87074294987E+000, +6.81644484124E+002
+2.89822277847E+007, +3.28984687123E+000, +6.86665446458E+002
+2.91072590738E+007, +2.77060972083E+000, +6.89901984718E+002
+2.92322903630E+007, +1.33331838426E+000, +6.96091136253E+002
+2.93573216521E+007, +3.51084441518E+000, +7.00902210456E+002
+2.94823529412E+007, +4.95567995807E+000, +7.06473249336E+002
+2.96073842303E+007, +2.21959667487E+000, +7.10960476904E+002
+2.97324155194E+007, +2.24438125096E+000, +7.18714754150E+002
+2.98574468085E+007, +1.77142573766E+000, +7.21643432305E+002
+2.99824780976E+007, +9.97551038393E-001, +7.25904598508E+002
+3.01075093867E+007, +3.58354469993E+000, +7.28220750352E+002
+3.02325406758E+007, +3.22736608249E+000, +7.34692482559E+002
+3.03575719650E+007, +3.58221972903E+000, +7.37910083156E+002
+3.04826032541E+007, +3.01758023582E+000, +7.44131977518E+002
+3.06076345432E+007, +3.31746851831E+000, +7.47140335475E+002
+3.07326658323E+007, +2.58053076701E+000, +7.53599982149E+002
+3.08576971214E+007, +2.00588850211E+000, +7.58439080204E+002
+3.09827284105E+007, +1.25429485450E+000, +7.66468831099E+002
+3.11077596996E+007, -4.88252855787E-001, +7.70050463730E+002
+3.12327909887E+007, +2.32566648912E+000, +7.76617202700E+002
+3.13578222778E+007, +1.60208899803E+000, +7.81419574176E+002
+3.14828535670E+007, +4.58146165377E+000, +7.85253257516E+002
+3.16078848561E+007, +3.29868358997E+000, +7.91128026272E+002
+3.17329161452E+007, +4.65584316217E+000, +7.97695574168E+002
+3.18579474343E+007, +1.25254098815E+000, +8.06463365024E+002
+3.19829787234E+007, +1.36526735966E+000, +8.09413081384E+002
+3.21080100125E+007, +3.50102849385E+000, +8.12476523709E+002
+3.22330413016E+007, +3.80660729846E+000, +8.18351884985E+002
+3.23580725907E+007, -1.89810284271E+000, +8.23213026407E+002
+3.24831038798E+007, +2.25505461566E+000, +8.27740180997E+002
+3.26081351690E+007, +1.02563185057E+000, +8.34834227545E+002
+3.27331664581E+007, +2.78171744399E+000, +8.40966206057E+002
+3.28581977472E+007, -4.26023023989E-001, +8.52313462692E+002
+3.29832290363E+007, +2.33630490495E+000, +8.53552189962E+002
+3.31082603254E+007, -1.53536099035E-001, +8.55688234413E+002
+3.32332916145E+007, +3.96721220538E+000, +8.65146532533E+002
+3.33583229036E+007, -2.90509949397E+000, +8.68951265834E+002
+3.34833541927E+007, +1.34149111718E+000, +8.76425777680E+002
+3.36083854819E+007, +1.92087161641E+000, +8.79303904706E+002
+3.37334167710E+007, +4.34240191864E+000, +8.87353021791E+002
+3.38584480601E+007, +6.77987401872E-001, +8.91247027355E+002
+3.39834793492E+007, +1.01338063691E+000, +9.01726093842E+002
+3.41085106383E+007, -2.49571298896E-003, +9.08179444446E+002
+3.42335419274E+007, +2.26674533330E+000, +9.12014343252E+002
+3.43585732165E+007, +1.00999894059E+000, +9.20659353774E+002
+3.44836045056E+007, +5.31787664226E+000, +9.32955737932E+002
+3.46086357947E+007, +4.16761131272E+000, +9.30340007535E+002
+3.47336670839E+007, +3.36130580449E+000, +9.38521920978E+002
+3.48586983730E+007, +4.18925826412E+000, +9.45665939114E+002
+3.49837296621E+007, +6.96246213440E+000, +9.52003776027E+002
+3.51087609512E+007, +4.10271935355E+000, +9.61695536192E+002
+3.52337922403E+007, +4.40627641146E+000, +9.62918921395E+002
+3.53588235294E+007, +1.05877003827E+000, +9.75837797892E+002
+3.54838548185E+007, +5.43322595245E+000, +9.77935472409E+002
+3.56088861076E+007, +3.55617170620E+000, +9.89658610830E+002
+3.57339173967E+007, +3.15930628939E+000, +9.91875359710E+002
+3.58589486859E+007, -3.72940084161E+000, +1.00166347253E+003
+3.59839799750E+007, +5.40212605342E+000, +1.00595687330E+003
+3.61090112641E+007, +2.80669189897E+000, +1.01702303020E+003
+3.62340425532E+007, +1.37306225898E+000, +1.01997526537E+003
+3.63590738423E+007, +4.05530756132E+000, +1.02888145024E+003
+3.64841051314E+007, +5.88003075842E+000, +1.03531309348E+003
+3.66091364205E+007, +3.84287242279E+000, +1.04091870117E+003
+3.67341677096E+007, +4.31332258480E+000, +1.05134803098E+003
+3.68591989987E+007, +4.07699450343E+000, +1.05619373806E+003
+3.69842302879E+007, +4.51151866840E+000, +1.07137506340E+003
+3.71092615770E+007, +7.01953174574E+000, +1.08028194823E+003
+3.72342928661E+007, +1.68875948003E+000, +1.07676703234E+003
+3.73593241552E+007, -3.21573935476E-001, +1.09380848782E+003
+3.74843554443E+007, +3.07551162577E+000, +1.10064410313E+003
+3.76093867334E+007, +5.07026415732E+000, +1.10330843783E+003
+3.77344180225E+007, +1.02333822025E+001, +1.11436583125E+003
+3.78594493116E+007, +3.72815563262E+000, +1.12562682232E+003
+3.79844806008E+007, +6.45313591146E+000, +1.13268166508E+003
+3.81095118899E+007, +4.96914507784E+000, +1.14518167444E+003
+3.82345431790E+007, +5.61824716377E+000, +1.15041428039E+003
+3.83595744681E+007, +6.66342484523E+000, +1.15370651775E+003
+3.84846057572E+007, +2.89871719268E+000, +1.16750639198E+003
+3.86096370463E+007, +3.37245904095E+000, +1.18178721021E+003
+3.87346683354E+007, +5.97156320348E+000, +1.18804919959E+003
+3.88596996245E+007, +4.30232147005E+000, +1.19963726671E+003
+3.89847309136E+007, +1.07786454912E+001, +1.20590656465E+003
+3.91097622028E+007, +9.53944436052E+000, +1.21776232407E+003
+3.92347934919E+007, +4.24012822882E+000, +1.22377626524E+003
+3.93598247810E+007, +5.05875636168E+000, +1.23124146994E+003
+3.94848560701E+007, +3.05231165857E+000, +1.24120274280E+003
+3.96098873592E+007, +2.66280639654E+000, +1.25024282721E+003
+3.97349186483E+007, +1.76708644016E+001, +1.26828269108E+003
+3.98599499374E+007, +1.10062885447E+001, +1.27653554029E+003
+3.99849812265E+007, +5.70745979947E+000, +1.29209500179E+003
+4.01100125156E+007, +7.35033759294E-001, +1.29255132028E+003
