"# Channel 1"
"# Trace 1"
Frequency, Formatted Data, Formatted Data
+1.00000000000E+005, +6.45440079118E+000, +2.20486025451E+000
+2.25031289111E+005, +6.55096421847E+000, +4.75367439538E+000
+3.50062578223E+005, +6.65674981730E+000, +7.36644981452E+000
+4.75093867334E+005, +6.70057004569E+000, +9.87783511919E+000
+6.00125156446E+005, +6.77762157785E+000, +1.23894152297E+001
+7.25156445557E+005, +6.82609742137E+000, +1.49098300934E+001
+8.50187734668E+005, +6.92199136145E+000, +1.73869285860E+001
+9.75219023780E+005, +6.94917254183E+000, +1.99083731385E+001
+1.10025031289E+006, +7.01860888830E+000, +2.23468826574E+001
+1.22528160200E+006, +7.12308864299E+000, +2.48831630482E+001
+1.35031289111E+006, +7.14282757140E+000, +2.73474037522E+001
+1.47534418023E+006, +7.15891630924E+000, +2.98433488395E+001
+1.60037546934E+006, +7.20486309238E+000, +3.23836754774E+001
+1.72540675845E+006, +7.25455184149E+000, +3.47875719502E+001
+1.85043804756E+006, +7.28469580889E+000, +3.72494842066E+001
+1.97546933667E+006, +7.28422176266E+000, +3.97222069919E+001
+2.10050062578E+006, +7.37060545205E+000, +4.22706536019E+001
+2.22553191489E+006, +7.34944170684E+000, +4.47005921708E+001
+2.35056320401E+006, +7.36396832655E+000, +4.71877135439E+001
+2.47559449312E+006, +7.43327724488E+000, +4.97378221681E+001
+2.60062578223E+006, +7.47425619650E+000, +5.20608410433E+001
+2.72565707134E+006, +7.42733526997E+000, +5.46878452894E+001
+2.85068836045E+006, +7.45398506634E+000, +5.71735281013E+001
+2.97571964956E+006, +7.46682768801E+000, +5.95896839017E+001
+3.10075093867E+006, +7.56490901717E+000, +6.20967194019E+001
+3.22578222778E+006, +7.65078754861E+000, +6.45751211167E+001
+3.35081351690E+006, +7.57717511535E+000, +6.70762198608E+001
+3.47584480601E+006, +7.71334218876E+000, +6.96465931766E+001
+3.60087609512E+006, +7.75010521548E+000, +7.21910637277E+001
+3.72590738423E+006, +7.81462249045E+000, +7.45804299961E+001
+3.85093867334E+006, +7.69532476037E+000, +7.70975464635E+001
+3.97596996245E+006, +7.84157910122E+000, +7.96121060064E+001
+4.10100125156E+006, +7.69245290228E+000, +8.20052272825E+001
+4.22603254068E+006, +7.81526168146E+000, +8.47131211928E+001
+4.35106382979E+006, +7.91305830308E+000, +8.71019638943E+001
+4.47609511890E+006, +7.91835451058E+000, +8.96445960756E+001
+4.60112640801E+006, +7.89924662291E+000, +9.21165447501E+001
+4.72615769712E+006, +7.94595028317E+000, +9.46900746209E+001
+4.85118898623E+006, +8.16481744111E+000, +9.72187581570E+001
+4.97622027534E+006, +8.09420372239E+000, +9.97163494153E+001
+5.10125156446E+006, +7.99838846330E+000, +1.02081445619E+002
+5.22628285357E+006, +8.24869713294E+000, +1.04651513419E+002
+5.35131414268E+006, +8.19807642425E+000, +1.07319280081E+002
+5.47634543179E+006, +8.20995348737E+000, +1.09790126328E+002
+5.60137672090E+006, +8.17381086982E+000, +1.12536196377E+002
+5.72640801001E+006, +8.36146975544E+000, +1.14930425527E+002
+5.85143929912E+006, +8.23317890392E+000, +1.17470241665E+002
+5.97647058824E+006, +8.55918660531E+000, +1.20132771594E+002
+6.10150187735E+006, +8.51554498202E+000, +1.22658636776E+002
+6.22653316646E+006, +8.50494320590E+000, +1.25105273691E+002
+6.35156445557E+006, +8.66930427044E+000, +1.27703471871E+002
+6.47659574468E+006, +8.69308010133E+000, +1.30073150151E+002
+6.60162703379E+006, +8.76249556648E+000, +1.32640280492E+002
+6.72665832290E+006, +8.87450585751E+000, +1.35258256394E+002
+6.85168961202E+006, +8.85042020305E+000, +1.37819291271E+002
+6.97672090113E+006, +8.77618557474E+000, +1.40350927454E+002
+7.10175219024E+006, +8.99617250561E+000, +1.42803005862E+002
+7.22678347935E+006, +9.22207997609E+000, +1.45391310786E+002
+7.35181476846E+006, +9.23362968655E+000, +1.48021829873E+002
+7.47684605757E+006, +9.06167952604E+000, +1.50642202318E+002
+7.60187734668E+006, +9.15983651801E+000, +1.53140225117E+002
+7.72690863579E+006, +9.35394738302E+000, +1.55771336192E+002
+7.85193992491E+006, +9.20189460351E+000, +1.58395174219E+002
+7.97697121402E+006, +9.31361859996E+000, +1.60864933322E+002
+8.10200250313E+006, +9.44329475900E+000, +1.63427521941E+002
+8.22703379224E+006, +9.37595661638E+000, +1.66197645288E+002
+8.35206508135E+006, +9.35660258756E+000, +1.68964702595E+002
+8.47709637046E+006, +9.45734424184E+000, +1.71283898880E+002
+8.60212765957E+006, +9.52739710737E+000, +1.73861366268E+002
+8.72715894869E+006, +9.46653608346E+000, +1.76655645093E+002
+8.85219023780E+006, +9.79300597461E+000, +1.79172036087E+002
+8.97722152691E+006, +9.62576048939E+000, +1.82005511353E+002
+9.10225281602E+006, +9.34924932067E+000, +1.84436862005E+002
+9.22728410513E+006, +9.66647476946E+000, +1.87094500363E+002
+9.35231539424E+006, +9.96865092561E+000, +1.89711348050E+002
+9.47734668335E+006, +9.89539336352E+000, +1.92178156458E+002
+9.60237797247E+006, +9.78195448728E+000, +1.94824444388E+002
+9.72740926158E+006, +9.82987303418E+000, +1.97455836097E+002
+9.85244055069E+006, +9.89869864191E+000, +2.00438759629E+002
+9.97747183980E+006, +9.91478869275E+000, +2.02943657715E+002
+1.01025031289E+007, +1.00441923392E+001, +2.05547684003E+002
+1.02275344180E+007, +9.98523136503E+000, +2.08168413343E+002
+1.03525657071E+007, +1.00660976034E+001, +2.10747778774E+002
+1.04775969962E+007, +9.75103081207E+000, +2.13775314709E+002
+1.06026282854E+007, +9.81765835185E+000, +2.16277514134E+002
+1.07276595745E+007, +1.00883037820E+001, +2.18833242904E+002
+1.08526908636E+007, +1.01048493520E+001, +2.21442478440E+002
+1.09777221527E+007, +1.00974253493E+001, +2.24281874363E+002
+1.11027534418E+007, +1.01344863156E+001, +2.27125155449E+002
+1.12277847309E+007, +1.01848876200E+001, +2.29711301749E+002
+1.13528160200E+007, +1.03095159868E+001, +2.32451732252E+002
+1.14778473091E+007, +1.00429096245E+001, +2.35281916756E+002
+1.16028785982E+007, +1.00884366733E+001, +2.37802897580E+002
+1.17279098874E+007, +1.07962876943E+001, +2.40666260554E+002
+1.18529411765E+007, +1.03539954076E+001, +2.43742468842E+002
+1.19779724656E+007, +1.03056648703E+001, +2.46305757444E+002
+1.21030037547E+007, +1.05538954997E+001, +2.48715351064E+002
+1.22280350438E+007, +1.02975851092E+001, +2.51881369071E+002
+1.23530663329E+007, +1.06906416232E+001, +2.54575082541E+002
+1.24780976220E+007, +1.05572133571E+001, +2.57622089566E+002
+1.26031289111E+007, +1.06254015677E+001, +2.59921777619E+002
+1.27281602003E+007, +1.02939994909E+001, +2.63070350759E+002
+1.28531914894E+007, +1.04703233173E+001, +2.65556499782E+002
+1.29782227785E+007, +1.06797499007E+001, +2.68886153024E+002
+1.31032540676E+007, +1.10249094526E+001, +2.71070951260E+002
+1.32282853567E+007, +1.02481770707E+001, +2.74583031052E+002
+1.33533166458E+007, +1.11474553037E+001, +2.77161185473E+002
+1.34783479349E+007, +1.10991044781E+001, +2.79485515664E+002
+1.36033792240E+007, +1.09242055068E+001, +2.82789781553E+002
+1.37284105131E+007, +1.08461844790E+001, +2.85405593344E+002
+1.38534418023E+007, +1.08040478488E+001, +2.88236444925E+002
+1.39784730914E+007, +1.06861507775E+001, +2.91163442278E+002
+1.41035043805E+007, +1.07773481514E+001, +2.94183046363E+002
+1.42285356696E+007, +1.16971134922E+001, +2.96906279477E+002
+1.43535669587E+007, +1.07194207789E+001, +2.99517382309E+002
+1.44785982478E+007, +1.06144097438E+001, +3.02729607751E+002
+1.46036295369E+007, +1.07318470949E+001, +3.05646360395E+002
+1.47286608260E+007, +1.06653150305E+001, +3.08487103017E+002
+1.48536921151E+007, +1.08900429504E+001, +3.11985684447E+002
+1.49787234043E+007, +1.10775527623E+001, +3.14935550207E+002
+1.51037546934E+007, +1.10849457150E+001, +3.16923024406E+002
+1.52287859825E+007, +1.09560210905E+001, +3.20224957758E+002
+1.53538172716E+007, +1.11429265096E+001, +3.23686413481E+002
+1.54788485607E+007, +1.09945402659E+001, +3.26388204528E+002
+1.56038798498E+007, +1.14056635686E+001, +3.29714047877E+002
+1.57289111389E+007, +1.12952448246E+001, +3.32820335625E+002
+1.58539424280E+007, +1.12908659380E+001, +3.35237009101E+002
+1.59789737171E+007, +1.14239069184E+001, +3.38864814891E+002
+1.61040050063E+007, +1.18206762916E+001, +3.41542932831E+002
+1.62290362954E+007, +1.22065447121E+001, +3.44894735883E+002
+1.63540675845E+007, +1.19337178759E+001, +3.47666474630E+002
+1.64790988736E+007, +1.16357540290E+001, +3.50874195607E+002
+1.66041301627E+007, +1.11793407503E+001, +3.53769971875E+002
+1.67291614518E+007, +1.12531520683E+001, +3.56039054102E+002
+1.68541927409E+007, +1.14109704852E+001, +3.59916399273E+002
+1.69792240300E+007, +1.18851145761E+001, +3.63147426236E+002
+1.71042553191E+007, +1.11074972053E+001, +3.66304308516E+002
+1.72292866083E+007, +1.15056764590E+001, +3.69200908919E+002
+1.73543178974E+007, +1.11280537362E+001, +3.72902458045E+002
+1.74793491865E+007, +1.16311111351E+001, +3.76686968229E+002
+1.76043804756E+007, +1.18941759337E+001, +3.79135592108E+002
+1.77294117647E+007, +1.14826085853E+001, +3.82335876775E+002
+1.78544430538E+007, +1.18768090474E+001, +3.85463676812E+002
+1.79794743429E+007, +1.19592320736E+001, +3.88508623444E+002
+1.81045056320E+007, +1.24741553989E+001, +3.92436854428E+002
+1.82295369212E+007, +1.15679868651E+001, +3.94695604191E+002
+1.83545682103E+007, +1.29223148137E+001, +3.98404771479E+002
+1.84795994994E+007, +1.20084159803E+001, +4.01165536459E+002
+1.86046307885E+007, +1.34417213020E+001, +4.05459160487E+002
+1.87296620776E+007, +1.19910038748E+001, +4.07827412793E+002
+1.88546933667E+007, +1.33010698282E+001, +4.11441566143E+002
+1.89797246558E+007, +1.24536899980E+001, +4.14390226368E+002
+1.91047559449E+007, +1.19261840943E+001, +4.17658057922E+002
+1.92297872340E+007, +1.30084887925E+001, +4.21100970766E+002
+1.93548185232E+007, +1.41890606396E+001, +4.24654551397E+002
+1.94798498123E+007, +1.29653344253E+001, +4.27001478858E+002
+1.96048811014E+007, +1.29988743405E+001, +4.31005241229E+002
+1.97299123905E+007, +1.37124592508E+001, +4.34715985350E+002
+1.98549436796E+007, +1.38793224386E+001, +4.38618738475E+002
+1.99799749687E+007, +1.37566832599E+001, +4.41477463849E+002
+2.01050062578E+007, +1.40968661073E+001, +4.45212571946E+002
+2.02300375469E+007, +1.38686910036E+001, +4.49044564096E+002
+2.03550688360E+007, +1.35264788877E+001, +4.53555723491E+002
+2.04801001252E+007, +1.46542299238E+001, +4.55645407955E+002
+2.06051314143E+007, +1.39538975669E+001, +4.59226047170E+002
+2.07301627034E+007, +1.39411223610E+001, +4.62906599342E+002
+2.08551939925E+007, +1.48992679641E+001, +4.67005557737E+002
+2.09802252816E+007, +1.40232463848E+001, +4.69620659862E+002
+2.11052565707E+007, +1.48547424610E+001, +4.72766044030E+002
+2.12302878598E+007, +1.45570002201E+001, +4.77452255218E+002
+2.13553191489E+007, +1.43737232286E+001, +4.81899308168E+002
+2.14803504380E+007, +1.51179621637E+001, +4.84053898924E+002
+2.16053817272E+007, +1.42189771815E+001, +4.88142133016E+002
+2.17304130163E+007, +1.55994056690E+001, +4.91675356328E+002
+2.18554443054E+007, +1.56377468678E+001, +4.95690571503E+002
+2.19804755945E+007, +1.61864395342E+001, +4.97978025337E+002
+2.21055068836E+007, +1.45778798652E+001, +5.03628737315E+002
+2.22305381727E+007, +1.60894900112E+001, +5.06902408757E+002
+2.23555694618E+007, +1.69390311968E+001, +5.11176538419E+002
+2.24806007509E+007, +1.69801521018E+001, +5.12987697366E+002
+2.26056320401E+007, +1.61947718722E+001, +5.18405450689E+002
+2.27306633292E+007, +1.65075584374E+001, +5.21231592633E+002
+2.28556946183E+007, +1.97947583309E+001, +5.24942597583E+002
+2.29807259074E+007, +1.78315498830E+001, +5.29279868025E+002
+2.31057571965E+007, +1.67793607256E+001, +5.32211543405E+002
+2.32307884856E+007, +1.96424266748E+001, +5.34549839381E+002
+2.33558197747E+007, +1.96768352962E+001, +5.38355589163E+002
+2.34808510638E+007, +2.01534436363E+001, +5.42063110399E+002
+2.36058823529E+007, +1.91306080055E+001, +5.49370896034E+002
+2.37309136421E+007, +1.96131888704E+001, +5.49665263048E+002
+2.38559449312E+007, +1.83128182643E+001, +5.55653343266E+002
+2.39809762203E+007, +1.96136704154E+001, +5.57401551526E+002
+2.41060075094E+007, +2.06630113026E+001, +5.61930538157E+002
+2.42310387985E+007, +1.99866351208E+001, +5.65375614017E+002
+2.43560700876E+007, +1.99811470189E+001, +5.69537250398E+002
+2.44811013767E+007, +2.10178852793E+001, +5.73490334222E+002
+2.46061326658E+007, +2.02320261301E+001, +5.76245768926E+002
+2.47311639549E+007, +1.89904127324E+001, +5.82111751529E+002
+2.48561952441E+007, +1.88669959271E+001, +5.84851500213E+002
+2.49812265332E+007, +1.97463465368E+001, +5.89931181276E+002
+2.51062578223E+007, +2.13425350191E+001, +5.95701543759E+002
+2.52312891114E+007, +1.94629991035E+001, +5.98291155271E+002
+2.53563204005E+007, +2.16228030270E+001, +6.00470292739E+002
+2.54813516896E+007, +1.91106553149E+001, +6.05328379281E+002
+2.56063829787E+007, +1.93138601981E+001, +6.07684840640E+002
+2.57314142678E+007, +1.94161977279E+001, +6.13957548866E+002
+2.58564455569E+007, +1.91411741870E+001, +6.17312101639E+002
+2.59814768461E+007, +2.40316436926E+001, +6.22751398944E+002
+2.61065081352E+007, +1.81710948149E+001, +6.30058662912E+002
+2.62315394243E+007, +2.00474421374E+001, +6.32199372802E+002
+2.63565707134E+007, +1.90642835866E+001, +6.35171200495E+002
+2.64816020025E+007, +2.00545726032E+001, +6.43680782998E+002
+2.66066332916E+007, +2.13093396485E+001, +6.46430269936E+002
+2.67316645807E+007, +2.02789536799E+001, +6.50896367757E+002
+2.68566958698E+007, +1.88152651788E+001, +6.56905388911E+002
+2.69817271589E+007, +1.98262247833E+001, +6.60575726510E+002
+2.71067584481E+007, +2.13526925002E+001, +6.65614739470E+002
+2.72317897372E+007, +2.06546178437E+001, +6.68605044147E+002
+2.73568210263E+007, +2.11544363015E+001, +6.72523810135E+002
+2.74818523154E+007, +2.04797523482E+001, +6.78025514275E+002
+2.76068836045E+007, +2.25106755433E+001, +6.83240137252E+002
+2.77319148936E+007, +2.22185524095E+001, +6.87887605093E+002
+2.78569461827E+007, +2.32966375304E+001, +6.94896261406E+002
+2.79819774718E+007, +1.97355747564E+001, +6.97674168374E+002
+2.81070087610E+007, +2.19486598880E+001, +7.02514029278E+002
+2.82320400501E+007, +2.18754993487E+001, +7.08336730627E+002
+2.83570713392E+007, +2.33826403825E+001, +7.12726856436E+002
+2.84821026283E+007, +2.22489280533E+001, +7.15508964589E+002
+2.86071339174E+007, +1.88346128631E+001, +7.21679957129E+002
+2.87321652065E+007, +2.03335016559E+001, +7.28409445104E+002
+2.88571964956E+007, +2.38697649432E+001, +7.32269759260E+002
+2.89822277847E+007, +2.51508679235E+001, +7.37632673228E+002
+2.91072590738E+007, +2.44486366918E+001, +7.43704591539E+002
+2.92322903630E+007, +2.33736237663E+001, +7.45096832255E+002
+2.93573216521E+007, +2.30231242486E+001, +7.54826729383E+002
+2.94823529412E+007, +2.43941718271E+001, +7.63622723396E+002
+2.96073842303E+007, +2.22024470787E+001, +7.64257228403E+002
+2.97324155194E+007, +2.46044604437E+001, +7.68555115779E+002
+2.98574468085E+007, +2.55283191448E+001, +7.74242335425E+002
+2.99824780976E+007, +2.52923739854E+001, +7.82305990680E+002
+3.01075093867E+007, +2.48270353700E+001, +7.83207447806E+002
+3.02325406758E+007, +2.27334185521E+001, +7.91991358885E+002
+3.03575719650E+007, +2.13912980912E+001, +7.96223017772E+002
+3.04826032541E+007, +2.55806214476E+001, +8.02473971507E+002
+3.06076345432E+007, +2.45739351257E+001, +8.06500330998E+002
+3.07326658323E+007, +2.48575289180E+001, +8.12707370122E+002
+3.08576971214E+007, +2.59813443160E+001, +8.21724663657E+002
+3.09827284105E+007, +2.77784173339E+001, +8.28836553335E+002
+3.11077596996E+007, +2.35744162479E+001, +8.30467310395E+002
+3.12327909887E+007, +2.33632051650E+001, +8.37974204368E+002
+3.13578222778E+007, +2.77877125722E+001, +8.45649244671E+002
+3.14828535670E+007, +2.59500244593E+001, +8.52037544890E+002
+3.16078848561E+007, +2.21435840513E+001, +8.53771158992E+002
+3.17329161452E+007, +2.84915350763E+001, +8.62945561972E+002
+3.18579474343E+007, +2.82959918645E+001, +8.67814767119E+002
+3.19829787234E+007, +2.45093550892E+001, +8.74460207798E+002
+3.21080100125E+007, +2.83742030994E+001, +8.78425748650E+002
+3.22330413016E+007, +2.89929867361E+001, +8.86640221960E+002
+3.23580725907E+007, +2.95932387602E+001, +8.95414221704E+002
+3.24831038798E+007, +2.43053579958E+001, +8.98003305571E+002
+3.26081351690E+007, +2.84236167177E+001, +9.05941492534E+002
+3.27331664581E+007, +2.84732579474E+001, +9.08435327463E+002
+3.28581977472E+007, +2.90838275901E+001, +9.18218212920E+002
+3.29832290363E+007, +2.89379377058E+001, +9.22226155833E+002
+3.31082603254E+007, +2.87251644681E+001, +9.31863065414E+002
+3.32332916145E+007, +2.38308304445E+001, +9.42695980663E+002
+3.33583229036E+007, +2.53310019433E+001, +9.51621495129E+002
+3.34833541927E+007, +2.97051701472E+001, +9.50575501658E+002
+3.36083854819E+007, +2.98948018169E+001, +9.57367531589E+002
+3.37334167710E+007, +2.85158048438E+001, +9.65070542875E+002
+3.38584480601E+007, +2.66476681074E+001, +9.77799065445E+002
+3.39834793492E+007, +2.93733331028E+001, +9.84521716257E+002
+3.41085106383E+007, +2.77705772375E+001, +9.96556293946E+002
+3.42335419274E+007, +2.65874271083E+001, +9.93144067223E+002
+3.43585732165E+007, +3.06971812477E+001, +1.00567964664E+003
+3.44836045056E+007, +3.13614708851E+001, +1.01518140661E+003
+3.46086357947E+007, +3.21039361553E+001, +1.01747033179E+003
+3.47336670839E+007, +2.89026695189E+001, +1.02629722001E+003
+3.48586983730E+007, +3.23941814444E+001, +1.04028090925E+003
+3.49837296621E+007, +2.98832023743E+001, +1.04445347948E+003
+3.51087609512E+007, +3.44142501097E+001, +1.05031568791E+003
+3.52337922403E+007, +2.93714937004E+001, +1.05956486371E+003
+3.53588235294E+007, +3.44615428399E+001, +1.06834043644E+003
+3.54838548185E+007, +3.25862549819E+001, +1.07606189729E+003
+3.56088861076E+007, +3.06805987825E+001, +1.08622593358E+003
+3.57339173967E+007, +4.43537692153E+001, +1.09183850501E+003
+3.58589486859E+007, +3.32919291543E+001, +1.09608969676E+003
+3.59839799750E+007, +3.86553899131E+001, +1.11166854606E+003
+3.61090112641E+007, +3.45345464344E+001, +1.12462150273E+003
+3.62340425532E+007, +3.80910962960E+001, +1.12848242913E+003
+3.63590738423E+007, +3.90991785753E+001, +1.13323570939E+003
+3.64841051314E+007, +3.56873957923E+001, +1.14568643772E+003
+3.66091364205E+007, +3.30976464138E+001, +1.15021556849E+003
+3.67341677096E+007, +4.49153514202E+001, +1.16292902204E+003
+3.68591989987E+007, +4.21118220620E+001, +1.16933597298E+003
+3.69842302879E+007, +4.46851837331E+001, +1.18418071330E+003
+3.71092615770E+007, +4.52918108187E+001, +1.18853620974E+003
+3.72342928661E+007, +4.33048214618E+001, +1.19827334772E+003
+3.73593241552E+007, +4.46404342828E+001, +1.20886281977E+003
+3.74843554443E+007, +4.52975569291E+001, +1.21284873788E+003
+3.76093867334E+007, +4.57374416242E+001, +1.22510659687E+003
+3.77344180225E+007, +5.35904066611E+001, +1.24100486119E+003
+3.78594493116E+007, +4.88555426923E+001, +1.25411471773E+003
+3.79844806008E+007, +5.08800569553E+001, +1.25596331945E+003
+3.81095118899E+007, +5.09641443367E+001, +1.27529523228E+003
+3.82345431790E+007, +5.29706817274E+001, +1.28231394287E+003
+3.83595744681E+007, +5.11005803694E+001, +1.29110537395E+003
+3.84846057572E+007, +5.30192153642E+001, +1.30404361781E+003
+3.86096370463E+007, +5.33771208367E+001, +1.31771007208E+003
+3.87346683354E+007, +5.89561767607E+001, +1.32554213968E+003
+3.88596996245E+007, +6.06200822577E+001, +1.33591613342E+003
+3.89847309136E+007, +6.53999175611E+001, +1.34479817756E+003
+3.91097622028E+007, +5.98898642970E+001, +1.36167200168E+003
+3.92347934919E+007, +5.28562619687E+001, +1.36928040385E+003
+3.93598247810E+007, +6.48661544410E+001, +1.38148124858E+003
+3.94848560701E+007, +5.92403286955E+001, +1.39231455905E+003
+3.96098873592E+007, +7.42533302678E+001, +1.39584383415E+003
+3.97349186483E+007, +5.81309315290E+001, +1.41514982753E+003
+3.98599499374E+007, +7.20326019049E+001, +1.42889560480E+003
+3.99849812265E+007, +6.84423267824E+001, +1.43952469863E+003
+4.01100125156E+007, +7.19084259618E+001, +1.45003494327E+003
