"# Channel 1"
"# Trace 1"
Frequency, Formatted Data, Formatted Data
+1.00000000000E+005, +4.53006891417E+001, +1.84379731053E+000
+2.66777963272E+005, +4.52755644664E+001, +5.48244946505E+000
+4.33555926544E+005, +4.52809591622E+001, +8.90451520211E+000
+6.00333889816E+005, +4.53357754519E+001, +1.22827644851E+001
+7.67111853088E+005, +4.52473544551E+001, +1.56441845357E+001
+9.33889816361E+005, +4.52517002138E+001, +1.90945244472E+001
+1.10066777963E+006, +4.53225320878E+001, +2.25613265988E+001
+1.26744574290E+006, +4.53294461960E+001, +2.59689239731E+001
+1.43422370618E+006, +4.53697009901E+001, +2.94599990918E+001
+1.60100166945E+006, +4.53952743913E+001, +3.27420951009E+001
+1.76777963272E+006, +4.53049537522E+001, +3.61757615104E+001
+1.93455759599E+006, +4.53188205092E+001, +3.96423975968E+001
+2.10133555927E+006, +4.52704021622E+001, +4.30134864624E+001
+2.26811352254E+006, +4.53114757872E+001, +4.63965365180E+001
+2.43489148581E+006, +4.53946365336E+001, +4.98483695617E+001
+2.60166944908E+006, +4.53403948208E+001, +5.32233356740E+001
+2.76844741235E+006, +4.54140309649E+001, +5.67763977418E+001
+2.93522537563E+006, +4.54542555212E+001, +6.01686247140E+001
+3.10200333890E+006, +4.54394860209E+001, +6.34559113938E+001
+3.26878130217E+006, +4.53792552262E+001, +6.71228561760E+001
+3.43555926544E+006, +4.55041058218E+001, +7.04293123256E+001
+3.60233722871E+006, +4.54801120954E+001, +7.39197569575E+001
+3.76911519199E+006, +4.55347607169E+001, +7.74706045961E+001
+3.93589315526E+006, +4.52966198935E+001, +8.08204996219E+001
+4.10267111853E+006, +4.54564010763E+001, +8.43871841162E+001
+4.26944908180E+006, +4.56006581553E+001, +8.78511975537E+001
+4.43622704508E+006, +4.55140948187E+001, +9.11459117099E+001
+4.60300500835E+006, +4.56810133989E+001, +9.46537031588E+001
+4.76978297162E+006, +4.55776595470E+001, +9.81072323552E+001
+4.93656093489E+006, +4.57981282438E+001, +1.01707023907E+002
+5.10333889816E+006, +4.58011533244E+001, +1.05065590902E+002
+5.27011686144E+006, +4.61130205551E+001, +1.08493668465E+002
+5.43689482471E+006, +4.58709304079E+001, +1.12035284866E+002
+5.60367278798E+006, +4.61556175768E+001, +1.15749659889E+002
+5.77045075125E+006, +4.59228199669E+001, +1.18902413276E+002
+5.93722871452E+006, +4.61656490846E+001, +1.22418116933E+002
+6.10400667780E+006, +4.61395528597E+001, +1.26005019865E+002
+6.27078464107E+006, +4.63046859906E+001, +1.29454199340E+002
+6.43756260434E+006, +4.63888767665E+001, +1.33095191867E+002
+6.60434056761E+006, +4.64593394035E+001, +1.36469312660E+002
+6.77111853088E+006, +4.66497309095E+001, +1.39938654085E+002
+6.93789649416E+006, +4.66825511516E+001, +1.43506720610E+002
+7.10467445743E+006, +4.66519403072E+001, +1.47105637073E+002
+7.27145242070E+006, +4.66374926357E+001, +1.50447804015E+002
+7.43823038397E+006, +4.66919438931E+001, +1.54052104290E+002
+7.60500834725E+006, +4.66167966840E+001, +1.57568335771E+002
+7.77178631052E+006, +4.69736893316E+001, +1.61390808816E+002
+7.93856427379E+006, +4.69447078062E+001, +1.64823317699E+002
+8.10534223706E+006, +4.70761559034E+001, +1.68302733863E+002
+8.27212020033E+006, +4.69624663945E+001, +1.71786847266E+002
+8.43889816361E+006, +4.70468283442E+001, +1.75616112876E+002
+8.60567612688E+006, +4.69925028091E+001, +1.79420522167E+002
+8.77245409015E+006, +4.69156606366E+001, +1.82926738320E+002
+8.93923205342E+006, +4.71092973544E+001, +1.86521606850E+002
+9.10601001669E+006, +4.73871987909E+001, +1.90481648785E+002
+9.27278797997E+006, +4.72420662878E+001, +1.93773199035E+002
+9.43956594324E+006, +4.71806729984E+001, +1.97514639496E+002
+9.60634390651E+006, +4.74490432186E+001, +2.01391990403E+002
+9.77312186978E+006, +4.72966895181E+001, +2.05129853441E+002
+9.93989983306E+006, +4.77349351756E+001, +2.08902975198E+002
+1.01066777963E+007, +4.73772014693E+001, +2.12552168353E+002
+1.02734557596E+007, +4.74867861225E+001, +2.16166508773E+002
+1.04402337229E+007, +4.73703705098E+001, +2.19744744962E+002
+1.06070116861E+007, +4.76347386092E+001, +2.23680562704E+002
+1.07737896494E+007, +4.80155096203E+001, +2.27705608958E+002
+1.09405676127E+007, +4.82099458958E+001, +2.31200012376E+002
+1.11073455760E+007, +4.79198844389E+001, +2.35261968927E+002
+1.12741235392E+007, +4.81634127644E+001, +2.38678494114E+002
+1.14409015025E+007, +4.82732818309E+001, +2.42833064471E+002
+1.16076794658E+007, +4.83437443631E+001, +2.46699655956E+002
+1.17744574290E+007, +4.85921663779E+001, +2.50672391051E+002
+1.19412353923E+007, +4.86506145413E+001, +2.54712447902E+002
+1.21080133556E+007, +4.83157777874E+001, +2.58539657449E+002
+1.22747913189E+007, +4.89927381214E+001, +2.62114395287E+002
+1.24415692821E+007, +4.86084519313E+001, +2.66170491746E+002
+1.26083472454E+007, +4.88360290714E+001, +2.70096254484E+002
+1.27751252087E+007, +4.90425998402E+001, +2.74020638914E+002
+1.29419031720E+007, +4.87483975720E+001, +2.78005533396E+002
+1.31086811352E+007, +4.93779816068E+001, +2.82375700071E+002
+1.32754590985E+007, +4.90892166077E+001, +2.85851741813E+002
+1.34422370618E+007, +4.92606609035E+001, +2.89915533055E+002
+1.36090150250E+007, +4.98795740341E+001, +2.93940633095E+002
+1.37757929883E+007, +4.95545360067E+001, +2.98367292114E+002
+1.39425709516E+007, +4.97617915052E+001, +3.02041693501E+002
+1.41093489149E+007, +5.01823800946E+001, +3.06015403650E+002
+1.42761268781E+007, +5.03131966865E+001, +3.10353951866E+002
+1.44429048414E+007, +5.03379979131E+001, +3.14519291070E+002
+1.46096828047E+007, +5.05252594488E+001, +3.18404051766E+002
+1.47764607679E+007, +5.09622357037E+001, +3.22521047344E+002
+1.49432387312E+007, +5.07404935840E+001, +3.26884199981E+002
+1.51100166945E+007, +5.08729876978E+001, +3.31028746243E+002
+1.52767946578E+007, +5.12090743991E+001, +3.34987736402E+002
+1.54435726210E+007, +5.12864922866E+001, +3.39251311339E+002
+1.56103505843E+007, +5.22969421632E+001, +3.43774504747E+002
+1.57771285476E+007, +5.18091193264E+001, +3.47589750592E+002
+1.59439065109E+007, +5.18601162519E+001, +3.51884429692E+002
+1.61106844741E+007, +5.21926804375E+001, +3.56387831343E+002
+1.62774624374E+007, +5.25374607914E+001, +3.60096143184E+002
+1.64442404007E+007, +5.21924591417E+001, +3.65224986784E+002
+1.66110183639E+007, +5.28203889633E+001, +3.69194828170E+002
+1.67777963272E+007, +5.28219733054E+001, +3.74096542758E+002
+1.69445742905E+007, +5.38146316540E+001, +3.77967517107E+002
+1.71113522538E+007, +5.20208052627E+001, +3.82221000843E+002
+1.72781302170E+007, +5.31638060818E+001, +3.88054641993E+002
+1.74449081803E+007, +5.24681053956E+001, +3.91284591012E+002
+1.76116861436E+007, +5.38071866623E+001, +3.95678186447E+002
+1.77784641068E+007, +5.30571781568E+001, +3.99295741609E+002
+1.79452420701E+007, +5.39319931861E+001, +4.05222330637E+002
+1.81120200334E+007, +5.47936793031E+001, +4.08146865470E+002
+1.82787979967E+007, +5.52044175907E+001, +4.13463162598E+002
+1.84455759599E+007, +5.52688928095E+001, +4.17716022057E+002
+1.86123539232E+007, +5.54726202536E+001, +4.22644942449E+002
+1.87791318865E+007, +5.50298316466E+001, +4.27590949786E+002
+1.89459098497E+007, +5.57953689285E+001, +4.32717082981E+002
+1.91126878130E+007, +5.60786252920E+001, +4.36970650936E+002
+1.92794657763E+007, +5.60408769317E+001, +4.42157004301E+002
+1.94462437396E+007, +5.57562141840E+001, +4.47493706770E+002
+1.96130217028E+007, +5.70159947752E+001, +4.51286980650E+002
+1.97797996661E+007, +5.70392249325E+001, +4.56066551160E+002
+1.99465776294E+007, +5.66586163104E+001, +4.60915715008E+002
+2.01133555927E+007, +5.67768361599E+001, +4.66659150980E+002
+2.02801335559E+007, +5.80585133396E+001, +4.71777165848E+002
+2.04469115192E+007, +5.92495453876E+001, +4.76125358581E+002
+2.06136894825E+007, +5.86382663685E+001, +4.81950607686E+002
+2.07804674457E+007, +5.88049621914E+001, +4.86692058438E+002
+2.09472454090E+007, +5.97318675643E+001, +4.92738858665E+002
+2.11140233723E+007, +5.92003152463E+001, +4.97017668306E+002
+2.12808013356E+007, +6.05759705641E+001, +5.01794868900E+002
+2.14475792988E+007, +6.18992896798E+001, +5.08028458500E+002
+2.16143572621E+007, +6.13790782952E+001, +5.11428957766E+002
+2.17811352254E+007, +6.16973314310E+001, +5.16726545269E+002
+2.19479131886E+007, +6.30142990541E+001, +5.22422581996E+002
+2.21146911519E+007, +6.45353203587E+001, +5.25875352940E+002
+2.22814691152E+007, +6.35444808173E+001, +5.33951428459E+002
+2.24482470785E+007, +6.36731010287E+001, +5.39730081090E+002
+2.26150250417E+007, +6.51982547585E+001, +5.44857242234E+002
+2.27818030050E+007, +6.42160775545E+001, +5.50753347442E+002
+2.29485809683E+007, +6.75624671518E+001, +5.54459209874E+002
+2.31153589316E+007, +6.65248328251E+001, +5.60666358910E+002
+2.32821368948E+007, +6.84574354705E+001, +5.65956076268E+002
+2.34489148581E+007, +6.77231443771E+001, +5.70267916475E+002
+2.36156928214E+007, +6.89124642010E+001, +5.78715310603E+002
+2.37824707846E+007, +6.91219517097E+001, +5.83006775462E+002
+2.39492487479E+007, +6.93063167813E+001, +5.87246413553E+002
+2.41160267112E+007, +6.94349538794E+001, +5.94445389191E+002
+2.42828046745E+007, +7.10260512456E+001, +5.98881322616E+002
+2.44495826377E+007, +7.31016328056E+001, +6.06804271062E+002
+2.46163606010E+007, +7.19592536692E+001, +6.10563916818E+002
+2.47831385643E+007, +7.14051038506E+001, +6.18953374719E+002
+2.49499165275E+007, +7.55836833085E+001, +6.21910443895E+002
+2.51166944908E+007, +7.44927967985E+001, +6.28989331330E+002
+2.52834724541E+007, +7.52710717384E+001, +6.37112682897E+002
+2.54502504174E+007, +7.63981019609E+001, +6.41950698812E+002
+2.56170283806E+007, +7.71211909582E+001, +6.47874635111E+002
+2.57838063439E+007, +7.90107157788E+001, +6.52949476259E+002
+2.59505843072E+007, +7.97921085325E+001, +6.62022927877E+002
+2.61173622705E+007, +8.10783563180E+001, +6.66279439922E+002
+2.62841402337E+007, +8.13916700129E+001, +6.72325984664E+002
+2.64509181970E+007, +8.10964320105E+001, +6.79255061784E+002
+2.66176961603E+007, +8.31916964717E+001, +6.88838252028E+002
+2.67844741235E+007, +8.15910102142E+001, +6.90014744519E+002
+2.69512520868E+007, +8.42100749318E+001, +6.97587913999E+002
+2.71180300501E+007, +8.49920564466E+001, +7.01886203805E+002
+2.72848080134E+007, +8.80446740513E+001, +7.11211860585E+002
+2.74515859766E+007, +8.69882399271E+001, +7.17729042639E+002
+2.76183639399E+007, +8.60461193268E+001, +7.24078144360E+002
+2.77851419032E+007, +8.48161466238E+001, +7.29714373199E+002
+2.79519198664E+007, +9.02082019913E+001, +7.37212304720E+002
+2.81186978297E+007, +8.95969983403E+001, +7.41496879968E+002
+2.82854757930E+007, +9.05308752991E+001, +7.50060829101E+002
+2.84522537563E+007, +8.91061803024E+001, +7.57032739990E+002
+2.86190317195E+007, +8.81265429058E+001, +7.64127966021E+002
+2.87858096828E+007, +9.42576120905E+001, +7.71411737534E+002
+2.89525876461E+007, +9.41502012277E+001, +7.78801822437E+002
+2.91193656093E+007, +9.06847590782E+001, +7.82835917820E+002
+2.92861435726E+007, +9.46433783468E+001, +7.95809982295E+002
+2.94529215359E+007, +9.55567662566E+001, +8.02501006705E+002
+2.96196994992E+007, +9.78297522458E+001, +8.09249387905E+002
+2.97864774624E+007, +1.00571117606E+002, +8.13934779552E+002
+2.99532554257E+007, +1.00012649509E+002, +8.23177632542E+002
+3.01200333890E+007, +9.82282231540E+001, +8.36733106846E+002
+3.02868113523E+007, +9.74823323009E+001, +8.43502810209E+002
+3.04535893155E+007, +1.00423694491E+002, +8.52352523484E+002
+3.06203672788E+007, +1.01243080308E+002, +8.57336503707E+002
+3.07871452421E+007, +1.04384065050E+002, +8.65536379044E+002
+3.09539232053E+007, +1.04283511273E+002, +8.73803128392E+002
+3.11207011686E+007, +1.03277294985E+002, +8.85763714224E+002
+3.12874791319E+007, +1.05623492059E+002, +8.92379816639E+002
+3.14542570952E+007, +1.07329064731E+002, +9.00304692668E+002
+3.16210350584E+007, +1.05781813880E+002, +9.10773960604E+002
+3.17878130217E+007, +1.07539554130E+002, +9.18757666042E+002
+3.19545909850E+007, +1.10124392103E+002, +9.26915896520E+002
+3.21213689482E+007, +1.05353201613E+002, +9.40303181819E+002
+3.22881469115E+007, +1.11405674471E+002, +9.48464819187E+002
+3.24549248748E+007, +1.10582509895E+002, +9.57845041836E+002
+3.26217028381E+007, +1.12202047725E+002, +9.67650582313E+002
+3.27884808013E+007, +1.14364789839E+002, +9.75731934336E+002
+3.29552587646E+007, +1.19596794890E+002, +9.87175533986E+002
+3.31220367279E+007, +1.16656141325E+002, +9.89617820423E+002
+3.32888146912E+007, +1.17715172173E+002, +1.00496040813E+003
+3.34555926544E+007, +1.19473562323E+002, +1.01869240548E+003
+3.36223706177E+007, +1.19753728815E+002, +1.02519798497E+003
+3.37891485810E+007, +1.19562973176E+002, +1.03499472629E+003
+3.39559265442E+007, +1.23839962285E+002, +1.05044083540E+003
+3.41227045075E+007, +1.24781356166E+002, +1.05609274331E+003
+3.42894824708E+007, +1.25848353264E+002, +1.06987252485E+003
+3.44562604341E+007, +1.28810254175E+002, +1.08027868696E+003
+3.46230383973E+007, +1.28660884904E+002, +1.09500458299E+003
+3.47898163606E+007, +1.34367547311E+002, +1.10015323384E+003
+3.49565943239E+007, +1.37505398895E+002, +1.11665159497E+003
+3.51233722871E+007, +1.41601624791E+002, +1.12611461561E+003
+3.52901502504E+007, +1.38572629442E+002, +1.13227816269E+003
+3.54569282137E+007, +1.37441061737E+002, +1.15002232834E+003
+3.56237061770E+007, +1.35811014948E+002, +1.16570960118E+003
+3.57904841402E+007, +1.43815534691E+002, +1.18120357165E+003
+3.59572621035E+007, +1.47307172278E+002, +1.19331965350E+003
+3.61240400668E+007, +1.52133966864E+002, +1.20888088999E+003
+3.62908180301E+007, +1.51811059395E+002, +1.22465541562E+003
+3.64575959933E+007, +1.53675805158E+002, +1.23189278315E+003
+3.66243739566E+007, +1.56416858833E+002, +1.24476047665E+003
+3.67911519199E+007, +1.64996184130E+002, +1.26706458079E+003
+3.69579298831E+007, +1.53666850814E+002, +1.27698862501E+003
+3.71247078464E+007, +1.56167689993E+002, +1.29621519480E+003
+3.72914858097E+007, +1.66598805048E+002, +1.31283735149E+003
+3.74582637730E+007, +1.72798261105E+002, +1.32968428139E+003
+3.76250417362E+007, +1.67694444511E+002, +1.33994196481E+003
+3.77918196995E+007, +1.73462724465E+002, +1.36082875587E+003
+3.79585976628E+007, +1.78320424490E+002, +1.37405005530E+003
+3.81253756260E+007, +1.82702065163E+002, +1.39247229604E+003
+3.82921535893E+007, +1.90314797411E+002, +1.41188114510E+003
+3.84589315526E+007, +1.92820802729E+002, +1.43659917601E+003
+3.86257095159E+007, +1.98794939905E+002, +1.45191926575E+003
+3.87924874791E+007, +1.96016253130E+002, +1.47385913794E+003
+3.89592654424E+007, +1.97572775382E+002, +1.48309788628E+003
+3.91260434057E+007, +2.05080099976E+002, +1.51150694571E+003
+3.92928213689E+007, +2.17409389654E+002, +1.52336753529E+003
+3.94595993322E+007, +2.13875125681E+002, +1.55454747260E+003
+3.96263772955E+007, +2.08443762558E+002, +1.57191084255E+003
+3.97931552588E+007, +2.19259102701E+002, +1.59023659074E+003
+3.99599332220E+007, +2.32461196470E+002, +1.61376983735E+003
+4.01267111853E+007, +2.31984004205E+002, +1.63508887391E+003
+4.02934891486E+007, +2.38108814198E+002, +1.65517794657E+003
+4.04602671119E+007, +2.43151410717E+002, +1.66315687996E+003
+4.06270450751E+007, +2.58691858146E+002, +1.69820077847E+003
+4.07938230384E+007, +2.63453610809E+002, +1.72887126467E+003
+4.09606010017E+007, +2.82532856514E+002, +1.75065879559E+003
+4.11273789649E+007, +2.72834749086E+002, +1.77247131512E+003
+4.12941569282E+007, +2.76770231903E+002, +1.80358977439E+003
+4.14609348915E+007, +2.98175000228E+002, +1.83348088994E+003
+4.16277128548E+007, +3.17651000619E+002, +1.86705445079E+003
+4.17944908180E+007, +2.95853680573E+002, +1.87971459163E+003
+4.19612687813E+007, +3.18456639937E+002, +1.90814886722E+003
+4.21280467446E+007, +3.24953336028E+002, +1.93889382452E+003
+4.22948247078E+007, +3.39255647834E+002, +1.99141824069E+003
+4.24616026711E+007, +3.78039807658E+002, +1.99691267283E+003
+4.26283806344E+007, +3.70158217035E+002, +2.04937268380E+003
+4.27951585977E+007, +3.48648240627E+002, +2.08800305070E+003
+4.29619365609E+007, +4.05103016603E+002, +2.10874705304E+003
+4.31287145242E+007, +4.03117673246E+002, +2.16106978270E+003
+4.32954924875E+007, +4.16089798133E+002, +2.18888745079E+003
+4.34622704508E+007, +4.35829647637E+002, +2.24813109499E+003
+4.36290484140E+007, +4.49130065126E+002, +2.26351048010E+003
+4.37958263773E+007, +4.59657090009E+002, +2.32536690931E+003
+4.39626043406E+007, +4.82418015474E+002, +2.37381654440E+003
+4.41293823038E+007, +5.15949892991E+002, +2.40956810742E+003
+4.42961602671E+007, +5.14399675396E+002, +2.47073577325E+003
+4.44629382304E+007, +5.43262737805E+002, +2.51410808796E+003
+4.46297161937E+007, +5.71258434419E+002, +2.55830071889E+003
+4.47964941569E+007, +5.81643267914E+002, +2.61726827992E+003
+4.49632721202E+007, +6.06924656640E+002, +2.70023109830E+003
+4.51300500835E+007, +6.27537539618E+002, +2.69996722711E+003
+4.52968280467E+007, +6.68490016276E+002, +2.81363185196E+003
+4.54636060100E+007, +7.45973533134E+002, +2.88717827179E+003
+4.56303839733E+007, +7.71127894707E+002, +2.96516848429E+003
+4.57971619366E+007, +7.84268012967E+002, +3.00625815937E+003
+4.59639398998E+007, +8.47635425505E+002, +3.15984732383E+003
+4.61307178631E+007, +8.76778078475E+002, +3.13798274621E+003
+4.62974958264E+007, +9.69832030342E+002, +3.19171456137E+003
+4.64642737896E+007, +9.63640566566E+002, +3.27168136315E+003
+4.66310517529E+007, +1.07747687815E+003, +3.46676820315E+003
+4.67978297162E+007, +1.19729801032E+003, +3.38284213134E+003
+4.69646076795E+007, +1.19025242452E+003, +3.58583030658E+003
+4.71313856427E+007, +1.31980752267E+003, +3.67696123525E+003
+4.72981636060E+007, +1.40407825451E+003, +3.72859271673E+003
+4.74649415693E+007, +1.44557548526E+003, +3.84080797930E+003
+4.76317195326E+007, +1.67064494488E+003, +3.80282337627E+003
+4.77984974958E+007, +1.76735194880E+003, +3.94763223653E+003
+4.79652754591E+007, +1.87954226597E+003, +4.04330547354E+003
+4.81320534224E+007, +2.05297062210E+003, +4.15997118113E+003
+4.82988313856E+007, +2.09852230502E+003, +4.28710302874E+003
+4.84656093489E+007, +2.40559199988E+003, +4.30724611985E+003
+4.86323873122E+007, +2.42748029645E+003, +4.29860416103E+003
+4.87991652755E+007, +2.82793133081E+003, +4.38661114010E+003
+4.89659432387E+007, +2.97328522559E+003, +4.53500047980E+003
+4.91327212020E+007, +3.22092003283E+003, +4.55840641295E+003
+4.92994991653E+007, +3.41882953848E+003, +4.52375354099E+003
+4.94662771285E+007, +3.75744527068E+003, +4.45917902254E+003
+4.96330550918E+007, +3.89922259275E+003, +4.36216447526E+003
+4.97998330551E+007, +4.11952879033E+003, +4.36696893859E+003
+4.99666110184E+007, +4.49185098743E+003, +4.36724346733E+003
+5.01333889816E+007, +4.67189021734E+003, +4.45996832446E+003
+5.03001669449E+007, +4.85233656761E+003, +4.52234807617E+003
+5.04669449082E+007, +5.19479523870E+003, +4.28245099667E+003
+5.06337228715E+007, +5.53965437383E+003, +3.97085388329E+003
+5.08005008347E+007, +5.61405864098E+003, +4.17845471975E+003
+5.09672787980E+007, +6.29341159476E+003, +3.88096799528E+003
+5.11340567613E+007, +6.56906558457E+003, +3.59481464805E+003
+5.13008347245E+007, +6.91676565965E+003, +3.46739739224E+003
+5.14676126878E+007, +7.21801468304E+003, +3.51635986732E+003
+5.16343906511E+007, +7.55386885803E+003, +2.77457045852E+003
+5.18011686144E+007, +8.10460441423E+003, +2.90590941114E+003
+5.19679465776E+007, +8.50956092679E+003, +2.27755451641E+003
+5.21347245409E+007, +8.50488436508E+003, +1.57394184208E+003
+5.23015025042E+007, +8.89902991045E+003, +5.22563583726E+002
+5.24682804674E+007, +9.32557782116E+003, +4.68336962398E+002
+5.26350584307E+007, +9.26972979323E+003, -5.67443437552E+002
+5.28018363940E+007, +9.08158126129E+003, -1.62902632753E+003
+5.29686143573E+007, +8.75443915096E+003, -1.96594257749E+003
+5.31353923205E+007, +8.78682868602E+003, -2.32294014933E+003
+5.33021702838E+007, +8.26455247594E+003, -3.29419189859E+003
+5.34689482471E+007, +7.39586990143E+003, -3.62122753600E+003
