"# Channel 1"
"# Trace 1"
Frequency, Formatted Data, Formatted Data
+1.00000000000E+005, +8.15506555254E+000, +1.86908687537E+000
+2.25031289111E+005, +8.18177395677E+000, +4.15406188584E+000
+3.50062578223E+005, +8.16800160592E+000, +6.42201377735E+000
+4.75093867334E+005, +8.15544316775E+000, +8.75412039577E+000
+6.00125156446E+005, +8.17998393682E+000, +1.10244253662E+001
+7.25156445557E+005, +8.18476160491E+000, +1.33457112086E+001
+8.50187734668E+005, +8.17948693223E+000, +1.56210466397E+001
+9.75219023780E+005, +8.19521830527E+000, +1.79109394770E+001
+1.10025031289E+006, +8.18205163148E+000, +2.01820061271E+001
+1.22528160200E+006, +8.21006611887E+000, +2.24751565678E+001
+1.35031289111E+006, +8.21494237113E+000, +2.47081236399E+001
+1.47534418023E+006, +8.21046572782E+000, +2.70308315826E+001
+1.60037546934E+006, +8.17971716636E+000, +2.92870260253E+001
+1.72540675845E+006, +8.22685194947E+000, +3.16303095787E+001
+1.85043804756E+006, +8.19327360092E+000, +3.38643451367E+001
+1.97546933667E+006, +8.25668886004E+000, +3.61814428123E+001
+2.10050062578E+006, +8.22331793606E+000, +3.84728229470E+001
+2.22553191489E+006, +8.21185064677E+000, +4.07589275389E+001
+2.35056320401E+006, +8.32397749646E+000, +4.30802396914E+001
+2.47559449312E+006, +8.29169179614E+000, +4.52970222618E+001
+2.60062578223E+006, +8.36153966771E+000, +4.76353189262E+001
+2.72565707134E+006, +8.29869322089E+000, +4.98365974741E+001
+2.85068836045E+006, +8.28172876243E+000, +5.21761098898E+001
+2.97571964956E+006, +8.29844711014E+000, +5.45368440211E+001
+3.10075093867E+006, +8.29133720437E+000, +5.67769721892E+001
+3.22578222778E+006, +8.21822472428E+000, +5.91196134761E+001
+3.35081351690E+006, +8.39021337216E+000, +6.14616044694E+001
+3.47584480601E+006, +8.32913184494E+000, +6.37920703094E+001
+3.60087609512E+006, +8.39113000482E+000, +6.60834251198E+001
+3.72590738423E+006, +8.33974946035E+000, +6.83835011371E+001
+3.85093867334E+006, +8.35994424664E+000, +7.07108717353E+001
+3.97596996245E+006, +8.34630280090E+000, +7.31369563845E+001
+4.10100125156E+006, +8.68743031203E+000, +7.53328515277E+001
+4.22603254068E+006, +8.52347297843E+000, +7.75278739605E+001
+4.35106382979E+006, +8.40553932011E+000, +7.98780938414E+001
+4.47609511890E+006, +8.41805252045E+000, +8.22714587971E+001
+4.60112640801E+006, +8.60078622689E+000, +8.47022691691E+001
+4.72615769712E+006, +8.59857376054E+000, +8.67594523417E+001
+4.85118898623E+006, +8.67116639891E+000, +8.92967071621E+001
+4.97622027534E+006, +8.46597188885E+000, +9.16826741798E+001
+5.10125156446E+006, +8.65105429045E+000, +9.39699363143E+001
+5.22628285357E+006, +8.69789764233E+000, +9.61903957373E+001
+5.35131414268E+006, +8.61200637803E+000, +9.86241906412E+001
+5.47634543179E+006, +8.86610578669E+000, +1.00934130617E+002
+5.60137672090E+006, +8.70399666121E+000, +1.03365364040E+002
+5.72640801001E+006, +8.87718352559E+000, +1.05696250703E+002
+5.85143929912E+006, +8.92501461140E+000, +1.07905638392E+002
+5.97647058824E+006, +8.73704016222E+000, +1.10615445030E+002
+6.10150187735E+006, +8.77289815167E+000, +1.12884745104E+002
+6.22653316646E+006, +8.84303408937E+000, +1.15015906060E+002
+6.35156445557E+006, +9.02971906659E+000, +1.17551327116E+002
+6.47659574468E+006, +8.97540350633E+000, +1.19799147779E+002
+6.60162703379E+006, +9.15595597615E+000, +1.22420707691E+002
+6.72665832290E+006, +9.11451131070E+000, +1.24572582173E+002
+6.85168961202E+006, +9.14168783410E+000, +1.27146686141E+002
+6.97672090113E+006, +9.17946475766E+000, +1.29454310308E+002
+7.10175219024E+006, +9.16956443624E+000, +1.31924956157E+002
+7.22678347935E+006, +9.14026942683E+000, +1.34194404609E+002
+7.35181476846E+006, +9.31225723282E+000, +1.36730941611E+002
+7.47684605757E+006, +9.35370133147E+000, +1.38995352881E+002
+7.60187734668E+006, +9.16989185942E+000, +1.41374869413E+002
+7.72690863579E+006, +9.41762212645E+000, +1.43892626957E+002
+7.85193992491E+006, +9.49385550484E+000, +1.46416504893E+002
+7.97697121402E+006, +9.46993835187E+000, +1.48788257183E+002
+8.10200250313E+006, +9.65508949164E+000, +1.51159733466E+002
+8.22703379224E+006, +9.56115070684E+000, +1.53643386182E+002
+8.35206508135E+006, +9.51746455302E+000, +1.55979163623E+002
+8.47709637046E+006, +9.81269691687E+000, +1.58492907460E+002
+8.60212765957E+006, +9.49275114642E+000, +1.61035643977E+002
+8.72715894869E+006, +9.95627922599E+000, +1.63568290920E+002
+8.85219023780E+006, +9.72604311088E+000, +1.65945461289E+002
+8.97722152691E+006, +9.83125125480E+000, +1.68416998793E+002
+9.10225281602E+006, +9.71809627303E+000, +1.70907306880E+002
+9.22728410513E+006, +9.97115661064E+000, +1.73204820001E+002
+9.35231539424E+006, +9.98515290280E+000, +1.75609704150E+002
+9.47734668335E+006, +9.92447468242E+000, +1.78145815745E+002
+9.60237797247E+006, +1.00103698964E+001, +1.80689125271E+002
+9.72740926158E+006, +9.85107033989E+000, +1.82967332760E+002
+9.85244055069E+006, +9.97535121070E+000, +1.85858125970E+002
+9.97747183980E+006, +1.01050101488E+001, +1.88339864211E+002
+1.01025031289E+007, +1.02278535233E+001, +1.90627083153E+002
+1.02275344180E+007, +1.01319232116E+001, +1.93326627411E+002
+1.03525657071E+007, +1.01998094040E+001, +1.95714909231E+002
+1.04775969962E+007, +1.01862183172E+001, +1.98304407566E+002
+1.06026282854E+007, +1.01077680604E+001, +2.00901808937E+002
+1.07276595745E+007, +1.04684055332E+001, +2.03301320295E+002
+1.08526908636E+007, +1.02174628043E+001, +2.05766797339E+002
+1.09777221527E+007, +1.05837312049E+001, +2.08532040941E+002
+1.11027534418E+007, +1.07792565397E+001, +2.10966116997E+002
+1.12277847309E+007, +1.02651684997E+001, +2.14017173719E+002
+1.13528160200E+007, +1.04681272999E+001, +2.16155669024E+002
+1.14778473091E+007, +1.06651727215E+001, +2.18884544329E+002
+1.16028785982E+007, +1.06179482811E+001, +2.21181076077E+002
+1.17279098874E+007, +1.08436174314E+001, +2.24468561511E+002
+1.18529411765E+007, +1.07235733839E+001, +2.26877779667E+002
+1.19779724656E+007, +1.08766068030E+001, +2.29027994557E+002
+1.21030037547E+007, +1.07085244757E+001, +2.31822620277E+002
+1.22280350438E+007, +1.03897060715E+001, +2.34833829124E+002
+1.23530663329E+007, +1.06250616528E+001, +2.37608093909E+002
+1.24780976220E+007, +1.08580203223E+001, +2.39543418342E+002
+1.26031289111E+007, +1.09375150907E+001, +2.42583212780E+002
+1.27281602003E+007, +1.10056971472E+001, +2.45418078004E+002
+1.28531914894E+007, +1.09283088580E+001, +2.47953483037E+002
+1.29782227785E+007, +1.15650763097E+001, +2.51117024527E+002
+1.31032540676E+007, +1.12186836959E+001, +2.53240058927E+002
+1.32282853567E+007, +1.12083159222E+001, +2.56486087176E+002
+1.33533166458E+007, +1.11278732253E+001, +2.59132328185E+002
+1.34783479349E+007, +1.11022798170E+001, +2.61634068019E+002
+1.36033792240E+007, +1.13179357712E+001, +2.64590124522E+002
+1.37284105131E+007, +1.14379256388E+001, +2.67026177112E+002
+1.38534418023E+007, +1.15096924331E+001, +2.69352580099E+002
+1.39784730914E+007, +1.14816890276E+001, +2.72582832373E+002
+1.41035043805E+007, +1.14958358090E+001, +2.75378851930E+002
+1.42285356696E+007, +1.13743185840E+001, +2.78316455231E+002
+1.43535669587E+007, +1.09132756552E+001, +2.80740805153E+002
+1.44785982478E+007, +1.15977115619E+001, +2.84063313958E+002
+1.46036295369E+007, +1.21888997172E+001, +2.87057012809E+002
+1.47286608260E+007, +1.14625168049E+001, +2.89528804206E+002
+1.48536921151E+007, +1.23277235350E+001, +2.92118783527E+002
+1.49787234043E+007, +1.13261386188E+001, +2.95686370947E+002
+1.51037546934E+007, +1.18847105077E+001, +2.98345287203E+002
+1.52287859825E+007, +1.23067502319E+001, +3.01310364425E+002
+1.53538172716E+007, +1.19552291226E+001, +3.03956193606E+002
+1.54788485607E+007, +1.20598690046E+001, +3.07661194913E+002
+1.56038798498E+007, +1.29662104905E+001, +3.09927567428E+002
+1.57289111389E+007, +1.24223425146E+001, +3.13054661429E+002
+1.58539424280E+007, +1.21255680400E+001, +3.15865392939E+002
+1.59789737171E+007, +1.20867746912E+001, +3.18520255599E+002
+1.61040050063E+007, +1.20922332707E+001, +3.21430604360E+002
+1.62290362954E+007, +1.25830823860E+001, +3.25372056342E+002
+1.63540675845E+007, +1.21592743167E+001, +3.28172100000E+002
+1.64790988736E+007, +1.23171328077E+001, +3.30667054226E+002
+1.66041301627E+007, +1.24307195766E+001, +3.34350421816E+002
+1.67291614518E+007, +1.31225177614E+001, +3.37762679227E+002
+1.68541927409E+007, +1.27641457681E+001, +3.39709631403E+002
+1.69792240300E+007, +1.31936397014E+001, +3.43408779819E+002
+1.71042553191E+007, +1.16689789330E+001, +3.46487914214E+002
+1.72292866083E+007, +1.12616594962E+001, +3.49349892113E+002
+1.73543178974E+007, +1.33060641062E+001, +3.52201915285E+002
+1.74793491865E+007, +1.22203574139E+001, +3.55699084003E+002
+1.76043804756E+007, +1.26892748061E+001, +3.58571184303E+002
+1.77294117647E+007, +1.27022584973E+001, +3.62306484298E+002
+1.78544430538E+007, +1.26287559185E+001, +3.65452613871E+002
+1.79794743429E+007, +1.32462506363E+001, +3.67855279058E+002
+1.81045056320E+007, +1.33965966157E+001, +3.72037707617E+002
+1.82295369212E+007, +1.38945716855E+001, +3.76127802262E+002
+1.83545682103E+007, +1.39942208282E+001, +3.78199818846E+002
+1.84795994994E+007, +1.31732792306E+001, +3.81518911252E+002
+1.86046307885E+007, +1.36224964946E+001, +3.85307137785E+002
+1.87296620776E+007, +1.34142223624E+001, +3.88698767379E+002
+1.88546933667E+007, +1.46059538830E+001, +3.92490358355E+002
+1.89797246558E+007, +1.42004418289E+001, +3.96392141107E+002
+1.91047559449E+007, +1.47164899361E+001, +3.99297906678E+002
+1.92297872340E+007, +1.42283758557E+001, +4.01894093654E+002
+1.93548185232E+007, +1.50696183763E+001, +4.05624231152E+002
+1.94798498123E+007, +1.49087500255E+001, +4.09342683434E+002
+1.96048811014E+007, +1.43074557399E+001, +4.12318323501E+002
+1.97299123905E+007, +1.47413621636E+001, +4.15902700941E+002
+1.98549436796E+007, +1.62287752346E+001, +4.19052273310E+002
+1.99799749687E+007, +1.54902965941E+001, +4.22475555168E+002
+2.01050062578E+007, +1.51420691037E+001, +4.26415029130E+002
+2.02300375469E+007, +1.52429424086E+001, +4.30220380096E+002
+2.03550688360E+007, +1.60128254354E+001, +4.34408993498E+002
+2.04801001252E+007, +1.53699623741E+001, +4.36835188838E+002
+2.06051314143E+007, +1.68895317844E+001, +4.41109619046E+002
+2.07301627034E+007, +1.72263033596E+001, +4.44025565201E+002
+2.08551939925E+007, +1.62247727803E+001, +4.48007479473E+002
+2.09802252816E+007, +1.63364187480E+001, +4.52404757075E+002
+2.11052565707E+007, +1.64191906419E+001, +4.56313287748E+002
+2.12302878598E+007, +1.76904051677E+001, +4.59150528949E+002
+2.13553191489E+007, +1.70438933550E+001, +4.62584729502E+002
+2.14803504380E+007, +1.76776057952E+001, +4.67006931731E+002
+2.16053817272E+007, +1.82437076125E+001, +4.71176290327E+002
+2.17304130163E+007, +1.82440210155E+001, +4.75157987783E+002
+2.18554443054E+007, +1.96171544900E+001, +4.78150945314E+002
+2.19804755945E+007, +2.00035459652E+001, +4.82634591785E+002
+2.21055068836E+007, +1.93631962877E+001, +4.86124348757E+002
+2.22305381727E+007, +1.89034377391E+001, +4.91015090681E+002
+2.23555694618E+007, +2.07258127621E+001, +4.95389192494E+002
+2.24806007509E+007, +2.21753418662E+001, +4.98030244261E+002
+2.26056320401E+007, +2.07804032460E+001, +5.00606186363E+002
+2.27306633292E+007, +2.15946580974E+001, +5.06510321303E+002
+2.28556946183E+007, +2.32249403158E+001, +5.10089836848E+002
+2.29807259074E+007, +2.37274052963E+001, +5.12346971255E+002
+2.31057571965E+007, +2.26172844599E+001, +5.17182941181E+002
+2.32307884856E+007, +2.32036335688E+001, +5.21650229065E+002
+2.33558197747E+007, +2.49458762644E+001, +5.24272533573E+002
+2.34808510638E+007, +2.35891148500E+001, +5.28644751248E+002
+2.36058823529E+007, +2.35772736923E+001, +5.33458006856E+002
+2.37309136421E+007, +2.49180935036E+001, +5.37878501555E+002
+2.38559449312E+007, +2.53946971743E+001, +5.40616417731E+002
+2.39809762203E+007, +2.53529004124E+001, +5.43220979154E+002
+2.41060075094E+007, +2.59133382911E+001, +5.47665816376E+002
+2.42310387985E+007, +2.14349723697E+001, +5.52824781745E+002
+2.43560700876E+007, +2.42304816103E+001, +5.57177944512E+002
+2.44811013767E+007, +2.57039331174E+001, +5.59455127019E+002
+2.46061326658E+007, +2.62977637006E+001, +5.65792780351E+002
+2.47311639549E+007, +2.76017149018E+001, +5.71463422811E+002
+2.48561952441E+007, +2.43567469127E+001, +5.74115609691E+002
+2.49812265332E+007, +2.40309520938E+001, +5.79790521927E+002
+2.51062578223E+007, +2.49157114237E+001, +5.83356087516E+002
+2.52312891114E+007, +2.51180885742E+001, +5.87170991155E+002
+2.53563204005E+007, +2.48806154749E+001, +5.93275315659E+002
+2.54813516896E+007, +2.38861603861E+001, +5.97278048242E+002
+2.56063829787E+007, +2.46840170546E+001, +6.02493430000E+002
+2.57314142678E+007, +2.52188898670E+001, +6.08214072070E+002
+2.58564455569E+007, +2.66250836303E+001, +6.13249473107E+002
+2.59814768461E+007, +2.58456028679E+001, +6.17402762344E+002
+2.61065081352E+007, +2.69836538332E+001, +6.22001871269E+002
+2.62315394243E+007, +2.54211442099E+001, +6.26783885349E+002
+2.63565707134E+007, +2.55429664370E+001, +6.33351897019E+002
+2.64816020025E+007, +2.49153252467E+001, +6.38258267776E+002
+2.66066332916E+007, +2.65436018971E+001, +6.42289582346E+002
+2.67316645807E+007, +2.62880700373E+001, +6.46175030929E+002
+2.68566958698E+007, +2.78381528827E+001, +6.51370475594E+002
+2.69817271589E+007, +2.72030304015E+001, +6.59255774368E+002
+2.71067584481E+007, +2.59264632648E+001, +6.64967173278E+002
+2.72317897372E+007, +2.69861116108E+001, +6.69570302139E+002
+2.73568210263E+007, +2.56926221088E+001, +6.73847931206E+002
+2.74818523154E+007, +2.94471233557E+001, +6.80243274203E+002
+2.76068836045E+007, +2.83623352828E+001, +6.87553654104E+002
+2.77319148936E+007, +2.57839735439E+001, +6.91260204417E+002
+2.78569461827E+007, +3.00127353776E+001, +6.98303559761E+002
+2.79819774718E+007, +2.75563364445E+001, +7.03640870464E+002
+2.81070087610E+007, +3.29567386599E+001, +7.09882585698E+002
+2.82320400501E+007, +3.32742663076E+001, +7.16192261582E+002
+2.83570713392E+007, +3.11739073452E+001, +7.22106633673E+002
+2.84821026283E+007, +2.97666251422E+001, +7.26584208355E+002
+2.86071339174E+007, +2.96540351007E+001, +7.30746484123E+002
+2.87321652065E+007, +3.15694220511E+001, +7.39821418282E+002
+2.88571964956E+007, +3.06464407490E+001, +7.47628400296E+002
+2.89822277847E+007, +3.48200035269E+001, +7.49004318953E+002
+2.91072590738E+007, +3.34491777685E+001, +7.57650063359E+002
+2.92322903630E+007, +3.39566380226E+001, +7.60386837384E+002
+2.93573216521E+007, +3.43950495100E+001, +7.70527472134E+002
+2.94823529412E+007, +3.18608638434E+001, +7.75189204465E+002
+2.96073842303E+007, +3.48715257798E+001, +7.85206096338E+002
+2.97324155194E+007, +3.57266830266E+001, +7.89579167449E+002
+2.98574468085E+007, +3.65164805050E+001, +7.97536334392E+002
+2.99824780976E+007, +3.62462997002E+001, +8.00974143862E+002
+3.01075093867E+007, +3.55978587627E+001, +8.11029855530E+002
+3.02325406758E+007, +3.52268184488E+001, +8.15369755872E+002
+3.03575719650E+007, +3.11812414003E+001, +8.21045227697E+002
+3.04826032541E+007, +3.60048598470E+001, +8.28015418552E+002
+3.06076345432E+007, +3.70343411002E+001, +8.38661989738E+002
+3.07326658323E+007, +3.96715115311E+001, +8.43707050663E+002
+3.08576971214E+007, +4.20515256497E+001, +8.49653420877E+002
+3.09827284105E+007, +3.92618673765E+001, +8.57759452357E+002
+3.11077596996E+007, +4.28425050481E+001, +8.64160602595E+002
+3.12327909887E+007, +3.89370386619E+001, +8.74591209852E+002
+3.13578222778E+007, +3.80861329540E+001, +8.83757880023E+002
+3.14828535670E+007, +4.12537100087E+001, +8.92777026415E+002
+3.16078848561E+007, +3.91497344150E+001, +9.02644528423E+002
+3.17329161452E+007, +4.14890549427E+001, +9.12479356393E+002
+3.18579474343E+007, +4.26818358800E+001, +9.17556269863E+002
+3.19829787234E+007, +4.22898331365E+001, +9.22590294662E+002
+3.21080100125E+007, +4.52173035803E+001, +9.32788278670E+002
+3.22330413016E+007, +4.77700699051E+001, +9.41732849241E+002
+3.23580725907E+007, +4.40785820075E+001, +9.48882774058E+002
+3.24831038798E+007, +4.58675975943E+001, +9.56301131029E+002
+3.26081351690E+007, +4.59083442729E+001, +9.72740277578E+002
+3.27331664581E+007, +4.91626129970E+001, +9.76873298260E+002
+3.28581977472E+007, +4.87898689909E+001, +9.78294794147E+002
+3.29832290363E+007, +4.94268289048E+001, +9.92991188584E+002
+3.31082603254E+007, +5.24304585719E+001, +1.00495159454E+003
+3.32332916145E+007, +4.99019217806E+001, +1.01311201092E+003
+3.33583229036E+007, +5.32646630038E+001, +1.02408221186E+003
+3.34833541927E+007, +5.07202272828E+001, +1.03300317260E+003
+3.36083854819E+007, +5.69625545735E+001, +1.04150793216E+003
+3.37334167710E+007, +5.97837500343E+001, +1.04861218162E+003
+3.38584480601E+007, +5.55706742031E+001, +1.06044956673E+003
+3.39834793492E+007, +6.02075804511E+001, +1.07116507306E+003
+3.41085106383E+007, +6.05094716605E+001, +1.08424600499E+003
+3.42335419274E+007, +5.94263538656E+001, +1.09287397962E+003
+3.43585732165E+007, +5.96225396684E+001, +1.10144139917E+003
+3.44836045056E+007, +6.59541770015E+001, +1.12098368917E+003
+3.46086357947E+007, +6.94074653701E+001, +1.12368151356E+003
+3.47336670839E+007, +6.92999098819E+001, +1.13510828124E+003
+3.48586983730E+007, +6.81409010028E+001, +1.15057375056E+003
+3.49837296621E+007, +7.25018343443E+001, +1.16174306951E+003
+3.51087609512E+007, +7.38525680367E+001, +1.17389509829E+003
+3.52337922403E+007, +6.78769035573E+001, +1.18070885007E+003
+3.53588235294E+007, +7.42479344594E+001, +1.18757919093E+003
+3.54838548185E+007, +7.85476331282E+001, +1.21437240832E+003
+3.56088861076E+007, +7.80078682050E+001, +1.22449838545E+003
+3.57339173967E+007, +8.41763215821E+001, +1.23154707106E+003
+3.58589486859E+007, +9.30300990712E+001, +1.24766108576E+003
+3.59839799750E+007, +8.52744249376E+001, +1.25872697296E+003
+3.61090112641E+007, +7.90694380300E+001, +1.27522546730E+003
+3.62340425532E+007, +8.73086961415E+001, +1.28368065398E+003
+3.63590738423E+007, +8.48702144071E+001, +1.30016449438E+003
+3.64841051314E+007, +1.03433963716E+002, +1.32045378637E+003
+3.66091364205E+007, +1.02489270893E+002, +1.32921570905E+003
+3.67341677096E+007, +1.10104854990E+002, +1.34597691985E+003
+3.68591989987E+007, +9.65459935600E+001, +1.35252009534E+003
+3.69842302879E+007, +1.08654929539E+002, +1.37241137892E+003
+3.71092615770E+007, +1.14982592329E+002, +1.39404497287E+003
+3.72342928661E+007, +1.15652648856E+002, +1.40511113503E+003
+3.73593241552E+007, +1.23352780921E+002, +1.41458529432E+003
+3.74843554443E+007, +1.12751231033E+002, +1.43359464818E+003
+3.76093867334E+007, +1.17540049800E+002, +1.46325660349E+003
+3.77344180225E+007, +1.33304245586E+002, +1.45770688871E+003
+3.78594493116E+007, +1.36434665544E+002, +1.49158282722E+003
+3.79844806008E+007, +1.43304001889E+002, +1.50369128107E+003
+3.81095118899E+007, +1.32879110727E+002, +1.51795755884E+003
+3.82345431790E+007, +1.43019759936E+002, +1.52845857579E+003
+3.83595744681E+007, +1.54554443431E+002, +1.55196238363E+003
+3.84846057572E+007, +1.60709146223E+002, +1.57565677013E+003
+3.86096370463E+007, +1.56617756337E+002, +1.59118663755E+003
+3.87346683354E+007, +1.60555798561E+002, +1.61398797281E+003
+3.88596996245E+007, +1.79881932495E+002, +1.64085960356E+003
+3.89847309136E+007, +1.93403489703E+002, +1.65215548671E+003
+3.91097622028E+007, +1.92082895784E+002, +1.67431074298E+003
+3.92347934919E+007, +1.94980693328E+002, +1.68700988919E+003
+3.93598247810E+007, +2.00339315357E+002, +1.71324574819E+003
+3.94848560701E+007, +1.91958848709E+002, +1.75682522289E+003
+3.96098873592E+007, +1.94791347450E+002, +1.78825285932E+003
+3.97349186483E+007, +2.11564632971E+002, +1.77802934209E+003
+3.98599499374E+007, +2.24171790302E+002, +1.81814636399E+003
+3.99849812265E+007, +2.14011775842E+002, +1.85316266783E+003
+4.01100125156E+007, +2.16664316434E+002, +1.84811398089E+003
