"# Channel 1"
"# Trace 1"
Frequency, Formatted Data, Formatted Data
+1.00000000000E+005, +8.94214996896E+001, +2.18248559535E+000
+3.18898623279E+005, +8.93302832320E+001, +6.78118907572E+000
+5.37797246558E+005, +8.94209200184E+001, +1.14632716486E+001
+7.56695869837E+005, +8.94752825521E+001, +1.62574483504E+001
+9.75594493116E+005, +8.94836719836E+001, +2.08332585689E+001
+1.19449311640E+006, +8.94761528660E+001, +2.53234707282E+001
+1.41339173967E+006, +8.93776691545E+001, +3.02134152625E+001
+1.63229036295E+006, +8.95182311784E+001, +3.47996513243E+001
+1.85118898623E+006, +8.94392247350E+001, +3.95679987502E+001
+2.07008760951E+006, +8.95601122018E+001, +4.42109922693E+001
+2.28898623279E+006, +8.95320822471E+001, +4.90711443151E+001
+2.50788485607E+006, +8.95916838643E+001, +5.35281871940E+001
+2.72678347935E+006, +8.94457289119E+001, +5.84543004446E+001
+2.94568210263E+006, +8.98304661613E+001, +6.30795506102E+001
+3.16458072591E+006, +8.95467962129E+001, +6.79379304073E+001
+3.38347934919E+006, +8.96496253875E+001, +7.24990278773E+001
+3.60237797247E+006, +8.97282710288E+001, +7.67920873253E+001
+3.82127659574E+006, +8.98504161036E+001, +8.16348032466E+001
+4.04017521902E+006, +9.02338563097E+001, +8.64575743539E+001
+4.25907384230E+006, +8.99434458762E+001, +9.10136549687E+001
+4.47797246558E+006, +9.00985768526E+001, +9.59515846150E+001
+4.69687108886E+006, +8.99614298972E+001, +1.00555413129E+002
+4.91576971214E+006, +9.01379488760E+001, +1.05566951837E+002
+5.13466833542E+006, +9.03278060661E+001, +1.10080159215E+002
+5.35356695870E+006, +9.03323410908E+001, +1.14658064724E+002
+5.57246558198E+006, +9.03954276338E+001, +1.19530791884E+002
+5.79136420526E+006, +9.07207676518E+001, +1.24399976735E+002
+6.01026282854E+006, +9.09515105854E+001, +1.28632363660E+002
+6.22916145181E+006, +9.10772572561E+001, +1.33754783980E+002
+6.44806007509E+006, +9.10582674396E+001, +1.38507409521E+002
+6.66695869837E+006, +9.14571824818E+001, +1.43284526759E+002
+6.88585732165E+006, +9.14891069338E+001, +1.48055890299E+002
+7.10475594493E+006, +9.17311299098E+001, +1.52909525901E+002
+7.32365456821E+006, +9.16767497006E+001, +1.57760356750E+002
+7.54255319149E+006, +9.17748288538E+001, +1.62200770170E+002
+7.76145181477E+006, +9.23668159391E+001, +1.67170841444E+002
+7.98035043805E+006, +9.24953023587E+001, +1.72063356997E+002
+8.19924906133E+006, +9.24606156310E+001, +1.76813600284E+002
+8.41814768461E+006, +9.28118727394E+001, +1.81725802824E+002
+8.63704630788E+006, +9.28474825750E+001, +1.86483765854E+002
+8.85594493116E+006, +9.32514913117E+001, +1.91446115577E+002
+9.07484355444E+006, +9.32017732085E+001, +1.96374912752E+002
+9.29374217772E+006, +9.34666803265E+001, +2.01561171020E+002
+9.51264080100E+006, +9.35779965529E+001, +2.06298619258E+002
+9.73153942428E+006, +9.38439974254E+001, +2.11529463655E+002
+9.95043804756E+006, +9.38457839514E+001, +2.16217846762E+002
+1.01693366708E+007, +9.42006678302E+001, +2.21294522114E+002
+1.03882352941E+007, +9.46810304176E+001, +2.26101165666E+002
+1.06071339174E+007, +9.47203162807E+001, +2.31153117899E+002
+1.08260325407E+007, +9.46846725475E+001, +2.36416738677E+002
+1.10449311640E+007, +9.51488286776E+001, +2.41089004045E+002
+1.12638297872E+007, +9.54396096880E+001, +2.46581003910E+002
+1.14827284105E+007, +9.56608904203E+001, +2.51386780839E+002
+1.17016270338E+007, +9.58502922582E+001, +2.56253074545E+002
+1.19205256571E+007, +9.63864952132E+001, +2.61537168601E+002
+1.21394242804E+007, +9.62236807735E+001, +2.66586171563E+002
+1.23583229036E+007, +9.69524178063E+001, +2.71883023513E+002
+1.25772215269E+007, +9.70939323842E+001, +2.77130696489E+002
+1.27961201502E+007, +9.72602370723E+001, +2.82041011898E+002
+1.30150187735E+007, +9.75641973176E+001, +2.87688024832E+002
+1.32339173967E+007, +9.79688187197E+001, +2.92814121961E+002
+1.34528160200E+007, +9.73775088428E+001, +2.98229403785E+002
+1.36717146433E+007, +9.83079680793E+001, +3.03081342977E+002
+1.38906132666E+007, +9.87140738427E+001, +3.09250193271E+002
+1.41095118899E+007, +9.93514956804E+001, +3.14065656230E+002
+1.43284105131E+007, +9.92633502326E+001, +3.19408456574E+002
+1.45473091364E+007, +9.97932038104E+001, +3.25243885989E+002
+1.47662077597E+007, +9.96975198557E+001, +3.29547855947E+002
+1.49851063830E+007, +1.00978868185E+002, +3.35227967174E+002
+1.52040050063E+007, +1.00887436555E+002, +3.41771655092E+002
+1.54229036295E+007, +1.01156869001E+002, +3.46708520670E+002
+1.56418022528E+007, +1.00715025571E+002, +3.51752238306E+002
+1.58607008761E+007, +1.01283486803E+002, +3.57615587505E+002
+1.60795994994E+007, +1.02019280435E+002, +3.63282684978E+002
+1.62984981227E+007, +1.02409922484E+002, +3.69174907843E+002
+1.65173967459E+007, +1.03081625469E+002, +3.74868878066E+002
+1.67362953692E+007, +1.03063602142E+002, +3.81138604687E+002
+1.69551939925E+007, +1.04037882692E+002, +3.85537158069E+002
+1.71740926158E+007, +1.03104545483E+002, +3.92534167903E+002
+1.73929912390E+007, +1.03778702309E+002, +3.97940207533E+002
+1.76118898623E+007, +1.04934811820E+002, +4.02857513448E+002
+1.78307884856E+007, +1.06265483411E+002, +4.08966303267E+002
+1.80496871089E+007, +1.05990722893E+002, +4.15018211781E+002
+1.82685857322E+007, +1.06002435581E+002, +4.22037057754E+002
+1.84874843554E+007, +1.07743340157E+002, +4.27459309923E+002
+1.87063829787E+007, +1.08302758247E+002, +4.33737626305E+002
+1.89252816020E+007, +1.08383728112E+002, +4.40161906036E+002
+1.91441802253E+007, +1.08388105423E+002, +4.44447180801E+002
+1.93630788486E+007, +1.07896258697E+002, +4.51448576306E+002
+1.95819774718E+007, +1.10983513517E+002, +4.57607723688E+002
+1.98008760951E+007, +1.09887831340E+002, +4.64219169568E+002
+2.00197747184E+007, +1.10129014960E+002, +4.69637363599E+002
+2.02386733417E+007, +1.10824423565E+002, +4.75062693856E+002
+2.04575719650E+007, +1.12428351264E+002, +4.82009752286E+002
+2.06764705882E+007, +1.12172263769E+002, +4.89569548065E+002
+2.08953692115E+007, +1.14009215317E+002, +4.95722825983E+002
+2.11142678348E+007, +1.14065730019E+002, +5.00331498482E+002
+2.13331664581E+007, +1.15596342409E+002, +5.08254807207E+002
+2.15520650814E+007, +1.15845852649E+002, +5.12798786682E+002
+2.17709637046E+007, +1.15737080315E+002, +5.21043259080E+002
+2.19898623279E+007, +1.17608080363E+002, +5.28500651890E+002
+2.22087609512E+007, +1.16934518353E+002, +5.33296837330E+002
+2.24276595745E+007, +1.20872674317E+002, +5.40911487323E+002
+2.26465581977E+007, +1.19826462951E+002, +5.48019562477E+002
+2.28654568210E+007, +1.21040720163E+002, +5.54611374328E+002
+2.30843554443E+007, +1.21881517775E+002, +5.59957474236E+002
+2.33032540676E+007, +1.23309424693E+002, +5.67175273092E+002
+2.35221526909E+007, +1.24670692239E+002, +5.75536221438E+002
+2.37410513141E+007, +1.22371220347E+002, +5.79341536985E+002
+2.39599499374E+007, +1.24847456161E+002, +5.89640544854E+002
+2.41788485607E+007, +1.25857801634E+002, +5.93225051626E+002
+2.43977471840E+007, +1.27872484056E+002, +6.02784122252E+002
+2.46166458073E+007, +1.28167579186E+002, +6.10345814163E+002
+2.48355444305E+007, +1.30062256654E+002, +6.16265103417E+002
+2.50544430538E+007, +1.30329294358E+002, +6.23406531523E+002
+2.52733416771E+007, +1.32678134959E+002, +6.31003497838E+002
+2.54922403004E+007, +1.31199024544E+002, +6.39071498902E+002
+2.57111389237E+007, +1.33318538694E+002, +6.47042860040E+002
+2.59300375469E+007, +1.33866612028E+002, +6.53999853102E+002
+2.61489361702E+007, +1.34385637007E+002, +6.59076948661E+002
+2.63678347935E+007, +1.34227716879E+002, +6.70855649144E+002
+2.65867334168E+007, +1.35601470644E+002, +6.77418860960E+002
+2.68056320401E+007, +1.36874021546E+002, +6.82922372295E+002
+2.70245306633E+007, +1.37043333678E+002, +6.91974511404E+002
+2.72434292866E+007, +1.39341675537E+002, +6.97422448406E+002
+2.74623279099E+007, +1.38412588016E+002, +7.11017762548E+002
+2.76812265332E+007, +1.39329826802E+002, +7.17069199167E+002
+2.79001251564E+007, +1.41395520577E+002, +7.26558262124E+002
+2.81190237797E+007, +1.44824801592E+002, +7.32366588432E+002
+2.83379224030E+007, +1.44901461640E+002, +7.40784400952E+002
+2.85568210263E+007, +1.45538110853E+002, +7.50386966319E+002
+2.87757196496E+007, +1.44521787521E+002, +7.61840954500E+002
+2.89946182728E+007, +1.46424995142E+002, +7.69480017933E+002
+2.92135168961E+007, +1.46025759004E+002, +7.81568824385E+002
+2.94324155194E+007, +1.50436869073E+002, +7.87791497936E+002
+2.96513141427E+007, +1.48151161957E+002, +7.96607575306E+002
+2.98702127660E+007, +1.49740283393E+002, +8.05419133544E+002
+3.00891113892E+007, +1.51950723280E+002, +8.13277415275E+002
+3.03080100125E+007, +1.55218098083E+002, +8.24270113793E+002
+3.05269086358E+007, +1.57548631979E+002, +8.31018918408E+002
+3.07458072591E+007, +1.57850570428E+002, +8.37404377136E+002
+3.09647058824E+007, +1.61483570647E+002, +8.52148534953E+002
+3.11836045056E+007, +1.62358163174E+002, +8.62628229919E+002
+3.14025031289E+007, +1.60243167752E+002, +8.69547108735E+002
+3.16214017522E+007, +1.65264122356E+002, +8.78155712571E+002
+3.18403003755E+007, +1.65104264786E+002, +8.97579944977E+002
+3.20591989987E+007, +1.64085958535E+002, +9.03428328307E+002
+3.22780976220E+007, +1.70537367351E+002, +9.13917662874E+002
+3.24969962453E+007, +1.66221161748E+002, +9.25740590880E+002
+3.27158948686E+007, +1.71607799646E+002, +9.33208116392E+002
+3.29347934919E+007, +1.68946487796E+002, +9.45326590573E+002
+3.31536921151E+007, +1.75733992070E+002, +9.54327685132E+002
+3.33725907384E+007, +1.77302992554E+002, +9.67825661713E+002
+3.35914893617E+007, +1.82618475979E+002, +9.81591312717E+002
+3.38103879850E+007, +1.78160903429E+002, +9.91878597611E+002
+3.40292866083E+007, +1.78961694101E+002, +1.00475864762E+003
+3.42481852315E+007, +1.87105459270E+002, +1.01348700068E+003
+3.44670838548E+007, +1.89006906038E+002, +1.02744990756E+003
+3.46859824781E+007, +1.91820400959E+002, +1.04030377854E+003
+3.49048811014E+007, +1.94943309582E+002, +1.05415004807E+003
+3.51237797247E+007, +1.95339619380E+002, +1.06649265293E+003
+3.53426783479E+007, +1.96654457528E+002, +1.07549471886E+003
+3.55615769712E+007, +2.03183404960E+002, +1.08887471852E+003
+3.57804755945E+007, +2.05075500184E+002, +1.09724006113E+003
+3.59993742178E+007, +2.01104322444E+002, +1.12541698741E+003
+3.62182728411E+007, +2.10857933358E+002, +1.12380794995E+003
+3.64371714643E+007, +2.10629213408E+002, +1.13510894422E+003
+3.66560700876E+007, +2.10740531049E+002, +1.16088302127E+003
+3.68749687109E+007, +2.14363586131E+002, +1.18244161189E+003
+3.70938673342E+007, +2.21367485874E+002, +1.19620572453E+003
+3.73127659574E+007, +2.23999807277E+002, +1.20390012313E+003
+3.75316645807E+007, +2.22910156716E+002, +1.21902495564E+003
+3.77505632040E+007, +2.34703844715E+002, +1.23150381831E+003
+3.79694618273E+007, +2.38867919539E+002, +1.24635099125E+003
+3.81883604506E+007, +2.32118847072E+002, +1.27306160573E+003
+3.84072590738E+007, +2.30917460560E+002, +1.28502983291E+003
+3.86261576971E+007, +2.39773214718E+002, +1.30122932517E+003
+3.88450563204E+007, +2.50105458355E+002, +1.32037219606E+003
+3.90639549437E+007, +2.56943248746E+002, +1.32764495107E+003
+3.92828535670E+007, +2.50634039947E+002, +1.35579988891E+003
+3.95017521902E+007, +2.70339193911E+002, +1.37007777522E+003
+3.97206508135E+007, +2.71973512593E+002, +1.38238290432E+003
+3.99395494368E+007, +2.72966941818E+002, +1.40410857575E+003
+4.01584480601E+007, +2.78095062135E+002, +1.42693921704E+003
+4.03773466834E+007, +2.93054782225E+002, +1.44688922450E+003
+4.05962453066E+007, +2.82028489534E+002, +1.47830209618E+003
+4.08151439299E+007, +2.99382536402E+002, +1.47634511212E+003
+4.10340425532E+007, +2.95793598292E+002, +1.50169774094E+003
+4.12529411765E+007, +2.93364164410E+002, +1.51938475137E+003
+4.14718397997E+007, +3.05234431945E+002, +1.54794820393E+003
+4.16907384230E+007, +3.17351736454E+002, +1.57206547575E+003
+4.19096370463E+007, +3.11898709456E+002, +1.59069041552E+003
+4.21285356696E+007, +3.31305841981E+002, +1.61188802132E+003
+4.23474342929E+007, +3.31440905462E+002, +1.64028469837E+003
+4.25663329161E+007, +3.41196520399E+002, +1.65862740277E+003
+4.27852315394E+007, +3.33578771330E+002, +1.68354392946E+003
+4.30041301627E+007, +3.65962536642E+002, +1.71893194257E+003
+4.32230287860E+007, +3.73616737751E+002, +1.72425102069E+003
+4.34419274093E+007, +3.73483498648E+002, +1.77300646332E+003
+4.36608260325E+007, +3.90053966980E+002, +1.79191768490E+003
+4.38797246558E+007, +3.90070874539E+002, +1.82278487632E+003
+4.40986232791E+007, +3.98245481419E+002, +1.84543363021E+003
+4.43175219024E+007, +4.03713005607E+002, +1.87307365594E+003
+4.45364205257E+007, +4.32299716892E+002, +1.92595565665E+003
+4.47553191489E+007, +4.50996454894E+002, +1.92863035953E+003
+4.49742177722E+007, +4.39317293491E+002, +1.97476763129E+003
+4.51931163955E+007, +4.58467906817E+002, +2.00211510523E+003
+4.54120150188E+007, +4.55485323735E+002, +2.03214272687E+003
+4.56309136421E+007, +4.95623624087E+002, +2.05414527861E+003
+4.58498122653E+007, +4.96625097686E+002, +2.10522528064E+003
+4.60687108886E+007, +4.88033018024E+002, +2.15910431431E+003
+4.62876095119E+007, +5.28213204950E+002, +2.18018220544E+003
+4.65065081352E+007, +5.53767316280E+002, +2.20894379847E+003
+4.67254067584E+007, +5.46265460985E+002, +2.22755918357E+003
+4.69443053817E+007, +5.77538725904E+002, +2.27347198157E+003
+4.71632040050E+007, +5.70440717159E+002, +2.33872975043E+003
+4.73821026283E+007, +5.89416476311E+002, +2.36828763093E+003
+4.76010012516E+007, +6.34243022332E+002, +2.41018858087E+003
+4.78198998748E+007, +6.50190762961E+002, +2.46404478004E+003
+4.80387984981E+007, +6.74894488796E+002, +2.49843661574E+003
+4.82576971214E+007, +6.98829206948E+002, +2.56264234363E+003
+4.84765957447E+007, +7.12171551461E+002, +2.60221544692E+003
+4.86954943680E+007, +7.39717993815E+002, +2.67776434936E+003
+4.89143929912E+007, +7.78844571398E+002, +2.72606606011E+003
+4.91332916145E+007, +8.06669455549E+002, +2.78764089587E+003
+4.93521902378E+007, +8.29828607055E+002, +2.80220111543E+003
+4.95710888611E+007, +9.30929450992E+002, +2.86229093021E+003
+4.97899874844E+007, +9.37760715571E+002, +2.90593795926E+003
+5.00088861076E+007, +8.90090333204E+002, +2.98440402912E+003
+5.02277847309E+007, +1.00146033790E+003, +3.07645576048E+003
+5.04466833542E+007, +1.09314975246E+003, +3.10954207292E+003
+5.06655819775E+007, +1.09265790061E+003, +3.20956249856E+003
+5.08844806008E+007, +1.12304190842E+003, +3.30589398553E+003
+5.11033792240E+007, +1.16793122026E+003, +3.33979215702E+003
+5.13222778473E+007, +1.28126086498E+003, +3.47872004506E+003
+5.15411764706E+007, +1.32286741878E+003, +3.48373454190E+003
+5.17600750939E+007, +1.40667890136E+003, +3.64109441170E+003
+5.19789737171E+007, +1.47779158728E+003, +3.65999911958E+003
+5.21978723404E+007, +1.53086492463E+003, +3.80621682128E+003
+5.24167709637E+007, +1.51980693626E+003, +3.95657178050E+003
+5.26356695870E+007, +1.70042230802E+003, +3.90075528765E+003
+5.28545682103E+007, +1.90214916767E+003, +4.09515057900E+003
+5.30734668335E+007, +1.98017190070E+003, +4.29651564659E+003
+5.32923654568E+007, +2.04244967591E+003, +4.40932737256E+003
+5.35112640801E+007, +2.25342317631E+003, +4.40974748284E+003
+5.37301627034E+007, +2.39479411811E+003, +4.56302564440E+003
+5.39490613267E+007, +2.61557051749E+003, +4.62617869730E+003
+5.41679599499E+007, +2.76851323374E+003, +4.96259872621E+003
+5.43868585732E+007, +2.88119280695E+003, +5.09623576590E+003
+5.46057571965E+007, +3.08464282628E+003, +5.10220980660E+003
+5.48246558198E+007, +3.36036989785E+003, +5.07065378032E+003
+5.50435544431E+007, +3.82754052481E+003, +5.39466546356E+003
+5.52624530663E+007, +4.16834314432E+003, +5.44785559371E+003
+5.54813516896E+007, +4.32089020332E+003, +5.34262780177E+003
+5.57002503129E+007, +4.77602936595E+003, +5.36277850206E+003
+5.59191489362E+007, +5.21909226767E+003, +5.61569248092E+003
+5.61380475594E+007, +5.49552173125E+003, +5.70315094309E+003
+5.63569461827E+007, +6.35792404613E+003, +5.67341486979E+003
+5.65758448060E+007, +6.40372725852E+003, +5.61932522710E+003
+5.67947434293E+007, +6.97120114795E+003, +5.14845194662E+003
+5.70136420526E+007, +7.65326096006E+003, +5.13767557904E+003
+5.72325406758E+007, +8.13285944207E+003, +4.90406779290E+003
+5.74514392991E+007, +8.79339027359E+003, +4.88039736482E+003
+5.76703379224E+007, +9.27898304644E+003, +3.92840854018E+003
+5.78892365457E+007, +1.00433942783E+004, +3.77919360843E+003
+5.81081351690E+007, +9.93428715644E+003, +2.31327051764E+003
+5.83270337922E+007, +1.07373277516E+004, +1.65364173156E+003
+5.85459324155E+007, +1.02557668504E+004, +8.44563377304E+002
+5.87648310388E+007, +1.10257470534E+004, +2.60406515835E+002
+5.89837296621E+007, +1.06756510499E+004, -6.82271509663E+002
+5.92026282854E+007, +1.00909770551E+004, -1.27173362205E+003
+5.94215269086E+007, +1.00528771017E+004, -2.04167414545E+003
+5.96404255319E+007, +9.90164921069E+003, -3.19691133122E+003
+5.98593241552E+007, +9.23393500343E+003, -3.33531608143E+003
+6.00782227785E+007, +8.81557372771E+003, -4.21786500926E+003
+6.02971214018E+007, +8.50766387322E+003, -4.03662022091E+003
+6.05160200250E+007, +7.84151731248E+003, -4.94942623341E+003
+6.07349186483E+007, +7.00968598590E+003, -4.79164790341E+003
+6.09538172716E+007, +6.69539576730E+003, -5.31328472169E+003
+6.11727158949E+007, +6.02315783853E+003, -4.98978557717E+003
+6.13916145181E+007, +5.75658279069E+003, -5.15775904004E+003
+6.16105131414E+007, +5.27966782248E+003, -5.26066240368E+003
+6.18294117647E+007, +4.98329810056E+003, -5.11575903628E+003
+6.20483103880E+007, +4.48556539687E+003, -5.30301152933E+003
+6.22672090113E+007, +4.17859940845E+003, -5.06192867752E+003
+6.24861076345E+007, +3.92836094963E+003, -5.01197790420E+003
+6.27050062578E+007, +3.73802984829E+003, -4.85779612321E+003
+6.29239048811E+007, +3.45310104346E+003, -4.93434311223E+003
+6.31428035044E+007, +3.27081721573E+003, -4.73436139717E+003
+6.33617021277E+007, +2.95053012323E+003, -4.61846293162E+003
+6.35806007509E+007, +2.66579149274E+003, -4.59170673329E+003
+6.37994993742E+007, +2.56889821750E+003, -4.46939439291E+003
+6.40183979975E+007, +2.52931691525E+003, -4.30174299750E+003
+6.42372966208E+007, +2.30624843901E+003, -4.21900943144E+003
+6.44561952441E+007, +2.08281091934E+003, -4.20778486739E+003
+6.46750938673E+007, +1.95077819390E+003, -4.01635679493E+003
+6.48939924906E+007, +1.92474919265E+003, -3.89071252794E+003
+6.51128911139E+007, +1.76166289945E+003, -3.78287653641E+003
+6.53317897372E+007, +1.72226751682E+003, -3.58464493009E+003
+6.55506883605E+007, +1.61441926237E+003, -3.60635260876E+003
+6.57695869837E+007, +1.52497869501E+003, -3.54698440159E+003
+6.59884856070E+007, +1.47781695548E+003, -3.35401691683E+003
+6.62073842303E+007, +1.37088416558E+003, -3.35707223194E+003
+6.64262828536E+007, +1.34218663057E+003, -3.27476197432E+003
+6.66451814768E+007, +1.27417206576E+003, -3.18056988567E+003
+6.68640801001E+007, +1.21041746100E+003, -3.12009003607E+003
+6.70829787234E+007, +1.16887462540E+003, -3.02853130647E+003
+6.73018773467E+007, +1.18114738689E+003, -2.96673934080E+003
+6.75207759700E+007, +1.09122832141E+003, -2.90009836114E+003
+6.77396745932E+007, +1.08270959909E+003, -2.86719919850E+003
+6.79585732165E+007, +1.04852603531E+003, -2.76101572654E+003
+6.81774718398E+007, +9.79597095551E+002, -2.72398330316E+003
+6.83963704631E+007, +9.58360445220E+002, -2.66789000385E+003
+6.86152690864E+007, +9.42662943293E+002, -2.60050205332E+003
+6.88341677096E+007, +9.30990626696E+002, -2.57377489694E+003
+6.90530663329E+007, +8.60700527248E+002, -2.54046070553E+003
+6.92719649562E+007, +8.53188099395E+002, -2.47006948472E+003
+6.94908635795E+007, +8.09369008436E+002, -2.42586412055E+003
+6.97097622028E+007, +7.96352438345E+002, -2.36810720030E+003
+6.99286608260E+007, +7.81212570623E+002, -2.31380220193E+003
+7.01475594493E+007, +7.43773462228E+002, -2.27147483934E+003
