"# Channel 1"
"# Trace 1"
Frequency, Formatted Data, Formatted Data
+1.00000000000E+005, +4.53099290088E+001, +1.79161311038E+000
+2.66777963272E+005, +4.52833889963E+001, +5.43307298921E+000
+4.33555926544E+005, +4.52646411186E+001, +8.86754979407E+000
+6.00333889816E+005, +4.51943139447E+001, +1.23404940316E+001
+7.67111853088E+005, +4.52629702179E+001, +1.56659661527E+001
+9.33889816361E+005, +4.52957826886E+001, +1.90825120094E+001
+1.10066777963E+006, +4.53250679973E+001, +2.25743828857E+001
+1.26744574290E+006, +4.53174959752E+001, +2.59682550440E+001
+1.43422370618E+006, +4.53603418347E+001, +2.94767050296E+001
+1.60100166945E+006, +4.53419775687E+001, +3.27644105832E+001
+1.76777963272E+006, +4.53320657914E+001, +3.62580887424E+001
+1.93455759599E+006, +4.53104350743E+001, +3.96140375682E+001
+2.10133555927E+006, +4.52985846516E+001, +4.30212270563E+001
+2.26811352254E+006, +4.53922617167E+001, +4.64204258217E+001
+2.43489148581E+006, +4.53834913475E+001, +4.99509845685E+001
+2.60166944908E+006, +4.53200011012E+001, +5.33327985238E+001
+2.76844741235E+006, +4.53982013925E+001, +5.67791634986E+001
+2.93522537563E+006, +4.53567331384E+001, +6.02208520890E+001
+3.10200333890E+006, +4.54320985802E+001, +6.35004936267E+001
+3.26878130217E+006, +4.54373025487E+001, +6.71605165487E+001
+3.43555926544E+006, +4.54204742969E+001, +7.04179315136E+001
+3.60233722871E+006, +4.55738835482E+001, +7.38435610810E+001
+3.76911519199E+006, +4.55228623915E+001, +7.74921081089E+001
+3.93589315526E+006, +4.53631145635E+001, +8.07617649257E+001
+4.10267111853E+006, +4.54948581592E+001, +8.44934466110E+001
+4.26944908180E+006, +4.56021649019E+001, +8.79283374818E+001
+4.43622704508E+006, +4.54638328143E+001, +9.12067697365E+001
+4.60300500835E+006, +4.56111415171E+001, +9.47618554753E+001
+4.76978297162E+006, +4.55617682100E+001, +9.82166465058E+001
+4.93656093489E+006, +4.58244494207E+001, +1.01756847772E+002
+5.10333889816E+006, +4.56749220169E+001, +1.05138002738E+002
+5.27011686144E+006, +4.59870355476E+001, +1.08721655999E+002
+5.43689482471E+006, +4.57606380264E+001, +1.12111537215E+002
+5.60367278798E+006, +4.59935827282E+001, +1.15765121595E+002
+5.77045075125E+006, +4.59266683212E+001, +1.19070607424E+002
+5.93722871452E+006, +4.62836971385E+001, +1.22528247041E+002
+6.10400667780E+006, +4.62113694230E+001, +1.26373832896E+002
+6.27078464107E+006, +4.63250734503E+001, +1.29607319240E+002
+6.43756260434E+006, +4.63421116272E+001, +1.33134643385E+002
+6.60434056761E+006, +4.64546660001E+001, +1.36556249704E+002
+6.77111853088E+006, +4.66320007975E+001, +1.39978250751E+002
+6.93789649416E+006, +4.65940777523E+001, +1.43655914164E+002
+7.10467445743E+006, +4.66554783937E+001, +1.47157995426E+002
+7.27145242070E+006, +4.67095111870E+001, +1.50545061309E+002
+7.43823038397E+006, +4.69188390873E+001, +1.54159753321E+002
+7.60500834725E+006, +4.67064087902E+001, +1.57790095417E+002
+7.77178631052E+006, +4.69432800704E+001, +1.61451455837E+002
+7.93856427379E+006, +4.68349421156E+001, +1.64846245713E+002
+8.10534223706E+006, +4.70100734383E+001, +1.68442966031E+002
+8.27212020033E+006, +4.70489719221E+001, +1.72187458866E+002
+8.43889816361E+006, +4.70784001751E+001, +1.75850570980E+002
+8.60567612688E+006, +4.70174456113E+001, +1.79589430909E+002
+8.77245409015E+006, +4.72225230041E+001, +1.82915104264E+002
+8.93923205342E+006, +4.70689948606E+001, +1.86587789652E+002
+9.10601001669E+006, +4.72887334783E+001, +1.90493395499E+002
+9.27278797997E+006, +4.73570129791E+001, +1.94173210148E+002
+9.43956594324E+006, +4.73772531450E+001, +1.97835801962E+002
+9.60634390651E+006, +4.72997172191E+001, +2.01387975045E+002
+9.77312186978E+006, +4.73704766714E+001, +2.05244610162E+002
+9.93989983306E+006, +4.75967798457E+001, +2.08869418336E+002
+1.01066777963E+007, +4.74446719507E+001, +2.12631237443E+002
+1.02734557596E+007, +4.77077084833E+001, +2.16345169736E+002
+1.04402337229E+007, +4.75906138042E+001, +2.20129137084E+002
+1.06070116861E+007, +4.77371868916E+001, +2.23952579261E+002
+1.07737896494E+007, +4.78160846244E+001, +2.27886173203E+002
+1.09405676127E+007, +4.78393583298E+001, +2.31418712656E+002
+1.11073455760E+007, +4.79071832724E+001, +2.35453967536E+002
+1.12741235392E+007, +4.80963428193E+001, +2.39029767476E+002
+1.14409015025E+007, +4.82942493393E+001, +2.42945600201E+002
+1.16076794658E+007, +4.86400919806E+001, +2.46543922585E+002
+1.17744574290E+007, +4.86688670467E+001, +2.50899401788E+002
+1.19412353923E+007, +4.86880943572E+001, +2.54463225831E+002
+1.21080133556E+007, +4.86504232821E+001, +2.58457487513E+002
+1.22747913189E+007, +4.89389505230E+001, +2.62633320646E+002
+1.24415692821E+007, +4.89068950218E+001, +2.66645613572E+002
+1.26083472454E+007, +4.89166896759E+001, +2.70180958209E+002
+1.27751252087E+007, +4.93107410170E+001, +2.74086596787E+002
+1.29419031720E+007, +4.87896582601E+001, +2.77949558148E+002
+1.31086811352E+007, +4.94356439208E+001, +2.82018565159E+002
+1.32754590985E+007, +4.94343004750E+001, +2.86137455556E+002
+1.34422370618E+007, +4.93710867413E+001, +2.90162134798E+002
+1.36090150250E+007, +5.00684418527E+001, +2.94290079731E+002
+1.37757929883E+007, +4.97594903005E+001, +2.98178683131E+002
+1.39425709516E+007, +4.98657935677E+001, +3.02211844603E+002
+1.41093489149E+007, +5.02358618886E+001, +3.06547596830E+002
+1.42761268781E+007, +5.06178447584E+001, +3.10430682873E+002
+1.44429048414E+007, +5.04122252334E+001, +3.14112307193E+002
+1.46096828047E+007, +5.02149853209E+001, +3.19003051943E+002
+1.47764607679E+007, +5.09493609987E+001, +3.22574107734E+002
+1.49432387312E+007, +5.08785119624E+001, +3.26595125315E+002
+1.51100166945E+007, +5.07814228527E+001, +3.31513574540E+002
+1.52767946578E+007, +5.16676995818E+001, +3.35155650112E+002
+1.54435726210E+007, +5.09264587209E+001, +3.40016898445E+002
+1.56103505843E+007, +5.19840937971E+001, +3.43940607228E+002
+1.57771285476E+007, +5.16920595457E+001, +3.47286119954E+002
+1.59439065109E+007, +5.22767186179E+001, +3.52498633064E+002
+1.61106844741E+007, +5.25196436796E+001, +3.56535200755E+002
+1.62774624374E+007, +5.26780520105E+001, +3.60328192367E+002
+1.64442404007E+007, +5.26326030559E+001, +3.65061197148E+002
+1.66110183639E+007, +5.31227603167E+001, +3.69729036810E+002
+1.67777963272E+007, +5.27933421767E+001, +3.73705689606E+002
+1.69445742905E+007, +5.35194028380E+001, +3.77904641660E+002
+1.71113522538E+007, +5.21517676491E+001, +3.82491489890E+002
+1.72781302170E+007, +5.25058432221E+001, +3.88310660225E+002
+1.74449081803E+007, +5.29219059839E+001, +3.91549927891E+002
+1.76116861436E+007, +5.40044030876E+001, +3.96088036821E+002
+1.77784641068E+007, +5.36005808836E+001, +4.00097289477E+002
+1.79452420701E+007, +5.36733654656E+001, +4.04467157152E+002
+1.81120200334E+007, +5.43922002292E+001, +4.09422381543E+002
+1.82787979967E+007, +5.52722135492E+001, +4.14330786779E+002
+1.84455759599E+007, +5.56230867890E+001, +4.18708408971E+002
+1.86123539232E+007, +5.59821862959E+001, +4.23390631287E+002
+1.87791318865E+007, +5.52300373413E+001, +4.27569928701E+002
+1.89459098497E+007, +5.51638948429E+001, +4.33266887007E+002
+1.91126878130E+007, +5.58524600056E+001, +4.36361747135E+002
+1.92794657763E+007, +5.57495143064E+001, +4.41817056334E+002
+1.94462437396E+007, +5.70518610792E+001, +4.47866813941E+002
+1.96130217028E+007, +5.62377489429E+001, +4.52156221749E+002
+1.97797996661E+007, +5.80189006021E+001, +4.56592483568E+002
+1.99465776294E+007, +5.66449222474E+001, +4.61376302706E+002
+2.01133555927E+007, +5.66038355209E+001, +4.66414913483E+002
+2.02801335559E+007, +5.74576598628E+001, +4.72652299565E+002
+2.04469115192E+007, +5.87200129669E+001, +4.76717184705E+002
+2.06136894825E+007, +5.95671206717E+001, +4.81989404257E+002
+2.07804674457E+007, +5.91914967804E+001, +4.88307969094E+002
+2.09472454090E+007, +5.87641862872E+001, +4.92880114806E+002
+2.11140233723E+007, +5.90727046121E+001, +4.96939612106E+002
+2.12808013356E+007, +5.93428263907E+001, +5.01753707228E+002
+2.14475792988E+007, +6.06434785508E+001, +5.08016993198E+002
+2.16143572621E+007, +6.21670876449E+001, +5.11664520089E+002
+2.17811352254E+007, +6.16593603313E+001, +5.16374115162E+002
+2.19479131886E+007, +6.23077723251E+001, +5.22894142736E+002
+2.21146911519E+007, +6.40413381474E+001, +5.27190817774E+002
+2.22814691152E+007, +6.28823895470E+001, +5.32357835444E+002
+2.24482470785E+007, +6.49764276922E+001, +5.39761619609E+002
+2.26150250417E+007, +6.55729313641E+001, +5.44484399829E+002
+2.27818030050E+007, +6.55030162089E+001, +5.49704088596E+002
+2.29485809683E+007, +6.75877271535E+001, +5.53454836475E+002
+2.31153589316E+007, +6.56974123527E+001, +5.62705286105E+002
+2.32821368948E+007, +6.82835952516E+001, +5.65803005426E+002
+2.34489148581E+007, +6.77387978551E+001, +5.71762293889E+002
+2.36156928214E+007, +7.15402215613E+001, +5.78249498615E+002
+2.37824707846E+007, +6.97168402112E+001, +5.83671194749E+002
+2.39492487479E+007, +7.04958963675E+001, +5.88781294738E+002
+2.41160267112E+007, +7.07875788990E+001, +5.94527111211E+002
+2.42828046745E+007, +6.98424229876E+001, +5.99268843960E+002
+2.44495826377E+007, +7.24716023053E+001, +6.07912097268E+002
+2.46163606010E+007, +7.26529013922E+001, +6.10527984475E+002
+2.47831385643E+007, +7.14232848371E+001, +6.17613535071E+002
+2.49499165275E+007, +7.51530630807E+001, +6.23562845585E+002
+2.51166944908E+007, +7.77930905922E+001, +6.29591824292E+002
+2.52834724541E+007, +7.74786404479E+001, +6.33760191219E+002
+2.54502504174E+007, +7.71647890619E+001, +6.40732974408E+002
+2.56170283806E+007, +7.82913484304E+001, +6.47462310566E+002
+2.57838063439E+007, +7.79761069095E+001, +6.54217923558E+002
+2.59505843072E+007, +7.97316607133E+001, +6.61391692212E+002
+2.61173622705E+007, +8.08372475763E+001, +6.66396783391E+002
+2.62841402337E+007, +8.11777099604E+001, +6.72151989133E+002
+2.64509181970E+007, +8.30563187211E+001, +6.79004580061E+002
+2.66176961603E+007, +8.28735788653E+001, +6.86573646431E+002
+2.67844741235E+007, +8.37198218424E+001, +6.91914122997E+002
+2.69512520868E+007, +8.26594445940E+001, +6.97059445893E+002
+2.71180300501E+007, +8.44517553317E+001, +7.03615545280E+002
+2.72848080134E+007, +8.60465170734E+001, +7.10176297289E+002
+2.74515859766E+007, +8.81505914164E+001, +7.16468909315E+002
+2.76183639399E+007, +8.54323571683E+001, +7.23981204111E+002
+2.77851419032E+007, +8.68085795741E+001, +7.30050437352E+002
+2.79519198664E+007, +8.88658246993E+001, +7.39651733814E+002
+2.81186978297E+007, +8.95749113901E+001, +7.44654802500E+002
+2.82854757930E+007, +9.13598531348E+001, +7.50589671956E+002
+2.84522537563E+007, +8.81382019032E+001, +7.57774421932E+002
+2.86190317195E+007, +9.11687958787E+001, +7.65243619283E+002
+2.87858096828E+007, +9.47041912484E+001, +7.70571913280E+002
+2.89525876461E+007, +9.25293700837E+001, +7.78704463841E+002
+2.91193656093E+007, +9.09588982812E+001, +7.85924269563E+002
+2.92861435726E+007, +9.44130808024E+001, +7.94611820884E+002
+2.94529215359E+007, +9.59659537654E+001, +8.02014590988E+002
+2.96196994992E+007, +9.75972469467E+001, +8.07541123398E+002
+2.97864774624E+007, +1.02397296092E+002, +8.19044906341E+002
+2.99532554257E+007, +1.00096683052E+002, +8.25469853244E+002
+3.01200333890E+007, +9.83096124520E+001, +8.35350332895E+002
+3.02868113523E+007, +9.92937386196E+001, +8.44180454398E+002
+3.04535893155E+007, +9.91996858557E+001, +8.51396439461E+002
+3.06203672788E+007, +1.02115382678E+002, +8.58133707248E+002
+3.07871452421E+007, +1.05052313511E+002, +8.65403774645E+002
+3.09539232053E+007, +1.04155694666E+002, +8.75733831212E+002
+3.11207011686E+007, +1.02208479438E+002, +8.88247255332E+002
+3.12874791319E+007, +1.03018490857E+002, +8.90550481491E+002
+3.14542570952E+007, +1.06713156339E+002, +8.98151361357E+002
+3.16210350584E+007, +1.06916201031E+002, +9.11111023713E+002
+3.17878130217E+007, +1.07232368945E+002, +9.19112918724E+002
+3.19545909850E+007, +1.09485078936E+002, +9.28796821918E+002
+3.21213689482E+007, +1.06379699672E+002, +9.37271956944E+002
+3.22881469115E+007, +1.10021457679E+002, +9.43989268352E+002
+3.24549248748E+007, +1.11929021806E+002, +9.55474680203E+002
+3.26217028381E+007, +1.11378938030E+002, +9.68263605731E+002
+3.27884808013E+007, +1.17133560408E+002, +9.73325317918E+002
+3.29552587646E+007, +1.17570155782E+002, +9.86803529453E+002
+3.31220367279E+007, +1.21621831469E+002, +9.94557798531E+002
+3.32888146912E+007, +1.17442314611E+002, +1.00572816085E+003
+3.34555926544E+007, +1.12405756201E+002, +1.01496194750E+003
+3.36223706177E+007, +1.23841611051E+002, +1.02389397867E+003
+3.37891485810E+007, +1.22762854299E+002, +1.03578718128E+003
+3.39559265442E+007, +1.27398275323E+002, +1.04919631721E+003
+3.41227045075E+007, +1.24801551549E+002, +1.05268028133E+003
+3.42894824708E+007, +1.27826430637E+002, +1.07231667892E+003
+3.44562604341E+007, +1.29345595358E+002, +1.07906737994E+003
+3.46230383973E+007, +1.29255025489E+002, +1.09403516310E+003
+3.47898163606E+007, +1.34310631887E+002, +1.10108627299E+003
+3.49565943239E+007, +1.34862569148E+002, +1.11663970716E+003
+3.51233722871E+007, +1.40417922878E+002, +1.12654098246E+003
+3.52901502504E+007, +1.38198283493E+002, +1.13331281304E+003
+3.54569282137E+007, +1.40778273933E+002, +1.14960914627E+003
+3.56237061770E+007, +1.33264558581E+002, +1.16998255437E+003
+3.57904841402E+007, +1.41788424817E+002, +1.17591068932E+003
+3.59572621035E+007, +1.49469211055E+002, +1.19511227463E+003
+3.61240400668E+007, +1.47037724543E+002, +1.20323307598E+003
+3.62908180301E+007, +1.50098929317E+002, +1.22326400361E+003
+3.64575959933E+007, +1.50467919801E+002, +1.23610509288E+003
+3.66243739566E+007, +1.61800583228E+002, +1.24539074786E+003
+3.67911519199E+007, +1.64646438527E+002, +1.26469049028E+003
+3.69579298831E+007, +1.60644156454E+002, +1.27218310624E+003
+3.71247078464E+007, +1.62026333681E+002, +1.30107342054E+003
+3.72914858097E+007, +1.64896800911E+002, +1.31465082440E+003
+3.74582637730E+007, +1.78202721839E+002, +1.33439199540E+003
+3.76250417362E+007, +1.77720023800E+002, +1.33767983143E+003
+3.77918196995E+007, +1.73043968730E+002, +1.35687176959E+003
+3.79585976628E+007, +1.84305488726E+002, +1.37676975691E+003
+3.81253756260E+007, +1.90228182215E+002, +1.38055765000E+003
+3.82921535893E+007, +1.91798329793E+002, +1.40247359631E+003
+3.84589315526E+007, +1.89986581519E+002, +1.42743759860E+003
+3.86257095159E+007, +1.93036292592E+002, +1.44584962683E+003
+3.87924874791E+007, +1.92454096898E+002, +1.47706145926E+003
+3.89592654424E+007, +2.01335033858E+002, +1.47973858286E+003
+3.91260434057E+007, +2.04572324741E+002, +1.51151269975E+003
+3.92928213689E+007, +2.08157183517E+002, +1.51107483390E+003
+3.94595993322E+007, +2.22281748435E+002, +1.54486239960E+003
+3.96263772955E+007, +2.11463240279E+002, +1.56303364110E+003
+3.97931552588E+007, +2.21824305613E+002, +1.58675565620E+003
+3.99599332220E+007, +2.26096634706E+002, +1.61071020154E+003
+4.01267111853E+007, +2.53069131055E+002, +1.63570245898E+003
+4.02934891486E+007, +2.44689707624E+002, +1.64940997366E+003
+4.04602671119E+007, +2.39952623260E+002, +1.67269532903E+003
+4.06270450751E+007, +2.54566728093E+002, +1.69305094280E+003
+4.07938230384E+007, +2.70799996765E+002, +1.71821020340E+003
+4.09606010017E+007, +2.68667907230E+002, +1.73608362071E+003
+4.11273789649E+007, +2.79497664566E+002, +1.76238696467E+003
+4.12941569282E+007, +2.77992662743E+002, +1.81352390586E+003
+4.14609348915E+007, +2.98533749650E+002, +1.83932579554E+003
+4.16277128548E+007, +3.14423010296E+002, +1.84662080930E+003
+4.17944908180E+007, +3.01863645404E+002, +1.86960775402E+003
+4.19612687813E+007, +3.09197409891E+002, +1.91145515389E+003
+4.21280467446E+007, +3.23411055840E+002, +1.93654634422E+003
+4.22948247078E+007, +3.45422410430E+002, +1.98032347007E+003
+4.24616026711E+007, +3.62583886001E+002, +2.00061982918E+003
+4.26283806344E+007, +3.57826310973E+002, +2.02712435220E+003
+4.27951585977E+007, +3.62859783521E+002, +2.10298570330E+003
+4.29619365609E+007, +4.04108032426E+002, +2.08752477636E+003
+4.31287145242E+007, +4.08202157519E+002, +2.13361517393E+003
+4.32954924875E+007, +4.21130012027E+002, +2.18367070371E+003
+4.34622704508E+007, +4.21529484090E+002, +2.22998090877E+003
+4.36290484140E+007, +4.45169595604E+002, +2.25293538315E+003
+4.37958263773E+007, +4.62561458455E+002, +2.32824919985E+003
+4.39626043406E+007, +4.94031127401E+002, +2.32736922886E+003
+4.41293823038E+007, +5.13403765099E+002, +2.40895399594E+003
+4.42961602671E+007, +5.09845894620E+002, +2.44195013202E+003
+4.44629382304E+007, +5.32361171699E+002, +2.49079907873E+003
+4.46297161937E+007, +5.75070228443E+002, +2.53060572896E+003
+4.47964941569E+007, +5.71271496631E+002, +2.61702576342E+003
+4.49632721202E+007, +6.00432791097E+002, +2.68639756856E+003
+4.51300500835E+007, +6.44886628693E+002, +2.66957817687E+003
+4.52968280467E+007, +6.79165999014E+002, +2.74337408021E+003
+4.54636060100E+007, +7.49552758018E+002, +2.82311403283E+003
+4.56303839733E+007, +7.47468930742E+002, +2.93231799725E+003
+4.57971619366E+007, +8.15926876118E+002, +2.96543577065E+003
+4.59639398998E+007, +8.21609878616E+002, +3.10186443678E+003
+4.61307178631E+007, +9.01090666935E+002, +3.11918102961E+003
+4.62974958264E+007, +9.50782011222E+002, +3.19154796883E+003
+4.64642737896E+007, +1.00195326585E+003, +3.23407766631E+003
+4.66310517529E+007, +1.04389651039E+003, +3.36397129790E+003
+4.67978297162E+007, +1.15081095607E+003, +3.36035245291E+003
+4.69646076795E+007, +1.19552529796E+003, +3.51063438718E+003
+4.71313856427E+007, +1.29764323918E+003, +3.51683288347E+003
+4.72981636060E+007, +1.36184534209E+003, +3.65637415956E+003
+4.74649415693E+007, +1.47217146581E+003, +3.72820349213E+003
+4.76317195326E+007, +1.64048196739E+003, +3.83875526243E+003
+4.77984974958E+007, +1.75432479873E+003, +3.74360761203E+003
+4.79652754591E+007, +1.89528648949E+003, +4.01072413165E+003
+4.81320534224E+007, +1.94775422983E+003, +4.04399572033E+003
+4.82988313856E+007, +2.10711942349E+003, +4.13846025233E+003
+4.84656093489E+007, +2.34590211136E+003, +4.17359750104E+003
+4.86323873122E+007, +2.50978956615E+003, +4.18898906400E+003
+4.87991652755E+007, +2.69009614375E+003, +4.30147402176E+003
+4.89659432387E+007, +2.82682805365E+003, +4.42714847143E+003
+4.91327212020E+007, +2.99140280925E+003, +4.39968230104E+003
+4.92994991653E+007, +3.21714299107E+003, +4.27924970606E+003
+4.94662771285E+007, +3.45532267390E+003, +4.40242423755E+003
+4.96330550918E+007, +3.73481383501E+003, +4.34928755367E+003
+4.97998330551E+007, +3.94454421955E+003, +4.23771294620E+003
+4.99666110184E+007, +4.12166570257E+003, +3.99608922744E+003
+5.01333889816E+007, +4.38437475029E+003, +4.15278752228E+003
+5.03001669449E+007, +4.56261928588E+003, +4.32425519659E+003
+5.04669449082E+007, +4.87821932882E+003, +4.04549500273E+003
+5.06337228715E+007, +5.05701233197E+003, +3.91443257341E+003
+5.08005008347E+007, +5.25071670460E+003, +4.02539458927E+003
+5.09672787980E+007, +5.40145137907E+003, +3.75595221919E+003
+5.11340567613E+007, +5.91061534838E+003, +3.78820460130E+003
+5.13008347245E+007, +6.35867769908E+003, +3.91350762316E+003
+5.14676126878E+007, +6.42415971418E+003, +3.77929767524E+003
+5.16343906511E+007, +6.82697207478E+003, +3.42315353691E+003
+5.18011686144E+007, +7.22414660543E+003, +3.21667426276E+003
+5.19679465776E+007, +7.49819060845E+003, +2.94644726020E+003
+5.21347245409E+007, +7.96471269955E+003, +2.31336830939E+003
+5.23015025042E+007, +8.58537367721E+003, +1.79111947712E+003
+5.24682804674E+007, +8.93059805498E+003, +1.48661364594E+003
+5.26350584307E+007, +8.95694409635E+003, +1.03550324340E+003
+5.28018363940E+007, +9.40493615532E+003, +1.06305936518E+002
+5.29686143573E+007, +9.35227347492E+003, -8.42867324502E+002
+5.31353923205E+007, +9.34636329023E+003, -1.18895020266E+003
+5.33021702838E+007, +9.30632962625E+003, -2.13550071598E+003
+5.34689482471E+007, +8.40366720998E+003, -2.72500225366E+003
