"# Channel 1"
"# Trace 1"
Frequency, Formatted Data, Formatted Data
+1.00000000000E+006, +4.63422690260E-001, +1.91753119930E+001
+1.16527545910E+006, +4.96779078653E-001, +2.23093337688E+001
+1.33055091820E+006, +5.85181219336E-001, +2.53695235846E+001
+1.49582637730E+006, +5.50255200320E-001, +2.85374707305E+001
+1.66110183639E+006, +5.89224251477E-001, +3.16376125792E+001
+1.82637729549E+006, +6.16013509924E-001, +3.47183477227E+001
+1.99165275459E+006, +6.42115412799E-001, +3.78476683748E+001
+2.15692821369E+006, +6.26517892238E-001, +4.09523460394E+001
+2.32220367279E+006, +5.82855944404E-001, +4.40840752444E+001
+2.48747913189E+006, +6.18282311595E-001, +4.72329362146E+001
+2.65275459098E+006, +5.60229961691E-001, +5.03475739667E+001
+2.81803005008E+006, +5.72764779645E-001, +5.34720629709E+001
+2.98330550918E+006, +5.61264081269E-001, +5.65512539628E+001
+3.14858096828E+006, +6.57592339552E-001, +5.96574164375E+001
+3.31385642738E+006, +7.34028595999E-001, +6.28017568833E+001
+3.47913188648E+006, +5.75367822398E-001, +6.60070550244E+001
+3.64440734558E+006, +6.44422616884E-001, +6.90593085784E+001
+3.80968280467E+006, +7.73297319482E-001, +7.22124690713E+001
+3.97495826377E+006, +8.87970572053E-001, +7.52761005244E+001
+4.14023372287E+006, +6.12929420873E-001, +7.85925276016E+001
+4.30550918197E+006, +6.98685516465E-001, +8.14842816008E+001
+4.47078464107E+006, +6.58310244560E-001, +8.47234566489E+001
+4.63606010017E+006, +6.49591888358E-001, +8.78495999054E+001
+4.80133555927E+006, +5.99457005429E-001, +9.11452068721E+001
+4.96661101836E+006, +7.34386543894E-001, +9.41130265147E+001
+5.13188647746E+006, +7.21162414599E-001, +9.73463104559E+001
+5.29716193656E+006, +6.50264382797E-001, +1.00372885789E+002
+5.46243739566E+006, +7.15592295303E-001, +1.03651590046E+002
+5.62771285476E+006, +8.89061124992E-001, +1.06766058090E+002
+5.79298831386E+006, +8.45940183046E-001, +1.10022545213E+002
+5.95826377295E+006, +9.76711664379E-001, +1.13044268995E+002
+6.12353923205E+006, +1.25924370805E+000, +1.16113566512E+002
+6.28881469115E+006, +9.15587849541E-001, +1.19350285629E+002
+6.45409015025E+006, +1.17555710316E+000, +1.22501924340E+002
+6.61936560935E+006, +9.74661275782E-001, +1.25639103591E+002
+6.78464106845E+006, +1.15008684333E+000, +1.28791582351E+002
+6.94991652755E+006, +1.19156835995E+000, +1.31943101494E+002
+7.11519198664E+006, +1.17039614706E+000, +1.35023007296E+002
+7.28046744574E+006, +1.17390768303E+000, +1.38279904878E+002
+7.44574290484E+006, +1.32871704424E+000, +1.41412593771E+002
+7.61101836394E+006, +1.25911769256E+000, +1.44508439248E+002
+7.77629382304E+006, +1.22261296220E+000, +1.47660941182E+002
+7.94156928214E+006, +1.05054821744E+000, +1.50803845502E+002
+8.10684474124E+006, +1.21831949378E+000, +1.53731820693E+002
+8.27212020033E+006, +1.34638348063E+000, +1.57046932620E+002
+8.43739565943E+006, +1.18039445155E+000, +1.60245735185E+002
+8.60267111853E+006, +1.01347153721E+000, +1.63440513121E+002
+8.76794657763E+006, +1.26817806127E+000, +1.66637877186E+002
+8.93322203673E+006, +1.11643752555E+000, +1.69898472028E+002
+9.09849749583E+006, +1.14577074852E+000, +1.72795237954E+002
+9.26377295492E+006, +9.56385355587E-001, +1.76415061563E+002
+9.42904841402E+006, +1.14628966928E+000, +1.79362293040E+002
+9.59432387312E+006, +1.11353722240E+000, +1.82489122323E+002
+9.75959933222E+006, +8.88796208411E-001, +1.85675240274E+002
+9.92487479132E+006, +9.21899548584E-001, +1.88827224221E+002
+1.00901502504E+007, +1.16446716841E+000, +1.92216651108E+002
+1.02554257095E+007, +1.03304376389E+000, +1.95188367570E+002
+1.04207011686E+007, +9.35804113128E-001, +1.98535446535E+002
+1.05859766277E+007, +8.25435734236E-001, +2.02072554220E+002
+1.07512520868E+007, +9.62935836591E-001, +2.04957700127E+002
+1.09165275459E+007, +9.59837469172E-001, +2.08180597312E+002
+1.10818030050E+007, +8.73523363298E-001, +2.11816506325E+002
+1.12470784641E+007, +7.89206921444E-001, +2.14457289088E+002
+1.14123539232E+007, +7.54118301917E-001, +2.17847071714E+002
+1.15776293823E+007, +1.02955239113E+000, +2.21246085390E+002
+1.17429048414E+007, +9.25659278116E-001, +2.24376683700E+002
+1.19081803005E+007, +9.10075785488E-001, +2.27820562835E+002
+1.20734557596E+007, +8.61800939642E-001, +2.31195541182E+002
+1.22387312187E+007, +4.81779405727E-001, +2.34183162617E+002
+1.24040066778E+007, +8.80469925750E-001, +2.37541246462E+002
+1.25692821369E+007, +8.80769949309E-001, +2.40762300504E+002
+1.27345575960E+007, +8.49422922731E-001, +2.43958614340E+002
+1.28998330551E+007, +1.07176571409E+000, +2.47293843340E+002
+1.30651085142E+007, +4.92671311296E-001, +2.50561211137E+002
+1.32303839733E+007, +1.32001138242E+000, +2.54246713283E+002
+1.33956594324E+007, +7.02237179033E-001, +2.57370839782E+002
+1.35609348915E+007, +7.66896973882E-001, +2.60717099195E+002
+1.37262103506E+007, +6.41191796841E-001, +2.63141032291E+002
+1.38914858097E+007, +1.03771131595E+000, +2.66606838757E+002
+1.40567612688E+007, +9.81903173962E-001, +2.70267156324E+002
+1.42220367279E+007, +7.48042536741E-001, +2.73675390719E+002
+1.43873121870E+007, +1.15702678545E+000, +2.77060028419E+002
+1.45525876461E+007, +7.80768380570E-001, +2.79925477600E+002
+1.47178631052E+007, +6.08489086674E-001, +2.83525428917E+002
+1.48831385643E+007, +1.03821867684E+000, +2.86360168916E+002
+1.50484140234E+007, +9.99035023141E-001, +2.89892670605E+002
+1.52136894825E+007, +7.86483810462E-001, +2.93665201065E+002
+1.53789649416E+007, +8.31454580276E-001, +2.96770424149E+002
+1.55442404007E+007, +1.26009310311E+000, +3.00144124283E+002
+1.57095158598E+007, +7.45692807651E-001, +3.03519798923E+002
+1.58747913189E+007, +1.61565436930E+000, +3.07168969599E+002
+1.60400667780E+007, +1.10743001968E+000, +3.09730254989E+002
+1.62053422371E+007, +1.30077606435E+000, +3.13133316787E+002
+1.63706176962E+007, +9.14476685421E-001, +3.16583849826E+002
+1.65358931553E+007, +9.39764547084E-001, +3.19915256467E+002
+1.67011686144E+007, +1.27004087999E+000, +3.23281904593E+002
+1.68664440735E+007, +8.16761749573E-001, +3.26334738461E+002
+1.70317195326E+007, +1.32299543086E-001, +3.30565376845E+002
+1.71969949917E+007, +3.60945427090E-001, +3.33921757993E+002
+1.73622704508E+007, +5.94413052856E-001, +3.37135445278E+002
+1.75275459098E+007, +4.45287056598E-001, +3.40304282927E+002
+1.76928213689E+007, +5.01062130715E-001, +3.44309105724E+002
+1.78580968280E+007, +8.63693726379E-001, +3.48096466411E+002
+1.80233722871E+007, +1.21946172390E+000, +3.50945187204E+002
+1.81886477462E+007, +8.77176101037E-001, +3.54879161013E+002
+1.83539232053E+007, +1.93245753470E+000, +3.57981441852E+002
+1.85191986644E+007, +1.19249957235E+000, +3.62109605022E+002
+1.86844741235E+007, +1.22553465678E+000, +3.63806466011E+002
+1.88497495826E+007, +1.49109563221E+000, +3.68683791288E+002
+1.90150250417E+007, +8.69460339147E-001, +3.72152140414E+002
+1.91803005008E+007, +7.76834487860E-001, +3.74657581319E+002
+1.93455759599E+007, +1.45209838172E+000, +3.77815831439E+002
+1.95108514190E+007, +1.61266069086E+000, +3.82075804572E+002
+1.96761268781E+007, +1.58173946600E+000, +3.85889559764E+002
+1.98414023372E+007, +1.88809230929E+000, +3.88459019791E+002
+2.00066777963E+007, +1.10189312825E+000, +3.91579623298E+002
+2.01719532554E+007, +1.62199826958E+000, +3.96141671250E+002
+2.03372287145E+007, +1.39577280555E+000, +3.99714899527E+002
+2.05025041736E+007, +1.91375205796E+000, +4.02898807329E+002
+2.06677796327E+007, +1.92962585226E+000, +4.06796058131E+002
+2.08330550918E+007, +1.41210331443E+000, +4.09737267246E+002
+2.09983305509E+007, +2.14877438072E+000, +4.14565417008E+002
+2.11636060100E+007, +2.17466119124E+000, +4.17600100078E+002
+2.13288814691E+007, +1.80938836651E+000, +4.20899725044E+002
+2.14941569282E+007, +1.31810309002E+000, +4.24141679696E+002
+2.16594323873E+007, +1.50961777633E+000, +4.27595403519E+002
+2.18247078464E+007, +2.38460789240E+000, +4.32611792662E+002
+2.19899833055E+007, +1.56938226780E+000, +4.36534828394E+002
+2.21552587646E+007, +1.27681378909E+000, +4.38344171884E+002
+2.23205342237E+007, +2.79928787677E+000, +4.42262193802E+002
+2.24858096828E+007, +2.29359422210E+000, +4.46451693924E+002
+2.26510851419E+007, +2.65328051537E+000, +4.49677631902E+002
+2.28163606010E+007, +2.63619080329E+000, +4.53490171078E+002
+2.29816360601E+007, +2.46731904805E+000, +4.56778801925E+002
+2.31469115192E+007, +3.37461734861E+000, +4.61045124789E+002
+2.33121869783E+007, +4.28869301915E+000, +4.65665070191E+002
+2.34774624374E+007, +4.81088822457E+000, +4.68600708356E+002
+2.36427378965E+007, +3.39735273470E+000, +4.72495319668E+002
+2.38080133556E+007, +3.75825142379E+000, +4.75324112623E+002
+2.39732888147E+007, +3.47186939930E+000, +4.80358253087E+002
+2.41385642738E+007, +3.29123302829E+000, +4.83832372717E+002
+2.43038397329E+007, +3.15711221519E+000, +4.86495647506E+002
+2.44691151920E+007, +3.74180301557E+000, +4.91195665142E+002
+2.46343906511E+007, +3.38663917037E+000, +4.94423666898E+002
+2.47996661102E+007, +4.22262895096E+000, +4.98171220546E+002
+2.49649415693E+007, +4.36839460265E+000, +5.02568171579E+002
+2.51302170284E+007, +4.61157950226E+000, +5.05486609345E+002
+2.52954924875E+007, +5.67081534192E+000, +5.08240428464E+002
+2.54607679466E+007, +5.07901674394E+000, +5.12926813913E+002
+2.56260434057E+007, +6.09339872027E+000, +5.15523078141E+002
+2.57913188648E+007, +4.46525891764E+000, +5.20033028582E+002
+2.59565943239E+007, +6.52769133169E+000, +5.23681747064E+002
+2.61218697830E+007, +6.00438950437E+000, +5.27225576231E+002
+2.62871452421E+007, +5.77154410082E+000, +5.31140154505E+002
+2.64524207012E+007, +6.79030367715E+000, +5.34989822513E+002
+2.66176961603E+007, +7.44709014757E+000, +5.38758170766E+002
+2.67829716194E+007, +6.00020109980E+000, +5.41249231694E+002
+2.69482470785E+007, +7.22306585776E+000, +5.46194641592E+002
+2.71135225376E+007, +5.94302023182E+000, +5.52490731529E+002
+2.72787979967E+007, +7.35119433250E+000, +5.55956721138E+002
+2.74440734558E+007, +8.44040146223E+000, +5.58361893750E+002
+2.76093489149E+007, +8.62615833368E+000, +5.61890771760E+002
+2.77746243740E+007, +6.51528831673E+000, +5.65583775702E+002
+2.79398998331E+007, +7.32057410416E+000, +5.71290533745E+002
+2.81051752922E+007, +9.34222644105E+000, +5.73883210133E+002
+2.82704507513E+007, +8.52714383547E+000, +5.77502268669E+002
+2.84357262104E+007, +7.57725405081E+000, +5.81248959481E+002
+2.86010016694E+007, +7.16145843702E+000, +5.86491640797E+002
+2.87662771285E+007, +7.54192036179E+000, +5.90085760555E+002
+2.89315525876E+007, +8.21225941354E+000, +5.94959011258E+002
+2.90968280467E+007, +9.00163455587E+000, +5.97326311820E+002
+2.92621035058E+007, +8.71829954434E+000, +6.01082917349E+002
+2.94273789649E+007, +8.63469724017E+000, +6.06405551702E+002
+2.95926544240E+007, +6.54567252674E+000, +6.08671080918E+002
+2.97579298831E+007, +8.75894550073E+000, +6.13550746278E+002
+2.99232053422E+007, +9.27878112558E+000, +6.17512071638E+002
+3.00884808013E+007, +9.50153136047E+000, +6.23505143619E+002
+3.02537562604E+007, +8.88982962439E+000, +6.25400854262E+002
+3.04190317195E+007, +8.05853421071E+000, +6.31551366603E+002
+3.05843071786E+007, +7.85684555142E+000, +6.34793220976E+002
+3.07495826377E+007, +7.82160500405E+000, +6.38940995547E+002
+3.09148580968E+007, +8.20242438249E+000, +6.42301244303E+002
+3.10801335559E+007, +8.78589114202E+000, +6.46876496550E+002
+3.12454090150E+007, +8.94879960687E+000, +6.52188795974E+002
+3.14106844741E+007, +1.04002356501E+001, +6.55642999777E+002
+3.15759599332E+007, +9.24033608682E+000, +6.59097307955E+002
+3.17412353923E+007, +9.85950580715E+000, +6.63284738614E+002
+3.19065108514E+007, +8.30734431593E+000, +6.69451037808E+002
+3.20717863105E+007, +6.60327705053E+000, +6.72303542764E+002
+3.22370617696E+007, +9.73124338154E+000, +6.76053685087E+002
+3.24023372287E+007, +8.21609385942E+000, +6.81215128605E+002
+3.25676126878E+007, +9.45110437537E+000, +6.86672068159E+002
+3.27328881469E+007, +1.05707651742E+001, +6.87928610612E+002
+3.28981636060E+007, +6.06316957797E+000, +6.92781316636E+002
+3.30634390651E+007, +8.81572661958E+000, +7.00319048840E+002
+3.32287145242E+007, +7.35804197027E+000, +7.07139454489E+002
+3.33939899833E+007, +7.79667036004E+000, +7.09441109738E+002
+3.35592654424E+007, +9.03937200224E+000, +7.12583350931E+002
+3.37245409015E+007, +9.49291795742E+000, +7.19189070469E+002
+3.38898163606E+007, +6.75712545698E+000, +7.21899199010E+002
+3.40550918197E+007, +6.02995033072E+000, +7.26431068909E+002
+3.42203672788E+007, +7.65809838132E+000, +7.30789366351E+002
+3.43856427379E+007, +6.53759499061E+000, +7.37695518451E+002
+3.45509181970E+007, +5.34889952592E+000, +7.40578906828E+002
+3.47161936561E+007, +8.14527131015E+000, +7.46057686173E+002
+3.48814691152E+007, +7.55185477436E+000, +7.48839855684E+002
+3.50467445743E+007, +9.09548495417E+000, +7.55410882596E+002
+3.52120200334E+007, +1.03114500497E+001, +7.59035272637E+002
+3.53772954925E+007, +5.89015726721E+000, +7.63966201045E+002
+3.55425709516E+007, +9.15197858893E+000, +7.72529047143E+002
+3.57078464107E+007, +7.90944965676E+000, +7.74989265229E+002
+3.58731218698E+007, +6.55270507426E+000, +7.78796423096E+002
+3.60383973289E+007, +5.58399362487E+000, +7.84105209465E+002
+3.62036727880E+007, +8.53891829870E+000, +7.90008949413E+002
+3.63689482471E+007, +8.58445555052E+000, +7.96308231678E+002
+3.65342237062E+007, +6.73839111980E+000, +7.99810505386E+002
+3.66994991653E+007, +6.83401367830E+000, +8.08390502743E+002
+3.68647746244E+007, +9.90933791655E+000, +8.09577445550E+002
+3.70300500835E+007, +7.67878511248E+000, +8.17854030183E+002
+3.71953255426E+007, +7.53592354321E+000, +8.24102222154E+002
+3.73606010017E+007, +6.83937603818E+000, +8.32706757832E+002
+3.75258764608E+007, +7.78180426428E+000, +8.36476640795E+002
+3.76911519199E+007, +7.88472738543E+000, +8.39508052551E+002
+3.78564273790E+007, +3.30203388945E+000, +8.46576770851E+002
+3.80217028381E+007, +4.98265666697E+000, +8.50115322744E+002
+3.81869782972E+007, +5.84305287476E+000, +8.55757506454E+002
+3.83522537563E+007, +7.20934082698E+000, +8.62075545647E+002
+3.85175292154E+007, +8.72956578781E+000, +8.64516763560E+002
+3.86828046745E+007, +6.57192743267E+000, +8.74250396193E+002
+3.88480801336E+007, +6.70783762437E+000, +8.82267197188E+002
+3.90133555927E+007, +7.39169417712E+000, +8.88990325450E+002
+3.91786310518E+007, +5.60439389351E+000, +8.95194945113E+002
+3.93439065109E+007, +7.55821295288E+000, +9.02063192454E+002
+3.95091819699E+007, +1.23086336405E+001, +9.06042127531E+002
+3.96744574290E+007, +8.90460774525E+000, +9.13397363744E+002
+3.98397328881E+007, +5.91796545964E+000, +9.19618950206E+002
+4.00050083472E+007, +9.78107795001E+000, +9.28057122345E+002
+4.01702838063E+007, +6.95573466011E+000, +9.31487228784E+002
+4.03355592654E+007, +7.85372817279E+000, +9.38260145623E+002
+4.05008347245E+007, +9.94874551978E+000, +9.46704635648E+002
+4.06661101836E+007, +7.33750224139E+000, +9.47793724199E+002
+4.08313856427E+007, +8.72045482985E+000, +9.59926644134E+002
+4.09966611018E+007, +9.05606615446E+000, +9.60718304187E+002
+4.11619365609E+007, +1.23990985417E+001, +9.69189067426E+002
+4.13272120200E+007, +1.21926808716E+001, +9.77541102945E+002
+4.14924874791E+007, +7.86752117159E+000, +9.79370976149E+002
+4.16577629382E+007, +8.18931032133E+000, +9.95944098076E+002
+4.18230383973E+007, +1.02129540328E+001, +9.95632570565E+002
+4.19883138564E+007, +7.28071924355E+000, +1.00408174947E+003
+4.21535893155E+007, +9.95992706598E+000, +1.01210406428E+003
+4.23188647746E+007, +1.11692262296E+001, +1.02307067484E+003
+4.24841402337E+007, +5.51473946203E+000, +1.03412727981E+003
+4.26494156928E+007, +6.77480520071E+000, +1.03120831232E+003
+4.28146911519E+007, +1.28531606385E+001, +1.04180306908E+003
+4.29799666110E+007, +9.60720560915E+000, +1.05209685136E+003
+4.31452420701E+007, +1.24525652073E+001, +1.06460076434E+003
+4.33105175292E+007, +1.46120149281E+001, +1.06714801943E+003
+4.34757929883E+007, +1.10876661920E+001, +1.07687308721E+003
+4.36410684474E+007, +8.00127612246E+000, +1.08411099890E+003
+4.38063439065E+007, +1.19650197656E+001, +1.09360990165E+003
+4.39716193656E+007, +1.29591396683E+001, +1.10178330061E+003
+4.41368948247E+007, +1.20989208860E+001, +1.11416438114E+003
+4.43021702838E+007, +1.46723818099E+001, +1.12141703644E+003
+4.44674457429E+007, +9.93975294932E+000, +1.12890333258E+003
+4.46327212020E+007, +1.11708436077E+001, +1.13356947730E+003
+4.47979966611E+007, +1.40710458486E+001, +1.14306467847E+003
+4.49632721202E+007, +1.67317465978E+001, +1.16063487790E+003
+4.51285475793E+007, +1.21416065659E+001, +1.16450733594E+003
+4.52938230384E+007, +1.68135563082E+001, +1.18133410014E+003
+4.54590984975E+007, +8.76388241693E+000, +1.17641979640E+003
+4.56243739566E+007, +1.77350053107E+001, +1.19366650587E+003
+4.57896494157E+007, +2.02127305617E+001, +1.20440408718E+003
+4.59549248748E+007, +1.69187473540E+001, +1.22225121781E+003
+4.61202003339E+007, +1.17845065222E+001, +1.22777098591E+003
+4.62854757930E+007, +2.48877440538E+001, +1.24077177072E+003
+4.64507512521E+007, +2.54654405866E+001, +1.24701544011E+003
+4.66160267112E+007, +2.32495703517E+001, +1.26463889013E+003
+4.67813021703E+007, +2.60908034517E+001, +1.26911779347E+003
+4.69465776294E+007, +3.16361584196E+001, +1.27822245776E+003
+4.71118530885E+007, +3.15541112571E+001, +1.29794307737E+003
+4.72771285476E+007, +3.03656612544E+001, +1.30195324346E+003
+4.74424040067E+007, +3.35633941753E+001, +1.32556089362E+003
+4.76076794658E+007, +3.37515624150E+001, +1.32995824199E+003
+4.77729549249E+007, +3.91723273573E+001, +1.34003689710E+003
+4.79382303840E+007, +4.27081705661E+001, +1.35039775795E+003
+4.81035058431E+007, +4.39215370453E+001, +1.37291286225E+003
+4.82687813022E+007, +4.97098530413E+001, +1.37965266160E+003
+4.84340567613E+007, +5.18210857141E+001, +1.39197991154E+003
+4.85993322204E+007, +5.67977334061E+001, +1.41217407586E+003
+4.87646076795E+007, +6.27904717998E+001, +1.41681090811E+003
+4.89298831386E+007, +5.75965904521E+001, +1.43025466126E+003
+4.90951585977E+007, +5.95822685974E+001, +1.43721595723E+003
+4.92604340568E+007, +7.44180252017E+001, +1.46224915855E+003
+4.94257095159E+007, +7.41197237718E+001, +1.47193190786E+003
+4.95909849750E+007, +7.70836509248E+001, +1.48100927622E+003
+4.97562604341E+007, +8.75863070534E+001, +1.47829967652E+003
+4.99215358932E+007, +8.42560987906E+001, +1.51174412193E+003
+5.00868113523E+007, +9.06725438534E+001, +1.52254518257E+003
+5.02520868114E+007, +1.02005625481E+002, +1.53646565961E+003
+5.04173622705E+007, +1.00581743563E+002, +1.54337361425E+003
+5.05826377295E+007, +1.08349053115E+002, +1.55075850765E+003
+5.07479131886E+007, +1.08581292394E+002, +1.56837409428E+003
+5.09131886477E+007, +1.00021875136E+002, +1.57742093165E+003
+5.10784641068E+007, +1.17072379027E+002, +1.59800009780E+003
+5.12437395659E+007, +1.16172502820E+002, +1.61033098406E+003
+5.14090150250E+007, +1.26892198772E+002, +1.61817749951E+003
+5.15742904841E+007, +1.17403173313E+002, +1.63051446431E+003
+5.17395659432E+007, +1.24929998691E+002, +1.63686539752E+003
+5.19048414023E+007, +1.35460435577E+002, +1.66050462199E+003
+5.20701168614E+007, +1.19322005168E+002, +1.67536149719E+003
+5.22353923205E+007, +1.17854749899E+002, +1.69227662467E+003
+5.24006677796E+007, +1.19254743606E+002, +1.70375188623E+003
+5.25659432387E+007, +1.28383823598E+002, +1.73513486729E+003
+5.27312186978E+007, +1.28351399148E+002, +1.74303349481E+003
+5.28964941569E+007, +1.24756845599E+002, +1.77662784249E+003
+5.30617696160E+007, +1.05570151889E+002, +1.79935100347E+003
+5.32270450751E+007, +1.21726598546E+002, +1.81358401074E+003
+5.33923205342E+007, +9.66761205393E+001, +1.84001798045E+003
+5.35575959933E+007, +1.24203219136E+002, +1.86521148122E+003
+5.37228714524E+007, +1.23415001023E+002, +1.90325887072E+003
+5.38881469115E+007, +1.19440691012E+002, +1.90514810546E+003
