"# Channel 1"
"# Trace 1"
Frequency, Formatted Data, Formatted Data
+1.00000000000E+005, +1.99623991571E-001, +1.76285346596E+000
+2.87609511890E+005, +2.36007444262E-001, +5.09541343961E+000
+4.75219023780E+005, +2.21023478364E-001, +8.38617973190E+000
+6.62828535670E+005, +2.90175821755E-001, +1.17185879503E+001
+8.50438047559E+005, +3.27838409786E-001, +1.49584262116E+001
+1.03804755945E+006, +3.67837554483E-001, +1.81932808601E+001
+1.22565707134E+006, +3.69376869248E-001, +2.14532101161E+001
+1.41326658323E+006, +3.81940159506E-001, +2.47249551257E+001
+1.60087609512E+006, +3.98143268609E-001, +2.79795287363E+001
+1.78848560701E+006, +4.10307791356E-001, +3.12175591231E+001
+1.97609511890E+006, +4.07913450849E-001, +3.45310163949E+001
+2.16370463079E+006, +3.70644608014E-001, +3.77323778302E+001
+2.35131414268E+006, +3.46009031014E-001, +4.09407068324E+001
+2.53892365457E+006, +4.06749037156E-001, +4.42975123939E+001
+2.72653316646E+006, +3.43562924379E-001, +4.75460566978E+001
+2.91414267835E+006, +4.07791067608E-001, +5.07819949472E+001
+3.10175219024E+006, +4.85892388275E-001, +5.41058887353E+001
+3.28936170213E+006, +4.38179469012E-001, +5.74690915311E+001
+3.47697121402E+006, +3.63336181269E-001, +6.06651058005E+001
+3.66458072591E+006, +4.84361394839E-001, +6.39133514367E+001
+3.85219023780E+006, +4.39859447764E-001, +6.71995903916E+001
+4.03979974969E+006, +4.43334213460E-001, +7.05738524589E+001
+4.22740926158E+006, +6.29106545643E-001, +7.37358271487E+001
+4.41501877347E+006, +4.77467872653E-001, +7.68729277955E+001
+4.60262828536E+006, +4.20734990366E-001, +8.02360189562E+001
+4.79023779725E+006, +3.60752727091E-001, +8.36000029113E+001
+4.97784730914E+006, +4.85721632520E-001, +8.69595214348E+001
+5.16545682103E+006, +4.24864492556E-001, +9.01862928084E+001
+5.35306633292E+006, +5.04008401128E-001, +9.35609141640E+001
+5.54067584481E+006, +3.97366536449E-001, +9.68927610141E+001
+5.72828535670E+006, +2.05939044650E-001, +1.00259683798E+002
+5.91589486859E+006, +4.16910630655E-001, +1.03446488132E+002
+6.10350438048E+006, +2.00490683998E-001, +1.07030370723E+002
+6.29111389237E+006, +5.37320754471E-001, +1.10268672173E+002
+6.47872340426E+006, +4.49782825398E-001, +1.13659092600E+002
+6.66633291615E+006, +5.74908568567E-001, +1.16915544127E+002
+6.85394242804E+006, +5.42852028420E-001, +1.20489025866E+002
+7.04155193992E+006, +6.75749288720E-001, +1.23560011469E+002
+7.22916145181E+006, +6.19206769269E-001, +1.27036178490E+002
+7.41677096370E+006, +5.88709515161E-001, +1.30462930385E+002
+7.60438047559E+006, +6.14397872093E-001, +1.33883961979E+002
+7.79198998748E+006, +6.93279696222E-001, +1.37338035386E+002
+7.97959949937E+006, +5.87199211151E-001, +1.40731665609E+002
+8.16720901126E+006, +6.20875612774E-001, +1.44100276623E+002
+8.35481852315E+006, +5.77587852078E-001, +1.47455558119E+002
+8.54242803504E+006, +6.05654386282E-001, +1.50806953396E+002
+8.73003754693E+006, +7.14832772920E-001, +1.54258489360E+002
+8.91764705882E+006, +6.38910317207E-001, +1.57698803710E+002
+9.10525657071E+006, +5.45033394774E-001, +1.61064158132E+002
+9.29286608260E+006, +6.95421920072E-001, +1.64513947700E+002
+9.48047559449E+006, +7.12755929803E-001, +1.68076413037E+002
+9.66808510638E+006, +6.32920071815E-001, +1.71559505461E+002
+9.85569461827E+006, +7.63526145520E-001, +1.74714914513E+002
+1.00433041302E+007, +6.43422154545E-001, +1.78224265480E+002
+1.02309136421E+007, +6.35331421971E-001, +1.81861656486E+002
+1.04185231539E+007, +7.59565276431E-001, +1.85339338579E+002
+1.06061326658E+007, +6.34128995476E-001, +1.88697930566E+002
+1.07937421777E+007, +6.42610254153E-001, +1.92344452356E+002
+1.09813516896E+007, +6.41244907474E-001, +1.95860337986E+002
+1.11689612015E+007, +5.38638488872E-001, +1.99237477087E+002
+1.13565707134E+007, +5.16016784192E-001, +2.02913294356E+002
+1.15441802253E+007, +4.97716161466E-001, +2.06557235997E+002
+1.17317897372E+007, +3.07660463230E-001, +2.10011053320E+002
+1.19193992491E+007, +6.83592039965E-001, +2.13488497158E+002
+1.21070087610E+007, +5.67240063527E-001, +2.17025793958E+002
+1.22946182728E+007, +5.72903892562E-001, +2.20604328147E+002
+1.24822277847E+007, +1.24407137625E-001, +2.24539162254E+002
+1.26698372966E+007, +3.10715857836E-001, +2.27630998970E+002
+1.28574468085E+007, +3.60775692502E-001, +2.31402677212E+002
+1.30450563204E+007, +9.06726452435E-001, +2.35039571382E+002
+1.32326658323E+007, +4.29752820712E-001, +2.38729865457E+002
+1.34202753442E+007, +2.20878546079E-001, +2.42318812139E+002
+1.36078848561E+007, +3.16860450172E-001, +2.46074210791E+002
+1.37954943680E+007, +2.89941431019E-001, +2.49742969138E+002
+1.39831038798E+007, +2.84100902225E-001, +2.53239965192E+002
+1.41707133917E+007, +2.68178993119E-001, +2.57131268571E+002
+1.43583229036E+007, +1.94054398046E-001, +2.61044534853E+002
+1.45459324155E+007, +3.88155095560E-002, +2.64668662271E+002
+1.47335419274E+007, +5.43300992374E-001, +2.68398664509E+002
+1.49211514393E+007, +5.90216607348E-002, +2.71703147770E+002
+1.51087609512E+007, +1.81089822474E-001, +2.75886640888E+002
+1.52963704631E+007, +2.83492871477E-001, +2.79907187143E+002
+1.54839799750E+007, +2.76377003459E-001, +2.83911216423E+002
+1.56715894869E+007, +4.05080957072E-001, +2.87638963179E+002
+1.58591989987E+007, +3.42935398064E-001, +2.90825036300E+002
+1.60468085106E+007, -3.23631489676E-002, +2.94886264931E+002
+1.62344180225E+007, -2.53926603700E-002, +2.99117312384E+002
+1.64220275344E+007, -2.37971162872E-001, +3.02836699525E+002
+1.66096370463E+007, -2.69607215806E-002, +3.06821042355E+002
+1.67972465582E+007, -4.96746135935E-001, +3.10623702840E+002
+1.69848560701E+007, -5.79161611349E-002, +3.14577547494E+002
+1.71724655820E+007, -6.10091473589E-001, +3.18433687005E+002
+1.73600750939E+007, -4.52162661432E-001, +3.22949498135E+002
+1.75476846058E+007, -1.19554600530E+000, +3.26559341217E+002
+1.77352941176E+007, -2.90184293996E-001, +3.30417491170E+002
+1.79229036295E+007, -2.59234587392E-001, +3.35042736174E+002
+1.81105131414E+007, -4.60238784150E-001, +3.38843173503E+002
+1.82981226533E+007, -2.45661148356E-001, +3.42974075783E+002
+1.84857321652E+007, -5.48758483684E-001, +3.47340560013E+002
+1.86733416771E+007, -7.37172294169E-001, +3.50634477321E+002
+1.88609511890E+007, -6.27865196697E-001, +3.54910297893E+002
+1.90485607009E+007, -1.29660227531E-001, +3.59085815831E+002
+1.92361702128E+007, -4.62753309929E-001, +3.62912786328E+002
+1.94237797247E+007, -1.10496221104E+000, +3.67992633326E+002
+1.96113892365E+007, -4.64316270911E-001, +3.72237058314E+002
+1.97989987484E+007, -6.95458147328E-001, +3.76809928665E+002
+1.99866082603E+007, -7.77965750325E-001, +3.80467830491E+002
+2.01742177722E+007, -6.42683130809E-001, +3.84243553989E+002
+2.03618272841E+007, -1.01838468324E+000, +3.89220355633E+002
+2.05494367960E+007, -3.08595339520E-001, +3.94425887466E+002
+2.07370463079E+007, -4.27904815465E-001, +3.97978820947E+002
+2.09246558198E+007, -5.28891121954E-001, +4.02609522752E+002
+2.11122653317E+007, -2.99424559570E-001, +4.06471715755E+002
+2.12998748436E+007, -5.62254206355E-001, +4.10471996856E+002
+2.14874843554E+007, -6.59102593275E-001, +4.15747582878E+002
+2.16750938673E+007, -1.68352140361E-001, +4.19949870426E+002
+2.18627033792E+007, +6.14809250726E-001, +4.24631917237E+002
+2.20503128911E+007, -2.40689335709E-001, +4.28866756300E+002
+2.22379224030E+007, +2.51090701459E-001, +4.33830118672E+002
+2.24255319149E+007, +2.45345183823E-003, +4.37969992673E+002
+2.26131414268E+007, -1.22595507540E-001, +4.41980609914E+002
+2.28007509387E+007, +7.59650568489E-001, +4.47271884519E+002
+2.29883604506E+007, +3.81813594699E-001, +4.52452506171E+002
+2.31759699625E+007, +7.81024927874E-001, +4.56930000799E+002
+2.33635794743E+007, +1.31799306991E+000, +4.62202247198E+002
+2.35511889862E+007, +9.11828194862E-001, +4.67410416784E+002
+2.37387984981E+007, +4.12332916333E-002, +4.72066713497E+002
+2.39264080100E+007, +7.17815483017E-001, +4.77555760757E+002
+2.41140175219E+007, +1.13130813808E+000, +4.81510335973E+002
+2.43016270338E+007, +7.98979489860E-001, +4.85327738647E+002
+2.44892365457E+007, +1.24077866164E+000, +4.90237748177E+002
+2.46768460576E+007, +6.87801439394E-001, +4.94935828012E+002
+2.48644555695E+007, +8.56439633591E-001, +5.00212235038E+002
+2.50520650814E+007, +4.40581319605E-001, +5.04034646985E+002
+2.52396745932E+007, +2.08690591198E+000, +5.09855053865E+002
+2.54272841051E+007, +1.80667491232E+000, +5.14299637278E+002
+2.56148936170E+007, +1.09243908778E+000, +5.19410781421E+002
+2.58025031289E+007, +6.02262327825E-001, +5.25339136856E+002
+2.59901126408E+007, +3.49820695148E-002, +5.28672959494E+002
+2.61777221527E+007, -8.25264698196E-001, +5.36306039726E+002
+2.63653316646E+007, +2.38132963896E-001, +5.40029411762E+002
+2.65529411765E+007, +8.17035712386E-001, +5.42811124440E+002
+2.67405506884E+007, -4.82469017513E-001, +5.50903300893E+002
+2.69281602003E+007, +2.02825170581E-001, +5.56084025577E+002
+2.71157697121E+007, +6.42214743526E-001, +5.62016492807E+002
+2.73033792240E+007, -1.21906171340E+000, +5.67619997818E+002
+2.74909887359E+007, +7.46249641736E-001, +5.74173216126E+002
+2.76785982478E+007, +2.53814212669E+000, +5.79166598012E+002
+2.78662077597E+007, +2.71586615002E+000, +5.83979890162E+002
+2.80538172716E+007, +3.85160135698E+000, +5.89453206154E+002
+2.82414267835E+007, +5.27542810691E-001, +5.91799155197E+002
+2.84290362954E+007, -1.09913962880E+000, +5.99164451210E+002
+2.86166458073E+007, -1.06574352872E+000, +6.06618146483E+002
+2.88042553191E+007, -1.38562578506E-001, +6.09874151645E+002
+2.89918648310E+007, -1.88288310868E+000, +6.16941663251E+002
+2.91794743429E+007, -1.87931989272E+000, +6.21121968699E+002
+2.93670838548E+007, -4.87648042153E-001, +6.29280162749E+002
+2.95546933667E+007, -5.87277128366E-001, +6.32870586073E+002
+2.97423028786E+007, -2.08264754473E+000, +6.41647508999E+002
+2.99299123905E+007, -1.68475110699E+000, +6.48049010344E+002
+3.01175219024E+007, +5.74383996352E-001, +6.56732121933E+002
+3.03051314143E+007, -1.64602862504E-001, +6.62458404666E+002
+3.04927409262E+007, -2.94222186343E-001, +6.66723224458E+002
+3.06803504380E+007, -1.69893547374E+000, +6.72647940193E+002
+3.08679599499E+007, -3.33056777531E+000, +6.80235242627E+002
+3.10555694618E+007, -3.20879559039E+000, +6.88186757448E+002
+3.12431789737E+007, -3.27234687864E+000, +6.93474423064E+002
+3.14307884856E+007, -2.12684483629E+000, +6.99525576838E+002
+3.16183979975E+007, -1.21384086223E+000, +7.06686380321E+002
+3.18060075094E+007, -1.99195574368E+000, +7.14331259966E+002
+3.19936170213E+007, -5.76674466411E+000, +7.22136711230E+002
+3.21812265332E+007, -5.85141862841E+000, +7.26545291043E+002
+3.23688360451E+007, -3.59612942065E+000, +7.35056634594E+002
+3.25564455569E+007, -2.96925125361E+000, +7.38275682536E+002
+3.27440550688E+007, -4.03850242675E+000, +7.49578024914E+002
+3.29316645807E+007, -5.05799219671E+000, +7.52165383088E+002
+3.31192740926E+007, -2.37537873566E+000, +7.65213892269E+002
+3.33068836045E+007, -4.71892447800E+000, +7.68928284369E+002
+3.34944931164E+007, -2.87091149795E+000, +7.77820256493E+002
+3.36821026283E+007, -4.58444738449E+000, +7.85349837831E+002
+3.38697121402E+007, -4.83060322201E+000, +7.93060400165E+002
+3.40573216521E+007, -4.10136692303E+000, +8.01270654302E+002
+3.42449311640E+007, -5.92441671032E+000, +8.09670214938E+002
+3.44325406758E+007, -7.21060725954E+000, +8.15781695225E+002
+3.46201501877E+007, -5.04135836417E+000, +8.24118604938E+002
+3.48077596996E+007, -3.63618093116E+000, +8.33074600971E+002
+3.49953692115E+007, -7.77678591172E+000, +8.41910519925E+002
+3.51829787234E+007, -6.55344086207E+000, +8.49684347814E+002
+3.53705882353E+007, -4.25889926517E+000, +8.58442741687E+002
+3.55581977472E+007, -7.32849746171E+000, +8.66372119323E+002
+3.57458072591E+007, -6.21706970204E+000, +8.74731660267E+002
+3.59334167710E+007, -7.34389045111E+000, +8.80712945910E+002
+3.61210262829E+007, -3.31612940078E+000, +8.92308424781E+002
+3.63086357947E+007, -6.71440577745E+000, +9.03093100023E+002
+3.64962453066E+007, -5.10684508897E+000, +9.12800899256E+002
+3.66838548185E+007, -6.06365531397E+000, +9.17247544648E+002
+3.68714643304E+007, -1.05149109826E+001, +9.25376732625E+002
+3.70590738423E+007, -4.03284911116E+000, +9.34443940329E+002
+3.72466833542E+007, -5.31431707558E+000, +9.43966214839E+002
+3.74342928661E+007, -3.61797522057E+000, +9.55731499264E+002
+3.76219023780E+007, -4.50518817915E+000, +9.66652822950E+002
+3.78095118899E+007, -1.02957576502E+001, +9.76060101753E+002
+3.79971214018E+007, -8.10864402647E+000, +9.88472564620E+002
+3.81847309136E+007, -5.96109384862E+000, +9.94664540744E+002
+3.83723404255E+007, -1.12639457350E+001, +1.00561026115E+003
+3.85599499374E+007, -7.19442111847E+000, +1.02019698997E+003
+3.87475594493E+007, -7.79121882702E+000, +1.03176850389E+003
+3.89351689612E+007, -9.76416950845E+000, +1.04086039985E+003
+3.91227784731E+007, -1.07950928221E+001, +1.04609905899E+003
+3.93103879850E+007, -1.12104579509E+001, +1.06695355188E+003
+3.94979974969E+007, -6.78233057366E+000, +1.07618727918E+003
+3.96856070088E+007, -7.27526933788E+000, +1.08748933941E+003
+3.98732165207E+007, -1.07559289264E+001, +1.09559178704E+003
+4.00608260325E+007, -1.00736327951E+001, +1.10543199470E+003
+4.02484355444E+007, -1.08706351260E+001, +1.12498922444E+003
+4.04360450563E+007, -1.29308271545E+001, +1.13261562216E+003
+4.06236545682E+007, -1.13355620378E+001, +1.14115592851E+003
+4.08112640801E+007, -7.10180458839E+000, +1.15782057222E+003
+4.09988735920E+007, -8.50359645372E+000, +1.17260141227E+003
+4.11864831039E+007, -2.29651424186E+000, +1.18534332337E+003
+4.13740926158E+007, -4.24206736003E+000, +1.19873360040E+003
+4.15617021277E+007, -6.83337467279E+000, +1.21959116636E+003
+4.17493116395E+007, -2.54661675495E+000, +1.22707861232E+003
+4.19369211514E+007, -1.03609379332E+000, +1.23486396248E+003
+4.21245306633E+007, -9.46791654192E+000, +1.25344234861E+003
+4.23121401752E+007, -1.16389678443E+001, +1.26250607841E+003
+4.24997496871E+007, -4.41718316747E+000, +1.28601298082E+003
+4.26873591990E+007, -3.87017283765E+000, +1.29066173708E+003
+4.28749687109E+007, -5.13472999759E+000, +1.30779475283E+003
+4.30625782228E+007, -7.27071899109E-001, +1.32242192962E+003
+4.32501877347E+007, +2.42808195219E+000, +1.34370218946E+003
+4.34377972466E+007, -1.14131408426E+001, +1.35934169928E+003
+4.36254067584E+007, -1.46658921872E+001, +1.38113589860E+003
+4.38130162703E+007, -1.10738007627E+001, +1.39095065641E+003
+4.40006257822E+007, -6.05115074157E+000, +1.40715739461E+003
+4.41882352941E+007, -1.13775767597E+000, +1.42483042385E+003
+4.43758448060E+007, -1.08814859893E+001, +1.44496403455E+003
+4.45634543179E+007, -5.17313312243E+000, +1.46705857209E+003
+4.47510638298E+007, -2.58831495949E+001, +1.47774316433E+003
+4.49386733417E+007, -2.12033738771E+001, +1.49198632550E+003
+4.51262828536E+007, -2.24441012744E+001, +1.52389438732E+003
+4.53138923655E+007, -1.66593998934E+001, +1.54120997386E+003
+4.55015018773E+007, -1.18705854973E+001, +1.56247421567E+003
+4.56891113892E+007, -1.03067049641E+001, +1.58521484878E+003
+4.58767209011E+007, -3.10162330127E+000, +1.60421405310E+003
+4.60643304130E+007, -2.45065596700E+001, +1.63296494741E+003
+4.62519399249E+007, -1.07671673079E+001, +1.65160741453E+003
+4.64395494368E+007, -9.98337295749E-001, +1.66650346560E+003
+4.66271589487E+007, -6.10988383891E+000, +1.70434377677E+003
+4.68147684606E+007, -1.65353109101E+001, +1.72456022644E+003
+4.70023779725E+007, -6.00723336065E+000, +1.75470560599E+003
+4.71899874844E+007, -1.40665279648E+001, +1.76324240118E+003
+4.73775969962E+007, -1.24307673536E+001, +1.78779004599E+003
+4.75652065081E+007, -9.36665329107E+000, +1.82616831671E+003
+4.77528160200E+007, -4.16894477393E+000, +1.83919047119E+003
+4.79404255319E+007, -6.95814944227E+000, +1.87540257226E+003
+4.81280350438E+007, -1.21725141913E+001, +1.90903360188E+003
+4.83156445557E+007, +3.20476519549E+000, +1.95366577130E+003
+4.85032540676E+007, -1.80294473921E+001, +1.97440551002E+003
+4.86908635795E+007, +4.13146053292E+000, +1.97906802482E+003
+4.88784730914E+007, +7.40431147679E+000, +2.03029287467E+003
+4.90660826033E+007, -1.36263441546E+001, +2.07749047653E+003
+4.92536921151E+007, +1.56373125219E+001, +2.08534604433E+003
+4.94413016270E+007, +1.48108045879E+001, +2.14153010729E+003
+4.96289111389E+007, -3.59446464385E+000, +2.18383754986E+003
+4.98165206508E+007, +1.03642613450E+001, +2.20959287266E+003
+5.00041301627E+007, +2.17788660020E+001, +2.24967973116E+003
+5.01917396746E+007, +1.44008086538E+001, +2.28315245807E+003
+5.03793491865E+007, +1.49679287436E+001, +2.31880027113E+003
+5.05669586984E+007, +9.66016410534E-001, +2.39221840652E+003
+5.07545682103E+007, +8.09876956887E+000, +2.40194060103E+003
+5.09421777222E+007, +3.33618796850E+001, +2.45054887935E+003
+5.11297872340E+007, +6.54228016719E+001, +2.51723716405E+003
+5.13173967459E+007, +3.63714879580E+001, +2.54172642461E+003
+5.15050062578E+007, +3.80733523490E+001, +2.55348798826E+003
+5.16926157697E+007, +3.51368828903E+001, +2.64270842155E+003
+5.18802252816E+007, +5.36986415399E+001, +2.69681512593E+003
+5.20678347935E+007, +2.76756871025E+001, +2.73921739969E+003
+5.22554443054E+007, +1.72092333334E+001, +2.79338095940E+003
+5.24430538173E+007, +8.01688372781E+001, +2.85622966217E+003
+5.26306633292E+007, +2.09627478455E+001, +2.88226706666E+003
+5.28182728411E+007, +3.00276513982E+001, +2.95905244075E+003
+5.30058823529E+007, +5.52003377731E+001, +3.02055355927E+003
+5.31934918648E+007, +2.80970019778E+001, +3.13371888792E+003
+5.33811013767E+007, +7.94326537342E+001, +3.19542639728E+003
+5.35687108886E+007, +2.32984957684E+001, +3.25754190437E+003
+5.37563204005E+007, +2.03143643620E+001, +3.35955874320E+003
+5.39439299124E+007, +3.44509948040E+001, +3.49415453092E+003
+5.41315394243E+007, +5.88961760055E+001, +3.53536460392E+003
+5.43191489362E+007, -1.96389875977E+001, +3.60299075024E+003
+5.45067584481E+007, +4.80848476063E+001, +3.72593977583E+003
+5.46943679599E+007, +7.38939554345E+001, +3.83557333379E+003
+5.48819774718E+007, +6.38480241268E+001, +3.95809617893E+003
+5.50695869837E+007, +9.76667816821E+001, +4.15368391930E+003
+5.52571964956E+007, +1.35697356964E+002, +4.27726097069E+003
+5.54448060075E+007, +1.51319403970E+002, +4.32940285448E+003
+5.56324155194E+007, +1.81419301846E+002, +4.57204584101E+003
+5.58200250313E+007, +1.04208366007E+002, +4.69741492075E+003
+5.60076345432E+007, +1.88454040335E+002, +4.83924383450E+003
+5.61952440551E+007, +1.26378086176E+002, +5.03987922113E+003
+5.63828535670E+007, +2.74654800365E+002, +5.22063679001E+003
+5.65704630788E+007, +1.92294411396E+002, +5.45721326664E+003
+5.67580725907E+007, +1.23854630139E+002, +5.66166957415E+003
+5.69456821026E+007, +1.69144650016E+002, +6.02937025509E+003
+5.71332916145E+007, +3.84460166166E+002, +6.21117722403E+003
+5.73209011264E+007, +5.01776496882E+002, +6.62012132631E+003
+5.75085106383E+007, +3.22976496891E+002, +7.07564626809E+003
+5.76961201502E+007, +3.58399919136E+002, +7.20417997014E+003
+5.78837296621E+007, +7.73622303452E+002, +7.88707761753E+003
+5.80713391740E+007, +8.53085843392E+002, +8.68268525915E+003
+5.82589486859E+007, +1.02296769574E+003, +9.11631617647E+003
+5.84465581977E+007, +1.27622486115E+003, +9.76978639726E+003
+5.86341677096E+007, +1.41560610392E+003, +1.09363579641E+004
+5.88217772215E+007, +1.03944722905E+003, +1.17213540971E+004
+5.90093867334E+007, +2.32323700826E+003, +1.27788238292E+004
+5.91969962453E+007, +3.87648756008E+003, +1.39390293711E+004
+5.93846057572E+007, +4.85466962828E+003, +1.54030245230E+004
+5.95722152691E+007, +5.97879618655E+003, +1.62410434538E+004
+5.97598247810E+007, +9.36367120578E+003, +1.80350234196E+004
+5.99474342929E+007, +1.11731820978E+004, +1.75633875507E+004
+6.01350438048E+007, +1.43568545044E+004, +1.94699682309E+004
