"# Channel 1"
"# Trace 1"
Frequency, Formatted Data, Formatted Data
+1.00000000000E+006, +4.56670938578E-001, +1.91915494060E+001
+1.16527545910E+006, +5.10687037038E-001, +2.23721802815E+001
+1.33055091820E+006, +5.80452303157E-001, +2.54171016675E+001
+1.49582637730E+006, +5.41866289093E-001, +2.85600593203E+001
+1.66110183639E+006, +5.96004866032E-001, +3.16853640115E+001
+1.82637729549E+006, +5.83641406400E-001, +3.47718437247E+001
+1.99165275459E+006, +6.30772604933E-001, +3.79160267807E+001
+2.15692821369E+006, +6.30206149957E-001, +4.10377356705E+001
+2.32220367279E+006, +5.88868982058E-001, +4.41921299401E+001
+2.48747913189E+006, +6.03179658065E-001, +4.72797590278E+001
+2.65275459098E+006, +5.58174705695E-001, +5.04141632269E+001
+2.81803005008E+006, +5.64375394505E-001, +5.35670251214E+001
+2.98330550918E+006, +5.23545280807E-001, +5.66103670319E+001
+3.14858096828E+006, +6.47435701100E-001, +5.97249357660E+001
+3.31385642738E+006, +7.05661364759E-001, +6.28629581793E+001
+3.47913188648E+006, +5.92537510059E-001, +6.61545834616E+001
+3.64440734558E+006, +6.45125246511E-001, +6.91742726909E+001
+3.80968280467E+006, +7.61611070494E-001, +7.23113593374E+001
+3.97495826377E+006, +8.49771368011E-001, +7.54050698685E+001
+4.14023372287E+006, +5.31475987141E-001, +7.87009341272E+001
+4.30550918197E+006, +7.37080843715E-001, +8.15878458657E+001
+4.47078464107E+006, +7.14648065897E-001, +8.49256108570E+001
+4.63606010017E+006, +6.13849669544E-001, +8.79911775920E+001
+4.80133555927E+006, +6.36737230299E-001, +9.11280126606E+001
+4.96661101836E+006, +7.37005094377E-001, +9.42843352865E+001
+5.13188647746E+006, +6.64567554269E-001, +9.74897029042E+001
+5.29716193656E+006, +6.27332885282E-001, +1.00454556433E+002
+5.46243739566E+006, +7.75809137432E-001, +1.03799829765E+002
+5.62771285476E+006, +9.09516870158E-001, +1.06827073770E+002
+5.79298831386E+006, +9.04810895475E-001, +1.10227229587E+002
+5.95826377295E+006, +9.21859669101E-001, +1.13206265233E+002
+6.12353923205E+006, +1.13945268270E+000, +1.16299200672E+002
+6.28881469115E+006, +9.54258099749E-001, +1.19457686579E+002
+6.45409015025E+006, +1.18196544369E+000, +1.22672567579E+002
+6.61936560935E+006, +1.03042054999E+000, +1.25813957211E+002
+6.78464106845E+006, +1.09513031266E+000, +1.29007060133E+002
+6.94991652755E+006, +1.18214375595E+000, +1.32161167188E+002
+7.11519198664E+006, +1.26376376719E+000, +1.35317016308E+002
+7.28046744574E+006, +1.18775844924E+000, +1.38455728571E+002
+7.44574290484E+006, +1.30215420289E+000, +1.41541759568E+002
+7.61101836394E+006, +1.29795864563E+000, +1.44796108551E+002
+7.77629382304E+006, +1.32018850129E+000, +1.47856367861E+002
+7.94156928214E+006, +1.29407882579E+000, +1.50983213735E+002
+8.10684474124E+006, +1.17103287933E+000, +1.54044012067E+002
+8.27212020033E+006, +1.20622896920E+000, +1.57201038068E+002
+8.43739565943E+006, +1.23194651661E+000, +1.60586339692E+002
+8.60267111853E+006, +9.59812989401E-001, +1.63643727156E+002
+8.76794657763E+006, +1.28417452457E+000, +1.66774178916E+002
+8.93322203673E+006, +1.15374557289E+000, +1.70252782470E+002
+9.09849749583E+006, +1.11352761295E+000, +1.73122018865E+002
+9.26377295492E+006, +9.87668676662E-001, +1.76711507898E+002
+9.42904841402E+006, +1.17935233105E+000, +1.79624343055E+002
+9.59432387312E+006, +1.10764480315E+000, +1.82851965096E+002
+9.75959933222E+006, +9.47036721750E-001, +1.86016076355E+002
+9.92487479132E+006, +9.97521343343E-001, +1.89203486983E+002
+1.00901502504E+007, +9.62834992150E-001, +1.92504485245E+002
+1.02554257095E+007, +9.28803582825E-001, +1.95328140806E+002
+1.04207011686E+007, +9.37519817761E-001, +1.98784985411E+002
+1.05859766277E+007, +6.48386634872E-001, +2.02145135163E+002
+1.07512520868E+007, +9.86112426255E-001, +2.05388598972E+002
+1.09165275459E+007, +6.82827202240E-001, +2.08674822930E+002
+1.10818030050E+007, +8.34297501384E-001, +2.12076114300E+002
+1.12470784641E+007, +7.25186946947E-001, +2.14771603973E+002
+1.14123539232E+007, +8.85071918828E-001, +2.18236975289E+002
+1.15776293823E+007, +1.18334980561E+000, +2.21722333144E+002
+1.17429048414E+007, +7.96731574076E-001, +2.24866109824E+002
+1.19081803005E+007, +8.40561628430E-001, +2.28255636990E+002
+1.20734557596E+007, +9.13491449527E-001, +2.31445313063E+002
+1.22387312187E+007, +6.85747444178E-001, +2.34685272525E+002
+1.24040066778E+007, +6.18117423568E-001, +2.37805769963E+002
+1.25692821369E+007, +5.21997243284E-001, +2.41240257347E+002
+1.27345575960E+007, +9.60276052494E-001, +2.44442864197E+002
+1.28998330551E+007, +8.13234609702E-001, +2.47658460108E+002
+1.30651085142E+007, +6.57173154934E-001, +2.50926038965E+002
+1.32303839733E+007, +1.30908653824E+000, +2.54296845176E+002
+1.33956594324E+007, +6.34831421149E-001, +2.57824865972E+002
+1.35609348915E+007, +8.33596522726E-001, +2.60802683931E+002
+1.37262103506E+007, +4.41831066129E-001, +2.63561419785E+002
+1.38914858097E+007, +8.69143357534E-001, +2.67229416181E+002
+1.40567612688E+007, +1.00079722157E+000, +2.70458762264E+002
+1.42220367279E+007, +1.04592310782E+000, +2.74197064072E+002
+1.43873121870E+007, +9.54069748799E-001, +2.77598477837E+002
+1.45525876461E+007, +9.06239505513E-001, +2.80716122149E+002
+1.47178631052E+007, +9.09319605733E-001, +2.83988105668E+002
+1.48831385643E+007, +1.19677339703E+000, +2.86867293137E+002
+1.50484140234E+007, +1.15819406128E+000, +2.90520570733E+002
+1.52136894825E+007, +9.13568096703E-001, +2.94230854032E+002
+1.53789649416E+007, +1.44900614967E+000, +2.97204928532E+002
+1.55442404007E+007, +1.01514208399E+000, +3.00634617314E+002
+1.57095158598E+007, +9.13518488648E-001, +3.03862092721E+002
+1.58747913189E+007, +1.39540644748E+000, +3.07229591677E+002
+1.60400667780E+007, +1.05902513104E+000, +3.10461901183E+002
+1.62053422371E+007, +3.01834188509E-001, +3.13994664161E+002
+1.63706176962E+007, +7.10875710128E-001, +3.17060986149E+002
+1.65358931553E+007, +6.22873233950E-001, +3.20605291470E+002
+1.67011686144E+007, +1.69537772474E+000, +3.23667272125E+002
+1.68664440735E+007, +9.47753424862E-001, +3.27271748361E+002
+1.70317195326E+007, +6.36833371157E-002, +3.31277089875E+002
+1.71969949917E+007, +2.02305849223E-001, +3.33977562295E+002
+1.73622704508E+007, +7.69540015540E-001, +3.37689706372E+002
+1.75275459098E+007, +3.33152469604E-001, +3.40838908731E+002
+1.76928213689E+007, +3.98995777985E-001, +3.44927359492E+002
+1.78580968280E+007, +6.32900396640E-001, +3.48257391861E+002
+1.80233722871E+007, +9.60531479651E-001, +3.51765128638E+002
+1.81886477462E+007, +1.14656594960E+000, +3.54714546783E+002
+1.83539232053E+007, +1.63187549648E+000, +3.58165955669E+002
+1.85191986644E+007, +1.13081420123E+000, +3.62597920556E+002
+1.86844741235E+007, +9.48127623344E-001, +3.64667486376E+002
+1.88497495826E+007, +1.17876325737E+000, +3.68565096944E+002
+1.90150250417E+007, +5.91188051922E-001, +3.72568915435E+002
+1.91803005008E+007, +7.25720884929E-001, +3.75906674613E+002
+1.93455759599E+007, +1.15412996630E+000, +3.78434177823E+002
+1.95108514190E+007, +2.02404524502E+000, +3.82637060994E+002
+1.96761268781E+007, +1.77943732373E+000, +3.85938827375E+002
+1.98414023372E+007, +1.75348473229E+000, +3.89762677558E+002
+2.00066777963E+007, +6.18254515446E-001, +3.92724050781E+002
+2.01719532554E+007, +1.51854601538E+000, +3.96140332954E+002
+2.03372287145E+007, +1.99105952670E+000, +4.00983700363E+002
+2.05025041736E+007, +1.74019895263E+000, +4.04206036450E+002
+2.06677796327E+007, +2.30469548369E+000, +4.06545363569E+002
+2.08330550918E+007, +1.31231136592E+000, +4.10575707753E+002
+2.09983305509E+007, +2.23529534657E+000, +4.14277589117E+002
+2.11636060100E+007, +1.83407652014E+000, +4.18031477354E+002
+2.13288814691E+007, +2.65772475723E+000, +4.20894729915E+002
+2.14941569282E+007, +1.74037952084E+000, +4.24474653008E+002
+2.16594323873E+007, +2.30304667287E+000, +4.28398518298E+002
+2.18247078464E+007, +2.26230020226E+000, +4.32727618533E+002
+2.19899833055E+007, +1.82737269594E+000, +4.36395770994E+002
+2.21552587646E+007, +1.34473181249E+000, +4.39483207217E+002
+2.23205342237E+007, +2.47756615902E+000, +4.42678275397E+002
+2.24858096828E+007, +1.82470318908E+000, +4.46465243938E+002
+2.26510851419E+007, +3.00188490295E+000, +4.50720658591E+002
+2.28163606010E+007, +1.98795538651E+000, +4.54207994726E+002
+2.29816360601E+007, +2.30369258912E+000, +4.56921688163E+002
+2.31469115192E+007, +3.69706182872E+000, +4.62160458923E+002
+2.33121869783E+007, +3.09606524071E+000, +4.66549537876E+002
+2.34774624374E+007, +3.61685598590E+000, +4.69482752213E+002
+2.36427378965E+007, +3.70811783891E+000, +4.73065006465E+002
+2.38080133556E+007, +3.55625027817E+000, +4.76440090154E+002
+2.39732888147E+007, +4.33331832781E+000, +4.80934645574E+002
+2.41385642738E+007, +3.84712204547E+000, +4.83586824827E+002
+2.43038397329E+007, +4.25438015045E+000, +4.87726088578E+002
+2.44691151920E+007, +4.43509093091E+000, +4.90896777172E+002
+2.46343906511E+007, +4.57283895206E+000, +4.94493319722E+002
+2.47996661102E+007, +4.33173238433E+000, +4.98046207785E+002
+2.49649415693E+007, +4.53544171629E+000, +5.02819395562E+002
+2.51302170284E+007, +4.39705995009E+000, +5.05842401288E+002
+2.52954924875E+007, +5.64739671926E+000, +5.09696649531E+002
+2.54607679466E+007, +5.67038536727E+000, +5.13202432420E+002
+2.56260434057E+007, +7.08177955841E+000, +5.16824777334E+002
+2.57913188648E+007, +4.69876858096E+000, +5.20460392229E+002
+2.59565943239E+007, +6.01992842705E+000, +5.23137353069E+002
+2.61218697830E+007, +5.03525046726E+000, +5.27373045979E+002
+2.62871452421E+007, +6.47937209069E+000, +5.32854599432E+002
+2.64524207012E+007, +5.24164645899E+000, +5.36981696409E+002
+2.66176961603E+007, +6.81263521964E+000, +5.41286073483E+002
+2.67829716194E+007, +5.80525886290E+000, +5.43531034274E+002
+2.69482470785E+007, +4.78654368994E+000, +5.48332056502E+002
+2.71135225376E+007, +6.32797936988E+000, +5.52921463742E+002
+2.72787979967E+007, +8.22888755667E+000, +5.55816118526E+002
+2.74440734558E+007, +7.76260217697E+000, +5.60566517639E+002
+2.76093489149E+007, +6.90059313238E+000, +5.61837689334E+002
+2.77746243740E+007, +7.61364174898E+000, +5.67342385978E+002
+2.79398998331E+007, +6.91561470834E+000, +5.71536354122E+002
+2.81051752922E+007, +8.77064500769E+000, +5.74079230345E+002
+2.82704507513E+007, +8.61692814122E+000, +5.79170434362E+002
+2.84357262104E+007, +7.37447415061E+000, +5.83144513801E+002
+2.86010016694E+007, +6.82535878567E+000, +5.87448276540E+002
+2.87662771285E+007, +7.80268653216E+000, +5.91206684667E+002
+2.89315525876E+007, +9.63066623781E+000, +5.96426634576E+002
+2.90968280467E+007, +9.06763866862E+000, +5.99415954937E+002
+2.92621035058E+007, +7.96139485433E+000, +6.04285399746E+002
+2.94273789649E+007, +7.77129141814E+000, +6.06489729295E+002
+2.95926544240E+007, +6.58087295565E+000, +6.10311317843E+002
+2.97579298831E+007, +9.38335522861E+000, +6.13983121523E+002
+2.99232053422E+007, +8.54122249438E+000, +6.19109630554E+002
+3.00884808013E+007, +7.64037180643E+000, +6.23117234604E+002
+3.02537562604E+007, +9.53246087029E+000, +6.27660180821E+002
+3.04190317195E+007, +9.44784545440E+000, +6.31069421474E+002
+3.05843071786E+007, +9.47119687785E+000, +6.33746082362E+002
+3.07495826377E+007, +8.25044071008E+000, +6.39452987168E+002
+3.09148580968E+007, +7.63785966845E+000, +6.43879123881E+002
+3.10801335559E+007, +9.65216412952E+000, +6.46769651183E+002
+3.12454090150E+007, +9.07676713205E+000, +6.50921014641E+002
+3.14106844741E+007, +8.38455530605E+000, +6.55980099680E+002
+3.15759599332E+007, +9.36775409264E+000, +6.60382798107E+002
+3.17412353923E+007, +9.57451475678E+000, +6.65813416630E+002
+3.19065108514E+007, +9.36036707803E+000, +6.70206437426E+002
+3.20717863105E+007, +6.23582854568E+000, +6.72642977094E+002
+3.22370617696E+007, +8.79415334401E+000, +6.76186040784E+002
+3.24023372287E+007, +7.07086907602E+000, +6.83094480957E+002
+3.25676126878E+007, +9.86152023210E+000, +6.86704087258E+002
+3.27328881469E+007, +9.01570284334E+000, +6.89792131295E+002
+3.28981636060E+007, +6.11647795879E+000, +6.93136698456E+002
+3.30634390651E+007, +7.67755969727E+000, +6.99369651805E+002
+3.32287145242E+007, +8.65469358664E+000, +7.05976045501E+002
+3.33939899833E+007, +9.09459667824E+000, +7.08448130161E+002
+3.35592654424E+007, +8.12412485825E+000, +7.13110682922E+002
+3.37245409015E+007, +9.16530632421E+000, +7.18290459800E+002
+3.38898163606E+007, +7.68233674667E+000, +7.22626215253E+002
+3.40550918197E+007, +7.53682875121E+000, +7.26143995246E+002
+3.42203672788E+007, +1.00913742998E+001, +7.32503955527E+002
+3.43856427379E+007, +7.32073962114E+000, +7.37008189365E+002
+3.45509181970E+007, +8.46552976733E+000, +7.41456031794E+002
+3.47161936561E+007, +8.44093168037E+000, +7.46429425367E+002
+3.48814691152E+007, +7.75585259947E+000, +7.48835693196E+002
+3.50467445743E+007, +1.04475662306E+001, +7.55049850273E+002
+3.52120200334E+007, +1.14363295453E+001, +7.58030379866E+002
+3.53772954925E+007, +8.36211347419E+000, +7.61229471542E+002
+3.55425709516E+007, +8.07182089315E+000, +7.71830915229E+002
+3.57078464107E+007, +8.84895486425E+000, +7.73207238714E+002
+3.58731218698E+007, +1.01485244059E+001, +7.78487484130E+002
+3.60383973289E+007, +9.04309187688E+000, +7.84106800644E+002
+3.62036727880E+007, +7.81009937964E+000, +7.90802269532E+002
+3.63689482471E+007, +1.25668116459E+001, +7.95410657752E+002
+3.65342237062E+007, +7.74995972787E+000, +7.99165634535E+002
+3.66994991653E+007, +7.69244125754E+000, +8.06512308744E+002
+3.68647746244E+007, +1.09012134889E+001, +8.08339259406E+002
+3.70300500835E+007, +6.88112635149E+000, +8.14006516140E+002
+3.71953255426E+007, +1.15132172685E+001, +8.24019420633E+002
+3.73606010017E+007, +8.20754276714E+000, +8.30300548645E+002
+3.75258764608E+007, +8.55045728164E+000, +8.35573484223E+002
+3.76911519199E+007, +9.16985414317E+000, +8.39151903350E+002
+3.78564273790E+007, +6.17468496785E+000, +8.44915505636E+002
+3.80217028381E+007, +7.79470308001E+000, +8.49278075620E+002
+3.81869782972E+007, +8.78692249528E+000, +8.54114281495E+002
+3.83522537563E+007, +7.92168046218E+000, +8.64350887456E+002
+3.85175292154E+007, +9.06909940285E+000, +8.67991509184E+002
+3.86828046745E+007, +4.33456820082E+000, +8.73430576228E+002
+3.88480801336E+007, +9.21134136682E+000, +8.82413017489E+002
+3.90133555927E+007, +8.90739293189E+000, +8.89615456009E+002
+3.91786310518E+007, +8.99090119291E+000, +8.94691101020E+002
+3.93439065109E+007, +5.99932535637E+000, +8.99913284558E+002
+3.95091819699E+007, +1.13886781194E+001, +9.06229560708E+002
+3.96744574290E+007, +8.52969256117E+000, +9.09681753352E+002
+3.98397328881E+007, +6.37993913384E+000, +9.17502553039E+002
+4.00050083472E+007, +8.01552536688E+000, +9.29503873940E+002
+4.01702838063E+007, +7.17339120711E+000, +9.29173084875E+002
+4.03355592654E+007, +1.21821753915E+001, +9.36292535488E+002
+4.05008347245E+007, +1.29502832520E+001, +9.44145637563E+002
+4.06661101836E+007, +7.95140821739E+000, +9.45574855980E+002
+4.08313856427E+007, +6.66992590416E+000, +9.57787741819E+002
+4.09966611018E+007, +8.49242594612E+000, +9.62477898126E+002
+4.11619365609E+007, +1.37494714229E+001, +9.69507344650E+002
+4.13272120200E+007, +9.19921104688E+000, +9.73743724905E+002
+4.14924874791E+007, +1.13802973236E+001, +9.81553591548E+002
+4.16577629382E+007, +8.94128742721E+000, +9.88061371156E+002
+4.18230383973E+007, +8.83555510750E+000, +9.93645623736E+002
+4.19883138564E+007, +9.17190050366E+000, +1.00656311828E+003
+4.21535893155E+007, +8.55070956373E+000, +1.01003853358E+003
+4.23188647746E+007, +1.11922794282E+001, +1.01874916572E+003
+4.24841402337E+007, +7.33550816339E+000, +1.03137198780E+003
+4.26494156928E+007, +6.76547217521E+000, +1.03302535216E+003
+4.28146911519E+007, +1.48312538134E+001, +1.03653341637E+003
+4.29799666110E+007, +1.41593939745E+001, +1.05155670884E+003
+4.31452420701E+007, +1.07151499195E+001, +1.05831909299E+003
+4.33105175292E+007, +1.16946154304E+001, +1.06967575398E+003
+4.34757929883E+007, +8.81777901227E+000, +1.07407611345E+003
+4.36410684474E+007, +7.88350050348E+000, +1.08456771310E+003
+4.38063439065E+007, +9.04842015417E+000, +1.09134064768E+003
+4.39716193656E+007, +1.64557120352E+001, +1.09918114773E+003
+4.41368948247E+007, +1.07698521971E+001, +1.10791152650E+003
+4.43021702838E+007, +1.35674654299E+001, +1.11589378336E+003
+4.44674457429E+007, +1.55779515825E+001, +1.12465317590E+003
+4.46327212020E+007, +1.17931132844E+001, +1.12938178429E+003
+4.47979966611E+007, +1.56840107168E+001, +1.13916900723E+003
+4.49632721202E+007, +1.66628029318E+001, +1.15501797803E+003
+4.51285475793E+007, +1.31656806074E+001, +1.16622405250E+003
+4.52938230384E+007, +2.04884579149E+001, +1.17728162508E+003
+4.54590984975E+007, +1.38985785186E+001, +1.17798996724E+003
+4.56243739566E+007, +1.54246496979E+001, +1.19296445695E+003
+4.57896494157E+007, +2.21873541286E+001, +1.19562694510E+003
+4.59549248748E+007, +1.26674753668E+001, +1.21364141730E+003
+4.61202003339E+007, +1.34220797975E+001, +1.22564747568E+003
+4.62854757930E+007, +2.03484214996E+001, +1.23071057409E+003
+4.64507512521E+007, +2.57488713843E+001, +1.24195775330E+003
+4.66160267112E+007, +2.66443709197E+001, +1.26115402346E+003
+4.67813021703E+007, +2.44263394669E+001, +1.27075028482E+003
+4.69465776294E+007, +2.83080517714E+001, +1.27518773763E+003
+4.71118530885E+007, +2.96555796713E+001, +1.29388033272E+003
+4.72771285476E+007, +3.20000634190E+001, +1.30629121289E+003
+4.74424040067E+007, +3.35546738702E+001, +1.31571563996E+003
+4.76076794658E+007, +3.94735225044E+001, +1.32218434708E+003
+4.77729549249E+007, +3.43672592302E+001, +1.34295869192E+003
+4.79382303840E+007, +4.12180569755E+001, +1.34568450102E+003
+4.81035058431E+007, +4.59751579617E+001, +1.37055827109E+003
+4.82687813022E+007, +4.97301754121E+001, +1.36666546947E+003
+4.84340567613E+007, +5.37174820745E+001, +1.38531326761E+003
+4.85993322204E+007, +5.64335134022E+001, +1.40191140540E+003
+4.87646076795E+007, +5.99848479758E+001, +1.41289028767E+003
+4.89298831386E+007, +5.62822003180E+001, +1.41719854663E+003
+4.90951585977E+007, +6.69002958041E+001, +1.43301084087E+003
+4.92604340568E+007, +7.06563912944E+001, +1.45732155029E+003
+4.94257095159E+007, +7.61563826748E+001, +1.45480886081E+003
+4.95909849750E+007, +7.59680900039E+001, +1.46579587191E+003
+4.97562604341E+007, +8.24626395092E+001, +1.47563036070E+003
+4.99215358932E+007, +7.94088032307E+001, +1.49763610581E+003
+5.00868113523E+007, +7.52044613882E+001, +1.52522423196E+003
+5.02520868114E+007, +9.59813411335E+001, +1.52348656602E+003
+5.04173622705E+007, +9.39978289103E+001, +1.54556807505E+003
+5.05826377295E+007, +9.90194930153E+001, +1.53595289313E+003
+5.07479131886E+007, +9.96523002261E+001, +1.55899579159E+003
+5.09131886477E+007, +9.51628506449E+001, +1.56734926906E+003
+5.10784641068E+007, +1.09254404545E+002, +1.59160673028E+003
+5.12437395659E+007, +1.08075183129E+002, +1.60128088459E+003
+5.14090150250E+007, +1.15304564835E+002, +1.60504007719E+003
+5.15742904841E+007, +1.07565139034E+002, +1.63189963839E+003
+5.17395659432E+007, +1.20275551769E+002, +1.62749893384E+003
+5.19048414023E+007, +1.26467854771E+002, +1.65979487584E+003
+5.20701168614E+007, +1.12060642459E+002, +1.67679504845E+003
+5.22353923205E+007, +1.13466383298E+002, +1.69981653587E+003
+5.24006677796E+007, +9.97493676462E+001, +1.69275787757E+003
+5.25659432387E+007, +1.21066074249E+002, +1.73407467472E+003
+5.27312186978E+007, +1.29462608123E+002, +1.74514514353E+003
+5.28964941569E+007, +1.19361660027E+002, +1.77489040765E+003
+5.30617696160E+007, +1.17793236909E+002, +1.79878644992E+003
+5.32270450751E+007, +1.18926325123E+002, +1.80649726898E+003
+5.33923205342E+007, +1.03551478596E+002, +1.84712824664E+003
+5.35575959933E+007, +1.19738705789E+002, +1.86796126673E+003
+5.37228714524E+007, +1.25160520198E+002, +1.91373358555E+003
+5.38881469115E+007, +1.21399563888E+002, +1.91283909542E+003
