"# Channel 1"
"# Trace 1"
Frequency, Formatted Data, Formatted Data
+1.00000000000E+005, +4.03282261746E+001, +1.89621566652E+000
+2.25031289111E+005, +4.02809223748E+001, +4.49140597515E+000
+3.50062578223E+005, +4.03109713758E+001, +6.97902251383E+000
+4.75093867334E+005, +4.03302827076E+001, +9.45030490343E+000
+6.00125156446E+005, +4.03105342171E+001, +1.19573933655E+001
+7.25156445557E+005, +4.03138909224E+001, +1.44012944516E+001
+8.50187734668E+005, +4.03991061238E+001, +1.68792543570E+001
+9.75219023780E+005, +4.03378504754E+001, +1.93040671860E+001
+1.10025031289E+006, +4.03932910823E+001, +2.18449956906E+001
+1.22528160200E+006, +4.03406998306E+001, +2.42906401000E+001
+1.35031289111E+006, +4.04342778609E+001, +2.67229639001E+001
+1.47534418023E+006, +4.03878776696E+001, +2.91292849213E+001
+1.60037546934E+006, +4.03453307776E+001, +3.16403668545E+001
+1.72540675845E+006, +4.04204646596E+001, +3.41506103532E+001
+1.85043804756E+006, +4.04005276649E+001, +3.65485931762E+001
+1.97546933667E+006, +4.04025129670E+001, +3.89528965811E+001
+2.10050062578E+006, +4.04692583355E+001, +4.15358674078E+001
+2.22553191489E+006, +4.03885110134E+001, +4.39805325023E+001
+2.35056320401E+006, +4.04050762213E+001, +4.63860541014E+001
+2.47559449312E+006, +4.04319529553E+001, +4.89341807694E+001
+2.60062578223E+006, +4.05138609808E+001, +5.13775689103E+001
+2.72565707134E+006, +4.04285164235E+001, +5.38045499850E+001
+2.85068836045E+006, +4.04659739701E+001, +5.62440711678E+001
+2.97571964956E+006, +4.05308256891E+001, +5.87640390125E+001
+3.10075093867E+006, +4.05037236191E+001, +6.12794368180E+001
+3.22578222778E+006, +4.04548952809E+001, +6.37270992974E+001
+3.35081351690E+006, +4.04492194707E+001, +6.61683221618E+001
+3.47584480601E+006, +4.05752589786E+001, +6.86939085661E+001
+3.60087609512E+006, +4.05221666122E+001, +7.11731208345E+001
+3.72590738423E+006, +4.06820880938E+001, +7.35721056697E+001
+3.85093867334E+006, +4.06266482758E+001, +7.60397004961E+001
+3.97596996245E+006, +4.06875665797E+001, +7.84521715811E+001
+4.10100125156E+006, +4.08167722136E+001, +8.10883102005E+001
+4.22603254068E+006, +4.05354684791E+001, +8.34922636933E+001
+4.35106382979E+006, +4.08458860367E+001, +8.61081855970E+001
+4.47609511890E+006, +4.07821681132E+001, +8.84951234031E+001
+4.60112640801E+006, +4.06165604869E+001, +9.08795948001E+001
+4.72615769712E+006, +4.07902075498E+001, +9.35193374956E+001
+4.85118898623E+006, +4.07058893672E+001, +9.58682573003E+001
+4.97622027534E+006, +4.07973169980E+001, +9.85367312076E+001
+5.10125156446E+006, +4.08614682545E+001, +1.00924306786E+002
+5.22628285357E+006, +4.09387498446E+001, +1.03361608771E+002
+5.35131414268E+006, +4.09127422163E+001, +1.06029060511E+002
+5.47634543179E+006, +4.10529632606E+001, +1.08379273252E+002
+5.60137672090E+006, +4.10683911617E+001, +1.10911615069E+002
+5.72640801001E+006, +4.10441241510E+001, +1.13453181373E+002
+5.85143929912E+006, +4.09339359134E+001, +1.16000211079E+002
+5.97647058824E+006, +4.11549339577E+001, +1.18395156694E+002
+6.10150187735E+006, +4.11492946324E+001, +1.20912952231E+002
+6.22653316646E+006, +4.15036752496E+001, +1.23608874855E+002
+6.35156445557E+006, +4.13466904059E+001, +1.25994580295E+002
+6.47659574468E+006, +4.13421562038E+001, +1.28600141809E+002
+6.60162703379E+006, +4.14496789183E+001, +1.30935502927E+002
+6.72665832290E+006, +4.15002139094E+001, +1.33626698583E+002
+6.85168961202E+006, +4.15781411594E+001, +1.36111361505E+002
+6.97672090113E+006, +4.15655656759E+001, +1.38738188188E+002
+7.10175219024E+006, +4.15531183523E+001, +1.41123246275E+002
+7.22678347935E+006, +4.16664596864E+001, +1.43644016556E+002
+7.35181476846E+006, +4.16657145725E+001, +1.46233303284E+002
+7.47684605757E+006, +4.17675866444E+001, +1.48741359573E+002
+7.60187734668E+006, +4.17123427188E+001, +1.51343111529E+002
+7.72690863579E+006, +4.19341955310E+001, +1.53688695822E+002
+7.85193992491E+006, +4.19083374734E+001, +1.56416502819E+002
+7.97697121402E+006, +4.19910865087E+001, +1.58952557756E+002
+8.10200250313E+006, +4.20554486504E+001, +1.61492698363E+002
+8.22703379224E+006, +4.18936074173E+001, +1.64218104889E+002
+8.35206508135E+006, +4.20001946337E+001, +1.66756178103E+002
+8.47709637046E+006, +4.20647144476E+001, +1.69335506826E+002
+8.60212765957E+006, +4.23198206455E+001, +1.71877837458E+002
+8.72715894869E+006, +4.20930907184E+001, +1.74423794881E+002
+8.85219023780E+006, +4.21442198317E+001, +1.77285910430E+002
+8.97722152691E+006, +4.21665989465E+001, +1.79813645892E+002
+9.10225281602E+006, +4.22694650324E+001, +1.82500462389E+002
+9.22728410513E+006, +4.25939667159E+001, +1.84861532844E+002
+9.35231539424E+006, +4.22180535998E+001, +1.87770311782E+002
+9.47734668335E+006, +4.26017851095E+001, +1.90322181466E+002
+9.60237797247E+006, +4.24068446815E+001, +1.92866339141E+002
+9.72740926158E+006, +4.23927922954E+001, +1.95386376711E+002
+9.85244055069E+006, +4.25916881790E+001, +1.98099245799E+002
+9.97747183980E+006, +4.24923111200E+001, +2.00757814303E+002
+1.01025031289E+007, +4.22906661720E+001, +2.03425713039E+002
+1.02275344180E+007, +4.27204320345E+001, +2.05986350538E+002
+1.03525657071E+007, +4.28771484995E+001, +2.09017864214E+002
+1.04775969962E+007, +4.26530469048E+001, +2.11462607617E+002
+1.06026282854E+007, +4.27775724040E+001, +2.14116731258E+002
+1.07276595745E+007, +4.27309567250E+001, +2.16716589063E+002
+1.08526908636E+007, +4.30134843210E+001, +2.19342764607E+002
+1.09777221527E+007, +4.29172698907E+001, +2.21968408007E+002
+1.11027534418E+007, +4.29731747250E+001, +2.24623808089E+002
+1.12277847309E+007, +4.29205699069E+001, +2.27773691486E+002
+1.13528160200E+007, +4.30761287056E+001, +2.30224616533E+002
+1.14778473091E+007, +4.32389206051E+001, +2.33048295854E+002
+1.16028785982E+007, +4.31906879875E+001, +2.35778758880E+002
+1.17279098874E+007, +4.32730549737E+001, +2.38561140270E+002
+1.18529411765E+007, +4.37358349103E+001, +2.41188067743E+002
+1.19779724656E+007, +4.31939809256E+001, +2.44009088856E+002
+1.21030037547E+007, +4.34815506406E+001, +2.46349544388E+002
+1.22280350438E+007, +4.33554011480E+001, +2.49133353761E+002
+1.23530663329E+007, +4.36115992769E+001, +2.52217527966E+002
+1.24780976220E+007, +4.37809000757E+001, +2.54923665467E+002
+1.26031289111E+007, +4.38594853092E+001, +2.57645440131E+002
+1.27281602003E+007, +4.37245035913E+001, +2.60518518676E+002
+1.28531914894E+007, +4.40902677710E+001, +2.63496057042E+002
+1.29782227785E+007, +4.35541943092E+001, +2.66319092637E+002
+1.31032540676E+007, +4.39220291383E+001, +2.69054722711E+002
+1.32282853567E+007, +4.42124869966E+001, +2.71544685455E+002
+1.33533166458E+007, +4.42158518137E+001, +2.74691506969E+002
+1.34783479349E+007, +4.40581852560E+001, +2.77566051687E+002
+1.36033792240E+007, +4.44477166476E+001, +2.79756177250E+002
+1.37284105131E+007, +4.43120298622E+001, +2.82399184971E+002
+1.38534418023E+007, +4.48644268197E+001, +2.86060575668E+002
+1.39784730914E+007, +4.47082875362E+001, +2.88527990846E+002
+1.41035043805E+007, +4.47121986031E+001, +2.91937073124E+002
+1.42285356696E+007, +4.48061190553E+001, +2.94720153195E+002
+1.43535669587E+007, +4.49487844143E+001, +2.97580507224E+002
+1.44785982478E+007, +4.52406292212E+001, +3.00716797722E+002
+1.46036295369E+007, +4.51296121670E+001, +3.03232144396E+002
+1.47286608260E+007, +4.54220173638E+001, +3.06310534807E+002
+1.48536921151E+007, +4.50651843423E+001, +3.09216995848E+002
+1.49787234043E+007, +4.57460619627E+001, +3.12493647893E+002
+1.51037546934E+007, +4.50190534743E+001, +3.15195475129E+002
+1.52287859825E+007, +4.53316260054E+001, +3.18246476399E+002
+1.53538172716E+007, +4.55255547346E+001, +3.20482684704E+002
+1.54788485607E+007, +4.60985882210E+001, +3.24018086373E+002
+1.56038798498E+007, +4.58518593090E+001, +3.26984945717E+002
+1.57289111389E+007, +4.61216048234E+001, +3.30123517334E+002
+1.58539424280E+007, +4.66222130889E+001, +3.33476585677E+002
+1.59789737171E+007, +4.62365009783E+001, +3.36148226239E+002
+1.61040050063E+007, +4.62963679864E+001, +3.38342266156E+002
+1.62290362954E+007, +4.63300135696E+001, +3.41742491719E+002
+1.63540675845E+007, +4.67830222641E+001, +3.44834359530E+002
+1.64790988736E+007, +4.68488389585E+001, +3.47405520603E+002
+1.66041301627E+007, +4.63746751087E+001, +3.50484780220E+002
+1.67291614518E+007, +4.71114924001E+001, +3.53737491780E+002
+1.68541927409E+007, +4.71152536721E+001, +3.57143528916E+002
+1.69792240300E+007, +4.72706690940E+001, +3.59896377233E+002
+1.71042553191E+007, +4.65402349708E+001, +3.63852830388E+002
+1.72292866083E+007, +4.66076385982E+001, +3.66771940795E+002
+1.73543178974E+007, +4.70737463385E+001, +3.69533676702E+002
+1.74793491865E+007, +4.73533041856E+001, +3.73065685067E+002
+1.76043804756E+007, +4.72113644279E+001, +3.76559062693E+002
+1.77294117647E+007, +4.64522237757E+001, +3.79505561351E+002
+1.78544430538E+007, +4.84011285664E+001, +3.82131149159E+002
+1.79794743429E+007, +4.71200649112E+001, +3.85407889986E+002
+1.81045056320E+007, +4.83665608222E+001, +3.88892398475E+002
+1.82295369212E+007, +4.82108214021E+001, +3.92058736756E+002
+1.83545682103E+007, +4.81288185903E+001, +3.95213770408E+002
+1.84795994994E+007, +4.76881990581E+001, +3.98775933855E+002
+1.86046307885E+007, +4.84899214681E+001, +4.00904581807E+002
+1.87296620776E+007, +4.75421699585E+001, +4.04831795240E+002
+1.88546933667E+007, +4.84483337585E+001, +4.07336131212E+002
+1.89797246558E+007, +4.88186472120E+001, +4.11110763022E+002
+1.91047559449E+007, +4.99738757263E+001, +4.13374345620E+002
+1.92297872340E+007, +4.93063505554E+001, +4.17894775747E+002
+1.93548185232E+007, +5.00310963223E+001, +4.21606159681E+002
+1.94798498123E+007, +5.04794671289E+001, +4.24389258954E+002
+1.96048811014E+007, +5.01804213250E+001, +4.27647319263E+002
+1.97299123905E+007, +5.05741966624E+001, +4.31324923260E+002
+1.98549436796E+007, +5.06165273312E+001, +4.34149647194E+002
+1.99799749687E+007, +5.10366188939E+001, +4.37653444843E+002
+2.01050062578E+007, +5.03673123059E+001, +4.40156241005E+002
+2.02300375469E+007, +5.10163177427E+001, +4.44780541326E+002
+2.03550688360E+007, +5.07330375595E+001, +4.47858606246E+002
+2.04801001252E+007, +5.02980988948E+001, +4.52256028159E+002
+2.06051314143E+007, +5.20959971021E+001, +4.55501597354E+002
+2.07301627034E+007, +5.18540316162E+001, +4.58120373374E+002
+2.08551939925E+007, +5.23565665178E+001, +4.61833203522E+002
+2.09802252816E+007, +5.12089497042E+001, +4.65353717097E+002
+2.11052565707E+007, +5.34504963671E+001, +4.68273268368E+002
+2.12302878598E+007, +5.27247719723E+001, +4.72782900198E+002
+2.13553191489E+007, +5.30306369805E+001, +4.76631002499E+002
+2.14803504380E+007, +5.29132538390E+001, +4.79694701791E+002
+2.16053817272E+007, +5.37607217390E+001, +4.83343324428E+002
+2.17304130163E+007, +5.34650811939E+001, +4.88137499788E+002
+2.18554443054E+007, +5.43841561415E+001, +4.91097822580E+002
+2.19804755945E+007, +5.41783446851E+001, +4.93978792676E+002
+2.21055068836E+007, +5.38745804642E+001, +4.97122789243E+002
+2.22305381727E+007, +5.39947881137E+001, +5.00567067663E+002
+2.23555694618E+007, +5.49180086387E+001, +5.06760775184E+002
+2.24806007509E+007, +5.57739943445E+001, +5.09881772225E+002
+2.26056320401E+007, +5.50262459320E+001, +5.12692836907E+002
+2.27306633292E+007, +5.67368969609E+001, +5.17855970200E+002
+2.28556946183E+007, +5.67563686663E+001, +5.19331085828E+002
+2.29807259074E+007, +5.52675614763E+001, +5.23198939141E+002
+2.31057571965E+007, +5.65599609303E+001, +5.28278363643E+002
+2.32307884856E+007, +5.75024190073E+001, +5.31953103325E+002
+2.33558197747E+007, +5.80982361175E+001, +5.33865269947E+002
+2.34808510638E+007, +5.73775393624E+001, +5.39472881238E+002
+2.36058823529E+007, +5.85842563415E+001, +5.42324046603E+002
+2.37309136421E+007, +5.98758238122E+001, +5.45671601083E+002
+2.38559449312E+007, +5.92319784402E+001, +5.50078337079E+002
+2.39809762203E+007, +6.11680034476E+001, +5.52558894115E+002
+2.41060075094E+007, +6.10958733577E+001, +5.57790818232E+002
+2.42310387985E+007, +5.97045245564E+001, +5.60120913084E+002
+2.43560700876E+007, +6.07657094810E+001, +5.64479086200E+002
+2.44811013767E+007, +6.02036860337E+001, +5.67745055072E+002
+2.46061326658E+007, +6.08265647471E+001, +5.71222696353E+002
+2.47311639549E+007, +6.10654111928E+001, +5.75706457976E+002
+2.48561952441E+007, +6.25841647291E+001, +5.79424698283E+002
+2.49812265332E+007, +6.16717915719E+001, +5.83187861772E+002
+2.51062578223E+007, +6.24349218783E+001, +5.87263930472E+002
+2.52312891114E+007, +6.08031828994E+001, +5.90524603257E+002
+2.53563204005E+007, +6.24440754845E+001, +5.95214026719E+002
+2.54813516896E+007, +6.15066862511E+001, +5.99229733741E+002
+2.56063829787E+007, +6.27913097732E+001, +6.03460598794E+002
+2.57314142678E+007, +6.26589756435E+001, +6.08158151088E+002
+2.58564455569E+007, +6.36628146834E+001, +6.12612269576E+002
+2.59814768461E+007, +6.27187597503E+001, +6.17096257689E+002
+2.61065081352E+007, +6.23792391057E+001, +6.20879902811E+002
+2.62315394243E+007, +6.48176186048E+001, +6.24541367455E+002
+2.63565707134E+007, +6.43942372431E+001, +6.29962761802E+002
+2.64816020025E+007, +6.46486200826E+001, +6.34985537260E+002
+2.66066332916E+007, +6.35383402979E+001, +6.37158617352E+002
+2.67316645807E+007, +6.57706221937E+001, +6.43233976311E+002
+2.68566958698E+007, +6.52406190100E+001, +6.46620992479E+002
+2.69817271589E+007, +6.36189988686E+001, +6.51121826987E+002
+2.71067584481E+007, +6.60296040211E+001, +6.57204627596E+002
+2.72317897372E+007, +6.67548822252E+001, +6.60940093711E+002
+2.73568210263E+007, +6.63195289845E+001, +6.65269789439E+002
+2.74818523154E+007, +6.87382342104E+001, +6.69330984274E+002
+2.76068836045E+007, +6.86784825494E+001, +6.72291191556E+002
+2.77319148936E+007, +6.74047685618E+001, +6.77425929396E+002
+2.78569461827E+007, +6.74018978663E+001, +6.82474943491E+002
+2.79819774718E+007, +6.57331016747E+001, +6.88343862126E+002
+2.81070087610E+007, +6.73064242003E+001, +6.92946066877E+002
+2.82320400501E+007, +6.66360008728E+001, +6.97765855129E+002
+2.83570713392E+007, +6.80303268763E+001, +7.01778785145E+002
+2.84821026283E+007, +7.01192161997E+001, +7.07778639360E+002
+2.86071339174E+007, +6.86438532214E+001, +7.13655921815E+002
+2.87321652065E+007, +6.75885864996E+001, +7.16535916599E+002
+2.88571964956E+007, +7.03734076402E+001, +7.20471578261E+002
+2.89822277847E+007, +7.00710231163E+001, +7.26396848764E+002
+2.91072590738E+007, +6.90686302815E+001, +7.33468715195E+002
+2.92322903630E+007, +7.00333983786E+001, +7.35218472352E+002
+2.93573216521E+007, +7.08624671149E+001, +7.42770821612E+002
+2.94823529412E+007, +7.33082227185E+001, +7.47392413087E+002
+2.96073842303E+007, +7.25672507386E+001, +7.54395107003E+002
+2.97324155194E+007, +7.52481255551E+001, +7.57960450581E+002
+2.98574468085E+007, +7.21908172620E+001, +7.65937258755E+002
+2.99824780976E+007, +7.20875445146E+001, +7.69217964439E+002
+3.01075093867E+007, +7.39956267534E+001, +7.76470909558E+002
+3.02325406758E+007, +7.29213828824E+001, +7.78614520843E+002
+3.03575719650E+007, +7.51121964071E+001, +7.84397501824E+002
+3.04826032541E+007, +7.57595698416E+001, +7.88920755798E+002
+3.06076345432E+007, +7.22802049959E+001, +7.95421851836E+002
+3.07326658323E+007, +7.60090830875E+001, +8.01547026839E+002
+3.08576971214E+007, +7.54802197611E+001, +8.05428687349E+002
+3.09827284105E+007, +7.33724377840E+001, +8.08023258782E+002
+3.11077596996E+007, +7.74516330401E+001, +8.15406774243E+002
+3.12327909887E+007, +7.29777051615E+001, +8.24150930233E+002
+3.13578222778E+007, +7.53943643596E+001, +8.28208940628E+002
+3.14828535670E+007, +7.73989258603E+001, +8.36590806369E+002
+3.16078848561E+007, +7.68235474651E+001, +8.37671565938E+002
+3.17329161452E+007, +7.95778318568E+001, +8.47465830217E+002
+3.18579474343E+007, +8.19197056411E+001, +8.50250185595E+002
+3.19829787234E+007, +8.17743663829E+001, +8.61399272652E+002
+3.21080100125E+007, +7.54365725887E+001, +8.65876365866E+002
+3.22330413016E+007, +8.15328865893E+001, +8.64879613758E+002
+3.23580725907E+007, +7.98401823917E+001, +8.75744612521E+002
+3.24831038798E+007, +8.26619315194E+001, +8.83779269133E+002
+3.26081351690E+007, +8.03915795350E+001, +8.87949008781E+002
+3.27331664581E+007, +7.90012444963E+001, +8.95229223766E+002
+3.28581977472E+007, +7.97533955784E+001, +8.98643366256E+002
+3.29832290363E+007, +8.42085690764E+001, +9.08539135922E+002
+3.31082603254E+007, +8.08425424171E+001, +9.15022519053E+002
+3.32332916145E+007, +8.79115202298E+001, +9.21831331856E+002
+3.33583229036E+007, +8.37639814025E+001, +9.27216462146E+002
+3.34833541927E+007, +8.72603810663E+001, +9.36136062980E+002
+3.36083854819E+007, +8.86475912651E+001, +9.41860411716E+002
+3.37334167710E+007, +8.85100662221E+001, +9.46452622976E+002
+3.38584480601E+007, +8.80044550418E+001, +9.50255376263E+002
+3.39834793492E+007, +8.55909629244E+001, +9.59993233886E+002
+3.41085106383E+007, +9.24714484073E+001, +9.69425362170E+002
+3.42335419274E+007, +9.40912958342E+001, +9.75403445114E+002
+3.43585732165E+007, +8.96820101431E+001, +9.80026155943E+002
+3.44836045056E+007, +9.11333615939E+001, +9.91596320632E+002
+3.46086357947E+007, +9.31583937449E+001, +9.96923981180E+002
+3.47336670839E+007, +9.48079634723E+001, +1.00451855132E+003
+3.48586983730E+007, +9.63725153799E+001, +1.01237215893E+003
+3.49837296621E+007, +9.38062138672E+001, +1.01176200528E+003
+3.51087609512E+007, +9.50620821111E+001, +1.02739407716E+003
+3.52337922403E+007, +9.51757007451E+001, +1.03103175339E+003
+3.53588235294E+007, +9.65197283004E+001, +1.04353096561E+003
+3.54838548185E+007, +9.87507798607E+001, +1.05022909120E+003
+3.56088861076E+007, +1.05746959566E+002, +1.05298418804E+003
+3.57339173967E+007, +9.74733082213E+001, +1.06654777061E+003
+3.58589486859E+007, +9.89380371163E+001, +1.07194665724E+003
+3.59839799750E+007, +1.01245108363E+002, +1.07302198832E+003
+3.61090112641E+007, +9.64269004486E+001, +1.09076531954E+003
+3.62340425532E+007, +9.97081033082E+001, +1.09358630029E+003
+3.63590738423E+007, +1.04558963553E+002, +1.09899171647E+003
+3.64841051314E+007, +1.02731339869E+002, +1.11276443942E+003
+3.66091364205E+007, +1.13542898738E+002, +1.11516228871E+003
+3.67341677096E+007, +1.02317048607E+002, +1.12155682350E+003
+3.68591989987E+007, +1.14488967176E+002, +1.13210104078E+003
+3.69842302879E+007, +1.10832385511E+002, +1.14215013658E+003
+3.71092615770E+007, +1.06590846910E+002, +1.15521490954E+003
+3.72342928661E+007, +1.06388044051E+002, +1.16186689217E+003
+3.73593241552E+007, +1.17961643085E+002, +1.16904124680E+003
+3.74843554443E+007, +1.12472533685E+002, +1.17565663491E+003
+3.76093867334E+007, +1.20513913368E+002, +1.18942091448E+003
+3.77344180225E+007, +1.10855421094E+002, +1.19936278310E+003
+3.78594493116E+007, +1.15426835757E+002, +1.20489538154E+003
+3.79844806008E+007, +1.09593231346E+002, +1.21218755932E+003
+3.81095118899E+007, +1.14844980301E+002, +1.22529570307E+003
+3.82345431790E+007, +1.16805849812E+002, +1.22972610556E+003
+3.83595744681E+007, +1.12706010304E+002, +1.23788842515E+003
+3.84846057572E+007, +1.18028650942E+002, +1.25408701570E+003
+3.86096370463E+007, +1.22615907484E+002, +1.26528010119E+003
+3.87346683354E+007, +1.27538212324E+002, +1.28121283064E+003
+3.88596996245E+007, +1.20238700086E+002, +1.29006808979E+003
+3.89847309136E+007, +1.23133761083E+002, +1.29919148326E+003
+3.91097622028E+007, +1.32253078596E+002, +1.30265859551E+003
+3.92347934919E+007, +1.26942529916E+002, +1.32391033802E+003
+3.93598247810E+007, +1.29135751590E+002, +1.33008766333E+003
+3.94848560701E+007, +1.26833719495E+002, +1.34792068889E+003
+3.96098873592E+007, +1.39011777122E+002, +1.35172120968E+003
+3.97349186483E+007, +1.31509494664E+002, +1.36488356675E+003
+3.98599499374E+007, +1.33246290031E+002, +1.37578746802E+003
+3.99849812265E+007, +1.43073706851E+002, +1.39669601583E+003
+4.01100125156E+007, +1.43692688997E+002, +1.39915379182E+003
