"# Channel 1"
"# Trace 1"
Frequency, Formatted Data, Formatted Data
+1.00000000000E+005, +5.44743024811E-001, +1.76079923651E+000
+2.25031289111E+005, +5.14644968778E-001, +3.98517436650E+000
+3.50062578223E+005, +5.55957836556E-001, +6.21858975180E+000
+4.75093867334E+005, +5.58135084773E-001, +8.48186083215E+000
+6.00125156446E+005, +5.85999902189E-001, +1.06515487891E+001
+7.25156445557E+005, +6.21407525888E-001, +1.28551848277E+001
+8.50187734668E+005, +6.66241942348E-001, +1.50124380130E+001
+9.75219023780E+005, +6.82179641915E-001, +1.72797669999E+001
+1.10025031289E+006, +7.17623094280E-001, +1.94520846450E+001
+1.22528160200E+006, +7.26566756680E-001, +2.15723678811E+001
+1.35031289111E+006, +7.73036017351E-001, +2.38462086082E+001
+1.47534418023E+006, +7.97839012070E-001, +2.59858989910E+001
+1.60037546934E+006, +8.19941471612E-001, +2.81756365350E+001
+1.72540675845E+006, +8.31399805223E-001, +3.03411164788E+001
+1.85043804756E+006, +8.24229839421E-001, +3.24661758617E+001
+1.97546933667E+006, +9.80735596709E-001, +3.46748193002E+001
+2.10050062578E+006, +8.92346811683E-001, +3.68780157389E+001
+2.22553191489E+006, +9.33401638764E-001, +3.90011239926E+001
+2.35056320401E+006, +1.00554583764E+000, +4.11629368869E+001
+2.47559449312E+006, +9.70623043842E-001, +4.33967134521E+001
+2.60062578223E+006, +8.65094113268E-001, +4.55300672993E+001
+2.72565707134E+006, +9.56316994270E-001, +4.77002936920E+001
+2.85068836045E+006, +8.59660002470E-001, +4.99347293490E+001
+2.97571964956E+006, +1.00773434297E+000, +5.21207957605E+001
+3.10075093867E+006, +1.04375010043E+000, +5.42526698282E+001
+3.22578222778E+006, +1.04421916857E+000, +5.64488502898E+001
+3.35081351690E+006, +1.03456393949E+000, +5.85569272993E+001
+3.47584480601E+006, +9.73571281414E-001, +6.08124101637E+001
+3.60087609512E+006, +1.02690843037E+000, +6.30498806464E+001
+3.72590738423E+006, +1.05213878196E+000, +6.52185890698E+001
+3.85093867334E+006, +1.08901895244E+000, +6.73334672162E+001
+3.97596996245E+006, +1.10790937200E+000, +6.95253237511E+001
+4.10100125156E+006, +1.18664664472E+000, +7.16827431374E+001
+4.22603254068E+006, +1.02065294040E+000, +7.38879196862E+001
+4.35106382979E+006, +1.05899928822E+000, +7.59960493652E+001
+4.47609511890E+006, +1.04427671924E+000, +7.83002501355E+001
+4.60112640801E+006, +1.01780875419E+000, +8.06054919661E+001
+4.72615769712E+006, +1.10344566834E+000, +8.26018123926E+001
+4.85118898623E+006, +1.14245946091E+000, +8.48329688544E+001
+4.97622027534E+006, +1.28751395173E+000, +8.69372124540E+001
+5.10125156446E+006, +1.09837345634E+000, +8.93554130005E+001
+5.22628285357E+006, +1.04276487310E+000, +9.14134700247E+001
+5.35131414268E+006, +1.30732476776E+000, +9.36322323672E+001
+5.47634543179E+006, +1.24852577262E+000, +9.56699137573E+001
+5.60137672090E+006, +1.36008704597E+000, +9.80931166654E+001
+5.72640801001E+006, +1.16951740572E+000, +1.00270239599E+002
+5.85143929912E+006, +1.13667440615E+000, +1.02465800382E+002
+5.97647058824E+006, +1.37995187924E+000, +1.04563101274E+002
+6.10150187735E+006, +1.14036238942E+000, +1.07088735192E+002
+6.22653316646E+006, +1.34859395299E+000, +1.09282428489E+002
+6.35156445557E+006, +1.29573857182E+000, +1.11383325683E+002
+6.47659574468E+006, +1.43126825105E+000, +1.13671858613E+002
+6.60162703379E+006, +1.36599884105E+000, +1.15918001998E+002
+6.72665832290E+006, +1.41848346061E+000, +1.18208611460E+002
+6.85168961202E+006, +1.46876507837E+000, +1.20385667915E+002
+6.97672090113E+006, +1.57331841162E+000, +1.22632100097E+002
+7.10175219024E+006, +1.38602932131E+000, +1.24778255137E+002
+7.22678347935E+006, +1.39487992449E+000, +1.26930100403E+002
+7.35181476846E+006, +1.58122246202E+000, +1.29254019566E+002
+7.47684605757E+006, +1.56641937848E+000, +1.31424001880E+002
+7.60187734668E+006, +1.62568156601E+000, +1.33799532064E+002
+7.72690863579E+006, +1.60453946516E+000, +1.36205293201E+002
+7.85193992491E+006, +1.61195055742E+000, +1.38324847658E+002
+7.97697121402E+006, +1.39996036192E+000, +1.40460798460E+002
+8.10200250313E+006, +1.59539253863E+000, +1.42820819209E+002
+8.22703379224E+006, +1.66524639661E+000, +1.44920063225E+002
+8.35206508135E+006, +1.71211839983E+000, +1.47316954816E+002
+8.47709637046E+006, +1.75390750957E+000, +1.49616597381E+002
+8.60212765957E+006, +1.47951670676E+000, +1.51809415843E+002
+8.72715894869E+006, +1.58572795115E+000, +1.54202428699E+002
+8.85219023780E+006, +1.50309607663E+000, +1.56428033881E+002
+8.97722152691E+006, +1.46713943761E+000, +1.58568816931E+002
+9.10225281602E+006, +1.37093692911E+000, +1.60923462864E+002
+9.22728410513E+006, +1.48481759648E+000, +1.63185499748E+002
+9.35231539424E+006, +1.67196337148E+000, +1.65508481800E+002
+9.47734668335E+006, +1.72412894368E+000, +1.67765986202E+002
+9.60237797247E+006, +1.76664012298E+000, +1.70082186773E+002
+9.72740926158E+006, +1.80989111446E+000, +1.72302194772E+002
+9.85244055069E+006, +1.68757592286E+000, +1.74553424800E+002
+9.97747183980E+006, +1.74780052859E+000, +1.76920800321E+002
+1.01025031289E+007, +1.63815276438E+000, +1.79233994446E+002
+1.02275344180E+007, +1.68213311710E+000, +1.81620598355E+002
+1.03525657071E+007, +1.67944966293E+000, +1.83995567345E+002
+1.04775969962E+007, +1.56659770989E+000, +1.86115649492E+002
+1.06026282854E+007, +1.55500259937E+000, +1.88355531416E+002
+1.07276595745E+007, +1.80639728325E+000, +1.90791530407E+002
+1.08526908636E+007, +1.50058049578E+000, +1.93186442925E+002
+1.09777221527E+007, +1.75969366902E+000, +1.95406753562E+002
+1.11027534418E+007, +1.86281348940E+000, +1.97851351489E+002
+1.12277847309E+007, +1.58898524520E+000, +2.00047023482E+002
+1.13528160200E+007, +1.63277452511E+000, +2.02510517762E+002
+1.14778473091E+007, +1.58312335672E+000, +2.04833638785E+002
+1.16028785982E+007, +2.02655958406E+000, +2.06976301246E+002
+1.17279098874E+007, +1.75719803973E+000, +2.09497968062E+002
+1.18529411765E+007, +1.74685789308E+000, +2.12128502663E+002
+1.19779724656E+007, +1.66562233818E+000, +2.14289037345E+002
+1.21030037547E+007, +1.82181659632E+000, +2.16610496429E+002
+1.22280350438E+007, +1.62731837836E+000, +2.18950648937E+002
+1.23530663329E+007, +1.90546776544E+000, +2.21395142762E+002
+1.24780976220E+007, +1.45266551221E+000, +2.23910514606E+002
+1.26031289111E+007, +1.52451946141E+000, +2.26276651262E+002
+1.27281602003E+007, +1.75588511865E+000, +2.28545101875E+002
+1.28531914894E+007, +1.72919534700E+000, +2.30619286741E+002
+1.29782227785E+007, +1.59649083522E+000, +2.33538731131E+002
+1.31032540676E+007, +2.01109354788E+000, +2.35692635840E+002
+1.32282853567E+007, +1.47556474860E+000, +2.38172604943E+002
+1.33533166458E+007, +1.46925596712E+000, +2.40309704190E+002
+1.34783479349E+007, +1.49232686685E+000, +2.42845445821E+002
+1.36033792240E+007, +1.64091983009E+000, +2.45321935506E+002
+1.37284105131E+007, +1.69602265294E+000, +2.47820883933E+002
+1.38534418023E+007, +1.56367069365E+000, +2.50483059551E+002
+1.39784730914E+007, +1.63932482409E+000, +2.52804783709E+002
+1.41035043805E+007, +1.57172147615E+000, +2.54895159721E+002
+1.42285356696E+007, +1.75896912955E+000, +2.57264771394E+002
+1.43535669587E+007, +1.55099496199E+000, +2.60064229591E+002
+1.44785982478E+007, +1.57620075892E+000, +2.63034714305E+002
+1.46036295369E+007, +1.59975908520E+000, +2.65058565232E+002
+1.47286608260E+007, +1.23600162133E+000, +2.67766372312E+002
+1.48536921151E+007, +1.85663193867E+000, +2.69857706596E+002
+1.49787234043E+007, +1.63686230234E+000, +2.72830239543E+002
+1.51037546934E+007, +1.77769788439E+000, +2.75144221190E+002
+1.52287859825E+007, +1.60773854881E+000, +2.77974385179E+002
+1.53538172716E+007, +1.66755363125E+000, +2.80074053980E+002
+1.54788485607E+007, +1.48847787789E+000, +2.82929483343E+002
+1.56038798498E+007, +2.06319807763E+000, +2.84735422813E+002
+1.57289111389E+007, +1.73894612281E+000, +2.87758248431E+002
+1.58539424280E+007, +1.80842671569E+000, +2.89588970113E+002
+1.59789737171E+007, +1.78404550214E+000, +2.92956730205E+002
+1.61040050063E+007, +1.63109698413E+000, +2.95433745088E+002
+1.62290362954E+007, +1.61262643454E+000, +2.97727325017E+002
+1.63540675845E+007, +9.20534631981E-001, +3.00596558014E+002
+1.64790988736E+007, +1.78363723023E+000, +3.02970229026E+002
+1.66041301627E+007, +1.80065538229E+000, +3.05332640284E+002
+1.67291614518E+007, +1.38726960859E+000, +3.08195832598E+002
+1.68541927409E+007, +2.45700000832E+000, +3.10445344291E+002
+1.69792240300E+007, +1.73747812696E+000, +3.13608911187E+002
+1.71042553191E+007, +1.09577230162E+000, +3.15937918312E+002
+1.72292866083E+007, +1.22511263304E+000, +3.18386948117E+002
+1.73543178974E+007, +1.73849137912E+000, +3.21127425687E+002
+1.74793491865E+007, +1.47763218660E+000, +3.24157298990E+002
+1.76043804756E+007, +6.59254586202E-001, +3.26458425350E+002
+1.77294117647E+007, +1.15946040159E+000, +3.29460267123E+002
+1.78544430538E+007, +1.47353704440E+000, +3.31956139777E+002
+1.79794743429E+007, +1.34019050219E+000, +3.34353475506E+002
+1.81045056320E+007, +1.45774732110E+000, +3.37202540480E+002
+1.82295369212E+007, +1.33467704002E+000, +3.39716877635E+002
+1.83545682103E+007, +2.20116385937E+000, +3.42756956263E+002
+1.84795994994E+007, +1.32595542836E+000, +3.44897762349E+002
+1.86046307885E+007, +1.62570065064E+000, +3.48248946589E+002
+1.87296620776E+007, +1.25513133560E+000, +3.50892127113E+002
+1.88546933667E+007, +1.47184312590E+000, +3.53609589851E+002
+1.89797246558E+007, +2.05087444726E+000, +3.55947293320E+002
+1.91047559449E+007, +1.56408914425E+000, +3.59677441176E+002
+1.92297872340E+007, +7.23411199875E-001, +3.61943809139E+002
+1.93548185232E+007, +2.58256104286E+000, +3.64463310511E+002
+1.94798498123E+007, +1.84303776498E+000, +3.67261057583E+002
+1.96048811014E+007, +1.44401603471E+000, +3.69779199897E+002
+1.97299123905E+007, +1.22406217155E+000, +3.72853882513E+002
+1.98549436796E+007, +2.31201672585E+000, +3.74994227351E+002
+1.99799749687E+007, +1.42212786158E+000, +3.78784243770E+002
+2.01050062578E+007, +1.68463624346E+000, +3.81908873614E+002
+2.02300375469E+007, +1.52481870599E+000, +3.84241675388E+002
+2.03550688360E+007, +1.85810466152E+000, +3.86398784299E+002
+2.04801001252E+007, +1.74143718458E+000, +3.89683116818E+002
+2.06051314143E+007, +2.46074350188E+000, +3.92916517293E+002
+2.07301627034E+007, +1.61391069883E+000, +3.95195742558E+002
+2.08551939925E+007, +1.79633695528E+000, +3.98703493887E+002
+2.09802252816E+007, +1.75392546427E+000, +4.01568036957E+002
+2.11052565707E+007, +2.48730538949E+000, +4.04370966660E+002
+2.12302878598E+007, +1.19419050609E+000, +4.06681647593E+002
+2.13553191489E+007, +1.94230409428E+000, +4.10384163270E+002
+2.14803504380E+007, +2.31202120515E+000, +4.13381044260E+002
+2.16053817272E+007, +1.63275633707E+000, +4.16804070284E+002
+2.17304130163E+007, +2.22323622886E+000, +4.19368898864E+002
+2.18554443054E+007, +2.03897993392E+000, +4.21901125453E+002
+2.19804755945E+007, +5.07501439582E-001, +4.25342008951E+002
+2.21055068836E+007, +1.78219744359E+000, +4.29301246565E+002
+2.22305381727E+007, +2.98945999307E+000, +4.31453688160E+002
+2.23555694618E+007, +1.63343717635E+000, +4.33833391948E+002
+2.24806007509E+007, +2.90422816069E+000, +4.36740421991E+002
+2.26056320401E+007, +1.71963474509E+000, +4.41126140022E+002
+2.27306633292E+007, +2.22150354873E+000, +4.43902608003E+002
+2.28556946183E+007, +3.53178988902E+000, +4.46935442119E+002
+2.29807259074E+007, +3.15882093040E+000, +4.48921682743E+002
+2.31057571965E+007, +3.04606681258E+000, +4.52953143876E+002
+2.32307884856E+007, +3.10917468136E+000, +4.56043795573E+002
+2.33558197747E+007, +4.46365326992E+000, +4.59185052351E+002
+2.34808510638E+007, +3.40684754267E+000, +4.60819841898E+002
+2.36058823529E+007, +3.86850556303E+000, +4.64512251215E+002
+2.37309136421E+007, +4.46663890573E+000, +4.67517818442E+002
+2.38559449312E+007, +4.09453444830E+000, +4.70279782540E+002
+2.39809762203E+007, +4.16242238056E+000, +4.73907127568E+002
+2.41060075094E+007, +3.73436505316E+000, +4.78049340480E+002
+2.42310387985E+007, +3.94438848067E+000, +4.79080272906E+002
+2.43560700876E+007, +2.51529750346E+000, +4.83671054524E+002
+2.44811013767E+007, +3.36742421526E+000, +4.85505562252E+002
+2.46061326658E+007, +4.50802899908E+000, +4.88541034722E+002
+2.47311639549E+007, +3.02984913771E+000, +4.92096172022E+002
+2.48561952441E+007, +2.81881022511E+000, +4.95233556038E+002
+2.49812265332E+007, +2.49958251973E+000, +4.97418705697E+002
+2.51062578223E+007, +3.82469343663E+000, +5.01217448774E+002
+2.52312891114E+007, +4.54517409871E+000, +5.04429162110E+002
+2.53563204005E+007, +4.02360849421E+000, +5.09065250778E+002
+2.54813516896E+007, +2.61266054390E+000, +5.11241817324E+002
+2.56063829787E+007, +4.03203373838E+000, +5.15891865584E+002
+2.57314142678E+007, +4.11534348152E+000, +5.18817577048E+002
+2.58564455569E+007, +3.05117046508E+000, +5.22795807453E+002
+2.59814768461E+007, +3.35271585587E+000, +5.25259627179E+002
+2.61065081352E+007, +2.84741580246E+000, +5.28035395223E+002
+2.62315394243E+007, +3.55240403944E+000, +5.32914722237E+002
+2.63565707134E+007, +3.83318140258E+000, +5.35252388087E+002
+2.64816020025E+007, +2.42830610331E+000, +5.37240529216E+002
+2.66066332916E+007, +2.92469006900E+000, +5.42139050657E+002
+2.67316645807E+007, +3.68769874824E+000, +5.45494954114E+002
+2.68566958698E+007, +1.85153595532E+000, +5.48880030580E+002
+2.69817271589E+007, +3.58234700001E+000, +5.52704849779E+002
+2.71067584481E+007, +2.53785136046E+000, +5.57035630386E+002
+2.72317897372E+007, +1.42713110137E+000, +5.60628101537E+002
+2.73568210263E+007, +4.23843640868E+000, +5.62552967568E+002
+2.74818523154E+007, +2.18270330832E+000, +5.69140221681E+002
+2.76068836045E+007, +4.38563275013E+000, +5.70839471003E+002
+2.77319148936E+007, +3.16427991534E+000, +5.74544207756E+002
+2.78569461827E+007, +4.42790332664E+000, +5.78490028780E+002
+2.79819774718E+007, +2.42602308132E+000, +5.82184883812E+002
+2.81070087610E+007, +3.62848483595E+000, +5.82846488714E+002
+2.82320400501E+007, +4.25805480319E+000, +5.89326061720E+002
+2.83570713392E+007, +2.78438021221E+000, +5.92427796826E+002
+2.84821026283E+007, +2.10220787545E+000, +5.97523011159E+002
+2.86071339174E+007, +3.86625939831E+000, +5.99354396725E+002
+2.87321652065E+007, +2.70253808446E+000, +6.04697659741E+002
+2.88571964956E+007, +7.77460391346E-001, +6.07184552412E+002
+2.89822277847E+007, +3.20543082169E+000, +6.12551627820E+002
+2.91072590738E+007, +3.00563511186E+000, +6.14273399209E+002
+2.92322903630E+007, +3.35257040442E+000, +6.20412228824E+002
+2.93573216521E+007, +2.31858089103E+000, +6.23669996137E+002
+2.94823529412E+007, +1.41218076809E+000, +6.28334366198E+002
+2.96073842303E+007, +2.63743109809E+000, +6.31096500821E+002
+2.97324155194E+007, +1.72351692511E+000, +6.34205784783E+002
+2.98574468085E+007, +1.30644758055E+000, +6.39649486669E+002
+2.99824780976E+007, +1.29483378663E+000, +6.43623953292E+002
+3.01075093867E+007, +1.50019057279E+000, +6.47101360940E+002
+3.02325406758E+007, +2.22242149048E+000, +6.53491860755E+002
+3.03575719650E+007, +1.05117017821E+000, +6.56027092523E+002
+3.04826032541E+007, +2.05807381733E+000, +6.59914218613E+002
+3.06076345432E+007, +3.53008429526E-001, +6.63607570905E+002
+3.07326658323E+007, +1.52643183936E+000, +6.66940996539E+002
+3.08576971214E+007, +2.76860377777E+000, +6.71846579598E+002
+3.09827284105E+007, -3.80166291657E-001, +6.77579314230E+002
+3.11077596996E+007, +3.52697626059E-002, +6.82286856367E+002
+3.12327909887E+007, -1.68188338380E-001, +6.85739077732E+002
+3.13578222778E+007, +3.11972000621E-001, +6.90176940225E+002
+3.14828535670E+007, +1.93132765763E+000, +6.95229799773E+002
+3.16078848561E+007, -4.45618430074E-001, +6.99943470412E+002
+3.17329161452E+007, +1.36265159740E+000, +7.01993507068E+002
+3.18579474343E+007, +2.70511417189E+000, +7.07239109198E+002
+3.19829787234E+007, +4.95881003913E-003, +7.10165174178E+002
+3.21080100125E+007, -6.50209365715E-001, +7.17932981162E+002
+3.22330413016E+007, +1.70002725759E+000, +7.22823842036E+002
+3.23580725907E+007, -1.01450878588E+000, +7.25442762707E+002
+3.24831038798E+007, +2.11911133142E+000, +7.30523107791E+002
+3.26081351690E+007, -3.95513753199E-001, +7.36355090405E+002
+3.27331664581E+007, +1.58373965834E+000, +7.38681336944E+002
+3.28581977472E+007, -2.09685113338E+000, +7.44502892246E+002
+3.29832290363E+007, +6.15486172259E-001, +7.49645303929E+002
+3.31082603254E+007, +5.92273013754E-001, +7.55069753404E+002
+3.32332916145E+007, -1.11317852704E+000, +7.60094143759E+002
+3.33583229036E+007, -1.62225339562E+000, +7.62877080933E+002
+3.34833541927E+007, +5.45943335859E-001, +7.68718981963E+002
+3.36083854819E+007, +1.85044402324E+000, +7.73124810449E+002
+3.37334167710E+007, +2.18906971149E+000, +7.75960361184E+002
+3.38584480601E+007, +1.87843978648E+000, +7.85867192356E+002
+3.39834793492E+007, +9.02425734762E-001, +7.86250238151E+002
+3.41085106383E+007, -1.27575658102E+000, +7.93498681741E+002
+3.42335419274E+007, +1.94467667335E+000, +7.98744345840E+002
+3.43585732165E+007, -2.90596255378E-001, +8.04470664136E+002
+3.44836045056E+007, +3.71448663475E-001, +8.09655282409E+002
+3.46086357947E+007, +2.44939800802E+000, +8.12217144381E+002
+3.47336670839E+007, -8.82100025856E-001, +8.18638837961E+002
+3.48586983730E+007, +1.71796210920E+000, +8.23482300605E+002
+3.49837296621E+007, +4.12157700764E-002, +8.27700216321E+002
+3.51087609512E+007, -2.20645484239E+000, +8.33136034199E+002
+3.52337922403E+007, +4.36667429438E+000, +8.40474002485E+002
+3.53588235294E+007, +3.76873233374E-001, +8.45925296973E+002
+3.54838548185E+007, +2.17065406572E+000, +8.52334367902E+002
+3.56088861076E+007, +4.65805512307E-001, +8.57044823510E+002
+3.57339173967E+007, +1.27772568299E+000, +8.60974138202E+002
+3.58589486859E+007, -6.64950965186E-001, +8.68316711230E+002
+3.59839799750E+007, -6.83937727648E-001, +8.73190402678E+002
+3.61090112641E+007, +2.23185461739E+000, +8.76344723032E+002
+3.62340425532E+007, +1.77807995567E+000, +8.86593827846E+002
+3.63590738423E+007, -6.62270208519E-001, +8.88036958876E+002
+3.64841051314E+007, +5.30550445168E-001, +8.93398698780E+002
+3.66091364205E+007, -8.26711153141E-001, +8.99469812733E+002
+3.67341677096E+007, -3.76850720874E+000, +9.09162366433E+002
+3.68591989987E+007, +9.52449379413E-001, +9.09093687571E+002
+3.69842302879E+007, +1.70424974700E-001, +9.18576388260E+002
+3.71092615770E+007, +2.08033370962E+000, +9.23933181104E+002
+3.72342928661E+007, -4.86347788783E-001, +9.29855287729E+002
+3.73593241552E+007, +2.45700069404E-001, +9.40713183550E+002
+3.74843554443E+007, -3.44813871318E+000, +9.41918811342E+002
+3.76093867334E+007, +1.71147974515E+000, +9.49679139692E+002
+3.77344180225E+007, -2.13816816611E+000, +9.60057263162E+002
+3.78594493116E+007, -5.53961235041E+000, +9.60592194277E+002
+3.79844806008E+007, +1.64284527314E+000, +9.68646757305E+002
+3.81095118899E+007, +3.98016102608E+000, +9.79363328232E+002
+3.82345431790E+007, -1.13019377029E+000, +9.83947991114E+002
+3.83595744681E+007, +1.22157426391E+000, +9.91670048400E+002
+3.84846057572E+007, -2.30057741549E+000, +9.90414127746E+002
+3.86096370463E+007, -2.21455998615E-001, +1.00752207958E+003
+3.87346683354E+007, -3.06167298414E+000, +1.00223944449E+003
+3.88596996245E+007, +8.46061333877E-002, +1.01809614306E+003
+3.89847309136E+007, -5.27495326198E-001, +1.02389604581E+003
+3.91097622028E+007, -1.13144852147E+000, +1.03263093762E+003
+3.92347934919E+007, -2.77913548501E+000, +1.03613555879E+003
+3.93598247810E+007, -3.00773591706E+000, +1.04337690718E+003
+3.94848560701E+007, -1.15101404533E+000, +1.05392934901E+003
+3.96098873592E+007, -1.50972035817E+000, +1.06215641835E+003
+3.97349186483E+007, +3.13106774277E-001, +1.07234711119E+003
+3.98599499374E+007, -2.25729457394E+000, +1.08094860073E+003
+3.99849812265E+007, -1.20015669855E+000, +1.08141913919E+003
+4.01100125156E+007, +1.93352634428E+000, +1.09658533751E+003
