"# Channel 1"
"# Trace 1"
Frequency, Formatted Data, Formatted Data
+1.00000000000E+005, +3.25366361165E-001, +1.95014653367E+000
+2.66777963272E+005, +3.36514775193E-001, +5.17456439968E+000
+4.33555926544E+005, +3.76120837205E-001, +8.39273380912E+000
+6.00333889816E+005, +4.41403524864E-001, +1.15552399103E+001
+7.67111853088E+005, +4.85264083277E-001, +1.47515850421E+001
+9.33889816361E+005, +5.16737409282E-001, +1.78712367898E+001
+1.10066777963E+006, +4.85166335424E-001, +2.10537949316E+001
+1.26744574290E+006, +5.80551462090E-001, +2.41940477659E+001
+1.43422370618E+006, +5.16226916945E-001, +2.74008552342E+001
+1.60100166945E+006, +6.34578592459E-001, +3.05019458683E+001
+1.76777963272E+006, +6.33852393673E-001, +3.36410866980E+001
+1.93455759599E+006, +6.51944365767E-001, +3.67042023106E+001
+2.10133555927E+006, +6.50140528403E-001, +3.98599768570E+001
+2.26811352254E+006, +6.92530061087E-001, +4.30439431989E+001
+2.43489148581E+006, +6.81216911787E-001, +4.62614401145E+001
+2.60166944908E+006, +7.21553917099E-001, +4.92903236352E+001
+2.76844741235E+006, +6.76479585699E-001, +5.25695669035E+001
+2.93522537563E+006, +6.55923045553E-001, +5.56644978659E+001
+3.10200333890E+006, +8.35056824878E-001, +5.87714041278E+001
+3.26878130217E+006, +6.34049620209E-001, +6.19858532581E+001
+3.43555926544E+006, +7.46930819615E-001, +6.51363821214E+001
+3.60233722871E+006, +7.72063655815E-001, +6.83666068555E+001
+3.76911519199E+006, +7.13239006413E-001, +7.16195136006E+001
+3.93589315526E+006, +6.44709334760E-001, +7.46065578822E+001
+4.10267111853E+006, +7.02694144550E-001, +7.79215571655E+001
+4.26944908180E+006, +7.46183075063E-001, +8.12339306273E+001
+4.43622704508E+006, +6.91835967486E-001, +8.42351132166E+001
+4.60300500835E+006, +7.51503532605E-001, +8.75098008261E+001
+4.76978297162E+006, +6.80484981759E-001, +9.05579878420E+001
+4.93656093489E+006, +8.84783312823E-001, +9.38463242804E+001
+5.10333889816E+006, +8.99316674199E-001, +9.69662505213E+001
+5.27011686144E+006, +9.21248629133E-001, +1.00461213102E+002
+5.43689482471E+006, +8.02470824007E-001, +1.03598462763E+002
+5.60367278798E+006, +8.63625313318E-001, +1.07005326837E+002
+5.77045075125E+006, +8.53142975613E-001, +1.09920615463E+002
+5.93722871452E+006, +1.02917026035E+000, +1.13209928615E+002
+6.10400667780E+006, +8.10204468948E-001, +1.16572732933E+002
+6.27078464107E+006, +1.05461134041E+000, +1.19766354798E+002
+6.43756260434E+006, +1.07387333981E+000, +1.23026084502E+002
+6.60434056761E+006, +1.17180121163E+000, +1.26171878450E+002
+6.77111853088E+006, +1.27892743352E+000, +1.29409303513E+002
+6.93789649416E+006, +1.21998360711E+000, +1.32795405136E+002
+7.10467445743E+006, +1.21553164576E+000, +1.35926173233E+002
+7.27145242070E+006, +1.27384049365E+000, +1.39163982891E+002
+7.43823038397E+006, +1.36670901258E+000, +1.42337868764E+002
+7.60500834725E+006, +1.21477258008E+000, +1.45717870237E+002
+7.77178631052E+006, +1.33879498538E+000, +1.49165620948E+002
+7.93856427379E+006, +1.26576087134E+000, +1.52131851191E+002
+8.10534223706E+006, +1.35253869488E+000, +1.55576623552E+002
+8.27212020033E+006, +1.28229424252E+000, +1.58869214164E+002
+8.43889816361E+006, +1.13483596166E+000, +1.62281217028E+002
+8.60567612688E+006, +1.07672933871E+000, +1.65601898199E+002
+8.77245409015E+006, +1.22921673528E+000, +1.68628012132E+002
+8.93923205342E+006, +1.14875858556E+000, +1.72146972172E+002
+9.10601001669E+006, +1.28374610919E+000, +1.75757400931E+002
+9.27278797997E+006, +1.21520996578E+000, +1.79056561163E+002
+9.43956594324E+006, +1.22012981381E+000, +1.82177044725E+002
+9.60634390651E+006, +1.21436880344E+000, +1.85647001363E+002
+9.77312186978E+006, +1.00030530041E+000, +1.88952545747E+002
+9.93989983306E+006, +1.16737514572E+000, +1.92554605011E+002
+1.01066777963E+007, +9.90943006884E-001, +1.95759575795E+002
+1.02734557596E+007, +9.85731019935E-001, +1.99157347031E+002
+1.04402337229E+007, +8.80320910793E-001, +2.02781916809E+002
+1.06070116861E+007, +6.81065585246E-001, +2.06096153067E+002
+1.07737896494E+007, +1.02891145636E+000, +2.09584860187E+002
+1.09405676127E+007, +1.10187132387E+000, +2.13110722876E+002
+1.11073455760E+007, +7.85581427548E-001, +2.16430502468E+002
+1.12741235392E+007, +1.00731391202E+000, +2.20102687467E+002
+1.14409015025E+007, +8.89926467060E-001, +2.23607563122E+002
+1.16076794658E+007, +1.05469388296E+000, +2.27145007303E+002
+1.17744574290E+007, +1.01681073924E+000, +2.31049378847E+002
+1.19412353923E+007, +9.31357626216E-001, +2.34438055232E+002
+1.21080133556E+007, +4.61752539443E-001, +2.37942058710E+002
+1.22747913189E+007, +8.98644157966E-001, +2.41493058805E+002
+1.24415692821E+007, +6.67699326442E-001, +2.45127659743E+002
+1.26083472454E+007, +6.77492913754E-001, +2.48439235730E+002
+1.27751252087E+007, +8.28653462861E-001, +2.52158900668E+002
+1.29419031720E+007, +5.17543127715E-001, +2.55368058197E+002
+1.31086811352E+007, +5.91796134048E-001, +2.59443566736E+002
+1.32754590985E+007, +8.18743135785E-001, +2.62898789973E+002
+1.34422370618E+007, +3.41762921081E-001, +2.66548194005E+002
+1.36090150250E+007, +7.66790867924E-001, +2.70344410241E+002
+1.37757929883E+007, +4.70214647390E-001, +2.73541006326E+002
+1.39425709516E+007, +6.46679127454E-001, +2.77379101914E+002
+1.41093489149E+007, +6.20339331420E-001, +2.81394811705E+002
+1.42761268781E+007, +9.09277785915E-001, +2.85052591381E+002
+1.44429048414E+007, +8.37363610944E-001, +2.88841741886E+002
+1.46096828047E+007, +4.50202108804E-001, +2.92399262454E+002
+1.47764607679E+007, +6.64833013249E-001, +2.96395511624E+002
+1.49432387312E+007, +7.50783679135E-001, +3.00235041453E+002
+1.51100166945E+007, +7.75929603532E-001, +3.04101616811E+002
+1.52767946578E+007, +1.06670463682E+000, +3.07704591719E+002
+1.54435726210E+007, +8.68614262527E-001, +3.11336060866E+002
+1.56103505843E+007, +1.15511824616E+000, +3.15773500068E+002
+1.57771285476E+007, +8.45998097785E-001, +3.18951536899E+002
+1.59439065109E+007, +1.38653172047E+000, +3.23220503003E+002
+1.61106844741E+007, +8.95869464263E-001, +3.26927743405E+002
+1.62774624374E+007, +1.07194746807E+000, +3.30736165759E+002
+1.64442404007E+007, +5.46341604130E-001, +3.34734531867E+002
+1.66110183639E+007, +1.03799246182E+000, +3.38915915399E+002
+1.67777963272E+007, +6.29413252275E-001, +3.43177221871E+002
+1.69445742905E+007, +1.27632578756E+000, +3.47101045932E+002
+1.71113522538E+007, -5.85412622899E-001, +3.50038502943E+002
+1.72781302170E+007, +2.58464018626E-001, +3.54518823230E+002
+1.74449081803E+007, -2.23187226386E-002, +3.58395747664E+002
+1.76116861436E+007, +1.02469863316E+000, +3.63264331400E+002
+1.77784641068E+007, +6.55481509518E-001, +3.66686807651E+002
+1.79452420701E+007, +8.43569694064E-001, +3.70401376974E+002
+1.81120200334E+007, +8.78948621762E-001, +3.74367646141E+002
+1.82787979967E+007, +1.03334734367E+000, +3.79540780966E+002
+1.84455759599E+007, +9.89198736002E-001, +3.83773483906E+002
+1.86123539232E+007, +1.33075579989E+000, +3.87642574134E+002
+1.87791318865E+007, +4.47348832356E-001, +3.92242251603E+002
+1.89459098497E+007, +4.05634391948E-001, +3.96218839453E+002
+1.91126878130E+007, +1.10206155211E+000, +4.00411566496E+002
+1.92794657763E+007, +1.13611463851E+000, +4.05355891771E+002
+1.94462437396E+007, +1.49823850860E+000, +4.09314955488E+002
+1.96130217028E+007, +7.93814324007E-001, +4.14029310487E+002
+1.97797996661E+007, +1.20640186699E+000, +4.18182099286E+002
+1.99465776294E+007, +5.98535505172E-001, +4.23186319407E+002
+2.01133555927E+007, +1.66393043319E-001, +4.26740798720E+002
+2.02801335559E+007, +8.86555078158E-001, +4.31993721626E+002
+2.04469115192E+007, +2.13981985795E+000, +4.36237805307E+002
+2.06136894825E+007, +6.25067341768E-001, +4.40420081617E+002
+2.07804674457E+007, +1.32375605276E+000, +4.45864957600E+002
+2.09472454090E+007, +4.98630061073E-001, +4.50089129251E+002
+2.11140233723E+007, +1.87017653754E+000, +4.54356304463E+002
+2.12808013356E+007, +1.64364575500E+000, +4.58407951443E+002
+2.14475792988E+007, +1.54904983059E+000, +4.63994080234E+002
+2.16143572621E+007, +2.87997841143E+000, +4.67713688065E+002
+2.17811352254E+007, +2.07641991640E+000, +4.72329490586E+002
+2.19479131886E+007, +3.00155887821E+000, +4.78064824896E+002
+2.21146911519E+007, +3.14014546145E+000, +4.81868570113E+002
+2.22814691152E+007, +1.96064708859E+000, +4.87112824936E+002
+2.24482470785E+007, +2.46803065155E+000, +4.92749436157E+002
+2.26150250417E+007, +3.49869953774E+000, +4.97026908664E+002
+2.27818030050E+007, +3.28691782975E+000, +5.01828080428E+002
+2.29485809683E+007, +4.57823032807E+000, +5.06391149388E+002
+2.31153589316E+007, +2.52415059269E+000, +5.13464829509E+002
+2.32821368948E+007, +3.69970913758E+000, +5.17134958384E+002
+2.34489148581E+007, +4.43371830606E+000, +5.21544575238E+002
+2.36156928214E+007, +5.26017925685E+000, +5.27203689466E+002
+2.37824707846E+007, +6.40392298230E+000, +5.31468397151E+002
+2.39492487479E+007, +4.65294230783E+000, +5.37719027838E+002
+2.41160267112E+007, +4.72402509406E+000, +5.42099003264E+002
+2.42828046745E+007, +6.19120797927E+000, +5.48699299669E+002
+2.44495826377E+007, +6.71795363044E+000, +5.54873385615E+002
+2.46163606010E+007, +5.65839124857E+000, +5.57624815381E+002
+2.47831385643E+007, +5.27795573499E+000, +5.64751631752E+002
+2.49499165275E+007, +7.97197302139E+000, +5.69249949588E+002
+2.51166944908E+007, +8.43306260253E+000, +5.73625379634E+002
+2.52834724541E+007, +8.29260811413E+000, +5.80343031273E+002
+2.54502504174E+007, +8.48748865449E+000, +5.85916821602E+002
+2.56170283806E+007, +8.79404949956E+000, +5.90498631939E+002
+2.57838063439E+007, +8.74345596330E+000, +5.96351161407E+002
+2.59505843072E+007, +9.55776929400E+000, +6.03759514794E+002
+2.61173622705E+007, +1.02498408960E+001, +6.07596434263E+002
+2.62841402337E+007, +1.09991061377E+001, +6.13431060093E+002
+2.64509181970E+007, +9.19848030108E+000, +6.18726364152E+002
+2.66176961603E+007, +1.00713729765E+001, +6.26867402687E+002
+2.67844741235E+007, +1.13884036284E+001, +6.30771968486E+002
+2.69512520868E+007, +1.02298946477E+001, +6.34691416904E+002
+2.71180300501E+007, +1.26131536892E+001, +6.40096047896E+002
+2.72848080134E+007, +1.34937569375E+001, +6.46459974987E+002
+2.74515859766E+007, +1.28520663577E+001, +6.51913485029E+002
+2.76183639399E+007, +1.19730396681E+001, +6.57979704025E+002
+2.77851419032E+007, +1.11336902951E+001, +6.62035309896E+002
+2.79519198664E+007, +1.17331433055E+001, +6.70160186439E+002
+2.81186978297E+007, +1.30388864724E+001, +6.73232920383E+002
+2.82854757930E+007, +1.37534396991E+001, +6.79854844586E+002
+2.84522537563E+007, +8.65218166606E+000, +6.85999194784E+002
+2.86190317195E+007, +1.04663196378E+001, +6.92737142527E+002
+2.87858096828E+007, +1.49655712526E+001, +6.98424732083E+002
+2.89525876461E+007, +1.24032830570E+001, +7.07693325223E+002
+2.91193656093E+007, +1.04871232038E+001, +7.09976105387E+002
+2.92861435726E+007, +9.41267091143E+000, +7.16493232930E+002
+2.94529215359E+007, +1.06209493302E+001, +7.25255791410E+002
+2.96196994992E+007, +1.19086950535E+001, +7.34987268251E+002
+2.97864774624E+007, +1.36297746911E+001, +7.41631984109E+002
+2.99532554257E+007, +1.16301097609E+001, +7.47325951296E+002
+3.01200333890E+007, +1.20694798185E+001, +7.53785442710E+002
+3.02868113523E+007, +1.21403225379E+001, +7.62248814228E+002
+3.04535893155E+007, +8.96263736041E+000, +7.71661585372E+002
+3.06203672788E+007, +1.34883435665E+001, +7.76899105293E+002
+3.07871452421E+007, +1.01403705738E+001, +7.85664276950E+002
+3.09539232053E+007, +1.22216638308E+001, +7.88521343211E+002
+3.11207011686E+007, +8.52049434161E+000, +8.02186251942E+002
+3.12874791319E+007, +9.37889573108E+000, +8.06764856277E+002
+3.14542570952E+007, +1.20699882428E+001, +8.12619918745E+002
+3.16210350584E+007, +9.97869504326E+000, +8.20749248096E+002
+3.17878130217E+007, +8.44611932607E+000, +8.31674746577E+002
+3.19545909850E+007, +1.06194579030E+001, +8.39655709774E+002
+3.21213689482E+007, +7.77124069900E+000, +8.50463573984E+002
+3.22881469115E+007, +1.32220762850E+001, +8.53391926151E+002
+3.24549248748E+007, +1.16341908138E+001, +8.64482600026E+002
+3.26217028381E+007, +8.18795080705E+000, +8.72540003912E+002
+3.27884808013E+007, +1.13647889476E+001, +8.82611474027E+002
+3.29552587646E+007, +1.26514864431E+001, +8.89691564675E+002
+3.31220367279E+007, +1.13129305534E+001, +8.96763027232E+002
+3.32888146912E+007, +1.33325366864E+001, +9.11964678622E+002
+3.34555926544E+007, +7.16334063855E+000, +9.16912794016E+002
+3.36223706177E+007, +1.30753179329E+001, +9.24323057206E+002
+3.37891485810E+007, +1.25863830707E+001, +9.29170492406E+002
+3.39559265442E+007, +1.24760814849E+001, +9.44458918644E+002
+3.41227045075E+007, +1.18857945268E+001, +9.53149950897E+002
+3.42894824708E+007, +1.12396252678E+001, +9.62856353392E+002
+3.44562604341E+007, +1.35279090406E+001, +9.74444804651E+002
+3.46230383973E+007, +1.43864676844E+001, +9.86677448125E+002
+3.47898163606E+007, +1.23708099900E+001, +9.91113775944E+002
+3.49565943239E+007, +2.07735082612E+001, +1.00389782594E+003
+3.51233722871E+007, +1.24585213862E+001, +1.01585349408E+003
+3.52901502504E+007, +1.47742557682E+001, +1.02133789182E+003
+3.54569282137E+007, +1.16623411500E+001, +1.03888671883E+003
+3.56237061770E+007, +9.59987436922E+000, +1.04550345957E+003
+3.57904841402E+007, +1.20631012544E+001, +1.06083787672E+003
+3.59572621035E+007, +1.43343052744E+001, +1.07124512258E+003
+3.61240400668E+007, +1.76543725889E+001, +1.08581590883E+003
+3.62908180301E+007, +1.59549859084E+001, +1.10054027742E+003
+3.64575959933E+007, +1.13093166587E+001, +1.11115577698E+003
+3.66243739566E+007, +1.78600185204E+001, +1.11482712865E+003
+3.67911519199E+007, +1.90448081613E+001, +1.13179091767E+003
+3.69579298831E+007, +1.50660454869E+001, +1.14274309533E+003
+3.71247078464E+007, +1.24849007492E+001, +1.15751051218E+003
+3.72914858097E+007, +1.40161385422E+001, +1.17337357823E+003
+3.74582637730E+007, +2.42083805516E+001, +1.19485127193E+003
+3.76250417362E+007, +2.14202012366E+001, +1.19838408204E+003
+3.77918196995E+007, +2.08482766081E+001, +1.21447978383E+003
+3.79585976628E+007, +1.62198550709E+001, +1.22680851781E+003
+3.81253756260E+007, +2.29615163388E+001, +1.24613220179E+003
+3.82921535893E+007, +2.62261007685E+001, +1.25593938996E+003
+3.84589315526E+007, +2.42759959913E+001, +1.27267187318E+003
+3.86257095159E+007, +2.10541694733E+001, +1.29112100684E+003
+3.87924874791E+007, +1.66865385205E+001, +1.30771893444E+003
+3.89592654424E+007, +2.51663851568E+001, +1.31845465146E+003
+3.91260434057E+007, +3.04152262374E+001, +1.34378301839E+003
+3.92928213689E+007, +3.15629682964E+001, +1.34978021344E+003
+3.94595993322E+007, +2.53267619342E+001, +1.37239006747E+003
+3.96263772955E+007, +3.11539786134E+001, +1.38240058013E+003
+3.97931552588E+007, +3.06230446718E+001, +1.41029540000E+003
+3.99599332220E+007, +2.77517141609E+001, +1.42670142626E+003
+4.01267111853E+007, +3.16666595301E+001, +1.44615730095E+003
+4.02934891486E+007, +3.22811437254E+001, +1.45477208176E+003
+4.04602671119E+007, +4.26821850692E+001, +1.47524271024E+003
+4.06270450751E+007, +4.37423756553E+001, +1.49796277276E+003
+4.07938230384E+007, +3.88819201348E+001, +1.51912469986E+003
+4.09606010017E+007, +4.26932534777E+001, +1.54145215267E+003
+4.11273789649E+007, +4.51709669199E+001, +1.56023459950E+003
+4.12941569282E+007, +3.38819671005E+001, +1.58668434424E+003
+4.14609348915E+007, +4.95429449672E+001, +1.62854718073E+003
+4.16277128548E+007, +5.23163017851E+001, +1.63674578015E+003
+4.17944908180E+007, +4.95756222460E+001, +1.65488141168E+003
+4.19612687813E+007, +5.55750968742E+001, +1.66904610725E+003
+4.21280467446E+007, +5.55847961395E+001, +1.70857645056E+003
+4.22948247078E+007, +6.04005675905E+001, +1.74615607642E+003
+4.24616026711E+007, +7.02479179676E+001, +1.75724526740E+003
+4.26283806344E+007, +7.62949641320E+001, +1.79554126112E+003
+4.27951585977E+007, +4.36876582859E+001, +1.82454217341E+003
+4.29619365609E+007, +7.34223890518E+001, +1.85607138930E+003
+4.31287145242E+007, +7.43721880266E+001, +1.88902138483E+003
+4.32954924875E+007, +7.01271499907E+001, +1.90252849831E+003
+4.34622704508E+007, +7.30814234626E+001, +1.94750216721E+003
+4.36290484140E+007, +9.20590310586E+001, +1.97340893684E+003
+4.37958263773E+007, +7.57857055946E+001, +2.02770978853E+003
+4.39626043406E+007, +9.55816419810E+001, +2.05767175197E+003
+4.41293823038E+007, +1.03431258266E+002, +2.09187036581E+003
+4.42961602671E+007, +1.00046964365E+002, +2.13165980717E+003
+4.44629382304E+007, +8.81314543376E+001, +2.17571280362E+003
+4.46297161937E+007, +1.15591797319E+002, +2.19869465402E+003
+4.47964941569E+007, +9.86571576670E+001, +2.26918385495E+003
+4.49632721202E+007, +1.18245472328E+002, +2.29874889806E+003
+4.51300500835E+007, +1.20490666092E+002, +2.31386600787E+003
+4.52968280467E+007, +1.39457954043E+002, +2.38666690679E+003
+4.54636060100E+007, +1.60623595686E+002, +2.46037145379E+003
+4.56303839733E+007, +1.42917364809E+002, +2.50368219673E+003
+4.57971619366E+007, +1.60793624901E+002, +2.57736475181E+003
+4.59639398998E+007, +1.75488395449E+002, +2.65724731717E+003
+4.61307178631E+007, +1.99272751227E+002, +2.68584913710E+003
+4.62974958264E+007, +2.29992777088E+002, +2.78156303468E+003
+4.64642737896E+007, +2.08781517468E+002, +2.81799181586E+003
+4.66310517529E+007, +2.28108298472E+002, +2.90025905044E+003
+4.67978297162E+007, +2.87863946284E+002, +2.96880225883E+003
+4.69646076795E+007, +2.81503282538E+002, +3.05483439656E+003
+4.71313856427E+007, +3.21268770690E+002, +3.11506503689E+003
+4.72981636060E+007, +3.55356303258E+002, +3.24064056071E+003
+4.74649415693E+007, +3.54632243170E+002, +3.28991939738E+003
+4.76317195326E+007, +4.87204744088E+002, +3.33446569922E+003
+4.77984974958E+007, +5.22217852704E+002, +3.46286088100E+003
+4.79652754591E+007, +5.31683826985E+002, +3.58780931935E+003
+4.81320534224E+007, +5.39475574217E+002, +3.63465812585E+003
+4.82988313856E+007, +5.96075220894E+002, +3.80325152359E+003
+4.84656093489E+007, +6.84848157769E+002, +3.84394807631E+003
+4.86323873122E+007, +8.03869992113E+002, +3.91861338879E+003
+4.87991652755E+007, +9.14159934502E+002, +4.15001549250E+003
+4.89659432387E+007, +9.05490099638E+002, +4.19913589758E+003
+4.91327212020E+007, +1.05135011173E+003, +4.35635185502E+003
+4.92994991653E+007, +1.15338705610E+003, +4.45339365186E+003
+4.94662771285E+007, +1.27251335010E+003, +4.57654734540E+003
+4.96330550918E+007, +1.41561831892E+003, +4.73293292420E+003
+4.97998330551E+007, +1.59833441928E+003, +4.83499989797E+003
+4.99666110184E+007, +1.68958414508E+003, +4.93922738389E+003
+5.01333889816E+007, +1.66707907550E+003, +5.08007493092E+003
+5.03001669449E+007, +1.86401027152E+003, +5.29122214441E+003
+5.04669449082E+007, +2.15836807328E+003, +5.43963066043E+003
+5.06337228715E+007, +2.36419202975E+003, +5.52769092747E+003
+5.08005008347E+007, +2.26524385982E+003, +5.70255027924E+003
+5.09672787980E+007, +2.56939125108E+003, +5.79219730281E+003
+5.11340567613E+007, +2.96470751278E+003, +6.05039703501E+003
+5.13008347245E+007, +2.99743826791E+003, +6.36363892879E+003
+5.14676126878E+007, +3.28627923669E+003, +6.53073823886E+003
+5.16343906511E+007, +4.04533639589E+003, +6.65391021965E+003
+5.18011686144E+007, +4.24588135332E+003, +7.07572272848E+003
+5.19679465776E+007, +4.58198114757E+003, +7.53709119250E+003
+5.21347245409E+007, +5.42089170284E+003, +7.75279711992E+003
+5.23015025042E+007, +6.69698009492E+003, +8.09027732951E+003
+5.24682804674E+007, +7.78199197419E+003, +9.08390557015E+003
+5.26350584307E+007, +8.36366127271E+003, +8.17691305260E+003
+5.28018363940E+007, +9.92804011048E+003, +8.84332339849E+003
+5.29686143573E+007, +1.22597530579E+004, +8.34022631031E+003
+5.31353923205E+007, +1.32502719814E+004, +7.73961179469E+003
+5.33021702838E+007, +1.57945499313E+004, +7.44491728588E+003
+5.34689482471E+007, +1.75380347142E+004, +2.79252383116E+003
