"# Channel 1"
"# Trace 1"
Frequency, Formatted Data, Formatted Data
+1.00000000000E+005, +8.79941224625E+000, +1.87932271681E+000
+2.66777963272E+005, +8.80182321513E+000, +4.98391059162E+000
+4.33555926544E+005, +8.79548508949E+000, +8.11115867616E+000
+6.00333889816E+005, +8.82298541880E+000, +1.11914385764E+001
+7.67111853088E+005, +8.83604706104E+000, +1.43307862009E+001
+9.33889816361E+005, +8.85108665842E+000, +1.73993539814E+001
+1.10066777963E+006, +8.78951222252E+000, +2.05711571025E+001
+1.26744574290E+006, +8.86401664507E+000, +2.36375562226E+001
+1.43422370618E+006, +8.78464586208E+000, +2.68104225923E+001
+1.60100166945E+006, +8.87286487487E+000, +2.98593148234E+001
+1.76777963272E+006, +8.86791821546E+000, +3.29339956533E+001
+1.93455759599E+006, +8.86718180436E+000, +3.59974487458E+001
+2.10133555927E+006, +8.89324046661E+000, +3.91096657532E+001
+2.26811352254E+006, +8.88801963569E+000, +4.22105582168E+001
+2.43489148581E+006, +8.92660820755E+000, +4.54046770820E+001
+2.60166944908E+006, +8.91448183246E+000, +4.84843861916E+001
+2.76844741235E+006, +8.89961211113E+000, +5.16098440062E+001
+2.93522537563E+006, +8.88648734946E+000, +5.47144359298E+001
+3.10200333890E+006, +9.06968570596E+000, +5.77764364284E+001
+3.26878130217E+006, +8.88853718697E+000, +6.09995701635E+001
+3.43555926544E+006, +8.96332030014E+000, +6.41048404687E+001
+3.60233722871E+006, +8.98140565509E+000, +6.72865300592E+001
+3.76911519199E+006, +8.96933511411E+000, +7.04778004239E+001
+3.93589315526E+006, +9.05228329721E+000, +7.34378568038E+001
+4.10267111853E+006, +8.73980113158E+000, +7.64217033362E+001
+4.26944908180E+006, +8.97491326089E+000, +8.00968014620E+001
+4.43622704508E+006, +9.10399944675E+000, +8.29495749347E+001
+4.60300500835E+006, +9.06415692215E+000, +8.61938793277E+001
+4.76978297162E+006, +9.09456516351E+000, +8.92246895862E+001
+4.93656093489E+006, +9.22461571992E+000, +9.24471721932E+001
+5.10333889816E+006, +9.24832565939E+000, +9.55568139358E+001
+5.27011686144E+006, +9.52999961480E+000, +9.89087242888E+001
+5.43689482471E+006, +9.37728676099E+000, +1.02057646501E+002
+5.60367278798E+006, +9.41058199674E+000, +1.05352529418E+002
+5.77045075125E+006, +9.36621576525E+000, +1.08343750580E+002
+5.93722871452E+006, +9.68761075377E+000, +1.11524717968E+002
+6.10400667780E+006, +9.53979449953E+000, +1.14914031944E+002
+6.27078464107E+006, +9.78605770854E+000, +1.17977703156E+002
+6.43756260434E+006, +9.79715336242E+000, +1.21214624156E+002
+6.60434056761E+006, +9.80994242984E+000, +1.24374876688E+002
+6.77111853088E+006, +1.00457682672E+001, +1.27510634369E+002
+6.93789649416E+006, +1.00068169512E+001, +1.30729619388E+002
+7.10467445743E+006, +9.96342126401E+000, +1.33935069824E+002
+7.27145242070E+006, +1.00754880580E+001, +1.37095270104E+002
+7.43823038397E+006, +1.01658671353E+001, +1.40255064786E+002
+7.60500834725E+006, +1.01599693359E+001, +1.43582560103E+002
+7.77178631052E+006, +1.01945090936E+001, +1.46837482788E+002
+7.93856427379E+006, +1.02414681954E+001, +1.49916240737E+002
+8.10534223706E+006, +1.03182104747E+001, +1.53242429406E+002
+8.27212020033E+006, +1.03876928760E+001, +1.56515889943E+002
+8.43889816361E+006, +1.01986570175E+001, +1.59875041088E+002
+8.60567612688E+006, +1.01071145981E+001, +1.63205711890E+002
+8.77245409015E+006, +1.02485795804E+001, +1.66211550471E+002
+8.93923205342E+006, +1.02222197128E+001, +1.69692673706E+002
+9.10601001669E+006, +1.03546430802E+001, +1.73183192271E+002
+9.27278797997E+006, +1.03901805857E+001, +1.76390107773E+002
+9.43956594324E+006, +1.02805538330E+001, +1.79703548870E+002
+9.60634390651E+006, +1.01837204986E+001, +1.83184349240E+002
+9.77312186978E+006, +1.03240427741E+001, +1.86377815424E+002
+9.93989983306E+006, +1.05947546073E+001, +1.89741061344E+002
+1.01066777963E+007, +1.05216495014E+001, +1.93177896035E+002
+1.02734557596E+007, +1.04517554443E+001, +1.96675002846E+002
+1.04402337229E+007, +1.04439551558E+001, +2.00015256280E+002
+1.06070116861E+007, +1.03741938569E+001, +2.03380673400E+002
+1.07737896494E+007, +1.05301605908E+001, +2.07035535851E+002
+1.09405676127E+007, +1.09492065180E+001, +2.10357651156E+002
+1.11073455760E+007, +1.07207308423E+001, +2.13803183867E+002
+1.12741235392E+007, +1.07786290720E+001, +2.17123653967E+002
+1.14409015025E+007, +1.09736518280E+001, +2.20844376837E+002
+1.16076794658E+007, +1.11193003072E+001, +2.24266818733E+002
+1.17744574290E+007, +1.09803846639E+001, +2.27852611006E+002
+1.19412353923E+007, +1.09900630489E+001, +2.31321934017E+002
+1.21080133556E+007, +1.08625962767E+001, +2.34923780566E+002
+1.22747913189E+007, +1.11460723563E+001, +2.38559300293E+002
+1.24415692821E+007, +1.10941992661E+001, +2.41750648740E+002
+1.26083472454E+007, +1.08904902994E+001, +2.45858097484E+002
+1.27751252087E+007, +1.13026716204E+001, +2.48813379887E+002
+1.29419031720E+007, +1.11213631963E+001, +2.52271087038E+002
+1.31086811352E+007, +1.13410401429E+001, +2.56357055879E+002
+1.32754590985E+007, +1.16022455788E+001, +2.59819760320E+002
+1.34422370618E+007, +1.15344130906E+001, +2.63520154431E+002
+1.36090150250E+007, +1.17315735891E+001, +2.67228702938E+002
+1.37757929883E+007, +1.15631728762E+001, +2.70792960406E+002
+1.39425709516E+007, +1.17389499000E+001, +2.74474962269E+002
+1.41093489149E+007, +1.18412571300E+001, +2.78028195035E+002
+1.42761268781E+007, +1.22686724679E+001, +2.82195057593E+002
+1.44429048414E+007, +1.19689111524E+001, +2.85502259866E+002
+1.46096828047E+007, +1.17814469976E+001, +2.89724293440E+002
+1.47764607679E+007, +1.24634781166E+001, +2.92858885557E+002
+1.49432387312E+007, +1.23642097162E+001, +2.96838983369E+002
+1.51100166945E+007, +1.25777910333E+001, +3.00895907948E+002
+1.52767946578E+007, +1.28598985351E+001, +3.04901789245E+002
+1.54435726210E+007, +1.25699882968E+001, +3.08111403983E+002
+1.56103505843E+007, +1.30447329362E+001, +3.12157490151E+002
+1.57771285476E+007, +1.27789810027E+001, +3.15855404470E+002
+1.59439065109E+007, +1.30747940151E+001, +3.19413675398E+002
+1.61106844741E+007, +1.29755085889E+001, +3.24013871704E+002
+1.62774624374E+007, +1.30682877063E+001, +3.27160193588E+002
+1.64442404007E+007, +1.32058450112E+001, +3.31381509854E+002
+1.66110183639E+007, +1.33944561127E+001, +3.35556126194E+002
+1.67777963272E+007, +1.35172625593E+001, +3.39673125130E+002
+1.69445742905E+007, +1.43295276745E+001, +3.43336491465E+002
+1.71113522538E+007, +1.28497669116E+001, +3.46777078082E+002
+1.72781302170E+007, +1.40470356450E+001, +3.50783231796E+002
+1.74449081803E+007, +1.33049222394E+001, +3.55301806388E+002
+1.76116861436E+007, +1.40518134021E+001, +3.59218422733E+002
+1.77784641068E+007, +1.41958613055E+001, +3.62737238512E+002
+1.79452420701E+007, +1.40146835088E+001, +3.67432119072E+002
+1.81120200334E+007, +1.44353407804E+001, +3.71336120199E+002
+1.82787979967E+007, +1.52594082288E+001, +3.76026242316E+002
+1.84455759599E+007, +1.51490255827E+001, +3.80039684021E+002
+1.86123539232E+007, +1.57442315674E+001, +3.83734688979E+002
+1.87791318865E+007, +1.53194774660E+001, +3.88400002766E+002
+1.89459098497E+007, +1.52296239522E+001, +3.92954124452E+002
+1.91126878130E+007, +1.58310065901E+001, +3.96246524050E+002
+1.92794657763E+007, +1.48246426207E+001, +4.01275292894E+002
+1.94462437396E+007, +1.60818229112E+001, +4.05901276138E+002
+1.96130217028E+007, +1.57689400034E+001, +4.10100111338E+002
+1.97797996661E+007, +1.59360844961E+001, +4.14340750770E+002
+1.99465776294E+007, +1.48390339405E+001, +4.18943771170E+002
+2.01133555927E+007, +1.55294615721E+001, +4.23456223021E+002
+2.02801335559E+007, +1.60987826824E+001, +4.28206976010E+002
+2.04469115192E+007, +1.69663235813E+001, +4.32622055800E+002
+2.06136894825E+007, +1.73950057320E+001, +4.37465873726E+002
+2.07804674457E+007, +1.65883347239E+001, +4.42550273823E+002
+2.09472454090E+007, +1.71100551940E+001, +4.46810171216E+002
+2.11140233723E+007, +1.75505642663E+001, +4.51060846688E+002
+2.12808013356E+007, +1.85783905542E+001, +4.56098862186E+002
+2.14475792988E+007, +1.73888548801E+001, +4.60732424343E+002
+2.16143572621E+007, +1.89646440109E+001, +4.64978524472E+002
+2.17811352254E+007, +1.77248485355E+001, +4.70217259503E+002
+2.19479131886E+007, +1.99375776101E+001, +4.75379326387E+002
+2.21146911519E+007, +1.99091798097E+001, +4.78542325807E+002
+2.22814691152E+007, +1.92633321061E+001, +4.84270502979E+002
+2.24482470785E+007, +2.08251031452E+001, +4.90105171645E+002
+2.26150250417E+007, +2.13104297766E+001, +4.94739666928E+002
+2.27818030050E+007, +2.07176398345E+001, +5.01198297728E+002
+2.29485809683E+007, +2.24401769566E+001, +5.04257469996E+002
+2.31153589316E+007, +2.19267091521E+001, +5.10741359335E+002
+2.32821368948E+007, +2.34578827259E+001, +5.15356580722E+002
+2.34489148581E+007, +2.36077815035E+001, +5.19270235426E+002
+2.36156928214E+007, +2.40101251923E+001, +5.26881930966E+002
+2.37824707846E+007, +2.33267880322E+001, +5.29734458638E+002
+2.39492487479E+007, +2.42144741563E+001, +5.34130271666E+002
+2.41160267112E+007, +2.38573582650E+001, +5.41903389651E+002
+2.42828046745E+007, +2.48562099508E+001, +5.46025073250E+002
+2.44495826377E+007, +2.62700880266E+001, +5.51994979547E+002
+2.46163606010E+007, +2.66008270035E+001, +5.56222415849E+002
+2.47831385643E+007, +2.67007881899E+001, +5.62251248658E+002
+2.49499165275E+007, +2.91323401432E+001, +5.67058939770E+002
+2.51166944908E+007, +3.03081706189E+001, +5.72046884153E+002
+2.52834724541E+007, +3.08909732217E+001, +5.78659551786E+002
+2.54502504174E+007, +3.23285622405E+001, +5.83744856408E+002
+2.56170283806E+007, +3.01774480867E+001, +5.89453860661E+002
+2.57838063439E+007, +3.17627256763E+001, +5.94991690683E+002
+2.59505843072E+007, +3.39939013863E+001, +6.01516712745E+002
+2.61173622705E+007, +3.40348085721E+001, +6.04077736097E+002
+2.62841402337E+007, +3.38137308639E+001, +6.11033247960E+002
+2.64509181970E+007, +3.27202766215E+001, +6.17328287722E+002
+2.66176961603E+007, +3.47669221615E+001, +6.23934875116E+002
+2.67844741235E+007, +3.44959447416E+001, +6.27337654860E+002
+2.69512520868E+007, +3.67837139521E+001, +6.33537066487E+002
+2.71180300501E+007, +3.68870857663E+001, +6.37571458839E+002
+2.72848080134E+007, +3.86936943940E+001, +6.45529140066E+002
+2.74515859766E+007, +3.78778581347E+001, +6.49395291733E+002
+2.76183639399E+007, +3.85314484918E+001, +6.56083233939E+002
+2.77851419032E+007, +3.65773940823E+001, +6.59965939210E+002
+2.79519198664E+007, +3.83507823607E+001, +6.66547321035E+002
+2.81186978297E+007, +3.99611886457E+001, +6.70740848844E+002
+2.82854757930E+007, +3.99693332197E+001, +6.78629515815E+002
+2.84522537563E+007, +3.54671441619E+001, +6.85453707259E+002
+2.86190317195E+007, +3.74719161706E+001, +6.90477626619E+002
+2.87858096828E+007, +4.14024660284E+001, +6.98399030360E+002
+2.89525876461E+007, +4.05424553276E+001, +7.03733382571E+002
+2.91193656093E+007, +3.78634169252E+001, +7.08074153360E+002
+2.92861435726E+007, +3.89280181348E+001, +7.16948430323E+002
+2.94529215359E+007, +3.79005435615E+001, +7.23482374502E+002
+2.96196994992E+007, +4.02040543152E+001, +7.30398262382E+002
+2.97864774624E+007, +4.03081123464E+001, +7.36264316334E+002
+2.99532554257E+007, +4.26266669538E+001, +7.45626142773E+002
+3.01200333890E+007, +3.98410443931E+001, +7.53657650378E+002
+3.02868113523E+007, +3.91045589085E+001, +7.60910723334E+002
+3.04535893155E+007, +4.02614321469E+001, +7.69432814005E+002
+3.06203672788E+007, +4.02233149512E+001, +7.74348539073E+002
+3.07871452421E+007, +3.98805782555E+001, +7.81322494447E+002
+3.09539232053E+007, +4.06504212593E+001, +7.91338275073E+002
+3.11207011686E+007, +3.86428213389E+001, +8.01662971242E+002
+3.12874791319E+007, +3.89098825644E+001, +8.04180415999E+002
+3.14542570952E+007, +4.19887950196E+001, +8.15635626212E+002
+3.16210350584E+007, +4.03290236941E+001, +8.23127934497E+002
+3.17878130217E+007, +3.99481568197E+001, +8.32480752193E+002
+3.19545909850E+007, +4.37479861912E+001, +8.42001309247E+002
+3.21213689482E+007, +3.73881602594E+001, +8.50612632660E+002
+3.22881469115E+007, +3.99332299912E+001, +8.56898571958E+002
+3.24549248748E+007, +4.10629468111E+001, +8.67715486623E+002
+3.26217028381E+007, +4.04966288236E+001, +8.77074723676E+002
+3.27884808013E+007, +4.22089116523E+001, +8.85979265482E+002
+3.29552587646E+007, +4.47480068365E+001, +8.92478348414E+002
+3.31220367279E+007, +4.80218194134E+001, +9.00194893514E+002
+3.32888146912E+007, +4.55011043429E+001, +9.14241773217E+002
+3.34555926544E+007, +4.44310737264E+001, +9.22884114003E+002
+3.36223706177E+007, +5.08455780461E+001, +9.31035485932E+002
+3.37891485810E+007, +4.59929023848E+001, +9.38705187578E+002
+3.39559265442E+007, +4.68487796380E+001, +9.53306160494E+002
+3.41227045075E+007, +4.46901735557E+001, +9.63131453958E+002
+3.42894824708E+007, +4.71546823668E+001, +9.77054131160E+002
+3.44562604341E+007, +4.85708316998E+001, +9.85777732223E+002
+3.46230383973E+007, +5.26832805440E+001, +9.93238619681E+002
+3.47898163606E+007, +5.37673146299E+001, +1.00435038404E+003
+3.49565943239E+007, +5.81378834933E+001, +1.01584116561E+003
+3.51233722871E+007, +5.50089554809E+001, +1.03196721128E+003
+3.52901502504E+007, +5.49631858003E+001, +1.03490954481E+003
+3.54569282137E+007, +5.52200713356E+001, +1.05386329214E+003
+3.56237061770E+007, +4.91253067415E+001, +1.06394646432E+003
+3.57904841402E+007, +5.55758203730E+001, +1.07572243191E+003
+3.59572621035E+007, +5.90029212734E+001, +1.08729954976E+003
+3.61240400668E+007, +5.67423349675E+001, +1.09952163219E+003
+3.62908180301E+007, +6.25727272400E+001, +1.11371353706E+003
+3.64575959933E+007, +5.90803882862E+001, +1.12693354645E+003
+3.66243739566E+007, +6.45815917750E+001, +1.13658167282E+003
+3.67911519199E+007, +6.24052345671E+001, +1.15488932821E+003
+3.69579298831E+007, +6.33432798838E+001, +1.16333111951E+003
+3.71247078464E+007, +6.65074038556E+001, +1.18166228718E+003
+3.72914858097E+007, +6.48658189328E+001, +1.19891992027E+003
+3.74582637730E+007, +7.28506599534E+001, +1.22022918427E+003
+3.76250417362E+007, +6.39520692314E+001, +1.23213111785E+003
+3.77918196995E+007, +7.06370153182E+001, +1.24215127845E+003
+3.79585976628E+007, +6.94728759447E+001, +1.25884860678E+003
+3.81253756260E+007, +7.99123027160E+001, +1.27783752956E+003
+3.82921535893E+007, +7.81258858367E+001, +1.29271757389E+003
+3.84589315526E+007, +8.32857264561E+001, +1.31289788188E+003
+3.86257095159E+007, +7.46679722085E+001, +1.32425097773E+003
+3.87924874791E+007, +7.83512830435E+001, +1.34906630449E+003
+3.89592654424E+007, +9.56469923850E+001, +1.35951795871E+003
+3.91260434057E+007, +9.53224060977E+001, +1.38266567178E+003
+3.92928213689E+007, +9.01733926103E+001, +1.39403244006E+003
+3.94595993322E+007, +8.95130077515E+001, +1.43077597941E+003
+3.96263772955E+007, +8.97249358779E+001, +1.44151837942E+003
+3.97931552588E+007, +9.02493748053E+001, +1.46082042421E+003
+3.99599332220E+007, +9.72753641922E+001, +1.47460366634E+003
+4.01267111853E+007, +9.89325949665E+001, +1.50588588312E+003
+4.02934891486E+007, +1.02846407739E+002, +1.52850579299E+003
+4.04602671119E+007, +1.22235679003E+002, +1.54183064704E+003
+4.06270450751E+007, +1.19963857273E+002, +1.57614520329E+003
+4.07938230384E+007, +1.26533199883E+002, +1.60130381355E+003
+4.09606010017E+007, +1.33482460106E+002, +1.61308496391E+003
+4.11273789649E+007, +1.27816363938E+002, +1.65009301727E+003
+4.12941569282E+007, +1.27275228128E+002, +1.67062621406E+003
+4.14609348915E+007, +1.32317583926E+002, +1.72041916315E+003
+4.16277128548E+007, +1.49281350822E+002, +1.72208343943E+003
+4.17944908180E+007, +1.53830430541E+002, +1.73788462790E+003
+4.19612687813E+007, +1.51766103428E+002, +1.78384814515E+003
+4.21280467446E+007, +1.54000890396E+002, +1.80758248794E+003
+4.22948247078E+007, +1.59535521548E+002, +1.85898198201E+003
+4.24616026711E+007, +1.93947192244E+002, +1.86767212587E+003
+4.26283806344E+007, +1.99718650013E+002, +1.91996819470E+003
+4.27951585977E+007, +1.79042682452E+002, +1.96034119000E+003
+4.29619365609E+007, +2.15161327588E+002, +1.98199522345E+003
+4.31287145242E+007, +2.28202600033E+002, +2.01605874972E+003
+4.32954924875E+007, +2.21929105984E+002, +2.05036796419E+003
+4.34622704508E+007, +2.30617918999E+002, +2.11202346709E+003
+4.36290484140E+007, +2.46762223289E+002, +2.14641335482E+003
+4.37958263773E+007, +2.54296959013E+002, +2.20122242078E+003
+4.39626043406E+007, +2.71960173650E+002, +2.22256296825E+003
+4.41293823038E+007, +3.05281380708E+002, +2.30701832395E+003
+4.42961602671E+007, +3.00945120244E+002, +2.33180392787E+003
+4.44629382304E+007, +3.26430894030E+002, +2.38593304095E+003
+4.46297161937E+007, +3.51360493879E+002, +2.42709210343E+003
+4.47964941569E+007, +3.51429967558E+002, +2.50015288042E+003
+4.49632721202E+007, +3.42616363239E+002, +2.58088335660E+003
+4.51300500835E+007, +3.91257203169E+002, +2.57483843762E+003
+4.52968280467E+007, +4.41543918935E+002, +2.67382057605E+003
+4.54636060100E+007, +4.95174874916E+002, +2.74741629673E+003
+4.56303839733E+007, +4.85270340920E+002, +2.84145177568E+003
+4.57971619366E+007, +5.51450799377E+002, +2.91020769332E+003
+4.59639398998E+007, +6.00262577932E+002, +3.02752418633E+003
+4.61307178631E+007, +6.68852780303E+002, +3.07644559422E+003
+4.62974958264E+007, +7.17059819584E+002, +3.12846786466E+003
+4.64642737896E+007, +7.33435080166E+002, +3.20768401222E+003
+4.66310517529E+007, +7.68823120329E+002, +3.31095748276E+003
+4.67978297162E+007, +1.00969983121E+003, +3.27535436139E+003
+4.69646076795E+007, +1.04779286574E+003, +3.49648492942E+003
+4.71313856427E+007, +1.08924476417E+003, +3.54442066198E+003
+4.72981636060E+007, +1.21546772553E+003, +3.65818622217E+003
+4.74649415693E+007, +1.27256873030E+003, +3.68289080348E+003
+4.76317195326E+007, +1.48943388386E+003, +3.76633637185E+003
+4.77984974958E+007, +1.62075046299E+003, +3.85764089216E+003
+4.79652754591E+007, +1.72654282552E+003, +3.95885682202E+003
+4.81320534224E+007, +1.87697418671E+003, +3.95581383289E+003
+4.82988313856E+007, +2.07157656062E+003, +3.98294288498E+003
+4.84656093489E+007, +2.33480504783E+003, +4.02087027209E+003
+4.86323873122E+007, +2.43408862631E+003, +4.06001654200E+003
+4.87991652755E+007, +2.64184064018E+003, +4.00458443887E+003
+4.89659432387E+007, +2.77443519980E+003, +3.97988063877E+003
+4.91327212020E+007, +3.06026198967E+003, +3.94114250724E+003
+4.92994991653E+007, +3.22748642337E+003, +3.83040794743E+003
+4.94662771285E+007, +3.43983126287E+003, +3.74211523589E+003
+4.96330550918E+007, +3.65139059845E+003, +3.67299589015E+003
+4.97998330551E+007, +3.59655180562E+003, +3.50523711248E+003
+4.99666110184E+007, +3.78033176606E+003, +3.37424356103E+003
+5.01333889816E+007, +3.75253614263E+003, +3.33004318542E+003
+5.03001669449E+007, +3.87076621917E+003, +3.36851319081E+003
+5.04669449082E+007, +3.97595533326E+003, +3.28371400319E+003
+5.06337228715E+007, +3.89517718099E+003, +3.19584072239E+003
+5.08005008347E+007, +3.91387595854E+003, +3.28343023878E+003
+5.09672787980E+007, +3.94366865179E+003, +3.27787272453E+003
+5.11340567613E+007, +4.09803584913E+003, +3.26283876986E+003
+5.13008347245E+007, +4.17685387321E+003, +3.59017862082E+003
+5.14676126878E+007, +4.37551370963E+003, +3.76862052053E+003
+5.16343906511E+007, +4.66493169248E+003, +3.67972230881E+003
+5.18011686144E+007, +4.91942151157E+003, +3.97574020361E+003
+5.19679465776E+007, +5.11967486993E+003, +3.95651488056E+003
+5.21347245409E+007, +5.62618822053E+003, +3.89389138420E+003
+5.23015025042E+007, +6.21469983080E+003, +4.02154890819E+003
+5.24682804674E+007, +6.91601544378E+003, +4.19323780554E+003
+5.26350584307E+007, +7.21406710334E+003, +4.02153329409E+003
+5.28018363940E+007, +8.15930088396E+003, +3.73868300048E+003
+5.29686143573E+007, +9.04282256060E+003, +3.32376776739E+003
+5.31353923205E+007, +9.37775020654E+003, +2.88674519094E+003
+5.33021702838E+007, +1.06972918307E+004, +1.90360187330E+003
+5.34689482471E+007, +1.06839410400E+004, +6.56784076340E+002
