"# Channel 1"
"# Trace 1"
Frequency, Formatted Data, Formatted Data
+1.00000000000E+005, +1.00377702205E+001, +2.19614799256E+000
+2.66777963272E+005, +1.00340647550E+001, +5.83800020295E+000
+4.33555926544E+005, +1.00387981434E+001, +9.50670488860E+000
+6.00333889816E+005, +1.00597962255E+001, +1.31226136753E+001
+7.67111853088E+005, +1.00951642879E+001, +1.67789634954E+001
+9.33889816361E+005, +1.00986273274E+001, +2.04124578503E+001
+1.10066777963E+006, +1.00458478861E+001, +2.40784212292E+001
+1.26744574290E+006, +1.00923691791E+001, +2.76851679257E+001
+1.43422370618E+006, +1.00470448608E+001, +3.14014660483E+001
+1.60100166945E+006, +1.01108982803E+001, +3.49555158606E+001
+1.76777963272E+006, +1.01106473504E+001, +3.85946177905E+001
+1.93455759599E+006, +1.00844104772E+001, +4.21956091344E+001
+2.10133555927E+006, +1.01010235386E+001, +4.58245076822E+001
+2.26811352254E+006, +1.01648122882E+001, +4.94939394561E+001
+2.43489148581E+006, +1.01740035015E+001, +5.31809647434E+001
+2.60166944908E+006, +1.01417558875E+001, +5.67616152412E+001
+2.76844741235E+006, +1.00919998296E+001, +6.04839599448E+001
+2.93522537563E+006, +1.01294652336E+001, +6.41382018619E+001
+3.10200333890E+006, +1.02778980986E+001, +6.77158153785E+001
+3.26878130217E+006, +1.00920894765E+001, +7.15354300953E+001
+3.43555926544E+006, +1.01714535573E+001, +7.50669022821E+001
+3.60233722871E+006, +1.03019144942E+001, +7.88756991468E+001
+3.76911519199E+006, +1.03618735420E+001, +8.26206837385E+001
+3.93589315526E+006, +1.03285196982E+001, +8.61005948533E+001
+4.10267111853E+006, +9.78600476452E+000, +8.94439044391E+001
+4.26944908180E+006, +1.02670966420E+001, +9.40611599734E+001
+4.43622704508E+006, +1.03706646674E+001, +9.74044290730E+001
+4.60300500835E+006, +1.04659000837E+001, +1.01152754765E+002
+4.76978297162E+006, +1.02884173480E+001, +1.04723919151E+002
+4.93656093489E+006, +1.05419148761E+001, +1.08414781957E+002
+5.10333889816E+006, +1.05251994008E+001, +1.12190679896E+002
+5.27011686144E+006, +1.08211866804E+001, +1.16030486073E+002
+5.43689482471E+006, +1.06607429521E+001, +1.19726756236E+002
+5.60367278798E+006, +1.08893033804E+001, +1.23662699922E+002
+5.77045075125E+006, +1.07155181201E+001, +1.27110125826E+002
+5.93722871452E+006, +1.10630439517E+001, +1.30935230918E+002
+6.10400667780E+006, +1.09596337262E+001, +1.34846006109E+002
+6.27078464107E+006, +1.12001970511E+001, +1.38470020722E+002
+6.43756260434E+006, +1.12748946422E+001, +1.42246215709E+002
+6.60434056761E+006, +1.14187771512E+001, +1.45995269991E+002
+6.77111853088E+006, +1.15958907521E+001, +1.49581018601E+002
+6.93789649416E+006, +1.15697060489E+001, +1.53505982276E+002
+7.10467445743E+006, +1.15157452049E+001, +1.57232661408E+002
+7.27145242070E+006, +1.16303767425E+001, +1.60811969855E+002
+7.43823038397E+006, +1.17878998196E+001, +1.64637943244E+002
+7.60500834725E+006, +1.17074073042E+001, +1.68478552457E+002
+7.77178631052E+006, +1.18868255115E+001, +1.72508172785E+002
+7.93856427379E+006, +1.18392975727E+001, +1.76001123453E+002
+8.10534223706E+006, +1.18588090161E+001, +1.79974199407E+002
+8.27212020033E+006, +1.19848119554E+001, +1.83858379135E+002
+8.43889816361E+006, +1.19159723740E+001, +1.87695389398E+002
+8.60567612688E+006, +1.16437491150E+001, +1.91705983698E+002
+8.77245409015E+006, +1.19446539367E+001, +1.95464280834E+002
+8.93923205342E+006, +1.18342115475E+001, +1.99567645419E+002
+9.10601001669E+006, +1.19619129592E+001, +2.03457006840E+002
+9.27278797997E+006, +1.19108821271E+001, +2.07351321913E+002
+9.43956594324E+006, +1.18224594773E+001, +2.11207016505E+002
+9.60634390651E+006, +1.18195562671E+001, +2.15270835356E+002
+9.77312186978E+006, +1.18458824529E+001, +2.19376129048E+002
+9.93989983306E+006, +1.21543402739E+001, +2.23403041682E+002
+1.01066777963E+007, +1.19925365491E+001, +2.27221056780E+002
+1.02734557596E+007, +1.21001519298E+001, +2.31479279999E+002
+1.04402337229E+007, +1.19460340163E+001, +2.35473325821E+002
+1.06070116861E+007, +1.20523317990E+001, +2.39411483545E+002
+1.07737896494E+007, +1.22386457673E+001, +2.44049477778E+002
+1.09405676127E+007, +1.23237577646E+001, +2.47738342050E+002
+1.11073455760E+007, +1.24148150597E+001, +2.51905255321E+002
+1.12741235392E+007, +1.21927007741E+001, +2.56259057039E+002
+1.14409015025E+007, +1.24938762449E+001, +2.60212078432E+002
+1.16076794658E+007, +1.26067951924E+001, +2.64286479480E+002
+1.17744574290E+007, +1.27689978982E+001, +2.68858068107E+002
+1.19412353923E+007, +1.27029581571E+001, +2.72880365194E+002
+1.21080133556E+007, +1.22654940649E+001, +2.77127905788E+002
+1.22747913189E+007, +1.28532922336E+001, +2.81435132581E+002
+1.24415692821E+007, +1.22631998631E+001, +2.85817341667E+002
+1.26083472454E+007, +1.26283098132E+001, +2.89817614954E+002
+1.27751252087E+007, +1.29678460728E+001, +2.94144722496E+002
+1.29419031720E+007, +1.24073929460E+001, +2.98579853002E+002
+1.31086811352E+007, +1.32716711703E+001, +3.02655161202E+002
+1.32754590985E+007, +1.33021675766E+001, +3.07101781477E+002
+1.34422370618E+007, +1.31540430362E+001, +3.11507252807E+002
+1.36090150250E+007, +1.36634537294E+001, +3.16048344116E+002
+1.37757929883E+007, +1.34317676153E+001, +3.20105994051E+002
+1.39425709516E+007, +1.32349991651E+001, +3.24798264860E+002
+1.41093489149E+007, +1.37409885657E+001, +3.29485657121E+002
+1.42761268781E+007, +1.38635759614E+001, +3.33545365846E+002
+1.44429048414E+007, +1.37381534108E+001, +3.38146052635E+002
+1.46096828047E+007, +1.38634251630E+001, +3.43136410259E+002
+1.47764607679E+007, +1.41350471926E+001, +3.46884130718E+002
+1.49432387312E+007, +1.42801046370E+001, +3.51371508368E+002
+1.51100166945E+007, +1.37735446704E+001, +3.56706797669E+002
+1.52767946578E+007, +1.40346034143E+001, +3.60967890972E+002
+1.54435726210E+007, +1.39780910583E+001, +3.65972286753E+002
+1.56103505843E+007, +1.52996908123E+001, +3.71153977449E+002
+1.57771285476E+007, +1.48249741759E+001, +3.75120860664E+002
+1.59439065109E+007, +1.56022361486E+001, +3.79898438799E+002
+1.61106844741E+007, +1.51849919646E+001, +3.84636568380E+002
+1.62774624374E+007, +1.50942674279E+001, +3.88873829455E+002
+1.64442404007E+007, +1.55107859593E+001, +3.94037430359E+002
+1.66110183639E+007, +1.60412340366E+001, +3.99417376938E+002
+1.67777963272E+007, +1.60752593486E+001, +4.04134711998E+002
+1.69445742905E+007, +1.63791755961E+001, +4.08922228560E+002
+1.71113522538E+007, +1.41960943947E+001, +4.13319063443E+002
+1.72781302170E+007, +1.50415983662E+001, +4.18596528162E+002
+1.74449081803E+007, +1.48372426360E+001, +4.23088961712E+002
+1.76116861436E+007, +1.63415198053E+001, +4.28964293790E+002
+1.77784641068E+007, +1.59015180163E+001, +4.32580370619E+002
+1.79452420701E+007, +1.63645490784E+001, +4.37981835082E+002
+1.81120200334E+007, +1.70852803003E+001, +4.42537592135E+002
+1.82787979967E+007, +1.67149260329E+001, +4.49343873649E+002
+1.84455759599E+007, +1.77804071921E+001, +4.53592820008E+002
+1.86123539232E+007, +1.82435791373E+001, +4.58895719721E+002
+1.87791318865E+007, +1.74528216035E+001, +4.64159223510E+002
+1.89459098497E+007, +1.71397026339E+001, +4.70245651240E+002
+1.91126878130E+007, +1.79255924285E+001, +4.74179616538E+002
+1.92794657763E+007, +1.84924387649E+001, +4.80272741300E+002
+1.94462437396E+007, +1.91615056304E+001, +4.85838507160E+002
+1.96130217028E+007, +1.92256326208E+001, +4.91508058403E+002
+1.97797996661E+007, +1.87556975365E+001, +4.95324249732E+002
+1.99465776294E+007, +1.77555706066E+001, +5.02959863770E+002
+2.01133555927E+007, +1.82420197239E+001, +5.07149048794E+002
+2.02801335559E+007, +1.89893733408E+001, +5.13735870396E+002
+2.04469115192E+007, +1.98294352541E+001, +5.19761144673E+002
+2.06136894825E+007, +2.05481176751E+001, +5.25811867984E+002
+2.07804674457E+007, +2.01542307802E+001, +5.32246419320E+002
+2.09472454090E+007, +2.11172478563E+001, +5.37976484411E+002
+2.11140233723E+007, +2.08912507075E+001, +5.42257832127E+002
+2.12808013356E+007, +2.08833518334E+001, +5.47282553747E+002
+2.14475792988E+007, +2.19487202414E+001, +5.55046897877E+002
+2.16143572621E+007, +2.34964064781E+001, +5.60271536379E+002
+2.17811352254E+007, +2.22433715423E+001, +5.66244465133E+002
+2.19479131886E+007, +2.43162264706E+001, +5.72400992601E+002
+2.21146911519E+007, +2.45910026619E+001, +5.78261964589E+002
+2.22814691152E+007, +2.25935613255E+001, +5.84559420793E+002
+2.24482470785E+007, +2.56109520156E+001, +5.92646282245E+002
+2.26150250417E+007, +2.60710545028E+001, +5.99023078591E+002
+2.27818030050E+007, +2.66413173586E+001, +6.05117610681E+002
+2.29485809683E+007, +2.75760047768E+001, +6.09894276505E+002
+2.31153589316E+007, +2.49039983162E+001, +6.18723061230E+002
+2.32821368948E+007, +2.91534626453E+001, +6.24634420275E+002
+2.34489148581E+007, +3.04792506320E+001, +6.28401293220E+002
+2.36156928214E+007, +3.05361967988E+001, +6.39042565534E+002
+2.37824707846E+007, +3.24031019146E+001, +6.43082534715E+002
+2.39492487479E+007, +3.07167792630E+001, +6.48686017955E+002
+2.41160267112E+007, +3.23746835903E+001, +6.56652502080E+002
+2.42828046745E+007, +3.26217615507E+001, +6.61779043035E+002
+2.44495826377E+007, +3.47063985616E+001, +6.71252138286E+002
+2.46163606010E+007, +3.49118403721E+001, +6.77433576326E+002
+2.47831385643E+007, +3.56660046547E+001, +6.81199182522E+002
+2.49499165275E+007, +3.85955964445E+001, +6.90472409236E+002
+2.51166944908E+007, +4.03190524578E+001, +6.96839793074E+002
+2.52834724541E+007, +4.05849445120E+001, +7.02068380670E+002
+2.54502504174E+007, +4.14080345026E+001, +7.10539149977E+002
+2.56170283806E+007, +4.08643106332E+001, +7.17912687245E+002
+2.57838063439E+007, +4.09259094150E+001, +7.25319169680E+002
+2.59505843072E+007, +4.25476678688E+001, +7.33581711538E+002
+2.61173622705E+007, +4.21813711373E+001, +7.39214276364E+002
+2.62841402337E+007, +4.37114902573E+001, +7.46600400388E+002
+2.64509181970E+007, +4.26830443004E+001, +7.55099248439E+002
+2.66176961603E+007, +4.51826435340E+001, +7.65941088941E+002
+2.67844741235E+007, +4.53766224328E+001, +7.69741730638E+002
+2.69512520868E+007, +4.54108575878E+001, +7.78025929228E+002
+2.71180300501E+007, +4.58361651524E+001, +7.81945663784E+002
+2.72848080134E+007, +4.80068811811E+001, +7.94820537853E+002
+2.74515859766E+007, +4.73433281461E+001, +8.02968582917E+002
+2.76183639399E+007, +4.76088472014E+001, +8.07221356195E+002
+2.77851419032E+007, +4.71404462162E+001, +8.17527033500E+002
+2.79519198664E+007, +4.84799629853E+001, +8.25360821177E+002
+2.81186978297E+007, +5.24567276277E+001, +8.33813682764E+002
+2.82854757930E+007, +4.82446599444E+001, +8.42308561411E+002
+2.84522537563E+007, +4.74013932048E+001, +8.53507659665E+002
+2.86190317195E+007, +5.00988576437E+001, +8.59220120853E+002
+2.87858096828E+007, +5.40177451838E+001, +8.71021581338E+002
+2.89525876461E+007, +5.75421443039E+001, +8.77841478881E+002
+2.91193656093E+007, +5.20187759367E+001, +8.82471154782E+002
+2.92861435726E+007, +5.37871039256E+001, +8.96045237920E+002
+2.94529215359E+007, +5.33400630010E+001, +9.04683456171E+002
+2.96196994992E+007, +5.91979411388E+001, +9.13738436249E+002
+2.97864774624E+007, +6.07982531717E+001, +9.22527059868E+002
+2.99532554257E+007, +5.96315127538E+001, +9.33319437970E+002
+3.01200333890E+007, +6.22870779326E+001, +9.44840775136E+002
+3.02868113523E+007, +5.75320901704E+001, +9.57181761827E+002
+3.04535893155E+007, +6.13040234052E+001, +9.65689508076E+002
+3.06203672788E+007, +5.90633141980E+001, +9.77339811273E+002
+3.07871452421E+007, +5.95921250893E+001, +9.84192884937E+002
+3.09539232053E+007, +6.27263763181E+001, +9.95067513942E+002
+3.11207011686E+007, +6.30608912327E+001, +1.01113725659E+003
+3.12874791319E+007, +6.49582528327E+001, +1.01801352651E+003
+3.14542570952E+007, +7.03043050332E+001, +1.02950025475E+003
+3.16210350584E+007, +6.56519131037E+001, +1.04119852266E+003
+3.17878130217E+007, +6.38653686971E+001, +1.05594501202E+003
+3.19545909850E+007, +7.18477217122E+001, +1.06714137921E+003
+3.21213689482E+007, +6.33309552894E+001, +1.08477497672E+003
+3.22881469115E+007, +6.54133419436E+001, +1.08782500369E+003
+3.24549248748E+007, +7.38614900198E+001, +1.10669167928E+003
+3.26217028381E+007, +7.01004932267E+001, +1.11669351414E+003
+3.27884808013E+007, +7.09593895685E+001, +1.12725218854E+003
+3.29552587646E+007, +7.78580600009E+001, +1.13813342070E+003
+3.31220367279E+007, +7.64715548724E+001, +1.14950029068E+003
+3.32888146912E+007, +7.23172652102E+001, +1.17157205765E+003
+3.34555926544E+007, +7.50485831035E+001, +1.18836484296E+003
+3.36223706177E+007, +8.15527847830E+001, +1.19164314534E+003
+3.37891485810E+007, +7.71185713968E+001, +1.20704951926E+003
+3.39559265442E+007, +7.90071803605E+001, +1.22909567872E+003
+3.41227045075E+007, +8.51588702110E+001, +1.23885525850E+003
+3.42894824708E+007, +8.62956865871E+001, +1.25560336254E+003
+3.44562604341E+007, +8.51587546848E+001, +1.26985250037E+003
+3.46230383973E+007, +8.46562752302E+001, +1.28681480418E+003
+3.47898163606E+007, +9.15596167631E+001, +1.30556252684E+003
+3.49565943239E+007, +9.72645435411E+001, +1.32114536351E+003
+3.51233722871E+007, +8.96771316399E+001, +1.33733277859E+003
+3.52901502504E+007, +9.91346681444E+001, +1.33898728716E+003
+3.54569282137E+007, +9.10497232179E+001, +1.36621982390E+003
+3.56237061770E+007, +8.93940630080E+001, +1.39976434679E+003
+3.57904841402E+007, +9.48992918338E+001, +1.41627107555E+003
+3.59572621035E+007, +1.01308412454E+002, +1.43546018923E+003
+3.61240400668E+007, +9.86072284618E+001, +1.45382242136E+003
+3.62908180301E+007, +1.13122347576E+002, +1.47902136773E+003
+3.64575959933E+007, +1.03189421204E+002, +1.49416380302E+003
+3.66243739566E+007, +1.20631860189E+002, +1.51340239994E+003
+3.67911519199E+007, +1.12596302174E+002, +1.53735713008E+003
+3.69579298831E+007, +1.10755848620E+002, +1.54647495448E+003
+3.71247078464E+007, +1.13021498072E+002, +1.58181755582E+003
+3.72914858097E+007, +1.19285629508E+002, +1.60677065677E+003
+3.74582637730E+007, +1.35051369380E+002, +1.64697790187E+003
+3.76250417362E+007, +1.36768924095E+002, +1.65107290580E+003
+3.77918196995E+007, +1.31988368417E+002, +1.67308621539E+003
+3.79585976628E+007, +1.41837829369E+002, +1.71893968470E+003
+3.81253756260E+007, +1.47250090101E+002, +1.73060174968E+003
+3.82921535893E+007, +1.61485204750E+002, +1.76653926152E+003
+3.84589315526E+007, +1.74388073157E+002, +1.79465820332E+003
+3.86257095159E+007, +1.60587496321E+002, +1.82922341574E+003
+3.87924874791E+007, +1.76058867617E+002, +1.86293864688E+003
+3.89592654424E+007, +1.81731206090E+002, +1.89468090108E+003
+3.91260434057E+007, +1.93205142741E+002, +1.93348970157E+003
+3.92928213689E+007, +2.04592017451E+002, +1.95588584329E+003
+3.94595993322E+007, +2.09646963451E+002, +1.99602499740E+003
+3.96263772955E+007, +2.07796853513E+002, +2.04215529106E+003
+3.97931552588E+007, +2.02584024399E+002, +2.06620178510E+003
+3.99599332220E+007, +2.24247581573E+002, +2.11225590184E+003
+4.01267111853E+007, +2.45550465665E+002, +2.15149026038E+003
+4.02934891486E+007, +2.45130224267E+002, +2.17721201693E+003
+4.04602671119E+007, +2.67316674503E+002, +2.21591727625E+003
+4.06270450751E+007, +2.74443400999E+002, +2.27938872259E+003
+4.07938230384E+007, +2.89202765363E+002, +2.31043796763E+003
+4.09606010017E+007, +3.14315386461E+002, +2.36353383735E+003
+4.11273789649E+007, +3.23378418174E+002, +2.40849854325E+003
+4.12941569282E+007, +3.25395084834E+002, +2.46217946444E+003
+4.14609348915E+007, +3.58862226719E+002, +2.55198512479E+003
+4.16277128548E+007, +3.50621191119E+002, +2.60021097908E+003
+4.17944908180E+007, +3.81065726614E+002, +2.60713885395E+003
+4.19612687813E+007, +4.11849413180E+002, +2.66250355533E+003
+4.21280467446E+007, +4.10703340250E+002, +2.77138479317E+003
+4.22948247078E+007, +4.24134667945E+002, +2.83427399923E+003
+4.24616026711E+007, +4.71765416475E+002, +2.86114589263E+003
+4.26283806344E+007, +5.11823889114E+002, +2.95251922876E+003
+4.27951585977E+007, +4.83859677104E+002, +3.07378604844E+003
+4.29619365609E+007, +6.01496010183E+002, +3.13218317984E+003
+4.31287145242E+007, +5.93017486982E+002, +3.21351574590E+003
+4.32954924875E+007, +6.12320225536E+002, +3.27297430548E+003
+4.34622704508E+007, +6.79253346491E+002, +3.42070537408E+003
+4.36290484140E+007, +7.84696371429E+002, +3.42513831233E+003
+4.37958263773E+007, +7.73657600657E+002, +3.56797884625E+003
+4.39626043406E+007, +9.03141696973E+002, +3.72711776009E+003
+4.41293823038E+007, +9.94523503265E+002, +3.81963566310E+003
+4.42961602671E+007, +1.03738870248E+003, +3.95292909146E+003
+4.44629382304E+007, +1.15147450933E+003, +4.08319565794E+003
+4.46297161937E+007, +1.24219409827E+003, +4.10440915827E+003
+4.47964941569E+007, +1.32562831117E+003, +4.31685680857E+003
+4.49632721202E+007, +1.41995941415E+003, +4.50542898701E+003
+4.51300500835E+007, +1.55035603848E+003, +4.50665588804E+003
+4.52968280467E+007, +1.78508358498E+003, +4.70294307549E+003
+4.54636060100E+007, +2.03374760845E+003, +5.07637448485E+003
+4.56303839733E+007, +2.27255832355E+003, +5.17756620809E+003
+4.57971619366E+007, +2.40052993710E+003, +5.41625092930E+003
+4.59639398998E+007, +3.01737512578E+003, +5.78628872153E+003
+4.61307178631E+007, +3.08464744113E+003, +5.65187602460E+003
+4.62974958264E+007, +3.59796122589E+003, +5.81194489766E+003
+4.64642737896E+007, +3.91459620196E+003, +5.95471669701E+003
+4.66310517529E+007, +4.52168274131E+003, +6.04042173726E+003
+4.67978297162E+007, +4.84830723965E+003, +5.71784480044E+003
+4.69646076795E+007, +5.75020556017E+003, +5.75938755132E+003
+4.71313856427E+007, +6.30307473984E+003, +5.49312794565E+003
+4.72981636060E+007, +7.11566616121E+003, +5.16458933080E+003
+4.74649415693E+007, +7.44671358065E+003, +4.94199417993E+003
+4.76317195326E+007, +7.58592640238E+003, +3.99232141392E+003
+4.77984974958E+007, +8.00511102456E+003, +3.43558578630E+003
+4.79652754591E+007, +8.38264052890E+003, +2.68455826841E+003
+4.81320534224E+007, +8.31020228646E+003, +2.19389848160E+003
+4.82988313856E+007, +8.33621982859E+003, +1.83136473403E+003
+4.84656093489E+007, +8.61826557735E+003, +1.06494502688E+003
+4.86323873122E+007, +8.09863552531E+003, +4.75320683503E+002
+4.87991652755E+007, +8.00557044999E+003, -1.92406534759E+002
+4.89659432387E+007, +8.03318505555E+003, -3.56186677904E+002
+4.91327212020E+007, +7.30233366517E+003, -7.71120078820E+002
+4.92994991653E+007, +7.09583806235E+003, -1.15467302931E+003
+4.94662771285E+007, +6.58441310110E+003, -1.46978821196E+003
+4.96330550918E+007, +6.47126888067E+003, -1.37165991661E+003
+4.97998330551E+007, +6.00094112911E+003, -1.52227815824E+003
+4.99666110184E+007, +5.71830011117E+003, -1.65334931191E+003
+5.01333889816E+007, +5.74276197216E+003, -1.59899103017E+003
+5.03001669449E+007, +5.56822831432E+003, -1.74503733775E+003
+5.04669449082E+007, +5.42336172879E+003, -1.71941306126E+003
+5.06337228715E+007, +5.25556414800E+003, -1.80005514545E+003
+5.08005008347E+007, +5.32379671791E+003, -1.78788467496E+003
+5.09672787980E+007, +5.16353947369E+003, -1.67693234047E+003
+5.11340567613E+007, +5.06360837488E+003, -1.88398031580E+003
+5.13008347245E+007, +5.11172493518E+003, -1.88771437374E+003
+5.14676126878E+007, +5.29291682245E+003, -1.92355541021E+003
+5.16343906511E+007, +5.12675372911E+003, -2.04252158824E+003
+5.18011686144E+007, +5.28265554548E+003, -2.19718349559E+003
+5.19679465776E+007, +5.19785323231E+003, -2.28621337262E+003
+5.21347245409E+007, +5.01842937289E+003, -2.67590509814E+003
+5.23015025042E+007, +4.90996281233E+003, -2.86796118655E+003
+5.24682804674E+007, +4.86628364901E+003, -3.34818071706E+003
+5.26350584307E+007, +4.64138504811E+003, -3.43854442715E+003
+5.28018363940E+007, +4.36925764427E+003, -3.61151386760E+003
+5.29686143573E+007, +4.09752057789E+003, -3.81490849903E+003
+5.31353923205E+007, +4.15195120058E+003, -3.88190453024E+003
+5.33021702838E+007, +3.73923513422E+003, -4.01953593109E+003
+5.34689482471E+007, +3.31861627211E+003, -3.98893053055E+003
