"# Channel 1"
"# Trace 1"
Frequency, Formatted Data, Formatted Data
+1.00000000000E+006, +9.17216013667E+000, +2.19309089218E+001
+1.16527545910E+006, +9.20927650119E+000, +2.55896489258E+001
+1.33055091820E+006, +9.25837648918E+000, +2.91206654264E+001
+1.49582637730E+006, +9.18204830476E+000, +3.27507716963E+001
+1.66110183639E+006, +9.22302209507E+000, +3.63391499183E+001
+1.82637729549E+006, +9.21592648288E+000, +3.99266876801E+001
+1.99165275459E+006, +9.25984683902E+000, +4.35769765086E+001
+2.15692821369E+006, +9.23281281686E+000, +4.71766058902E+001
+2.32220367279E+006, +9.18885736801E+000, +5.08040746927E+001
+2.48747913189E+006, +9.21881632999E+000, +5.44027954034E+001
+2.65275459098E+006, +9.16052430091E+000, +5.80256486965E+001
+2.81803005008E+006, +9.25593633100E+000, +6.16949520090E+001
+2.98330550918E+006, +9.07911697983E+000, +6.51586394273E+001
+3.14858096828E+006, +9.19758018983E+000, +6.88282875100E+001
+3.31385642738E+006, +9.29208562597E+000, +7.24331945382E+001
+3.47913188648E+006, +9.17196985364E+000, +7.61938319378E+001
+3.64440734558E+006, +9.22981114408E+000, +7.96902623426E+001
+3.80968280467E+006, +9.38338988007E+000, +8.32798413292E+001
+3.97495826377E+006, +9.34775125779E+000, +8.69048828883E+001
+4.14023372287E+006, +9.48799356038E+000, +9.08936809779E+001
+4.30550918197E+006, +9.38223048690E+000, +9.40070585796E+001
+4.47078464107E+006, +9.35890054939E+000, +9.79427880687E+001
+4.63606010017E+006, +9.24468145803E+000, +1.01412286391E+002
+4.80133555927E+006, +9.28815497544E+000, +1.05144033851E+002
+4.96661101836E+006, +9.32244385486E+000, +1.08716523628E+002
+5.13188647746E+006, +9.46227061772E+000, +1.12436384194E+002
+5.29716193656E+006, +9.49616358657E+000, +1.15894321552E+002
+5.46243739566E+006, +9.55696372586E+000, +1.19696575238E+002
+5.62771285476E+006, +9.67296435706E+000, +1.23414985914E+002
+5.79298831386E+006, +9.78118156396E+000, +1.27236121023E+002
+5.95826377295E+006, +9.55707271705E+000, +1.30820214858E+002
+6.12353923205E+006, +1.01040441682E+001, +1.34437449982E+002
+6.28881469115E+006, +9.75645274615E+000, +1.37946885892E+002
+6.45409015025E+006, +1.00306192122E+001, +1.41564138786E+002
+6.61936560935E+006, +9.92843915216E+000, +1.45237961716E+002
+6.78464106845E+006, +1.00708677689E+001, +1.48995460548E+002
+6.94991652755E+006, +1.00579477021E+001, +1.52609841094E+002
+7.11519198664E+006, +1.03483456440E+001, +1.56097039064E+002
+7.28046744574E+006, +1.02961119050E+001, +1.59920479575E+002
+7.44574290484E+006, +1.05813952730E+001, +1.63565264664E+002
+7.61101836394E+006, +1.04304870800E+001, +1.67134317235E+002
+7.77629382304E+006, +1.05739467295E+001, +1.70710278712E+002
+7.94156928214E+006, +1.03060893608E+001, +1.74564665736E+002
+8.10684474124E+006, +1.03302603784E+001, +1.77914301535E+002
+8.27212020033E+006, +1.06869892936E+001, +1.81849852364E+002
+8.43739565943E+006, +1.05727261698E+001, +1.85672632411E+002
+8.60267111853E+006, +1.04903593823E+001, +1.89177573806E+002
+8.76794657763E+006, +1.06945480443E+001, +1.92646326825E+002
+8.93322203673E+006, +1.05944013686E+001, +1.96839982689E+002
+9.09849749583E+006, +1.06587166717E+001, +2.00221056625E+002
+9.26377295492E+006, +1.07432717794E+001, +2.04476136624E+002
+9.42904841402E+006, +1.07202494871E+001, +2.07691535582E+002
+9.59432387312E+006, +1.07603536388E+001, +2.11497687243E+002
+9.75959933222E+006, +1.05320789050E+001, +2.15187186587E+002
+9.92487479132E+006, +1.06905738808E+001, +2.18781954224E+002
+1.00901502504E+007, +1.08498620527E+001, +2.22658420435E+002
+1.02554257095E+007, +1.06831481433E+001, +2.26108383654E+002
+1.04207011686E+007, +1.07617520084E+001, +2.29758629704E+002
+1.05859766277E+007, +1.06064223445E+001, +2.34030925786E+002
+1.07512520868E+007, +1.07854021625E+001, +2.37466222622E+002
+1.09165275459E+007, +1.08366245582E+001, +2.41389469253E+002
+1.10818030050E+007, +1.08405073136E+001, +2.45465243566E+002
+1.12470784641E+007, +1.09126656345E+001, +2.48717133524E+002
+1.14123539232E+007, +1.06261296833E+001, +2.52278638037E+002
+1.15776293823E+007, +1.10668828787E+001, +2.56647213806E+002
+1.17429048414E+007, +1.07224035738E+001, +2.60251304535E+002
+1.19081803005E+007, +1.08003572938E+001, +2.64293946368E+002
+1.20734557596E+007, +1.08588945607E+001, +2.68241373563E+002
+1.22387312187E+007, +1.09264888419E+001, +2.71877837599E+002
+1.24040066778E+007, +1.10263578720E+001, +2.75435661053E+002
+1.25692821369E+007, +1.10650950810E+001, +2.79349954667E+002
+1.27345575960E+007, +1.13062965215E+001, +2.83234638183E+002
+1.28998330551E+007, +1.10624897348E+001, +2.87084444360E+002
+1.30651085142E+007, +1.09012439779E+001, +2.90878228192E+002
+1.32303839733E+007, +1.16342180264E+001, +2.95197067064E+002
+1.33956594324E+007, +1.12543712375E+001, +2.99266937410E+002
+1.35609348915E+007, +1.15688336014E+001, +3.02504134720E+002
+1.37262103506E+007, +1.14206517528E+001, +3.05717565727E+002
+1.38914858097E+007, +1.18816098604E+001, +3.10151077326E+002
+1.40567612688E+007, +1.18657985254E+001, +3.13967869924E+002
+1.42220367279E+007, +1.14220812671E+001, +3.17886737316E+002
+1.43873121870E+007, +1.17775673340E+001, +3.22046778029E+002
+1.45525876461E+007, +1.19504813214E+001, +3.25821944430E+002
+1.47178631052E+007, +1.17065130821E+001, +3.29663698974E+002
+1.48831385643E+007, +1.16463769273E+001, +3.33020387824E+002
+1.50484140234E+007, +1.14947011622E+001, +3.37484768565E+002
+1.52136894825E+007, +1.16991324302E+001, +3.41516957173E+002
+1.53789649416E+007, +1.17040153763E+001, +3.45496225177E+002
+1.55442404007E+007, +1.20643512716E+001, +3.49565580971E+002
+1.57095158598E+007, +1.16632312740E+001, +3.53886456958E+002
+1.58747913189E+007, +1.23471105014E+001, +3.57507651413E+002
+1.60400667780E+007, +1.22880129413E+001, +3.61046293517E+002
+1.62053422371E+007, +1.21660478912E+001, +3.65002670723E+002
+1.63706176962E+007, +1.22919291563E+001, +3.68837786210E+002
+1.65358931553E+007, +1.21295202972E+001, +3.72606789654E+002
+1.67011686144E+007, +1.32073162562E+001, +3.77203913704E+002
+1.68664440735E+007, +1.23830592973E+001, +3.80759933367E+002
+1.70317195326E+007, +1.12218843012E+001, +3.86389362253E+002
+1.71969949917E+007, +1.09816204297E+001, +3.89841290849E+002
+1.73622704508E+007, +1.15085390734E+001, +3.94063288004E+002
+1.75275459098E+007, +1.16266720453E+001, +3.96921376787E+002
+1.76928213689E+007, +1.24788112279E+001, +4.02840616864E+002
+1.78580968280E+007, +1.25692273563E+001, +4.06412145971E+002
+1.80233722871E+007, +1.34632226854E+001, +4.10146563567E+002
+1.81886477462E+007, +1.23687077614E+001, +4.14479895208E+002
+1.83539232053E+007, +1.34627689496E+001, +4.18209965725E+002
+1.85191986644E+007, +1.34257894973E+001, +4.22669940699E+002
+1.86844741235E+007, +1.30698150860E+001, +4.25407726235E+002
+1.88497495826E+007, +1.33938419985E+001, +4.30929635289E+002
+1.90150250417E+007, +1.29301657650E+001, +4.35808220134E+002
+1.91803005008E+007, +1.33909814645E+001, +4.39326713259E+002
+1.93455759599E+007, +1.30439880001E+001, +4.43056064012E+002
+1.95108514190E+007, +1.48710923985E+001, +4.47544299058E+002
+1.96761268781E+007, +1.42875441807E+001, +4.51915125449E+002
+1.98414023372E+007, +1.45848237500E+001, +4.56179054232E+002
+2.00066777963E+007, +1.29133389590E+001, +4.59914479774E+002
+2.01719532554E+007, +1.33945353229E+001, +4.64745418373E+002
+2.03372287145E+007, +1.55178907098E+001, +4.70273826598E+002
+2.05025041736E+007, +1.44042989193E+001, +4.74050472275E+002
+2.06677796327E+007, +1.52568676337E+001, +4.78211969525E+002
+2.08330550918E+007, +1.39043211222E+001, +4.81854494484E+002
+2.09983305509E+007, +1.43759638940E+001, +4.86515845836E+002
+2.11636060100E+007, +1.43433380581E+001, +4.90983733653E+002
+2.13288814691E+007, +1.42881816112E+001, +4.95920596659E+002
+2.14941569282E+007, +1.46256749927E+001, +4.98811134270E+002
+2.16594323873E+007, +1.61172655451E+001, +5.04519342856E+002
+2.18247078464E+007, +1.57598792717E+001, +5.08437383827E+002
+2.19899833055E+007, +1.45988587922E+001, +5.13482759568E+002
+2.21552587646E+007, +1.46960550151E+001, +5.17024932650E+002
+2.23205342237E+007, +1.58971682322E+001, +5.21165418842E+002
+2.24858096828E+007, +1.52810582363E+001, +5.26399346578E+002
+2.26510851419E+007, +1.75729473070E+001, +5.31235691081E+002
+2.28163606010E+007, +1.70538283111E+001, +5.35661947102E+002
+2.29816360601E+007, +1.63083499244E+001, +5.38119778363E+002
+2.31469115192E+007, +1.80949869308E+001, +5.44241441773E+002
+2.33121869783E+007, +1.78226952568E+001, +5.50111057298E+002
+2.34774624374E+007, +1.90219366249E+001, +5.54244509958E+002
+2.36427378965E+007, +1.83127612490E+001, +5.59184058619E+002
+2.38080133556E+007, +1.82813990406E+001, +5.63169948221E+002
+2.39732888147E+007, +2.05152212848E+001, +5.69166439027E+002
+2.41385642738E+007, +1.87179957968E+001, +5.75107548520E+002
+2.43038397329E+007, +2.02698995569E+001, +5.77630601460E+002
+2.44691151920E+007, +1.89737449360E+001, +5.82260041285E+002
+2.46343906511E+007, +1.88353416679E+001, +5.85992709068E+002
+2.47996661102E+007, +1.97250829185E+001, +5.91505280163E+002
+2.49649415693E+007, +2.13861545832E+001, +5.96605013688E+002
+2.51302170284E+007, +1.99368514330E+001, +6.00987955321E+002
+2.52954924875E+007, +2.20684801531E+001, +6.05311364153E+002
+2.54607679466E+007, +2.14174455413E+001, +6.10300259132E+002
+2.56260434057E+007, +2.26065850511E+001, +6.12943389406E+002
+2.57913188648E+007, +2.12409565624E+001, +6.19216114768E+002
+2.59565943239E+007, +2.24421507779E+001, +6.24180241379E+002
+2.61218697830E+007, +2.34560428317E+001, +6.28698436187E+002
+2.62871452421E+007, +2.55188740516E+001, +6.34792466592E+002
+2.64524207012E+007, +2.25699466319E+001, +6.38637112898E+002
+2.66176961603E+007, +2.50090161577E+001, +6.46668423114E+002
+2.67829716194E+007, +2.24267543604E+001, +6.47478527007E+002
+2.69482470785E+007, +2.41141130636E+001, +6.53828212501E+002
+2.71135225376E+007, +2.42068639633E+001, +6.59599221921E+002
+2.72787979967E+007, +2.50613319920E+001, +6.66910321593E+002
+2.74440734558E+007, +2.58029589208E+001, +6.69689160930E+002
+2.76093489149E+007, +2.79922553381E+001, +6.71463440705E+002
+2.77746243740E+007, +2.42463711400E+001, +6.79302814607E+002
+2.79398998331E+007, +2.51720457583E+001, +6.84877051335E+002
+2.81051752922E+007, +2.87892486868E+001, +6.88596664410E+002
+2.82704507513E+007, +2.74710564726E+001, +6.95616800659E+002
+2.84357262104E+007, +2.79826611943E+001, +6.97640517036E+002
+2.86010016694E+007, +2.55608477793E+001, +7.06794965931E+002
+2.87662771285E+007, +2.70698499963E+001, +7.11438201829E+002
+2.89315525876E+007, +2.73768149454E+001, +7.14705864518E+002
+2.90968280467E+007, +2.76381421324E+001, +7.22884934829E+002
+2.92621035058E+007, +2.78348738606E+001, +7.26008452614E+002
+2.94273789649E+007, +2.95872044186E+001, +7.31352050352E+002
+2.95926544240E+007, +2.66567972003E+001, +7.38772556020E+002
+2.97579298831E+007, +2.88606979224E+001, +7.43450887493E+002
+2.99232053422E+007, +2.87320714401E+001, +7.48478542762E+002
+3.00884808013E+007, +2.98280607982E+001, +7.53812710894E+002
+3.02537562604E+007, +2.88533372194E+001, +7.57853658849E+002
+3.04190317195E+007, +3.01367050557E+001, +7.65744527065E+002
+3.05843071786E+007, +3.00771917638E+001, +7.69933478954E+002
+3.07495826377E+007, +2.90581493749E+001, +7.75446284043E+002
+3.09148580968E+007, +2.99849816604E+001, +7.80841132568E+002
+3.10801335559E+007, +3.24816424469E+001, +7.89729494248E+002
+3.12454090150E+007, +3.12742887975E+001, +7.93678972970E+002
+3.14106844741E+007, +3.20633765903E+001, +7.98018674183E+002
+3.15759599332E+007, +3.27350865769E+001, +8.04144920409E+002
+3.17412353923E+007, +3.12184581022E+001, +8.11571633040E+002
+3.19065108514E+007, +3.49079574693E+001, +8.17599670042E+002
+3.20717863105E+007, +3.14006902151E+001, +8.22810877284E+002
+3.22370617696E+007, +3.19872709746E+001, +8.28703373969E+002
+3.24023372287E+007, +3.19148913193E+001, +8.33480911122E+002
+3.25676126878E+007, +3.49756029326E+001, +8.41285477896E+002
+3.27328881469E+007, +3.45414850394E+001, +8.46405402522E+002
+3.28981636060E+007, +3.03423891352E+001, +8.51464959580E+002
+3.30634390651E+007, +3.25433322587E+001, +8.62266454591E+002
+3.32287145242E+007, +3.29517983018E+001, +8.69571945607E+002
+3.33939899833E+007, +3.39606347725E+001, +8.78250559580E+002
+3.35592654424E+007, +3.63097923067E+001, +8.77614456870E+002
+3.37245409015E+007, +3.54178445048E+001, +8.84692099247E+002
+3.38898163606E+007, +3.52767232878E+001, +8.90696396713E+002
+3.40550918197E+007, +3.62009243865E+001, +8.98945387634E+002
+3.42203672788E+007, +3.72842343474E+001, +9.04064142202E+002
+3.43856427379E+007, +3.56125687148E+001, +9.12141251519E+002
+3.45509181970E+007, +3.59791460192E+001, +9.23373625158E+002
+3.47161936561E+007, +3.96742229059E+001, +9.28893104549E+002
+3.48814691152E+007, +3.92320422556E+001, +9.29330507282E+002
+3.50467445743E+007, +4.18691245705E+001, +9.41417353091E+002
+3.52120200334E+007, +4.43260107222E+001, +9.46466013477E+002
+3.53772954925E+007, +4.19085379198E+001, +9.54607667647E+002
+3.55425709516E+007, +3.94083750376E+001, +9.63883976171E+002
+3.57078464107E+007, +4.20273081719E+001, +9.66081854812E+002
+3.58731218698E+007, +4.31140811943E+001, +9.72847284604E+002
+3.60383973289E+007, +4.17962615751E+001, +9.83372168199E+002
+3.62036727880E+007, +4.11390419291E+001, +9.88650040082E+002
+3.63689482471E+007, +4.64543968187E+001, +9.94831154179E+002
+3.65342237062E+007, +3.95791507414E+001, +1.00202765948E+003
+3.66994991653E+007, +3.78220902055E+001, +1.01523481656E+003
+3.68647746244E+007, +4.52505578819E+001, +1.02002672612E+003
+3.70300500835E+007, +3.67180251905E+001, +1.02718046682E+003
+3.71953255426E+007, +4.47359657744E+001, +1.04278569086E+003
+3.73606010017E+007, +4.39567007789E+001, +1.04842770434E+003
+3.75258764608E+007, +4.60349050598E+001, +1.05872192261E+003
+3.76911519199E+007, +4.26117471413E+001, +1.06446536038E+003
+3.78564273790E+007, +4.10888152642E+001, +1.07006045646E+003
+3.80217028381E+007, +4.13663612455E+001, +1.07492102343E+003
+3.81869782972E+007, +4.26566248755E+001, +1.08593048696E+003
+3.83522537563E+007, +4.28495926951E+001, +1.09878566583E+003
+3.85175292154E+007, +4.73591584418E+001, +1.11120461067E+003
+3.86828046745E+007, +4.12839598331E+001, +1.11829141994E+003
+3.88480801336E+007, +5.03231569281E+001, +1.12643892040E+003
+3.90133555927E+007, +4.71698101983E+001, +1.13923449215E+003
+3.91786310518E+007, +5.09358035881E+001, +1.15171330238E+003
+3.93439065109E+007, +4.88074153683E+001, +1.15571691829E+003
+3.95091819699E+007, +5.79385939490E+001, +1.16210524706E+003
+3.96744574290E+007, +5.47587948642E+001, +1.17316183975E+003
+3.98397328881E+007, +4.82222988319E+001, +1.18606214569E+003
+4.00050083472E+007, +5.06671034685E+001, +1.19962844101E+003
+4.01702838063E+007, +4.56733556899E+001, +1.20220781619E+003
+4.03355592654E+007, +5.88775294970E+001, +1.20981335795E+003
+4.05008347245E+007, +5.37265374236E+001, +1.22896295068E+003
+4.06661101836E+007, +5.17752313605E+001, +1.23880440566E+003
+4.08313856427E+007, +5.39308133809E+001, +1.25597573770E+003
+4.09966611018E+007, +5.50803367070E+001, +1.25454051246E+003
+4.11619365609E+007, +6.23032193813E+001, +1.27087046372E+003
+4.13272120200E+007, +6.32301615103E+001, +1.28137454852E+003
+4.14924874791E+007, +5.90796209379E+001, +1.28947463735E+003
+4.16577629382E+007, +6.04149379787E+001, +1.30701082944E+003
+4.18230383973E+007, +5.67443635621E+001, +1.31312664892E+003
+4.19883138564E+007, +6.13198115224E+001, +1.33593160928E+003
+4.21535893155E+007, +6.27085666025E+001, +1.33555352044E+003
+4.23188647746E+007, +6.58158281568E+001, +1.35921879080E+003
+4.24841402337E+007, +6.41077010445E+001, +1.37720387869E+003
+4.26494156928E+007, +6.00644671606E+001, +1.38129833906E+003
+4.28146911519E+007, +7.04997389392E+001, +1.39854388611E+003
+4.29799666110E+007, +7.48549911578E+001, +1.41330589396E+003
+4.31452420701E+007, +7.45184756688E+001, +1.43376125239E+003
+4.33105175292E+007, +7.69969587833E+001, +1.43738774357E+003
+4.34757929883E+007, +6.33079563261E+001, +1.46338647428E+003
+4.36410684474E+007, +6.60371805980E+001, +1.46619112745E+003
+4.38063439065E+007, +6.76384886997E+001, +1.48525647568E+003
+4.39716193656E+007, +9.20722568534E+001, +1.49767139126E+003
+4.41368948247E+007, +7.91061746216E+001, +1.51689593789E+003
+4.43021702838E+007, +8.63113368648E+001, +1.53870150651E+003
+4.44674457429E+007, +8.21693639121E+001, +1.54887979614E+003
+4.46327212020E+007, +8.74153243901E+001, +1.56861020145E+003
+4.47979966611E+007, +8.72244009031E+001, +1.58882607356E+003
+4.49632721202E+007, +9.20255872155E+001, +1.61668492164E+003
+4.51285475793E+007, +9.34103783321E+001, +1.63189209112E+003
+4.52938230384E+007, +9.72301140878E+001, +1.65194909820E+003
+4.54590984975E+007, +9.67664918448E+001, +1.65478060915E+003
+4.56243739566E+007, +1.18794510274E+002, +1.68033694409E+003
+4.57896494157E+007, +1.16421471407E+002, +1.70362826807E+003
+4.59549248748E+007, +1.16732427360E+002, +1.72785858437E+003
+4.61202003339E+007, +1.05454272358E+002, +1.75390135044E+003
+4.62854757930E+007, +1.23772863282E+002, +1.77574454241E+003
+4.64507512521E+007, +1.33122178881E+002, +1.80281386877E+003
+4.66160267112E+007, +1.54745631810E+002, +1.82224123108E+003
+4.67813021703E+007, +1.51687389111E+002, +1.84608927606E+003
+4.69465776294E+007, +1.47467370528E+002, +1.85869559182E+003
+4.71118530885E+007, +1.60804545382E+002, +1.89710289040E+003
+4.72771285476E+007, +1.80423375238E+002, +1.91182381626E+003
+4.74424040067E+007, +1.92463995291E+002, +1.94511102364E+003
+4.76076794658E+007, +1.89295206420E+002, +1.97907623898E+003
+4.77729549249E+007, +1.90182734498E+002, +2.00489068259E+003
+4.79382303840E+007, +2.09304687552E+002, +2.01527420277E+003
+4.81035058431E+007, +2.20977907933E+002, +2.06535548086E+003
+4.82687813022E+007, +2.21986806631E+002, +2.06392349222E+003
+4.84340567613E+007, +2.62292129798E+002, +2.10113127992E+003
+4.85993322204E+007, +2.77778174449E+002, +2.11896916305E+003
+4.87646076795E+007, +2.86820794304E+002, +2.15316132173E+003
+4.89298831386E+007, +2.91692190880E+002, +2.16650588598E+003
+4.90951585977E+007, +2.98647183916E+002, +2.20419191638E+003
+4.92604340568E+007, +3.22072428488E+002, +2.23018965065E+003
+4.94257095159E+007, +3.26414472398E+002, +2.25768156938E+003
+4.95909849750E+007, +3.47075278230E+002, +2.29269589893E+003
+4.97562604341E+007, +3.71451078840E+002, +2.29936626904E+003
+4.99215358932E+007, +3.58570916188E+002, +2.35485284528E+003
+5.00868113523E+007, +3.90562687905E+002, +2.40707885559E+003
+5.02520868114E+007, +4.08900216584E+002, +2.43928875338E+003
+5.04173622705E+007, +4.32474410245E+002, +2.44240412296E+003
+5.05826377295E+007, +4.38904001627E+002, +2.45402814654E+003
+5.07479131886E+007, +4.56704529531E+002, +2.52264721627E+003
+5.09131886477E+007, +4.42436793399E+002, +2.54755168532E+003
+5.10784641068E+007, +4.73008651731E+002, +2.58686523120E+003
+5.12437395659E+007, +5.12585759201E+002, +2.64581070671E+003
+5.14090150250E+007, +5.26738530459E+002, +2.67314467297E+003
+5.15742904841E+007, +5.43910500633E+002, +2.69897760660E+003
+5.17395659432E+007, +5.61931681235E+002, +2.71823282121E+003
+5.19048414023E+007, +5.66294600248E+002, +2.78812030863E+003
+5.20701168614E+007, +5.80316280187E+002, +2.84845523155E+003
+5.22353923205E+007, +6.04295632950E+002, +2.92350778148E+003
+5.24006677796E+007, +5.75090076662E+002, +2.94608233336E+003
+5.25659432387E+007, +6.36512042919E+002, +3.03169124622E+003
+5.27312186978E+007, +6.73178721466E+002, +3.07229218683E+003
+5.28964941569E+007, +6.89191871558E+002, +3.20329455168E+003
+5.30617696160E+007, +7.12463917866E+002, +3.27173085177E+003
+5.32270450751E+007, +7.77349805565E+002, +3.30806755939E+003
+5.33923205342E+007, +7.56272874399E+002, +3.49707062002E+003
+5.35575959933E+007, +8.12203025896E+002, +3.59225631971E+003
+5.37228714524E+007, +8.53257365214E+002, +3.73272283252E+003
+5.38881469115E+007, +9.02862620665E+002, +3.71791711257E+003
