"# Channel 1"
"# Trace 1"
Frequency, Formatted Data, Formatted Data
+1.00000000000E+005, +4.64230903952E+001, +2.14654617216E+000
+2.25031289111E+005, +4.63816390525E+001, +5.13460254389E+000
+3.50062578223E+005, +4.64051588488E+001, +8.05527807732E+000
+4.75093867334E+005, +4.64152588038E+001, +1.09217774043E+001
+6.00125156446E+005, +4.64114603269E+001, +1.37517710128E+001
+7.25156445557E+005, +4.64864484794E+001, +1.66105797727E+001
+8.50187734668E+005, +4.64262817928E+001, +1.94374791791E+001
+9.75219023780E+005, +4.64808434247E+001, +2.22810137701E+001
+1.10025031289E+006, +4.65053158867E+001, +2.51213212411E+001
+1.22528160200E+006, +4.65600888385E+001, +2.79475521713E+001
+1.35031289111E+006, +4.65781686032E+001, +3.08113828248E+001
+1.47534418023E+006, +4.65739836449E+001, +3.36741236183E+001
+1.60037546934E+006, +4.65137611681E+001, +3.65272628870E+001
+1.72540675845E+006, +4.65765927357E+001, +3.93915450222E+001
+1.85043804756E+006, +4.65612817278E+001, +4.22342908005E+001
+1.97546933667E+006, +4.65549865217E+001, +4.50563395327E+001
+2.10050062578E+006, +4.66006348645E+001, +4.79179027397E+001
+2.22553191489E+006, +4.66017373789E+001, +5.07400831050E+001
+2.35056320401E+006, +4.66795307887E+001, +5.35427705168E+001
+2.47559449312E+006, +4.66583393127E+001, +5.64780142971E+001
+2.60062578223E+006, +4.67000626528E+001, +5.93199028220E+001
+2.72565707134E+006, +4.67454649494E+001, +6.22255885652E+001
+2.85068836045E+006, +4.67359690587E+001, +6.49693997702E+001
+2.97571964956E+006, +4.67350422531E+001, +6.78428046413E+001
+3.10075093867E+006, +4.68074023884E+001, +7.07072961113E+001
+3.22578222778E+006, +4.69039693878E+001, +7.34969035073E+001
+3.35081351690E+006, +4.68095273921E+001, +7.64149497009E+001
+3.47584480601E+006, +4.69328161883E+001, +7.92527109292E+001
+3.60087609512E+006, +4.68546730266E+001, +8.20706772017E+001
+3.72590738423E+006, +4.68616100730E+001, +8.50208022613E+001
+3.85093867334E+006, +4.67701189949E+001, +8.82514502962E+001
+3.97596996245E+006, +4.69776406933E+001, +9.14026342538E+001
+4.10100125156E+006, +4.85302671853E+001, +9.14338448160E+001
+4.22603254068E+006, +4.68795389014E+001, +9.62870446508E+001
+4.35106382979E+006, +4.69663266385E+001, +9.92470577430E+001
+4.47609511890E+006, +4.70125808752E+001, +1.02236978976E+002
+4.60112640801E+006, +4.69978621838E+001, +1.05233006452E+002
+4.72615769712E+006, +4.70782822646E+001, +1.08018301010E+002
+4.85118898623E+006, +4.71602759776E+001, +1.10861044346E+002
+4.97622027534E+006, +4.72163389444E+001, +1.13695693352E+002
+5.10125156446E+006, +4.72164413807E+001, +1.16553962167E+002
+5.22628285357E+006, +4.71928080563E+001, +1.19546404947E+002
+5.35131414268E+006, +4.73009347049E+001, +1.22420778134E+002
+5.47634543179E+006, +4.71687687112E+001, +1.25398085464E+002
+5.60137672090E+006, +4.71809281692E+001, +1.28354489564E+002
+5.72640801001E+006, +4.73912337303E+001, +1.31307299671E+002
+5.85143929912E+006, +4.75010315277E+001, +1.34057203058E+002
+5.97647058824E+006, +4.71646619224E+001, +1.36955693261E+002
+6.10150187735E+006, +4.75970387874E+001, +1.40038904613E+002
+6.22653316646E+006, +4.73224947053E+001, +1.43032021078E+002
+6.35156445557E+006, +4.75259834788E+001, +1.45957615901E+002
+6.47659574468E+006, +4.76824472347E+001, +1.48821465790E+002
+6.60162703379E+006, +4.77737023162E+001, +1.51830073204E+002
+6.72665832290E+006, +4.79618259731E+001, +1.54864007312E+002
+6.85168961202E+006, +4.78684339769E+001, +1.57705223830E+002
+6.97672090113E+006, +4.78722877770E+001, +1.60774396286E+002
+7.10175219024E+006, +4.80776974440E+001, +1.63680082659E+002
+7.22678347935E+006, +4.81941983836E+001, +1.66710480394E+002
+7.35181476846E+006, +4.83026492900E+001, +1.69705857824E+002
+7.47684605757E+006, +4.80963117358E+001, +1.72491200896E+002
+7.60187734668E+006, +4.82616993524E+001, +1.75386976571E+002
+7.72690863579E+006, +4.84911335538E+001, +1.78442716176E+002
+7.85193992491E+006, +4.86734068376E+001, +1.81430121765E+002
+7.97697121402E+006, +4.83126713520E+001, +1.84460285436E+002
+8.10200250313E+006, +4.86929207651E+001, +1.87549376322E+002
+8.22703379224E+006, +4.87928049405E+001, +1.90229107549E+002
+8.35206508135E+006, +4.90198141331E+001, +1.93418302529E+002
+8.47709637046E+006, +4.88120998470E+001, +1.96534798802E+002
+8.60212765957E+006, +4.87342309732E+001, +1.99259326166E+002
+8.72715894869E+006, +4.90515282979E+001, +2.01955801740E+002
+8.85219023780E+006, +4.91890654486E+001, +2.04809274364E+002
+8.97722152691E+006, +4.93175189797E+001, +2.07830621875E+002
+9.10225281602E+006, +4.90353487369E+001, +2.10935411460E+002
+9.22728410513E+006, +4.91298555380E+001, +2.14249270424E+002
+9.35231539424E+006, +4.88943259754E+001, +2.17485308559E+002
+9.47734668335E+006, +4.92454655914E+001, +2.20103230712E+002
+9.60237797247E+006, +4.94704784575E+001, +2.22436830025E+002
+9.72740926158E+006, +4.93478334306E+001, +2.24953262230E+002
+9.85244055069E+006, +4.97448596357E+001, +2.27771036558E+002
+9.97747183980E+006, +4.96388484991E+001, +2.30748437059E+002
+1.01025031289E+007, +4.97096854516E+001, +2.33240958009E+002
+1.02275344180E+007, +4.97028994365E+001, +2.36124130994E+002
+1.03525657071E+007, +4.96317666559E+001, +2.39197052406E+002
+1.04775969962E+007, +4.97203953984E+001, +2.42123609499E+002
+1.06026282854E+007, +4.98204544757E+001, +2.45491152716E+002
+1.07276595745E+007, +4.96447491110E+001, +2.48489351633E+002
+1.08526908636E+007, +5.00033939496E+001, +2.51818435627E+002
+1.09777221527E+007, +4.99931291086E+001, +2.55623777577E+002
+1.11027534418E+007, +4.99053133845E+001, +2.58776378756E+002
+1.12277847309E+007, +4.99928849150E+001, +2.62462654833E+002
+1.13528160200E+007, +5.02919940366E+001, +2.66247534943E+002
+1.14778473091E+007, +5.01969500018E+001, +2.70069044078E+002
+1.16028785982E+007, +4.98730713355E+001, +2.73245129784E+002
+1.17279098874E+007, +5.06235218151E+001, +2.76224088731E+002
+1.18529411765E+007, +5.04779730778E+001, +2.79334654158E+002
+1.19779724656E+007, +5.01958674724E+001, +2.82766248389E+002
+1.21030037547E+007, +5.03383349584E+001, +2.85664844599E+002
+1.22280350438E+007, +5.07736420933E+001, +2.89190693731E+002
+1.23530663329E+007, +5.07989167591E+001, +2.92373040562E+002
+1.24780976220E+007, +5.13718057868E+001, +2.96018297426E+002
+1.26031289111E+007, +5.01746794877E+001, +2.98917104185E+002
+1.27281602003E+007, +5.08023081673E+001, +3.01946087810E+002
+1.28531914894E+007, +5.09130171632E+001, +3.05550816035E+002
+1.29782227785E+007, +5.10029838858E+001, +3.08749001185E+002
+1.31032540676E+007, +5.07148837650E+001, +3.11830845364E+002
+1.32282853567E+007, +5.13937831314E+001, +3.15222672747E+002
+1.33533166458E+007, +5.13600589211E+001, +3.18576907961E+002
+1.34783479349E+007, +5.12975900564E+001, +3.21814922311E+002
+1.36033792240E+007, +5.17039941665E+001, +3.25074078091E+002
+1.37284105131E+007, +5.17712627148E+001, +3.28240137856E+002
+1.38534418023E+007, +5.22542747347E+001, +3.32435598172E+002
+1.39784730914E+007, +5.23600107302E+001, +3.35086612076E+002
+1.41035043805E+007, +5.17136966701E+001, +3.38726220469E+002
+1.42285356696E+007, +5.18401196467E+001, +3.42658424116E+002
+1.43535669587E+007, +5.17822449500E+001, +3.45537095061E+002
+1.44785982478E+007, +5.22362168075E+001, +3.49250261767E+002
+1.46036295369E+007, +5.17099978675E+001, +3.52758363416E+002
+1.47286608260E+007, +5.23264130782E+001, +3.55509420330E+002
+1.48536921151E+007, +5.27372438424E+001, +3.58913990027E+002
+1.49787234043E+007, +5.26155172814E+001, +3.62925720083E+002
+1.51037546934E+007, +5.28201604589E+001, +3.66319629796E+002
+1.52287859825E+007, +5.27072729219E+001, +3.69751878060E+002
+1.53538172716E+007, +5.30619157201E+001, +3.73523585709E+002
+1.54788485607E+007, +5.33910293200E+001, +3.76779756501E+002
+1.56038798498E+007, +5.36792329936E+001, +3.80362894007E+002
+1.57289111389E+007, +5.32217313811E+001, +3.84085066224E+002
+1.58539424280E+007, +5.40251816132E+001, +3.87340496990E+002
+1.59789737171E+007, +5.43094460626E+001, +3.91488266397E+002
+1.61040050063E+007, +5.34811251178E+001, +3.94669753718E+002
+1.62290362954E+007, +5.41171022644E+001, +3.98246606006E+002
+1.63540675845E+007, +5.39315881997E+001, +4.02404604485E+002
+1.64790988736E+007, +5.36846630922E+001, +4.05476183706E+002
+1.66041301627E+007, +5.52607560627E+001, +4.09101443130E+002
+1.67291614518E+007, +5.44253734994E+001, +4.12821574651E+002
+1.68541927409E+007, +5.47024547782E+001, +4.16577553085E+002
+1.69792240300E+007, +5.48228688692E+001, +4.20863508124E+002
+1.71042553191E+007, +5.48610454551E+001, +4.23754755529E+002
+1.72292866083E+007, +5.57788335931E+001, +4.27555627577E+002
+1.73543178974E+007, +5.51300563055E+001, +4.31272918087E+002
+1.74793491865E+007, +5.53082432830E+001, +4.35256195642E+002
+1.76043804756E+007, +5.58202150620E+001, +4.38499445775E+002
+1.77294117647E+007, +5.59187122018E+001, +4.43039446730E+002
+1.78544430538E+007, +5.56284954602E+001, +4.46576421083E+002
+1.79794743429E+007, +5.63341097183E+001, +4.50578544784E+002
+1.81045056320E+007, +5.63243311557E+001, +4.53832085661E+002
+1.82295369212E+007, +5.64186266082E+001, +4.58003033427E+002
+1.83545682103E+007, +5.65811865274E+001, +4.62612703593E+002
+1.84795994994E+007, +5.64867338647E+001, +4.65853985192E+002
+1.86046307885E+007, +5.74911923052E+001, +4.70469741952E+002
+1.87296620776E+007, +5.68659199575E+001, +4.73521903787E+002
+1.88546933667E+007, +5.76068487670E+001, +4.78462592104E+002
+1.89797246558E+007, +5.83006204466E+001, +4.82744680781E+002
+1.91047559449E+007, +5.72651983863E+001, +4.85286959558E+002
+1.92297872340E+007, +5.82615169830E+001, +4.90522847201E+002
+1.93548185232E+007, +5.84453010121E+001, +4.94815622353E+002
+1.94798498123E+007, +5.84371295994E+001, +4.96945180006E+002
+1.96048811014E+007, +5.84020873597E+001, +5.02375164150E+002
+1.97299123905E+007, +5.88818156658E+001, +5.07114585467E+002
+1.98549436796E+007, +5.95137501027E+001, +5.10393124702E+002
+1.99799749687E+007, +5.91283433750E+001, +5.15014369300E+002
+2.01050062578E+007, +5.98869765819E+001, +5.18228930449E+002
+2.02300375469E+007, +5.92893024468E+001, +5.22629849627E+002
+2.03550688360E+007, +6.12847664897E+001, +5.28356728337E+002
+2.04801001252E+007, +6.04703802227E+001, +5.32353680898E+002
+2.06051314143E+007, +6.07420047035E+001, +5.36096490232E+002
+2.07301627034E+007, +6.06628718854E+001, +5.39673486253E+002
+2.08551939925E+007, +6.26673735742E+001, +5.44185099928E+002
+2.09802252816E+007, +6.27313170431E+001, +5.48562907707E+002
+2.11052565707E+007, +6.28622169253E+001, +5.53530512365E+002
+2.12302878598E+007, +6.17824493139E+001, +5.57336890013E+002
+2.13553191489E+007, +6.20125434353E+001, +5.61883330426E+002
+2.14803504380E+007, +6.31219030715E+001, +5.66338946930E+002
+2.16053817272E+007, +6.49472568579E+001, +5.71536223198E+002
+2.17304130163E+007, +6.46264300697E+001, +5.76932898611E+002
+2.18554443054E+007, +6.44563698457E+001, +5.79727000242E+002
+2.19804755945E+007, +6.42774418991E+001, +5.86719014680E+002
+2.21055068836E+007, +6.57548561095E+001, +5.90895164865E+002
+2.22305381727E+007, +6.58877609720E+001, +5.94297966773E+002
+2.23555694618E+007, +6.63725781210E+001, +6.00254986577E+002
+2.24806007509E+007, +6.63349128525E+001, +6.03976572952E+002
+2.26056320401E+007, +6.78652400054E+001, +6.09751690440E+002
+2.27306633292E+007, +6.71595560962E+001, +6.13667525706E+002
+2.28556946183E+007, +6.83199978031E+001, +6.18037492898E+002
+2.29807259074E+007, +7.02106049029E+001, +6.21487978658E+002
+2.31057571965E+007, +6.89357460861E+001, +6.28775928758E+002
+2.32307884856E+007, +7.02499619254E+001, +6.31572363785E+002
+2.33558197747E+007, +7.00254098924E+001, +6.37415472804E+002
+2.34808510638E+007, +7.08007474955E+001, +6.40558813972E+002
+2.36058823529E+007, +7.27583203904E+001, +6.45568779014E+002
+2.37309136421E+007, +7.25290137706E+001, +6.50546680216E+002
+2.38559449312E+007, +7.22190798777E+001, +6.57154711669E+002
+2.39809762203E+007, +7.19564602970E+001, +6.60250037221E+002
+2.41060075094E+007, +7.22693012227E+001, +6.63710239959E+002
+2.42310387985E+007, +7.42977911042E+001, +6.71241193683E+002
+2.43560700876E+007, +7.32170735956E+001, +6.74685513436E+002
+2.44811013767E+007, +7.32654103535E+001, +6.79735834110E+002
+2.46061326658E+007, +7.59725061416E+001, +6.85125323396E+002
+2.47311639549E+007, +7.42122508110E+001, +6.89669450859E+002
+2.48561952441E+007, +7.43587611761E+001, +6.93485425808E+002
+2.49812265332E+007, +7.60031321854E+001, +6.98572569590E+002
+2.51062578223E+007, +7.59794575530E+001, +7.02892048703E+002
+2.52312891114E+007, +7.30895931248E+001, +7.09958469460E+002
+2.53563204005E+007, +7.58650168343E+001, +7.14180955533E+002
+2.54813516896E+007, +7.48149356130E+001, +7.19392798668E+002
+2.56063829787E+007, +7.55147904504E+001, +7.27029330160E+002
+2.57314142678E+007, +7.75794737895E+001, +7.31364783485E+002
+2.58564455569E+007, +7.52166696853E+001, +7.38197663229E+002
+2.59814768461E+007, +7.78961705208E+001, +7.42404859844E+002
+2.61065081352E+007, +7.56191209928E+001, +7.48811439604E+002
+2.62315394243E+007, +7.68769776814E+001, +7.53576571040E+002
+2.63565707134E+007, +7.54839261432E+001, +7.63049123073E+002
+2.64816020025E+007, +7.85513625874E+001, +7.66487249940E+002
+2.66066332916E+007, +7.72399101238E+001, +7.70224612225E+002
+2.67316645807E+007, +7.84633738108E+001, +7.78235101519E+002
+2.68566958698E+007, +8.05635830505E+001, +7.82655944725E+002
+2.69817271589E+007, +7.81701721777E+001, +7.89422312176E+002
+2.71067584481E+007, +8.13664017333E+001, +7.97134641599E+002
+2.72317897372E+007, +8.09299113029E+001, +8.03910056168E+002
+2.73568210263E+007, +8.50960301703E+001, +8.09994397463E+002
+2.74818523154E+007, +8.33540922269E+001, +8.15684916708E+002
+2.76068836045E+007, +8.22249162616E+001, +8.21068142508E+002
+2.77319148936E+007, +8.51377739704E+001, +8.30058459598E+002
+2.78569461827E+007, +8.48113976844E+001, +8.31189559801E+002
+2.79819774718E+007, +8.56473364578E+001, +8.36270182661E+002
+2.81070087610E+007, +8.53489085286E+001, +8.44922869962E+002
+2.82320400501E+007, +8.50531214366E+001, +8.52969486239E+002
+2.83570713392E+007, +8.72324802597E+001, +8.58131993533E+002
+2.84821026283E+007, +8.93600782784E+001, +8.64298743899E+002
+2.86071339174E+007, +9.07074317165E+001, +8.68145053049E+002
+2.87321652065E+007, +9.17593301173E+001, +8.77475682732E+002
+2.88571964956E+007, +8.81908303823E+001, +8.84569245088E+002
+2.89822277847E+007, +9.25976748569E+001, +8.94160708454E+002
+2.91072590738E+007, +9.05352862951E+001, +9.00773855538E+002
+2.92322903630E+007, +9.24122164303E+001, +9.08768652696E+002
+2.93573216521E+007, +9.14057261040E+001, +9.17280368439E+002
+2.94823529412E+007, +9.49907583669E+001, +9.19008509830E+002
+2.96073842303E+007, +9.52452144548E+001, +9.27400371542E+002
+2.97324155194E+007, +9.54939533636E+001, +9.34174916985E+002
+2.98574468085E+007, +9.26578911885E+001, +9.41773331554E+002
+2.99824780976E+007, +9.88344453727E+001, +9.52189893675E+002
+3.01075093867E+007, +9.75421811704E+001, +9.56992909221E+002
+3.02325406758E+007, +9.81849459064E+001, +9.64393624467E+002
+3.03575719650E+007, +9.92810871231E+001, +9.73987301415E+002
+3.04826032541E+007, +1.00854206751E+002, +9.80435301102E+002
+3.06076345432E+007, +1.05818360017E+002, +9.90272763385E+002
+3.07326658323E+007, +1.02905446674E+002, +9.95343209528E+002
+3.08576971214E+007, +1.06700425293E+002, +1.00450405810E+003
+3.09827284105E+007, +1.06256662285E+002, +1.01208463561E+003
+3.11077596996E+007, +1.08192498486E+002, +1.02109825429E+003
+3.12327909887E+007, +1.08099481682E+002, +1.03133372743E+003
+3.13578222778E+007, +1.11132044762E+002, +1.03638189489E+003
+3.14828535670E+007, +1.11717364788E+002, +1.05044366476E+003
+3.16078848561E+007, +1.11815435624E+002, +1.05564504781E+003
+3.17329161452E+007, +1.14561279079E+002, +1.06237134853E+003
+3.18579474343E+007, +1.14171950096E+002, +1.07022612393E+003
+3.19829787234E+007, +1.16553100536E+002, +1.08106684962E+003
+3.21080100125E+007, +1.18639439007E+002, +1.09015861997E+003
+3.22330413016E+007, +1.18398215843E+002, +1.10139250960E+003
+3.23580725907E+007, +1.18944777150E+002, +1.10440036686E+003
+3.24831038798E+007, +1.19812838162E+002, +1.11592126976E+003
+3.26081351690E+007, +1.28071298678E+002, +1.12562454306E+003
+3.27331664581E+007, +1.27224562013E+002, +1.13253806625E+003
+3.28581977472E+007, +1.27879787216E+002, +1.14224287166E+003
+3.29832290363E+007, +1.28552813913E+002, +1.14930362157E+003
+3.31082603254E+007, +1.33793595498E+002, +1.16532783528E+003
+3.32332916145E+007, +1.32112825214E+002, +1.17391427551E+003
+3.33583229036E+007, +1.36059537395E+002, +1.18581846609E+003
+3.34833541927E+007, +1.32064140922E+002, +1.18962252407E+003
+3.36083854819E+007, +1.34612167681E+002, +1.20238911085E+003
+3.37334167710E+007, +1.41083979078E+002, +1.21214111471E+003
+3.38584480601E+007, +1.40825340655E+002, +1.22323945161E+003
+3.39834793492E+007, +1.43367416216E+002, +1.23453972588E+003
+3.41085106383E+007, +1.41834536879E+002, +1.24725940570E+003
+3.42335419274E+007, +1.44568317045E+002, +1.25263208767E+003
+3.43585732165E+007, +1.42443426014E+002, +1.26856431067E+003
+3.44836045056E+007, +1.50758249344E+002, +1.28240972617E+003
+3.46086357947E+007, +1.46509442325E+002, +1.28582532476E+003
+3.47336670839E+007, +1.51610951140E+002, +1.30060678192E+003
+3.48586983730E+007, +1.56485528246E+002, +1.31316985617E+003
+3.49837296621E+007, +1.61290266879E+002, +1.32093372143E+003
+3.51087609512E+007, +1.71962107200E+002, +1.33276428705E+003
+3.52337922403E+007, +1.66996690283E+002, +1.34842483719E+003
+3.53588235294E+007, +1.66242641872E+002, +1.36081249705E+003
+3.54838548185E+007, +1.59546963993E+002, +1.37126831449E+003
+3.56088861076E+007, +1.70310561751E+002, +1.38679589639E+003
+3.57339173967E+007, +1.85177245105E+002, +1.39826842738E+003
+3.58589486859E+007, +1.74965438307E+002, +1.41186113737E+003
+3.59839799750E+007, +1.81479571716E+002, +1.42304990788E+003
+3.61090112641E+007, +1.83428826623E+002, +1.43472207345E+003
+3.62340425532E+007, +1.86931683201E+002, +1.45122681083E+003
+3.63590738423E+007, +1.91194430978E+002, +1.46320559887E+003
+3.64841051314E+007, +1.93788808869E+002, +1.47577341911E+003
+3.66091364205E+007, +2.03980282152E+002, +1.48953888687E+003
+3.67341677096E+007, +2.02849472250E+002, +1.51324286827E+003
+3.68591989987E+007, +1.96768085425E+002, +1.51591990950E+003
+3.69842302879E+007, +2.14403032595E+002, +1.54155705346E+003
+3.71092615770E+007, +2.12696645149E+002, +1.55303930057E+003
+3.72342928661E+007, +2.22679945389E+002, +1.56480268609E+003
+3.73593241552E+007, +2.24441656045E+002, +1.58283693347E+003
+3.74843554443E+007, +2.21807438276E+002, +1.59995476699E+003
+3.76093867334E+007, +2.37699609430E+002, +1.60721725717E+003
+3.77344180225E+007, +2.34909297970E+002, +1.63203990287E+003
+3.78594493116E+007, +2.37755796932E+002, +1.65859906510E+003
+3.79844806008E+007, +2.38806772814E+002, +1.66617340953E+003
+3.81095118899E+007, +2.53615952072E+002, +1.67586487651E+003
+3.82345431790E+007, +2.57170177040E+002, +1.70276972480E+003
+3.83595744681E+007, +2.52121027891E+002, +1.71788011877E+003
+3.84846057572E+007, +2.64773298911E+002, +1.73600589924E+003
+3.86096370463E+007, +2.75074491580E+002, +1.75747784428E+003
+3.87346683354E+007, +2.70371080485E+002, +1.77570312662E+003
+3.88596996245E+007, +2.78042222421E+002, +1.79550782144E+003
+3.89847309136E+007, +2.78709856365E+002, +1.82375889854E+003
+3.91097622028E+007, +2.91076399075E+002, +1.83214389219E+003
+3.92347934919E+007, +2.94624965525E+002, +1.85433511712E+003
+3.93598247810E+007, +3.09086270281E+002, +1.88665070625E+003
+3.94848560701E+007, +3.13310965115E+002, +1.90131045255E+003
+3.96098873592E+007, +3.11591185666E+002, +1.92365601495E+003
+3.97349186483E+007, +3.27659735038E+002, +1.95078752082E+003
+3.98599499374E+007, +3.35004890362E+002, +1.97949296346E+003
+3.99849812265E+007, +3.44004995784E+002, +1.98053206210E+003
+4.01100125156E+007, +3.56360923275E+002, +2.01072565816E+003
