"# Channel 1"
"# Trace 1"
Frequency, Formatted Data, Formatted Data
+1.00000000000E+005, +7.24701072254E-001, +2.38194246703E+000
+2.25031289111E+005, +6.88287751415E-001, +5.27428695563E+000
+3.50062578223E+005, +7.25239928207E-001, +8.26069104555E+000
+4.75093867334E+005, +7.73671177166E-001, +1.11613965179E+001
+6.00125156446E+005, +7.76036504143E-001, +1.40906353020E+001
+7.25156445557E+005, +7.72312598565E-001, +1.70279655375E+001
+8.50187734668E+005, +7.95537957448E-001, +1.99255233867E+001
+9.75219023780E+005, +8.48473224580E-001, +2.28163550085E+001
+1.10025031289E+006, +8.65683976049E-001, +2.56879637985E+001
+1.22528160200E+006, +9.24493411061E-001, +2.86048129427E+001
+1.35031289111E+006, +9.35323567323E-001, +3.15186128362E+001
+1.47534418023E+006, +9.37560272878E-001, +3.43924018795E+001
+1.60037546934E+006, +9.92136011917E-001, +3.72528049352E+001
+1.72540675845E+006, +9.53907020955E-001, +4.01723379525E+001
+1.85043804756E+006, +1.04255778099E+000, +4.30140785013E+001
+1.97546933667E+006, +1.05224255940E+000, +4.59756463961E+001
+2.10050062578E+006, +1.05916027686E+000, +4.87454374843E+001
+2.22553191489E+006, +1.07507101577E+000, +5.16022055272E+001
+2.35056320401E+006, +1.12455452331E+000, +5.45247356165E+001
+2.47559449312E+006, +1.11687872212E+000, +5.73862701832E+001
+2.60062578223E+006, +1.01590295832E+000, +6.02741078290E+001
+2.72565707134E+006, +1.08762603355E+000, +6.31451765832E+001
+2.85068836045E+006, +1.09759152155E+000, +6.60041153851E+001
+2.97571964956E+006, +1.21339417162E+000, +6.89627355168E+001
+3.10075093867E+006, +1.07562004739E+000, +7.17805926441E+001
+3.22578222778E+006, +1.09338049860E+000, +7.47201811341E+001
+3.35081351690E+006, +1.20696395754E+000, +7.76196938041E+001
+3.47584480601E+006, +1.20170076581E+000, +8.04608233789E+001
+3.60087609512E+006, +1.10480432279E+000, +8.34831756548E+001
+3.72590738423E+006, +1.17637056615E+000, +8.62851274663E+001
+3.85093867334E+006, +1.26205106780E+000, +8.92684841642E+001
+3.97596996245E+006, +1.16355206179E+000, +9.20474752555E+001
+4.10100125156E+006, +1.30653861837E+000, +9.50125814446E+001
+4.22603254068E+006, +1.12004542369E+000, +9.78939053498E+001
+4.35106382979E+006, +1.11540565232E+000, +1.00687589572E+002
+4.47609511890E+006, +1.02426472873E+000, +1.03564669745E+002
+4.60112640801E+006, +1.06672406880E+000, +1.06488924836E+002
+4.72615769712E+006, +1.19656461794E+000, +1.09428185423E+002
+4.85118898623E+006, +1.28722225131E+000, +1.12224296231E+002
+4.97622027534E+006, +1.21761792076E+000, +1.15241544952E+002
+5.10125156446E+006, +1.23575197834E+000, +1.18229125285E+002
+5.22628285357E+006, +1.37642495572E+000, +1.20980674727E+002
+5.35131414268E+006, +1.17299389340E+000, +1.23859435086E+002
+5.47634543179E+006, +1.15721566020E+000, +1.26867249306E+002
+5.60137672090E+006, +1.18074182152E+000, +1.29888890930E+002
+5.72640801001E+006, +1.42889842624E+000, +1.32728909923E+002
+5.85143929912E+006, +1.38594108422E+000, +1.35783356220E+002
+5.97647058824E+006, +1.34914100110E+000, +1.38637294228E+002
+6.10150187735E+006, +1.31845078144E+000, +1.41343261904E+002
+6.22653316646E+006, +1.44787083025E+000, +1.44419494192E+002
+6.35156445557E+006, +1.47585660289E+000, +1.47242212341E+002
+6.47659574468E+006, +1.41536292869E+000, +1.50250750040E+002
+6.60162703379E+006, +1.52740539423E+000, +1.53138615688E+002
+6.72665832290E+006, +1.45092434836E+000, +1.55989175029E+002
+6.85168961202E+006, +1.53686164861E+000, +1.59020800616E+002
+6.97672090113E+006, +1.59727049429E+000, +1.61894071778E+002
+7.10175219024E+006, +1.55301286352E+000, +1.64803545955E+002
+7.22678347935E+006, +1.59524853653E+000, +1.67699619950E+002
+7.35181476846E+006, +1.74071733379E+000, +1.70895736859E+002
+7.47684605757E+006, +1.55535609659E+000, +1.73508400664E+002
+7.60187734668E+006, +1.72280253262E+000, +1.76453948120E+002
+7.72690863579E+006, +1.79068476872E+000, +1.79339438169E+002
+7.85193992491E+006, +1.56199554564E+000, +1.82431935964E+002
+7.97697121402E+006, +1.38357323011E+000, +1.85389862072E+002
+8.10200250313E+006, +1.78248953429E+000, +1.88268917737E+002
+8.22703379224E+006, +1.86617241223E+000, +1.91459382226E+002
+8.35206508135E+006, +1.86608028434E+000, +1.94260969508E+002
+8.47709637046E+006, +1.80133764988E+000, +1.97202141584E+002
+8.60212765957E+006, +1.81630661985E+000, +2.00239852210E+002
+8.72715894869E+006, +1.61005023897E+000, +2.02903940804E+002
+8.85219023780E+006, +1.74694715047E+000, +2.05760647261E+002
+8.97722152691E+006, +1.79733900121E+000, +2.08947139165E+002
+9.10225281602E+006, +1.66771165694E+000, +2.11790415482E+002
+9.22728410513E+006, +1.66458364028E+000, +2.14718282309E+002
+9.35231539424E+006, +1.50566136676E+000, +2.17601583837E+002
+9.47734668335E+006, +1.51465273454E+000, +2.21028673049E+002
+9.60237797247E+006, +1.58625414308E+000, +2.23916537818E+002
+9.72740926158E+006, +1.41797808863E+000, +2.26484485535E+002
+9.85244055069E+006, +1.62032900720E+000, +2.29812993758E+002
+9.97747183980E+006, +1.63428280531E+000, +2.32746945688E+002
+1.01025031289E+007, +1.44621494215E+000, +2.35447787497E+002
+1.02275344180E+007, +1.68548021622E+000, +2.38847043298E+002
+1.03525657071E+007, +1.72382205395E+000, +2.41388088364E+002
+1.04775969962E+007, +1.58196660377E+000, +2.44632303186E+002
+1.06026282854E+007, +1.42944182437E+000, +2.47413010464E+002
+1.07276595745E+007, +1.79849591988E+000, +2.50838983790E+002
+1.08526908636E+007, +1.68915721153E+000, +2.53800212837E+002
+1.09777221527E+007, +1.60702286399E+000, +2.56336200440E+002
+1.11027534418E+007, +1.59250970671E+000, +2.59714968747E+002
+1.12277847309E+007, +1.75428267785E+000, +2.62838822752E+002
+1.13528160200E+007, +1.48939872568E+000, +2.65398979662E+002
+1.14778473091E+007, +1.83786257930E+000, +2.68607632042E+002
+1.16028785982E+007, +1.59449084492E+000, +2.71242862077E+002
+1.17279098874E+007, +1.55699436714E+000, +2.74995166976E+002
+1.18529411765E+007, +1.43493514516E+000, +2.77249198348E+002
+1.19779724656E+007, +1.30897347313E+000, +2.80699879828E+002
+1.21030037547E+007, +1.02873094500E+000, +2.83210366631E+002
+1.22280350438E+007, +1.58924705918E+000, +2.86930302925E+002
+1.23530663329E+007, +1.48325373554E+000, +2.89915091694E+002
+1.24780976220E+007, +1.28271938343E+000, +2.92714833114E+002
+1.26031289111E+007, +1.61003922578E+000, +2.95947634466E+002
+1.27281602003E+007, +1.40164510297E+000, +2.98313640634E+002
+1.28531914894E+007, +1.46461816424E+000, +3.00970376514E+002
+1.29782227785E+007, +1.91675478646E+000, +3.04770643064E+002
+1.31032540676E+007, +1.67729380838E+000, +3.08152751227E+002
+1.32282853567E+007, +1.51643082282E+000, +3.10906963859E+002
+1.33533166458E+007, +1.59167079235E+000, +3.13941883672E+002
+1.34783479349E+007, +1.36021946210E+000, +3.17104847175E+002
+1.36033792240E+007, +1.46061474466E+000, +3.19976191939E+002
+1.37284105131E+007, +1.11637009410E+000, +3.23414591494E+002
+1.38534418023E+007, +1.57886828767E+000, +3.26041515198E+002
+1.39784730914E+007, +1.91398515302E+000, +3.29432045959E+002
+1.41035043805E+007, +1.52077989532E+000, +3.32769810307E+002
+1.42285356696E+007, +1.66522739142E+000, +3.35791508929E+002
+1.43535669587E+007, +2.14690245220E+000, +3.38749833435E+002
+1.44785982478E+007, +1.69419537805E+000, +3.42057009446E+002
+1.46036295369E+007, +1.97848164100E+000, +3.45051384334E+002
+1.47286608260E+007, +1.40398373985E+000, +3.47836674323E+002
+1.48536921151E+007, +2.17526728080E+000, +3.51063187318E+002
+1.49787234043E+007, +1.61330824886E+000, +3.54291319465E+002
+1.51037546934E+007, +1.54880643247E+000, +3.57531239388E+002
+1.52287859825E+007, +1.79923007694E+000, +3.60524802404E+002
+1.53538172716E+007, +1.23681028319E+000, +3.63744602796E+002
+1.54788485607E+007, +1.66224600058E+000, +3.66974907633E+002
+1.56038798498E+007, +1.13915270375E+000, +3.69900998456E+002
+1.57289111389E+007, +1.71516603686E+000, +3.72151271422E+002
+1.58539424280E+007, +1.41739672688E+000, +3.75448797883E+002
+1.59789737171E+007, +1.24032329317E+000, +3.78781274901E+002
+1.61040050063E+007, +1.68898486766E+000, +3.82084605425E+002
+1.62290362954E+007, +1.41052940719E+000, +3.85036999056E+002
+1.63540675845E+007, +1.87365663836E+000, +3.88447736454E+002
+1.64790988736E+007, +2.20057582911E+000, +3.92086986366E+002
+1.66041301627E+007, +2.61838614757E+000, +3.95119004326E+002
+1.67291614518E+007, +1.51352367560E+000, +3.97418440367E+002
+1.68541927409E+007, +1.32825600172E+000, +4.00792748673E+002
+1.69792240300E+007, +1.15472572376E+000, +4.05044675681E+002
+1.71042553191E+007, -7.55752413281E-002, +4.07311519970E+002
+1.72292866083E+007, +7.69555481781E-001, +4.11709527695E+002
+1.73543178974E+007, +1.49037630522E+000, +4.13628666234E+002
+1.74793491865E+007, +1.03762868638E+000, +4.17339530605E+002
+1.76043804756E+007, +1.19651170471E+000, +4.20940003212E+002
+1.77294117647E+007, -3.02653296250E-002, +4.23986498201E+002
+1.78544430538E+007, +6.64294747234E-001, +4.26317674889E+002
+1.79794743429E+007, +8.96046910534E-001, +4.30073310406E+002
+1.81045056320E+007, +7.27895461970E-001, +4.33446547576E+002
+1.82295369212E+007, +1.46094050977E+000, +4.36880770032E+002
+1.83545682103E+007, +7.01107852583E-001, +4.40645584728E+002
+1.84795994994E+007, +1.43622827848E+000, +4.43854340942E+002
+1.86046307885E+007, -2.92068398742E-001, +4.46543955913E+002
+1.87296620776E+007, +1.31499171097E+000, +4.49308532310E+002
+1.88546933667E+007, +1.39211045090E+000, +4.52913889528E+002
+1.89797246558E+007, +1.85111092887E+000, +4.56800701205E+002
+1.91047559449E+007, +1.07432350411E+000, +4.58300933806E+002
+1.92297872340E+007, +9.35880545495E-001, +4.62656384679E+002
+1.93548185232E+007, +1.03432218534E+000, +4.66285429355E+002
+1.94798498123E+007, -7.61843462113E-003, +4.70791350462E+002
+1.96048811014E+007, +2.15160682901E+000, +4.73334137475E+002
+1.97299123905E+007, +1.65831291282E+000, +4.76868658971E+002
+1.98549436796E+007, +1.64852961102E+000, +4.79163265340E+002
+1.99799749687E+007, +7.74455659286E-001, +4.85191037754E+002
+2.01050062578E+007, +3.82864022656E-001, +4.87735148512E+002
+2.02300375469E+007, +2.44441940062E-001, +4.89172577602E+002
+2.03550688360E+007, +1.84985054990E+000, +4.93101188363E+002
+2.04801001252E+007, +3.20230289372E-001, +4.96545120004E+002
+2.06051314143E+007, +1.53975667514E+000, +4.99766194721E+002
+2.07301627034E+007, +1.11064560490E+000, +5.03522110269E+002
+2.08551939925E+007, +2.67802293212E+000, +5.06894699025E+002
+2.09802252816E+007, +1.78532606432E+000, +5.11027996438E+002
+2.11052565707E+007, +1.24299277327E+000, +5.14394716610E+002
+2.12302878598E+007, +5.11762748114E-001, +5.19166876096E+002
+2.13553191489E+007, +4.03180653698E-001, +5.21916337833E+002
+2.14803504380E+007, +1.24175197785E+000, +5.25089867171E+002
+2.16053817272E+007, +1.54882430165E+000, +5.28941843695E+002
+2.17304130163E+007, +1.17476110164E+000, +5.31487271546E+002
+2.18554443054E+007, +2.12657775058E+000, +5.33661235216E+002
+2.19804755945E+007, +1.70507731719E+000, +5.37848703630E+002
+2.21055068836E+007, +1.58394676723E+000, +5.41346164809E+002
+2.22305381727E+007, -3.01388511972E-002, +5.45736841861E+002
+2.23555694618E+007, +1.63155146460E+000, +5.49438297643E+002
+2.24806007509E+007, +3.21468713772E+000, +5.54423304988E+002
+2.26056320401E+007, +3.40966367615E+000, +5.56954502511E+002
+2.27306633292E+007, +2.90768929869E+000, +5.60242253139E+002
+2.28556946183E+007, +4.07412434541E+000, +5.65686928785E+002
+2.29807259074E+007, +2.19744825216E+000, +5.67150632751E+002
+2.31057571965E+007, +4.26571791451E+000, +5.69327584160E+002
+2.32307884856E+007, +4.88248164612E+000, +5.73795756457E+002
+2.33558197747E+007, +2.15826227328E+000, +5.79064989170E+002
+2.34808510638E+007, +3.06094117263E+000, +5.79566498570E+002
+2.36058823529E+007, +3.23871232095E+000, +5.85382405869E+002
+2.37309136421E+007, +4.04744088448E+000, +5.89104413296E+002
+2.38559449312E+007, +4.39623314403E+000, +5.90566972028E+002
+2.39809762203E+007, +5.52041290951E+000, +5.96535245582E+002
+2.41060075094E+007, +1.49657358956E+000, +5.97600982648E+002
+2.42310387985E+007, +4.05670144291E+000, +6.03402023235E+002
+2.43560700876E+007, +5.66774978799E+000, +6.05894407906E+002
+2.44811013767E+007, +3.58826349713E+000, +6.11298801123E+002
+2.46061326658E+007, +5.89548809803E+000, +6.13177968320E+002
+2.47311639549E+007, +4.30979508556E+000, +6.16187815497E+002
+2.48561952441E+007, +4.33984151809E+000, +6.20804668976E+002
+2.49812265332E+007, +4.38526418086E+000, +6.25157559943E+002
+2.51062578223E+007, +6.12316888998E+000, +6.27464680284E+002
+2.52312891114E+007, +5.96282512281E+000, +6.29043901828E+002
+2.53563204005E+007, +4.53070254316E+000, +6.34724721861E+002
+2.54813516896E+007, +2.40075646511E+000, +6.38870371180E+002
+2.56063829787E+007, +4.93746697210E+000, +6.39455561491E+002
+2.57314142678E+007, +5.58089755072E+000, +6.46035059776E+002
+2.58564455569E+007, +3.22066992884E+000, +6.49454991185E+002
+2.59814768461E+007, +3.91542812873E+000, +6.50647087835E+002
+2.61065081352E+007, +5.57181513548E+000, +6.57949916110E+002
+2.62315394243E+007, +5.61347269843E+000, +6.61372418883E+002
+2.63565707134E+007, +4.51584429286E+000, +6.66367495058E+002
+2.64816020025E+007, +2.97680948439E+000, +6.69629497579E+002
+2.66066332916E+007, +4.19917724871E+000, +6.71754034866E+002
+2.67316645807E+007, +4.76748166806E+000, +6.76273309360E+002
+2.68566958698E+007, +4.87042210873E+000, +6.80444772755E+002
+2.69817271589E+007, +3.74121239237E+000, +6.85370459560E+002
+2.71067584481E+007, +5.66098603289E+000, +6.87583638585E+002
+2.72317897372E+007, +4.73965289244E+000, +6.93024886767E+002
+2.73568210263E+007, +7.03381779327E+000, +6.96091697796E+002
+2.74818523154E+007, +6.29000076935E+000, +6.99805711739E+002
+2.76068836045E+007, +6.47351260116E+000, +7.04406557060E+002
+2.77319148936E+007, +4.61294191652E+000, +7.08139760961E+002
+2.78569461827E+007, +5.36042761321E+000, +7.12015395192E+002
+2.79819774718E+007, +7.25893872568E+000, +7.15863593313E+002
+2.81070087610E+007, +5.11126683052E+000, +7.22083479036E+002
+2.82320400501E+007, +6.00697233427E+000, +7.25157546723E+002
+2.83570713392E+007, +5.03125635891E+000, +7.30253125742E+002
+2.84821026283E+007, +4.22431405686E+000, +7.32841741061E+002
+2.86071339174E+007, +2.04556798958E+000, +7.39591302997E+002
+2.87321652065E+007, +5.56271226857E+000, +7.42852078989E+002
+2.88571964956E+007, +2.20689129826E+000, +7.44578343901E+002
+2.89822277847E+007, +3.92415759605E+000, +7.49047773799E+002
+2.91072590738E+007, +5.96474387947E+000, +7.53006864519E+002
+2.92322903630E+007, +2.92230825352E+000, +7.61301525744E+002
+2.93573216521E+007, +7.27469675115E+000, +7.62180369638E+002
+2.94823529412E+007, +2.44616678910E+000, +7.67526818888E+002
+2.96073842303E+007, +3.11331123266E+000, +7.71481226884E+002
+2.97324155194E+007, +5.67263911942E+000, +7.75699094659E+002
+2.98574468085E+007, +3.73138427164E+000, +7.84632361673E+002
+2.99824780976E+007, +5.60826770404E+000, +7.82772376916E+002
+3.01075093867E+007, +6.15556346023E+000, +7.89788700392E+002
+3.02325406758E+007, +3.48220496663E+000, +7.92134395076E+002
+3.03575719650E+007, +2.04864604764E+000, +8.00140671790E+002
+3.04826032541E+007, +1.73667758510E+000, +8.03107419971E+002
+3.06076345432E+007, +5.06359006590E+000, +8.08849172688E+002
+3.07326658323E+007, +3.40833773174E+000, +8.14768450223E+002
+3.08576971214E+007, +1.17178962810E+000, +8.17883885264E+002
+3.09827284105E+007, +1.75858256445E+000, +8.23428724395E+002
+3.11077596996E+007, +1.58208859139E+000, +8.27113663665E+002
+3.12327909887E+007, +4.05801064687E+000, +8.30289079854E+002
+3.13578222778E+007, +3.18553874424E+000, +8.39166149854E+002
+3.14828535670E+007, +2.57731642360E+000, +8.39667895728E+002
+3.16078848561E+007, +5.51617156906E+000, +8.46243989727E+002
+3.17329161452E+007, +2.84058752659E+000, +8.49415743730E+002
+3.18579474343E+007, +3.17164643622E+000, +8.56042549851E+002
+3.19829787234E+007, +1.73050945010E+000, +8.59437079771E+002
+3.21080100125E+007, +4.05140135129E+000, +8.62041992484E+002
+3.22330413016E+007, +4.61389322368E+000, +8.69742548863E+002
+3.23580725907E+007, +4.59994931560E+000, +8.71912583750E+002
+3.24831038798E+007, +6.24323579072E+000, +8.78748069800E+002
+3.26081351690E+007, +4.43427075007E+000, +8.83121505793E+002
+3.27331664581E+007, +2.01201701850E+000, +8.88497582472E+002
+3.28581977472E+007, +6.42859202694E+000, +8.97605835636E+002
+3.29832290363E+007, +1.70167438734E+000, +9.01141549950E+002
+3.31082603254E+007, +4.43705502118E+000, +9.02943337103E+002
+3.32332916145E+007, +5.68522931336E+000, +9.13448695032E+002
+3.33583229036E+007, +4.43114502473E-001, +9.18271901129E+002
+3.34833541927E+007, +2.39360364694E+000, +9.18527146979E+002
+3.36083854819E+007, -9.87180626162E-001, +9.26205268716E+002
+3.37334167710E+007, +2.72970972469E+000, +9.29286963442E+002
+3.38584480601E+007, +4.02845498434E+000, +9.33894240213E+002
+3.39834793492E+007, +4.97445979286E+000, +9.39152938283E+002
+3.41085106383E+007, +3.73932898375E+000, +9.46424434154E+002
+3.42335419274E+007, +6.37693995706E+000, +9.51519887970E+002
+3.43585732165E+007, +2.15758734384E+000, +9.57521559211E+002
+3.44836045056E+007, +6.16134423429E+000, +9.62381399098E+002
+3.46086357947E+007, +5.86881901506E+000, +9.69747907293E+002
+3.47336670839E+007, -7.70065147466E-001, +9.74181411721E+002
+3.48586983730E+007, +4.06828377192E+000, +9.74551327545E+002
+3.49837296621E+007, +3.77185065134E+000, +9.81709781492E+002
+3.51087609512E+007, +6.37145455015E-001, +9.94906346656E+002
+3.52337922403E+007, +6.83323923068E+000, +9.97289324615E+002
+3.53588235294E+007, +9.73037051667E+000, +1.00357647570E+003
+3.54838548185E+007, +6.88112280601E+000, +1.01050612884E+003
+3.56088861076E+007, +7.72020354567E+000, +1.01472601277E+003
+3.57339173967E+007, +1.19501120043E+000, +1.01711958784E+003
+3.58589486859E+007, +8.19242193252E+000, +1.02349189510E+003
+3.59839799750E+007, +2.99704707088E+000, +1.03471841578E+003
+3.61090112641E+007, +2.47038961385E+000, +1.04202040727E+003
+3.62340425532E+007, +2.69092002512E+000, +1.04140101445E+003
+3.63590738423E+007, +1.08922546521E+001, +1.05120863703E+003
+3.64841051314E+007, +4.88315182228E+000, +1.05823404957E+003
+3.66091364205E+007, +1.63318481045E+000, +1.06088074994E+003
+3.67341677096E+007, +2.78709362342E+000, +1.07671592564E+003
+3.68591989987E+007, +5.24356472895E+000, +1.08409287784E+003
+3.69842302879E+007, +2.27475750010E+000, +1.08310716107E+003
+3.71092615770E+007, +1.89664349984E+000, +1.09211327183E+003
+3.72342928661E+007, +1.70571565297E+000, +1.09488592104E+003
+3.73593241552E+007, +2.88594721256E+000, +1.10322662579E+003
+3.74843554443E+007, +8.88544596999E+000, +1.11773443775E+003
+3.76093867334E+007, +3.31920641790E+000, +1.11429975648E+003
+3.77344180225E+007, +1.06946196606E+001, +1.12717324078E+003
+3.78594493116E+007, +3.64073491773E+000, +1.12683396991E+003
+3.79844806008E+007, +6.67927902330E-001, +1.13630135841E+003
+3.81095118899E+007, +3.97600000391E+000, +1.14701145137E+003
+3.82345431790E+007, +5.56625242777E+000, +1.15589119690E+003
+3.83595744681E+007, +8.12708088217E+000, +1.15816097787E+003
+3.84846057572E+007, +3.67218813685E+000, +1.16546259232E+003
+3.86096370463E+007, +4.66256277615E+000, +1.17885450833E+003
+3.87346683354E+007, +3.99317975013E+000, +1.17532427426E+003
+3.88596996245E+007, +1.26928733149E+001, +1.19039830846E+003
+3.89847309136E+007, +5.98766590445E+000, +1.20441763348E+003
+3.91097622028E+007, +2.83602647670E+000, +1.20591735679E+003
+3.92347934919E+007, +1.21379482430E+001, +1.21634354079E+003
+3.93598247810E+007, +5.66344402994E+000, +1.22790082005E+003
+3.94848560701E+007, +1.51946528044E+001, +1.22729815109E+003
+3.96098873592E+007, +1.14585733853E+001, +1.23853405748E+003
+3.97349186483E+007, +1.00283315861E+001, +1.23883183491E+003
+3.98599499374E+007, -4.82922203704E-002, +1.25899809227E+003
+3.99849812265E+007, +1.34705863639E+001, +1.26205207738E+003
+4.01100125156E+007, +6.42793904983E+000, +1.26821837636E+003
