"# Channel 1"
"# Trace 1"
Frequency, Formatted Data, Formatted Data
+1.00000000000E+005, +5.04244137066E+001, +2.27953819844E+000
+2.25031289111E+005, +5.03550871489E+001, +5.53915468811E+000
+3.50062578223E+005, +5.03176215722E+001, +8.62411505041E+000
+4.75093867334E+005, +5.04406235802E+001, +1.16657065512E+001
+6.00125156446E+005, +5.06155881712E+001, +1.47312390977E+001
+7.25156445557E+005, +5.04565342742E+001, +1.77691588166E+001
+8.50187734668E+005, +5.05462423976E+001, +2.08054604080E+001
+9.75219023780E+005, +5.06296896481E+001, +2.38411641822E+001
+1.10025031289E+006, +5.08164035729E+001, +2.68424668013E+001
+1.22528160200E+006, +5.07311885086E+001, +2.97460836565E+001
+1.35031289111E+006, +5.09202668343E+001, +3.27965517765E+001
+1.47534418023E+006, +5.08651959746E+001, +3.58838853482E+001
+1.60037546934E+006, +5.08575374378E+001, +3.87998910940E+001
+1.72540675845E+006, +5.10314226621E+001, +4.18612185666E+001
+1.85043804756E+006, +5.08464292187E+001, +4.49914380269E+001
+1.97546933667E+006, +5.09799504642E+001, +4.79136260988E+001
+2.10050062578E+006, +5.11001247842E+001, +5.11184923980E+001
+2.22553191489E+006, +5.10208788182E+001, +5.39532740138E+001
+2.35056320401E+006, +5.12135811667E+001, +5.68722214727E+001
+2.47559449312E+006, +5.10803412004E+001, +6.01073898819E+001
+2.60062578223E+006, +5.14920101266E+001, +6.31992947155E+001
+2.72565707134E+006, +5.12834372845E+001, +6.61621075349E+001
+2.85068836045E+006, +5.15264938564E+001, +6.89055620005E+001
+2.97571964956E+006, +5.15019359240E+001, +7.22258332636E+001
+3.10075093867E+006, +5.15352074237E+001, +7.52356188215E+001
+3.22578222778E+006, +5.16654183815E+001, +7.81598132548E+001
+3.35081351690E+006, +5.16171479095E+001, +8.12513457600E+001
+3.47584480601E+006, +5.16298996232E+001, +8.42714133979E+001
+3.60087609512E+006, +5.18060941468E+001, +8.74561310575E+001
+3.72590738423E+006, +5.26590055133E+001, +9.07313964028E+001
+3.85093867334E+006, +5.19783568948E+001, +9.29882414981E+001
+3.97596996245E+006, +5.19014167887E+001, +9.65502007687E+001
+4.10100125156E+006, +5.20123239366E+001, +9.93097924867E+001
+4.22603254068E+006, +5.19029401876E+001, +1.02397004219E+002
+4.35106382979E+006, +5.23426332947E+001, +1.05349052931E+002
+4.47609511890E+006, +5.23090021282E+001, +1.08893625566E+002
+4.60112640801E+006, +5.25144701642E+001, +1.11809060367E+002
+4.72615769712E+006, +5.25542447228E+001, +1.14437237324E+002
+4.85118898623E+006, +5.28680367048E+001, +1.17631985106E+002
+4.97622027534E+006, +5.28736294431E+001, +1.20825287548E+002
+5.10125156446E+006, +5.26727235205E+001, +1.23743803760E+002
+5.22628285357E+006, +5.31402278447E+001, +1.27244178140E+002
+5.35131414268E+006, +5.31351062961E+001, +1.30379160277E+002
+5.47634543179E+006, +5.34065114459E+001, +1.33545236743E+002
+5.60137672090E+006, +5.34745186435E+001, +1.36105839005E+002
+5.72640801001E+006, +5.34826140182E+001, +1.39140862559E+002
+5.85143929912E+006, +5.37762722555E+001, +1.42823430084E+002
+5.97647058824E+006, +5.37858164159E+001, +1.45641599031E+002
+6.10150187735E+006, +5.41575060226E+001, +1.48540489335E+002
+6.22653316646E+006, +5.38719678062E+001, +1.52054496784E+002
+6.35156445557E+006, +5.42001288778E+001, +1.54820586257E+002
+6.47659574468E+006, +5.43164730077E+001, +1.58091470775E+002
+6.60162703379E+006, +5.43428349393E+001, +1.61105708237E+002
+6.72665832290E+006, +5.46998646581E+001, +1.64255196223E+002
+6.85168961202E+006, +5.48493593351E+001, +1.67448017972E+002
+6.97672090113E+006, +5.48303248881E+001, +1.70426299071E+002
+7.10175219024E+006, +5.52760660191E+001, +1.73762211519E+002
+7.22678347935E+006, +5.52756847204E+001, +1.76701997827E+002
+7.35181476846E+006, +5.53639483920E+001, +1.79893544216E+002
+7.47684605757E+006, +5.54421329757E+001, +1.82931906342E+002
+7.60187734668E+006, +5.53830157293E+001, +1.86293533357E+002
+7.72690863579E+006, +5.59301734849E+001, +1.89261773573E+002
+7.85193992491E+006, +5.60502717596E+001, +1.92521150446E+002
+7.97697121402E+006, +5.60921218525E+001, +1.95530716578E+002
+8.10200250313E+006, +5.62555955691E+001, +1.98694909082E+002
+8.22703379224E+006, +5.63435490626E+001, +2.02060306396E+002
+8.35206508135E+006, +5.67328814071E+001, +2.05202805257E+002
+8.47709637046E+006, +5.66416098798E+001, +2.08457372311E+002
+8.60212765957E+006, +5.72263624763E+001, +2.12079462240E+002
+8.72715894869E+006, +5.71615031054E+001, +2.14616640491E+002
+8.85219023780E+006, +5.74698126112E+001, +2.17937224569E+002
+8.97722152691E+006, +5.75478145460E+001, +2.21264440367E+002
+9.10225281602E+006, +5.77436483413E+001, +2.24524842753E+002
+9.22728410513E+006, +5.79928109371E+001, +2.27914292449E+002
+9.35231539424E+006, +5.77266930414E+001, +2.30996118105E+002
+9.47734668335E+006, +5.78807090679E+001, +2.34286193361E+002
+9.60237797247E+006, +5.83702257469E+001, +2.37682126211E+002
+9.72740926158E+006, +5.83520169118E+001, +2.40407127669E+002
+9.85244055069E+006, +5.80697307774E+001, +2.43950129096E+002
+9.97747183980E+006, +5.85088955041E+001, +2.47277539106E+002
+1.01025031289E+007, +5.87477669775E+001, +2.50574467629E+002
+1.02275344180E+007, +5.86029994288E+001, +2.53592878805E+002
+1.03525657071E+007, +5.88299031106E+001, +2.57461585173E+002
+1.04775969962E+007, +5.91036842963E+001, +2.60552899694E+002
+1.06026282854E+007, +5.93468659774E+001, +2.64238635816E+002
+1.07276595745E+007, +5.98605838791E+001, +2.67112426831E+002
+1.08526908636E+007, +6.01395141296E+001, +2.70366601308E+002
+1.09777221527E+007, +5.97627077519E+001, +2.73714034626E+002
+1.11027534418E+007, +5.99997717619E+001, +2.77250735597E+002
+1.12277847309E+007, +6.09120394253E+001, +2.80343321804E+002
+1.13528160200E+007, +6.02252033121E+001, +2.83936984921E+002
+1.14778473091E+007, +6.08637913489E+001, +2.87400839763E+002
+1.16028785982E+007, +6.11050474934E+001, +2.90673189816E+002
+1.17279098874E+007, +6.14932313589E+001, +2.93742723992E+002
+1.18529411765E+007, +6.17702340279E+001, +2.97277067883E+002
+1.19779724656E+007, +6.17604304388E+001, +3.01090406930E+002
+1.21030037547E+007, +6.20826332885E+001, +3.04385175838E+002
+1.22280350438E+007, +6.17118139968E+001, +3.07147138698E+002
+1.23530663329E+007, +6.31547491743E+001, +3.11790213696E+002
+1.24780976220E+007, +6.30269421498E+001, +3.14415747546E+002
+1.26031289111E+007, +6.31974694873E+001, +3.18012592861E+002
+1.27281602003E+007, +6.30908373542E+001, +3.21593571907E+002
+1.28531914894E+007, +6.37083042858E+001, +3.24676833391E+002
+1.29782227785E+007, +6.25074603075E+001, +3.28702223712E+002
+1.31032540676E+007, +6.35729825670E+001, +3.31794739985E+002
+1.32282853567E+007, +6.39695645377E+001, +3.35537191712E+002
+1.33533166458E+007, +6.41570038186E+001, +3.38956845217E+002
+1.34783479349E+007, +6.44934162937E+001, +3.42042535414E+002
+1.36033792240E+007, +6.44116983449E+001, +3.46075164509E+002
+1.37284105131E+007, +6.49143187065E+001, +3.47966374485E+002
+1.38534418023E+007, +6.55790765980E+001, +3.53077813553E+002
+1.39784730914E+007, +6.56528328895E+001, +3.56875047616E+002
+1.41035043805E+007, +6.53387229617E+001, +3.60253102384E+002
+1.42285356696E+007, +6.61555506676E+001, +3.64107358045E+002
+1.43535669587E+007, +6.62922333670E+001, +3.67292831793E+002
+1.44785982478E+007, +6.60940397495E+001, +3.71424789092E+002
+1.46036295369E+007, +6.64016557722E+001, +3.74747731205E+002
+1.47286608260E+007, +6.73163956701E+001, +3.78850368381E+002
+1.48536921151E+007, +6.73513722109E+001, +3.82120979282E+002
+1.49787234043E+007, +6.72019125662E+001, +3.85512498359E+002
+1.51037546934E+007, +6.83711744236E+001, +3.89511819135E+002
+1.52287859825E+007, +6.78382756743E+001, +3.92149920082E+002
+1.53538172716E+007, +6.85022586827E+001, +3.96396676728E+002
+1.54788485607E+007, +6.85113040343E+001, +4.01006979742E+002
+1.56038798498E+007, +6.91225171371E+001, +4.03769917419E+002
+1.57289111389E+007, +6.85137841404E+001, +4.08048491574E+002
+1.58539424280E+007, +6.84504302431E+001, +4.11572988115E+002
+1.59789737171E+007, +6.99489312082E+001, +4.15931031501E+002
+1.61040050063E+007, +7.09535647319E+001, +4.20008885499E+002
+1.62290362954E+007, +7.00246834945E+001, +4.23395377896E+002
+1.63540675845E+007, +7.05276006437E+001, +4.26997958145E+002
+1.64790988736E+007, +7.06800189520E+001, +4.30505086876E+002
+1.66041301627E+007, +7.07711709252E+001, +4.34710490067E+002
+1.67291614518E+007, +7.10038009114E+001, +4.38836727825E+002
+1.68541927409E+007, +7.15758209327E+001, +4.41954976708E+002
+1.69792240300E+007, +7.28282055930E+001, +4.45725202347E+002
+1.71042553191E+007, +7.19642693149E+001, +4.50900112350E+002
+1.72292866083E+007, +7.25793876320E+001, +4.54228700802E+002
+1.73543178974E+007, +7.30324810920E+001, +4.59538817472E+002
+1.74793491865E+007, +7.31163468277E+001, +4.63165072624E+002
+1.76043804756E+007, +7.17835372660E+001, +4.65953130590E+002
+1.77294117647E+007, +7.47324993717E+001, +4.69751563681E+002
+1.78544430538E+007, +7.47244770491E+001, +4.73861963727E+002
+1.79794743429E+007, +7.48543347748E+001, +4.77672015807E+002
+1.81045056320E+007, +7.52469556454E+001, +4.80437007454E+002
+1.82295369212E+007, +7.62687826757E+001, +4.86488658270E+002
+1.83545682103E+007, +7.67709270977E+001, +4.89445008742E+002
+1.84795994994E+007, +7.68269622592E+001, +4.95081414704E+002
+1.86046307885E+007, +7.81290679201E+001, +4.98213850208E+002
+1.87296620776E+007, +7.78138284906E+001, +5.02587285893E+002
+1.88546933667E+007, +7.80254307755E+001, +5.05830489303E+002
+1.89797246558E+007, +7.90146057881E+001, +5.10330847339E+002
+1.91047559449E+007, +7.91297395487E+001, +5.15408768484E+002
+1.92297872340E+007, +7.88149445421E+001, +5.20146933480E+002
+1.93548185232E+007, +8.03315628126E+001, +5.24469648816E+002
+1.94798498123E+007, +8.12043588635E+001, +5.28669733049E+002
+1.96048811014E+007, +8.10932458376E+001, +5.31109367847E+002
+1.97299123905E+007, +8.15425839148E+001, +5.37643731555E+002
+1.98549436796E+007, +8.02357982200E+001, +5.41354784646E+002
+1.99799749687E+007, +8.28380900322E+001, +5.45829065894E+002
+2.01050062578E+007, +8.25808050162E+001, +5.50482615292E+002
+2.02300375469E+007, +8.32206388028E+001, +5.53958739519E+002
+2.03550688360E+007, +8.30357818787E+001, +5.57982619525E+002
+2.04801001252E+007, +8.33582747009E+001, +5.63776572820E+002
+2.06051314143E+007, +8.55741752552E+001, +5.65755391622E+002
+2.07301627034E+007, +8.67813218469E+001, +5.71007603506E+002
+2.08551939925E+007, +8.58764343161E+001, +5.76405412672E+002
+2.09802252816E+007, +8.55386685615E+001, +5.81145220352E+002
+2.11052565707E+007, +8.79750016781E+001, +5.85251591922E+002
+2.12302878598E+007, +8.81811862088E+001, +5.89970677479E+002
+2.13553191489E+007, +8.75292543036E+001, +5.94397983906E+002
+2.14803504380E+007, +8.80259758573E+001, +5.98101780800E+002
+2.16053817272E+007, +8.81935733828E+001, +6.04953102246E+002
+2.17304130163E+007, +8.94644358916E+001, +6.06850112977E+002
+2.18554443054E+007, +8.99270435768E+001, +6.13460583238E+002
+2.19804755945E+007, +9.05623532876E+001, +6.17761854588E+002
+2.21055068836E+007, +9.19583298857E+001, +6.22247352487E+002
+2.22305381727E+007, +9.15354794723E+001, +6.24758934829E+002
+2.23555694618E+007, +9.16950222987E+001, +6.29841118836E+002
+2.24806007509E+007, +9.29977409789E+001, +6.35896194521E+002
+2.26056320401E+007, +9.35852220890E+001, +6.40603056498E+002
+2.27306633292E+007, +9.52682976890E+001, +6.47662311470E+002
+2.28556946183E+007, +9.72533859209E+001, +6.49833640009E+002
+2.29807259074E+007, +9.64535202924E+001, +6.56250183148E+002
+2.31057571965E+007, +9.82716444671E+001, +6.60119969121E+002
+2.32307884856E+007, +9.64394975769E+001, +6.67073831975E+002
+2.33558197747E+007, +9.71470514920E+001, +6.70968649160E+002
+2.34808510638E+007, +9.83110098757E+001, +6.73125979082E+002
+2.36058823529E+007, +9.91816633276E+001, +6.80618634438E+002
+2.37309136421E+007, +9.97859834560E+001, +6.86717588880E+002
+2.38559449312E+007, +1.01073730986E+002, +6.90016354171E+002
+2.39809762203E+007, +1.05453602332E+002, +6.95008980649E+002
+2.41060075094E+007, +1.04620226669E+002, +7.00258453400E+002
+2.42310387985E+007, +1.05061969947E+002, +7.03354771039E+002
+2.43560700876E+007, +1.07480764679E+002, +7.10591150231E+002
+2.44811013767E+007, +1.06521004620E+002, +7.15910641276E+002
+2.46061326658E+007, +1.09998745349E+002, +7.21550297603E+002
+2.47311639549E+007, +1.09741145789E+002, +7.25388305672E+002
+2.48561952441E+007, +1.09858704489E+002, +7.29239247102E+002
+2.49812265332E+007, +1.08782347516E+002, +7.36051398855E+002
+2.51062578223E+007, +1.10955522941E+002, +7.37942053953E+002
+2.52312891114E+007, +1.12167218102E+002, +7.47747404243E+002
+2.53563204005E+007, +1.16142901598E+002, +7.50752750331E+002
+2.54813516896E+007, +1.18348301821E+002, +7.54014686794E+002
+2.56063829787E+007, +1.15573486115E+002, +7.60074848047E+002
+2.57314142678E+007, +1.16167007141E+002, +7.69850245895E+002
+2.58564455569E+007, +1.14461584491E+002, +7.73191333696E+002
+2.59814768461E+007, +1.16115465684E+002, +7.80244912223E+002
+2.61065081352E+007, +1.19230472493E+002, +7.83870410880E+002
+2.62315394243E+007, +1.21079725938E+002, +7.91824871941E+002
+2.63565707134E+007, +1.20690689649E+002, +7.93585353903E+002
+2.64816020025E+007, +1.20866179601E+002, +7.99539018675E+002
+2.66066332916E+007, +1.23789525693E+002, +8.05610311640E+002
+2.67316645807E+007, +1.21770441754E+002, +8.13048982578E+002
+2.68566958698E+007, +1.24075855700E+002, +8.16776119064E+002
+2.69817271589E+007, +1.26482220331E+002, +8.24781322740E+002
+2.71067584481E+007, +1.26171953300E+002, +8.28205192803E+002
+2.72317897372E+007, +1.27104696165E+002, +8.31558761471E+002
+2.73568210263E+007, +1.26813690499E+002, +8.36877572984E+002
+2.74818523154E+007, +1.30078775452E+002, +8.45865963185E+002
+2.76068836045E+007, +1.29940451551E+002, +8.53979937596E+002
+2.77319148936E+007, +1.26802667994E+002, +8.58009026458E+002
+2.78569461827E+007, +1.28732212681E+002, +8.67271415455E+002
+2.79819774718E+007, +1.29253020244E+002, +8.71528835140E+002
+2.81070087610E+007, +1.30626431711E+002, +8.77338793340E+002
+2.82320400501E+007, +1.33156489195E+002, +8.80699571185E+002
+2.83570713392E+007, +1.36011461666E+002, +8.93121690337E+002
+2.84821026283E+007, +1.37379179844E+002, +8.98023184611E+002
+2.86071339174E+007, +1.36281718290E+002, +9.01283159839E+002
+2.87321652065E+007, +1.38461884863E+002, +9.13586187934E+002
+2.88571964956E+007, +1.37868122177E+002, +9.12635655474E+002
+2.89822277847E+007, +1.37374099968E+002, +9.23425376212E+002
+2.91072590738E+007, +1.39963385436E+002, +9.34739042407E+002
+2.92322903630E+007, +1.40302160588E+002, +9.42536054746E+002
+2.93573216521E+007, +1.45819672535E+002, +9.38246489366E+002
+2.94823529412E+007, +1.45408823783E+002, +9.55261609027E+002
+2.96073842303E+007, +1.47776542420E+002, +9.58348447199E+002
+2.97324155194E+007, +1.42841968543E+002, +9.64272027915E+002
+2.98574468085E+007, +1.43808036235E+002, +9.70932973496E+002
+2.99824780976E+007, +1.48690372809E+002, +9.76586387329E+002
+3.01075093867E+007, +1.51367281220E+002, +9.87859423256E+002
+3.02325406758E+007, +1.52208086369E+002, +9.97093981105E+002
+3.03575719650E+007, +1.51599478041E+002, +1.00415975251E+003
+3.04826032541E+007, +1.57656575648E+002, +1.01221786903E+003
+3.06076345432E+007, +1.54008768427E+002, +1.01873443533E+003
+3.07326658323E+007, +1.53607204405E+002, +1.02673077489E+003
+3.08576971214E+007, +1.54973022937E+002, +1.04111989411E+003
+3.09827284105E+007, +1.61637952235E+002, +1.03633868687E+003
+3.11077596996E+007, +1.60356552411E+002, +1.04978225283E+003
+3.12327909887E+007, +1.58692647561E+002, +1.05508650130E+003
+3.13578222778E+007, +1.68026261800E+002, +1.06562266966E+003
+3.14828535670E+007, +1.67927488329E+002, +1.07214512891E+003
+3.16078848561E+007, +1.68740562716E+002, +1.08052848352E+003
+3.17329161452E+007, +1.70089157529E+002, +1.08869845420E+003
+3.18579474343E+007, +1.68252653175E+002, +1.09903498998E+003
+3.19829787234E+007, +1.70793680425E+002, +1.10830901654E+003
+3.21080100125E+007, +1.70987109877E+002, +1.11716827523E+003
+3.22330413016E+007, +1.75475204655E+002, +1.12260728049E+003
+3.23580725907E+007, +1.80614638081E+002, +1.13261103937E+003
+3.24831038798E+007, +1.82033822507E+002, +1.13689057764E+003
+3.26081351690E+007, +1.84889948858E+002, +1.15570845281E+003
+3.27331664581E+007, +1.80006710542E+002, +1.15730946894E+003
+3.28581977472E+007, +1.85807218480E+002, +1.16489628500E+003
+3.29832290363E+007, +1.86196154190E+002, +1.17746278832E+003
+3.31082603254E+007, +1.86995702328E+002, +1.18008582030E+003
+3.32332916145E+007, +1.95861261996E+002, +1.19154636516E+003
+3.33583229036E+007, +1.93860167146E+002, +1.20482635939E+003
+3.34833541927E+007, +1.92180451284E+002, +1.21872011181E+003
+3.36083854819E+007, +1.96504125903E+002, +1.22774953925E+003
+3.37334167710E+007, +2.00280382192E+002, +1.22792717766E+003
+3.38584480601E+007, +2.00410289809E+002, +1.24779941160E+003
+3.39834793492E+007, +2.00321941973E+002, +1.24971510772E+003
+3.41085106383E+007, +1.99593494385E+002, +1.26766342938E+003
+3.42335419274E+007, +2.07052657089E+002, +1.26895946312E+003
+3.43585732165E+007, +2.11083873960E+002, +1.28588953666E+003
+3.44836045056E+007, +2.06761734493E+002, +1.29435964252E+003
+3.46086357947E+007, +2.12500315530E+002, +1.29537697711E+003
+3.47336670839E+007, +2.26148779716E+002, +1.31315988453E+003
+3.48586983730E+007, +2.19869844795E+002, +1.32704357760E+003
+3.49837296621E+007, +2.17995708355E+002, +1.33846296626E+003
+3.51087609512E+007, +2.31508794801E+002, +1.34451825193E+003
+3.52337922403E+007, +2.30311555898E+002, +1.35410191225E+003
+3.53588235294E+007, +2.35387958018E+002, +1.36690600395E+003
+3.54838548185E+007, +2.32769757992E+002, +1.38274606560E+003
+3.56088861076E+007, +2.40778857051E+002, +1.39983956292E+003
+3.57339173967E+007, +2.29870276441E+002, +1.39676437854E+003
+3.58589486859E+007, +2.48278837840E+002, +1.41060226789E+003
+3.59839799750E+007, +2.49160602992E+002, +1.41798508046E+003
+3.61090112641E+007, +2.41183025274E+002, +1.42982145941E+003
+3.62340425532E+007, +2.48644321102E+002, +1.44354402663E+003
+3.63590738423E+007, +2.59459080988E+002, +1.44487505942E+003
+3.64841051314E+007, +2.52164703688E+002, +1.45674818198E+003
+3.66091364205E+007, +2.64297716044E+002, +1.47866169908E+003
+3.67341677096E+007, +2.73058313601E+002, +1.49736164692E+003
+3.68591989987E+007, +2.64822401715E+002, +1.50365020533E+003
+3.69842302879E+007, +2.77860408610E+002, +1.52706066326E+003
+3.71092615770E+007, +2.86309788690E+002, +1.52954163212E+003
+3.72342928661E+007, +2.89564221994E+002, +1.54368915529E+003
+3.73593241552E+007, +2.75772092988E+002, +1.55898260186E+003
+3.74843554443E+007, +2.92912032281E+002, +1.56706000306E+003
+3.76093867334E+007, +3.00186810384E+002, +1.59290531635E+003
+3.77344180225E+007, +3.02387204007E+002, +1.59680681033E+003
+3.78594493116E+007, +3.14555775813E+002, +1.61590744376E+003
+3.79844806008E+007, +3.10816620981E+002, +1.62540186426E+003
+3.81095118899E+007, +2.87268778443E+002, +1.64929125260E+003
+3.82345431790E+007, +3.24838796664E+002, +1.66978937224E+003
+3.83595744681E+007, +3.11214643184E+002, +1.66404983447E+003
+3.84846057572E+007, +3.15650821413E+002, +1.67534596230E+003
+3.86096370463E+007, +3.33437741730E+002, +1.72262730696E+003
+3.87346683354E+007, +3.40319511668E+002, +1.72218577228E+003
+3.88596996245E+007, +3.54301134699E+002, +1.74571000873E+003
+3.89847309136E+007, +3.54100928257E+002, +1.76148871765E+003
+3.91097622028E+007, +3.71503598234E+002, +1.76294990765E+003
+3.92347934919E+007, +3.49678089024E+002, +1.78771093205E+003
+3.93598247810E+007, +3.80441930554E+002, +1.79338436656E+003
+3.94848560701E+007, +3.76417707408E+002, +1.81880313709E+003
+3.96098873592E+007, +3.81414906778E+002, +1.83141465929E+003
+3.97349186483E+007, +3.75798050454E+002, +1.86105639997E+003
+3.98599499374E+007, +4.01363519508E+002, +1.85976601614E+003
+3.99849812265E+007, +3.86495428094E+002, +1.90419048219E+003
+4.01100125156E+007, +4.19513316807E+002, +1.91291384812E+003
