"# Channel 1"
"# Trace 1"
Frequency, Formatted Data, Formatted Data
+1.00000000000E+005, +4.61503211578E+002, -1.16658779228E+001
+2.25031289111E+005, +4.59806646796E+002, +6.24813266567E+000
+3.50062578223E+005, +4.54202436946E+002, +7.49278314933E+000
+4.75093867334E+005, +4.55921377252E+002, +1.06359776740E+001
+6.00125156446E+005, +4.56661411432E+002, +1.17834539604E+001
+7.25156445557E+005, +4.56392133031E+002, +1.64000917563E+001
+8.50187734668E+005, +4.55929162548E+002, +2.08688501491E+001
+9.75219023780E+005, +4.59088657372E+002, +2.29151849944E+001
+1.10025031289E+006, +4.58255242140E+002, +2.45871046230E+001
+1.22528160200E+006, +4.56292257576E+002, +2.77118215806E+001
+1.35031289111E+006, +4.57054229340E+002, +2.89294158055E+001
+1.47534418023E+006, +4.57865743674E+002, +3.29321410208E+001
+1.60037546934E+006, +4.59238833383E+002, +3.45683477079E+001
+1.72540675845E+006, +4.60190210445E+002, +3.73536661058E+001
+1.85043804756E+006, +4.60205522476E+002, +4.11273426591E+001
+1.97546933667E+006, +4.60318850291E+002, +4.45367360682E+001
+2.10050062578E+006, +4.59866514261E+002, +4.78616268190E+001
+2.22553191489E+006, +4.58943898942E+002, +5.24489643395E+001
+2.35056320401E+006, +4.60654686642E+002, +5.41071726487E+001
+2.47559449312E+006, +4.60237270921E+002, +5.42813295045E+001
+2.60062578223E+006, +4.61900922810E+002, +5.84516663671E+001
+2.72565707134E+006, +4.62996869551E+002, +6.26191140236E+001
+2.85068836045E+006, +4.58819296144E+002, +6.50829613115E+001
+2.97571964956E+006, +4.59894097968E+002, +6.63705340857E+001
+3.10075093867E+006, +4.59673780078E+002, +6.88227407879E+001
+3.22578222778E+006, +4.59505532137E+002, +7.38010187335E+001
+3.35081351690E+006, +4.60838994702E+002, +7.43470601061E+001
+3.47584480601E+006, +4.60115279112E+002, +7.56489835372E+001
+3.60087609512E+006, +4.62144418044E+002, +8.05503933035E+001
+3.72590738423E+006, +4.59258651817E+002, +8.30705751724E+001
+3.85093867334E+006, +4.59540565570E+002, +8.58379259196E+001
+3.97596996245E+006, +4.56702420205E+002, +9.00430270801E+001
+4.10100125156E+006, +4.61601082281E+002, +9.65547491983E+001
+4.22603254068E+006, +4.64844556679E+002, +9.15494838683E+001
+4.35106382979E+006, +4.61262149742E+002, +9.70588645845E+001
+4.47609511890E+006, +4.61638649781E+002, +9.86159242813E+001
+4.60112640801E+006, +4.64137485567E+002, +1.00465384119E+002
+4.72615769712E+006, +4.63643764925E+002, +1.07139301979E+002
+4.85118898623E+006, +4.60535181672E+002, +1.06229995220E+002
+4.97622027534E+006, +4.61353925245E+002, +1.10958997203E+002
+5.10125156446E+006, +4.64758389346E+002, +1.14649821210E+002
+5.22628285357E+006, +4.63322675676E+002, +1.16186352201E+002
+5.35131414268E+006, +4.62845227564E+002, +1.15992185137E+002
+5.47634543179E+006, +4.60746129252E+002, +1.21171299096E+002
+5.60137672090E+006, +4.62349787285E+002, +1.25458159739E+002
+5.72640801001E+006, +4.63736722039E+002, +1.24704498678E+002
+5.85143929912E+006, +4.61783215260E+002, +1.26814716637E+002
+5.97647058824E+006, +4.64036695423E+002, +1.30777349409E+002
+6.10150187735E+006, +4.62108551150E+002, +1.32945217009E+002
+6.22653316646E+006, +4.64712492895E+002, +1.35861116805E+002
+6.35156445557E+006, +4.63249490653E+002, +1.40680537807E+002
+6.47659574468E+006, +4.64237413076E+002, +1.42352111213E+002
+6.60162703379E+006, +4.63237606543E+002, +1.45469490849E+002
+6.72665832290E+006, +4.63698973749E+002, +1.47466499491E+002
+6.85168961202E+006, +4.64315643372E+002, +1.49096355509E+002
+6.97672090113E+006, +4.64936441089E+002, +1.52531388359E+002
+7.10175219024E+006, +4.65099653804E+002, +1.56032629279E+002
+7.22678347935E+006, +4.66326124856E+002, +1.56664035918E+002
+7.35181476846E+006, +4.67562959261E+002, +1.61297922374E+002
+7.47684605757E+006, +4.67225375682E+002, +1.64384151776E+002
+7.60187734668E+006, +4.67357746467E+002, +1.67326642495E+002
+7.72690863579E+006, +4.68713256380E+002, +1.70211663452E+002
+7.85193992491E+006, +4.66694145328E+002, +1.71862180396E+002
+7.97697121402E+006, +4.69206025823E+002, +1.74001956772E+002
+8.10200250313E+006, +4.69612511961E+002, +1.77490193762E+002
+8.22703379224E+006, +4.70436972093E+002, +1.80958521379E+002
+8.35206508135E+006, +4.71057042694E+002, +1.83379966540E+002
+8.47709637046E+006, +4.71571525486E+002, +1.88245811224E+002
+8.60212765957E+006, +4.71369493443E+002, +1.89863149894E+002
+8.72715894869E+006, +4.71365250502E+002, +1.93520306009E+002
+8.85219023780E+006, +4.71888197158E+002, +1.95459468431E+002
+8.97722152691E+006, +4.73340025955E+002, +1.96643648277E+002
+9.10225281602E+006, +4.76442901453E+002, +2.01208576482E+002
+9.22728410513E+006, +4.73694933889E+002, +2.04050127538E+002
+9.35231539424E+006, +4.75809735444E+002, +2.07233299196E+002
+9.47734668335E+006, +4.75492071364E+002, +2.10629989671E+002
+9.60237797247E+006, +4.78214805299E+002, +2.14083847653E+002
+9.72740926158E+006, +4.77753945626E+002, +2.14915570649E+002
+9.85244055069E+006, +4.80370260721E+002, +2.18827619314E+002
+9.97747183980E+006, +4.80121668007E+002, +2.21939559734E+002
+1.01025031289E+007, +4.79393708486E+002, +2.24480796704E+002
+1.02275344180E+007, +4.80710391151E+002, +2.28092412712E+002
+1.03525657071E+007, +4.81499253825E+002, +2.30698198943E+002
+1.04775969962E+007, +4.81788339969E+002, +2.34273117998E+002
+1.06026282854E+007, +4.82525181783E+002, +2.37204107846E+002
+1.07276595745E+007, +4.83893718673E+002, +2.39927996007E+002
+1.08526908636E+007, +4.84493697743E+002, +2.43461255271E+002
+1.09777221527E+007, +4.86083455151E+002, +2.43859330742E+002
+1.11027534418E+007, +4.86091664617E+002, +2.48985627444E+002
+1.12277847309E+007, +4.87704109423E+002, +2.53048334315E+002
+1.13528160200E+007, +4.88273951359E+002, +2.53600294107E+002
+1.14778473091E+007, +4.88949029627E+002, +2.57737501334E+002
+1.16028785982E+007, +4.90902084996E+002, +2.61309771188E+002
+1.17279098874E+007, +4.92171673654E+002, +2.62518213132E+002
+1.18529411765E+007, +4.92899443762E+002, +2.66253943615E+002
+1.19779724656E+007, +4.92494281726E+002, +2.71486704463E+002
+1.21030037547E+007, +4.93545120991E+002, +2.71451078272E+002
+1.22280350438E+007, +4.96073054601E+002, +2.75151810792E+002
+1.23530663329E+007, +4.95808674383E+002, +2.78243106147E+002
+1.24780976220E+007, +4.95590529597E+002, +2.81509632625E+002
+1.26031289111E+007, +4.97048370921E+002, +2.84230452143E+002
+1.27281602003E+007, +5.00092814220E+002, +2.87612136828E+002
+1.28531914894E+007, +5.00041850871E+002, +2.91910591599E+002
+1.29782227785E+007, +4.99309956068E+002, +2.93137603692E+002
+1.31032540676E+007, +5.02007813545E+002, +2.96056088583E+002
+1.32282853567E+007, +5.03739941569E+002, +2.99582684969E+002
+1.33533166458E+007, +5.03503359677E+002, +3.02410352642E+002
+1.34783479349E+007, +5.05972079508E+002, +3.06958434979E+002
+1.36033792240E+007, +5.04962205292E+002, +3.08083566854E+002
+1.37284105131E+007, +5.07209816450E+002, +3.13289632172E+002
+1.38534418023E+007, +5.07519939933E+002, +3.16677641458E+002
+1.39784730914E+007, +5.10805347506E+002, +3.20356743269E+002
+1.41035043805E+007, +5.10625206195E+002, +3.21557320534E+002
+1.42285356696E+007, +5.12700951457E+002, +3.22956124693E+002
+1.43535669587E+007, +5.12718599192E+002, +3.26489457272E+002
+1.44785982478E+007, +5.14716711864E+002, +3.31026019525E+002
+1.46036295369E+007, +5.16773366832E+002, +3.32778783439E+002
+1.47286608260E+007, +5.17052408001E+002, +3.36773482183E+002
+1.48536921151E+007, +5.19527698664E+002, +3.41290900306E+002
+1.49787234043E+007, +5.18132825106E+002, +3.42320298302E+002
+1.51037546934E+007, +5.20028163379E+002, +3.49301107170E+002
+1.52287859825E+007, +5.21479685567E+002, +3.51825653629E+002
+1.53538172716E+007, +5.23778793037E+002, +3.53458396929E+002
+1.54788485607E+007, +5.26325876015E+002, +3.55439553643E+002
+1.56038798498E+007, +5.25811941135E+002, +3.59380801249E+002
+1.57289111389E+007, +5.25524934348E+002, +3.64026198107E+002
+1.58539424280E+007, +5.26802875732E+002, +3.67360180904E+002
+1.59789737171E+007, +5.29674561028E+002, +3.68566423770E+002
+1.61040050063E+007, +5.32613135175E+002, +3.72943294131E+002
+1.62290362954E+007, +5.33264894664E+002, +3.73903061339E+002
+1.63540675845E+007, +5.33380122337E+002, +3.78962343514E+002
+1.64790988736E+007, +5.37827219962E+002, +3.82278241462E+002
+1.66041301627E+007, +5.37340846428E+002, +3.84952961781E+002
+1.67291614518E+007, +5.40014328435E+002, +3.90137209824E+002
+1.68541927409E+007, +5.40756978135E+002, +3.92208295231E+002
+1.69792240300E+007, +5.42008187848E+002, +3.97524875105E+002
+1.71042553191E+007, +5.44362634339E+002, +4.03096213393E+002
+1.72292866083E+007, +5.44090137151E+002, +4.05432718636E+002
+1.73543178974E+007, +5.48663383355E+002, +4.06651377744E+002
+1.74793491865E+007, +5.47246783152E+002, +4.11632044145E+002
+1.76043804756E+007, +5.52747526526E+002, +4.15361205858E+002
+1.77294117647E+007, +5.51601493054E+002, +4.18429558431E+002
+1.78544430538E+007, +5.53468232916E+002, +4.22061492015E+002
+1.79794743429E+007, +5.52544470931E+002, +4.23816790465E+002
+1.81045056320E+007, +5.57716675266E+002, +4.25449439386E+002
+1.82295369212E+007, +5.58434765180E+002, +4.30702826191E+002
+1.83545682103E+007, +5.61180932159E+002, +4.33321295199E+002
+1.84795994994E+007, +5.60255166861E+002, +4.39278653819E+002
+1.86046307885E+007, +5.62530652381E+002, +4.40276109155E+002
+1.87296620776E+007, +5.63899901927E+002, +4.43003834415E+002
+1.88546933667E+007, +5.67229485652E+002, +4.48952509060E+002
+1.89797246558E+007, +5.69029049770E+002, +4.52391921741E+002
+1.91047559449E+007, +5.72084779616E+002, +4.54403868504E+002
+1.92297872340E+007, +5.70008446369E+002, +4.61708233733E+002
+1.93548185232E+007, +5.75667147555E+002, +4.62670318875E+002
+1.94798498123E+007, +5.74850120043E+002, +4.64735339022E+002
+1.96048811014E+007, +5.77642707476E+002, +4.71398724408E+002
+1.97299123905E+007, +5.80556329943E+002, +4.73075213527E+002
+1.98549436796E+007, +5.85330673597E+002, +4.76837760997E+002
+1.99799749687E+007, +5.84512519306E+002, +4.82966706624E+002
+2.01050062578E+007, +5.86874918695E+002, +4.86887643153E+002
+2.02300375469E+007, +5.89743269752E+002, +4.87255220019E+002
+2.03550688360E+007, +5.90671276663E+002, +4.92269898655E+002
+2.04801001252E+007, +5.95074146208E+002, +4.93514281587E+002
+2.06051314143E+007, +5.96540408875E+002, +4.99398370689E+002
+2.07301627034E+007, +5.95965237240E+002, +5.01630679690E+002
+2.08551939925E+007, +6.00218050073E+002, +5.06092696047E+002
+2.09802252816E+007, +5.99754696839E+002, +5.11495117558E+002
+2.11052565707E+007, +6.02229272082E+002, +5.15536128235E+002
+2.12302878598E+007, +6.08927630124E+002, +5.16452919206E+002
+2.13553191489E+007, +6.06538201482E+002, +5.18722372977E+002
+2.14803504380E+007, +6.10165752395E+002, +5.25039625018E+002
+2.16053817272E+007, +6.11734883261E+002, +5.27791179565E+002
+2.17304130163E+007, +6.13491268457E+002, +5.30704741610E+002
+2.18554443054E+007, +6.15185211218E+002, +5.35686542272E+002
+2.19804755945E+007, +6.20533941201E+002, +5.43313891307E+002
+2.21055068836E+007, +6.24424783685E+002, +5.44950694588E+002
+2.22305381727E+007, +6.28442719273E+002, +5.48387364070E+002
+2.23555694618E+007, +6.28820043867E+002, +5.54914211789E+002
+2.24806007509E+007, +6.27754865380E+002, +5.56203191633E+002
+2.26056320401E+007, +6.34607921586E+002, +5.58579038277E+002
+2.27306633292E+007, +6.35984372612E+002, +5.67112027824E+002
+2.28556946183E+007, +6.40176164405E+002, +5.68570468236E+002
+2.29807259074E+007, +6.45839862970E+002, +5.73340381013E+002
+2.31057571965E+007, +6.46782049378E+002, +5.76549318952E+002
+2.32307884856E+007, +6.46466365496E+002, +5.80061889837E+002
+2.33558197747E+007, +6.50724080586E+002, +5.80687629943E+002
+2.34808510638E+007, +6.48845204110E+002, +5.86372393388E+002
+2.36058823529E+007, +6.55654719755E+002, +5.91470903178E+002
+2.37309136421E+007, +6.60967121994E+002, +5.98758741812E+002
+2.38559449312E+007, +6.64569238534E+002, +5.98268151895E+002
+2.39809762203E+007, +6.66789008694E+002, +6.04171161591E+002
+2.41060075094E+007, +6.63431013022E+002, +6.10766689073E+002
+2.42310387985E+007, +6.72363279351E+002, +6.09327924153E+002
+2.43560700876E+007, +6.72490147197E+002, +6.17482881866E+002
+2.44811013767E+007, +6.77608149136E+002, +6.21051243219E+002
+2.46061326658E+007, +6.78083736234E+002, +6.22285487805E+002
+2.47311639549E+007, +6.83380019404E+002, +6.32907973039E+002
+2.48561952441E+007, +6.90561201354E+002, +6.34494917883E+002
+2.49812265332E+007, +6.91637280642E+002, +6.41095390168E+002
+2.51062578223E+007, +6.97747498893E+002, +6.39872879899E+002
+2.52312891114E+007, +7.00234472338E+002, +6.40494948125E+002
+2.53563204005E+007, +6.97705808441E+002, +6.46785906246E+002
+2.54813516896E+007, +7.07369965738E+002, +6.56852664532E+002
+2.56063829787E+007, +7.10107957677E+002, +6.63243230083E+002
+2.57314142678E+007, +7.12022439188E+002, +6.65834175560E+002
+2.58564455569E+007, +7.13042380035E+002, +6.70099221871E+002
+2.59814768461E+007, +7.21601202849E+002, +6.73484325104E+002
+2.61065081352E+007, +7.26383833793E+002, +6.74384378457E+002
+2.62315394243E+007, +7.35290194496E+002, +6.80439445020E+002
+2.63565707134E+007, +7.35980825837E+002, +6.86311875726E+002
+2.64816020025E+007, +7.39178697179E+002, +6.89484968500E+002
+2.66066332916E+007, +7.36682560103E+002, +6.88551200046E+002
+2.67316645807E+007, +7.45178892639E+002, +6.95871511407E+002
+2.68566958698E+007, +7.47786943969E+002, +7.05990444118E+002
+2.69817271589E+007, +7.57720719866E+002, +7.05930685356E+002
+2.71067584481E+007, +7.60352087234E+002, +7.13733865682E+002
+2.72317897372E+007, +7.64582042061E+002, +7.16124660637E+002
+2.73568210263E+007, +7.65674073142E+002, +7.20161363987E+002
+2.74818523154E+007, +7.70354380546E+002, +7.26450241957E+002
+2.76068836045E+007, +7.73623177229E+002, +7.25036090358E+002
+2.77319148936E+007, +7.80292382499E+002, +7.36099755595E+002
+2.78569461827E+007, +7.84177353466E+002, +7.31836556220E+002
+2.79819774718E+007, +7.88425769965E+002, +7.48473990077E+002
+2.81070087610E+007, +7.93485250868E+002, +7.49078200876E+002
+2.82320400501E+007, +8.03876581396E+002, +7.50690335825E+002
+2.83570713392E+007, +8.03931044531E+002, +7.52924503467E+002
+2.84821026283E+007, +8.06423063517E+002, +7.61373856117E+002
+2.86071339174E+007, +8.12960751922E+002, +7.64773778673E+002
+2.87321652065E+007, +8.24636896790E+002, +7.70060803448E+002
+2.88571964956E+007, +8.24687439903E+002, +7.83194961146E+002
+2.89822277847E+007, +8.31463476408E+002, +7.86862202865E+002
+2.91072590738E+007, +8.34764896964E+002, +7.90264131703E+002
+2.92322903630E+007, +8.34479642390E+002, +7.98219932837E+002
+2.93573216521E+007, +8.49454761001E+002, +8.00877061707E+002
+2.94823529412E+007, +8.47991250896E+002, +8.03804080357E+002
+2.96073842303E+007, +8.54362852278E+002, +8.11670963077E+002
+2.97324155194E+007, +8.55486128307E+002, +8.13317470007E+002
+2.98574468085E+007, +8.65069780420E+002, +8.20991270718E+002
+2.99824780976E+007, +8.76851896568E+002, +8.25963589889E+002
+3.01075093867E+007, +8.86687019630E+002, +8.30427377422E+002
+3.02325406758E+007, +8.87545137936E+002, +8.31646330100E+002
+3.03575719650E+007, +8.93312062797E+002, +8.40221899343E+002
+3.04826032541E+007, +8.99234293871E+002, +8.39506703743E+002
+3.06076345432E+007, +9.03688397133E+002, +8.47054975631E+002
+3.07326658323E+007, +9.22756882744E+002, +8.53522572626E+002
+3.08576971214E+007, +9.20666375729E+002, +8.51171702452E+002
+3.09827284105E+007, +9.26365257959E+002, +8.62242165697E+002
+3.11077596996E+007, +9.34481992332E+002, +8.64195568848E+002
+3.12327909887E+007, +9.46475521322E+002, +8.77217540961E+002
+3.13578222778E+007, +9.41786816166E+002, +8.86757927964E+002
+3.14828535670E+007, +9.56470926218E+002, +8.81380182771E+002
+3.16078848561E+007, +9.68514925542E+002, +8.91833243957E+002
+3.17329161452E+007, +9.69133321402E+002, +8.98948687086E+002
+3.18579474343E+007, +9.81951144114E+002, +8.92325248378E+002
+3.19829787234E+007, +9.85554559566E+002, +9.13396465512E+002
+3.21080100125E+007, +9.94165914139E+002, +9.05081068841E+002
+3.22330413016E+007, +1.00950702690E+003, +9.21656488148E+002
+3.23580725907E+007, +1.02531308963E+003, +9.12753882117E+002
+3.24831038798E+007, +1.02910555383E+003, +9.29264650792E+002
+3.26081351690E+007, +1.03786069600E+003, +9.36362246251E+002
+3.27331664581E+007, +1.03637001950E+003, +9.38809053247E+002
+3.28581977472E+007, +1.04861703558E+003, +9.42015013122E+002
+3.29832290363E+007, +1.06309417956E+003, +9.46934456855E+002
+3.31082603254E+007, +1.06177987156E+003, +9.59216762897E+002
+3.32332916145E+007, +1.06819268871E+003, +9.70052589689E+002
+3.33583229036E+007, +1.07613229035E+003, +9.59766048307E+002
+3.34833541927E+007, +1.08615620186E+003, +9.69010788071E+002
+3.36083854819E+007, +1.10107671531E+003, +9.72470427848E+002
+3.37334167710E+007, +1.10699658231E+003, +9.71947468950E+002
+3.38584480601E+007, +1.11304829437E+003, +9.84537919445E+002
+3.39834793492E+007, +1.13303946072E+003, +9.89948962278E+002
+3.41085106383E+007, +1.13631740939E+003, +9.99355401710E+002
+3.42335419274E+007, +1.16057846460E+003, +1.00004125557E+003
+3.43585732165E+007, +1.17267982229E+003, +1.00853983821E+003
+3.44836045056E+007, +1.16738241657E+003, +1.01204703157E+003
+3.46086357947E+007, +1.18540315930E+003, +1.01589291214E+003
+3.47336670839E+007, +1.20609743191E+003, +1.02646955641E+003
+3.48586983730E+007, +1.21232139901E+003, +1.02776147552E+003
+3.49837296621E+007, +1.21787923183E+003, +1.02177333488E+003
+3.51087609512E+007, +1.23684495389E+003, +1.04207327622E+003
+3.52337922403E+007, +1.25587770055E+003, +1.03888038143E+003
+3.53588235294E+007, +1.25141367379E+003, +1.04623949069E+003
+3.54838548185E+007, +1.26655419726E+003, +1.04310806615E+003
+3.56088861076E+007, +1.28440941598E+003, +1.04892524480E+003
+3.57339173967E+007, +1.29480158026E+003, +1.04766352106E+003
+3.58589486859E+007, +1.30630103431E+003, +1.06185052108E+003
+3.59839799750E+007, +1.30914238049E+003, +1.07331912278E+003
+3.61090112641E+007, +1.33181412269E+003, +1.05635048856E+003
+3.62340425532E+007, +1.34904646312E+003, +1.06904580637E+003
+3.63590738423E+007, +1.36966789878E+003, +1.07615602809E+003
+3.64841051314E+007, +1.37260055444E+003, +1.08222939878E+003
+3.66091364205E+007, +1.37899461523E+003, +1.08086334165E+003
+3.67341677096E+007, +1.41345506900E+003, +1.07722379293E+003
+3.68591989987E+007, +1.42832132243E+003, +1.09161378168E+003
+3.69842302879E+007, +1.43642428252E+003, +1.09367158569E+003
+3.71092615770E+007, +1.46056804779E+003, +1.10458868048E+003
+3.72342928661E+007, +1.46041079783E+003, +1.09725205083E+003
+3.73593241552E+007, +1.48171537190E+003, +1.11998560711E+003
+3.74843554443E+007, +1.49176759247E+003, +1.11360245904E+003
+3.76093867334E+007, +1.51848564272E+003, +1.09798684118E+003
+3.77344180225E+007, +1.53926005813E+003, +1.10716976801E+003
+3.78594493116E+007, +1.54884139691E+003, +1.10071481244E+003
+3.79844806008E+007, +1.57154908195E+003, +1.12183506102E+003
+3.81095118899E+007, +1.60427569546E+003, +1.13080774486E+003
+3.82345431790E+007, +1.59692374835E+003, +1.10148169735E+003
+3.83595744681E+007, +1.62387265849E+003, +1.13547594008E+003
+3.84846057572E+007, +1.65221526158E+003, +1.11534299672E+003
+3.86096370463E+007, +1.67186134119E+003, +1.13396290597E+003
+3.87346683354E+007, +1.67578846961E+003, +1.10459814271E+003
+3.88596996245E+007, +1.72082688717E+003, +1.11653360135E+003
+3.89847309136E+007, +1.72241844894E+003, +1.11298434824E+003
+3.91097622028E+007, +1.72334494419E+003, +1.13072562362E+003
+3.92347934919E+007, +1.73935771775E+003, +1.11890843296E+003
+3.93598247810E+007, +1.76822666619E+003, +1.10582839991E+003
+3.94848560701E+007, +1.81502648830E+003, +1.11018489231E+003
+3.96098873592E+007, +1.81329377877E+003, +1.09564041522E+003
+3.97349186483E+007, +1.84594111002E+003, +1.12078680822E+003
+3.98599499374E+007, +1.85706923362E+003, +1.12289438183E+003
+3.99849812265E+007, +1.89181702245E+003, +1.10330600809E+003
+4.01100125156E+007, +1.89810098984E+003, +1.10269573382E+003
