"# Channel 1"
"# Trace 1"
Frequency, Formatted Data, Formatted Data
+1.00000000000E+005, +5.18235357568E+001, +2.14516707811E+000
+2.66777963272E+005, +5.17358571961E+001, +6.37007883112E+000
+4.33555926544E+005, +5.17034448707E+001, +1.03762085427E+001
+6.00333889816E+005, +5.17137927224E+001, +1.42959230993E+001
+7.67111853088E+005, +5.16951255538E+001, +1.82036247222E+001
+9.33889816361E+005, +5.16978909541E+001, +2.21999366807E+001
+1.10066777963E+006, +5.17724267998E+001, +2.63003973987E+001
+1.26744574290E+006, +5.17562685751E+001, +3.02004624686E+001
+1.43422370618E+006, +5.18540342841E+001, +3.42934308135E+001
+1.60100166945E+006, +5.17477786533E+001, +3.81911368972E+001
+1.76777963272E+006, +5.18923766522E+001, +4.22119886795E+001
+1.93455759599E+006, +5.17351099695E+001, +4.61475269574E+001
+2.10133555927E+006, +5.17587025358E+001, +5.00340974633E+001
+2.26811352254E+006, +5.18961865503E+001, +5.40663480280E+001
+2.43489148581E+006, +5.19052663645E+001, +5.81629089072E+001
+2.60166944908E+006, +5.19077019092E+001, +6.20865353978E+001
+2.76844741235E+006, +5.18841709551E+001, +6.61812588018E+001
+2.93522537563E+006, +5.20140757852E+001, +7.01836966801E+001
+3.10200333890E+006, +5.21044223845E+001, +7.39619207629E+001
+3.26878130217E+006, +5.19819905823E+001, +7.81940940523E+001
+3.43555926544E+006, +5.20042253912E+001, +8.20442150114E+001
+3.60233722871E+006, +5.21772246093E+001, +8.62034753251E+001
+3.76911519199E+006, +5.22479701285E+001, +9.02990799262E+001
+3.93589315526E+006, +5.21210700785E+001, +9.38770764540E+001
+4.10267111853E+006, +5.09454368480E+001, +9.82017525265E+001
+4.26944908180E+006, +5.24923812648E+001, +1.02974342201E+002
+4.43622704508E+006, +5.22996671630E+001, +1.06494755789E+002
+4.60300500835E+006, +5.25135660356E+001, +1.10580320067E+002
+4.76978297162E+006, +5.24058619504E+001, +1.14346899692E+002
+4.93656093489E+006, +5.26641184442E+001, +1.18634093654E+002
+5.10333889816E+006, +5.26076406551E+001, +1.22452251250E+002
+5.27011686144E+006, +5.32570972975E+001, +1.26713933868E+002
+5.43689482471E+006, +5.27407315907E+001, +1.30779290929E+002
+5.60367278798E+006, +5.30801072354E+001, +1.34848089802E+002
+5.77045075125E+006, +5.29206125969E+001, +1.38979419104E+002
+5.93722871452E+006, +5.33167725666E+001, +1.43183637233E+002
+6.10400667780E+006, +5.33982091563E+001, +1.47367552834E+002
+6.27078464107E+006, +5.35374029172E+001, +1.51238155307E+002
+6.43756260434E+006, +5.37006586710E+001, +1.55342718268E+002
+6.60434056761E+006, +5.38496438834E+001, +1.59327789470E+002
+6.77111853088E+006, +5.39103682817E+001, +1.63209912910E+002
+6.93789649416E+006, +5.39908407437E+001, +1.67439561952E+002
+7.10467445743E+006, +5.39465803823E+001, +1.71643618304E+002
+7.27145242070E+006, +5.41549947780E+001, +1.75675520690E+002
+7.43823038397E+006, +5.41837682710E+001, +1.79708044069E+002
+7.60500834725E+006, +5.40531663259E+001, +1.84054536127E+002
+7.77178631052E+006, +5.46545718907E+001, +1.88583920004E+002
+7.93856427379E+006, +5.43421128237E+001, +1.92435626996E+002
+8.10534223706E+006, +5.42714295764E+001, +1.96660737092E+002
+8.27212020033E+006, +5.45223166647E+001, +2.01047289501E+002
+8.43889816361E+006, +5.45053388753E+001, +2.05239699409E+002
+8.60567612688E+006, +5.45087086679E+001, +2.09825451520E+002
+8.77245409015E+006, +5.44348636288E+001, +2.13676138467E+002
+8.93923205342E+006, +5.45346788178E+001, +2.18185798594E+002
+9.10601001669E+006, +5.48008666566E+001, +2.22937884432E+002
+9.27278797997E+006, +5.47011527035E+001, +2.27079230681E+002
+9.43956594324E+006, +5.47635535292E+001, +2.31394265855E+002
+9.60634390651E+006, +5.51126419242E+001, +2.35854300624E+002
+9.77312186978E+006, +5.49776589817E+001, +2.40369211241E+002
+9.93989983306E+006, +5.53872640597E+001, +2.44673828114E+002
+1.01066777963E+007, +5.51405770178E+001, +2.49093648296E+002
+1.02734557596E+007, +5.56613379291E+001, +2.53918139062E+002
+1.04402337229E+007, +5.54688519252E+001, +2.58290741844E+002
+1.06070116861E+007, +5.53289482931E+001, +2.62775121516E+002
+1.07737896494E+007, +5.57500424546E+001, +2.67518327827E+002
+1.09405676127E+007, +5.62800580119E+001, +2.72038023924E+002
+1.11073455760E+007, +5.61322890198E+001, +2.76481412393E+002
+1.12741235392E+007, +5.63523189803E+001, +2.81024864812E+002
+1.14409015025E+007, +5.66366042269E+001, +2.85361291087E+002
+1.16076794658E+007, +5.66404367619E+001, +2.90173965884E+002
+1.17744574290E+007, +5.73033730372E+001, +2.95301130269E+002
+1.19412353923E+007, +5.69436271833E+001, +2.99695514667E+002
+1.21080133556E+007, +5.69229256181E+001, +3.04485051665E+002
+1.22747913189E+007, +5.73263942940E+001, +3.08991479569E+002
+1.24415692821E+007, +5.74296353352E+001, +3.13883721291E+002
+1.26083472454E+007, +5.73672539980E+001, +3.19023327288E+002
+1.27751252087E+007, +5.79063360924E+001, +3.23671879375E+002
+1.29419031720E+007, +5.79084402629E+001, +3.28405516933E+002
+1.31086811352E+007, +5.80146622433E+001, +3.32787210731E+002
+1.32754590985E+007, +5.85122426283E+001, +3.38031388253E+002
+1.34422370618E+007, +5.82856837364E+001, +3.42806291800E+002
+1.36090150250E+007, +5.95267135250E+001, +3.47435734513E+002
+1.37757929883E+007, +5.91468910542E+001, +3.52246837951E+002
+1.39425709516E+007, +5.97352726578E+001, +3.57489119249E+002
+1.41093489149E+007, +5.97063909240E+001, +3.62542112980E+002
+1.42761268781E+007, +5.97792623340E+001, +3.67833578004E+002
+1.44429048414E+007, +6.05857111172E+001, +3.72829217504E+002
+1.46096828047E+007, +6.08738217845E+001, +3.77459874412E+002
+1.47764607679E+007, +6.09097278114E+001, +3.82296357598E+002
+1.49432387312E+007, +6.13401461809E+001, +3.87937826012E+002
+1.51100166945E+007, +6.14222238241E+001, +3.92671462555E+002
+1.52767946578E+007, +6.20148881591E+001, +3.97908527707E+002
+1.54435726210E+007, +6.27800400939E+001, +4.02484008775E+002
+1.56103505843E+007, +6.27262509767E+001, +4.07779113634E+002
+1.57771285476E+007, +6.28728119163E+001, +4.13002222501E+002
+1.59439065109E+007, +6.33212010217E+001, +4.17942950601E+002
+1.61106844741E+007, +6.40386899181E+001, +4.23264577023E+002
+1.62774624374E+007, +6.42072433636E+001, +4.28627867915E+002
+1.64442404007E+007, +6.32823572606E+001, +4.34236649864E+002
+1.66110183639E+007, +6.53403593491E+001, +4.39335260971E+002
+1.67777963272E+007, +6.53096380093E+001, +4.45340425267E+002
+1.69445742905E+007, +6.56590504192E+001, +4.49391542287E+002
+1.71113522538E+007, +6.39584335554E+001, +4.55902306237E+002
+1.72781302170E+007, +6.50303716066E+001, +4.61760166483E+002
+1.74449081803E+007, +6.42219051187E+001, +4.66416261838E+002
+1.76116861436E+007, +6.68721977338E+001, +4.73384224077E+002
+1.77784641068E+007, +6.63714443998E+001, +4.78489234633E+002
+1.79452420701E+007, +6.67494865112E+001, +4.84289638737E+002
+1.81120200334E+007, +6.73966083200E+001, +4.88763330615E+002
+1.82787979967E+007, +6.86110759452E+001, +4.96537545074E+002
+1.84455759599E+007, +6.90858730762E+001, +5.01977437806E+002
+1.86123539232E+007, +7.04024861442E+001, +5.06648236702E+002
+1.87791318865E+007, +6.91510881289E+001, +5.13247915210E+002
+1.89459098497E+007, +6.98545380614E+001, +5.19609400729E+002
+1.91126878130E+007, +7.03425768976E+001, +5.24270104130E+002
+1.92794657763E+007, +7.07153322610E+001, +5.30205099071E+002
+1.94462437396E+007, +7.22318023143E+001, +5.36520696741E+002
+1.96130217028E+007, +7.25480355890E+001, +5.42821176723E+002
+1.97797996661E+007, +7.24437871985E+001, +5.48754601405E+002
+1.99465776294E+007, +7.17869616510E+001, +5.55533090957E+002
+2.01133555927E+007, +7.32319951454E+001, +5.62637111871E+002
+2.02801335559E+007, +7.42769555618E+001, +5.69088875517E+002
+2.04469115192E+007, +7.59318663522E+001, +5.73974158012E+002
+2.06136894825E+007, +7.65682815436E+001, +5.81717842974E+002
+2.07804674457E+007, +7.75466281319E+001, +5.87882670222E+002
+2.09472454090E+007, +7.65622449291E+001, +5.95711271530E+002
+2.11140233723E+007, +7.77990044180E+001, +6.00909488071E+002
+2.12808013356E+007, +7.80458093441E+001, +6.07413102702E+002
+2.14475792988E+007, +7.97389604165E+001, +6.14998221557E+002
+2.16143572621E+007, +8.12699039971E+001, +6.19786426442E+002
+2.17811352254E+007, +7.97492457443E+001, +6.27120304710E+002
+2.19479131886E+007, +8.36704907064E+001, +6.33501041350E+002
+2.21146911519E+007, +8.20506196753E+001, +6.40226795262E+002
+2.22814691152E+007, +8.36733995155E+001, +6.48158341027E+002
+2.24482470785E+007, +8.43147732203E+001, +6.56579062095E+002
+2.26150250417E+007, +8.72964897267E+001, +6.61612632869E+002
+2.27818030050E+007, +8.77769792496E+001, +6.71632131978E+002
+2.29485809683E+007, +9.13560684801E+001, +6.76456180238E+002
+2.31153589316E+007, +8.74763692338E+001, +6.85184370156E+002
+2.32821368948E+007, +9.35975457217E+001, +6.89666297583E+002
+2.34489148581E+007, +9.34766153553E+001, +6.98726330442E+002
+2.36156928214E+007, +9.32465092615E+001, +7.07310284036E+002
+2.37824707846E+007, +9.60595072513E+001, +7.13425589235E+002
+2.39492487479E+007, +9.42115837377E+001, +7.18983317991E+002
+2.41160267112E+007, +9.68457787691E+001, +7.28324888217E+002
+2.42828046745E+007, +9.62311418292E+001, +7.36415514763E+002
+2.44495826377E+007, +9.96732414024E+001, +7.46323669097E+002
+2.46163606010E+007, +1.01252547201E+002, +7.53470227010E+002
+2.47831385643E+007, +1.02883558192E+002, +7.59738891496E+002
+2.49499165275E+007, +1.05885196361E+002, +7.68078299191E+002
+2.51166944908E+007, +1.10619020110E+002, +7.75676951025E+002
+2.52834724541E+007, +1.09248236006E+002, +7.84802131868E+002
+2.54502504174E+007, +1.10964636313E+002, +7.92735033431E+002
+2.56170283806E+007, +1.09972978327E+002, +8.01252694312E+002
+2.57838063439E+007, +1.13003258272E+002, +8.10085251635E+002
+2.59505843072E+007, +1.17052801935E+002, +8.19477888357E+002
+2.61173622705E+007, +1.14393621875E+002, +8.25407149440E+002
+2.62841402337E+007, +1.16983704956E+002, +8.32593531704E+002
+2.64509181970E+007, +1.16357964336E+002, +8.44554940080E+002
+2.66176961603E+007, +1.21185978387E+002, +8.53665120140E+002
+2.67844741235E+007, +1.20591802530E+002, +8.58927992615E+002
+2.69512520868E+007, +1.21070303964E+002, +8.69422297437E+002
+2.71180300501E+007, +1.24261925808E+002, +8.74601490867E+002
+2.72848080134E+007, +1.29266274215E+002, +8.85605346516E+002
+2.74515859766E+007, +1.28087855894E+002, +8.95214220260E+002
+2.76183639399E+007, +1.26356043944E+002, +8.98168036271E+002
+2.77851419032E+007, +1.28835115972E+002, +9.08221826534E+002
+2.79519198664E+007, +1.31238153410E+002, +9.17126041504E+002
+2.81186978297E+007, +1.36071034694E+002, +9.29002882325E+002
+2.82854757930E+007, +1.36768990380E+002, +9.35082709461E+002
+2.84522537563E+007, +1.31195191638E+002, +9.47966372160E+002
+2.86190317195E+007, +1.33487608884E+002, +9.54656974813E+002
+2.87858096828E+007, +1.41129984334E+002, +9.69634323970E+002
+2.89525876461E+007, +1.42335264958E+002, +9.78982751459E+002
+2.91193656093E+007, +1.36038596766E+002, +9.84894456271E+002
+2.92861435726E+007, +1.37163601305E+002, +9.96641703887E+002
+2.94529215359E+007, +1.40710590626E+002, +1.00431446469E+003
+2.96196994992E+007, +1.50879408002E+002, +1.01632312920E+003
+2.97864774624E+007, +1.48968092469E+002, +1.02772515292E+003
+2.99532554257E+007, +1.52258719076E+002, +1.04009387142E+003
+3.01200333890E+007, +1.50505096055E+002, +1.05802184795E+003
+3.02868113523E+007, +1.46784721054E+002, +1.06697853955E+003
+3.04535893155E+007, +1.53700784552E+002, +1.08460508052E+003
+3.06203672788E+007, +1.53293584669E+002, +1.08942023723E+003
+3.07871452421E+007, +1.57763772728E+002, +1.10656445262E+003
+3.09539232053E+007, +1.58693286299E+002, +1.11263024380E+003
+3.11207011686E+007, +1.58539282053E+002, +1.13738713339E+003
+3.12874791319E+007, +1.61889721762E+002, +1.14363030993E+003
+3.14542570952E+007, +1.68488350282E+002, +1.15496447797E+003
+3.16210350584E+007, +1.65288588315E+002, +1.17497285081E+003
+3.17878130217E+007, +1.64299368397E+002, +1.18612160987E+003
+3.19545909850E+007, +1.65610813581E+002, +1.19852791672E+003
+3.21213689482E+007, +1.67581902955E+002, +1.21801176032E+003
+3.22881469115E+007, +1.64157989593E+002, +1.22452196702E+003
+3.24549248748E+007, +1.67867935164E+002, +1.25028374824E+003
+3.26217028381E+007, +1.76077684504E+002, +1.25784134457E+003
+3.27884808013E+007, +1.76836591971E+002, +1.27677788059E+003
+3.29552587646E+007, +1.89359446601E+002, +1.28178780405E+003
+3.31220367279E+007, +1.91296807512E+002, +1.30306130529E+003
+3.32888146912E+007, +1.90472008180E+002, +1.32786161849E+003
+3.34555926544E+007, +1.86044273094E+002, +1.33108179550E+003
+3.36223706177E+007, +2.00534763862E+002, +1.35379978503E+003
+3.37891485810E+007, +1.96510213523E+002, +1.36914965354E+003
+3.39559265442E+007, +2.03157056573E+002, +1.39658993447E+003
+3.41227045075E+007, +2.01466931418E+002, +1.40906806147E+003
+3.42894824708E+007, +2.07772778089E+002, +1.43073137711E+003
+3.44562604341E+007, +2.12885406522E+002, +1.45460162439E+003
+3.46230383973E+007, +2.17364309612E+002, +1.47463901674E+003
+3.47898163606E+007, +2.21069032616E+002, +1.48301278503E+003
+3.49565943239E+007, +2.39860624234E+002, +1.50574938342E+003
+3.51233722871E+007, +2.33960234995E+002, +1.52276572958E+003
+3.52901502504E+007, +2.40494860836E+002, +1.54140848485E+003
+3.54569282137E+007, +2.47630519533E+002, +1.57536028934E+003
+3.56237061770E+007, +2.41453441933E+002, +1.59643301350E+003
+3.57904841402E+007, +2.52265366202E+002, +1.62054261179E+003
+3.59572621035E+007, +2.61340926761E+002, +1.63744660347E+003
+3.61240400668E+007, +2.60537473200E+002, +1.66948977993E+003
+3.62908180301E+007, +2.70348544639E+002, +1.68972047368E+003
+3.64575959933E+007, +2.63202170592E+002, +1.70954743763E+003
+3.66243739566E+007, +2.80180638457E+002, +1.73647064618E+003
+3.67911519199E+007, +3.03651620376E+002, +1.78347199273E+003
+3.69579298831E+007, +2.91326094472E+002, +1.79408640682E+003
+3.71247078464E+007, +2.98963055832E+002, +1.82125472176E+003
+3.72914858097E+007, +3.20340313296E+002, +1.85736655169E+003
+3.74582637730E+007, +3.27161857941E+002, +1.89969716852E+003
+3.76250417362E+007, +3.37562676789E+002, +1.91941362513E+003
+3.77918196995E+007, +3.26939030694E+002, +1.94330137480E+003
+3.79585976628E+007, +3.38883666955E+002, +1.98525069718E+003
+3.81253756260E+007, +3.62006662497E+002, +2.01040024842E+003
+3.82921535893E+007, +3.82430397861E+002, +2.02594217844E+003
+3.84589315526E+007, +3.97160993853E+002, +2.08029298396E+003
+3.86257095159E+007, +4.07646200431E+002, +2.13495880433E+003
+3.87924874791E+007, +4.02077592972E+002, +2.16873350126E+003
+3.89592654424E+007, +4.22782799952E+002, +2.20685621522E+003
+3.91260434057E+007, +4.43717277939E+002, +2.24872108769E+003
+3.92928213689E+007, +4.38823723912E+002, +2.27055975949E+003
+3.94595993322E+007, +4.54338515518E+002, +2.33176301786E+003
+3.96263772955E+007, +4.73006140720E+002, +2.37710200674E+003
+3.97931552588E+007, +4.92599034571E+002, +2.40966774508E+003
+3.99599332220E+007, +5.25121992147E+002, +2.44843575834E+003
+4.01267111853E+007, +5.68813742677E+002, +2.52081607286E+003
+4.02934891486E+007, +5.38798950977E+002, +2.56207397844E+003
+4.04602671119E+007, +5.76289502704E+002, +2.59623174985E+003
+4.06270450751E+007, +6.28267411851E+002, +2.66847124964E+003
+4.07938230384E+007, +6.46196905392E+002, +2.71390067217E+003
+4.09606010017E+007, +7.14580802495E+002, +2.81165852232E+003
+4.11273789649E+007, +6.91804237043E+002, +2.85658099998E+003
+4.12941569282E+007, +7.21824007732E+002, +2.91837391925E+003
+4.14609348915E+007, +7.95771874297E+002, +3.00480683030E+003
+4.16277128548E+007, +8.27057836259E+002, +3.06200807542E+003
+4.17944908180E+007, +8.21838854332E+002, +3.11465696941E+003
+4.19612687813E+007, +8.73711933094E+002, +3.20009092202E+003
+4.21280467446E+007, +9.31523651588E+002, +3.31695365945E+003
+4.22948247078E+007, +9.70996023483E+002, +3.40951821156E+003
+4.24616026711E+007, +1.04684000089E+003, +3.46684613555E+003
+4.26283806344E+007, +1.12283618459E+003, +3.54192290540E+003
+4.27951585977E+007, +1.13104365382E+003, +3.73683940082E+003
+4.29619365609E+007, +1.24845578982E+003, +3.74955739740E+003
+4.31287145242E+007, +1.37957711987E+003, +3.85482107419E+003
+4.32954924875E+007, +1.44330198777E+003, +3.93408229829E+003
+4.34622704508E+007, +1.47712882325E+003, +4.13029146542E+003
+4.36290484140E+007, +1.66825613543E+003, +4.16192895671E+003
+4.37958263773E+007, +1.72066167688E+003, +4.38010626455E+003
+4.39626043406E+007, +1.87350546970E+003, +4.41863083729E+003
+4.41293823038E+007, +2.06692781143E+003, +4.61878439778E+003
+4.42961602671E+007, +2.16823453323E+003, +4.66358311669E+003
+4.44629382304E+007, +2.30898591959E+003, +4.90477895344E+003
+4.46297161937E+007, +2.50320072006E+003, +5.11874234183E+003
+4.47964941569E+007, +2.73320529405E+003, +5.21535510114E+003
+4.49632721202E+007, +2.82798377281E+003, +5.41993341032E+003
+4.51300500835E+007, +3.18152485493E+003, +5.61221428926E+003
+4.52968280467E+007, +3.67143309672E+003, +5.71390194517E+003
+4.54636060100E+007, +4.16017470841E+003, +5.75402515041E+003
+4.56303839733E+007, +4.41404640429E+003, +6.01455105267E+003
+4.57971619366E+007, +4.78531273961E+003, +6.32018409366E+003
+4.59639398998E+007, +6.14630200952E+003, +6.36484850087E+003
+4.61307178631E+007, +6.06185063767E+003, +6.26994665735E+003
+4.62974958264E+007, +6.99140464691E+003, +5.78155867419E+003
+4.64642737896E+007, +7.72194958822E+003, +6.13092570446E+003
+4.66310517529E+007, +8.57360357385E+003, +5.95354843739E+003
+4.67978297162E+007, +8.59849956496E+003, +5.22117727406E+003
+4.69646076795E+007, +1.04573551587E+004, +4.60104188062E+003
+4.71313856427E+007, +1.05688767423E+004, +3.63918076304E+003
+4.72981636060E+007, +1.17313309639E+004, +3.08555326791E+003
+4.74649415693E+007, +1.23031327268E+004, +1.93053758561E+003
+4.76317195326E+007, +1.13848399064E+004, +8.56150797177E+002
+4.77984974958E+007, +1.13105345664E+004, -7.60881170270E+002
+4.79652754591E+007, +1.13283250207E+004, -2.03193088504E+003
+4.81320534224E+007, +1.05142792638E+004, -2.45941069786E+003
+4.82988313856E+007, +1.02842691300E+004, -3.43784202925E+003
+4.84656093489E+007, +9.32521942324E+003, -3.52019354553E+003
+4.86323873122E+007, +8.90867137428E+003, -4.34227941740E+003
+4.87991652755E+007, +7.89897772204E+003, -4.47741281432E+003
+4.89659432387E+007, +7.24581245004E+003, -5.03163561203E+003
+4.91327212020E+007, +6.56721409251E+003, -5.05507826194E+003
+4.92994991653E+007, +6.27570378147E+003, -5.00661247050E+003
+4.94662771285E+007, +5.35081547159E+003, -4.99064491496E+003
+4.96330550918E+007, +5.27999722203E+003, -4.89485889670E+003
+4.97998330551E+007, +4.86451338885E+003, -4.90383121697E+003
+4.99666110184E+007, +4.63766959381E+003, -4.75614552616E+003
+5.01333889816E+007, +4.21031041520E+003, -4.85429676055E+003
+5.03001669449E+007, +4.13727392983E+003, -4.69050219132E+003
+5.04669449082E+007, +3.69552507156E+003, -4.52816960866E+003
+5.06337228715E+007, +3.47634143780E+003, -4.51289304730E+003
+5.08005008347E+007, +3.28563365709E+003, -4.59169315227E+003
+5.09672787980E+007, +3.03726061800E+003, -4.36682823589E+003
+5.11340567613E+007, +2.74881240271E+003, -4.22938755309E+003
+5.13008347245E+007, +2.52691897501E+003, -4.24359866079E+003
+5.14676126878E+007, +2.36143085640E+003, -4.17893362483E+003
+5.16343906511E+007, +2.16704624576E+003, -3.88561605256E+003
+5.18011686144E+007, +2.10895931391E+003, -3.98313771603E+003
+5.19679465776E+007, +1.90404564285E+003, -3.85503881160E+003
+5.21347245409E+007, +1.83340872791E+003, -3.66923111052E+003
+5.23015025042E+007, +1.64691245032E+003, -3.48479688028E+003
+5.24682804674E+007, +1.53548102914E+003, -3.51203690972E+003
+5.26350584307E+007, +1.49471449127E+003, -3.38126198039E+003
+5.28018363940E+007, +1.34834758152E+003, -3.31842957735E+003
+5.29686143573E+007, +1.29195984015E+003, -3.20598120523E+003
+5.31353923205E+007, +1.24120641388E+003, -3.11147760381E+003
+5.33021702838E+007, +1.12501806229E+003, -3.03151042998E+003
+5.34689482471E+007, +1.07741420454E+003, -2.88829896387E+003
