"# Channel 1"
"# Trace 1"
Frequency, Formatted Data, Formatted Data
+1.00000000000E+006, +9.20607279815E+000, +2.21843226273E+001
+1.16527545910E+006, +9.23199031972E+000, +2.58647806954E+001
+1.33055091820E+006, +9.25668905781E+000, +2.94243959645E+001
+1.49582637730E+006, +9.22338241245E+000, +3.31171593599E+001
+1.66110183639E+006, +9.22233378554E+000, +3.67441150593E+001
+1.82637729549E+006, +9.20097845177E+000, +4.03497527639E+001
+1.99165275459E+006, +9.26787750303E+000, +4.40148305762E+001
+2.15692821369E+006, +9.25680835338E+000, +4.76684555504E+001
+2.32220367279E+006, +9.22607896553E+000, +5.13421211110E+001
+2.48747913189E+006, +9.20919797433E+000, +5.49769619781E+001
+2.65275459098E+006, +9.16013849165E+000, +5.86607329130E+001
+2.81803005008E+006, +9.16259891494E+000, +6.23332363459E+001
+2.98330550918E+006, +9.11837364276E+000, +6.58685462595E+001
+3.14858096828E+006, +9.22044599555E+000, +6.95405115316E+001
+3.31385642738E+006, +9.33898175665E+000, +7.32701490002E+001
+3.47913188648E+006, +9.21683280106E+000, +7.70106993165E+001
+3.64440734558E+006, +9.20648706299E+000, +8.05362583533E+001
+3.80968280467E+006, +9.42946986006E+000, +8.41872033754E+001
+3.97495826377E+006, +9.47886966086E+000, +8.77780987638E+001
+4.14023372287E+006, +9.22390101649E+000, +9.17429310563E+001
+4.30550918197E+006, +9.35577730842E+000, +9.51454145293E+001
+4.47078464107E+006, +9.35283944808E+000, +9.89102072879E+001
+4.63606010017E+006, +9.30168758822E+000, +1.02496249757E+002
+4.80133555927E+006, +9.33984016163E+000, +1.06315727884E+002
+4.96661101836E+006, +9.39840956975E+000, +1.09949322430E+002
+5.13188647746E+006, +9.48611849913E+000, +1.13656357956E+002
+5.29716193656E+006, +9.36565015011E+000, +1.17152079397E+002
+5.46243739566E+006, +9.56419341673E+000, +1.20977751953E+002
+5.62771285476E+006, +9.55827703445E+000, +1.24663783617E+002
+5.79298831386E+006, +9.92890917929E+000, +1.28479614810E+002
+5.95826377295E+006, +9.83127220804E+000, +1.32031981132E+002
+6.12353923205E+006, +1.02017104664E+001, +1.35667709140E+002
+6.28881469115E+006, +9.84630119295E+000, +1.39319708521E+002
+6.45409015025E+006, +1.01755712670E+001, +1.42954907924E+002
+6.61936560935E+006, +9.97218067828E+000, +1.46787621587E+002
+6.78464106845E+006, +1.02148950741E+001, +1.50469441243E+002
+6.94991652755E+006, +1.01556928211E+001, +1.54145929666E+002
+7.11519198664E+006, +1.03895004695E+001, +1.57672970273E+002
+7.28046744574E+006, +1.03556196517E+001, +1.61534905355E+002
+7.44574290484E+006, +1.04396025397E+001, +1.65029671378E+002
+7.61101836394E+006, +1.04672484361E+001, +1.68850167978E+002
+7.77629382304E+006, +1.05752914472E+001, +1.72419482463E+002
+7.94156928214E+006, +1.04348445664E+001, +1.76101897507E+002
+8.10684474124E+006, +1.04412404838E+001, +1.79832266720E+002
+8.27212020033E+006, +1.04754824125E+001, +1.83500222638E+002
+8.43739565943E+006, +1.04757929342E+001, +1.87295345841E+002
+8.60267111853E+006, +1.03336468724E+001, +1.91046321417E+002
+8.76794657763E+006, +1.06570584358E+001, +1.94647130496E+002
+8.93322203673E+006, +1.06819343120E+001, +1.98614214106E+002
+9.09849749583E+006, +1.05540691516E+001, +2.02358318084E+002
+9.26377295492E+006, +1.05920036089E+001, +2.06126528994E+002
+9.42904841402E+006, +1.06972707716E+001, +2.09769879232E+002
+9.59432387312E+006, +1.07345384247E+001, +2.13425833179E+002
+9.75959933222E+006, +1.04322027111E+001, +2.17306625868E+002
+9.92487479132E+006, +1.04031881731E+001, +2.20971767759E+002
+1.00901502504E+007, +1.07291048308E+001, +2.24717675677E+002
+1.02554257095E+007, +1.06544727921E+001, +2.28343810008E+002
+1.04207011686E+007, +1.06963790124E+001, +2.32039324529E+002
+1.05859766277E+007, +1.05514451875E+001, +2.36303414152E+002
+1.07512520868E+007, +1.05951063983E+001, +2.39737681546E+002
+1.09165275459E+007, +1.05656591912E+001, +2.43656147306E+002
+1.10818030050E+007, +1.07490760039E+001, +2.47866147362E+002
+1.12470784641E+007, +1.07484453731E+001, +2.50862839358E+002
+1.14123539232E+007, +1.08086479649E+001, +2.54998300937E+002
+1.15776293823E+007, +1.09984810818E+001, +2.59127043702E+002
+1.17429048414E+007, +1.07637735634E+001, +2.62800733613E+002
+1.19081803005E+007, +1.08538002331E+001, +2.66629503444E+002
+1.20734557596E+007, +1.09007304983E+001, +2.70443612894E+002
+1.22387312187E+007, +1.06970876132E+001, +2.74150375284E+002
+1.24040066778E+007, +1.11365919183E+001, +2.78072733185E+002
+1.25692821369E+007, +1.08352308561E+001, +2.82074785914E+002
+1.27345575960E+007, +1.11717308768E+001, +2.85601991917E+002
+1.28998330551E+007, +1.08880512574E+001, +2.89710315661E+002
+1.30651085142E+007, +1.05791211792E+001, +2.93656031144E+002
+1.32303839733E+007, +1.18113992718E+001, +2.97327528199E+002
+1.33956594324E+007, +1.11173469373E+001, +3.01396609210E+002
+1.35609348915E+007, +1.13093581967E+001, +3.05019087583E+002
+1.37262103506E+007, +1.13617508874E+001, +3.08450727605E+002
+1.38914858097E+007, +1.16235236168E+001, +3.12537911699E+002
+1.40567612688E+007, +1.13308048176E+001, +3.16718953308E+002
+1.42220367279E+007, +1.08895004981E+001, +3.20106382926E+002
+1.43873121870E+007, +1.16141504843E+001, +3.25095189946E+002
+1.45525876461E+007, +1.15137717953E+001, +3.28965358509E+002
+1.47178631052E+007, +1.14171515173E+001, +3.32960927681E+002
+1.48831385643E+007, +1.14772974892E+001, +3.35850134149E+002
+1.50484140234E+007, +1.14950798714E+001, +3.40488194696E+002
+1.52136894825E+007, +1.13380873496E+001, +3.44534826016E+002
+1.53789649416E+007, +1.16568277459E+001, +3.48368410279E+002
+1.55442404007E+007, +1.16015985902E+001, +3.52332578128E+002
+1.57095158598E+007, +1.16890856699E+001, +3.56298288015E+002
+1.58747913189E+007, +1.21290025031E+001, +3.60664356878E+002
+1.60400667780E+007, +1.18736385036E+001, +3.63948202692E+002
+1.62053422371E+007, +1.20314832505E+001, +3.68655677314E+002
+1.63706176962E+007, +1.21613734141E+001, +3.72147968724E+002
+1.65358931553E+007, +1.24688390209E+001, +3.75917788557E+002
+1.67011686144E+007, +1.28505713602E+001, +3.80041348565E+002
+1.68664440735E+007, +1.25973857822E+001, +3.84174554376E+002
+1.70317195326E+007, +1.08980842128E+001, +3.88737024960E+002
+1.71969949917E+007, +1.14112496878E+001, +3.92399662406E+002
+1.73622704508E+007, +1.24379964956E+001, +3.96159788951E+002
+1.75275459098E+007, +1.15503443397E+001, +4.00214839114E+002
+1.76928213689E+007, +1.24889086896E+001, +4.05375915798E+002
+1.78580968280E+007, +1.23331391682E+001, +4.09333560010E+002
+1.80233722871E+007, +1.26306992611E+001, +4.12104662104E+002
+1.81886477462E+007, +1.29989037774E+001, +4.17086865687E+002
+1.83539232053E+007, +1.26875350810E+001, +4.20698346759E+002
+1.85191986644E+007, +1.25996137730E+001, +4.25355400771E+002
+1.86844741235E+007, +1.24765234854E+001, +4.27581641678E+002
+1.88497495826E+007, +1.30407981400E+001, +4.32981672363E+002
+1.90150250417E+007, +1.25584616908E+001, +4.37909067150E+002
+1.91803005008E+007, +1.20136313117E+001, +4.41141077584E+002
+1.93455759599E+007, +1.32086752491E+001, +4.44999174380E+002
+1.95108514190E+007, +1.46545094816E+001, +4.50441193390E+002
+1.96761268781E+007, +1.42855417687E+001, +4.53932813842E+002
+1.98414023372E+007, +1.31870505547E+001, +4.58455490896E+002
+2.00066777963E+007, +1.37001776185E+001, +4.61812480289E+002
+2.01719532554E+007, +1.33683976574E+001, +4.66773887525E+002
+2.03372287145E+007, +1.43485899575E+001, +4.72645068200E+002
+2.05025041736E+007, +1.40272595509E+001, +4.75780957310E+002
+2.06677796327E+007, +1.41348204693E+001, +4.79563908231E+002
+2.08330550918E+007, +1.35784104999E+001, +4.83709674345E+002
+2.09983305509E+007, +1.42096501678E+001, +4.88954573690E+002
+2.11636060100E+007, +1.34733474540E+001, +4.92436505044E+002
+2.13288814691E+007, +1.41962618220E+001, +4.97538226581E+002
+2.14941569282E+007, +1.49343450111E+001, +5.01880305711E+002
+2.16594323873E+007, +1.45443370904E+001, +5.06034499110E+002
+2.18247078464E+007, +1.45820088467E+001, +5.10729610698E+002
+2.19899833055E+007, +1.36508272756E+001, +5.15586822625E+002
+2.21552587646E+007, +1.36908165117E+001, +5.18889056999E+002
+2.23205342237E+007, +1.48144147563E+001, +5.23872142622E+002
+2.24858096828E+007, +1.44834123644E+001, +5.26981789792E+002
+2.26510851419E+007, +1.59036684865E+001, +5.32105488461E+002
+2.28163606010E+007, +1.51207322510E+001, +5.36153367073E+002
+2.29816360601E+007, +1.45766909745E+001, +5.41143008754E+002
+2.31469115192E+007, +1.61389860428E+001, +5.46090675182E+002
+2.33121869783E+007, +1.72736048572E+001, +5.51463012834E+002
+2.34774624374E+007, +1.65355694526E+001, +5.55361991295E+002
+2.36427378965E+007, +1.80965509604E+001, +5.60471016288E+002
+2.38080133556E+007, +1.77367262944E+001, +5.63235272016E+002
+2.39732888147E+007, +1.79149084375E+001, +5.70220694946E+002
+2.41385642738E+007, +1.78468430231E+001, +5.74758668594E+002
+2.43038397329E+007, +1.61747276009E+001, +5.79024826100E+002
+2.44691151920E+007, +1.79244813325E+001, +5.83400310697E+002
+2.46343906511E+007, +1.84669364806E+001, +5.87787769117E+002
+2.47996661102E+007, +1.65477000414E+001, +5.93838937695E+002
+2.49649415693E+007, +1.85910190632E+001, +5.98354779541E+002
+2.51302170284E+007, +1.80097779439E+001, +6.02468314657E+002
+2.52954924875E+007, +1.93337137934E+001, +6.06430713514E+002
+2.54607679466E+007, +1.94816965761E+001, +6.10879846333E+002
+2.56260434057E+007, +1.97529392588E+001, +6.15008230938E+002
+2.57913188648E+007, +2.02948965646E+001, +6.20465305601E+002
+2.59565943239E+007, +2.06899131367E+001, +6.24832560259E+002
+2.61218697830E+007, +1.98135154050E+001, +6.28784945404E+002
+2.62871452421E+007, +2.21692891893E+001, +6.34090310254E+002
+2.64524207012E+007, +2.01061929666E+001, +6.39464357166E+002
+2.66176961603E+007, +2.13765375468E+001, +6.44407331615E+002
+2.67829716194E+007, +2.00725480508E+001, +6.48707557887E+002
+2.69482470785E+007, +1.97755241469E+001, +6.54896342930E+002
+2.71135225376E+007, +2.10092168661E+001, +6.59489233861E+002
+2.72787979967E+007, +2.21233105636E+001, +6.64744747795E+002
+2.74440734558E+007, +2.16344140468E+001, +6.69286770430E+002
+2.76093489149E+007, +2.10749358797E+001, +6.71348512079E+002
+2.77746243740E+007, +2.16381473714E+001, +6.79096644507E+002
+2.79398998331E+007, +2.05911233619E+001, +6.83836295845E+002
+2.81051752922E+007, +2.43706655429E+001, +6.89988812504E+002
+2.82704507513E+007, +2.03442802557E+001, +6.94967641315E+002
+2.84357262104E+007, +2.32405427180E+001, +6.99719626403E+002
+2.86010016694E+007, +2.24733441386E+001, +7.06308324516E+002
+2.87662771285E+007, +2.17180063001E+001, +7.10777316427E+002
+2.89315525876E+007, +2.36660906914E+001, +7.15672432301E+002
+2.90968280467E+007, +2.37326443123E+001, +7.21478128383E+002
+2.92621035058E+007, +2.04269807615E+001, +7.26702733757E+002
+2.94273789649E+007, +2.30485852304E+001, +7.33416988487E+002
+2.95926544240E+007, +1.96926540724E+001, +7.35542725754E+002
+2.97579298831E+007, +2.14235103047E+001, +7.42323717219E+002
+2.99232053422E+007, +2.34397371886E+001, +7.50644410361E+002
+3.00884808013E+007, +2.23521234686E+001, +7.54008916740E+002
+3.02537562604E+007, +2.28860651845E+001, +7.60345552258E+002
+3.04190317195E+007, +2.40153566929E+001, +7.63797581734E+002
+3.05843071786E+007, +2.38367330651E+001, +7.69751333623E+002
+3.07495826377E+007, +2.27456244947E+001, +7.75380105164E+002
+3.09148580968E+007, +2.34394113221E+001, +7.82346227497E+002
+3.10801335559E+007, +2.33303454451E+001, +7.85868552807E+002
+3.12454090150E+007, +2.49102773293E+001, +7.94232024986E+002
+3.14106844741E+007, +2.58517504950E+001, +7.97242504643E+002
+3.15759599332E+007, +2.41737111825E+001, +8.04460206685E+002
+3.17412353923E+007, +2.58305928151E+001, +8.11517059672E+002
+3.19065108514E+007, +2.44138488951E+001, +8.19004377807E+002
+3.20717863105E+007, +1.84149330946E+001, +8.22973615214E+002
+3.22370617696E+007, +2.48520111943E+001, +8.26273554873E+002
+3.24023372287E+007, +2.16793744524E+001, +8.35257513219E+002
+3.25676126878E+007, +2.85474096749E+001, +8.40693190075E+002
+3.27328881469E+007, +2.34726271014E+001, +8.43334122507E+002
+3.28981636060E+007, +2.19998054031E+001, +8.49374112334E+002
+3.30634390651E+007, +2.41171078537E+001, +8.58759103356E+002
+3.32287145242E+007, +2.15490543649E+001, +8.71068643873E+002
+3.33939899833E+007, +2.51069382286E+001, +8.74807596803E+002
+3.35592654424E+007, +2.56563842272E+001, +8.80651068211E+002
+3.37245409015E+007, +2.24113180631E+001, +8.84997145854E+002
+3.38898163606E+007, +2.14092380312E+001, +8.92979970536E+002
+3.40550918197E+007, +2.46533186121E+001, +9.00708610790E+002
+3.42203672788E+007, +2.65561390430E+001, +9.06711438276E+002
+3.43856427379E+007, +2.34601067396E+001, +9.16397396461E+002
+3.45509181970E+007, +2.62474197261E+001, +9.21582267243E+002
+3.47161936561E+007, +2.55187874628E+001, +9.27787267079E+002
+3.48814691152E+007, +2.78680341890E+001, +9.33222316540E+002
+3.50467445743E+007, +2.92557032567E+001, +9.40072413086E+002
+3.52120200334E+007, +3.14797451591E+001, +9.49744698342E+002
+3.53772954925E+007, +2.46870632250E+001, +9.53054088869E+002
+3.55425709516E+007, +2.79460693775E+001, +9.65260052308E+002
+3.57078464107E+007, +2.94229924108E+001, +9.72018184492E+002
+3.58731218698E+007, +2.72867660868E+001, +9.79549776781E+002
+3.60383973289E+007, +2.85312954227E+001, +9.84366943799E+002
+3.62036727880E+007, +2.85410988632E+001, +9.97262963661E+002
+3.63689482471E+007, +2.93924409280E+001, +9.99493555830E+002
+3.65342237062E+007, +3.09567723694E+001, +1.01175263175E+003
+3.66994991653E+007, +3.02351173772E+001, +1.02171907527E+003
+3.68647746244E+007, +3.54370373408E+001, +1.02473242699E+003
+3.70300500835E+007, +2.99944564836E+001, +1.03468163732E+003
+3.71953255426E+007, +3.47506333189E+001, +1.04501088049E+003
+3.73606010017E+007, +3.50560891712E+001, +1.05393519652E+003
+3.75258764608E+007, +3.34435951176E+001, +1.06297756307E+003
+3.76911519199E+007, +3.60714724879E+001, +1.06382144892E+003
+3.78564273790E+007, +3.50447726044E+001, +1.07391188429E+003
+3.80217028381E+007, +3.33125762677E+001, +1.08103382530E+003
+3.81869782972E+007, +3.37584943727E+001, +1.08634629649E+003
+3.83522537563E+007, +3.55986729732E+001, +1.09720695414E+003
+3.85175292154E+007, +3.77653112691E+001, +1.10654770972E+003
+3.86828046745E+007, +3.36320058865E+001, +1.11519995712E+003
+3.88480801336E+007, +3.64181249757E+001, +1.12686337846E+003
+3.90133555927E+007, +3.98248745953E+001, +1.13778837373E+003
+3.91786310518E+007, +3.45480953450E+001, +1.15196756922E+003
+3.93439065109E+007, +3.67615288217E+001, +1.15862880680E+003
+3.95091819699E+007, +4.77018182460E+001, +1.15977319083E+003
+3.96744574290E+007, +3.85603266803E+001, +1.16874693098E+003
+3.98397328881E+007, +3.62498168537E+001, +1.18852390185E+003
+4.00050083472E+007, +3.96827842231E+001, +1.19404385899E+003
+4.01702838063E+007, +3.07877437723E+001, +1.20137898334E+003
+4.03355592654E+007, +4.52988982902E+001, +1.21167603364E+003
+4.05008347245E+007, +4.28656504462E+001, +1.22681796285E+003
+4.06661101836E+007, +3.84185089312E+001, +1.23140199812E+003
+4.08313856427E+007, +3.65015206366E+001, +1.24769231472E+003
+4.09966611018E+007, +4.17154521511E+001, +1.24934963355E+003
+4.11619365609E+007, +4.77922733371E+001, +1.26275606687E+003
+4.13272120200E+007, +5.33100026161E+001, +1.27552622980E+003
+4.14924874791E+007, +5.35187134685E+001, +1.29100561627E+003
+4.16577629382E+007, +4.82552668966E+001, +1.30459022612E+003
+4.18230383973E+007, +5.19522125839E+001, +1.30974262393E+003
+4.19883138564E+007, +4.67273847072E+001, +1.32676224362E+003
+4.21535893155E+007, +5.52307839016E+001, +1.33170074739E+003
+4.23188647746E+007, +5.73537161648E+001, +1.34840169050E+003
+4.24841402337E+007, +5.25490010305E+001, +1.37277436333E+003
+4.26494156928E+007, +4.55170380112E+001, +1.37102563482E+003
+4.28146911519E+007, +6.21234187106E+001, +1.38700558497E+003
+4.29799666110E+007, +5.79255711257E+001, +1.40782162103E+003
+4.31452420701E+007, +5.62911502665E+001, +1.42791400774E+003
+4.33105175292E+007, +6.76121569153E+001, +1.42901582785E+003
+4.34757929883E+007, +5.01248953628E+001, +1.44791461377E+003
+4.36410684474E+007, +5.23828083195E+001, +1.45643993749E+003
+4.38063439065E+007, +5.44654614094E+001, +1.47157493331E+003
+4.39716193656E+007, +7.69701276425E+001, +1.48770147710E+003
+4.41368948247E+007, +6.12645276041E+001, +1.50362856341E+003
+4.43021702838E+007, +6.06775730470E+001, +1.51483927721E+003
+4.44674457429E+007, +6.41938407131E+001, +1.54335512933E+003
+4.46327212020E+007, +7.19404485251E+001, +1.55511989967E+003
+4.47979966611E+007, +5.98994480627E+001, +1.57534538692E+003
+4.49632721202E+007, +7.67825360818E+001, +1.59578983128E+003
+4.51285475793E+007, +6.29989839386E+001, +1.60180183946E+003
+4.52938230384E+007, +8.08704837452E+001, +1.62875072838E+003
+4.54590984975E+007, +6.84799351060E+001, +1.63803485038E+003
+4.56243739566E+007, +8.69911030815E+001, +1.66274282194E+003
+4.57896494157E+007, +8.23098798875E+001, +1.67136722764E+003
+4.59549248748E+007, +8.10763554698E+001, +1.70607320932E+003
+4.61202003339E+007, +6.15915306756E+001, +1.71062935012E+003
+4.62854757930E+007, +8.95336719995E+001, +1.73895701507E+003
+4.64507512521E+007, +9.62595014830E+001, +1.76608028808E+003
+4.66160267112E+007, +9.42498682550E+001, +1.78618686112E+003
+4.67813021703E+007, +1.04751044191E+002, +1.81081663298E+003
+4.69465776294E+007, +1.13858792838E+002, +1.82824727382E+003
+4.71118530885E+007, +1.07788566890E+002, +1.86296226480E+003
+4.72771285476E+007, +1.05171011400E+002, +1.89916183371E+003
+4.74424040067E+007, +1.09418944909E+002, +1.92036540804E+003
+4.76076794658E+007, +1.18499486279E+002, +1.95258209436E+003
+4.77729549249E+007, +1.17943617159E+002, +1.96662808453E+003
+4.79382303840E+007, +1.41162858952E+002, +2.00030145168E+003
+4.81035058431E+007, +1.58295390907E+002, +2.02052268248E+003
+4.82687813022E+007, +1.46698494163E+002, +2.05950935394E+003
+4.84340567613E+007, +1.69817585198E+002, +2.08529454028E+003
+4.85993322204E+007, +1.63875984899E+002, +2.12664722163E+003
+4.87646076795E+007, +1.98943943519E+002, +2.16149487226E+003
+4.89298831386E+007, +1.84018639921E+002, +2.19607829041E+003
+4.90951585977E+007, +1.95822821589E+002, +2.22591323068E+003
+4.92604340568E+007, +2.18973356642E+002, +2.25884765170E+003
+4.94257095159E+007, +2.41694352589E+002, +2.28480712893E+003
+4.95909849750E+007, +2.47195963136E+002, +2.33356654231E+003
+4.97562604341E+007, +2.79758848090E+002, +2.33982604536E+003
+4.99215358932E+007, +2.53357345409E+002, +2.40874485798E+003
+5.00868113523E+007, +2.88406692859E+002, +2.45491299601E+003
+5.02520868114E+007, +3.50459738155E+002, +2.48908173331E+003
+5.04173622705E+007, +3.28302029451E+002, +2.52931105221E+003
+5.05826377295E+007, +3.31354807094E+002, +2.53884850856E+003
+5.07479131886E+007, +3.56613489461E+002, +2.57908201030E+003
+5.09131886477E+007, +3.61587819430E+002, +2.62122582786E+003
+5.10784641068E+007, +4.46697359902E+002, +2.66408989778E+003
+5.12437395659E+007, +4.47348466566E+002, +2.69921150370E+003
+5.14090150250E+007, +4.78163069627E+002, +2.74930089790E+003
+5.15742904841E+007, +4.65572710418E+002, +2.79095929434E+003
+5.17395659432E+007, +5.40955434847E+002, +2.81336602507E+003
+5.19048414023E+007, +6.05651504088E+002, +2.89911294687E+003
+5.20701168614E+007, +5.98002988835E+002, +2.92715970163E+003
+5.22353923205E+007, +6.13785691219E+002, +2.99771127033E+003
+5.24006677796E+007, +5.87620601618E+002, +3.01482506745E+003
+5.25659432387E+007, +6.86149676804E+002, +3.05423415074E+003
+5.27312186978E+007, +7.20086380321E+002, +3.08974372839E+003
+5.28964941569E+007, +7.51370056303E+002, +3.19888773606E+003
+5.30617696160E+007, +7.45039580622E+002, +3.25112421151E+003
+5.32270450751E+007, +7.71263287752E+002, +3.27437401388E+003
+5.33923205342E+007, +7.47416795028E+002, +3.42664821118E+003
+5.35575959933E+007, +7.95069920513E+002, +3.48641657495E+003
+5.37228714524E+007, +7.66729635939E+002, +3.61511581911E+003
+5.38881469115E+007, +8.09744616572E+002, +3.60468185145E+003
