"# Channel 1"
"# Trace 1"
Frequency, Formatted Data, Formatted Data
+1.00000000000E+005, +2.38936897619E-001, +2.07791318942E+000
+2.87609511890E+005, +2.97949770935E-001, +5.96860125069E+000
+4.75219023780E+005, +2.62197164196E-001, +9.84734598608E+000
+6.62828535670E+005, +3.34835643927E-001, +1.37367351244E+001
+8.50438047559E+005, +3.92927028206E-001, +1.75428394099E+001
+1.03804755945E+006, +3.99128190075E-001, +2.13227338995E+001
+1.22565707134E+006, +4.17810486450E-001, +2.51746938577E+001
+1.41326658323E+006, +4.49031590019E-001, +2.89991761482E+001
+1.60087609512E+006, +4.60895680613E-001, +3.28440630499E+001
+1.78848560701E+006, +4.74535195657E-001, +3.66425810975E+001
+1.97609511890E+006, +4.64248292163E-001, +4.04924919148E+001
+2.16370463079E+006, +3.96336359794E-001, +4.42772422888E+001
+2.35131414268E+006, +4.06686283746E-001, +4.80387519565E+001
+2.53892365457E+006, +4.92963999976E-001, +5.20113037188E+001
+2.72653316646E+006, +3.64758429432E-001, +5.58095211214E+001
+2.91414267835E+006, +4.82442766309E-001, +5.95904277086E+001
+3.10175219024E+006, +5.18988694995E-001, +6.35110748783E+001
+3.28936170213E+006, +5.38419111370E-001, +6.74273361907E+001
+3.47697121402E+006, +3.65245357738E-001, +7.11991911401E+001
+3.66458072591E+006, +5.36876087563E-001, +7.50513621853E+001
+3.85219023780E+006, +4.27739696259E-001, +7.88927664111E+001
+4.03979974969E+006, +4.56961049987E-001, +8.28519284240E+001
+4.22740926158E+006, +6.41730644969E-001, +8.66145331061E+001
+4.41501877347E+006, +4.07382314949E-001, +9.02465411714E+001
+4.60262828536E+006, +3.77238873813E-001, +9.42167043569E+001
+4.79023779725E+006, +3.71486805029E-001, +9.82305221361E+001
+4.97784730914E+006, +4.78746041294E-001, +1.02071094420E+002
+5.16545682103E+006, +4.03080872730E-001, +1.05963411102E+002
+5.35306633292E+006, +5.46584004789E-001, +1.10013416798E+002
+5.54067584481E+006, +4.54566303306E-001, +1.13829036897E+002
+5.72828535670E+006, +2.63669297623E-001, +1.17836253085E+002
+5.91589486859E+006, +4.43736080088E-001, +1.21687057034E+002
+6.10350438048E+006, +2.36078789124E-001, +1.25835466526E+002
+6.29111389237E+006, +6.31615448249E-001, +1.29612505864E+002
+6.47872340426E+006, +4.33028634373E-001, +1.33669943528E+002
+6.66633291615E+006, +5.17557137537E-001, +1.37527011981E+002
+6.85394242804E+006, +5.78117550635E-001, +1.41759482027E+002
+7.04155193992E+006, +7.28840035720E-001, +1.45387922521E+002
+7.22916145181E+006, +7.16058549831E-001, +1.49425412422E+002
+7.41677096370E+006, +6.93782685567E-001, +1.53599123925E+002
+7.60438047559E+006, +6.31845432994E-001, +1.57577241621E+002
+7.79198998748E+006, +8.45837346345E-001, +1.61669994262E+002
+7.97959949937E+006, +7.67247966468E-001, +1.65617726392E+002
+8.16720901126E+006, +5.46263590087E-001, +1.69851971977E+002
+8.35481852315E+006, +7.49858792910E-001, +1.73643957214E+002
+8.54242803504E+006, +6.45266653464E-001, +1.77641719874E+002
+8.73003754693E+006, +8.31115938313E-001, +1.81885829799E+002
+8.91764705882E+006, +6.58769064211E-001, +1.85956907365E+002
+9.10525657071E+006, +7.02311409943E-001, +1.89839360283E+002
+9.29286608260E+006, +7.46702627968E-001, +1.94023048326E+002
+9.48047559449E+006, +7.98872505135E-001, +1.98246097622E+002
+9.66808510638E+006, +8.00587641182E-001, +2.02432207800E+002
+9.85569461827E+006, +7.06924597281E-001, +2.06307270308E+002
+1.00433041302E+007, +6.36745874630E-001, +2.10420442608E+002
+1.02309136421E+007, +5.92390063511E-001, +2.14858204259E+002
+1.04185231539E+007, +7.39214528145E-001, +2.18645766239E+002
+1.06061326658E+007, +5.68066163447E-001, +2.22949361895E+002
+1.07937421777E+007, +3.98425324347E-001, +2.27427265755E+002
+1.09813516896E+007, +6.72968085180E-001, +2.31410957396E+002
+1.11689612015E+007, +5.92775370013E-001, +2.35477666558E+002
+1.13565707134E+007, +4.39002310369E-001, +2.39894910810E+002
+1.15441802253E+007, +5.61394131848E-001, +2.44345836682E+002
+1.17317897372E+007, +1.61021604488E-001, +2.48402219527E+002
+1.19193992491E+007, +5.83919127590E-001, +2.52920935134E+002
+1.21070087610E+007, +8.21852233993E-001, +2.57122574831E+002
+1.22946182728E+007, +8.15893717010E-001, +2.61303322152E+002
+1.24822277847E+007, +1.32731601243E-001, +2.65930401175E+002
+1.26698372966E+007, +1.10148580498E-001, +2.69556515715E+002
+1.28574468085E+007, +3.36306150526E-001, +2.74025924495E+002
+1.30450563204E+007, +3.91794916989E-001, +2.78914097933E+002
+1.32326658323E+007, +5.15322754832E-001, +2.83013329693E+002
+1.34202753442E+007, +1.65170510611E-001, +2.87620356759E+002
+1.36078848561E+007, -1.05476329981E-001, +2.91910338125E+002
+1.37954943680E+007, -2.37032032639E-001, +2.96545458953E+002
+1.39831038798E+007, -1.47666432358E-002, +3.00870351255E+002
+1.41707133917E+007, +8.05683719097E-003, +3.05281986828E+002
+1.43583229036E+007, +1.05444013673E-001, +3.10030649312E+002
+1.45459324155E+007, -2.54737763544E-001, +3.14994582941E+002
+1.47335419274E+007, +4.50291755973E-001, +3.18963120758E+002
+1.49211514393E+007, -5.00097867089E-001, +3.23559727489E+002
+1.51087609512E+007, -1.09744132168E-001, +3.28525374570E+002
+1.52963704631E+007, -1.64578339584E-001, +3.33217268941E+002
+1.54839799750E+007, -1.19264944832E-001, +3.37713598089E+002
+1.56715894869E+007, -2.80660823404E-001, +3.42608516549E+002
+1.58591989987E+007, -2.13761860354E-001, +3.47023357290E+002
+1.60468085106E+007, -1.02303525009E-001, +3.51615631991E+002
+1.62344180225E+007, -1.41425141659E-001, +3.57074653695E+002
+1.64220275344E+007, -4.37481141484E-001, +3.61799925805E+002
+1.66096370463E+007, -1.87084117140E-001, +3.66305709657E+002
+1.67972465582E+007, -1.38956550275E+000, +3.71347979918E+002
+1.69848560701E+007, -5.59791845844E-001, +3.75498170932E+002
+1.71724655820E+007, -1.40880066700E+000, +3.80882609353E+002
+1.73600750939E+007, -6.98888614218E-001, +3.86511247385E+002
+1.75476846058E+007, -1.84889532469E+000, +3.90843591804E+002
+1.77352941176E+007, -7.69395929286E-001, +3.95342930140E+002
+1.79229036295E+007, -3.85687668472E-001, +4.01283183362E+002
+1.81105131414E+007, -6.79933611764E-001, +4.06609481006E+002
+1.82981226533E+007, -1.21969835538E+000, +4.11233918614E+002
+1.84857321652E+007, -5.05633961725E-001, +4.16278496071E+002
+1.86733416771E+007, -7.04841720940E-002, +4.21430415110E+002
+1.88609511890E+007, -1.00138675325E+000, +4.26521998104E+002
+1.90485607009E+007, -4.57526755908E-001, +4.32299484697E+002
+1.92361702128E+007, -1.03925606035E+000, +4.36758209287E+002
+1.94237797247E+007, -1.41018866997E+000, +4.42769805789E+002
+1.96113892365E+007, -5.80186369740E-001, +4.47991587695E+002
+1.97989987484E+007, -1.83513501925E+000, +4.53949505449E+002
+1.99866082603E+007, -1.68124905063E+000, +4.59020031948E+002
+2.01742177722E+007, -1.13541015197E+000, +4.63696369094E+002
+2.03618272841E+007, -1.08635254938E+000, +4.69137137022E+002
+2.05494367960E+007, -1.26164953320E+000, +4.76480406130E+002
+2.07370463079E+007, -8.39936071887E-001, +4.80975430121E+002
+2.09246558198E+007, -8.39612334788E-001, +4.86419167663E+002
+2.11122653317E+007, -1.63616012404E-001, +4.91801963279E+002
+2.12998748436E+007, -5.46315595299E-001, +4.97182468974E+002
+2.14874843554E+007, -1.91062513917E+000, +5.03337085754E+002
+2.16750938673E+007, -1.27528804543E+000, +5.09436405161E+002
+2.18627033792E+007, -6.33174934943E-001, +5.15665598836E+002
+2.20503128911E+007, -5.76955736819E-001, +5.20617061036E+002
+2.22379224030E+007, -1.48813823123E+000, +5.27440410824E+002
+2.24255319149E+007, -2.02940901289E+000, +5.32139713866E+002
+2.26131414268E+007, -9.57155514592E-001, +5.37973082741E+002
+2.28007509387E+007, +1.27634845536E+000, +5.43538353847E+002
+2.29883604506E+007, +7.20691792062E-001, +5.50891906549E+002
+2.31759699625E+007, -7.45086529396E-001, +5.57113152319E+002
+2.33635794743E+007, +4.96937242131E-001, +5.64337347954E+002
+2.35511889862E+007, -3.51053970084E-001, +5.71594523153E+002
+2.37387984981E+007, -8.80932106728E-001, +5.77400313462E+002
+2.39264080100E+007, -9.12676688371E-001, +5.84351475875E+002
+2.41140175219E+007, -3.48372866656E-001, +5.89530016358E+002
+2.43016270338E+007, +8.50445284300E-001, +5.95850478922E+002
+2.44892365457E+007, +6.58647435486E-001, +6.01082496948E+002
+2.46768460576E+007, +5.94342977200E-001, +6.07133560101E+002
+2.48644555695E+007, +4.85593781489E-001, +6.15435665560E+002
+2.50520650814E+007, +3.77607513199E-001, +6.23308764589E+002
+2.52396745932E+007, +8.87281648532E-001, +6.28093672223E+002
+2.54272841051E+007, +1.82232088763E+000, +6.36051178458E+002
+2.56148936170E+007, +1.82362057814E+000, +6.41911924786E+002
+2.58025031289E+007, +1.41102480419E+000, +6.51144299850E+002
+2.59901126408E+007, +3.19723838422E+000, +6.54439376412E+002
+2.61777221527E+007, +1.41496560049E+000, +6.64341001538E+002
+2.63653316646E+007, +1.39293193926E+000, +6.69580037693E+002
+2.65529411765E+007, +3.63807804167E+000, +6.74627683727E+002
+2.67405506884E+007, +2.00176494669E+000, +6.83313550822E+002
+2.69281602003E+007, +5.97864011110E-001, +6.92243517733E+002
+2.71157697121E+007, +2.69979275635E+000, +6.97181849922E+002
+2.73033792240E+007, -2.53880541049E-002, +7.05745097965E+002
+2.74909887359E+007, +1.84651307174E+000, +7.16786367379E+002
+2.76785982478E+007, +5.37883154838E+000, +7.23327639138E+002
+2.78662077597E+007, +3.90177775323E+000, +7.26711843289E+002
+2.80538172716E+007, +5.95037645714E+000, +7.37643852736E+002
+2.82414267835E+007, +3.02234109999E+000, +7.39006301380E+002
+2.84290362954E+007, +2.35411860736E+000, +7.48333162716E+002
+2.86166458073E+007, +1.18237284290E+000, +7.59015643025E+002
+2.88042553191E+007, -3.82293977780E-001, +7.64586033667E+002
+2.89918648310E+007, -1.63220678399E+000, +7.73050969739E+002
+2.91794743429E+007, -7.87419440465E-001, +7.80250572300E+002
+2.93670838548E+007, +6.15867309001E-001, +7.91327165101E+002
+2.95546933667E+007, -1.04292106245E+000, +7.98394259819E+002
+2.97423028786E+007, -8.61418744232E-001, +8.09203090141E+002
+2.99299123905E+007, +2.10435893544E+000, +8.18161727194E+002
+3.01175219024E+007, +2.90295702634E+000, +8.29599174622E+002
+3.03051314143E+007, -1.58333557243E+000, +8.38935600626E+002
+3.04927409262E+007, -2.26091801726E+000, +8.46589532231E+002
+3.06803504380E+007, -1.52334606900E+000, +8.57162109995E+002
+3.08679599499E+007, -4.91167994642E+000, +8.63110088901E+002
+3.10555694618E+007, -6.26975425996E-001, +8.74504997002E+002
+3.12431789737E+007, -2.07655247269E+000, +8.81989823234E+002
+3.14307884856E+007, -3.44717925519E+000, +8.96166570957E+002
+3.16183979975E+007, -2.70001710720E+000, +9.04358212314E+002
+3.18060075094E+007, -5.22083101178E+000, +9.19227344465E+002
+3.19936170213E+007, -4.74393802961E+000, +9.25268413654E+002
+3.21812265332E+007, -9.38328176137E+000, +9.34187889158E+002
+3.23688360451E+007, -5.94171652641E+000, +9.47822979341E+002
+3.25564455569E+007, -3.66005204920E+000, +9.55508723697E+002
+3.27440550688E+007, -6.33730939303E+000, +9.70160753994E+002
+3.29316645807E+007, -1.08648665689E+001, +9.69089288287E+002
+3.31192740926E+007, -7.20044238041E+000, +9.92012338737E+002
+3.33068836045E+007, -3.32751666619E+000, +9.97669813619E+002
+3.34944931164E+007, -4.23070950177E+000, +1.01299055908E+003
+3.36821026283E+007, -1.03656684552E+001, +1.02805018612E+003
+3.38697121402E+007, -1.08935853794E+001, +1.03248392059E+003
+3.40573216521E+007, -4.16792608241E+000, +1.04755079245E+003
+3.42449311640E+007, -6.75301587355E+000, +1.06223275182E+003
+3.44325406758E+007, -5.67988711437E+000, +1.07872972497E+003
+3.46201501877E+007, -9.15498670946E+000, +1.09016135710E+003
+3.48077596996E+007, -4.51407501010E+000, +1.10161770145E+003
+3.49953692115E+007, -1.07961912843E+001, +1.11510328347E+003
+3.51829787234E+007, -1.25008417986E+001, +1.12089559397E+003
+3.53705882353E+007, -1.78403200414E+000, +1.14177897585E+003
+3.55581977472E+007, -8.78881549721E+000, +1.15161572891E+003
+3.57458072591E+007, -1.54323335139E+001, +1.16762217071E+003
+3.59334167710E+007, -1.91265698887E+001, +1.18173659694E+003
+3.61210262829E+007, -2.24936032685E+000, +1.19888483361E+003
+3.63086357947E+007, -1.12359067659E+001, +1.22058829617E+003
+3.64962453066E+007, -1.36623586552E+001, +1.23494575637E+003
+3.66838548185E+007, -1.80149184426E+001, +1.23837039522E+003
+3.68714643304E+007, -1.35100182510E+001, +1.25762347492E+003
+3.70590738423E+007, -1.10417173493E+001, +1.27347460317E+003
+3.72466833542E+007, -6.66201807773E+000, +1.29270102123E+003
+3.74342928661E+007, -1.94701136801E+000, +1.30077586113E+003
+3.76219023780E+007, -1.18794939377E+001, +1.32578650389E+003
+3.78095118899E+007, -1.18579020893E+001, +1.33471196169E+003
+3.79971214018E+007, -1.36631522714E+001, +1.35516617431E+003
+3.81847309136E+007, -1.95829440661E+001, +1.37359075530E+003
+3.83723404255E+007, -2.13981588888E+001, +1.39541350530E+003
+3.85599499374E+007, -9.63049443785E+000, +1.41798025956E+003
+3.87475594493E+007, -1.35478771368E+001, +1.43544198046E+003
+3.89351689612E+007, -2.35646559073E+001, +1.46492886612E+003
+3.91227784731E+007, -3.03415147780E+001, +1.48268374701E+003
+3.93103879850E+007, -2.53831228751E+001, +1.50195352830E+003
+3.94979974969E+007, -2.60862013017E+001, +1.52609370026E+003
+3.96856070088E+007, -2.40399390620E+001, +1.55543584547E+003
+3.98732165207E+007, -3.18238461385E+001, +1.57435490134E+003
+4.00608260325E+007, -1.03592981244E+001, +1.57983173785E+003
+4.02484355444E+007, -2.08594433233E+001, +1.62149092046E+003
+4.04360450563E+007, -2.62909119061E+001, +1.64753183960E+003
+4.06236545682E+007, -3.19443177636E+001, +1.66048979050E+003
+4.08112640801E+007, -1.31144980844E+001, +1.69393347443E+003
+4.09988735920E+007, -1.92339354073E+001, +1.72190802853E+003
+4.11864831039E+007, -1.81148177028E+001, +1.73772429539E+003
+4.13740926158E+007, -1.70912708027E+001, +1.78075369634E+003
+4.15617021277E+007, -2.18928000912E+001, +1.81563060750E+003
+4.17493116395E+007, -1.28365575351E+001, +1.84182599795E+003
+4.19369211514E+007, -7.61201657393E+000, +1.86939807851E+003
+4.21245306633E+007, -3.11825915663E+001, +1.89786447430E+003
+4.23121401752E+007, -4.49237524431E+001, +1.93963133666E+003
+4.24997496871E+007, +2.52880510400E+000, +1.97892151079E+003
+4.26873591990E+007, -1.14315833669E+001, +1.98831340449E+003
+4.28749687109E+007, +1.09006838680E+001, +2.04188191882E+003
+4.30625782228E+007, -1.36105224258E+001, +2.06585792734E+003
+4.32501877347E+007, +1.28976979178E+001, +2.10955364075E+003
+4.34377972466E+007, -4.20639304901E+001, +2.14701062891E+003
+4.36254067584E+007, -1.17884630286E+001, +2.21983947510E+003
+4.38130162703E+007, -1.47715369550E+001, +2.23296411218E+003
+4.40006257822E+007, +1.07300816750E+001, +2.24824507247E+003
+4.41882352941E+007, -1.58142516011E+001, +2.31176842617E+003
+4.43758448060E+007, -7.39696446124E+000, +2.34833814192E+003
+4.45634543179E+007, -6.45192763285E+000, +2.39942333327E+003
+4.47510638298E+007, -3.46746602058E+001, +2.44130643442E+003
+4.49386733417E+007, -1.76817785229E+001, +2.50548258915E+003
+4.51262828536E+007, -2.49037564091E+001, +2.57197815511E+003
+4.53138923655E+007, -4.57600545895E+001, +2.60458432587E+003
+4.55015018773E+007, -1.97481638648E+001, +2.70357489668E+003
+4.56891113892E+007, -1.75122862180E+001, +2.77651495972E+003
+4.58767209011E+007, -3.28337565016E+001, +2.80529022921E+003
+4.60643304130E+007, -2.07844430058E+001, +2.84914291964E+003
+4.62519399249E+007, -7.34306321275E+000, +2.95266496391E+003
+4.64395494368E+007, -7.82654398029E-001, +3.01091685505E+003
+4.66271589487E+007, -2.55109345619E+001, +3.14602597570E+003
+4.68147684606E+007, +7.40211325746E+000, +3.17137000580E+003
+4.70023779725E+007, +3.11987793652E+000, +3.28726879627E+003
+4.71899874844E+007, -5.22331066525E+000, +3.36267496796E+003
+4.73775969962E+007, -3.57928344286E+001, +3.44575228046E+003
+4.75652065081E+007, +8.47473121403E+000, +3.57801397297E+003
+4.77528160200E+007, +2.89812827498E+001, +3.62349395320E+003
+4.79404255319E+007, -2.01602368371E+001, +3.80182466367E+003
+4.81280350438E+007, +5.07090566115E+001, +3.90743761609E+003
+4.83156445557E+007, +1.91894428955E+001, +4.02701706503E+003
+4.85032540676E+007, +2.94883936300E+001, +4.25157549925E+003
+4.86908635795E+007, +1.06759534066E+002, +4.28876809154E+003
+4.88784730914E+007, +6.13439793910E+001, +4.52826644658E+003
+4.90660826033E+007, +6.86402156471E+001, +4.59615647826E+003
+4.92536921151E+007, +1.28660539142E+002, +4.80975729001E+003
+4.94413016270E+007, +1.60200237761E+002, +5.11418104880E+003
+4.96289111389E+007, +8.45035181240E+001, +5.34241572249E+003
+4.98165206508E+007, +1.42826443154E+002, +5.54292550267E+003
+5.00041301627E+007, +4.12365241536E+002, +5.75989786647E+003
+5.01917396746E+007, +4.49734206713E+002, +5.94243720947E+003
+5.03793491865E+007, +4.20733085281E+002, +6.14422367951E+003
+5.05669586984E+007, +4.57003819760E+002, +6.74458294699E+003
+5.07545682103E+007, +3.66619444301E+002, +6.89301315088E+003
+5.09421777222E+007, +7.21801273292E+002, +7.41504769016E+003
+5.11297872340E+007, +7.97053943986E+002, +7.80639472407E+003
+5.13173967459E+007, +8.56669873114E+002, +8.09891414767E+003
+5.15050062578E+007, +9.01710623210E+002, +8.41592335326E+003
+5.16926157697E+007, +1.15732823033E+003, +9.11858378692E+003
+5.18802252816E+007, +8.26846684193E+002, +9.67931200019E+003
+5.20678347935E+007, +6.65323086772E+002, +1.05673723562E+004
+5.22554443054E+007, +1.29693632284E+003, +1.17661985953E+004
+5.24430538173E+007, +1.91694213463E+003, +1.26748149343E+004
+5.26306633292E+007, +2.31177945173E+003, +1.39166690533E+004
+5.28182728411E+007, +4.07791756875E+003, +1.60883871979E+004
+5.30058823529E+007, +4.67388129240E+003, +1.78416424997E+004
+5.31934918648E+007, +6.93399759856E+003, +2.09536550421E+004
+5.33811013767E+007, +1.01021682028E+004, +2.38909800175E+004
+5.35687108886E+007, +1.36758603935E+004, +3.10458740777E+004
+5.37563204005E+007, +2.62367676753E+004, +4.21752357767E+004
+5.39439299124E+007, +5.65186988756E+004, +3.93634324123E+004
+5.41315394243E+007, +9.22205304632E+004, +4.66441631190E+004
+5.43191489362E+007, +1.26689984208E+005, +3.37402388996E+004
+5.45067584481E+007, +5.04429528554E+004, -3.37353924827E+004
+5.46943679599E+007, +1.97095686132E+004, -3.21825184871E+004
+5.48819774718E+007, +1.39388427682E+004, -2.47772962842E+004
+5.50695869837E+007, +8.13198853083E+003, -2.36396006177E+004
+5.52571964956E+007, +4.71665522062E+003, -1.93183307752E+004
+5.54448060075E+007, +4.97017480391E+003, -1.64579086973E+004
+5.56324155194E+007, +3.85145960044E+003, -1.58679978373E+004
+5.58200250313E+007, +2.74695291830E+003, -1.32565303467E+004
+5.60076345432E+007, +2.33581252062E+003, -1.26577116734E+004
+5.61952440551E+007, +2.35024535317E+003, -1.09398062926E+004
+5.63828535670E+007, +1.84473643059E+003, -1.03637868610E+004
+5.65704630788E+007, +1.40757409387E+003, -9.72989513514E+003
+5.67580725907E+007, +1.21823458810E+003, -8.96231781484E+003
+5.69456821026E+007, +8.18493977168E+002, -8.05235685474E+003
+5.71332916145E+007, +9.92999900457E+002, -7.64897724663E+003
+5.73209011264E+007, +6.54347006659E+002, -7.03046852876E+003
+5.75085106383E+007, +4.73523124247E+002, -6.45602547497E+003
+5.76961201502E+007, +5.28511746109E+002, -6.45189566390E+003
+5.78837296621E+007, +6.19533875679E+002, -5.83655200820E+003
+5.80713391740E+007, +4.52844649906E+002, -5.38896646902E+003
+5.82589486859E+007, +4.80033464489E+002, -5.16311355365E+003
+5.84465581977E+007, +5.18796213915E+002, -5.04002435461E+003
+5.86341677096E+007, +5.18171571353E+002, -4.70578000539E+003
+5.88217772215E+007, +3.94671504459E+002, -4.50769083604E+003
+5.90093867334E+007, +4.83077455864E+002, -4.30593541198E+003
+5.91969962453E+007, +5.10798637606E+002, -4.13314160639E+003
+5.93846057572E+007, +5.56781908295E+002, -4.01650352552E+003
+5.95722152691E+007, +4.28579423570E+002, -3.84534016383E+003
+5.97598247810E+007, +4.98522137562E+002, -3.67773162520E+003
+5.99474342929E+007, +5.10409905695E+002, -3.60899104987E+003
+6.01350438048E+007, +5.44155301548E+002, -3.50577268157E+003
