"# Channel 1"
"# Trace 1"
Frequency, Formatted Data, Formatted Data
+1.00000000000E+005, +2.01801134883E-001, +2.13811623045E+000
+2.66777963272E+005, +2.28235998557E-001, +5.61913356964E+000
+4.33555926544E+005, +2.60291438564E-001, +9.09855774174E+000
+6.00333889816E+005, +3.15763432725E-001, +1.25251601728E+001
+7.67111853088E+005, +3.46230667190E-001, +1.60086038049E+001
+9.33889816361E+005, +3.68767908530E-001, +1.94300914517E+001
+1.10066777963E+006, +3.33441936378E-001, +2.29005136194E+001
+1.26744574290E+006, +4.08219330698E-001, +2.63267923304E+001
+1.43422370618E+006, +3.24609516441E-001, +2.98270077795E+001
+1.60100166945E+006, +4.42192928135E-001, +3.31965019258E+001
+1.76777963272E+006, +4.36367794719E-001, +3.66517569901E+001
+1.93455759599E+006, +4.39649349807E-001, +3.99955523711E+001
+2.10133555927E+006, +4.52118603808E-001, +4.34449245722E+001
+2.26811352254E+006, +4.92877663563E-001, +4.69392701571E+001
+2.43489148581E+006, +4.45282314626E-001, +5.04029594635E+001
+2.60166944908E+006, +5.02204800197E-001, +5.38246184777E+001
+2.76844741235E+006, +4.21801445629E-001, +5.72965350335E+001
+2.93522537563E+006, +4.85162993977E-001, +6.07577797708E+001
+3.10200333890E+006, +5.82548899129E-001, +6.41259017451E+001
+3.26878130217E+006, +3.14164708392E-001, +6.77019784011E+001
+3.43555926544E+006, +4.46415427924E-001, +7.10881977782E+001
+3.60233722871E+006, +5.52012783305E-001, +7.46627087061E+001
+3.76911519199E+006, +4.99726819553E-001, +7.82592614044E+001
+3.93589315526E+006, +5.26321666485E-001, +8.15490941819E+001
+4.10267111853E+006, +1.23374615430E-002, +8.45786035546E+001
+4.26944908180E+006, +2.29239038136E-001, +8.90045752858E+001
+4.43622704508E+006, +4.53153187287E-001, +9.21520162691E+001
+4.60300500835E+006, +5.03180334828E-001, +9.58261441872E+001
+4.76978297162E+006, +2.87401800416E-001, +9.91810077024E+001
+4.93656093489E+006, +5.72205766300E-001, +1.02698957168E+002
+5.10333889816E+006, +5.13634748059E-001, +1.06173260482E+002
+5.27011686144E+006, +7.89479691834E-001, +1.09947737081E+002
+5.43689482471E+006, +6.61796969371E-001, +1.13362564409E+002
+5.60367278798E+006, +6.02029987623E-001, +1.17083484675E+002
+5.77045075125E+006, +6.09246875222E-001, +1.20361370222E+002
+5.93722871452E+006, +8.96722924195E-001, +1.23923622572E+002
+6.10400667780E+006, +6.12523818875E-001, +1.27603250474E+002
+6.27078464107E+006, +9.10663668912E-001, +1.31098284016E+002
+6.43756260434E+006, +9.44131314380E-001, +1.34632481969E+002
+6.60434056761E+006, +9.92944226038E-001, +1.38153849752E+002
+6.77111853088E+006, +1.23950799361E+000, +1.41678616263E+002
+6.93789649416E+006, +1.05611329768E+000, +1.45380626534E+002
+7.10467445743E+006, +1.04071394960E+000, +1.48753863008E+002
+7.27145242070E+006, +1.14594889832E+000, +1.52289223857E+002
+7.43823038397E+006, +1.16343814761E+000, +1.55793487080E+002
+7.60500834725E+006, +1.12786815085E+000, +1.59569002511E+002
+7.77178631052E+006, +1.09397985120E+000, +1.63244752377E+002
+7.93856427379E+006, +1.02954370642E+000, +1.66578732637E+002
+8.10534223706E+006, +1.02438992265E+000, +1.70292729895E+002
+8.27212020033E+006, +1.13268649219E+000, +1.74061500476E+002
+8.43889816361E+006, +9.28401840673E-001, +1.77824788753E+002
+8.60567612688E+006, +7.46304943190E-001, +1.81585046599E+002
+8.77245409015E+006, +8.19279994151E-001, +1.85050991431E+002
+8.93923205342E+006, +8.47785336131E-001, +1.88926398440E+002
+9.10601001669E+006, +8.03299644090E-001, +1.92475017320E+002
+9.27278797997E+006, +9.25229587451E-001, +1.96344676558E+002
+9.43956594324E+006, +5.91211944608E-001, +2.00018967945E+002
+9.60634390651E+006, +5.23096502580E-001, +2.03765556881E+002
+9.77312186978E+006, +6.46576118171E-001, +2.07705426257E+002
+9.93989983306E+006, +7.46923463498E-001, +2.11556434966E+002
+1.01066777963E+007, +5.23236559911E-001, +2.15220961761E+002
+1.02734557596E+007, +2.93457586056E-001, +2.19090214077E+002
+1.04402337229E+007, +3.08585974989E-001, +2.23030475042E+002
+1.06070116861E+007, +3.11075414204E-001, +2.26843057180E+002
+1.07737896494E+007, +2.94579872822E-001, +2.30717965164E+002
+1.09405676127E+007, +6.45311381466E-001, +2.34818629984E+002
+1.11073455760E+007, +4.34344672806E-001, +2.38626999649E+002
+1.12741235392E+007, +3.21585297959E-001, +2.42333565905E+002
+1.14409015025E+007, +3.57586292062E-001, +2.46505598084E+002
+1.16076794658E+007, +3.04498369811E-001, +2.50707063541E+002
+1.17744574290E+007, +3.26762741813E-001, +2.54560675063E+002
+1.19412353923E+007, +3.18245141844E-001, +2.58643739444E+002
+1.21080133556E+007, +7.60940026299E-002, +2.62379414285E+002
+1.22747913189E+007, +2.52294865343E-001, +2.66728453784E+002
+1.24415692821E+007, -4.88511831940E-002, +2.70517347276E+002
+1.26083472454E+007, +4.51308589837E-001, +2.74800998461E+002
+1.27751252087E+007, +1.77216663806E-001, +2.78607674444E+002
+1.29419031720E+007, +4.77402253450E-001, +2.82643163527E+002
+1.31086811352E+007, +2.00377809415E-001, +2.87121212969E+002
+1.32754590985E+007, +1.40270557565E-001, +2.91282996936E+002
+1.34422370618E+007, +6.44491704644E-003, +2.95046417021E+002
+1.36090150250E+007, +7.60252272350E-001, +2.99250069196E+002
+1.37757929883E+007, +2.27707208418E-001, +3.03349241248E+002
+1.39425709516E+007, +1.72831413425E-001, +3.07775288233E+002
+1.41093489149E+007, +4.61352251033E-001, +3.12042445353E+002
+1.42761268781E+007, +4.77216206816E-001, +3.16003460113E+002
+1.44429048414E+007, +5.93452789307E-001, +3.19931566921E+002
+1.46096828047E+007, +6.65332892873E-001, +3.25124020619E+002
+1.47764607679E+007, +8.46226635481E-001, +3.28916034429E+002
+1.49432387312E+007, +7.55991094193E-001, +3.33155506028E+002
+1.51100166945E+007, +4.06348804503E-001, +3.37924714192E+002
+1.52767946578E+007, +1.10827759366E+000, +3.42035459561E+002
+1.54435726210E+007, +8.32812483668E-001, +3.46559004839E+002
+1.56103505843E+007, +1.22179721627E+000, +3.51319812048E+002
+1.57771285476E+007, +1.04067835178E+000, +3.55108722641E+002
+1.59439065109E+007, +7.51316786866E-001, +3.59397455665E+002
+1.61106844741E+007, +8.61881352638E-001, +3.63938696259E+002
+1.62774624374E+007, +1.08332464575E+000, +3.68571530558E+002
+1.64442404007E+007, +3.35740821714E-001, +3.72864432681E+002
+1.66110183639E+007, +1.16449991111E+000, +3.77874274434E+002
+1.67777963272E+007, +9.99340327484E-001, +3.83301005703E+002
+1.69445742905E+007, +1.17836761010E+000, +3.86898363707E+002
+1.71113522538E+007, -7.26825005377E-001, +3.91581525586E+002
+1.72781302170E+007, +4.46318359222E-001, +3.96564339662E+002
+1.74449081803E+007, +3.24044132268E-001, +4.00863021231E+002
+1.76116861436E+007, +1.57063863526E+000, +4.05863928998E+002
+1.77784641068E+007, +6.61280263638E-001, +4.09695719347E+002
+1.79452420701E+007, +1.96023102460E+000, +4.14373036813E+002
+1.81120200334E+007, +1.16747580108E+000, +4.19965352814E+002
+1.82787979967E+007, +2.15725066147E+000, +4.24889168509E+002
+1.84455759599E+007, +1.79518402306E+000, +4.30073841889E+002
+1.86123539232E+007, +1.83545360911E+000, +4.34284557115E+002
+1.87791318865E+007, +1.52777601074E+000, +4.39779828401E+002
+1.89459098497E+007, +1.68165057941E+000, +4.44585922936E+002
+1.91126878130E+007, +2.16476167699E+000, +4.49065918724E+002
+1.92794657763E+007, +1.10476089971E+000, +4.54674811918E+002
+1.94462437396E+007, +2.09620703702E+000, +4.60096732895E+002
+1.96130217028E+007, +1.27075093549E+000, +4.66123610867E+002
+1.97797996661E+007, +2.55092311014E+000, +4.69469553536E+002
+1.99465776294E+007, +4.69320442495E-001, +4.74382781669E+002
+2.01133555927E+007, +1.14033090783E+000, +4.81319789747E+002
+2.02801335559E+007, +1.25142246209E+000, +4.86792973099E+002
+2.04469115192E+007, +2.87327978522E+000, +4.93026334062E+002
+2.06136894825E+007, +2.02165050905E+000, +4.97883731449E+002
+2.07804674457E+007, +2.60195164136E+000, +5.03421849079E+002
+2.09472454090E+007, +2.82715876150E+000, +5.09544427724E+002
+2.11140233723E+007, +3.15901231650E+000, +5.13603557357E+002
+2.12808013356E+007, +2.81536030965E+000, +5.18904736736E+002
+2.14475792988E+007, +3.60834129945E+000, +5.25158033101E+002
+2.16143572621E+007, +4.42274103526E+000, +5.29706704039E+002
+2.17811352254E+007, +3.29268793778E+000, +5.35187752579E+002
+2.19479131886E+007, +5.94618460987E+000, +5.41915777796E+002
+2.21146911519E+007, +5.77148219728E+000, +5.46720279365E+002
+2.22814691152E+007, +4.66876597150E+000, +5.54262615873E+002
+2.24482470785E+007, +4.85095059100E+000, +5.59697754165E+002
+2.26150250417E+007, +7.25597114254E+000, +5.64382992003E+002
+2.27818030050E+007, +6.12754575211E+000, +5.71459580372E+002
+2.29485809683E+007, +7.80306427775E+000, +5.77119867246E+002
+2.31153589316E+007, +6.34810365163E+000, +5.84347644673E+002
+2.32821368948E+007, +7.65628378985E+000, +5.89246607766E+002
+2.34489148581E+007, +7.89969188585E+000, +5.95363423982E+002
+2.36156928214E+007, +9.13455386967E+000, +6.02795673311E+002
+2.37824707846E+007, +9.63496438610E+000, +6.08121541304E+002
+2.39492487479E+007, +9.32597022742E+000, +6.13059707291E+002
+2.41160267112E+007, +1.01385758025E+001, +6.20738027800E+002
+2.42828046745E+007, +8.66172516360E+000, +6.28118502148E+002
+2.44495826377E+007, +9.81524665814E+000, +6.35609056127E+002
+2.46163606010E+007, +1.11741745787E+001, +6.40101042105E+002
+2.47831385643E+007, +1.08552989650E+001, +6.47147468513E+002
+2.49499165275E+007, +1.31772937426E+001, +6.54662390801E+002
+2.51166944908E+007, +1.56057145516E+001, +6.60020156467E+002
+2.52834724541E+007, +1.48215136023E+001, +6.67354382622E+002
+2.54502504174E+007, +1.49239523732E+001, +6.73787645391E+002
+2.56170283806E+007, +1.39923757838E+001, +6.80443307116E+002
+2.57838063439E+007, +1.62222430596E+001, +6.87841857787E+002
+2.59505843072E+007, +1.52112127655E+001, +6.94952590877E+002
+2.61173622705E+007, +1.72505299165E+001, +6.99724582333E+002
+2.62841402337E+007, +1.71441118648E+001, +7.08240358087E+002
+2.64509181970E+007, +1.51262055494E+001, +7.13625388016E+002
+2.66176961603E+007, +1.83546108894E+001, +7.24199196169E+002
+2.67844741235E+007, +1.83426384305E+001, +7.28207033582E+002
+2.69512520868E+007, +2.04322361854E+001, +7.35419860441E+002
+2.71180300501E+007, +1.99313549662E+001, +7.39282322010E+002
+2.72848080134E+007, +1.99577669513E+001, +7.49669306774E+002
+2.74515859766E+007, +2.43292930368E+001, +7.57180224319E+002
+2.76183639399E+007, +1.99341678039E+001, +7.60473846310E+002
+2.77851419032E+007, +2.00839690078E+001, +7.71002335223E+002
+2.79519198664E+007, +2.09392268964E+001, +7.79139282892E+002
+2.81186978297E+007, +2.11325393698E+001, +7.83958076919E+002
+2.82854757930E+007, +2.19174384087E+001, +7.92624795927E+002
+2.84522537563E+007, +1.94782302918E+001, +8.05247208905E+002
+2.86190317195E+007, +1.93649156532E+001, +8.10291921488E+002
+2.87858096828E+007, +2.35389812207E+001, +8.19827156954E+002
+2.89525876461E+007, +2.11327659495E+001, +8.26423538794E+002
+2.91193656093E+007, +1.94910367740E+001, +8.33249564019E+002
+2.92861435726E+007, +2.09793030694E+001, +8.41813904223E+002
+2.94529215359E+007, +2.15804613926E+001, +8.50960525756E+002
+2.96196994992E+007, +2.22376291246E+001, +8.60043515240E+002
+2.97864774624E+007, +2.28127602728E+001, +8.72204386115E+002
+2.99532554257E+007, +2.46376246704E+001, +8.79830766824E+002
+3.01200333890E+007, +2.27333652924E+001, +8.87528523050E+002
+3.02868113523E+007, +2.33929852697E+001, +8.98435689634E+002
+3.04535893155E+007, +2.13841191538E+001, +9.09857950993E+002
+3.06203672788E+007, +2.35989595281E+001, +9.21265312047E+002
+3.07871452421E+007, +1.99149055164E+001, +9.29228695402E+002
+3.09539232053E+007, +2.54761899665E+001, +9.40019176730E+002
+3.11207011686E+007, +1.91039086044E+001, +9.53840257427E+002
+3.12874791319E+007, +2.65522258779E+001, +9.60125568316E+002
+3.14542570952E+007, +1.94826153941E+001, +9.72937877962E+002
+3.16210350584E+007, +1.76846862516E+001, +9.82995840194E+002
+3.17878130217E+007, +2.00280290418E+001, +9.92029948264E+002
+3.19545909850E+007, +2.46025271186E+001, +1.00407587838E+003
+3.21213689482E+007, +2.19759050272E+001, +1.01748108783E+003
+3.22881469115E+007, +1.74729722156E+001, +1.02196134283E+003
+3.24549248748E+007, +2.58817963408E+001, +1.04034786538E+003
+3.26217028381E+007, +2.16081492815E+001, +1.05144544826E+003
+3.27884808013E+007, +2.60722020206E+001, +1.06550314052E+003
+3.29552587646E+007, +2.68948162903E+001, +1.07508506433E+003
+3.31220367279E+007, +2.58563789684E+001, +1.08265486620E+003
+3.32888146912E+007, +2.45272938588E+001, +1.10262347220E+003
+3.34555926544E+007, +1.65283017479E+001, +1.11434759985E+003
+3.36223706177E+007, +2.53392340105E+001, +1.12612858032E+003
+3.37891485810E+007, +2.51771305351E+001, +1.13616952345E+003
+3.39559265442E+007, +2.34201466832E+001, +1.15599245520E+003
+3.41227045075E+007, +2.33542594275E+001, +1.16703072066E+003
+3.42894824708E+007, +2.62504209588E+001, +1.18333169120E+003
+3.44562604341E+007, +2.59580726483E+001, +1.19733085639E+003
+3.46230383973E+007, +3.13571159306E+001, +1.21436869114E+003
+3.47898163606E+007, +3.18181978855E+001, +1.22027912119E+003
+3.49565943239E+007, +2.75127871284E+001, +1.24413567609E+003
+3.51233722871E+007, +3.53145629355E+001, +1.25898262362E+003
+3.52901502504E+007, +3.04235755481E+001, +1.26104908608E+003
+3.54569282137E+007, +2.92940555284E+001, +1.28704575682E+003
+3.56237061770E+007, +2.60341328799E+001, +1.31173252909E+003
+3.57904841402E+007, +3.10193341933E+001, +1.32667505462E+003
+3.59572621035E+007, +3.09806142279E+001, +1.35244556468E+003
+3.61240400668E+007, +3.66274145433E+001, +1.36529793306E+003
+3.62908180301E+007, +3.52215519354E+001, +1.38466003794E+003
+3.64575959933E+007, +3.26020217347E+001, +1.40094276363E+003
+3.66243739566E+007, +4.02031853794E+001, +1.41485116573E+003
+3.67911519199E+007, +3.95196757275E+001, +1.44131889721E+003
+3.69579298831E+007, +3.86477614294E+001, +1.45701993170E+003
+3.71247078464E+007, +3.03100191026E+001, +1.48508899099E+003
+3.72914858097E+007, +4.11754617354E+001, +1.50263767509E+003
+3.74582637730E+007, +3.84135317766E+001, +1.53504924240E+003
+3.76250417362E+007, +4.68894324085E+001, +1.55812931040E+003
+3.77918196995E+007, +4.74089722002E+001, +1.56574636185E+003
+3.79585976628E+007, +3.85861773487E+001, +1.59489916488E+003
+3.81253756260E+007, +3.73021213690E+001, +1.61709352475E+003
+3.82921535893E+007, +4.84052235158E+001, +1.64555382676E+003
+3.84589315526E+007, +5.23785318503E+001, +1.67997873612E+003
+3.86257095159E+007, +5.67401803751E+001, +1.70622729630E+003
+3.87924874791E+007, +5.22540342687E+001, +1.72598184786E+003
+3.89592654424E+007, +6.46952398067E+001, +1.75391860228E+003
+3.91260434057E+007, +6.85205265468E+001, +1.80442218434E+003
+3.92928213689E+007, +6.64513995249E+001, +1.81493548234E+003
+3.94595993322E+007, +6.23960890136E+001, +1.86673394758E+003
+3.96263772955E+007, +5.76015197081E+001, +1.88000313107E+003
+3.97931552588E+007, +6.58539807915E+001, +1.92057533344E+003
+3.99599332220E+007, +7.07582891657E+001, +1.94914101150E+003
+4.01267111853E+007, +6.97271144774E+001, +1.98878988780E+003
+4.02934891486E+007, +5.74909761787E+001, +2.01253329717E+003
+4.04602671119E+007, +7.59665068413E+001, +2.05659972082E+003
+4.06270450751E+007, +7.99551239097E+001, +2.09030939886E+003
+4.07938230384E+007, +9.24311453328E+001, +2.14493510623E+003
+4.09606010017E+007, +9.64862406550E+001, +2.18974329694E+003
+4.11273789649E+007, +9.78394803551E+001, +2.22937966412E+003
+4.12941569282E+007, +1.15926011624E+002, +2.27059674636E+003
+4.14609348915E+007, +1.09719900794E+002, +2.33877391006E+003
+4.16277128548E+007, +1.19567167524E+002, +2.37873382152E+003
+4.17944908180E+007, +1.15370223394E+002, +2.41875226586E+003
+4.19612687813E+007, +1.41332002835E+002, +2.47105250571E+003
+4.21280467446E+007, +9.95432541552E+001, +2.54766382838E+003
+4.22948247078E+007, +1.31530593757E+002, +2.61204079201E+003
+4.24616026711E+007, +1.79006065554E+002, +2.64510099882E+003
+4.26283806344E+007, +1.71229528823E+002, +2.69165814551E+003
+4.27951585977E+007, +1.57538667910E+002, +2.81744915652E+003
+4.29619365609E+007, +2.03305803974E+002, +2.85773884250E+003
+4.31287145242E+007, +2.03908354642E+002, +2.94682706662E+003
+4.32954924875E+007, +2.28108159796E+002, +3.01534939835E+003
+4.34622704508E+007, +1.91544755206E+002, +3.12924522599E+003
+4.36290484140E+007, +2.55500682044E+002, +3.16317007145E+003
+4.37958263773E+007, +2.08567381397E+002, +3.32686601297E+003
+4.39626043406E+007, +2.36592388070E+002, +3.36169622217E+003
+4.41293823038E+007, +3.57807173198E+002, +3.52497361840E+003
+4.42961602671E+007, +3.05284662223E+002, +3.66221632530E+003
+4.44629382304E+007, +3.06748632444E+002, +3.72352897761E+003
+4.46297161937E+007, +3.55662135929E+002, +3.85338641955E+003
+4.47964941569E+007, +3.37341794900E+002, +4.03463481334E+003
+4.49632721202E+007, +4.08346102581E+002, +4.19378939782E+003
+4.51300500835E+007, +4.67975542413E+002, +4.21120145767E+003
+4.52968280467E+007, +5.07562641237E+002, +4.45395839871E+003
+4.54636060100E+007, +5.80351717780E+002, +4.77114898496E+003
+4.56303839733E+007, +6.50579499355E+002, +4.89689589017E+003
+4.57971619366E+007, +6.09295318681E+002, +5.13058694672E+003
+4.59639398998E+007, +7.39906819693E+002, +5.62001030920E+003
+4.61307178631E+007, +8.41523044624E+002, +5.60551304003E+003
+4.62974958264E+007, +1.21688635203E+003, +5.89776041478E+003
+4.64642737896E+007, +1.07555508760E+003, +6.32475912104E+003
+4.66310517529E+007, +1.15128885866E+003, +6.74297613130E+003
+4.67978297162E+007, +1.51331446184E+003, +6.75746802537E+003
+4.69646076795E+007, +1.64199461994E+003, +7.66730835288E+003
+4.71313856427E+007, +2.03338437816E+003, +8.05275930930E+003
+4.72981636060E+007, +2.50615770335E+003, +8.78377826607E+003
+4.74649415693E+007, +3.04925953271E+003, +9.18853568969E+003
+4.76317195326E+007, +3.78645068484E+003, +9.65642763067E+003
+4.77984974958E+007, +4.84372554740E+003, +1.02111681753E+004
+4.79652754591E+007, +6.12087266748E+003, +1.09652590211E+004
+4.81320534224E+007, +7.52496251445E+003, +1.21398285461E+004
+4.82988313856E+007, +9.13505778485E+003, +1.27887000728E+004
+4.84656093489E+007, +1.13670577262E+004, +1.25830305480E+004
+4.86323873122E+007, +1.46616364698E+004, +1.35006431315E+004
+4.87991652755E+007, +1.76160369697E+004, +1.04406913084E+004
+4.89659432387E+007, +1.99704285738E+004, +7.00766217628E+003
+4.91327212020E+007, +2.13351803130E+004, +1.68744297039E+003
+4.92994991653E+007, +2.14546021893E+004, -3.23925254995E+002
+4.94662771285E+007, +1.89952351888E+004, -4.21053604171E+003
+4.96330550918E+007, +1.69748242624E+004, -6.34793010619E+003
+4.97998330551E+007, +1.48936056619E+004, -7.88217080385E+003
+4.99666110184E+007, +1.23538350028E+004, -8.38067256337E+003
+5.01333889816E+007, +1.14865380021E+004, -9.07833494397E+003
+5.03001669449E+007, +9.33657417809E+003, -1.00382022638E+004
+5.04669449082E+007, +7.94000486163E+003, -9.37502522275E+003
+5.06337228715E+007, +7.03369482242E+003, -8.63907100001E+003
+5.08005008347E+007, +6.59173281634E+003, -9.05311399540E+003
+5.09672787980E+007, +5.66130584091E+003, -8.30605499635E+003
+5.11340567613E+007, +4.63886608414E+003, -7.93657286894E+003
+5.13008347245E+007, +3.98401918711E+003, -7.71594291673E+003
+5.14676126878E+007, +3.46798249278E+003, -7.28524096045E+003
+5.16343906511E+007, +3.01673877077E+003, -6.83825860670E+003
+5.18011686144E+007, +2.60048897129E+003, -6.51178544250E+003
+5.19679465776E+007, +2.32849637121E+003, -6.04634153083E+003
+5.21347245409E+007, +2.11159659557E+003, -5.83184635113E+003
+5.23015025042E+007, +1.74289312719E+003, -5.26506118567E+003
+5.24682804674E+007, +1.50871493075E+003, -5.30459496305E+003
+5.26350584307E+007, +1.56733396512E+003, -4.98544099480E+003
+5.28018363940E+007, +1.28264190321E+003, -4.75812964519E+003
+5.29686143573E+007, +1.20899508999E+003, -4.57560994378E+003
+5.31353923205E+007, +1.13189290881E+003, -4.37229186279E+003
+5.33021702838E+007, +1.00007990851E+003, -4.17121389978E+003
+5.34689482471E+007, +8.92781939918E+002, -3.99300726855E+003
