"# Channel 1"
"# Trace 1"
Frequency, Formatted Data, Formatted Data
+1.00000000000E+005, +1.91663101634E-001, +2.13266191553E+000
+2.66777963272E+005, +2.21979320916E-001, +5.61179680737E+000
+4.33555926544E+005, +2.55772893196E-001, +9.11226759799E+000
+6.00333889816E+005, +3.01474093410E-001, +1.25184866321E+001
+7.67111853088E+005, +3.57396860426E-001, +1.59979012887E+001
+9.33889816361E+005, +3.80901194610E-001, +1.94285055186E+001
+1.10066777963E+006, +3.31229994495E-001, +2.28836411693E+001
+1.26744574290E+006, +3.88309381967E-001, +2.63010342630E+001
+1.43422370618E+006, +3.25921931235E-001, +2.98142709278E+001
+1.60100166945E+006, +4.38996642369E-001, +3.31844413600E+001
+1.76777963272E+006, +4.28038354327E-001, +3.66205555716E+001
+1.93455759599E+006, +4.41492780111E-001, +3.99867055279E+001
+2.10133555927E+006, +4.50690916102E-001, +4.34301702021E+001
+2.26811352254E+006, +4.73137146453E-001, +4.68897128785E+001
+2.43489148581E+006, +4.36073225006E-001, +5.03913719764E+001
+2.60166944908E+006, +4.79881205955E-001, +5.37310800894E+001
+2.76844741235E+006, +4.23533348137E-001, +5.73001338573E+001
+2.93522537563E+006, +4.49804207126E-001, +6.07268953883E+001
+3.10200333890E+006, +5.59584612814E-001, +6.40625996320E+001
+3.26878130217E+006, +3.74499057051E-001, +6.76609789224E+001
+3.43555926544E+006, +4.65107843446E-001, +7.10632616065E+001
+3.60233722871E+006, +5.63069196960E-001, +7.46646134550E+001
+3.76911519199E+006, +4.47577037217E-001, +7.82252760721E+001
+3.93589315526E+006, +5.37459828682E-001, +8.15094609840E+001
+4.10267111853E+006, +1.24229134788E-001, +8.44823841736E+001
+4.26944908180E+006, +2.61418280675E-001, +8.89667406822E+001
+4.43622704508E+006, +4.89186872672E-001, +9.20224122545E+001
+4.60300500835E+006, +5.30217447579E-001, +9.57708493534E+001
+4.76978297162E+006, +3.96910869577E-001, +9.91329240982E+001
+4.93656093489E+006, +7.04008707827E-001, +1.02701596293E+002
+5.10333889816E+006, +5.09726562174E-001, +1.06149275423E+002
+5.27011686144E+006, +7.16023318259E-001, +1.09892515683E+002
+5.43689482471E+006, +6.32925766799E-001, +1.13306052900E+002
+5.60367278798E+006, +6.92550071796E-001, +1.17041007178E+002
+5.77045075125E+006, +4.71346403723E-001, +1.20399254625E+002
+5.93722871452E+006, +7.52600756471E-001, +1.23872737339E+002
+6.10400667780E+006, +5.36553146237E-001, +1.27559603095E+002
+6.27078464107E+006, +9.09741266636E-001, +1.30956752933E+002
+6.43756260434E+006, +9.32636795733E-001, +1.34558270784E+002
+6.60434056761E+006, +1.03174608944E+000, +1.38121811961E+002
+6.77111853088E+006, +1.24201305778E+000, +1.41608894750E+002
+6.93789649416E+006, +1.12531159979E+000, +1.45203240165E+002
+7.10467445743E+006, +1.11277044529E+000, +1.48834316855E+002
+7.27145242070E+006, +1.20482364160E+000, +1.52245699475E+002
+7.43823038397E+006, +1.13382942205E+000, +1.55799229965E+002
+7.60500834725E+006, +1.15319727381E+000, +1.59495845401E+002
+7.77178631052E+006, +1.13825596806E+000, +1.63275605629E+002
+7.93856427379E+006, +1.10228974456E+000, +1.66522191893E+002
+8.10534223706E+006, +1.13625486304E+000, +1.70323329474E+002
+8.27212020033E+006, +1.00999684536E+000, +1.73985774695E+002
+8.43889816361E+006, +9.27528406289E-001, +1.77642972059E+002
+8.60567612688E+006, +8.32815813008E-001, +1.81380940504E+002
+8.77245409015E+006, +6.64120339085E-001, +1.84838940038E+002
+8.93923205342E+006, +7.12348655724E-001, +1.88732064040E+002
+9.10601001669E+006, +6.59340389833E-001, +1.92442002206E+002
+9.27278797997E+006, +9.27452160297E-001, +1.96116774160E+002
+9.43956594324E+006, +5.91663087370E-001, +1.99807517119E+002
+9.60634390651E+006, +5.90653390265E-001, +2.03563120869E+002
+9.77312186978E+006, +5.75017562609E-001, +2.07440868982E+002
+9.93989983306E+006, +6.88132030580E-001, +2.11446146914E+002
+1.01066777963E+007, +4.98742170387E-001, +2.15248310783E+002
+1.02734557596E+007, +4.40635336030E-001, +2.18916825863E+002
+1.04402337229E+007, +4.37547853087E-001, +2.23070851061E+002
+1.06070116861E+007, +1.94461020761E-001, +2.26559530744E+002
+1.07737896494E+007, +3.73459147269E-001, +2.30706479991E+002
+1.09405676127E+007, +4.96591152761E-001, +2.34562451149E+002
+1.11073455760E+007, +5.40699955020E-001, +2.38611360503E+002
+1.12741235392E+007, +2.64473947558E-001, +2.42154450893E+002
+1.14409015025E+007, +6.13890013669E-001, +2.46427360752E+002
+1.16076794658E+007, +2.94725033772E-001, +2.50468478568E+002
+1.17744574290E+007, +5.57040839305E-001, +2.54411210799E+002
+1.19412353923E+007, -8.19061863867E-002, +2.58175014225E+002
+1.21080133556E+007, +1.70549236592E-001, +2.62728757756E+002
+1.22747913189E+007, +3.92112906468E-001, +2.66701744924E+002
+1.24415692821E+007, +1.12759920089E-001, +2.70461812832E+002
+1.26083472454E+007, +9.29612031234E-002, +2.74689010965E+002
+1.27751252087E+007, +2.80494414958E-001, +2.78270373124E+002
+1.29419031720E+007, -1.05479787931E-001, +2.82538002768E+002
+1.31086811352E+007, +2.42025282215E-001, +2.86670671762E+002
+1.32754590985E+007, -5.10284269887E-002, +2.90892056275E+002
+1.34422370618E+007, +4.74818911387E-002, +2.95445815948E+002
+1.36090150250E+007, +8.90233865922E-001, +2.99109957901E+002
+1.37757929883E+007, +7.22086432185E-002, +3.03176029964E+002
+1.39425709516E+007, +1.58372653706E-001, +3.07417938031E+002
+1.41093489149E+007, +7.35278173724E-001, +3.11947487090E+002
+1.42761268781E+007, +8.04294802752E-001, +3.16383455748E+002
+1.44429048414E+007, +2.75231345399E-001, +3.20239044965E+002
+1.46096828047E+007, +3.08946482013E-001, +3.24834186434E+002
+1.47764607679E+007, +4.62659398268E-001, +3.28525567092E+002
+1.49432387312E+007, +5.98454806420E-001, +3.33296033617E+002
+1.51100166945E+007, +6.01911677589E-001, +3.37856731174E+002
+1.52767946578E+007, +8.07338092932E-001, +3.41268684273E+002
+1.54435726210E+007, +4.33782268526E-001, +3.45768161593E+002
+1.56103505843E+007, +8.44740719285E-001, +3.50563425318E+002
+1.57771285476E+007, +8.95033152088E-001, +3.54846805073E+002
+1.59439065109E+007, +6.27069393193E-001, +3.59244118799E+002
+1.61106844741E+007, +5.32157623285E-001, +3.63715779255E+002
+1.62774624374E+007, +9.98811100998E-001, +3.68552171804E+002
+1.64442404007E+007, +4.58904858657E-001, +3.72641562435E+002
+1.66110183639E+007, +1.13539923574E+000, +3.77258971529E+002
+1.67777963272E+007, +9.25159647946E-001, +3.82387217602E+002
+1.69445742905E+007, +1.52161051561E+000, +3.86944821394E+002
+1.71113522538E+007, -9.30313501794E-001, +3.91520532463E+002
+1.72781302170E+007, +5.02591373054E-001, +3.97011396773E+002
+1.74449081803E+007, +4.85104141693E-002, +4.00731291404E+002
+1.76116861436E+007, +8.28090241884E-001, +4.05795676651E+002
+1.77784641068E+007, +5.57109458256E-001, +4.10003911940E+002
+1.79452420701E+007, +5.32561940902E-001, +4.15304088422E+002
+1.81120200334E+007, +1.20803269549E+000, +4.18602777707E+002
+1.82787979967E+007, +1.31631286904E+000, +4.24607051626E+002
+1.84455759599E+007, +1.92874738411E+000, +4.29842099929E+002
+1.86123539232E+007, +1.96334004398E+000, +4.34464879556E+002
+1.87791318865E+007, +1.17280295431E+000, +4.39715391488E+002
+1.89459098497E+007, +1.80426836414E+000, +4.44203036535E+002
+1.91126878130E+007, +1.69581207685E+000, +4.48882348755E+002
+1.92794657763E+007, +1.88211746057E+000, +4.54610903244E+002
+1.94462437396E+007, +1.82862359656E+000, +4.60266415927E+002
+1.96130217028E+007, +2.46085206168E+000, +4.66064492087E+002
+1.97797996661E+007, +2.28141335959E+000, +4.70181768857E+002
+1.99465776294E+007, +1.07047251497E+000, +4.74534679099E+002
+2.01133555927E+007, +1.20334324417E+000, +4.80378965418E+002
+2.02801335559E+007, +2.60049025466E+000, +4.86713518464E+002
+2.04469115192E+007, +2.32409782746E+000, +4.91711347550E+002
+2.06136894825E+007, +3.05956429584E+000, +4.97137929701E+002
+2.07804674457E+007, +3.18026770020E+000, +5.02720449169E+002
+2.09472454090E+007, +2.11674594346E+000, +5.08090771269E+002
+2.11140233723E+007, +3.70478098850E+000, +5.12599667509E+002
+2.12808013356E+007, +3.69024528438E+000, +5.17424727034E+002
+2.14475792988E+007, +3.31048255777E+000, +5.25811586140E+002
+2.16143572621E+007, +3.67685082263E+000, +5.30782520213E+002
+2.17811352254E+007, +4.33463315350E+000, +5.35357548123E+002
+2.19479131886E+007, +5.25476349866E+000, +5.42405717412E+002
+2.21146911519E+007, +4.84282567692E+000, +5.46533876866E+002
+2.22814691152E+007, +4.53177114951E+000, +5.52489973710E+002
+2.24482470785E+007, +4.89041003059E+000, +5.58365010730E+002
+2.26150250417E+007, +7.61058568400E+000, +5.65332053302E+002
+2.27818030050E+007, +4.78310320668E+000, +5.70467345270E+002
+2.29485809683E+007, +7.46457876662E+000, +5.75610775239E+002
+2.31153589316E+007, +5.96481494390E+000, +5.83251743060E+002
+2.32821368948E+007, +9.27417947366E+000, +5.90216684453E+002
+2.34489148581E+007, +8.03565252232E+000, +5.95766649966E+002
+2.36156928214E+007, +9.49142456626E+000, +6.02916633929E+002
+2.37824707846E+007, +8.67765678619E+000, +6.08047434536E+002
+2.39492487479E+007, +8.57350205573E+000, +6.13861342658E+002
+2.41160267112E+007, +1.01188655112E+001, +6.20006926909E+002
+2.42828046745E+007, +1.00999073619E+001, +6.26724781405E+002
+2.44495826377E+007, +1.07255733474E+001, +6.35670896046E+002
+2.46163606010E+007, +1.19372335586E+001, +6.39766600126E+002
+2.47831385643E+007, +1.03787469759E+001, +6.45638499815E+002
+2.49499165275E+007, +1.24136021231E+001, +6.52211003985E+002
+2.51166944908E+007, +1.56537735360E+001, +6.60605518468E+002
+2.52834724541E+007, +1.44174366541E+001, +6.66467441372E+002
+2.54502504174E+007, +1.66571337937E+001, +6.74160051434E+002
+2.56170283806E+007, +1.50302283379E+001, +6.79054242144E+002
+2.57838063439E+007, +1.57624283456E+001, +6.87969835983E+002
+2.59505843072E+007, +1.60534474603E+001, +6.94798312618E+002
+2.61173622705E+007, +1.83114996566E+001, +6.99399210777E+002
+2.62841402337E+007, +1.75240416998E+001, +7.07091611671E+002
+2.64509181970E+007, +1.72100423780E+001, +7.12162003447E+002
+2.66176961603E+007, +1.98838321363E+001, +7.24089985366E+002
+2.67844741235E+007, +1.68753898571E+001, +7.27255371829E+002
+2.69512520868E+007, +1.84360423080E+001, +7.34396036500E+002
+2.71180300501E+007, +1.95183968252E+001, +7.38133302221E+002
+2.72848080134E+007, +1.89445025834E+001, +7.48327228674E+002
+2.74515859766E+007, +2.36560897489E+001, +7.55098066037E+002
+2.76183639399E+007, +1.82611184529E+001, +7.61355852296E+002
+2.77851419032E+007, +2.23669109369E+001, +7.69368580082E+002
+2.79519198664E+007, +2.17865080789E+001, +7.77277612964E+002
+2.81186978297E+007, +2.28573618664E+001, +7.83986001416E+002
+2.82854757930E+007, +2.04393322322E+001, +7.90705338230E+002
+2.84522537563E+007, +2.00290859993E+001, +8.01168196518E+002
+2.86190317195E+007, +2.09961956264E+001, +8.08564070552E+002
+2.87858096828E+007, +2.24066843868E+001, +8.16746984582E+002
+2.89525876461E+007, +2.29512115597E+001, +8.25019172606E+002
+2.91193656093E+007, +1.82144794135E+001, +8.31100034828E+002
+2.92861435726E+007, +2.10274735232E+001, +8.38075058040E+002
+2.94529215359E+007, +2.12382093524E+001, +8.47129844129E+002
+2.96196994992E+007, +2.14824232002E+001, +8.62505272328E+002
+2.97864774624E+007, +2.57996946481E+001, +8.68774267163E+002
+2.99532554257E+007, +2.63200222451E+001, +8.79197978398E+002
+3.01200333890E+007, +2.17740673871E+001, +8.88429544376E+002
+3.02868113523E+007, +1.93246955159E+001, +8.98668901813E+002
+3.04535893155E+007, +2.32588056803E+001, +9.10922876853E+002
+3.06203672788E+007, +2.66817049492E+001, +9.17232280693E+002
+3.07871452421E+007, +2.43039886225E+001, +9.27389785336E+002
+3.09539232053E+007, +2.30473134175E+001, +9.38504680573E+002
+3.11207011686E+007, +1.91291267207E+001, +9.52410076364E+002
+3.12874791319E+007, +2.45683037023E+001, +9.57050386386E+002
+3.14542570952E+007, +2.34319167396E+001, +9.69576258944E+002
+3.16210350584E+007, +2.18753830357E+001, +9.79325919226E+002
+3.17878130217E+007, +2.25196229333E+001, +9.90174273782E+002
+3.19545909850E+007, +2.38078675594E+001, +1.00495838437E+003
+3.21213689482E+007, +2.03324724039E+001, +1.01660428195E+003
+3.22881469115E+007, +2.06601566247E+001, +1.02185758385E+003
+3.24549248748E+007, +2.04352820893E+001, +1.03661485964E+003
+3.26217028381E+007, +2.20781891632E+001, +1.05157093692E+003
+3.27884808013E+007, +2.59691260529E+001, +1.06063221807E+003
+3.29552587646E+007, +2.46505979978E+001, +1.07388676496E+003
+3.31220367279E+007, +2.46378590463E+001, +1.08225207662E+003
+3.32888146912E+007, +2.30389371581E+001, +1.10139544135E+003
+3.34555926544E+007, +2.37308236437E+001, +1.11461401474E+003
+3.36223706177E+007, +2.81928478217E+001, +1.12528225152E+003
+3.37891485810E+007, +2.12479605520E+001, +1.13665652156E+003
+3.39559265442E+007, +2.22586898851E+001, +1.15579974757E+003
+3.41227045075E+007, +2.53299211202E+001, +1.16445840527E+003
+3.42894824708E+007, +3.24330277736E+001, +1.17969828528E+003
+3.44562604341E+007, +2.70363927694E+001, +1.19482632898E+003
+3.46230383973E+007, +3.32491917201E+001, +1.21097510931E+003
+3.47898163606E+007, +3.26206660293E+001, +1.22577236820E+003
+3.49565943239E+007, +4.18397499384E+001, +1.23998827402E+003
+3.51233722871E+007, +2.90742479078E+001, +1.25329185603E+003
+3.52901502504E+007, +3.30727247126E+001, +1.26530417252E+003
+3.54569282137E+007, +3.26323615111E+001, +1.29097387263E+003
+3.56237061770E+007, +2.31532072983E+001, +1.30420508516E+003
+3.57904841402E+007, +3.52634421924E+001, +1.32304949955E+003
+3.59572621035E+007, +3.02026046046E+001, +1.33523664701E+003
+3.61240400668E+007, +3.63317034176E+001, +1.35367404457E+003
+3.62908180301E+007, +3.77430618451E+001, +1.38494481477E+003
+3.64575959933E+007, +3.42875767466E+001, +1.39729389308E+003
+3.66243739566E+007, +3.82926868131E+001, +1.40890138405E+003
+3.67911519199E+007, +4.17459480900E+001, +1.44109758090E+003
+3.69579298831E+007, +3.63075411154E+001, +1.45324995018E+003
+3.71247078464E+007, +3.16009471030E+001, +1.47865054225E+003
+3.72914858097E+007, +3.33821851894E+001, +1.50518052050E+003
+3.74582637730E+007, +4.83066530277E+001, +1.53327193526E+003
+3.76250417362E+007, +4.99277760937E+001, +1.53969537788E+003
+3.77918196995E+007, +4.51376595224E+001, +1.56160431394E+003
+3.79585976628E+007, +4.72411598046E+001, +1.58852411986E+003
+3.81253756260E+007, +5.76522779435E+001, +1.61959477092E+003
+3.82921535893E+007, +5.05456264982E+001, +1.64068380262E+003
+3.84589315526E+007, +6.39942708662E+001, +1.67586679459E+003
+3.86257095159E+007, +4.56549335495E+001, +1.69679420123E+003
+3.87924874791E+007, +4.26503537906E+001, +1.72344252116E+003
+3.89592654424E+007, +5.80956563684E+001, +1.76058864762E+003
+3.91260434057E+007, +5.72165464697E+001, +1.78528751497E+003
+3.92928213689E+007, +6.40795667226E+001, +1.80868617309E+003
+3.94595993322E+007, +5.27311356614E+001, +1.84471185728E+003
+3.96263772955E+007, +5.66069830927E+001, +1.87905729140E+003
+3.97931552588E+007, +6.02225145843E+001, +1.91618835172E+003
+3.99599332220E+007, +5.62116379146E+001, +1.94014201309E+003
+4.01267111853E+007, +7.75205425711E+001, +1.97399174976E+003
+4.02934891486E+007, +4.26304810339E+001, +2.01381220423E+003
+4.04602671119E+007, +8.30498744873E+001, +2.05082352038E+003
+4.06270450751E+007, +8.85249717218E+001, +2.08662657861E+003
+4.07938230384E+007, +8.48744898428E+001, +2.13143215121E+003
+4.09606010017E+007, +8.91826664152E+001, +2.16912016364E+003
+4.11273789649E+007, +1.10833838517E+002, +2.19975481184E+003
+4.12941569282E+007, +1.09281604221E+002, +2.26629967070E+003
+4.14609348915E+007, +1.04504305026E+002, +2.35112312605E+003
+4.16277128548E+007, +1.20693574590E+002, +2.35939849960E+003
+4.17944908180E+007, +1.33514519822E+002, +2.38992328081E+003
+4.19612687813E+007, +1.41709859318E+002, +2.45983795574E+003
+4.21280467446E+007, +1.31628309549E+002, +2.51978375698E+003
+4.22948247078E+007, +1.31039736647E+002, +2.59463215427E+003
+4.24616026711E+007, +1.81275484764E+002, +2.62742460661E+003
+4.26283806344E+007, +1.84206164426E+002, +2.70434880143E+003
+4.27951585977E+007, +1.61997580963E+002, +2.78405812794E+003
+4.29619365609E+007, +2.07354315813E+002, +2.83333471259E+003
+4.31287145242E+007, +2.32463422649E+002, +2.91330218536E+003
+4.32954924875E+007, +2.02926129942E+002, +2.95390484945E+003
+4.34622704508E+007, +2.18581848753E+002, +3.12165970639E+003
+4.36290484140E+007, +2.50979495227E+002, +3.13585262872E+003
+4.37958263773E+007, +2.46854023400E+002, +3.27733117725E+003
+4.39626043406E+007, +2.71852959025E+002, +3.33381392163E+003
+4.41293823038E+007, +3.29258720178E+002, +3.50846888426E+003
+4.42961602671E+007, +3.06007320838E+002, +3.58583980442E+003
+4.44629382304E+007, +3.13012906962E+002, +3.70851846967E+003
+4.46297161937E+007, +3.79338730117E+002, +3.78323817209E+003
+4.47964941569E+007, +3.29301759873E+002, +3.95972820254E+003
+4.49632721202E+007, +4.00897126647E+002, +4.12396540154E+003
+4.51300500835E+007, +4.37425262016E+002, +4.18952883584E+003
+4.52968280467E+007, +5.04925880087E+002, +4.34051886026E+003
+4.54636060100E+007, +6.34684478792E+002, +4.68246593195E+003
+4.56303839733E+007, +6.05489307057E+002, +4.83307541402E+003
+4.57971619366E+007, +7.53019478174E+002, +4.97694966625E+003
+4.59639398998E+007, +7.49940748895E+002, +5.35364693296E+003
+4.61307178631E+007, +9.52206250518E+002, +5.53494296489E+003
+4.62974958264E+007, +1.24074724889E+003, +5.90082754192E+003
+4.64642737896E+007, +1.13293554783E+003, +6.11391486534E+003
+4.66310517529E+007, +1.32747849464E+003, +6.63403834578E+003
+4.67978297162E+007, +1.59298711729E+003, +6.60427728048E+003
+4.69646076795E+007, +1.73018057311E+003, +7.49416848574E+003
+4.71313856427E+007, +2.26451664316E+003, +7.53472943443E+003
+4.72981636060E+007, +2.45136993487E+003, +8.35002949263E+003
+4.74649415693E+007, +2.61835889808E+003, +8.98631979200E+003
+4.76317195326E+007, +3.93963913822E+003, +9.12997593189E+003
+4.77984974958E+007, +4.58619319797E+003, +9.85141193341E+003
+4.79652754591E+007, +5.82279609874E+003, +1.02461284999E+004
+4.81320534224E+007, +6.91558148334E+003, +1.06424083163E+004
+4.82988313856E+007, +8.17455512176E+003, +1.12584028460E+004
+4.84656093489E+007, +1.10214193832E+004, +1.10392362121E+004
+4.86323873122E+007, +1.30210833074E+004, +1.04424022162E+004
+4.87991652755E+007, +1.56687276188E+004, +9.51550621085E+003
+4.89659432387E+007, +1.67931450214E+004, +7.65016631180E+003
+4.91327212020E+007, +1.87535234079E+004, +4.82058182163E+003
+4.92994991653E+007, +1.92735923544E+004, +1.57848175567E+003
+4.94662771285E+007, +1.76609397879E+004, -2.00062198347E+003
+4.96330550918E+007, +1.57968206307E+004, -3.89124298520E+003
+4.97998330551E+007, +1.61938451891E+004, -4.67097124405E+003
+4.99666110184E+007, +1.37895503015E+004, -6.91104204325E+003
+5.01333889816E+007, +1.25390483608E+004, -8.24332144835E+003
+5.03001669449E+007, +1.06352217977E+004, -9.11102307018E+003
+5.04669449082E+007, +8.68836877380E+003, -9.08512890854E+003
+5.06337228715E+007, +7.58183713574E+003, -8.21363949569E+003
+5.08005008347E+007, +7.25086359357E+003, -8.90414442390E+003
+5.09672787980E+007, +6.27445026210E+003, -8.01405674957E+003
+5.11340567613E+007, +5.15973919229E+003, -7.66470195678E+003
+5.13008347245E+007, +4.28182119443E+003, -7.18524303288E+003
+5.14676126878E+007, +3.82527325044E+003, -7.03342285453E+003
+5.16343906511E+007, +3.27777787476E+003, -6.53088743418E+003
+5.18011686144E+007, +3.08943925992E+003, -6.33584883107E+003
+5.19679465776E+007, +2.68888367409E+003, -6.13831459349E+003
+5.21347245409E+007, +2.47628305269E+003, -5.52014747301E+003
+5.23015025042E+007, +2.08029852340E+003, -5.22778297792E+003
+5.24682804674E+007, +1.80559898967E+003, -5.08542112922E+003
+5.26350584307E+007, +1.77203601134E+003, -4.89642813586E+003
+5.28018363940E+007, +1.60555762687E+003, -4.65141120481E+003
+5.29686143573E+007, +1.48804703089E+003, -4.52054041395E+003
+5.31353923205E+007, +1.36061236042E+003, -4.33981583286E+003
+5.33021702838E+007, +1.26462921434E+003, -4.16025620889E+003
+5.34689482471E+007, +1.23399555476E+003, -3.97298293005E+003
