"# Channel 1"
"# Trace 1"
Frequency, Formatted Data, Formatted Data
+1.00000000000E+005, +7.38822713073E+000, +2.50904949022E+000
+2.25031289111E+005, +7.47609104522E+000, +5.48882430555E+000
+3.50062578223E+005, +7.62962886563E+000, +8.44955151248E+000
+4.75093867334E+005, +7.65371929747E+000, +1.14122099264E+001
+6.00125156446E+005, +7.74400470022E+000, +1.42970870987E+001
+7.25156445557E+005, +7.80752636321E+000, +1.71906159634E+001
+8.50187734668E+005, +7.87372581995E+000, +2.01069179598E+001
+9.75219023780E+005, +7.86403162049E+000, +2.29938186959E+001
+1.10025031289E+006, +7.96149811227E+000, +2.58731040524E+001
+1.22528160200E+006, +7.94297324225E+000, +2.87846306810E+001
+1.35031289111E+006, +8.04547500109E+000, +3.17100165676E+001
+1.47534418023E+006, +8.06866511794E+000, +3.45804546529E+001
+1.60037546934E+006, +8.11796557497E+000, +3.74873931495E+001
+1.72540675845E+006, +8.09911678474E+000, +4.03453031592E+001
+1.85043804756E+006, +8.16340067416E+000, +4.32602887665E+001
+1.97546933667E+006, +8.16255761898E+000, +4.61017029349E+001
+2.10050062578E+006, +8.13325940929E+000, +4.91388727223E+001
+2.22553191489E+006, +8.20613409309E+000, +5.18924221283E+001
+2.35056320401E+006, +8.19014726754E+000, +5.48932746732E+001
+2.47559449312E+006, +8.29435461960E+000, +5.78126371985E+001
+2.60062578223E+006, +8.29489229004E+000, +6.05955557881E+001
+2.72565707134E+006, +8.34801058396E+000, +6.35086121332E+001
+2.85068836045E+006, +8.38846432082E+000, +6.64481693074E+001
+2.97571964956E+006, +8.35344649793E+000, +6.93925443735E+001
+3.10075093867E+006, +8.45577351676E+000, +7.23267528055E+001
+3.22578222778E+006, +8.49890188981E+000, +7.52611538305E+001
+3.35081351690E+006, +8.56891257303E+000, +7.80582511132E+001
+3.47584480601E+006, +8.63415667541E+000, +8.10034146793E+001
+3.60087609512E+006, +8.66815939172E+000, +8.40799077021E+001
+3.72590738423E+006, +8.59246706257E+000, +8.68213742373E+001
+3.85093867334E+006, +8.61916481221E+000, +8.99485036933E+001
+3.97596996245E+006, +8.79835019991E+000, +9.28983841649E+001
+4.10100125156E+006, +8.81882058695E+000, +9.56193405152E+001
+4.22603254068E+006, +8.72114967933E+000, +9.84647197931E+001
+4.35106382979E+006, +8.75940252299E+000, +1.01742224749E+002
+4.47609511890E+006, +8.87366117193E+000, +1.04437652237E+002
+4.60112640801E+006, +8.89350302751E+000, +1.07678109167E+002
+4.72615769712E+006, +8.90117991629E+000, +1.10451111192E+002
+4.85118898623E+006, +9.08235170373E+000, +1.13538342609E+002
+4.97622027534E+006, +8.91699440405E+000, +1.16381694091E+002
+5.10125156446E+006, +8.94970036696E+000, +1.19092162231E+002
+5.22628285357E+006, +9.00434627402E+000, +1.22352615189E+002
+5.35131414268E+006, +9.02811564775E+000, +1.25205876842E+002
+5.47634543179E+006, +9.27316023182E+000, +1.28313448500E+002
+5.60137672090E+006, +8.94253862289E+000, +1.31190855357E+002
+5.72640801001E+006, +8.83296237440E+000, +1.34065376967E+002
+5.85143929912E+006, +9.39284040520E+000, +1.37014070418E+002
+5.97647058824E+006, +9.28660289312E+000, +1.40160155634E+002
+6.10150187735E+006, +9.41401135587E+000, +1.43190083786E+002
+6.22653316646E+006, +9.29985107567E+000, +1.46417366597E+002
+6.35156445557E+006, +9.45224120822E+000, +1.49105308748E+002
+6.47659574468E+006, +9.58621998524E+000, +1.52231222831E+002
+6.60162703379E+006, +9.53390068170E+000, +1.55431350603E+002
+6.72665832290E+006, +9.65513818476E+000, +1.58161354337E+002
+6.85168961202E+006, +9.74154438019E+000, +1.61233889724E+002
+6.97672090113E+006, +9.88216518424E+000, +1.64350098507E+002
+7.10175219024E+006, +9.65465975259E+000, +1.67449104498E+002
+7.22678347935E+006, +9.86871677945E+000, +1.70558420353E+002
+7.35181476846E+006, +1.00872795998E+001, +1.73649335795E+002
+7.47684605757E+006, +1.02410724098E+001, +1.76575046467E+002
+7.60187734668E+006, +1.01291851831E+001, +1.79679748364E+002
+7.72690863579E+006, +1.04213987640E+001, +1.82752997081E+002
+7.85193992491E+006, +1.01863465208E+001, +1.85636153174E+002
+7.97697121402E+006, +1.03566188598E+001, +1.88896756057E+002
+8.10200250313E+006, +1.02904016517E+001, +1.92207426769E+002
+8.22703379224E+006, +1.03281584428E+001, +1.95064737549E+002
+8.35206508135E+006, +1.03920630458E+001, +1.98212761379E+002
+8.47709637046E+006, +1.05554777957E+001, +2.01146746759E+002
+8.60212765957E+006, +1.04419108992E+001, +2.04340986267E+002
+8.72715894869E+006, +1.06010159737E+001, +2.07253323346E+002
+8.85219023780E+006, +1.04502070794E+001, +2.10778428383E+002
+8.97722152691E+006, +1.08896673781E+001, +2.13772549209E+002
+9.10225281602E+006, +1.05826877464E+001, +2.16836205680E+002
+9.22728410513E+006, +1.10612395132E+001, +2.20035918984E+002
+9.35231539424E+006, +1.06384410889E+001, +2.23015442702E+002
+9.47734668335E+006, +1.08664734531E+001, +2.26201607979E+002
+9.60237797247E+006, +1.10883129399E+001, +2.29629627685E+002
+9.72740926158E+006, +1.10056290836E+001, +2.32630648586E+002
+9.85244055069E+006, +1.09600972663E+001, +2.35861219151E+002
+9.97747183980E+006, +1.12672564813E+001, +2.39140020232E+002
+1.01025031289E+007, +1.08387013944E+001, +2.42088001796E+002
+1.02275344180E+007, +1.14331554309E+001, +2.45411118129E+002
+1.03525657071E+007, +1.11761856164E+001, +2.48662104498E+002
+1.04775969962E+007, +1.11452097302E+001, +2.52163490978E+002
+1.06026282854E+007, +1.14300241449E+001, +2.54750365030E+002
+1.07276595745E+007, +1.10949917012E+001, +2.58558692791E+002
+1.08526908636E+007, +1.09912741615E+001, +2.61695851722E+002
+1.09777221527E+007, +1.15290280759E+001, +2.65113067191E+002
+1.11027534418E+007, +1.11249716378E+001, +2.68432668382E+002
+1.12277847309E+007, +1.15914080116E+001, +2.71531505502E+002
+1.13528160200E+007, +1.15963258230E+001, +2.74931058256E+002
+1.14778473091E+007, +1.21979644540E+001, +2.78656329788E+002
+1.16028785982E+007, +1.16117691323E+001, +2.81385075522E+002
+1.17279098874E+007, +1.16565001643E+001, +2.84813933265E+002
+1.18529411765E+007, +1.18660342771E+001, +2.87832094100E+002
+1.19779724656E+007, +1.15777846393E+001, +2.91512363582E+002
+1.21030037547E+007, +1.21795859205E+001, +2.94666594309E+002
+1.22280350438E+007, +1.21108627549E+001, +2.98251011719E+002
+1.23530663329E+007, +1.19190081401E+001, +3.02079980525E+002
+1.24780976220E+007, +1.23140248365E+001, +3.04807117116E+002
+1.26031289111E+007, +1.23521572910E+001, +3.07801073840E+002
+1.27281602003E+007, +1.20720866607E+001, +3.12018650196E+002
+1.28531914894E+007, +1.21220007861E+001, +3.15201800668E+002
+1.29782227785E+007, +1.19659559658E+001, +3.18307195421E+002
+1.31032540676E+007, +1.22332087614E+001, +3.22081870415E+002
+1.32282853567E+007, +1.28261929710E+001, +3.25277712129E+002
+1.33533166458E+007, +1.27418066504E+001, +3.29190909188E+002
+1.34783479349E+007, +1.22503383612E+001, +3.32838889045E+002
+1.36033792240E+007, +1.21822194055E+001, +3.35665716830E+002
+1.37284105131E+007, +1.31385644837E+001, +3.39456907574E+002
+1.38534418023E+007, +1.22383899018E+001, +3.42647921644E+002
+1.39784730914E+007, +1.28968133367E+001, +3.46899654860E+002
+1.41035043805E+007, +1.28751847426E+001, +3.49247540566E+002
+1.42285356696E+007, +1.28109431507E+001, +3.53699637006E+002
+1.43535669587E+007, +1.25461288086E+001, +3.57852313883E+002
+1.44785982478E+007, +1.29445330878E+001, +3.61543167270E+002
+1.46036295369E+007, +1.25388334300E+001, +3.65460516042E+002
+1.47286608260E+007, +1.28500770962E+001, +3.68442947026E+002
+1.48536921151E+007, +1.25672038118E+001, +3.72299801342E+002
+1.49787234043E+007, +1.32889539754E+001, +3.75769964642E+002
+1.51037546934E+007, +1.31587163399E+001, +3.78833402177E+002
+1.52287859825E+007, +1.27894491585E+001, +3.83192756585E+002
+1.53538172716E+007, +1.39355480086E+001, +3.87444138035E+002
+1.54788485607E+007, +1.35082244895E+001, +3.91206498183E+002
+1.56038798498E+007, +1.32740796576E+001, +3.95106960474E+002
+1.57289111389E+007, +1.37472432675E+001, +3.98187253550E+002
+1.58539424280E+007, +1.38803968589E+001, +4.00954516196E+002
+1.59789737171E+007, +1.29511267390E+001, +4.06370418068E+002
+1.61040050063E+007, +1.30055952477E+001, +4.10672435404E+002
+1.62290362954E+007, +1.33164125612E+001, +4.13790974114E+002
+1.63540675845E+007, +1.42191790879E+001, +4.17141919709E+002
+1.64790988736E+007, +1.34726105658E+001, +4.21798982486E+002
+1.66041301627E+007, +1.38205847902E+001, +4.25298769548E+002
+1.67291614518E+007, +1.42801470109E+001, +4.29644897656E+002
+1.68541927409E+007, +1.40169221169E+001, +4.33781546299E+002
+1.69792240300E+007, +1.49760297454E+001, +4.38236669240E+002
+1.71042553191E+007, +1.28679559866E+001, +4.41114172511E+002
+1.72292866083E+007, +1.46654083282E+001, +4.45011285299E+002
+1.73543178974E+007, +1.23236105015E+001, +4.49483205911E+002
+1.74793491865E+007, +1.26821196224E+001, +4.54379115365E+002
+1.76043804756E+007, +1.28212145255E+001, +4.57144911492E+002
+1.77294117647E+007, +1.32614761712E+001, +4.62348892403E+002
+1.78544430538E+007, +1.46708015402E+001, +4.63722581764E+002
+1.79794743429E+007, +1.44852865923E+001, +4.69980878585E+002
+1.81045056320E+007, +1.32927471190E+001, +4.74497024233E+002
+1.82295369212E+007, +1.48923219942E+001, +4.79486385483E+002
+1.83545682103E+007, +1.39547268036E+001, +4.82504495087E+002
+1.84795994994E+007, +1.43099494529E+001, +4.87174677821E+002
+1.86046307885E+007, +1.50716614112E+001, +4.90704615142E+002
+1.87296620776E+007, +1.55574216298E+001, +4.95068116994E+002
+1.88546933667E+007, +1.45477236223E+001, +5.01044492277E+002
+1.89797246558E+007, +1.67316562357E+001, +5.04033549347E+002
+1.91047559449E+007, +1.52657051670E+001, +5.07698800750E+002
+1.92297872340E+007, +1.59482309432E+001, +5.12299146755E+002
+1.93548185232E+007, +1.65365303271E+001, +5.16876047037E+002
+1.94798498123E+007, +1.59505640878E+001, +5.21017642583E+002
+1.96048811014E+007, +1.64862813868E+001, +5.26807556620E+002
+1.97299123905E+007, +1.59993159074E+001, +5.30854883685E+002
+1.98549436796E+007, +1.60650492296E+001, +5.35881700382E+002
+1.99799749687E+007, +1.66502425742E+001, +5.40696190716E+002
+2.01050062578E+007, +1.59100555473E+001, +5.44968190637E+002
+2.02300375469E+007, +1.60055161408E+001, +5.49465221806E+002
+2.03550688360E+007, +1.70053802702E+001, +5.53985156123E+002
+2.04801001252E+007, +1.62740464189E+001, +5.59226619780E+002
+2.06051314143E+007, +1.61892125054E+001, +5.62304381436E+002
+2.07301627034E+007, +1.77086313913E+001, +5.67974402926E+002
+2.08551939925E+007, +1.76312455519E+001, +5.72471876469E+002
+2.09802252816E+007, +1.79734006963E+001, +5.78346908609E+002
+2.11052565707E+007, +1.87510424212E+001, +5.79835084938E+002
+2.12302878598E+007, +1.83232865817E+001, +5.87300696440E+002
+2.13553191489E+007, +1.82207096786E+001, +5.93193015357E+002
+2.14803504380E+007, +1.83348532157E+001, +5.98423764110E+002
+2.16053817272E+007, +2.01823075263E+001, +6.02925849664E+002
+2.17304130163E+007, +1.91992813377E+001, +6.04195251814E+002
+2.18554443054E+007, +1.99481601249E+001, +6.11437200715E+002
+2.19804755945E+007, +1.85983997459E+001, +6.16276669219E+002
+2.21055068836E+007, +2.20470637581E+001, +6.22304851761E+002
+2.22305381727E+007, +2.32265451838E+001, +6.27110023556E+002
+2.23555694618E+007, +2.05231524721E+001, +6.31948618990E+002
+2.24806007509E+007, +2.15974986500E+001, +6.37081275228E+002
+2.26056320401E+007, +2.21064419955E+001, +6.42771805952E+002
+2.27306633292E+007, +2.31999776849E+001, +6.47431932954E+002
+2.28556946183E+007, +2.48044653008E+001, +6.53795228145E+002
+2.29807259074E+007, +2.35918945008E+001, +6.59343531602E+002
+2.31057571965E+007, +2.62674528347E+001, +6.62131612993E+002
+2.32307884856E+007, +2.54209905131E+001, +6.67858355526E+002
+2.33558197747E+007, +2.29310361824E+001, +6.73149055497E+002
+2.34808510638E+007, +2.64249828328E+001, +6.78603030841E+002
+2.36058823529E+007, +2.63815122626E+001, +6.82720689170E+002
+2.37309136421E+007, +2.74102059321E+001, +6.88076417450E+002
+2.38559449312E+007, +2.87190087227E+001, +6.95742227827E+002
+2.39809762203E+007, +2.69828695547E+001, +7.00118095650E+002
+2.41060075094E+007, +2.59022885489E+001, +7.03587589501E+002
+2.42310387985E+007, +2.50201777594E+001, +7.08443204118E+002
+2.43560700876E+007, +2.56941460075E+001, +7.12799189563E+002
+2.44811013767E+007, +2.66495001316E+001, +7.19542597390E+002
+2.46061326658E+007, +2.64763832327E+001, +7.26032310749E+002
+2.47311639549E+007, +2.67933547467E+001, +7.29463539500E+002
+2.48561952441E+007, +2.63601958304E+001, +7.39448645421E+002
+2.49812265332E+007, +2.72178583485E+001, +7.45806797610E+002
+2.51062578223E+007, +2.61005845100E+001, +7.52590696304E+002
+2.52312891114E+007, +3.05387595986E+001, +7.56376345514E+002
+2.53563204005E+007, +2.93402511751E+001, +7.64127947598E+002
+2.54813516896E+007, +2.36670811072E+001, +7.70909391254E+002
+2.56063829787E+007, +2.62453346720E+001, +7.76300719086E+002
+2.57314142678E+007, +2.62616666122E+001, +7.82339775030E+002
+2.58564455569E+007, +2.77611458131E+001, +7.88058599793E+002
+2.59814768461E+007, +2.76866072880E+001, +7.91936623745E+002
+2.61065081352E+007, +2.65439482344E+001, +7.97832803751E+002
+2.62315394243E+007, +2.69750089901E+001, +8.03387549462E+002
+2.63565707134E+007, +2.69609670344E+001, +8.14411264670E+002
+2.64816020025E+007, +2.73809013983E+001, +8.21274894763E+002
+2.66066332916E+007, +2.65514449335E+001, +8.26685829492E+002
+2.67316645807E+007, +2.68368935995E+001, +8.37288785694E+002
+2.68566958698E+007, +2.63745558282E+001, +8.43045062627E+002
+2.69817271589E+007, +2.64460914321E+001, +8.49209234958E+002
+2.71067584481E+007, +2.85643182161E+001, +8.51109026610E+002
+2.72317897372E+007, +2.82705651562E+001, +8.63238927912E+002
+2.73568210263E+007, +3.05596232566E+001, +8.68327577881E+002
+2.74818523154E+007, +3.02942663503E+001, +8.78869067923E+002
+2.76068836045E+007, +3.18583451191E+001, +8.88147012484E+002
+2.77319148936E+007, +3.22445906031E+001, +8.91526835580E+002
+2.78569461827E+007, +2.97349500267E+001, +8.96624291530E+002
+2.79819774718E+007, +2.82381320188E+001, +9.06995901424E+002
+2.81070087610E+007, +3.34909488282E+001, +9.17088829043E+002
+2.82320400501E+007, +2.98436538098E+001, +9.21848586536E+002
+2.83570713392E+007, +3.16366964218E+001, +9.26406456919E+002
+2.84821026283E+007, +3.57720686047E+001, +9.37319924608E+002
+2.86071339174E+007, +3.16332146942E+001, +9.47469529597E+002
+2.87321652065E+007, +3.84592231898E+001, +9.55073905756E+002
+2.88571964956E+007, +3.62350294018E+001, +9.62402479813E+002
+2.89822277847E+007, +3.49016172752E+001, +9.70574414929E+002
+2.91072590738E+007, +3.68107377284E+001, +9.78879615488E+002
+2.92322903630E+007, +3.34444269607E+001, +9.91373946178E+002
+2.93573216521E+007, +3.54767741622E+001, +9.94668673388E+002
+2.94823529412E+007, +3.21411667072E+001, +1.00359546610E+003
+2.96073842303E+007, +2.96542703618E+001, +1.00766614501E+003
+2.97324155194E+007, +3.61520683456E+001, +1.02910683394E+003
+2.98574468085E+007, +3.59788173556E+001, +1.03013483159E+003
+2.99824780976E+007, +3.82655925875E+001, +1.03601919019E+003
+3.01075093867E+007, +3.44869778735E+001, +1.04492626884E+003
+3.02325406758E+007, +3.26692665556E+001, +1.06367290754E+003
+3.03575719650E+007, +3.74933374555E+001, +1.06652436667E+003
+3.04826032541E+007, +2.99466203343E+001, +1.07577265199E+003
+3.06076345432E+007, +3.81213155121E+001, +1.08849247389E+003
+3.07326658323E+007, +3.85317720887E+001, +1.09620412865E+003
+3.08576971214E+007, +3.89500474910E+001, +1.10363466605E+003
+3.09827284105E+007, +3.90410858742E+001, +1.12287476851E+003
+3.11077596996E+007, +3.75566510244E+001, +1.12503663068E+003
+3.12327909887E+007, +3.96449872896E+001, +1.14168405584E+003
+3.13578222778E+007, +3.82104809389E+001, +1.14378260284E+003
+3.14828535670E+007, +4.18890512587E+001, +1.15450796959E+003
+3.16078848561E+007, +4.00002914313E+001, +1.17227823449E+003
+3.17329161452E+007, +4.34562380844E+001, +1.17714392983E+003
+3.18579474343E+007, +3.92231561848E+001, +1.18401196067E+003
+3.19829787234E+007, +4.19803886999E+001, +1.19537677179E+003
+3.21080100125E+007, +4.52657765808E+001, +1.21922661303E+003
+3.22330413016E+007, +4.75582569078E+001, +1.22049231586E+003
+3.23580725907E+007, +4.57266973307E+001, +1.23318476119E+003
+3.24831038798E+007, +4.59583236425E+001, +1.24613872741E+003
+3.26081351690E+007, +4.82004152868E+001, +1.24811309526E+003
+3.27331664581E+007, +5.19293772720E+001, +1.27347788620E+003
+3.28581977472E+007, +3.51598454037E+001, +1.27941286063E+003
+3.29832290363E+007, +4.44264124722E+001, +1.29889052576E+003
+3.31082603254E+007, +4.43716737246E+001, +1.30260978965E+003
+3.32332916145E+007, +5.05626406450E+001, +1.31825149051E+003
+3.33583229036E+007, +4.37464248661E+001, +1.33117325308E+003
+3.34833541927E+007, +5.21462851118E+001, +1.34753753710E+003
+3.36083854819E+007, +4.66906388580E+001, +1.36049534168E+003
+3.37334167710E+007, +5.60638030002E+001, +1.37353036302E+003
+3.38584480601E+007, +5.66391689860E+001, +1.38669308240E+003
+3.39834793492E+007, +5.15326165716E+001, +1.40398815877E+003
+3.41085106383E+007, +4.95203326960E+001, +1.40980138274E+003
+3.42335419274E+007, +5.49317282496E+001, +1.41994387876E+003
+3.43585732165E+007, +5.79099916319E+001, +1.44982744779E+003
+3.44836045056E+007, +6.21160548585E+001, +1.45934525485E+003
+3.46086357947E+007, +5.69712467427E+001, +1.47146025297E+003
+3.47336670839E+007, +5.18195155261E+001, +1.48746151909E+003
+3.48586983730E+007, +6.74369900517E+001, +1.49809976821E+003
+3.49837296621E+007, +6.74452691973E+001, +1.52546209347E+003
+3.51087609512E+007, +6.21062311520E+001, +1.53757867310E+003
+3.52337922403E+007, +7.72508784149E+001, +1.55214660165E+003
+3.53588235294E+007, +6.68960187889E+001, +1.58288443843E+003
+3.54838548185E+007, +6.18925305829E+001, +1.58722577084E+003
+3.56088861076E+007, +8.14413178264E+001, +1.59979349051E+003
+3.57339173967E+007, +8.43890033277E+001, +1.62352349507E+003
+3.58589486859E+007, +8.01489454575E+001, +1.63994106801E+003
+3.59839799750E+007, +7.34788190913E+001, +1.66781293791E+003
+3.61090112641E+007, +7.42694956394E+001, +1.68434594352E+003
+3.62340425532E+007, +7.54426753675E+001, +1.70092231517E+003
+3.63590738423E+007, +8.79118297761E+001, +1.72720656009E+003
+3.64841051314E+007, +8.60261444890E+001, +1.73586239302E+003
+3.66091364205E+007, +7.85978258476E+001, +1.77630509972E+003
+3.67341677096E+007, +8.18088267169E+001, +1.78200639481E+003
+3.68591989987E+007, +9.21293942357E+001, +1.79977472575E+003
+3.69842302879E+007, +9.24929405710E+001, +1.83431717709E+003
+3.71092615770E+007, +1.00700895758E+002, +1.84690680043E+003
+3.72342928661E+007, +1.06025528593E+002, +1.88158948942E+003
+3.73593241552E+007, +1.06157873942E+002, +1.89628941643E+003
+3.74843554443E+007, +1.14531751830E+002, +1.91751590207E+003
+3.76093867334E+007, +1.22295311166E+002, +1.95433987885E+003
+3.77344180225E+007, +1.22563427643E+002, +1.96622730201E+003
+3.78594493116E+007, +1.20887111792E+002, +1.98267332653E+003
+3.79844806008E+007, +1.17512650683E+002, +2.00797936830E+003
+3.81095118899E+007, +1.28348539696E+002, +2.02229989699E+003
+3.82345431790E+007, +1.28026811893E+002, +2.06667396524E+003
+3.83595744681E+007, +1.55026095647E+002, +2.09316269406E+003
+3.84846057572E+007, +1.58145910952E+002, +2.10162340364E+003
+3.86096370463E+007, +1.73124368709E+002, +2.13541616974E+003
+3.87346683354E+007, +1.60812956661E+002, +2.17273069744E+003
+3.88596996245E+007, +1.68515918065E+002, +2.20269973219E+003
+3.89847309136E+007, +1.56600086589E+002, +2.24085808739E+003
+3.91097622028E+007, +1.67364991257E+002, +2.24347329269E+003
+3.92347934919E+007, +1.58674546752E+002, +2.29042914421E+003
+3.93598247810E+007, +1.83501046150E+002, +2.33222119383E+003
+3.94848560701E+007, +2.14353947256E+002, +2.34430954445E+003
+3.96098873592E+007, +1.65802417913E+002, +2.39785379539E+003
+3.97349186483E+007, +1.79865578932E+002, +2.43313609060E+003
+3.98599499374E+007, +2.07968194658E+002, +2.46801885528E+003
+3.99849812265E+007, +2.33660245037E+002, +2.49552862906E+003
+4.01100125156E+007, +2.13116627050E+002, +2.52490788528E+003
