"# Channel 1"
"# Trace 1"
Frequency, Formatted Data, Formatted Data
+1.00000000000E+005, +6.99957217823E+000, +2.35716754421E+000
+2.25031289111E+005, +6.95512758040E+000, +5.23648593418E+000
+3.50062578223E+005, +6.97370135564E+000, +8.17700622551E+000
+4.75093867334E+005, +7.01522872363E+000, +1.10639027074E+001
+6.00125156446E+005, +6.96866827031E+000, +1.39554113096E+001
+7.25156445557E+005, +6.96959221414E+000, +1.69311480658E+001
+8.50187734668E+005, +6.98647755055E+000, +1.97872277314E+001
+9.75219023780E+005, +6.99207313175E+000, +2.26880261948E+001
+1.10025031289E+006, +6.98595565069E+000, +2.55489255667E+001
+1.22528160200E+006, +6.99850010773E+000, +2.84791178999E+001
+1.35031289111E+006, +6.98790803795E+000, +3.14058475009E+001
+1.47534418023E+006, +6.98522120028E+000, +3.42572508602E+001
+1.60037546934E+006, +6.99627297253E+000, +3.71549701502E+001
+1.72540675845E+006, +6.97997198417E+000, +4.00750179554E+001
+1.85043804756E+006, +7.01104918831E+000, +4.29256977786E+001
+1.97546933667E+006, +7.05279970250E+000, +4.59376965930E+001
+2.10050062578E+006, +6.99053931471E+000, +4.87166260720E+001
+2.22553191489E+006, +6.95377136006E+000, +5.16026366224E+001
+2.35056320401E+006, +7.03502744591E+000, +5.45320125923E+001
+2.47559449312E+006, +7.00732895721E+000, +5.73574541828E+001
+2.60062578223E+006, +6.88981977660E+000, +6.02899799935E+001
+2.72565707134E+006, +6.96621930416E+000, +6.31881630464E+001
+2.85068836045E+006, +6.97229327835E+000, +6.61571402636E+001
+2.97571964956E+006, +7.11140167765E+000, +6.90033802793E+001
+3.10075093867E+006, +6.94142353758E+000, +7.19625415550E+001
+3.22578222778E+006, +7.04737545240E+000, +7.48905827264E+001
+3.35081351690E+006, +7.11191293276E+000, +7.77708253097E+001
+3.47584480601E+006, +7.09504133701E+000, +8.06584295354E+001
+3.60087609512E+006, +7.00561341748E+000, +8.35879114265E+001
+3.72590738423E+006, +7.00473056710E+000, +8.64917312620E+001
+3.85093867334E+006, +7.12365265431E+000, +8.95195853976E+001
+3.97596996245E+006, +7.06619124110E+000, +9.22890816640E+001
+4.10100125156E+006, +7.18330736965E+000, +9.53833092151E+001
+4.22603254068E+006, +6.99875181821E+000, +9.81310931449E+001
+4.35106382979E+006, +7.02653576284E+000, +1.00833102296E+002
+4.47609511890E+006, +7.03487634681E+000, +1.03743533045E+002
+4.60112640801E+006, +6.97784410071E+000, +1.06923581757E+002
+4.72615769712E+006, +7.26322004051E+000, +1.09826606041E+002
+4.85118898623E+006, +7.16630804329E+000, +1.12660468154E+002
+4.97622027534E+006, +7.04379498202E+000, +1.15742920970E+002
+5.10125156446E+006, +7.38484018162E+000, +1.18730218014E+002
+5.22628285357E+006, +7.34444096689E+000, +1.21659998094E+002
+5.35131414268E+006, +7.06275555127E+000, +1.24188207917E+002
+5.47634543179E+006, +7.06526783244E+000, +1.27246012617E+002
+5.60137672090E+006, +7.25530991605E+000, +1.30398855001E+002
+5.72640801001E+006, +7.30548252715E+000, +1.33120939440E+002
+5.85143929912E+006, +7.41730701761E+000, +1.36245292939E+002
+5.97647058824E+006, +7.64078916174E+000, +1.39245516350E+002
+6.10150187735E+006, +7.44133973591E+000, +1.42078498589E+002
+6.22653316646E+006, +7.41867470763E+000, +1.45004586417E+002
+6.35156445557E+006, +7.52609318365E+000, +1.47889773883E+002
+6.47659574468E+006, +7.43570756033E+000, +1.50853139085E+002
+6.60162703379E+006, +7.57096824686E+000, +1.53744405156E+002
+6.72665832290E+006, +7.59864550894E+000, +1.56781590502E+002
+6.85168961202E+006, +7.72078118778E+000, +1.59744326692E+002
+6.97672090113E+006, +7.65830411341E+000, +1.62568815459E+002
+7.10175219024E+006, +7.76338937279E+000, +1.65522419883E+002
+7.22678347935E+006, +7.79339619277E+000, +1.68634655275E+002
+7.35181476846E+006, +7.79267357543E+000, +1.71612427146E+002
+7.47684605757E+006, +7.74135937225E+000, +1.74347136291E+002
+7.60187734668E+006, +7.81186753079E+000, +1.77263058747E+002
+7.72690863579E+006, +8.08425964170E+000, +1.80394196980E+002
+7.85193992491E+006, +7.84441815067E+000, +1.83264226124E+002
+7.97697121402E+006, +7.87377360721E+000, +1.86266566128E+002
+8.10200250313E+006, +8.12047420485E+000, +1.89263425127E+002
+8.22703379224E+006, +8.08822752489E+000, +1.92448707344E+002
+8.35206508135E+006, +8.23706265683E+000, +1.95267553775E+002
+8.47709637046E+006, +8.16440819964E+000, +1.98180944319E+002
+8.60212765957E+006, +8.06090438626E+000, +2.01125179034E+002
+8.72715894869E+006, +8.25639390726E+000, +2.03921981700E+002
+8.85219023780E+006, +8.19514404654E+000, +2.06693086374E+002
+8.97722152691E+006, +8.53068223401E+000, +2.10146108754E+002
+9.10225281602E+006, +8.06807834817E+000, +2.13025255302E+002
+9.22728410513E+006, +8.04112263426E+000, +2.15925754445E+002
+9.35231539424E+006, +8.20995078489E+000, +2.18923826851E+002
+9.47734668335E+006, +8.34023157937E+000, +2.21915424362E+002
+9.60237797247E+006, +8.36423141266E+000, +2.25051214141E+002
+9.72740926158E+006, +8.66120342489E+000, +2.27760486105E+002
+9.85244055069E+006, +8.61860743119E+000, +2.30983268365E+002
+9.97747183980E+006, +8.38786107410E+000, +2.34169773240E+002
+1.01025031289E+007, +8.10655208364E+000, +2.36774714454E+002
+1.02275344180E+007, +8.55131092463E+000, +2.39945999153E+002
+1.03525657071E+007, +8.32091162425E+000, +2.42482798782E+002
+1.04775969962E+007, +8.46402749894E+000, +2.45891672939E+002
+1.06026282854E+007, +8.59256802684E+000, +2.48887309513E+002
+1.07276595745E+007, +8.74048937725E+000, +2.52254862755E+002
+1.08526908636E+007, +8.38908402476E+000, +2.54609741893E+002
+1.09777221527E+007, +8.65406819377E+000, +2.57898208965E+002
+1.11027534418E+007, +8.47897683367E+000, +2.60763056501E+002
+1.12277847309E+007, +8.96665453547E+000, +2.63947498650E+002
+1.13528160200E+007, +8.31259433002E+000, +2.67012843535E+002
+1.14778473091E+007, +8.78820333247E+000, +2.69892821362E+002
+1.16028785982E+007, +8.37275037018E+000, +2.72494378784E+002
+1.17279098874E+007, +8.36642442701E+000, +2.76534167045E+002
+1.18529411765E+007, +8.64260342432E+000, +2.78984197149E+002
+1.19779724656E+007, +8.80356992617E+000, +2.82081824200E+002
+1.21030037547E+007, +8.79319557435E+000, +2.85161250911E+002
+1.22280350438E+007, +8.61334153478E+000, +2.88238218091E+002
+1.23530663329E+007, +9.17935694056E+000, +2.91265362386E+002
+1.24780976220E+007, +9.17792599590E+000, +2.94210880900E+002
+1.26031289111E+007, +8.94954940281E+000, +2.97181338805E+002
+1.27281602003E+007, +8.62419009403E+000, +2.99990408970E+002
+1.28531914894E+007, +8.44568302044E+000, +3.02859821897E+002
+1.29782227785E+007, +8.91884885193E+000, +3.06628691091E+002
+1.31032540676E+007, +9.18065594097E+000, +3.09626861704E+002
+1.32282853567E+007, +8.94497753589E+000, +3.12354592831E+002
+1.33533166458E+007, +9.28498922272E+000, +3.15780829535E+002
+1.34783479349E+007, +8.51127098273E+000, +3.18982245348E+002
+1.36033792240E+007, +9.10230003970E+000, +3.21646408160E+002
+1.37284105131E+007, +9.03352037559E+000, +3.25141611724E+002
+1.38534418023E+007, +9.14446253946E+000, +3.28201858645E+002
+1.39784730914E+007, +9.12939710980E+000, +3.31857041553E+002
+1.41035043805E+007, +9.04739825702E+000, +3.34584856735E+002
+1.42285356696E+007, +9.25434238355E+000, +3.37724277804E+002
+1.43535669587E+007, +9.93068340141E+000, +3.40242298123E+002
+1.44785982478E+007, +1.02598885076E+001, +3.43886621162E+002
+1.46036295369E+007, +9.73804160262E+000, +3.47153484038E+002
+1.47286608260E+007, +8.94654925590E+000, +3.49492341768E+002
+1.48536921151E+007, +9.55217689548E+000, +3.52830261054E+002
+1.49787234043E+007, +9.98579804775E+000, +3.56875445806E+002
+1.51037546934E+007, +1.00147453423E+001, +3.59285289492E+002
+1.52287859825E+007, +9.20417357649E+000, +3.62919135410E+002
+1.53538172716E+007, +8.98474682509E+000, +3.64704420583E+002
+1.54788485607E+007, +9.60168022566E+000, +3.68243876361E+002
+1.56038798498E+007, +1.01937881546E+001, +3.72360082565E+002
+1.57289111389E+007, +9.79023737128E+000, +3.74627059357E+002
+1.58539424280E+007, +1.02893141418E+001, +3.77881161897E+002
+1.59789737171E+007, +1.02036517307E+001, +3.81308672119E+002
+1.61040050063E+007, +9.58306639422E+000, +3.84050082181E+002
+1.62290362954E+007, +9.36941041684E+000, +3.87796408612E+002
+1.63540675845E+007, +9.21822156786E+000, +3.91135044274E+002
+1.64790988736E+007, +1.01492615954E+001, +3.94313418707E+002
+1.66041301627E+007, +1.10007683863E+001, +3.97581113163E+002
+1.67291614518E+007, +1.07413949721E+001, +4.00325082245E+002
+1.68541927409E+007, +9.21251632197E+000, +4.03304743814E+002
+1.69792240300E+007, +1.02666586031E+001, +4.06350179144E+002
+1.71042553191E+007, +8.88871787645E+000, +4.10449546785E+002
+1.72292866083E+007, +9.05912347439E+000, +4.13400400433E+002
+1.73543178974E+007, +1.04693869915E+001, +4.16809167556E+002
+1.74793491865E+007, +9.56459615175E+000, +4.19657670419E+002
+1.76043804756E+007, +9.03698297481E+000, +4.23463758393E+002
+1.77294117647E+007, +9.25340496521E+000, +4.26704359509E+002
+1.78544430538E+007, +9.34602065841E+000, +4.29777575599E+002
+1.79794743429E+007, +9.02767287803E+000, +4.32684621961E+002
+1.81045056320E+007, +1.02079308463E+001, +4.37339986593E+002
+1.82295369212E+007, +1.04630250005E+001, +4.39046377427E+002
+1.83545682103E+007, +9.71054685234E+000, +4.42571761430E+002
+1.84795994994E+007, +1.06435674037E+001, +4.46775951162E+002
+1.86046307885E+007, +9.71559776748E+000, +4.50239593314E+002
+1.87296620776E+007, +1.02709093151E+001, +4.52506132857E+002
+1.88546933667E+007, +1.02533039135E+001, +4.55687368151E+002
+1.89797246558E+007, +1.11119897326E+001, +4.60416327715E+002
+1.91047559449E+007, +1.06478446783E+001, +4.61515491988E+002
+1.92297872340E+007, +9.91588981503E+000, +4.65365516561E+002
+1.93548185232E+007, +1.07703241728E+001, +4.69952687335E+002
+1.94798498123E+007, +1.04483115124E+001, +4.73629370956E+002
+1.96048811014E+007, +1.16237882710E+001, +4.76417534303E+002
+1.97299123905E+007, +1.02762109115E+001, +4.80635481609E+002
+1.98549436796E+007, +1.10787532027E+001, +4.83014079389E+002
+1.99799749687E+007, +1.09547653392E+001, +4.88571636510E+002
+2.01050062578E+007, +1.10291544524E+001, +4.89973071569E+002
+2.02300375469E+007, +1.07740913747E+001, +4.93733525789E+002
+2.03550688360E+007, +1.09753707488E+001, +4.96828083803E+002
+2.04801001252E+007, +9.73774705179E+000, +5.01130199760E+002
+2.06051314143E+007, +1.15907040028E+001, +5.04046434311E+002
+2.07301627034E+007, +1.22146185131E+001, +5.08375220707E+002
+2.08551939925E+007, +1.24403689351E+001, +5.10297094878E+002
+2.09802252816E+007, +1.15986614163E+001, +5.14096398994E+002
+2.11052565707E+007, +1.12949316877E+001, +5.19155056443E+002
+2.12302878598E+007, +1.14514321093E+001, +5.21835725402E+002
+2.13553191489E+007, +1.05958276365E+001, +5.25943824987E+002
+2.14803504380E+007, +1.20245374712E+001, +5.30337548019E+002
+2.16053817272E+007, +1.12971223723E+001, +5.32637826024E+002
+2.17304130163E+007, +1.24666693807E+001, +5.37896042076E+002
+2.18554443054E+007, +1.21297875576E+001, +5.39130528628E+002
+2.19804755945E+007, +1.16982237311E+001, +5.43618951611E+002
+2.21055068836E+007, +1.23673772394E+001, +5.44620802543E+002
+2.22305381727E+007, +1.31048635920E+001, +5.51515955788E+002
+2.23555694618E+007, +1.28953098715E+001, +5.54997584918E+002
+2.24806007509E+007, +1.26750935073E+001, +5.58177681896E+002
+2.26056320401E+007, +1.43179468009E+001, +5.62520735988E+002
+2.27306633292E+007, +1.27005252790E+001, +5.66055069298E+002
+2.28556946183E+007, +1.57884233140E+001, +5.71813097322E+002
+2.29807259074E+007, +1.32581615975E+001, +5.71925409096E+002
+2.31057571965E+007, +1.46776040164E+001, +5.76740499780E+002
+2.32307884856E+007, +1.59814133710E+001, +5.80239645090E+002
+2.33558197747E+007, +1.34945294220E+001, +5.84079866314E+002
+2.34808510638E+007, +1.58911327810E+001, +5.87428655690E+002
+2.36058823529E+007, +1.55283174489E+001, +5.92973548171E+002
+2.37309136421E+007, +1.65863535111E+001, +5.96124030351E+002
+2.38559449312E+007, +1.59305666569E+001, +5.97499940351E+002
+2.39809762203E+007, +1.78775099863E+001, +6.02122878322E+002
+2.41060075094E+007, +1.39724896864E+001, +6.05689055585E+002
+2.42310387985E+007, +1.82300657675E+001, +6.10174978655E+002
+2.43560700876E+007, +1.62936204077E+001, +6.12603842592E+002
+2.44811013767E+007, +1.72109035581E+001, +6.18584581782E+002
+2.46061326658E+007, +2.02135618702E+001, +6.21765743156E+002
+2.47311639549E+007, +1.76134527809E+001, +6.23261551257E+002
+2.48561952441E+007, +1.85329424445E+001, +6.29469990334E+002
+2.49812265332E+007, +1.88795812590E+001, +6.31386518691E+002
+2.51062578223E+007, +1.85687318758E+001, +6.34655560512E+002
+2.52312891114E+007, +2.01426291225E+001, +6.38455860764E+002
+2.53563204005E+007, +1.95825888089E+001, +6.43442344273E+002
+2.54813516896E+007, +1.99172348368E+001, +6.47548650392E+002
+2.56063829787E+007, +2.06540405098E+001, +6.49949142431E+002
+2.57314142678E+007, +2.15437722841E+001, +6.54258261997E+002
+2.58564455569E+007, +2.18057284428E+001, +6.56239626240E+002
+2.59814768461E+007, +2.14715963330E+001, +6.59424533017E+002
+2.61065081352E+007, +2.28224458433E+001, +6.64784328308E+002
+2.62315394243E+007, +2.22749745676E+001, +6.68934741182E+002
+2.63565707134E+007, +2.42174221261E+001, +6.73827740466E+002
+2.64816020025E+007, +2.28226031495E+001, +6.77409225469E+002
+2.66066332916E+007, +2.39742896732E+001, +6.81969428380E+002
+2.67316645807E+007, +2.42996792490E+001, +6.83150902664E+002
+2.68566958698E+007, +2.37393856305E+001, +6.88993453770E+002
+2.69817271589E+007, +2.33138049553E+001, +6.93462912350E+002
+2.71067584481E+007, +2.51860208120E+001, +6.94679026096E+002
+2.72317897372E+007, +2.55333397840E+001, +6.99885557727E+002
+2.73568210263E+007, +2.77288352953E+001, +6.99097494140E+002
+2.74818523154E+007, +2.64657002517E+001, +7.06645459016E+002
+2.76068836045E+007, +2.60012014914E+001, +7.07272352556E+002
+2.77319148936E+007, +2.67928767971E+001, +7.13371368898E+002
+2.78569461827E+007, +2.58462957089E+001, +7.15926475226E+002
+2.79819774718E+007, +2.72097479136E+001, +7.21234022113E+002
+2.81070087610E+007, +2.76472571169E+001, +7.24869051565E+002
+2.82320400501E+007, +2.68607866871E+001, +7.30333358754E+002
+2.83570713392E+007, +2.62063488502E+001, +7.30914552246E+002
+2.84821026283E+007, +2.64133521997E+001, +7.33306566468E+002
+2.86071339174E+007, +2.38002625857E+001, +7.40738948562E+002
+2.87321652065E+007, +2.80787908224E+001, +7.44923493118E+002
+2.88571964956E+007, +2.41205894552E+001, +7.45466311732E+002
+2.89822277847E+007, +2.77837763248E+001, +7.52030622818E+002
+2.91072590738E+007, +2.65022999972E+001, +7.53703122788E+002
+2.92322903630E+007, +2.29292222685E+001, +7.61838306008E+002
+2.93573216521E+007, +2.81520196117E+001, +7.62626460970E+002
+2.94823529412E+007, +2.30402182033E+001, +7.70633338935E+002
+2.96073842303E+007, +2.53739327987E+001, +7.74227875783E+002
+2.97324155194E+007, +2.60042241054E+001, +7.74113086847E+002
+2.98574468085E+007, +2.44227705484E+001, +7.80862596572E+002
+2.99824780976E+007, +2.73269044131E+001, +7.81834893673E+002
+3.01075093867E+007, +2.37201912827E+001, +7.87810526191E+002
+3.02325406758E+007, +2.42797412726E+001, +7.93553046544E+002
+3.03575719650E+007, +2.41375428846E+001, +7.99129057854E+002
+3.04826032541E+007, +2.16959524357E+001, +8.04046205684E+002
+3.06076345432E+007, +2.49709604449E+001, +8.07772169992E+002
+3.07326658323E+007, +2.27855032235E+001, +8.12679440576E+002
+3.08576971214E+007, +2.31178317686E+001, +8.18787406817E+002
+3.09827284105E+007, +2.34755318145E+001, +8.21506483859E+002
+3.11077596996E+007, +2.09396937683E+001, +8.26493580312E+002
+3.12327909887E+007, +2.45846423205E+001, +8.30251406449E+002
+3.13578222778E+007, +2.19449622117E+001, +8.39951894346E+002
+3.14828535670E+007, +2.03556908079E+001, +8.37201042028E+002
+3.16078848561E+007, +2.36552511766E+001, +8.46112472198E+002
+3.17329161452E+007, +2.51219606319E+001, +8.46293497271E+002
+3.18579474343E+007, +2.28322106119E+001, +8.55284974549E+002
+3.19829787234E+007, +2.12484026389E+001, +8.61600973494E+002
+3.21080100125E+007, +2.29165303928E+001, +8.61715112146E+002
+3.22330413016E+007, +2.17971979377E+001, +8.67865155225E+002
+3.23580725907E+007, +2.16346105848E+001, +8.70904175204E+002
+3.24831038798E+007, +2.59524924974E+001, +8.80923944152E+002
+3.26081351690E+007, +2.63986364900E+001, +8.84061791032E+002
+3.27331664581E+007, +2.43881353465E+001, +8.89959351226E+002
+3.28581977472E+007, +2.49868600506E+001, +8.91277569254E+002
+3.29832290363E+007, +1.99266839403E+001, +8.98222816998E+002
+3.31082603254E+007, +2.27081662229E+001, +9.03927344109E+002
+3.32332916145E+007, +2.07620678658E+001, +9.09418352791E+002
+3.33583229036E+007, +2.14790721363E+001, +9.15744102001E+002
+3.34833541927E+007, +2.24489560329E+001, +9.16565956433E+002
+3.36083854819E+007, +2.21210897596E+001, +9.22901483984E+002
+3.37334167710E+007, +2.38601813383E+001, +9.22412006265E+002
+3.38584480601E+007, +1.91460044343E+001, +9.33253365709E+002
+3.39834793492E+007, +2.04509275443E+001, +9.42291552950E+002
+3.41085106383E+007, +2.47566416153E+001, +9.43448513051E+002
+3.42335419274E+007, +2.36800696263E+001, +9.52087219013E+002
+3.43585732165E+007, +2.09370233514E+001, +9.56339739570E+002
+3.44836045056E+007, +2.25991599850E+001, +9.59583067621E+002
+3.46086357947E+007, +2.42880883759E+001, +9.67103755023E+002
+3.47336670839E+007, +1.98644598715E+001, +9.69450960593E+002
+3.48586983730E+007, +2.45009242295E+001, +9.74365158045E+002
+3.49837296621E+007, +2.40525997786E+001, +9.79289891316E+002
+3.51087609512E+007, +2.06573895152E+001, +9.87743855554E+002
+3.52337922403E+007, +2.39597731022E+001, +9.94302330477E+002
+3.53588235294E+007, +2.38959922192E+001, +1.00032515161E+003
+3.54838548185E+007, +2.34513655307E+001, +1.00594250127E+003
+3.56088861076E+007, +2.73652056588E+001, +1.01187058592E+003
+3.57339173967E+007, +2.31185813686E+001, +1.01687226088E+003
+3.58589486859E+007, +2.19687031951E+001, +1.02205355609E+003
+3.59839799750E+007, +2.34698339819E+001, +1.02945962910E+003
+3.61090112641E+007, +2.23379236631E+001, +1.03302155341E+003
+3.62340425532E+007, +2.09805520514E+001, +1.03668100713E+003
+3.63590738423E+007, +2.92428370000E+001, +1.04606225300E+003
+3.64841051314E+007, +2.03593055513E+001, +1.05433659725E+003
+3.66091364205E+007, +2.55209397337E+001, +1.05981043545E+003
+3.67341677096E+007, +2.40318148276E+001, +1.07054419627E+003
+3.68591989987E+007, +2.26084470763E+001, +1.07762439526E+003
+3.69842302879E+007, +2.11858399586E+001, +1.08650010858E+003
+3.71092615770E+007, +2.03182810039E+001, +1.09182647321E+003
+3.72342928661E+007, +2.16471648525E+001, +1.09682357241E+003
+3.73593241552E+007, +2.32049738032E+001, +1.09775440027E+003
+3.74843554443E+007, +2.77250113691E+001, +1.11318787277E+003
+3.76093867334E+007, +1.79474601126E+001, +1.11454911266E+003
+3.77344180225E+007, +2.60581022759E+001, +1.12200781770E+003
+3.78594493116E+007, +2.59051284534E+001, +1.12545798349E+003
+3.79844806008E+007, +2.24134344039E+001, +1.13468239474E+003
+3.81095118899E+007, +2.12534981818E+001, +1.14593995346E+003
+3.82345431790E+007, +2.73176368285E+001, +1.15429202600E+003
+3.83595744681E+007, +2.80090228006E+001, +1.15522495877E+003
+3.84846057572E+007, +3.28151162303E+001, +1.16813729940E+003
+3.86096370463E+007, +2.00209631965E+001, +1.17631303172E+003
+3.87346683354E+007, +2.70979044441E+001, +1.17511793793E+003
+3.88596996245E+007, +2.94849896848E+001, +1.18160441698E+003
+3.89847309136E+007, +3.09074049173E+001, +1.20239969535E+003
+3.91097622028E+007, +2.49786607960E+001, +1.20026393782E+003
+3.92347934919E+007, +3.18538965085E+001, +1.21346908627E+003
+3.93598247810E+007, +2.80554934388E+001, +1.22508157650E+003
+3.94848560701E+007, +3.03112966931E+001, +1.22504828456E+003
+3.96098873592E+007, +2.78781279294E+001, +1.23705466588E+003
+3.97349186483E+007, +3.27613877328E+001, +1.24043210538E+003
+3.98599499374E+007, +2.97774472571E+001, +1.25393674279E+003
+3.99849812265E+007, +3.49643314915E+001, +1.26187733291E+003
+4.01100125156E+007, +3.03943443130E+001, +1.26831160618E+003
