"# Channel 1"
"# Trace 1"
Frequency, Formatted Data, Formatted Data
+1.00000000000E+005, +4.63702959639E+001, +2.18342240250E+000
+2.25031289111E+005, +4.63478076910E+001, +5.19052228400E+000
+3.50062578223E+005, +4.63569000624E+001, +8.06245921057E+000
+4.75093867334E+005, +4.64016473943E+001, +1.09567415476E+001
+6.00125156446E+005, +4.63954975900E+001, +1.38313927154E+001
+7.25156445557E+005, +4.63656146337E+001, +1.66791468941E+001
+8.50187734668E+005, +4.64589019513E+001, +1.95090845785E+001
+9.75219023780E+005, +4.64686410586E+001, +2.24007633459E+001
+1.10025031289E+006, +4.64803816093E+001, +2.52600624249E+001
+1.22528160200E+006, +4.64566634531E+001, +2.81292821584E+001
+1.35031289111E+006, +4.65096928555E+001, +3.09960962426E+001
+1.47534418023E+006, +4.65082468675E+001, +3.37872473283E+001
+1.60037546934E+006, +4.64889682399E+001, +3.67020901735E+001
+1.72540675845E+006, +4.65367063255E+001, +3.95619099701E+001
+1.85043804756E+006, +4.65500086340E+001, +4.24052779658E+001
+1.97546933667E+006, +4.65863275588E+001, +4.52889377371E+001
+2.10050062578E+006, +4.65465269066E+001, +4.81307493907E+001
+2.22553191489E+006, +4.65765342037E+001, +5.09599384502E+001
+2.35056320401E+006, +4.65992568152E+001, +5.38533481789E+001
+2.47559449312E+006, +4.66250006319E+001, +5.67248767161E+001
+2.60062578223E+006, +4.67077244305E+001, +5.95157021324E+001
+2.72565707134E+006, +4.66645003616E+001, +6.24760526225E+001
+2.85068836045E+006, +4.66675313552E+001, +6.53248487349E+001
+2.97571964956E+006, +4.66911878585E+001, +6.82603282348E+001
+3.10075093867E+006, +4.66760440681E+001, +7.10615951905E+001
+3.22578222778E+006, +4.67207516181E+001, +7.39177942835E+001
+3.35081351690E+006, +4.67840829932E+001, +7.66442952699E+001
+3.47584480601E+006, +4.66570425257E+001, +7.95830262880E+001
+3.60087609512E+006, +4.67978746571E+001, +8.26261765327E+001
+3.72590738423E+006, +4.67059876720E+001, +8.55886251521E+001
+3.85093867334E+006, +4.68948029266E+001, +8.86316314334E+001
+3.97596996245E+006, +4.68100958159E+001, +9.18126054056E+001
+4.10100125156E+006, +4.83298789645E+001, +9.18200069415E+001
+4.22603254068E+006, +4.67102602721E+001, +9.67645341394E+001
+4.35106382979E+006, +4.69681056473E+001, +9.96684636224E+001
+4.47609511890E+006, +4.68108008990E+001, +1.02719783535E+002
+4.60112640801E+006, +4.69335613521E+001, +1.05619855710E+002
+4.72615769712E+006, +4.71696501485E+001, +1.08605422657E+002
+4.85118898623E+006, +4.71080258089E+001, +1.11406246681E+002
+4.97622027534E+006, +4.70250357261E+001, +1.14353841216E+002
+5.10125156446E+006, +4.71426569238E+001, +1.17243189662E+002
+5.22628285357E+006, +4.72667174485E+001, +1.20198415665E+002
+5.35131414268E+006, +4.71440656002E+001, +1.23063673276E+002
+5.47634543179E+006, +4.72249821696E+001, +1.25980275710E+002
+5.60137672090E+006, +4.73708382296E+001, +1.28955430120E+002
+5.72640801001E+006, +4.71913125980E+001, +1.31703382300E+002
+5.85143929912E+006, +4.72488721159E+001, +1.34655144796E+002
+5.97647058824E+006, +4.73603573135E+001, +1.37810463303E+002
+6.10150187735E+006, +4.75775417793E+001, +1.40602769239E+002
+6.22653316646E+006, +4.76285135128E+001, +1.43687634697E+002
+6.35156445557E+006, +4.75192299323E+001, +1.46601286844E+002
+6.47659574468E+006, +4.75429460853E+001, +1.49633382464E+002
+6.60162703379E+006, +4.75253058744E+001, +1.52538903245E+002
+6.72665832290E+006, +4.77874633995E+001, +1.55532833406E+002
+6.85168961202E+006, +4.77526836510E+001, +1.58492004052E+002
+6.97672090113E+006, +4.78358014160E+001, +1.61366069341E+002
+7.10175219024E+006, +4.78415239217E+001, +1.64458303376E+002
+7.22678347935E+006, +4.80664663560E+001, +1.67348990891E+002
+7.35181476846E+006, +4.81376545552E+001, +1.70293582527E+002
+7.47684605757E+006, +4.79420171681E+001, +1.73294130805E+002
+7.60187734668E+006, +4.82577887876E+001, +1.76192698759E+002
+7.72690863579E+006, +4.83547050092E+001, +1.79364327986E+002
+7.85193992491E+006, +4.84057851525E+001, +1.82113999354E+002
+7.97697121402E+006, +4.83167766536E+001, +1.85201313456E+002
+8.10200250313E+006, +4.85395725674E+001, +1.88116699128E+002
+8.22703379224E+006, +4.87748841049E+001, +1.91152017968E+002
+8.35206508135E+006, +4.86202859694E+001, +1.94066760888E+002
+8.47709637046E+006, +4.85632022397E+001, +1.97169571897E+002
+8.60212765957E+006, +4.86169212807E+001, +2.00008102305E+002
+8.72715894869E+006, +4.89171524366E+001, +2.02824746843E+002
+8.85219023780E+006, +4.90256694169E+001, +2.05711950851E+002
+8.97722152691E+006, +4.91142247261E+001, +2.08789938747E+002
+9.10225281602E+006, +4.90708018074E+001, +2.11824528250E+002
+9.22728410513E+006, +4.90005750542E+001, +2.15145261918E+002
+9.35231539424E+006, +4.90694581719E+001, +2.18386166791E+002
+9.47734668335E+006, +4.90557374735E+001, +2.20918249882E+002
+9.60237797247E+006, +4.91107136856E+001, +2.23191892923E+002
+9.72740926158E+006, +4.92962204278E+001, +2.25871821969E+002
+9.85244055069E+006, +4.94739234760E+001, +2.28619690576E+002
+9.97747183980E+006, +4.94376426020E+001, +2.31278490629E+002
+1.01025031289E+007, +4.94514945319E+001, +2.34199320844E+002
+1.02275344180E+007, +4.95286438600E+001, +2.37300137237E+002
+1.03525657071E+007, +4.92394508105E+001, +2.39839726014E+002
+1.04775969962E+007, +4.93064858920E+001, +2.42985496510E+002
+1.06026282854E+007, +4.97446029883E+001, +2.46484352250E+002
+1.07276595745E+007, +4.97160851809E+001, +2.49643311127E+002
+1.08526908636E+007, +4.94662605060E+001, +2.53015504411E+002
+1.09777221527E+007, +4.98422656016E+001, +2.56183045680E+002
+1.11027534418E+007, +4.99152078662E+001, +2.59984544645E+002
+1.12277847309E+007, +4.97737576454E+001, +2.63191915099E+002
+1.13528160200E+007, +5.00694907829E+001, +2.67486958712E+002
+1.14778473091E+007, +4.97593634003E+001, +2.71058777196E+002
+1.16028785982E+007, +4.97210350230E+001, +2.74212854642E+002
+1.17279098874E+007, +5.02543937722E+001, +2.77369612284E+002
+1.18529411765E+007, +5.00133766605E+001, +2.80768761437E+002
+1.19779724656E+007, +5.00521824384E+001, +2.83371796262E+002
+1.21030037547E+007, +4.99403069987E+001, +2.87181032296E+002
+1.22280350438E+007, +5.03477919528E+001, +2.90264293744E+002
+1.23530663329E+007, +5.03747559291E+001, +2.93329802839E+002
+1.24780976220E+007, +5.06525099931E+001, +2.96774906673E+002
+1.26031289111E+007, +5.04937184700E+001, +3.00038708527E+002
+1.27281602003E+007, +5.05037786968E+001, +3.03453143134E+002
+1.28531914894E+007, +5.09331823744E+001, +3.06608566166E+002
+1.29782227785E+007, +5.07045790073E+001, +3.09460742436E+002
+1.31032540676E+007, +5.05601581346E+001, +3.12827090904E+002
+1.32282853567E+007, +5.06026932594E+001, +3.16297450478E+002
+1.33533166458E+007, +5.08241589743E+001, +3.19313833824E+002
+1.34783479349E+007, +5.08928584029E+001, +3.22951047321E+002
+1.36033792240E+007, +5.11342533492E+001, +3.26052388022E+002
+1.37284105131E+007, +5.16033078854E+001, +3.29695161101E+002
+1.38534418023E+007, +5.16905396377E+001, +3.32906837057E+002
+1.39784730914E+007, +5.13880072912E+001, +3.36558700226E+002
+1.41035043805E+007, +5.12327957650E+001, +3.39553884325E+002
+1.42285356696E+007, +5.16380768451E+001, +3.43315656478E+002
+1.43535669587E+007, +5.23190865259E+001, +3.46992901613E+002
+1.44785982478E+007, +5.15910723297E+001, +3.50147379507E+002
+1.46036295369E+007, +5.18100163683E+001, +3.53461354867E+002
+1.47286608260E+007, +5.23896322603E+001, +3.56351992202E+002
+1.48536921151E+007, +5.18401282478E+001, +3.60790355433E+002
+1.49787234043E+007, +5.22403340485E+001, +3.63690816923E+002
+1.51037546934E+007, +5.23450901413E+001, +3.67188693076E+002
+1.52287859825E+007, +5.23108968725E+001, +3.71032471085E+002
+1.53538172716E+007, +5.24921019415E+001, +3.74506655137E+002
+1.54788485607E+007, +5.28413804048E+001, +3.77688829007E+002
+1.56038798498E+007, +5.29080460125E+001, +3.81055684425E+002
+1.57289111389E+007, +5.29416244194E+001, +3.85594521541E+002
+1.58539424280E+007, +5.31487780628E+001, +3.89210932121E+002
+1.59789737171E+007, +5.33226497241E+001, +3.92118765344E+002
+1.61040050063E+007, +5.34295017758E+001, +3.95917478789E+002
+1.62290362954E+007, +5.31710154704E+001, +3.99393240577E+002
+1.63540675845E+007, +5.39526251871E+001, +4.02917804249E+002
+1.64790988736E+007, +5.40063659791E+001, +4.06614238492E+002
+1.66041301627E+007, +5.46603036444E+001, +4.10245269091E+002
+1.67291614518E+007, +5.42873708975E+001, +4.13603534884E+002
+1.68541927409E+007, +5.49233221565E+001, +4.17544962835E+002
+1.69792240300E+007, +5.49096676310E+001, +4.21387927286E+002
+1.71042553191E+007, +5.33883240709E+001, +4.24585820954E+002
+1.72292866083E+007, +5.47866619417E+001, +4.28179479052E+002
+1.73543178974E+007, +5.46558989305E+001, +4.32797778567E+002
+1.74793491865E+007, +5.48541832835E+001, +4.35497901855E+002
+1.76043804756E+007, +5.56321300467E+001, +4.38986966720E+002
+1.77294117647E+007, +5.48048781536E+001, +4.44272447300E+002
+1.78544430538E+007, +5.53551032794E+001, +4.47679404198E+002
+1.79794743429E+007, +5.49243849820E+001, +4.51922998744E+002
+1.81045056320E+007, +5.60475513521E+001, +4.55574877311E+002
+1.82295369212E+007, +5.59112700771E+001, +4.59166589548E+002
+1.83545682103E+007, +5.60465518831E+001, +4.63458580809E+002
+1.84795994994E+007, +5.57160210587E+001, +4.66916740499E+002
+1.86046307885E+007, +5.68882699653E+001, +4.71276753321E+002
+1.87296620776E+007, +5.64588445878E+001, +4.74782568121E+002
+1.88546933667E+007, +5.64299802307E+001, +4.78890139301E+002
+1.89797246558E+007, +5.76069495403E+001, +4.82196095755E+002
+1.91047559449E+007, +5.75429266468E+001, +4.87933130262E+002
+1.92297872340E+007, +5.71568496924E+001, +4.90464895543E+002
+1.93548185232E+007, +5.87035496261E+001, +4.96324267307E+002
+1.94798498123E+007, +5.84147641764E+001, +4.99450874387E+002
+1.96048811014E+007, +5.83947672797E+001, +5.03056812295E+002
+1.97299123905E+007, +5.88013627421E+001, +5.06941645272E+002
+1.98549436796E+007, +5.85320351929E+001, +5.12010599957E+002
+1.99799749687E+007, +5.83389369963E+001, +5.15543503586E+002
+2.01050062578E+007, +5.89891611280E+001, +5.20350932360E+002
+2.02300375469E+007, +5.96757159338E+001, +5.23436621992E+002
+2.03550688360E+007, +5.94791148051E+001, +5.27499668094E+002
+2.04801001252E+007, +6.09884771210E+001, +5.31158818184E+002
+2.06051314143E+007, +5.97107314843E+001, +5.36636420182E+002
+2.07301627034E+007, +6.12092214838E+001, +5.40524031447E+002
+2.08551939925E+007, +6.08431212777E+001, +5.44759442188E+002
+2.09802252816E+007, +6.09364033079E+001, +5.49890442103E+002
+2.11052565707E+007, +6.07214518307E+001, +5.53842360943E+002
+2.12302878598E+007, +6.15074755910E+001, +5.58240398884E+002
+2.13553191489E+007, +6.29153742087E+001, +5.62800839119E+002
+2.14803504380E+007, +6.18656282505E+001, +5.65443225877E+002
+2.16053817272E+007, +6.29430431193E+001, +5.70767320741E+002
+2.17304130163E+007, +6.28440650217E+001, +5.75479697931E+002
+2.18554443054E+007, +6.38177785436E+001, +5.80342749630E+002
+2.19804755945E+007, +6.23050314952E+001, +5.83703522682E+002
+2.21055068836E+007, +6.38177572369E+001, +5.89577343852E+002
+2.22305381727E+007, +6.38588318341E+001, +5.94508389650E+002
+2.23555694618E+007, +6.47794431776E+001, +5.98997566820E+002
+2.24806007509E+007, +6.42407277995E+001, +6.02167543133E+002
+2.26056320401E+007, +6.52433713162E+001, +6.08578899925E+002
+2.27306633292E+007, +6.58629661943E+001, +6.12723823838E+002
+2.28556946183E+007, +6.72793643120E+001, +6.18232149200E+002
+2.29807259074E+007, +6.70648106618E+001, +6.23664428695E+002
+2.31057571965E+007, +6.75711426755E+001, +6.27631130263E+002
+2.32307884856E+007, +6.75264159748E+001, +6.33284163565E+002
+2.33558197747E+007, +6.75248350516E+001, +6.38727590988E+002
+2.34808510638E+007, +6.98618430451E+001, +6.42755775373E+002
+2.36058823529E+007, +6.93051085935E+001, +6.48401996765E+002
+2.37309136421E+007, +6.97363878358E+001, +6.52950260851E+002
+2.38559449312E+007, +7.04748538168E+001, +6.57446897407E+002
+2.39809762203E+007, +7.07019543814E+001, +6.61863590218E+002
+2.41060075094E+007, +6.96841887657E+001, +6.65987565935E+002
+2.42310387985E+007, +7.05232811402E+001, +6.72694480578E+002
+2.43560700876E+007, +7.23611994141E+001, +6.76700991166E+002
+2.44811013767E+007, +7.32639364526E+001, +6.82346425071E+002
+2.46061326658E+007, +7.35937227818E+001, +6.86669364256E+002
+2.47311639549E+007, +7.45438778303E+001, +6.91678154861E+002
+2.48561952441E+007, +7.48380794394E+001, +6.96535372986E+002
+2.49812265332E+007, +7.49508866841E+001, +7.01924647089E+002
+2.51062578223E+007, +7.67469283216E+001, +7.06628237563E+002
+2.52312891114E+007, +7.75072938837E+001, +7.11736605570E+002
+2.53563204005E+007, +7.77074660384E+001, +7.17297495352E+002
+2.54813516896E+007, +7.87714649610E+001, +7.21445833631E+002
+2.56063829787E+007, +7.99338310159E+001, +7.25560256931E+002
+2.57314142678E+007, +7.96706547766E+001, +7.32937519739E+002
+2.58564455569E+007, +7.80020310173E+001, +7.34955538881E+002
+2.59814768461E+007, +8.09903816584E+001, +7.40612206195E+002
+2.61065081352E+007, +8.07839528280E+001, +7.49606840391E+002
+2.62315394243E+007, +7.95718054521E+001, +7.51895060406E+002
+2.63565707134E+007, +8.03782806951E+001, +7.57119331404E+002
+2.64816020025E+007, +8.30707839305E+001, +7.63051712085E+002
+2.66066332916E+007, +8.07358382406E+001, +7.68424038078E+002
+2.67316645807E+007, +8.12715877113E+001, +7.74701806265E+002
+2.68566958698E+007, +8.21434992727E+001, +7.78286002326E+002
+2.69817271589E+007, +8.36731746185E+001, +7.84268537964E+002
+2.71067584481E+007, +8.27947799668E+001, +7.91508005333E+002
+2.72317897372E+007, +8.30484038299E+001, +7.94731490230E+002
+2.73568210263E+007, +8.29478621014E+001, +8.03539595431E+002
+2.74818523154E+007, +8.25832223557E+001, +8.09687826076E+002
+2.76068836045E+007, +8.41040063642E+001, +8.15112907727E+002
+2.77319148936E+007, +8.42196663989E+001, +8.20529364948E+002
+2.78569461827E+007, +8.42672705899E+001, +8.27228400846E+002
+2.79819774718E+007, +8.65587113167E+001, +8.31504668478E+002
+2.81070087610E+007, +8.73051001422E+001, +8.38424303379E+002
+2.82320400501E+007, +8.74417756575E+001, +8.43758105703E+002
+2.83570713392E+007, +8.85269310223E+001, +8.49019855972E+002
+2.84821026283E+007, +8.53719093170E+001, +8.54503852575E+002
+2.86071339174E+007, +9.09276982104E+001, +8.63346700826E+002
+2.87321652065E+007, +8.92606170396E+001, +8.69687700392E+002
+2.88571964956E+007, +8.74207935746E+001, +8.77440353830E+002
+2.89822277847E+007, +9.14670014407E+001, +8.84537209431E+002
+2.91072590738E+007, +9.15817213249E+001, +8.92287592511E+002
+2.92322903630E+007, +9.01844298102E+001, +8.99821198312E+002
+2.93573216521E+007, +9.05602711173E+001, +9.05465498308E+002
+2.94823529412E+007, +9.03679206900E+001, +9.13928691468E+002
+2.96073842303E+007, +9.09876999686E+001, +9.19369794361E+002
+2.97324155194E+007, +9.28639092534E+001, +9.25587946074E+002
+2.98574468085E+007, +9.64790537263E+001, +9.31820481173E+002
+2.99824780976E+007, +9.27999263673E+001, +9.40535095650E+002
+3.01075093867E+007, +9.38121606428E+001, +9.46305426495E+002
+3.02325406758E+007, +9.53633993421E+001, +9.54880419651E+002
+3.03575719650E+007, +9.56804006826E+001, +9.63047311585E+002
+3.04826032541E+007, +9.92033796139E+001, +9.68494554737E+002
+3.06076345432E+007, +1.02100496936E+002, +9.80208188389E+002
+3.07326658323E+007, +1.02313724458E+002, +9.89273036509E+002
+3.08576971214E+007, +1.02996767445E+002, +9.88192339622E+002
+3.09827284105E+007, +1.02793282924E+002, +1.00294462362E+003
+3.11077596996E+007, +1.00950168268E+002, +1.00676314844E+003
+3.12327909887E+007, +1.01125365055E+002, +1.01548701172E+003
+3.13578222778E+007, +1.08348403933E+002, +1.02210551061E+003
+3.14828535670E+007, +1.05835080872E+002, +1.03404412578E+003
+3.16078848561E+007, +1.07471466052E+002, +1.03869842385E+003
+3.17329161452E+007, +1.09947393051E+002, +1.04934959479E+003
+3.18579474343E+007, +1.11947166077E+002, +1.06183848049E+003
+3.19829787234E+007, +1.12144562184E+002, +1.06495084306E+003
+3.21080100125E+007, +1.12899884463E+002, +1.06945721665E+003
+3.22330413016E+007, +1.15070427969E+002, +1.08592087386E+003
+3.23580725907E+007, +1.12617385350E+002, +1.09515834123E+003
+3.24831038798E+007, +1.10305921282E+002, +1.09398911852E+003
+3.26081351690E+007, +1.18151675371E+002, +1.11320999516E+003
+3.27331664581E+007, +1.21225725815E+002, +1.11732743293E+003
+3.28581977472E+007, +1.23836617358E+002, +1.12549107537E+003
+3.29832290363E+007, +1.22109917955E+002, +1.13515986491E+003
+3.31082603254E+007, +1.19675530274E+002, +1.14555169686E+003
+3.32332916145E+007, +1.25456357321E+002, +1.15970138071E+003
+3.33583229036E+007, +1.30383424502E+002, +1.16722032226E+003
+3.34833541927E+007, +1.35925984298E+002, +1.17221652357E+003
+3.36083854819E+007, +1.31667644447E+002, +1.18342395734E+003
+3.37334167710E+007, +1.32892676015E+002, +1.19477412831E+003
+3.38584480601E+007, +1.32267023016E+002, +1.20567435659E+003
+3.39834793492E+007, +1.31713340660E+002, +1.21851177480E+003
+3.41085106383E+007, +1.40915353076E+002, +1.22233472887E+003
+3.42335419274E+007, +1.44020288452E+002, +1.23123509146E+003
+3.43585732165E+007, +1.38480559269E+002, +1.24158471036E+003
+3.44836045056E+007, +1.42931705587E+002, +1.25671830741E+003
+3.46086357947E+007, +1.45521053699E+002, +1.26923514540E+003
+3.47336670839E+007, +1.42151964107E+002, +1.27452160718E+003
+3.48586983730E+007, +1.49260021351E+002, +1.28649980235E+003
+3.49837296621E+007, +1.49375551319E+002, +1.29918476416E+003
+3.51087609512E+007, +1.60121558060E+002, +1.30730564682E+003
+3.52337922403E+007, +1.52852968790E+002, +1.31769690287E+003
+3.53588235294E+007, +1.58975083917E+002, +1.33252044451E+003
+3.54838548185E+007, +1.62934290986E+002, +1.34775225431E+003
+3.56088861076E+007, +1.66496303321E+002, +1.35831729931E+003
+3.57339173967E+007, +1.68953974088E+002, +1.36768694953E+003
+3.58589486859E+007, +1.69498813336E+002, +1.38352078012E+003
+3.59839799750E+007, +1.68916088972E+002, +1.38982997963E+003
+3.61090112641E+007, +1.72245683023E+002, +1.40329258246E+003
+3.62340425532E+007, +1.78066311038E+002, +1.41218087279E+003
+3.63590738423E+007, +1.79424239371E+002, +1.43640538699E+003
+3.64841051314E+007, +1.78754839773E+002, +1.44663915940E+003
+3.66091364205E+007, +1.80595353443E+002, +1.45772519558E+003
+3.67341677096E+007, +1.88769019951E+002, +1.46883700744E+003
+3.68591989987E+007, +1.90184232679E+002, +1.48172093346E+003
+3.69842302879E+007, +1.99219482677E+002, +1.50981316523E+003
+3.71092615770E+007, +1.97006097232E+002, +1.51439235538E+003
+3.72342928661E+007, +2.02108880831E+002, +1.52510847794E+003
+3.73593241552E+007, +1.96985662045E+002, +1.54896225715E+003
+3.74843554443E+007, +2.07980263356E+002, +1.56271862387E+003
+3.76093867334E+007, +2.06281783518E+002, +1.58259084217E+003
+3.77344180225E+007, +2.18473197117E+002, +1.59073131386E+003
+3.78594493116E+007, +2.14090509355E+002, +1.60399373935E+003
+3.79844806008E+007, +2.19270382815E+002, +1.61236976288E+003
+3.81095118899E+007, +2.25852670732E+002, +1.63342228006E+003
+3.82345431790E+007, +2.28312351198E+002, +1.65558679310E+003
+3.83595744681E+007, +2.33416327687E+002, +1.66207338517E+003
+3.84846057572E+007, +2.35823169678E+002, +1.69962121718E+003
+3.86096370463E+007, +2.41222748419E+002, +1.69544564669E+003
+3.87346683354E+007, +2.38769457398E+002, +1.73254685972E+003
+3.88596996245E+007, +2.56649720347E+002, +1.74362386065E+003
+3.89847309136E+007, +2.56935723327E+002, +1.76689091184E+003
+3.91097622028E+007, +2.62875341151E+002, +1.78533826866E+003
+3.92347934919E+007, +2.79931951615E+002, +1.79072791541E+003
+3.93598247810E+007, +2.64635689755E+002, +1.80454808862E+003
+3.94848560701E+007, +2.81472555009E+002, +1.83406825958E+003
+3.96098873592E+007, +2.88364845743E+002, +1.85120677293E+003
+3.97349186483E+007, +2.85575653265E+002, +1.88301099652E+003
+3.98599499374E+007, +3.04633382655E+002, +1.89214668627E+003
+3.99849812265E+007, +3.05369553837E+002, +1.92408625089E+003
+4.01100125156E+007, +3.25037721890E+002, +1.93238992664E+003
