"# Channel 1"
"# Trace 1"
Frequency, Formatted Data, Formatted Data
+1.00000000000E+005, +1.00726159894E+001, +2.18216391721E+000
+2.66777963272E+005, +1.00604419594E+001, +5.81788923385E+000
+4.33555926544E+005, +1.00652295990E+001, +9.47469483261E+000
+6.00333889816E+005, +1.00782073866E+001, +1.30808107730E+001
+7.67111853088E+005, +1.01208813703E+001, +1.67383949571E+001
+9.33889816361E+005, +1.01167496446E+001, +2.03332537850E+001
+1.10066777963E+006, +1.00733974959E+001, +2.40032408560E+001
+1.26744574290E+006, +1.01112185380E+001, +2.76214390704E+001
+1.43422370618E+006, +1.00500667726E+001, +3.13164735687E+001
+1.60100166945E+006, +1.01283851990E+001, +3.48831277622E+001
+1.76777963272E+006, +1.01261786047E+001, +3.85037638849E+001
+1.93455759599E+006, +1.01336237281E+001, +4.20944603026E+001
+2.10133555927E+006, +1.01397573059E+001, +4.57234953096E+001
+2.26811352254E+006, +1.01988520409E+001, +4.93734414321E+001
+2.43489148581E+006, +1.01580355812E+001, +5.31248505153E+001
+2.60166944908E+006, +1.01736221207E+001, +5.66652783756E+001
+2.76844741235E+006, +1.01380384536E+001, +6.04280319783E+001
+2.93522537563E+006, +1.01735877707E+001, +6.40212358350E+001
+3.10200333890E+006, +1.03002567223E+001, +6.75835766755E+001
+3.26878130217E+006, +1.01266453389E+001, +7.12785379430E+001
+3.43555926544E+006, +1.02907220723E+001, +7.50037073001E+001
+3.60233722871E+006, +1.02672039250E+001, +7.86397257548E+001
+3.76911519199E+006, +1.03328617254E+001, +8.24763297784E+001
+3.93589315526E+006, +1.03713653301E+001, +8.58879790245E+001
+4.10267111853E+006, +9.93549080696E+000, +8.93496022304E+001
+4.26944908180E+006, +1.02606865164E+001, +9.38142022852E+001
+4.43622704508E+006, +1.04103184784E+001, +9.71003163149E+001
+4.60300500835E+006, +1.03998129490E+001, +1.00922467352E+002
+4.76978297162E+006, +1.03635268026E+001, +1.04529704488E+002
+4.93656093489E+006, +1.05057384089E+001, +1.08263862627E+002
+5.10333889816E+006, +1.05591501389E+001, +1.12070454235E+002
+5.27011686144E+006, +1.09647899920E+001, +1.15889011826E+002
+5.43689482471E+006, +1.07609400572E+001, +1.19417589445E+002
+5.60367278798E+006, +1.07697353911E+001, +1.23421172109E+002
+5.77045075125E+006, +1.06935786210E+001, +1.26907310630E+002
+5.93722871452E+006, +1.11244141594E+001, +1.30730000119E+002
+6.10400667780E+006, +1.10329347488E+001, +1.34651571875E+002
+6.27078464107E+006, +1.12471220402E+001, +1.38217629384E+002
+6.43756260434E+006, +1.12642930032E+001, +1.42015461989E+002
+6.60434056761E+006, +1.14288675446E+001, +1.45721434823E+002
+6.77111853088E+006, +1.15732973910E+001, +1.49413158357E+002
+6.93789649416E+006, +1.14779781824E+001, +1.53231752529E+002
+7.10467445743E+006, +1.14884502446E+001, +1.57043816099E+002
+7.27145242070E+006, +1.15988062483E+001, +1.60687229195E+002
+7.43823038397E+006, +1.16973012407E+001, +1.64359338294E+002
+7.60500834725E+006, +1.18235699400E+001, +1.68375676238E+002
+7.77178631052E+006, +1.18647579499E+001, +1.72321936508E+002
+7.93856427379E+006, +1.17297200963E+001, +1.75701654405E+002
+8.10534223706E+006, +1.18495621229E+001, +1.79855561809E+002
+8.27212020033E+006, +1.18466365028E+001, +1.83776895416E+002
+8.43889816361E+006, +1.18555407814E+001, +1.87598982876E+002
+8.60567612688E+006, +1.16658022037E+001, +1.91517426639E+002
+8.77245409015E+006, +1.17684760639E+001, +1.95313577070E+002
+8.93923205342E+006, +1.18654886325E+001, +1.99430204248E+002
+9.10601001669E+006, +1.17960354989E+001, +2.03476791769E+002
+9.27278797997E+006, +1.16958354856E+001, +2.07289043643E+002
+9.43956594324E+006, +1.17122771147E+001, +2.11442198973E+002
+9.60634390651E+006, +1.19518255845E+001, +2.15276141075E+002
+9.77312186978E+006, +1.19198183152E+001, +2.19378496905E+002
+9.93989983306E+006, +1.22710810491E+001, +2.23346405071E+002
+1.01066777963E+007, +1.19833736614E+001, +2.27295672020E+002
+1.02734557596E+007, +1.21169442907E+001, +2.31450702228E+002
+1.04402337229E+007, +1.19896467973E+001, +2.35521102124E+002
+1.06070116861E+007, +1.17351738344E+001, +2.39492943425E+002
+1.07737896494E+007, +1.20831835575E+001, +2.44124759658E+002
+1.09405676127E+007, +1.26432722325E+001, +2.47861247748E+002
+1.11073455760E+007, +1.24425325644E+001, +2.51963731622E+002
+1.12741235392E+007, +1.25581578615E+001, +2.55937064494E+002
+1.14409015025E+007, +1.27721508874E+001, +2.60120347763E+002
+1.16076794658E+007, +1.27025328258E+001, +2.64343760218E+002
+1.17744574290E+007, +1.27848283704E+001, +2.69128576065E+002
+1.19412353923E+007, +1.24557670600E+001, +2.73330223192E+002
+1.21080133556E+007, +1.23808845530E+001, +2.77529673821E+002
+1.22747913189E+007, +1.30787039619E+001, +2.81929258152E+002
+1.24415692821E+007, +1.27092004653E+001, +2.86352884664E+002
+1.26083472454E+007, +1.26449706054E+001, +2.90711614844E+002
+1.27751252087E+007, +1.29080170663E+001, +2.94508207137E+002
+1.29419031720E+007, +1.25039747124E+001, +2.98727387339E+002
+1.31086811352E+007, +1.34046104163E+001, +3.03272925536E+002
+1.32754590985E+007, +1.32406205525E+001, +3.07806385637E+002
+1.34422370618E+007, +1.31678337987E+001, +3.12250906319E+002
+1.36090150250E+007, +1.39734422518E+001, +3.16556676743E+002
+1.37757929883E+007, +1.31021598623E+001, +3.20950022979E+002
+1.39425709516E+007, +1.38016232468E+001, +3.25099060781E+002
+1.41093489149E+007, +1.34831689433E+001, +3.30000545836E+002
+1.42761268781E+007, +1.41721649690E+001, +3.34831106125E+002
+1.44429048414E+007, +1.43399675651E+001, +3.39142296445E+002
+1.46096828047E+007, +1.41300341582E+001, +3.43900469531E+002
+1.47764607679E+007, +1.45789248038E+001, +3.47642535289E+002
+1.49432387312E+007, +1.46795306710E+001, +3.52855069656E+002
+1.51100166945E+007, +1.42993911367E+001, +3.57530098314E+002
+1.52767946578E+007, +1.48817942003E+001, +3.62132843975E+002
+1.54435726210E+007, +1.51841098772E+001, +3.66852625389E+002
+1.56103505843E+007, +1.55406619596E+001, +3.71085387556E+002
+1.57771285476E+007, +1.55737612000E+001, +3.75974283974E+002
+1.59439065109E+007, +1.61448243573E+001, +3.81141390162E+002
+1.61106844741E+007, +1.59072325145E+001, +3.85831116788E+002
+1.62774624374E+007, +1.59546380269E+001, +3.90392054301E+002
+1.64442404007E+007, +1.57934570180E+001, +3.95365212589E+002
+1.66110183639E+007, +1.70607534045E+001, +4.00412248423E+002
+1.67777963272E+007, +1.63856907635E+001, +4.05415284669E+002
+1.69445742905E+007, +1.69463255916E+001, +4.09837612758E+002
+1.71113522538E+007, +1.46847715526E+001, +4.14536657985E+002
+1.72781302170E+007, +1.60396810176E+001, +4.20635144558E+002
+1.74449081803E+007, +1.54643926746E+001, +4.24491848816E+002
+1.76116861436E+007, +1.72881131075E+001, +4.30553712028E+002
+1.77784641068E+007, +1.66276117398E+001, +4.34145026473E+002
+1.79452420701E+007, +1.74552750047E+001, +4.39716546606E+002
+1.81120200334E+007, +1.80303771402E+001, +4.44699269885E+002
+1.82787979967E+007, +1.79500388496E+001, +4.50060072442E+002
+1.84455759599E+007, +1.84972955457E+001, +4.55649669151E+002
+1.86123539232E+007, +1.85199543459E+001, +4.60915152034E+002
+1.87791318865E+007, +1.80108628451E+001, +4.66624512898E+002
+1.89459098497E+007, +1.83190305296E+001, +4.72149592897E+002
+1.91126878130E+007, +1.81964400786E+001, +4.77915400700E+002
+1.92794657763E+007, +1.92734473734E+001, +4.82841489063E+002
+1.94462437396E+007, +1.98549490464E+001, +4.89346159899E+002
+1.96130217028E+007, +1.91822267004E+001, +4.94208394343E+002
+1.97797996661E+007, +1.97460627612E+001, +4.99793436570E+002
+1.99465776294E+007, +1.85279499150E+001, +5.04934739794E+002
+2.01133555927E+007, +1.95154236290E+001, +5.11077559614E+002
+2.02801335559E+007, +2.00301712297E+001, +5.17713107117E+002
+2.04469115192E+007, +2.13189940861E+001, +5.22511965145E+002
+2.06136894825E+007, +2.11898179236E+001, +5.28059638971E+002
+2.07804674457E+007, +2.19055429327E+001, +5.34977649986E+002
+2.09472454090E+007, +2.09143807178E+001, +5.41184504381E+002
+2.11140233723E+007, +2.24362889006E+001, +5.44893202295E+002
+2.12808013356E+007, +2.31390949797E+001, +5.52017005240E+002
+2.14475792988E+007, +2.27908177790E+001, +5.59765193750E+002
+2.16143572621E+007, +2.34585312614E+001, +5.64370781338E+002
+2.17811352254E+007, +2.20069458838E+001, +5.69209976522E+002
+2.19479131886E+007, +2.44687362607E+001, +5.77463123478E+002
+2.21146911519E+007, +2.63090853764E+001, +5.83304459995E+002
+2.22814691152E+007, +2.52532976406E+001, +5.90498044943E+002
+2.24482470785E+007, +2.48842898068E+001, +5.97192669188E+002
+2.26150250417E+007, +2.89937740344E+001, +6.02944082372E+002
+2.27818030050E+007, +2.64742523821E+001, +6.09811629747E+002
+2.29485809683E+007, +3.15619584793E+001, +6.16466742198E+002
+2.31153589316E+007, +2.81333157022E+001, +6.25851370954E+002
+2.32821368948E+007, +3.13435286350E+001, +6.32064020735E+002
+2.34489148581E+007, +3.05540906912E+001, +6.36989991665E+002
+2.36156928214E+007, +3.31615012037E+001, +6.43717795770E+002
+2.37824707846E+007, +3.30327962483E+001, +6.51644952097E+002
+2.39492487479E+007, +3.32391172772E+001, +6.55334959845E+002
+2.41160267112E+007, +3.52773823236E+001, +6.63783297596E+002
+2.42828046745E+007, +3.28784311568E+001, +6.72083756141E+002
+2.44495826377E+007, +3.84722755029E+001, +6.79009255831E+002
+2.46163606010E+007, +3.71634502389E+001, +6.83965479139E+002
+2.47831385643E+007, +3.72705897561E+001, +6.92004437891E+002
+2.49499165275E+007, +4.17667251996E+001, +7.02108082938E+002
+2.51166944908E+007, +4.26447149137E+001, +7.06672975766E+002
+2.52834724541E+007, +4.48600024278E+001, +7.14857286775E+002
+2.54502504174E+007, +4.48660460954E+001, +7.22789351097E+002
+2.56170283806E+007, +4.49114708648E+001, +7.27666264872E+002
+2.57838063439E+007, +4.63140504052E+001, +7.36572348708E+002
+2.59505843072E+007, +4.79803655475E+001, +7.46605360288E+002
+2.61173622705E+007, +5.04282993597E+001, +7.52095642927E+002
+2.62841402337E+007, +5.12027284340E+001, +7.57873613721E+002
+2.64509181970E+007, +5.23824140394E+001, +7.64703693978E+002
+2.66176961603E+007, +5.15607588559E+001, +7.75741261299E+002
+2.67844741235E+007, +5.14253523357E+001, +7.82902442268E+002
+2.69512520868E+007, +5.47087913668E+001, +7.89795310331E+002
+2.71180300501E+007, +5.54211733671E+001, +7.94399545833E+002
+2.72848080134E+007, +5.82964893916E+001, +8.04365769563E+002
+2.74515859766E+007, +5.90183688709E+001, +8.12135413853E+002
+2.76183639399E+007, +5.51040797301E+001, +8.18338420553E+002
+2.77851419032E+007, +5.81308775078E+001, +8.24291413930E+002
+2.79519198664E+007, +5.87506587931E+001, +8.31513178011E+002
+2.81186978297E+007, +6.14048274675E+001, +8.38980021545E+002
+2.82854757930E+007, +5.99738304066E+001, +8.48291352935E+002
+2.84522537563E+007, +5.45301948573E+001, +8.57590829864E+002
+2.86190317195E+007, +5.83584953537E+001, +8.64591170497E+002
+2.87858096828E+007, +6.44995757615E+001, +8.75277612213E+002
+2.89525876461E+007, +6.13563585275E+001, +8.83697684832E+002
+2.91193656093E+007, +5.63467161040E+001, +8.91281303687E+002
+2.92861435726E+007, +5.63672510138E+001, +9.02919440855E+002
+2.94529215359E+007, +6.08144537244E+001, +9.14968266513E+002
+2.96196994992E+007, +6.27328817342E+001, +9.20773655298E+002
+2.97864774624E+007, +6.16923730702E+001, +9.36621650945E+002
+2.99532554257E+007, +6.39743742126E+001, +9.45462433787E+002
+3.01200333890E+007, +6.04779920155E+001, +9.58197690272E+002
+3.02868113523E+007, +5.76429760556E+001, +9.67873295773E+002
+3.04535893155E+007, +5.88725887052E+001, +9.79816162076E+002
+3.06203672788E+007, +6.33303516916E+001, +9.90834448806E+002
+3.07871452421E+007, +6.17709408112E+001, +1.00161226254E+003
+3.09539232053E+007, +6.23967580715E+001, +1.01266302781E+003
+3.11207011686E+007, +6.00844559919E+001, +1.03463369317E+003
+3.12874791319E+007, +6.22509561716E+001, +1.03712713606E+003
+3.14542570952E+007, +6.45689884810E+001, +1.05024565868E+003
+3.16210350584E+007, +6.37094834636E+001, +1.06277698167E+003
+3.17878130217E+007, +6.37883255641E+001, +1.07526467953E+003
+3.19545909850E+007, +6.39639849208E+001, +1.08771089528E+003
+3.21213689482E+007, +6.04908412104E+001, +1.10373463370E+003
+3.22881469115E+007, +6.28269288506E+001, +1.11311448101E+003
+3.24549248748E+007, +7.15898434396E+001, +1.13083266460E+003
+3.26217028381E+007, +6.81269682589E+001, +1.14341312567E+003
+3.27884808013E+007, +7.04172953521E+001, +1.15453854235E+003
+3.29552587646E+007, +7.36660256451E+001, +1.17663074335E+003
+3.31220367279E+007, +8.41122841612E+001, +1.18599702070E+003
+3.32888146912E+007, +7.26256844977E+001, +1.20548242691E+003
+3.34555926544E+007, +7.56248928845E+001, +1.21941192403E+003
+3.36223706177E+007, +8.07425052180E+001, +1.23590405048E+003
+3.37891485810E+007, +7.27407030934E+001, +1.24882319952E+003
+3.39559265442E+007, +8.03098427544E+001, +1.27675639809E+003
+3.41227045075E+007, +7.77059423734E+001, +1.27825425124E+003
+3.42894824708E+007, +8.40332183009E+001, +1.30240735262E+003
+3.44562604341E+007, +7.90843599665E+001, +1.31705696255E+003
+3.46230383973E+007, +9.06036341066E+001, +1.34072282980E+003
+3.47898163606E+007, +8.68533667737E+001, +1.35764612235E+003
+3.49565943239E+007, +9.86021600420E+001, +1.37219816198E+003
+3.51233722871E+007, +9.60283659154E+001, +1.39134343431E+003
+3.52901502504E+007, +1.00834383079E+002, +1.40182910926E+003
+3.54569282137E+007, +1.00318707824E+002, +1.42993743359E+003
+3.56237061770E+007, +9.28108843842E+001, +1.44266063182E+003
+3.57904841402E+007, +1.04266146323E+002, +1.47828234006E+003
+3.59572621035E+007, +1.11586977035E+002, +1.49735910598E+003
+3.61240400668E+007, +1.08699058220E+002, +1.52349153315E+003
+3.62908180301E+007, +1.13039284514E+002, +1.54582561795E+003
+3.64575959933E+007, +1.09768824248E+002, +1.56905281709E+003
+3.66243739566E+007, +1.18357827210E+002, +1.57856890355E+003
+3.67911519199E+007, +1.17898932802E+002, +1.61332973687E+003
+3.69579298831E+007, +1.15295876722E+002, +1.64652075074E+003
+3.71247078464E+007, +1.20808836344E+002, +1.67484759830E+003
+3.72914858097E+007, +1.30156650514E+002, +1.70585658224E+003
+3.74582637730E+007, +1.56289348109E+002, +1.73975908333E+003
+3.76250417362E+007, +1.40824083589E+002, +1.75683646385E+003
+3.77918196995E+007, +1.50212518937E+002, +1.78882754561E+003
+3.79585976628E+007, +1.45648156543E+002, +1.82181582483E+003
+3.81253756260E+007, +1.55508702153E+002, +1.86078891233E+003
+3.82921535893E+007, +1.65670681705E+002, +1.88457644418E+003
+3.84589315526E+007, +1.80346327045E+002, +1.93965964782E+003
+3.86257095159E+007, +1.66794061437E+002, +1.97614395241E+003
+3.87924874791E+007, +1.75615252212E+002, +1.99784086938E+003
+3.89592654424E+007, +1.98185181853E+002, +2.02359521758E+003
+3.91260434057E+007, +2.12563490413E+002, +2.09114819568E+003
+3.92928213689E+007, +2.13352994012E+002, +2.11082489488E+003
+3.94595993322E+007, +2.05622257667E+002, +2.16596040423E+003
+3.96263772955E+007, +2.07517576648E+002, +2.20314641183E+003
+3.97931552588E+007, +2.23357143999E+002, +2.27204081632E+003
+3.99599332220E+007, +2.60532772478E+002, +2.30664567381E+003
+4.01267111853E+007, +2.69058111793E+002, +2.37549146057E+003
+4.02934891486E+007, +2.46909441216E+002, +2.38744792367E+003
+4.04602671119E+007, +2.88379161364E+002, +2.46125825362E+003
+4.06270450751E+007, +3.08868313248E+002, +2.52323748170E+003
+4.07938230384E+007, +3.27037402703E+002, +2.60037375358E+003
+4.09606010017E+007, +3.53059514628E+002, +2.63352462341E+003
+4.11273789649E+007, +3.64543800912E+002, +2.69018927045E+003
+4.12941569282E+007, +3.70420247351E+002, +2.78982623263E+003
+4.14609348915E+007, +4.16331548051E+002, +2.88622673647E+003
+4.16277128548E+007, +4.41529481106E+002, +2.91853782233E+003
+4.17944908180E+007, +4.79972068692E+002, +2.97689440456E+003
+4.19612687813E+007, +4.97491568641E+002, +3.06971049288E+003
+4.21280467446E+007, +5.33939802152E+002, +3.14482814426E+003
+4.22948247078E+007, +5.65180874789E+002, +3.25679516298E+003
+4.24616026711E+007, +6.14527433102E+002, +3.30928912618E+003
+4.26283806344E+007, +7.17502534708E+002, +3.45925278796E+003
+4.27951585977E+007, +6.79536719618E+002, +3.62086308059E+003
+4.29619365609E+007, +8.07623303432E+002, +3.70190057732E+003
+4.31287145242E+007, +8.96087401019E+002, +3.77653199859E+003
+4.32954924875E+007, +9.06201130252E+002, +3.94509758318E+003
+4.34622704508E+007, +9.93739967509E+002, +4.13588114053E+003
+4.36290484140E+007, +1.11017485905E+003, +4.11765677298E+003
+4.37958263773E+007, +1.22556090910E+003, +4.40714242640E+003
+4.39626043406E+007, +1.36271890604E+003, +4.51554056901E+003
+4.41293823038E+007, +1.59976553899E+003, +4.72192645667E+003
+4.42961602671E+007, +1.65994158142E+003, +4.97608645258E+003
+4.44629382304E+007, +1.83683514583E+003, +5.13292265170E+003
+4.46297161937E+007, +2.10205492199E+003, +5.29803955552E+003
+4.47964941569E+007, +2.31425450740E+003, +5.47950591850E+003
+4.49632721202E+007, +2.68047724871E+003, +5.75360556548E+003
+4.51300500835E+007, +2.91665105737E+003, +5.95675697445E+003
+4.52968280467E+007, +3.40563081805E+003, +5.94564840207E+003
+4.54636060100E+007, +4.22634197040E+003, +6.40698967006E+003
+4.56303839733E+007, +4.60024996042E+003, +6.60244733752E+003
+4.57971619366E+007, +5.15644970980E+003, +6.65740459834E+003
+4.59639398998E+007, +6.53021190169E+003, +6.79226698766E+003
+4.61307178631E+007, +6.98761159239E+003, +5.71158369709E+003
+4.62974958264E+007, +7.72741786874E+003, +5.75222785856E+003
+4.64642737896E+007, +8.64902875218E+003, +5.33287084886E+003
+4.66310517529E+007, +9.51020641625E+003, +4.26546918684E+003
+4.67978297162E+007, +9.19361269561E+003, +3.36338015346E+003
+4.69646076795E+007, +1.00482781699E+004, +2.59838199122E+003
+4.71313856427E+007, +9.91273551235E+003, +1.45751875937E+003
+4.72981636060E+007, +9.46268776602E+003, +2.88416389725E+002
+4.74649415693E+007, +9.38536321626E+003, -6.25072948455E+002
+4.76317195326E+007, +8.64836565327E+003, -9.83191881943E+002
+4.77984974958E+007, +7.83650063583E+003, -1.61259633831E+003
+4.79652754591E+007, +7.58828920029E+003, -1.90111789707E+003
+4.81320534224E+007, +7.08762333735E+003, -1.88607602665E+003
+4.82988313856E+007, +6.70673319054E+003, -2.21651355502E+003
+4.84656093489E+007, +6.33852368172E+003, -2.15107464119E+003
+4.86323873122E+007, +5.91940975735E+003, -2.27374632247E+003
+4.87991652755E+007, +5.58319886612E+003, -2.31869220590E+003
+4.89659432387E+007, +5.44026348249E+003, -2.30606062010E+003
+4.91327212020E+007, +4.99564871767E+003, -2.35886667128E+003
+4.92994991653E+007, +4.82139660347E+003, -2.21834327855E+003
+4.94662771285E+007, +4.68511972853E+003, -2.23235532279E+003
+4.96330550918E+007, +4.61768809083E+003, -2.07974394462E+003
+4.97998330551E+007, +4.40855322630E+003, -2.09697929004E+003
+4.99666110184E+007, +4.32014414105E+003, -2.06341513491E+003
+5.01333889816E+007, +4.29486981026E+003, -1.98291413943E+003
+5.03001669449E+007, +4.37467838545E+003, -1.96537950532E+003
+5.04669449082E+007, +4.31179820832E+003, -1.97957383208E+003
+5.06337228715E+007, +4.26353074247E+003, -2.05473858036E+003
+5.08005008347E+007, +4.48864020127E+003, -2.05012084232E+003
+5.09672787980E+007, +4.38859813471E+003, -2.10600029089E+003
+5.11340567613E+007, +4.35731715022E+003, -2.29805575254E+003
+5.13008347245E+007, +4.42199890280E+003, -2.60033540796E+003
+5.14676126878E+007, +4.48912397148E+003, -2.67497754552E+003
+5.16343906511E+007, +4.15402510016E+003, -2.90820360197E+003
+5.18011686144E+007, +4.26013690275E+003, -3.18970120249E+003
+5.19679465776E+007, +3.98887075841E+003, -3.45157348074E+003
+5.21347245409E+007, +3.71423022684E+003, -3.46567384323E+003
+5.23015025042E+007, +3.28491924949E+003, -3.58521739620E+003
+5.24682804674E+007, +3.07153203059E+003, -3.80229668785E+003
+5.26350584307E+007, +2.85655876592E+003, -3.74453938213E+003
+5.28018363940E+007, +2.59055290902E+003, -3.85001179475E+003
+5.29686143573E+007, +2.29255434438E+003, -3.66015142558E+003
+5.31353923205E+007, +2.20967373689E+003, -3.65786910584E+003
+5.33021702838E+007, +1.96397863799E+003, -3.56482584675E+003
+5.34689482471E+007, +1.78441792342E+003, -3.42273357888E+003
