"# Channel 1"
"# Trace 1"
Frequency, Formatted Data, Formatted Data
+1.00000000000E+006, +2.71155041292E+001, +2.34034766545E+001
+1.16527545910E+006, +2.71560547323E+001, +2.72567178948E+001
+1.33055091820E+006, +2.71624642600E+001, +3.11378606299E+001
+1.49582637730E+006, +2.71964853554E+001, +3.50159541220E+001
+1.66110183639E+006, +2.71811195773E+001, +3.88863815609E+001
+1.82637729549E+006, +2.71882188103E+001, +4.27290513639E+001
+1.99165275459E+006, +2.72385437525E+001, +4.65845180450E+001
+2.15692821369E+006, +2.72745347872E+001, +5.05147638325E+001
+2.32220367279E+006, +2.73023813455E+001, +5.44328551409E+001
+2.48747913189E+006, +2.73197409528E+001, +5.83518702246E+001
+2.65275459098E+006, +2.73700379253E+001, +6.22835849806E+001
+2.81803005008E+006, +2.74937038347E+001, +6.61513371459E+001
+2.98330550918E+006, +2.74086075495E+001, +7.01123821681E+001
+3.14858096828E+006, +2.74936413356E+001, +7.40931640948E+001
+3.31385642738E+006, +2.74732360751E+001, +7.80445228215E+001
+3.47913188648E+006, +2.75691864139E+001, +8.20056777667E+001
+3.64440734558E+006, +2.74932165412E+001, +8.59934169088E+001
+3.80968280467E+006, +2.75947710196E+001, +8.99986169590E+001
+3.97495826377E+006, +2.76527490206E+001, +9.41277353337E+001
+4.14023372287E+006, +2.80207618339E+001, +9.63108422097E+001
+4.30550918197E+006, +2.74321100234E+001, +1.02261616220E+002
+4.47078464107E+006, +2.77695866367E+001, +1.06174518471E+002
+4.63606010017E+006, +2.78177639505E+001, +1.10281100304E+002
+4.80133555927E+006, +2.78320043090E+001, +1.14372412423E+002
+4.96661101836E+006, +2.80156550465E+001, +1.18376062872E+002
+5.13188647746E+006, +2.81304852987E+001, +1.22443407107E+002
+5.29716193656E+006, +2.79489724784E+001, +1.26613276335E+002
+5.46243739566E+006, +2.80834533358E+001, +1.30537232870E+002
+5.62771285476E+006, +2.80734825527E+001, +1.34677633945E+002
+5.79298831386E+006, +2.81668355285E+001, +1.39146873597E+002
+5.95826377295E+006, +2.81240474523E+001, +1.43421804751E+002
+6.12353923205E+006, +2.83348896834E+001, +1.47439974571E+002
+6.28881469115E+006, +2.83414091812E+001, +1.51934277387E+002
+6.45409015025E+006, +2.84812795349E+001, +1.56152689635E+002
+6.61936560935E+006, +2.86512591914E+001, +1.60478505025E+002
+6.78464106845E+006, +2.86491898106E+001, +1.64980739106E+002
+6.94991652755E+006, +2.86456288222E+001, +1.69176759534E+002
+7.11519198664E+006, +2.88464183586E+001, +1.73509251691E+002
+7.28046744574E+006, +2.88995774092E+001, +1.78012419780E+002
+7.44574290484E+006, +2.88170155718E+001, +1.82303188952E+002
+7.61101836394E+006, +2.89824280656E+001, +1.86910997551E+002
+7.77629382304E+006, +2.92009902981E+001, +1.91456818689E+002
+7.94156928214E+006, +2.89540800228E+001, +1.95779544162E+002
+8.10684474124E+006, +2.90610595503E+001, +2.00525498698E+002
+8.27212020033E+006, +2.91652269200E+001, +2.05002051729E+002
+8.43739565943E+006, +2.90634324135E+001, +2.09741655628E+002
+8.60267111853E+006, +2.91579599983E+001, +2.14311675354E+002
+8.76794657763E+006, +2.93954404149E+001, +2.18475721774E+002
+8.93322203673E+006, +2.95459809210E+001, +2.23353423588E+002
+9.09849749583E+006, +2.94449990054E+001, +2.28338759395E+002
+9.26377295492E+006, +2.92837785616E+001, +2.33391274392E+002
+9.42904841402E+006, +2.91651662082E+001, +2.38652942351E+002
+9.59432387312E+006, +2.97725113505E+001, +2.42468024766E+002
+9.75959933222E+006, +2.97962377639E+001, +2.46916482550E+002
+9.92487479132E+006, +3.01214976206E+001, +2.51251218096E+002
+1.00901502504E+007, +3.01277037672E+001, +2.56071657706E+002
+1.02554257095E+007, +3.02674206513E+001, +2.60871133958E+002
+1.04207011686E+007, +3.01207047119E+001, +2.65786863666E+002
+1.05859766277E+007, +3.00727228444E+001, +2.70999787218E+002
+1.07512520868E+007, +3.03238566946E+001, +2.76601974450E+002
+1.09165275459E+007, +2.99956318432E+001, +2.82409659701E+002
+1.10818030050E+007, +2.98601059121E+001, +2.88514633863E+002
+1.12470784641E+007, +3.02270462068E+001, +2.94630540445E+002
+1.14123539232E+007, +2.97745837521E+001, +3.01047138895E+002
+1.15776293823E+007, +2.97795817070E+001, +3.07290571091E+002
+1.17429048414E+007, +2.96767517019E+001, +3.12884975424E+002
+1.19081803005E+007, +2.97635197116E+001, +3.18519824005E+002
+1.20734557596E+007, +2.99883389271E+001, +3.24623370434E+002
+1.22387312187E+007, +3.02664098690E+001, +3.30419068252E+002
+1.24040066778E+007, +2.99762450184E+001, +3.36554908639E+002
+1.25692821369E+007, +2.96646801311E+001, +3.42859995914E+002
+1.27345575960E+007, +3.05218273979E+001, +3.48810499250E+002
+1.28998330551E+007, +3.01216300944E+001, +3.54543559382E+002
+1.30651085142E+007, +3.00837372569E+001, +3.60707183491E+002
+1.32303839733E+007, +3.05635525413E+001, +3.66902802639E+002
+1.33956594324E+007, +3.03656728753E+001, +3.73346842199E+002
+1.35609348915E+007, +3.03331061126E+001, +3.80628081091E+002
+1.37262103506E+007, +3.06830071801E+001, +3.87224141088E+002
+1.38914858097E+007, +3.11793294572E+001, +3.94147504352E+002
+1.40567612688E+007, +3.08267176746E+001, +4.01162534157E+002
+1.42220367279E+007, +3.13648420440E+001, +4.07527801618E+002
+1.43873121870E+007, +3.02706500148E+001, +4.15268259146E+002
+1.45525876461E+007, +3.09656952848E+001, +4.21858719483E+002
+1.47178631052E+007, +3.09459098728E+001, +4.28808888935E+002
+1.48831385643E+007, +3.13527633483E+001, +4.36609551170E+002
+1.50484140234E+007, +3.11433292616E+001, +4.44399016992E+002
+1.52136894825E+007, +3.18722303597E+001, +4.52259834410E+002
+1.53789649416E+007, +3.09044642951E+001, +4.59833496538E+002
+1.55442404007E+007, +3.22342070823E+001, +4.68153461912E+002
+1.57095158598E+007, +3.23660139536E+001, +4.76583888231E+002
+1.58747913189E+007, +3.20645822601E+001, +4.84359054259E+002
+1.60400667780E+007, +3.18289781518E+001, +4.93206317930E+002
+1.62053422371E+007, +3.25040235414E+001, +5.01660615478E+002
+1.63706176962E+007, +3.31316070133E+001, +5.10539303147E+002
+1.65358931553E+007, +3.31646351573E+001, +5.18414376957E+002
+1.67011686144E+007, +3.37482256077E+001, +5.27192115879E+002
+1.68664440735E+007, +3.34249516917E+001, +5.37398005046E+002
+1.70317195326E+007, +3.20236096866E+001, +5.46483387009E+002
+1.71969949917E+007, +3.33227290424E+001, +5.54848466531E+002
+1.73622704508E+007, +3.34351603486E+001, +5.64202853918E+002
+1.75275459098E+007, +3.31404624290E+001, +5.76323896005E+002
+1.76928213689E+007, +3.42278384054E+001, +5.85070018665E+002
+1.78580968280E+007, +3.37412778176E+001, +5.93693208358E+002
+1.80233722871E+007, +3.34154079390E+001, +6.06775958228E+002
+1.81886477462E+007, +3.53095014935E+001, +6.17379853035E+002
+1.83539232053E+007, +3.53571606722E+001, +6.28116324610E+002
+1.85191986644E+007, +3.66541642536E+001, +6.39146660738E+002
+1.86844741235E+007, +3.56122482004E+001, +6.50976623406E+002
+1.88497495826E+007, +3.64471949097E+001, +6.62486037035E+002
+1.90150250417E+007, +3.59603570717E+001, +6.75678098058E+002
+1.91803005008E+007, +3.61417301677E+001, +6.87799423564E+002
+1.93455759599E+007, +3.86263183389E+001, +6.99567997640E+002
+1.95108514190E+007, +3.82691489806E+001, +7.13489177239E+002
+1.96761268781E+007, +3.68164346740E+001, +7.25054563769E+002
+1.98414023372E+007, +3.95155762893E+001, +7.40173257604E+002
+2.00066777963E+007, +3.81497664445E+001, +7.54011690258E+002
+2.01719532554E+007, +3.97641113187E+001, +7.67773168224E+002
+2.03372287145E+007, +3.99499251958E+001, +7.80921788320E+002
+2.05025041736E+007, +4.07779261186E+001, +7.97862648917E+002
+2.06677796327E+007, +4.15143277297E+001, +8.09783404872E+002
+2.08330550918E+007, +4.25360500245E+001, +8.27183538601E+002
+2.09983305509E+007, +4.41373879378E+001, +8.44110903235E+002
+2.11636060100E+007, +4.35028190786E+001, +8.60457031693E+002
+2.13288814691E+007, +4.45433894934E+001, +8.77545854933E+002
+2.14941569282E+007, +4.56967634233E+001, +8.95101473946E+002
+2.16594323873E+007, +4.56818273432E+001, +9.12107851605E+002
+2.18247078464E+007, +4.50323200944E+001, +9.34767361308E+002
+2.19899833055E+007, +4.84492999425E+001, +9.50405556215E+002
+2.21552587646E+007, +4.62967986310E+001, +9.70075577290E+002
+2.23205342237E+007, +4.85603653068E+001, +9.94090535665E+002
+2.24858096828E+007, +4.79761266580E+001, +1.01308692739E+003
+2.26510851419E+007, +5.00952465128E+001, +1.03796290522E+003
+2.28163606010E+007, +4.43955157205E+001, +1.06111678485E+003
+2.29816360601E+007, +5.32327537861E+001, +1.08874936587E+003
+2.31469115192E+007, +4.90890295083E+001, +1.10937699022E+003
+2.33121869783E+007, +5.76619307655E+001, +1.13657791672E+003
+2.34774624374E+007, +5.29040839835E+001, +1.16000471238E+003
+2.36427378965E+007, +5.37959429063E+001, +1.18482380518E+003
+2.38080133556E+007, +6.50647968886E+001, +1.21542978926E+003
+2.39732888147E+007, +5.52310084860E+001, +1.24821290647E+003
+2.41385642738E+007, +5.56060697719E+001, +1.28161923884E+003
+2.43038397329E+007, +6.07642795380E+001, +1.30986163715E+003
+2.44691151920E+007, +6.27419766299E+001, +1.34495706672E+003
+2.46343906511E+007, +6.26374312644E+001, +1.38165532534E+003
+2.47996661102E+007, +6.76058018411E+001, +1.40620013715E+003
+2.49649415693E+007, +7.01318610836E+001, +1.45050277567E+003
+2.51302170284E+007, +7.11150316708E+001, +1.48914744055E+003
+2.52954924875E+007, +7.46140394049E+001, +1.53120616250E+003
+2.54607679466E+007, +7.62949404389E+001, +1.58292345806E+003
+2.56260434057E+007, +8.13745144196E+001, +1.61730015020E+003
+2.57913188648E+007, +8.44108843296E+001, +1.67668070815E+003
+2.59565943239E+007, +8.88968596987E+001, +1.72278917600E+003
+2.61218697830E+007, +9.02668464131E+001, +1.78084286176E+003
+2.62871452421E+007, +9.09902435319E+001, +1.83358670836E+003
+2.64524207012E+007, +9.65349722672E+001, +1.88699596258E+003
+2.66176961603E+007, +1.05345759799E+002, +1.97268124917E+003
+2.67829716194E+007, +1.10695897362E+002, +2.03346443605E+003
+2.69482470785E+007, +1.32381098934E+002, +2.08471276087E+003
+2.71135225376E+007, +1.26652012173E+002, +2.17550698053E+003
+2.72787979967E+007, +1.32304366822E+002, +2.25238683443E+003
+2.74440734558E+007, +1.20297660971E+002, +2.34870540696E+003
+2.76093489149E+007, +1.65806928659E+002, +2.42503360471E+003
+2.77746243740E+007, +1.58601962085E+002, +2.54164894372E+003
+2.79398998331E+007, +1.77273325924E+002, +2.66154973692E+003
+2.81051752922E+007, +2.27407594537E+002, +2.75216558079E+003
+2.82704507513E+007, +2.11492798611E+002, +2.89307407593E+003
+2.84357262104E+007, +2.11169257520E+002, +3.03004218471E+003
+2.86010016694E+007, +2.62860140995E+002, +3.17009843673E+003
+2.87662771285E+007, +3.04571806168E+002, +3.32426090904E+003
+2.89315525876E+007, +3.50975063945E+002, +3.53202298543E+003
+2.90968280467E+007, +3.89203844468E+002, +3.77136125304E+003
+2.92621035058E+007, +4.74337562917E+002, +3.96206622429E+003
+2.94273789649E+007, +4.64563797463E+002, +4.22305355363E+003
+2.95926544240E+007, +5.69448869443E+002, +4.46688100625E+003
+2.97579298831E+007, +6.91832152322E+002, +4.74104728886E+003
+2.99232053422E+007, +6.94302350592E+002, +5.16454650049E+003
+3.00884808013E+007, +9.36301865599E+002, +5.51092593931E+003
+3.02537562604E+007, +1.11283798971E+003, +5.95935196232E+003
+3.04190317195E+007, +1.43585149347E+003, +6.64947719858E+003
+3.05843071786E+007, +1.62713683026E+003, +7.19281875412E+003
+3.07495826377E+007, +2.15466397053E+003, +8.02751308885E+003
+3.09148580968E+007, +2.61784314831E+003, +8.95411234370E+003
+3.10801335559E+007, +2.84866334498E+003, +1.01900191421E+004
+3.12454090150E+007, +4.21532094790E+003, +1.16475911525E+004
+3.14106844741E+007, +7.08496596519E+003, +1.43364319766E+004
+3.15759599332E+007, +8.93328352241E+003, +1.63919918044E+004
+3.17412353923E+007, +1.49861839417E+004, +1.86481132744E+004
+3.19065108514E+007, +2.60950383232E+004, +1.54840204252E+004
+3.20717863105E+007, +3.20482134586E+004, +5.92595284770E+003
+3.22370617696E+007, +2.83113898121E+004, -8.01649337119E+003
+3.24023372287E+007, +2.02843651254E+004, -1.59285609567E+004
+3.25676126878E+007, +1.28038483790E+004, -1.66728699163E+004
+3.27328881469E+007, +8.65859819450E+003, -1.43901339241E+004
+3.28981636060E+007, +5.30108023657E+003, -1.37205674071E+004
+3.30634390651E+007, +4.95124237351E+003, -1.08542475779E+004
+3.32287145242E+007, +2.89434662669E+003, -9.80780645373E+003
+3.33939899833E+007, +2.70832016092E+003, -9.03369942150E+003
+3.35592654424E+007, +2.28500798906E+003, -8.16748549318E+003
+3.37245409015E+007, +1.66812552778E+003, -7.26761297420E+003
+3.38898163606E+007, +1.32177878981E+003, -6.70615680084E+003
+3.40550918197E+007, +1.20834399936E+003, -6.14574794197E+003
+3.42203672788E+007, +1.09857848258E+003, -5.80221634710E+003
+3.43856427379E+007, +8.57382131430E+002, -5.26388044949E+003
+3.45509181970E+007, +7.39156619240E+002, -4.93900326033E+003
+3.47161936561E+007, +7.82136803917E+002, -4.66404443681E+003
+3.48814691152E+007, +6.12366686670E+002, -4.38491400242E+003
+3.50467445743E+007, +5.25282878648E+002, -4.19264744943E+003
+3.52120200334E+007, +4.99286993287E+002, -3.96868275219E+003
+3.53772954925E+007, +4.44580221303E+002, -3.78748196544E+003
+3.55425709516E+007, +4.06629566030E+002, -3.62761894080E+003
+3.57078464107E+007, +4.32752589393E+002, -3.43754819549E+003
+3.58731218698E+007, +3.37015697333E+002, -3.31214149922E+003
+3.60383973289E+007, +3.12415475506E+002, -3.21193661080E+003
+3.62036727880E+007, +3.09347781247E+002, -3.07254214986E+003
+3.63689482471E+007, +2.75933420095E+002, -2.96717290870E+003
+3.65342237062E+007, +2.49112071701E+002, -2.82975694664E+003
+3.66994991653E+007, +2.48977552917E+002, -2.73839392900E+003
+3.68647746244E+007, +2.51824750647E+002, -2.64780847208E+003
+3.70300500835E+007, +2.15346778890E+002, -2.56811715598E+003
+3.71953255426E+007, +2.03370067002E+002, -2.49217618074E+003
+3.73606010017E+007, +1.94668283167E+002, -2.42430157373E+003
+3.75258764608E+007, +1.99734352504E+002, -2.34004407619E+003
+3.76911519199E+007, +1.64612978356E+002, -2.30309651613E+003
+3.78564273790E+007, +1.81259792104E+002, -2.23408473219E+003
+3.80217028381E+007, +1.71771721358E+002, -2.18890189301E+003
+3.81869782972E+007, +1.56911975161E+002, -2.11750495804E+003
+3.83522537563E+007, +1.49172625734E+002, -2.05638685975E+003
+3.85175292154E+007, +1.31275770120E+002, -2.01702144274E+003
+3.86828046745E+007, +1.29903055562E+002, -1.95604587301E+003
+3.88480801336E+007, +1.36302010224E+002, -1.93145137703E+003
+3.90133555927E+007, +1.22704532742E+002, -1.87863938844E+003
+3.91786310518E+007, +1.16178413683E+002, -1.83541741884E+003
+3.93439065109E+007, +1.17296864973E+002, -1.80161771843E+003
+3.95091819699E+007, +9.60490629481E+001, -1.76373150957E+003
+3.96744574290E+007, +1.14492503580E+002, -1.72012728284E+003
+3.98397328881E+007, +1.08103931824E+002, -1.69258317254E+003
+4.00050083472E+007, +9.25107611433E+001, -1.65355696045E+003
+4.01702838063E+007, +9.35838430789E+001, -1.62441007303E+003
+4.03355592654E+007, +9.33697444250E+001, -1.58273477668E+003
+4.05008347245E+007, +9.46620953277E+001, -1.57596917683E+003
+4.06661101836E+007, +8.85453359988E+001, -1.52638612368E+003
+4.08313856427E+007, +8.38485159702E+001, -1.50810979135E+003
+4.09966611018E+007, +8.29510750188E+001, -1.48088626691E+003
+4.11619365609E+007, +7.82556788860E+001, -1.45400071725E+003
+4.13272120200E+007, +7.71314608602E+001, -1.42381260351E+003
+4.14924874791E+007, +7.98224301626E+001, -1.41045549187E+003
+4.16577629382E+007, +7.42494539964E+001, -1.37966437233E+003
+4.18230383973E+007, +7.48862168550E+001, -1.36171736807E+003
+4.19883138564E+007, +7.09041133378E+001, -1.34143019326E+003
+4.21535893155E+007, +6.81847915188E+001, -1.31735319438E+003
+4.23188647746E+007, +6.96890713303E+001, -1.30091841411E+003
+4.24841402337E+007, +6.67030417696E+001, -1.28067931490E+003
+4.26494156928E+007, +6.37765214521E+001, -1.26496377344E+003
+4.28146911519E+007, +6.48642792162E+001, -1.24986763433E+003
+4.29799666110E+007, +5.81714463558E+001, -1.22688821316E+003
+4.31452420701E+007, +5.87111386571E+001, -1.21258765987E+003
+4.33105175292E+007, +5.50910423782E+001, -1.19822596298E+003
+4.34757929883E+007, +5.55760454025E+001, -1.17496403091E+003
+4.36410684474E+007, +5.25942296353E+001, -1.16064293885E+003
+4.38063439065E+007, +5.03199420448E+001, -1.14846450047E+003
+4.39716193656E+007, +5.06791624945E+001, -1.13136017823E+003
+4.41368948247E+007, +5.00953733865E+001, -1.11621580610E+003
+4.43021702838E+007, +4.63276271668E+001, -1.09903615937E+003
+4.44674457429E+007, +4.23274059291E+001, -1.08574160396E+003
+4.46327212020E+007, +4.21008908080E+001, -1.06782016126E+003
+4.47979966611E+007, +4.54893700752E+001, -1.06061851984E+003
+4.49632721202E+007, +3.97838844379E+001, -1.04303921458E+003
+4.51285475793E+007, +4.25077481631E+001, -1.03255311070E+003
+4.52938230384E+007, +4.16189756027E+001, -1.01603534846E+003
+4.54590984975E+007, +3.57723983843E+001, -1.00638592587E+003
+4.56243739566E+007, +3.53119430693E+001, -9.93638449492E+002
+4.57896494157E+007, +3.18444158140E+001, -9.80721275901E+002
+4.59549248748E+007, +3.37459953328E+001, -9.70356172569E+002
+4.61202003339E+007, +3.30973923324E+001, -9.58729277136E+002
+4.62854757930E+007, +3.36321451641E+001, -9.44373848888E+002
+4.64507512521E+007, +3.22478686703E+001, -9.36961383690E+002
+4.66160267112E+007, +3.04326047059E+001, -9.24518729670E+002
+4.67813021703E+007, +2.94554170761E+001, -9.15263557349E+002
+4.69465776294E+007, +3.02088232007E+001, -9.04869132909E+002
+4.71118530885E+007, +3.03211678507E+001, -8.93088153597E+002
+4.72771285476E+007, +3.12631455838E+001, -8.80806875257E+002
+4.74424040067E+007, +3.03003061796E+001, -8.74035424205E+002
+4.76076794658E+007, +3.13771235573E+001, -8.65035280292E+002
+4.77729549249E+007, +2.92788864359E+001, -8.56028093189E+002
+4.79382303840E+007, +3.04243546642E+001, -8.48912921746E+002
+4.81035058431E+007, +2.67871823034E+001, -8.40475424653E+002
+4.82687813022E+007, +2.81743234547E+001, -8.29706525979E+002
+4.84340567613E+007, +2.66697583388E+001, -8.23908030587E+002
+4.85993322204E+007, +2.70664921554E+001, -8.12804233812E+002
+4.87646076795E+007, +2.65660727793E+001, -8.06171384411E+002
+4.89298831386E+007, +2.54261661771E+001, -8.01415814281E+002
+4.90951585977E+007, +2.47669501344E+001, -7.89455458221E+002
+4.92604340568E+007, +2.62090441629E+001, -7.81153931957E+002
+4.94257095159E+007, +2.50586507134E+001, -7.72915188371E+002
+4.95909849750E+007, +2.55631072521E+001, -7.66726059716E+002
+4.97562604341E+007, +2.51939094425E+001, -7.58689175027E+002
+4.99215358932E+007, +2.61346384101E+001, -7.51216054281E+002
+5.00868113523E+007, +2.78978641349E+001, -7.46072065436E+002
+5.02520868114E+007, +2.92936394070E+001, -7.38596043480E+002
+5.04173622705E+007, +2.72172383508E+001, -7.33056558271E+002
+5.05826377295E+007, +2.73809281366E+001, -7.26270378510E+002
+5.07479131886E+007, +2.72192688425E+001, -7.20051662463E+002
+5.09131886477E+007, +2.57520906460E+001, -7.14889611046E+002
+5.10784641068E+007, +2.74385900709E+001, -7.09972926328E+002
+5.12437395659E+007, +2.68907416412E+001, -7.03369315221E+002
+5.14090150250E+007, +2.82767925835E+001, -6.95728442621E+002
+5.15742904841E+007, +2.82172087366E+001, -6.91832775113E+002
+5.17395659432E+007, +2.74332474585E+001, -6.87037009613E+002
+5.19048414023E+007, +2.53789342824E+001, -6.79689497664E+002
+5.20701168614E+007, +2.55388997973E+001, -6.75742481310E+002
+5.22353923205E+007, +2.35722784723E+001, -6.69992369400E+002
+5.24006677796E+007, +2.49367954041E+001, -6.64649895451E+002
+5.25659432387E+007, +2.34465538310E+001, -6.57782956855E+002
+5.27312186978E+007, +2.50028874932E+001, -6.53880687876E+002
+5.28964941569E+007, +2.36041783736E+001, -6.48994558261E+002
+5.30617696160E+007, +2.41078243171E+001, -6.43105142484E+002
+5.32270450751E+007, +1.98000203038E+001, -6.37077612124E+002
+5.33923205342E+007, +2.13530761263E+001, -6.31424230106E+002
+5.35575959933E+007, +2.03787651109E+001, -6.27529206265E+002
+5.37228714524E+007, +1.99960007786E+001, -6.22260167601E+002
+5.38881469115E+007, +1.98835653698E+001, -6.17770103854E+002
