"# Channel 1"
"# Trace 1"
Frequency, Formatted Data, Formatted Data
+1.00000000000E+006, +4.73264696836E+001, +2.43450149368E+001
+1.16527545910E+006, +4.73687855985E+001, +2.82690509425E+001
+1.33055091820E+006, +4.73189166143E+001, +3.22650092168E+001
+1.49582637730E+006, +4.73155957099E+001, +3.63005833230E+001
+1.66110183639E+006, +4.73018063737E+001, +4.02772651666E+001
+1.82637729549E+006, +4.72778207805E+001, +4.42513796375E+001
+1.99165275459E+006, +4.72819500905E+001, +4.82853721267E+001
+2.15692821369E+006, +4.73027500711E+001, +5.22179858454E+001
+2.32220367279E+006, +4.72060863616E+001, +5.62749742389E+001
+2.48747913189E+006, +4.71905988099E+001, +6.02731830572E+001
+2.65275459098E+006, +4.70900218167E+001, +6.43700458422E+001
+2.81803005008E+006, +4.72804555722E+001, +6.84029916811E+001
+2.98330550918E+006, +4.70630456880E+001, +7.22776255766E+001
+3.14858096828E+006, +4.71812101204E+001, +7.62694941829E+001
+3.31385642738E+006, +4.72316289730E+001, +8.02177907459E+001
+3.47913188648E+006, +4.71642167024E+001, +8.44180377291E+001
+3.64440734558E+006, +4.71981044503E+001, +8.83848713543E+001
+3.80968280467E+006, +4.72457889656E+001, +9.22520191398E+001
+3.97495826377E+006, +4.73148890918E+001, +9.61409528356E+001
+4.14023372287E+006, +4.71554165096E+001, +1.00660014137E+002
+4.30550918197E+006, +4.72395446136E+001, +1.04210807444E+002
+4.47078464107E+006, +4.73423830898E+001, +1.08308583551E+002
+4.63606010017E+006, +4.70035584718E+001, +1.12622561095E+002
+4.80133555927E+006, +4.72989465675E+001, +1.16429138468E+002
+4.96661101836E+006, +4.71937043660E+001, +1.20494385310E+002
+5.13188647746E+006, +4.72364972851E+001, +1.24358590236E+002
+5.29716193656E+006, +4.71247681467E+001, +1.28165936679E+002
+5.46243739566E+006, +4.73956661841E+001, +1.32439289873E+002
+5.62771285476E+006, +4.74904626702E+001, +1.36540563032E+002
+5.79298831386E+006, +4.75664120232E+001, +1.40651938740E+002
+5.95826377295E+006, +4.74615195679E+001, +1.44647327002E+002
+6.12353923205E+006, +4.78926964316E+001, +1.48458253332E+002
+6.28881469115E+006, +4.75036755671E+001, +1.52655917215E+002
+6.45409015025E+006, +4.77514544343E+001, +1.56592481279E+002
+6.61936560935E+006, +4.76645062202E+001, +1.60762998163E+002
+6.78464106845E+006, +4.77175803875E+001, +1.64822435310E+002
+6.94991652755E+006, +4.79097567783E+001, +1.68628150284E+002
+7.11519198664E+006, +4.78930409113E+001, +1.72952018985E+002
+7.28046744574E+006, +4.79706545105E+001, +1.76952926399E+002
+7.44574290484E+006, +4.81888273063E+001, +1.81024781391E+002
+7.61101836394E+006, +4.80276834581E+001, +1.84980450480E+002
+7.77629382304E+006, +4.80746990002E+001, +1.88907603929E+002
+7.94156928214E+006, +4.78254724507E+001, +1.93167959356E+002
+8.10684474124E+006, +4.78463638430E+001, +1.97051148997E+002
+8.27212020033E+006, +4.80494034244E+001, +2.01180636551E+002
+8.43739565943E+006, +4.81862937243E+001, +2.05258696158E+002
+8.60267111853E+006, +4.79157372731E+001, +2.09610953037E+002
+8.76794657763E+006, +4.80820703122E+001, +2.13424297991E+002
+8.93322203673E+006, +4.81447922510E+001, +2.17836441141E+002
+9.09849749583E+006, +4.81491580573E+001, +2.21752599705E+002
+9.26377295492E+006, +4.82332510479E+001, +2.26318178426E+002
+9.42904841402E+006, +4.81589986194E+001, +2.30022119483E+002
+9.59432387312E+006, +4.81841068982E+001, +2.34109800373E+002
+9.75959933222E+006, +4.80284078089E+001, +2.38632319098E+002
+9.92487479132E+006, +4.78407505415E+001, +2.42386492671E+002
+1.00901502504E+007, +4.81150126260E+001, +2.46632711593E+002
+1.02554257095E+007, +4.79279982287E+001, +2.50766823375E+002
+1.04207011686E+007, +4.78595499435E+001, +2.54981668337E+002
+1.05859766277E+007, +4.80944228140E+001, +2.59463217352E+002
+1.07512520868E+007, +4.84240782452E+001, +2.63417224460E+002
+1.09165275459E+007, +4.79369554745E+001, +2.67667276597E+002
+1.10818030050E+007, +4.82225247399E+001, +2.72107401262E+002
+1.12470784641E+007, +4.79476418106E+001, +2.75990182131E+002
+1.14123539232E+007, +4.82830507375E+001, +2.80346969759E+002
+1.15776293823E+007, +4.87946026901E+001, +2.84754261716E+002
+1.17429048414E+007, +4.81653259188E+001, +2.88771637173E+002
+1.19081803005E+007, +4.85792696993E+001, +2.93397393950E+002
+1.20734557596E+007, +4.85143540667E+001, +2.97458236000E+002
+1.22387312187E+007, +4.81664038506E+001, +3.01765321916E+002
+1.24040066778E+007, +4.88787921688E+001, +3.05643483443E+002
+1.25692821369E+007, +4.80553801298E+001, +3.09722286002E+002
+1.27345575960E+007, +4.85000923589E+001, +3.14290416142E+002
+1.28998330551E+007, +4.84600304747E+001, +3.18698969169E+002
+1.30651085142E+007, +4.81421376374E+001, +3.22822195682E+002
+1.32303839733E+007, +4.91909777412E+001, +3.27177119648E+002
+1.33956594324E+007, +4.85486468961E+001, +3.31824846151E+002
+1.35609348915E+007, +4.90937568932E+001, +3.35629386861E+002
+1.37262103506E+007, +4.83871246247E+001, +3.39493296975E+002
+1.38914858097E+007, +4.94449685590E+001, +3.44123447210E+002
+1.40567612688E+007, +4.87837226418E+001, +3.48627087373E+002
+1.42220367279E+007, +4.85451592349E+001, +3.52983981476E+002
+1.43873121870E+007, +4.87893874124E+001, +3.58219242215E+002
+1.45525876461E+007, +4.92874237860E+001, +3.62527129977E+002
+1.47178631052E+007, +4.89351336633E+001, +3.66415044689E+002
+1.48831385643E+007, +4.86869450074E+001, +3.70228958904E+002
+1.50484140234E+007, +4.91633336510E+001, +3.75039999689E+002
+1.52136894825E+007, +4.90161000608E+001, +3.79774523255E+002
+1.53789649416E+007, +4.93825885677E+001, +3.83843637112E+002
+1.55442404007E+007, +4.90796890975E+001, +3.88179484741E+002
+1.57095158598E+007, +4.84263498441E+001, +3.92961601318E+002
+1.58747913189E+007, +5.04163856721E+001, +3.98002943762E+002
+1.60400667780E+007, +4.91538714872E+001, +4.01631501751E+002
+1.62053422371E+007, +4.93126761840E+001, +4.06494611915E+002
+1.63706176962E+007, +4.86829070300E+001, +4.11334352275E+002
+1.65358931553E+007, +4.94473567990E+001, +4.14304221380E+002
+1.67011686144E+007, +5.05752711345E+001, +4.19163738343E+002
+1.68664440735E+007, +4.96225843363E+001, +4.24102969812E+002
+1.70317195326E+007, +4.84901530169E+001, +4.29742743667E+002
+1.71969949917E+007, +4.87508924281E+001, +4.33755900544E+002
+1.73622704508E+007, +4.94309292127E+001, +4.37850196000E+002
+1.75275459098E+007, +4.89664187981E+001, +4.42150587115E+002
+1.76928213689E+007, +4.99244096938E+001, +4.46826684291E+002
+1.78580968280E+007, +4.97748948599E+001, +4.52407808028E+002
+1.80233722871E+007, +5.07239206214E+001, +4.56669991607E+002
+1.81886477462E+007, +5.10659861157E+001, +4.62258738515E+002
+1.83539232053E+007, +5.08938271584E+001, +4.66233918584E+002
+1.85191986644E+007, +5.09975206021E+001, +4.70621833034E+002
+1.86844741235E+007, +5.06458617401E+001, +4.73547584949E+002
+1.88497495826E+007, +5.02417182096E+001, +4.79570896011E+002
+1.90150250417E+007, +5.12737050162E+001, +4.84418069663E+002
+1.91803005008E+007, +5.11253409528E+001, +4.88803682315E+002
+1.93455759599E+007, +5.10471722621E+001, +4.92913383398E+002
+1.95108514190E+007, +5.29720321425E+001, +4.98965051025E+002
+1.96761268781E+007, +5.19563860685E+001, +5.02748553597E+002
+1.98414023372E+007, +5.11230445400E+001, +5.06752290693E+002
+2.00066777963E+007, +5.13138049116E+001, +5.11989303583E+002
+2.01719532554E+007, +5.17973664397E+001, +5.17169672911E+002
+2.03372287145E+007, +5.34074431245E+001, +5.23028862922E+002
+2.05025041736E+007, +5.16675698037E+001, +5.27179166256E+002
+2.06677796327E+007, +5.35816020318E+001, +5.32123023602E+002
+2.08330550918E+007, +5.20505445262E+001, +5.37394973683E+002
+2.09983305509E+007, +5.44052260153E+001, +5.40511466809E+002
+2.11636060100E+007, +5.36664997927E+001, +5.45649372095E+002
+2.13288814691E+007, +5.31233100986E+001, +5.49952968230E+002
+2.14941569282E+007, +5.24636980293E+001, +5.55663563791E+002
+2.16594323873E+007, +5.35259666502E+001, +5.61161834184E+002
+2.18247078464E+007, +5.44439281446E+001, +5.65886232670E+002
+2.19899833055E+007, +5.20728527893E+001, +5.71682538978E+002
+2.21552587646E+007, +5.22841106698E+001, +5.74798358375E+002
+2.23205342237E+007, +5.48148621309E+001, +5.80704034910E+002
+2.24858096828E+007, +5.39733161201E+001, +5.84887777505E+002
+2.26510851419E+007, +5.44987550492E+001, +5.91220556232E+002
+2.28163606010E+007, +5.52214197451E+001, +5.95981965061E+002
+2.29816360601E+007, +5.37387850992E+001, +5.99562738701E+002
+2.31469115192E+007, +5.65719732810E+001, +6.05589175551E+002
+2.33121869783E+007, +5.59683146884E+001, +6.11886582069E+002
+2.34774624374E+007, +5.72399335836E+001, +6.15521021535E+002
+2.36427378965E+007, +5.77394632866E+001, +6.22381720453E+002
+2.38080133556E+007, +5.80292908339E+001, +6.27109476826E+002
+2.39732888147E+007, +5.82444014854E+001, +6.33071727002E+002
+2.41385642738E+007, +5.67249697835E+001, +6.38042583723E+002
+2.43038397329E+007, +5.81190823923E+001, +6.44184297592E+002
+2.44691151920E+007, +5.70291750838E+001, +6.49355363975E+002
+2.46343906511E+007, +5.79738295680E+001, +6.55306291861E+002
+2.47996661102E+007, +5.80045952291E+001, +6.58304059073E+002
+2.49649415693E+007, +5.87104728964E+001, +6.65283709157E+002
+2.51302170284E+007, +5.67675558701E+001, +6.68874127347E+002
+2.52954924875E+007, +6.13391066538E+001, +6.74172153465E+002
+2.54607679466E+007, +6.20602051517E+001, +6.78936883234E+002
+2.56260434057E+007, +6.03421530219E+001, +6.83543196279E+002
+2.57913188648E+007, +6.10852363965E+001, +6.90430334751E+002
+2.59565943239E+007, +6.31414414766E+001, +6.94709539358E+002
+2.61218697830E+007, +6.01271847177E+001, +7.01418614039E+002
+2.62871452421E+007, +6.48504733315E+001, +7.06879782655E+002
+2.64524207012E+007, +6.05872812828E+001, +7.09829603906E+002
+2.66176961603E+007, +6.16690426683E+001, +7.17768815107E+002
+2.67829716194E+007, +5.94883367949E+001, +7.22288831002E+002
+2.69482470785E+007, +6.00901189231E+001, +7.30745733396E+002
+2.71135225376E+007, +6.39186428380E+001, +7.36525886877E+002
+2.72787979967E+007, +6.55033079801E+001, +7.41945450668E+002
+2.74440734558E+007, +6.47198689278E+001, +7.46542275796E+002
+2.76093489149E+007, +6.25885779751E+001, +7.49503190941E+002
+2.77746243740E+007, +6.44846704495E+001, +7.57991207300E+002
+2.79398998331E+007, +6.33345103822E+001, +7.66254322267E+002
+2.81051752922E+007, +6.53430170067E+001, +7.68955483003E+002
+2.82704507513E+007, +6.70643227862E+001, +7.74812132341E+002
+2.84357262104E+007, +6.42695565269E+001, +7.80897929985E+002
+2.86010016694E+007, +6.40844660052E+001, +7.89389113465E+002
+2.87662771285E+007, +6.61559211851E+001, +7.95889740003E+002
+2.89315525876E+007, +6.69733489792E+001, +8.02005050013E+002
+2.90968280467E+007, +6.63593713503E+001, +8.08439721612E+002
+2.92621035058E+007, +6.56607774916E+001, +8.10618259145E+002
+2.94273789649E+007, +6.71561722216E+001, +8.19256590131E+002
+2.95926544240E+007, +6.59313992355E+001, +8.28387560157E+002
+2.97579298831E+007, +7.00424078003E+001, +8.31305181572E+002
+2.99232053422E+007, +6.75588219674E+001, +8.39199665546E+002
+3.00884808013E+007, +7.12626218898E+001, +8.44972653512E+002
+3.02537562604E+007, +6.88103486662E+001, +8.48525859149E+002
+3.04190317195E+007, +7.03208473108E+001, +8.55061164578E+002
+3.05843071786E+007, +6.87342979878E+001, +8.64425371454E+002
+3.07495826377E+007, +6.69640836444E+001, +8.70748298097E+002
+3.09148580968E+007, +6.95900936771E+001, +8.78959120166E+002
+3.10801335559E+007, +7.03474027976E+001, +8.84542046279E+002
+3.12454090150E+007, +7.24826775143E+001, +8.92861899767E+002
+3.14106844741E+007, +7.13272299183E+001, +8.95378292250E+002
+3.15759599332E+007, +7.39334638886E+001, +9.04142539746E+002
+3.17412353923E+007, +7.20491276716E+001, +9.09703224865E+002
+3.19065108514E+007, +7.38736736329E+001, +9.23029370356E+002
+3.20717863105E+007, +7.01534288000E+001, +9.25475114765E+002
+3.22370617696E+007, +7.29599944718E+001, +9.29655007443E+002
+3.24023372287E+007, +6.99507152498E+001, +9.38737102276E+002
+3.25676126878E+007, +7.52470582206E+001, +9.49230350232E+002
+3.27328881469E+007, +7.70830194384E+001, +9.50388086409E+002
+3.28981636060E+007, +7.14614154422E+001, +9.58312486330E+002
+3.30634390651E+007, +7.35847925147E+001, +9.69518963238E+002
+3.32287145242E+007, +7.16049055479E+001, +9.83145719905E+002
+3.33939899833E+007, +7.69580461719E+001, +9.85218295008E+002
+3.35592654424E+007, +7.51571735905E+001, +9.88541789528E+002
+3.37245409015E+007, +7.65413177073E+001, +9.97910268844E+002
+3.38898163606E+007, +6.96168047797E+001, +1.00365785510E+003
+3.40550918197E+007, +7.44324143668E+001, +1.01462139108E+003
+3.42203672788E+007, +7.90686657325E+001, +1.01707020996E+003
+3.43856427379E+007, +7.91797379698E+001, +1.03330768623E+003
+3.45509181970E+007, +7.47541369796E+001, +1.04068835698E+003
+3.47161936561E+007, +7.72012937572E+001, +1.04904575651E+003
+3.48814691152E+007, +7.77695860062E+001, +1.05381033203E+003
+3.50467445743E+007, +7.86434770621E+001, +1.07259474865E+003
+3.52120200334E+007, +8.50091142225E+001, +1.07357117466E+003
+3.53772954925E+007, +7.73209235569E+001, +1.07506805440E+003
+3.55425709516E+007, +8.61788057040E+001, +1.08999996228E+003
+3.57078464107E+007, +8.04143053196E+001, +1.10083864301E+003
+3.58731218698E+007, +7.98330988041E+001, +1.10725505731E+003
+3.60383973289E+007, +8.09087752393E+001, +1.11683437294E+003
+3.62036727880E+007, +8.84515715534E+001, +1.12766281420E+003
+3.63689482471E+007, +9.26139271187E+001, +1.12743128032E+003
+3.65342237062E+007, +8.82033104450E+001, +1.14368854265E+003
+3.66994991653E+007, +8.49432344991E+001, +1.15594952192E+003
+3.68647746244E+007, +9.35121329294E+001, +1.15828048291E+003
+3.70300500835E+007, +8.93934385003E+001, +1.16990358602E+003
+3.71953255426E+007, +9.95491928038E+001, +1.18573133171E+003
+3.73606010017E+007, +9.58986107292E+001, +1.19332065398E+003
+3.75258764608E+007, +9.54238664635E+001, +1.20933147051E+003
+3.76911519199E+007, +9.54465734831E+001, +1.21250300561E+003
+3.78564273790E+007, +9.26765751767E+001, +1.22384861906E+003
+3.80217028381E+007, +9.71585727868E+001, +1.22743211164E+003
+3.81869782972E+007, +1.00939751160E+002, +1.24090771646E+003
+3.83522537563E+007, +1.02471907660E+002, +1.25384764584E+003
+3.85175292154E+007, +1.01507538082E+002, +1.26018894309E+003
+3.86828046745E+007, +9.81934880249E+001, +1.26941196925E+003
+3.88480801336E+007, +1.06043657041E+002, +1.27798904206E+003
+3.90133555927E+007, +1.03712569245E+002, +1.29230893480E+003
+3.91786310518E+007, +1.04184021722E+002, +1.31758914031E+003
+3.93439065109E+007, +1.04304891706E+002, +1.32886464919E+003
+3.95091819699E+007, +1.10169288035E+002, +1.32461759201E+003
+3.96744574290E+007, +1.17727141773E+002, +1.33470491496E+003
+3.98397328881E+007, +1.05228042663E+002, +1.35815016361E+003
+4.00050083472E+007, +1.09158405634E+002, +1.37401393441E+003
+4.01702838063E+007, +1.03486286117E+002, +1.37962617158E+003
+4.03355592654E+007, +1.11689214888E+002, +1.38603911557E+003
+4.05008347245E+007, +1.16657127296E+002, +1.41258793548E+003
+4.06661101836E+007, +1.18002924995E+002, +1.41711645406E+003
+4.08313856427E+007, +1.04528024207E+002, +1.44328619296E+003
+4.09966611018E+007, +1.11589507362E+002, +1.44211775639E+003
+4.11619365609E+007, +1.18751507182E+002, +1.46254944245E+003
+4.13272120200E+007, +1.21162631956E+002, +1.46668374657E+003
+4.14924874791E+007, +1.25515978173E+002, +1.48913025103E+003
+4.16577629382E+007, +1.22206923973E+002, +1.50924999963E+003
+4.18230383973E+007, +1.36324624552E+002, +1.51539182727E+003
+4.19883138564E+007, +1.23116346121E+002, +1.53665504720E+003
+4.21535893155E+007, +1.35908023125E+002, +1.54382514105E+003
+4.23188647746E+007, +1.42673729537E+002, +1.55984802856E+003
+4.24841402337E+007, +1.35098393498E+002, +1.59335421920E+003
+4.26494156928E+007, +1.33262628458E+002, +1.59708695577E+003
+4.28146911519E+007, +1.45531912840E+002, +1.61851040779E+003
+4.29799666110E+007, +1.48857614887E+002, +1.63146573663E+003
+4.31452420701E+007, +1.52387685806E+002, +1.65572546685E+003
+4.33105175292E+007, +1.51278437299E+002, +1.67257700375E+003
+4.34757929883E+007, +1.48848300586E+002, +1.69129346366E+003
+4.36410684474E+007, +1.51479914422E+002, +1.70481341829E+003
+4.38063439065E+007, +1.44758797138E+002, +1.71708459534E+003
+4.39716193656E+007, +1.72779556780E+002, +1.74061680490E+003
+4.41368948247E+007, +1.66062822358E+002, +1.76840306134E+003
+4.43021702838E+007, +1.75048765894E+002, +1.78141382798E+003
+4.44674457429E+007, +1.68092678691E+002, +1.81362418420E+003
+4.46327212020E+007, +1.78087845067E+002, +1.80959082163E+003
+4.47979966611E+007, +1.70984655915E+002, +1.85295531523E+003
+4.49632721202E+007, +1.87296738720E+002, +1.88255745707E+003
+4.51285475793E+007, +1.86874145034E+002, +1.89715131057E+003
+4.52938230384E+007, +2.03387489236E+002, +1.93092721523E+003
+4.54590984975E+007, +1.86852584645E+002, +1.91616616941E+003
+4.56243739566E+007, +2.08735239516E+002, +1.97157329576E+003
+4.57896494157E+007, +2.21183274352E+002, +1.98356129698E+003
+4.59549248748E+007, +2.17751153081E+002, +2.03480719876E+003
+4.61202003339E+007, +1.88665528011E+002, +2.05987629313E+003
+4.62854757930E+007, +2.37399703755E+002, +2.06749616332E+003
+4.64507512521E+007, +2.41508514120E+002, +2.11768043939E+003
+4.66160267112E+007, +2.52225544961E+002, +2.12467041948E+003
+4.67813021703E+007, +2.65872701909E+002, +2.15521868004E+003
+4.69465776294E+007, +2.72468719656E+002, +2.18023646492E+003
+4.71118530885E+007, +2.70322092180E+002, +2.22908622914E+003
+4.72771285476E+007, +2.96844523034E+002, +2.27346638440E+003
+4.74424040067E+007, +2.99219497674E+002, +2.30607826175E+003
+4.76076794658E+007, +3.02422387437E+002, +2.33200487193E+003
+4.77729549249E+007, +3.09811534811E+002, +2.38808597102E+003
+4.79382303840E+007, +3.39150448420E+002, +2.41607124883E+003
+4.81035058431E+007, +3.53804293774E+002, +2.46217700442E+003
+4.82687813022E+007, +3.74321325164E+002, +2.49754020844E+003
+4.84340567613E+007, +3.81341250184E+002, +2.57246791549E+003
+4.85993322204E+007, +4.22823261642E+002, +2.58630599451E+003
+4.87646076795E+007, +4.44104818542E+002, +2.62724768287E+003
+4.89298831386E+007, +4.73556247614E+002, +2.67732404111E+003
+4.90951585977E+007, +4.97113392021E+002, +2.72228745541E+003
+4.92604340568E+007, +5.22988802690E+002, +2.77126364176E+003
+4.94257095159E+007, +5.67730501060E+002, +2.79785490835E+003
+4.95909849750E+007, +6.01663040965E+002, +2.86114730836E+003
+4.97562604341E+007, +6.13781304796E+002, +2.85725865853E+003
+4.99215358932E+007, +6.38917287595E+002, +2.98194324338E+003
+5.00868113523E+007, +7.04366976078E+002, +3.04430621081E+003
+5.02520868114E+007, +7.72282525376E+002, +3.06006118633E+003
+5.04173622705E+007, +7.70775814350E+002, +3.15564271942E+003
+5.05826377295E+007, +7.92167185448E+002, +3.12111516268E+003
+5.07479131886E+007, +8.53392949076E+002, +3.14410411111E+003
+5.09131886477E+007, +8.69744577077E+002, +3.21395033025E+003
+5.10784641068E+007, +9.91328812109E+002, +3.26260826933E+003
+5.12437395659E+007, +1.02608538631E+003, +3.39862420812E+003
+5.14090150250E+007, +1.03938171856E+003, +3.36751976472E+003
+5.15742904841E+007, +1.08113615291E+003, +3.43519561002E+003
+5.17395659432E+007, +1.21093617861E+003, +3.48150452325E+003
+5.19048414023E+007, +1.28038568371E+003, +3.56592618243E+003
+5.20701168614E+007, +1.24697424571E+003, +3.62308610535E+003
+5.22353923205E+007, +1.34341513669E+003, +3.70456622165E+003
+5.24006677796E+007, +1.33910122941E+003, +3.72685522799E+003
+5.25659432387E+007, +1.45171736563E+003, +3.81758639934E+003
+5.27312186978E+007, +1.55334007951E+003, +3.84848050646E+003
+5.28964941569E+007, +1.63736674102E+003, +3.97328826171E+003
+5.30617696160E+007, +1.63651256141E+003, +4.05858029766E+003
+5.32270450751E+007, +1.68354389440E+003, +4.16449737550E+003
+5.33923205342E+007, +1.71391995432E+003, +4.28957248524E+003
+5.35575959933E+007, +1.92797459483E+003, +4.36145678907E+003
+5.37228714524E+007, +2.11310242530E+003, +4.60113338774E+003
+5.38881469115E+007, +2.02605865791E+003, +4.59448609164E+003
