"# Channel 1"
"# Trace 1"
Frequency, Formatted Data, Formatted Data
+1.00000000000E+006, +4.78560156268E+001, +2.41458877124E+001
+1.16527545910E+006, +4.78729534133E+001, +2.81302747839E+001
+1.33055091820E+006, +4.79462789660E+001, +3.20965744643E+001
+1.49582637730E+006, +4.79583707187E+001, +3.61694967323E+001
+1.66110183639E+006, +4.80413373223E+001, +4.00868512959E+001
+1.82637729549E+006, +4.79770739161E+001, +4.41563635471E+001
+1.99165275459E+006, +4.81039427701E+001, +4.81344205554E+001
+2.15692821369E+006, +4.81668923690E+001, +5.21590431232E+001
+2.32220367279E+006, +4.82360536041E+001, +5.60873395441E+001
+2.48747913189E+006, +4.83101902516E+001, +6.02362120519E+001
+2.65275459098E+006, +4.82816513784E+001, +6.41884683946E+001
+2.81803005008E+006, +4.83014008675E+001, +6.83674804547E+001
+2.98330550918E+006, +4.83421818624E+001, +7.23575616573E+001
+3.14858096828E+006, +4.85373438151E+001, +7.64220842767E+001
+3.31385642738E+006, +4.85650816301E+001, +8.05901606578E+001
+3.47913188648E+006, +4.86723517343E+001, +8.46196362917E+001
+3.64440734558E+006, +4.85864006295E+001, +8.88401355324E+001
+3.80968280467E+006, +4.88827904047E+001, +9.29831474924E+001
+3.97495826377E+006, +4.89401518443E+001, +9.72629003848E+001
+4.14023372287E+006, +4.88453380829E+001, +9.91417908914E+001
+4.30550918197E+006, +4.88317413517E+001, +1.05636523134E+002
+4.47078464107E+006, +4.93269077479E+001, +1.09515476078E+002
+4.63606010017E+006, +4.93981525084E+001, +1.13590219666E+002
+4.80133555927E+006, +4.94129888777E+001, +1.18114288286E+002
+4.96661101836E+006, +4.96719206060E+001, +1.22171680132E+002
+5.13188647746E+006, +4.95405784231E+001, +1.26322016898E+002
+5.29716193656E+006, +4.97976726120E+001, +1.30852587836E+002
+5.46243739566E+006, +4.98177640148E+001, +1.35184604631E+002
+5.62771285476E+006, +4.99527553757E+001, +1.39374999464E+002
+5.79298831386E+006, +5.00504401823E+001, +1.43820231619E+002
+5.95826377295E+006, +5.03081027845E+001, +1.48199587161E+002
+6.12353923205E+006, +5.04434918884E+001, +1.52295556127E+002
+6.28881469115E+006, +5.05575908228E+001, +1.57055586740E+002
+6.45409015025E+006, +5.07224356489E+001, +1.61427423956E+002
+6.61936560935E+006, +5.09166514485E+001, +1.65933836796E+002
+6.78464106845E+006, +5.11936157280E+001, +1.70545585440E+002
+6.94991652755E+006, +5.13298938540E+001, +1.74909867190E+002
+7.11519198664E+006, +5.14391173870E+001, +1.79388459766E+002
+7.28046744574E+006, +5.17780715967E+001, +1.84160061209E+002
+7.44574290484E+006, +5.17356281357E+001, +1.88629216355E+002
+7.61101836394E+006, +5.19613296713E+001, +1.93116399675E+002
+7.77629382304E+006, +5.22172151201E+001, +1.97958873395E+002
+7.94156928214E+006, +5.21098195778E+001, +2.02666546653E+002
+8.10684474124E+006, +5.24277566885E+001, +2.07315138108E+002
+8.27212020033E+006, +5.26903164164E+001, +2.12101709088E+002
+8.43739565943E+006, +5.24578337490E+001, +2.16983990102E+002
+8.60267111853E+006, +5.25642417839E+001, +2.21830860146E+002
+8.76794657763E+006, +5.32782822915E+001, +2.26542974649E+002
+8.93322203673E+006, +5.33027801036E+001, +2.31131255561E+002
+9.09849749583E+006, +5.33636527779E+001, +2.36666815304E+002
+9.26377295492E+006, +5.35194086138E+001, +2.41823188359E+002
+9.42904841402E+006, +5.37513643400E+001, +2.46999588133E+002
+9.59432387312E+006, +5.41136597944E+001, +2.51074943291E+002
+9.75959933222E+006, +5.44017013830E+001, +2.55552499385E+002
+9.92487479132E+006, +5.43116863286E+001, +2.60534734296E+002
+1.00901502504E+007, +5.48515574578E+001, +2.64841359123E+002
+1.02554257095E+007, +5.48371252548E+001, +2.70081895244E+002
+1.04207011686E+007, +5.47563928218E+001, +2.75538174495E+002
+1.05859766277E+007, +5.49948063141E+001, +2.81370796743E+002
+1.07512520868E+007, +5.53209528127E+001, +2.86895019549E+002
+1.09165275459E+007, +5.54868029246E+001, +2.92869019526E+002
+1.10818030050E+007, +5.55519234556E+001, +2.99223455704E+002
+1.12470784641E+007, +5.59239583509E+001, +3.05719950388E+002
+1.14123539232E+007, +5.60935546557E+001, +3.12841300003E+002
+1.15776293823E+007, +5.66579696327E+001, +3.19208671537E+002
+1.17429048414E+007, +5.63393820966E+001, +3.24783683728E+002
+1.19081803005E+007, +5.70791593353E+001, +3.31105427915E+002
+1.20734557596E+007, +5.68440897064E+001, +3.36986976756E+002
+1.22387312187E+007, +5.74231252395E+001, +3.43329118130E+002
+1.24040066778E+007, +5.81349742651E+001, +3.49897289004E+002
+1.25692821369E+007, +5.83961215785E+001, +3.56350273428E+002
+1.27345575960E+007, +5.83102960899E+001, +3.63005854856E+002
+1.28998330551E+007, +5.88268509312E+001, +3.68769108086E+002
+1.30651085142E+007, +5.93500421357E+001, +3.75695739767E+002
+1.32303839733E+007, +5.91222688638E+001, +3.82280767496E+002
+1.33956594324E+007, +5.93715024453E+001, +3.89100007710E+002
+1.35609348915E+007, +6.03204751547E+001, +3.96363258150E+002
+1.37262103506E+007, +6.10061333577E+001, +4.02714175873E+002
+1.38914858097E+007, +6.13941937002E+001, +4.10966696841E+002
+1.40567612688E+007, +6.14356086558E+001, +4.18191430819E+002
+1.42220367279E+007, +6.23635916681E+001, +4.25345269914E+002
+1.43873121870E+007, +6.24983035544E+001, +4.32905132301E+002
+1.45525876461E+007, +6.24331387826E+001, +4.40379006507E+002
+1.47178631052E+007, +6.39763452599E+001, +4.47592052858E+002
+1.48831385643E+007, +6.40477453401E+001, +4.57101478873E+002
+1.50484140234E+007, +6.46023981594E+001, +4.64478074693E+002
+1.52136894825E+007, +6.42737034011E+001, +4.72997221593E+002
+1.53789649416E+007, +6.57387270308E+001, +4.80685645012E+002
+1.55442404007E+007, +6.70918155067E+001, +4.87973079983E+002
+1.57095158598E+007, +6.71484916314E+001, +4.98449300279E+002
+1.58747913189E+007, +6.71412458314E+001, +5.05992087501E+002
+1.60400667780E+007, +6.80022297149E+001, +5.15486793203E+002
+1.62053422371E+007, +6.86434984395E+001, +5.23528130653E+002
+1.63706176962E+007, +6.99983358837E+001, +5.34180145360E+002
+1.65358931553E+007, +6.96092948943E+001, +5.42665865357E+002
+1.67011686144E+007, +7.23737526425E+001, +5.53473198961E+002
+1.68664440735E+007, +7.14613831821E+001, +5.62477362018E+002
+1.70317195326E+007, +7.28210172057E+001, +5.72469133666E+002
+1.71969949917E+007, +7.30070853961E+001, +5.83483430803E+002
+1.73622704508E+007, +7.44367323948E+001, +5.92100446156E+002
+1.75275459098E+007, +7.46430794947E+001, +6.05361992613E+002
+1.76928213689E+007, +7.51367717557E+001, +6.14159364440E+002
+1.78580968280E+007, +7.74753351943E+001, +6.25496215019E+002
+1.80233722871E+007, +7.72030767821E+001, +6.37427073676E+002
+1.81886477462E+007, +7.76975524524E+001, +6.47844102502E+002
+1.83539232053E+007, +7.99452041766E+001, +6.59684459563E+002
+1.85191986644E+007, +8.12071823542E+001, +6.73125905398E+002
+1.86844741235E+007, +8.21899994156E+001, +6.85061585219E+002
+1.88497495826E+007, +8.15566934751E+001, +6.96185270987E+002
+1.90150250417E+007, +8.37156954230E+001, +7.09714686840E+002
+1.91803005008E+007, +8.51046861597E+001, +7.25537043630E+002
+1.93455759599E+007, +8.44029467047E+001, +7.38275158974E+002
+1.95108514190E+007, +8.73341793306E+001, +7.51046707726E+002
+1.96761268781E+007, +8.98021999283E+001, +7.66129971609E+002
+1.98414023372E+007, +9.16560824104E+001, +7.80108774768E+002
+2.00066777963E+007, +9.29897439684E+001, +7.97401682894E+002
+2.01719532554E+007, +9.50342319811E+001, +8.11820709627E+002
+2.03372287145E+007, +9.56062650968E+001, +8.30896314654E+002
+2.05025041736E+007, +9.87405288183E+001, +8.45557062818E+002
+2.06677796327E+007, +9.90943636022E+001, +8.61292110422E+002
+2.08330550918E+007, +1.02550347883E+002, +8.79296656069E+002
+2.09983305509E+007, +1.03894448397E+002, +9.00852857641E+002
+2.11636060100E+007, +1.03183415077E+002, +9.13103328028E+002
+2.13288814691E+007, +1.07194501219E+002, +9.34781569625E+002
+2.14941569282E+007, +1.13278512086E+002, +9.57918174537E+002
+2.16594323873E+007, +1.11095476634E+002, +9.72569601745E+002
+2.18247078464E+007, +1.18642424307E+002, +9.95201203363E+002
+2.19899833055E+007, +1.17693542240E+002, +1.01770054665E+003
+2.21552587646E+007, +1.22526412158E+002, +1.04286594147E+003
+2.23205342237E+007, +1.23119156600E+002, +1.06488167881E+003
+2.24858096828E+007, +1.31273723557E+002, +1.08577863186E+003
+2.26510851419E+007, +1.31931806583E+002, +1.11365964558E+003
+2.28163606010E+007, +1.32976775398E+002, +1.14077864570E+003
+2.29816360601E+007, +1.35037557978E+002, +1.16943466822E+003
+2.31469115192E+007, +1.43953795982E+002, +1.19466086818E+003
+2.33121869783E+007, +1.47311715652E+002, +1.22420610720E+003
+2.34774624374E+007, +1.49809108553E+002, +1.25047934330E+003
+2.36427378965E+007, +1.54890205639E+002, +1.28687754702E+003
+2.38080133556E+007, +1.61549416848E+002, +1.31700675046E+003
+2.39732888147E+007, +1.64793641034E+002, +1.34344979955E+003
+2.41385642738E+007, +1.72675615576E+002, +1.38516802646E+003
+2.43038397329E+007, +1.72885314000E+002, +1.41638760144E+003
+2.44691151920E+007, +1.84192081573E+002, +1.45793930373E+003
+2.46343906511E+007, +1.93934480622E+002, +1.50625672693E+003
+2.47996661102E+007, +2.03559828568E+002, +1.55536329069E+003
+2.49649415693E+007, +2.03388210458E+002, +1.58993063244E+003
+2.51302170284E+007, +2.13940128875E+002, +1.62603452229E+003
+2.52954924875E+007, +2.17201436634E+002, +1.69047611633E+003
+2.54607679466E+007, +2.34728687701E+002, +1.75073345017E+003
+2.56260434057E+007, +2.50837204878E+002, +1.79228547488E+003
+2.57913188648E+007, +2.48406613616E+002, +1.85105450126E+003
+2.59565943239E+007, +2.74987221864E+002, +1.90026154835E+003
+2.61218697830E+007, +2.87108743361E+002, +1.98595345051E+003
+2.62871452421E+007, +2.96379184268E+002, +2.04913959355E+003
+2.64524207012E+007, +3.13729166548E+002, +2.11443273879E+003
+2.66176961603E+007, +3.28403304656E+002, +2.19390222040E+003
+2.67829716194E+007, +3.49319951744E+002, +2.28766943134E+003
+2.69482470785E+007, +3.70390548242E+002, +2.36194742821E+003
+2.71135225376E+007, +3.85006137349E+002, +2.44887467320E+003
+2.72787979967E+007, +4.23837458673E+002, +2.56629563556E+003
+2.74440734558E+007, +4.84086673232E+002, +2.67816067578E+003
+2.76093489149E+007, +5.11650468038E+002, +2.82329441621E+003
+2.77746243740E+007, +5.71371554077E+002, +2.92838420032E+003
+2.79398998331E+007, +6.09321122748E+002, +3.07838528832E+003
+2.81051752922E+007, +6.66791723863E+002, +3.22894245257E+003
+2.82704507513E+007, +7.35673188931E+002, +3.33660339073E+003
+2.84357262104E+007, +8.79074006696E+002, +3.54889726785E+003
+2.86010016694E+007, +9.22997461527E+002, +3.76178481799E+003
+2.87662771285E+007, +1.00809599015E+003, +4.02349950851E+003
+2.89315525876E+007, +1.17836941294E+003, +4.25079219138E+003
+2.90968280467E+007, +1.33618374418E+003, +4.46799155930E+003
+2.92621035058E+007, +1.56154830531E+003, +4.72429319481E+003
+2.94273789649E+007, +1.75080121988E+003, +5.12184062158E+003
+2.95926544240E+007, +1.99972965208E+003, +5.45790162270E+003
+2.97579298831E+007, +2.35555006775E+003, +5.72522630567E+003
+2.99232053422E+007, +2.82730596928E+003, +6.30488985995E+003
+3.00884808013E+007, +3.63978210272E+003, +6.71428196369E+003
+3.02537562604E+007, +4.12474765995E+003, +7.15464398647E+003
+3.04190317195E+007, +4.95573597934E+003, +7.50715747422E+003
+3.05843071786E+007, +6.30865569482E+003, +8.34721978962E+003
+3.07495826377E+007, +8.33206593203E+003, +8.59467002118E+003
+3.09148580968E+007, +1.01702999892E+004, +8.23158321838E+003
+3.10801335559E+007, +1.24938886714E+004, +8.02963713588E+003
+3.12454090150E+007, +1.66079261919E+004, +4.96060445511E+003
+3.14106844741E+007, +1.81203652719E+004, +1.34011407997E+003
+3.15759599332E+007, +1.81512842004E+004, -2.48064793477E+003
+3.17412353923E+007, +1.52685690621E+004, -5.99511673174E+003
+3.19065108514E+007, +1.29782004158E+004, -9.54303604027E+003
+3.20717863105E+007, +9.43798269438E+003, -8.56338033356E+003
+3.22370617696E+007, +7.60397949996E+003, -9.15164086499E+003
+3.24023372287E+007, +5.97771714791E+003, -8.73171626644E+003
+3.25676126878E+007, +4.84689537236E+003, -7.76759712198E+003
+3.27328881469E+007, +3.75366583160E+003, -7.53341806787E+003
+3.28981636060E+007, +3.27482039675E+003, -6.88895060633E+003
+3.30634390651E+007, +2.77380226312E+003, -6.66419969792E+003
+3.32287145242E+007, +2.40213309358E+003, -5.95622736104E+003
+3.33939899833E+007, +2.07650974554E+003, -5.61752647170E+003
+3.35592654424E+007, +1.74166730484E+003, -5.28677238869E+003
+3.37245409015E+007, +1.46421186104E+003, -5.00415522770E+003
+3.38898163606E+007, +1.22801772735E+003, -4.75728838035E+003
+3.40550918197E+007, +1.15139539826E+003, -4.45889391101E+003
+3.42203672788E+007, +1.06946789270E+003, -4.20038072624E+003
+3.43856427379E+007, +9.00121999877E+002, -4.09066550946E+003
+3.45509181970E+007, +8.50479677648E+002, -3.85557755309E+003
+3.47161936561E+007, +7.31338715183E+002, -3.65433454709E+003
+3.48814691152E+007, +7.02829549411E+002, -3.45147600900E+003
+3.50467445743E+007, +6.49921133908E+002, -3.35094073296E+003
+3.52120200334E+007, +5.57017772987E+002, -3.23278988356E+003
+3.53772954925E+007, +5.20463131291E+002, -3.15535874788E+003
+3.55425709516E+007, +4.87091855859E+002, -3.00343323374E+003
+3.57078464107E+007, +4.42907131706E+002, -2.90024211540E+003
+3.58731218698E+007, +4.33312058258E+002, -2.79229356245E+003
+3.60383973289E+007, +4.05546262077E+002, -2.70044107382E+003
+3.62036727880E+007, +3.59407475863E+002, -2.61481719705E+003
+3.63689482471E+007, +3.80539850008E+002, -2.54670088241E+003
+3.65342237062E+007, +3.04072766272E+002, -2.47470375527E+003
+3.66994991653E+007, +3.01775229085E+002, -2.38276042359E+003
+3.68647746244E+007, +2.83734148861E+002, -2.32390015061E+003
+3.70300500835E+007, +2.69548557923E+002, -2.25961445622E+003
+3.71953255426E+007, +2.63894839269E+002, -2.19398430195E+003
+3.73606010017E+007, +2.66509722830E+002, -2.14294839738E+003
+3.75258764608E+007, +2.32753785786E+002, -2.08811724603E+003
+3.76911519199E+007, +2.40241332231E+002, -2.03892687655E+003
+3.78564273790E+007, +2.27788979475E+002, -1.98456064422E+003
+3.80217028381E+007, +2.02823844330E+002, -1.95711630850E+003
+3.81869782972E+007, +1.83053650451E+002, -1.89993132777E+003
+3.83522537563E+007, +1.87270450432E+002, -1.84837122780E+003
+3.85175292154E+007, +1.67951128516E+002, -1.82003516604E+003
+3.86828046745E+007, +1.66097109985E+002, -1.78871895478E+003
+3.88480801336E+007, +1.64764008921E+002, -1.73673111780E+003
+3.90133555927E+007, +1.60922641387E+002, -1.71092120479E+003
+3.91786310518E+007, +1.53068405403E+002, -1.67698700069E+003
+3.93439065109E+007, +1.47951279790E+002, -1.64639990715E+003
+3.95091819699E+007, +1.40948775646E+002, -1.60698961810E+003
+3.96744574290E+007, +1.30480400373E+002, -1.58195024848E+003
+3.98397328881E+007, +1.23328707104E+002, -1.55436447975E+003
+4.00050083472E+007, +1.17944844124E+002, -1.52774761326E+003
+4.01702838063E+007, +1.19145751262E+002, -1.49698901743E+003
+4.03355592654E+007, +1.09597490150E+002, -1.47894638746E+003
+4.05008347245E+007, +1.14958058120E+002, -1.44931958866E+003
+4.06661101836E+007, +1.10122498687E+002, -1.42744406075E+003
+4.08313856427E+007, +1.04081109429E+002, -1.40456175740E+003
+4.09966611018E+007, +9.78225739720E+001, -1.37488973726E+003
+4.11619365609E+007, +9.76444120580E+001, -1.35719005989E+003
+4.13272120200E+007, +9.51962262869E+001, -1.33716781632E+003
+4.14924874791E+007, +9.64259706181E+001, -1.32135545777E+003
+4.16577629382E+007, +9.79795892032E+001, -1.29813736961E+003
+4.18230383973E+007, +8.75700258169E+001, -1.27468875221E+003
+4.19883138564E+007, +8.33660230871E+001, -1.25999820356E+003
+4.21535893155E+007, +8.63983133915E+001, -1.24228879383E+003
+4.23188647746E+007, +7.95796465401E+001, -1.22578059027E+003
+4.24841402337E+007, +8.54854854668E+001, -1.21318911793E+003
+4.26494156928E+007, +7.77530493302E+001, -1.19778287015E+003
+4.28146911519E+007, +7.13481745940E+001, -1.17624811479E+003
+4.29799666110E+007, +7.10582515081E+001, -1.16237960827E+003
+4.31452420701E+007, +6.73181572143E+001, -1.14578949808E+003
+4.33105175292E+007, +6.98177205678E+001, -1.13140010393E+003
+4.34757929883E+007, +6.30251812278E+001, -1.11713273709E+003
+4.36410684474E+007, +6.38722181913E+001, -1.09324443196E+003
+4.38063439065E+007, +5.81676011586E+001, -1.08689626161E+003
+4.39716193656E+007, +5.50569152779E+001, -1.07029534528E+003
+4.41368948247E+007, +5.30443431100E+001, -1.06008797329E+003
+4.43021702838E+007, +5.66808769918E+001, -1.04720016831E+003
+4.44674457429E+007, +5.36861796925E+001, -1.03124092565E+003
+4.46327212020E+007, +5.08570766253E+001, -1.01990216117E+003
+4.47979966611E+007, +5.35072193508E+001, -1.00674809766E+003
+4.49632721202E+007, +4.91472157472E+001, -9.93597495846E+002
+4.51285475793E+007, +4.83587447910E+001, -9.84238366826E+002
+4.52938230384E+007, +4.48714852581E+001, -9.72198460289E+002
+4.54590984975E+007, +4.41606294784E+001, -9.58082193976E+002
+4.56243739566E+007, +4.92757658503E+001, -9.46838865447E+002
+4.57896494157E+007, +4.33605892284E+001, -9.35583148677E+002
+4.59549248748E+007, +4.13920427937E+001, -9.25702841695E+002
+4.61202003339E+007, +4.12272462571E+001, -9.15121111325E+002
+4.62854757930E+007, +3.75588419104E+001, -9.07406466509E+002
+4.64507512521E+007, +4.15531633711E+001, -8.96278186959E+002
+4.66160267112E+007, +3.67183547994E+001, -8.85535228053E+002
+4.67813021703E+007, +3.84254858664E+001, -8.75879598311E+002
+4.69465776294E+007, +3.86152166458E+001, -8.66740359771E+002
+4.71118530885E+007, +3.61366519016E+001, -8.58473614713E+002
+4.72771285476E+007, +3.37727077956E+001, -8.48819953483E+002
+4.74424040067E+007, +3.52231468261E+001, -8.40552318790E+002
+4.76076794658E+007, +3.48103011006E+001, -8.31614555141E+002
+4.77729549249E+007, +3.09247520347E+001, -8.23422805869E+002
+4.79382303840E+007, +3.51261665144E+001, -8.14453500706E+002
+4.81035058431E+007, +3.10992299314E+001, -8.08485490940E+002
+4.82687813022E+007, +3.00097711841E+001, -7.96665951072E+002
+4.84340567613E+007, +3.11736945872E+001, -7.91851234814E+002
+4.85993322204E+007, +3.26384132343E+001, -7.83597339053E+002
+4.87646076795E+007, +3.13472755298E+001, -7.75747713877E+002
+4.89298831386E+007, +2.94286241570E+001, -7.69084856744E+002
+4.90951585977E+007, +2.97064831069E+001, -7.60001700408E+002
+4.92604340568E+007, +2.95027216299E+001, -7.53303347311E+002
+4.94257095159E+007, +3.14935246642E+001, -7.45766827321E+002
+4.95909849750E+007, +3.01626378838E+001, -7.38653592403E+002
+4.97562604341E+007, +2.89019168128E+001, -7.33647003413E+002
+4.99215358932E+007, +3.01411312319E+001, -7.27254585785E+002
+5.00868113523E+007, +2.98965338226E+001, -7.20557295820E+002
+5.02520868114E+007, +3.08101857107E+001, -7.15354201570E+002
+5.04173622705E+007, +3.12343880528E+001, -7.08259962485E+002
+5.05826377295E+007, +3.17930051166E+001, -7.03198301398E+002
+5.07479131886E+007, +3.22895370652E+001, -6.96877655934E+002
+5.09131886477E+007, +3.13410111270E+001, -6.91327063804E+002
+5.10784641068E+007, +3.15059771084E+001, -6.84490433108E+002
+5.12437395659E+007, +3.03732002756E+001, -6.79734120322E+002
+5.14090150250E+007, +3.03170070514E+001, -6.75812949917E+002
+5.15742904841E+007, +3.05734737869E+001, -6.69562423297E+002
+5.17395659432E+007, +2.97249923526E+001, -6.64621935572E+002
+5.19048414023E+007, +2.91875330451E+001, -6.60058074193E+002
+5.20701168614E+007, +2.89523593784E+001, -6.55112633154E+002
+5.22353923205E+007, +2.84872774760E+001, -6.50245945306E+002
+5.24006677796E+007, +2.72329381158E+001, -6.43575240239E+002
+5.25659432387E+007, +2.66421977613E+001, -6.39909727437E+002
+5.27312186978E+007, +2.68444821308E+001, -6.36259233554E+002
+5.28964941569E+007, +2.57198271431E+001, -6.31261525525E+002
+5.30617696160E+007, +2.57237943916E+001, -6.25467212430E+002
+5.32270450751E+007, +2.47219975534E+001, -6.20960694445E+002
+5.33923205342E+007, +2.40361692502E+001, -6.15163582279E+002
+5.35575959933E+007, +2.38722194929E+001, -6.11525541204E+002
+5.37228714524E+007, +2.30498359787E+001, -6.04785769827E+002
+5.38881469115E+007, +2.26105186230E+001, -5.99803064088E+002
