"# Channel 1"
"# Trace 1"
Frequency, Formatted Data, Formatted Data
+1.00000000000E+005, +3.34327401738E-001, +2.26933897965E+000
+2.66777963272E+005, +3.55583413358E-001, +6.00354626236E+000
+4.33555926544E+005, +3.96545826057E-001, +9.76676247845E+000
+6.00333889816E+005, +4.78726324477E-001, +1.34375178406E+001
+7.67111853088E+005, +5.28861575670E-001, +1.71546295685E+001
+9.33889816361E+005, +5.74048275630E-001, +2.08091961423E+001
+1.10066777963E+006, +5.51365904446E-001, +2.45126666242E+001
+1.26744574290E+006, +6.28713771677E-001, +2.81432698121E+001
+1.43422370618E+006, +5.43413283223E-001, +3.19042549249E+001
+1.60100166945E+006, +6.92861992569E-001, +3.54899110889E+001
+1.76777963272E+006, +6.74664269032E-001, +3.91707989439E+001
+1.93455759599E+006, +6.97040572647E-001, +4.27544970975E+001
+2.10133555927E+006, +7.20731434234E-001, +4.64055603266E+001
+2.26811352254E+006, +7.65017495605E-001, +5.01085929242E+001
+2.43489148581E+006, +7.76272848234E-001, +5.38492742766E+001
+2.60166944908E+006, +7.65929791618E-001, +5.74475447408E+001
+2.76844741235E+006, +6.97416980343E-001, +6.12236704398E+001
+2.93522537563E+006, +6.68419315349E-001, +6.48258475986E+001
+3.10200333890E+006, +8.34821608558E-001, +6.84552214523E+001
+3.26878130217E+006, +6.41013782096E-001, +7.22854276867E+001
+3.43555926544E+006, +7.81821987577E-001, +7.58557031190E+001
+3.60233722871E+006, +8.24745279872E-001, +7.96676153662E+001
+3.76911519199E+006, +7.88028068766E-001, +8.34582563900E+001
+3.93589315526E+006, +6.77048765872E-001, +8.70245734704E+001
+4.10267111853E+006, +7.20101828316E-001, +9.08609547913E+001
+4.26944908180E+006, +7.40137049805E-001, +9.47089008542E+001
+4.43622704508E+006, +7.01546787230E-001, +9.81794839788E+001
+4.60300500835E+006, +8.16656015619E-001, +1.02093998102E+002
+4.76978297162E+006, +7.61713563076E-001, +1.05662843290E+002
+4.93656093489E+006, +8.12247686995E-001, +1.09497034760E+002
+5.10333889816E+006, +8.68010416797E-001, +1.13045318585E+002
+5.27011686144E+006, +1.02557884183E+000, +1.17191759365E+002
+5.43689482471E+006, +7.28873345374E-001, +1.20713662132E+002
+5.60367278798E+006, +9.46964993156E-001, +1.24812536984E+002
+5.77045075125E+006, +9.57755385870E-001, +1.28161530240E+002
+5.93722871452E+006, +9.25184997128E-001, +1.32121924980E+002
+6.10400667780E+006, +1.04353363974E+000, +1.36148923289E+002
+6.27078464107E+006, +1.18189956151E+000, +1.39738033382E+002
+6.43756260434E+006, +1.20071475304E+000, +1.43651843304E+002
+6.60434056761E+006, +1.24420172469E+000, +1.47334511886E+002
+6.77111853088E+006, +1.49245119867E+000, +1.51086454650E+002
+6.93789649416E+006, +1.29709207096E+000, +1.55102179435E+002
+7.10467445743E+006, +1.36217832882E+000, +1.58885920810E+002
+7.27145242070E+006, +1.32895219397E+000, +1.62527939919E+002
+7.43823038397E+006, +1.51340086575E+000, +1.66343468063E+002
+7.60500834725E+006, +1.42015446217E+000, +1.70232615928E+002
+7.77178631052E+006, +1.40616425685E+000, +1.74203862088E+002
+7.93856427379E+006, +1.52208759769E+000, +1.77765312065E+002
+8.10534223706E+006, +1.43239305341E+000, +1.81776510404E+002
+8.27212020033E+006, +1.57138519580E+000, +1.85615230281E+002
+8.43889816361E+006, +1.32512379310E+000, +1.89817134645E+002
+8.60567612688E+006, +1.22544820778E+000, +1.93784912646E+002
+8.77245409015E+006, +1.21911863066E+000, +1.97407503027E+002
+8.93923205342E+006, +1.25026785274E+000, +2.01384137938E+002
+9.10601001669E+006, +1.16399278713E+000, +2.05451928446E+002
+9.27278797997E+006, +1.25118575235E+000, +2.09318406692E+002
+9.43956594324E+006, +1.19487848001E+000, +2.13426366826E+002
+9.60634390651E+006, +1.09345104003E+000, +2.17372312309E+002
+9.77312186978E+006, +9.94090543091E-001, +2.21462399955E+002
+9.93989983306E+006, +1.26018041265E+000, +2.25589481802E+002
+1.01066777963E+007, +9.38857759499E-001, +2.29284778979E+002
+1.02734557596E+007, +8.50594884333E-001, +2.33857088451E+002
+1.04402337229E+007, +7.92644455147E-001, +2.37804167685E+002
+1.06070116861E+007, +6.99911583051E-001, +2.41588635710E+002
+1.07737896494E+007, +7.39984493953E-001, +2.46072421076E+002
+1.09405676127E+007, +9.74303546841E-001, +2.50145641880E+002
+1.11073455760E+007, +1.01259155532E+000, +2.54216439597E+002
+1.12741235392E+007, +9.65258859857E-001, +2.58237154954E+002
+1.14409015025E+007, +7.50775464736E-001, +2.62819642252E+002
+1.16076794658E+007, +1.17564757423E+000, +2.66577851292E+002
+1.17744574290E+007, +8.13564255735E-001, +2.71344539029E+002
+1.19412353923E+007, +7.35382585203E-001, +2.75264083307E+002
+1.21080133556E+007, +7.41673428897E-001, +2.79624660799E+002
+1.22747913189E+007, +8.38882809118E-001, +2.83773889816E+002
+1.24415692821E+007, +2.31594820460E-001, +2.87648627261E+002
+1.26083472454E+007, +6.98060625513E-001, +2.92732091147E+002
+1.27751252087E+007, +8.97558097442E-001, +2.96508436742E+002
+1.29419031720E+007, +3.30764370483E-001, +3.01032034175E+002
+1.31086811352E+007, +7.08532665735E-001, +3.05313220244E+002
+1.32754590985E+007, +4.35411578607E-001, +3.10136964996E+002
+1.34422370618E+007, +2.81840000934E-001, +3.14111822749E+002
+1.36090150250E+007, +1.12219342301E+000, +3.18788403553E+002
+1.37757929883E+007, +8.90277896324E-002, +3.23123799697E+002
+1.39425709516E+007, +4.19876114047E-001, +3.27808769584E+002
+1.41093489149E+007, +5.57018942463E-001, +3.32032394092E+002
+1.42761268781E+007, +5.04300491129E-001, +3.36981387666E+002
+1.44429048414E+007, +6.80308219633E-001, +3.41485024156E+002
+1.46096828047E+007, +1.86511469225E-001, +3.45801164428E+002
+1.47764607679E+007, +9.13331457856E-001, +3.50178230210E+002
+1.49432387312E+007, +8.40830024026E-001, +3.55337969820E+002
+1.51100166945E+007, +2.45290427181E-001, +3.59948256545E+002
+1.52767946578E+007, +1.10559832794E+000, +3.64630309019E+002
+1.54435726210E+007, +7.63737067698E-001, +3.68954162925E+002
+1.56103505843E+007, +1.01136212818E+000, +3.73650342086E+002
+1.57771285476E+007, +7.53815009588E-001, +3.78196387912E+002
+1.59439065109E+007, +5.49627680303E-001, +3.83069591449E+002
+1.61106844741E+007, +8.81001295733E-001, +3.87817620523E+002
+1.62774624374E+007, +1.36592879959E+000, +3.93098661637E+002
+1.64442404007E+007, +4.66020482025E-001, +3.97923158508E+002
+1.66110183639E+007, +1.18737142136E+000, +4.02087875623E+002
+1.67777963272E+007, +1.01786553679E+000, +4.07953780829E+002
+1.69445742905E+007, +1.44400868601E+000, +4.11564053528E+002
+1.71113522538E+007, -9.91503272289E-001, +4.16655992200E+002
+1.72781302170E+007, +4.32834938300E-001, +4.22078869464E+002
+1.74449081803E+007, -1.02376972392E-001, +4.26685831788E+002
+1.76116861436E+007, +6.13268151342E-001, +4.32635435801E+002
+1.77784641068E+007, +7.13053919507E-001, +4.35834808904E+002
+1.79452420701E+007, +3.89698261649E-001, +4.42122973064E+002
+1.81120200334E+007, +6.67654552483E-001, +4.46066962465E+002
+1.82787979967E+007, +1.56769587078E+000, +4.52068469242E+002
+1.84455759599E+007, +1.82493843362E+000, +4.58505783557E+002
+1.86123539232E+007, +1.29554915187E+000, +4.62647694413E+002
+1.87791318865E+007, +4.93555904921E-001, +4.68565732807E+002
+1.89459098497E+007, +1.30536756633E+000, +4.73969379800E+002
+1.91126878130E+007, +1.73247339260E+000, +4.79084096399E+002
+1.92794657763E+007, +8.30768689913E-001, +4.84824792275E+002
+1.94462437396E+007, +1.27438602904E+000, +4.91513375885E+002
+1.96130217028E+007, +9.19723363322E-001, +4.95946407941E+002
+1.97797996661E+007, +1.79531237434E+000, +5.00726352796E+002
+1.99465776294E+007, -3.17522466481E-001, +5.05956662438E+002
+2.01133555927E+007, +6.43770124858E-001, +5.12301492196E+002
+2.02801335559E+007, +1.83196486966E-001, +5.18628667697E+002
+2.04469115192E+007, +1.16142785193E+000, +5.24696780444E+002
+2.06136894825E+007, +8.05283674423E-001, +5.29399474569E+002
+2.07804674457E+007, +1.61909219976E+000, +5.36817674714E+002
+2.09472454090E+007, +5.73029467105E-001, +5.42944978034E+002
+2.11140233723E+007, +1.32229763618E+000, +5.47240667500E+002
+2.12808013356E+007, +2.29219188174E+000, +5.52375186314E+002
+2.14475792988E+007, +9.07758095120E-001, +5.58977857811E+002
+2.16143572621E+007, +1.83438109416E+000, +5.66075407276E+002
+2.17811352254E+007, +1.34391196039E+000, +5.71371326999E+002
+2.19479131886E+007, +3.52386835053E+000, +5.78547514874E+002
+2.21146911519E+007, +3.43704551933E+000, +5.83328313739E+002
+2.22814691152E+007, +2.53202375228E+000, +5.90660461200E+002
+2.24482470785E+007, +2.49479140270E+000, +5.97867265521E+002
+2.26150250417E+007, +5.54678649704E+000, +6.03354445923E+002
+2.27818030050E+007, +4.28192624676E+000, +6.11045768507E+002
+2.29485809683E+007, +6.48403110898E+000, +6.15238232906E+002
+2.31153589316E+007, +3.80217478719E+000, +6.23123188322E+002
+2.32821368948E+007, +6.06576598253E+000, +6.30310648317E+002
+2.34489148581E+007, +5.82138780338E+000, +6.34086760293E+002
+2.36156928214E+007, +8.56267480081E+000, +6.43206241217E+002
+2.37824707846E+007, +6.53329916024E+000, +6.49964252309E+002
+2.39492487479E+007, +5.91355103218E+000, +6.54547755891E+002
+2.41160267112E+007, +8.70726467018E+000, +6.61362075028E+002
+2.42828046745E+007, +6.79807705512E+000, +6.69096043760E+002
+2.44495826377E+007, +9.41867082981E+000, +6.76561064015E+002
+2.46163606010E+007, +7.56785411663E+000, +6.83532003021E+002
+2.47831385643E+007, +8.38802490405E+000, +6.91424886244E+002
+2.49499165275E+007, +1.02002798009E+001, +6.98151948683E+002
+2.51166944908E+007, +1.19345621745E+001, +7.03774692710E+002
+2.52834724541E+007, +1.16206518749E+001, +7.11169071044E+002
+2.54502504174E+007, +1.24333865185E+001, +7.18503408714E+002
+2.56170283806E+007, +1.07235340219E+001, +7.25873218653E+002
+2.57838063439E+007, +1.02166045417E+001, +7.36036833962E+002
+2.59505843072E+007, +1.35124611143E+001, +7.44909287439E+002
+2.61173622705E+007, +1.32214043241E+001, +7.50235020209E+002
+2.62841402337E+007, +1.27177936344E+001, +7.56579667849E+002
+2.64509181970E+007, +1.13826196001E+001, +7.63354887690E+002
+2.66176961603E+007, +1.31376035525E+001, +7.74257487773E+002
+2.67844741235E+007, +1.51444646116E+001, +7.81690315774E+002
+2.69512520868E+007, +1.47177327867E+001, +7.90916591503E+002
+2.71180300501E+007, +1.84968855029E+001, +7.94764114572E+002
+2.72848080134E+007, +1.67961697131E+001, +8.04890652955E+002
+2.74515859766E+007, +1.80177915627E+001, +8.13315366610E+002
+2.76183639399E+007, +1.75724608940E+001, +8.21078504065E+002
+2.77851419032E+007, +1.64338583066E+001, +8.29080059596E+002
+2.79519198664E+007, +2.09699141864E+001, +8.39701449538E+002
+2.81186978297E+007, +2.22999198308E+001, +8.45355729698E+002
+2.82854757930E+007, +2.13531479858E+001, +8.54270682253E+002
+2.84522537563E+007, +1.60371553288E+001, +8.66692377302E+002
+2.86190317195E+007, +1.80378923382E+001, +8.73040002129E+002
+2.87858096828E+007, +2.45850971622E+001, +8.85776856287E+002
+2.89525876461E+007, +2.23845481900E+001, +8.91839990653E+002
+2.91193656093E+007, +1.97037004766E+001, +8.98208305397E+002
+2.92861435726E+007, +1.85274264664E+001, +9.07289228747E+002
+2.94529215359E+007, +2.17702200328E+001, +9.18688407940E+002
+2.96196994992E+007, +2.69555576855E+001, +9.29615338925E+002
+2.97864774624E+007, +2.58409822125E+001, +9.40074066947E+002
+2.99532554257E+007, +2.71473248678E+001, +9.51396525918E+002
+3.01200333890E+007, +2.56149248344E+001, +9.61253058116E+002
+3.02868113523E+007, +2.53919636781E+001, +9.67469962805E+002
+3.04535893155E+007, +2.41781826916E+001, +9.81172150481E+002
+3.06203672788E+007, +2.97472314705E+001, +9.90756237778E+002
+3.07871452421E+007, +2.39920137719E+001, +1.00255234350E+003
+3.09539232053E+007, +2.99038933981E+001, +1.01095323817E+003
+3.11207011686E+007, +2.72576799166E+001, +1.02534752089E+003
+3.12874791319E+007, +2.68081050805E+001, +1.03086486774E+003
+3.14542570952E+007, +2.80033467917E+001, +1.04540936999E+003
+3.16210350584E+007, +2.61426338372E+001, +1.05672454263E+003
+3.17878130217E+007, +3.04935990664E+001, +1.07013808974E+003
+3.19545909850E+007, +3.71563511540E+001, +1.08144635353E+003
+3.21213689482E+007, +2.51870900340E+001, +1.09929173675E+003
+3.22881469115E+007, +2.88971092023E+001, +1.10620022241E+003
+3.24549248748E+007, +2.98387410686E+001, +1.11395752923E+003
+3.26217028381E+007, +2.80849034934E+001, +1.12960631317E+003
+3.27884808013E+007, +3.37846292906E+001, +1.14732250481E+003
+3.29552587646E+007, +3.35517923834E+001, +1.15317020200E+003
+3.31220367279E+007, +3.61061274238E+001, +1.16940928595E+003
+3.32888146912E+007, +3.30451223137E+001, +1.18332452276E+003
+3.34555926544E+007, +2.84226626175E+001, +1.19289672163E+003
+3.36223706177E+007, +3.75666725416E+001, +1.21451186307E+003
+3.37891485810E+007, +3.07755501843E+001, +1.22118731037E+003
+3.39559265442E+007, +3.46498640214E+001, +1.24019845522E+003
+3.41227045075E+007, +3.14967191060E+001, +1.25162866910E+003
+3.42894824708E+007, +3.22957993754E+001, +1.27095790460E+003
+3.44562604341E+007, +3.49458802262E+001, +1.29128383902E+003
+3.46230383973E+007, +3.72726987832E+001, +1.30605087829E+003
+3.47898163606E+007, +3.48445623017E+001, +1.31513119364E+003
+3.49565943239E+007, +4.51308903779E+001, +1.33087274542E+003
+3.51233722871E+007, +4.19715485878E+001, +1.35059866620E+003
+3.52901502504E+007, +4.38865329085E+001, +1.36200215138E+003
+3.54569282137E+007, +3.82700799229E+001, +1.38827438157E+003
+3.56237061770E+007, +3.20355858614E+001, +1.40192375597E+003
+3.57904841402E+007, +3.77012031023E+001, +1.42993544214E+003
+3.59572621035E+007, +4.28473209480E+001, +1.43857014850E+003
+3.61240400668E+007, +4.26459894233E+001, +1.46579635325E+003
+3.62908180301E+007, +5.07077320490E+001, +1.49133929725E+003
+3.64575959933E+007, +4.25788127644E+001, +1.51003997155E+003
+3.66243739566E+007, +5.34939526768E+001, +1.52016441914E+003
+3.67911519199E+007, +5.03321913033E+001, +1.56112763737E+003
+3.69579298831E+007, +4.56920037675E+001, +1.56533347084E+003
+3.71247078464E+007, +5.27093894701E+001, +1.59773115655E+003
+3.72914858097E+007, +4.96293218772E+001, +1.62178391260E+003
+3.74582637730E+007, +6.24511352614E+001, +1.65712627928E+003
+3.76250417362E+007, +6.11296014323E+001, +1.67150924619E+003
+3.77918196995E+007, +5.92103998960E+001, +1.69953617233E+003
+3.79585976628E+007, +5.93464516978E+001, +1.72182880836E+003
+3.81253756260E+007, +6.19025753054E+001, +1.74797948313E+003
+3.82921535893E+007, +7.25475349878E+001, +1.77155979936E+003
+3.84589315526E+007, +7.23523974071E+001, +1.80824432242E+003
+3.86257095159E+007, +7.24749371115E+001, +1.83194213845E+003
+3.87924874791E+007, +6.62693728265E+001, +1.87286659427E+003
+3.89592654424E+007, +8.21261917195E+001, +1.90410368135E+003
+3.91260434057E+007, +8.19136242796E+001, +1.94282758410E+003
+3.92928213689E+007, +9.94956324507E+001, +1.95858951313E+003
+3.94595993322E+007, +7.89905042954E+001, +1.99591637259E+003
+3.96263772955E+007, +8.71453641331E+001, +2.02822286829E+003
+3.97931552588E+007, +8.03699439323E+001, +2.07497990545E+003
+3.99599332220E+007, +8.97217963317E+001, +2.10387933951E+003
+4.01267111853E+007, +9.42377398129E+001, +2.15590467298E+003
+4.02934891486E+007, +1.01925267101E+002, +2.18420551759E+003
+4.04602671119E+007, +1.22540821283E+002, +2.22458564776E+003
+4.06270450751E+007, +1.43497783672E+002, +2.30723022069E+003
+4.07938230384E+007, +1.45100245986E+002, +2.31912300403E+003
+4.09606010017E+007, +1.23446440679E+002, +2.36817058326E+003
+4.11273789649E+007, +1.53563071469E+002, +2.39494900243E+003
+4.12941569282E+007, +1.57286882273E+002, +2.45697582252E+003
+4.14609348915E+007, +1.51901360892E+002, +2.54561030329E+003
+4.16277128548E+007, +1.78528172525E+002, +2.58261159087E+003
+4.17944908180E+007, +1.91160138005E+002, +2.63218769291E+003
+4.19612687813E+007, +1.89944377896E+002, +2.69628486639E+003
+4.21280467446E+007, +1.99385197447E+002, +2.77824465633E+003
+4.22948247078E+007, +1.98266552225E+002, +2.81589033361E+003
+4.24616026711E+007, +2.81962629875E+002, +2.87548294380E+003
+4.26283806344E+007, +2.57413222284E+002, +2.94131341704E+003
+4.27951585977E+007, +1.90650248751E+002, +3.09040058259E+003
+4.29619365609E+007, +3.02248439922E+002, +3.13157984261E+003
+4.31287145242E+007, +3.30448374766E+002, +3.21497044413E+003
+4.32954924875E+007, +3.33879720942E+002, +3.24700630127E+003
+4.34622704508E+007, +2.91613500015E+002, +3.39464175688E+003
+4.36290484140E+007, +4.09075456089E+002, +3.48277794164E+003
+4.37958263773E+007, +3.78836586974E+002, +3.67044219331E+003
+4.39626043406E+007, +3.76562195745E+002, +3.70953938791E+003
+4.41293823038E+007, +4.60984437653E+002, +3.86481104547E+003
+4.42961602671E+007, +5.12595880456E+002, +3.99067673967E+003
+4.44629382304E+007, +5.18022774059E+002, +4.05789365279E+003
+4.46297161937E+007, +5.51289811479E+002, +4.20398443350E+003
+4.47964941569E+007, +6.20283599836E+002, +4.44660716982E+003
+4.49632721202E+007, +6.21299322913E+002, +4.64972792941E+003
+4.51300500835E+007, +6.89731965118E+002, +4.65688967979E+003
+4.52968280467E+007, +8.95215784253E+002, +4.90550153525E+003
+4.54636060100E+007, +9.79045237951E+002, +5.24238207372E+003
+4.56303839733E+007, +1.02282639150E+003, +5.52523311202E+003
+4.57971619366E+007, +1.22071666021E+003, +5.73490836960E+003
+4.59639398998E+007, +1.46188910242E+003, +6.14757471812E+003
+4.61307178631E+007, +1.55864928590E+003, +6.26327764131E+003
+4.62974958264E+007, +1.95323807302E+003, +6.56872092195E+003
+4.64642737896E+007, +1.64808208606E+003, +7.05025863052E+003
+4.66310517529E+007, +2.34943442997E+003, +7.46063387948E+003
+4.67978297162E+007, +2.95810510256E+003, +7.26987226571E+003
+4.69646076795E+007, +3.52114645881E+003, +8.25224262936E+003
+4.71313856427E+007, +3.93799600096E+003, +8.30992571201E+003
+4.72981636060E+007, +4.88381215442E+003, +9.06463265065E+003
+4.74649415693E+007, +5.70096682403E+003, +9.56954862696E+003
+4.76317195326E+007, +6.49887302981E+003, +9.19644584479E+003
+4.77984974958E+007, +8.44925992136E+003, +8.83849138497E+003
+4.79652754591E+007, +9.95878964161E+003, +8.75802376292E+003
+4.81320534224E+007, +1.07493781964E+004, +9.13543390468E+003
+4.82988313856E+007, +1.20530365988E+004, +8.67164296083E+003
+4.84656093489E+007, +1.26177195849E+004, +6.72040000307E+003
+4.86323873122E+007, +1.43132875140E+004, +5.15988788732E+003
+4.87991652755E+007, +1.50716747374E+004, +3.10014142822E+003
+4.89659432387E+007, +1.48857595087E+004, +2.01131742736E+003
+4.91327212020E+007, +1.55623535779E+004, -7.35878823958E+002
+4.92994991653E+007, +1.35923889554E+004, -1.15908827232E+003
+4.94662771285E+007, +1.36999821672E+004, -2.84219494959E+003
+4.96330550918E+007, +1.21205754940E+004, -3.33776141689E+003
+4.97998330551E+007, +1.15118037119E+004, -4.28696122840E+003
+4.99666110184E+007, +1.05337465526E+004, -4.81788725280E+003
+5.01333889816E+007, +1.03633741743E+004, -5.41082569621E+003
+5.03001669449E+007, +9.37491332573E+003, -5.79078431949E+003
+5.04669449082E+007, +8.37407764891E+003, -5.60038881145E+003
+5.06337228715E+007, +7.65809714845E+003, -5.66536623395E+003
+5.08005008347E+007, +7.49637537970E+003, -5.93593961632E+003
+5.09672787980E+007, +6.89324565617E+003, -5.78719326486E+003
+5.11340567613E+007, +6.29702032101E+003, -6.22200282379E+003
+5.13008347245E+007, +5.45916572441E+003, -6.23634263413E+003
+5.14676126878E+007, +5.15129605406E+003, -6.38760300459E+003
+5.16343906511E+007, +4.59371814449E+003, -6.00737917546E+003
+5.18011686144E+007, +4.28049396421E+003, -6.04969368772E+003
+5.19679465776E+007, +3.86066758680E+003, -6.13811049703E+003
+5.21347245409E+007, +3.38836154326E+003, -6.08366255602E+003
+5.23015025042E+007, +2.94105009436E+003, -5.55264482200E+003
+5.24682804674E+007, +2.59313519312E+003, -5.63423622215E+003
+5.26350584307E+007, +2.39974006421E+003, -5.34309260861E+003
+5.28018363940E+007, +2.03323730330E+003, -5.14538332323E+003
+5.29686143573E+007, +1.87337879435E+003, -4.93034630996E+003
+5.31353923205E+007, +1.86436969009E+003, -4.77947665757E+003
+5.33021702838E+007, +1.54381027989E+003, -4.69787906778E+003
+5.34689482471E+007, +1.49384318994E+003, -4.37133979854E+003
