"# Channel 1"
"# Trace 1"
Frequency, Formatted Data, Formatted Data
+1.00000000000E+006, +4.78789252203E+001, +2.42331873294E+001
+1.16527545910E+006, +4.78992561162E+001, +2.82480794332E+001
+1.33055091820E+006, +4.79347753482E+001, +3.21680173887E+001
+1.49582637730E+006, +4.80326063857E+001, +3.62492127906E+001
+1.66110183639E+006, +4.80122767395E+001, +4.02135569918E+001
+1.82637729549E+006, +4.80408664709E+001, +4.42277521823E+001
+1.99165275459E+006, +4.80672757322E+001, +4.82610802931E+001
+2.15692821369E+006, +4.81894540272E+001, +5.22759599558E+001
+2.32220367279E+006, +4.82360881374E+001, +5.62608387543E+001
+2.48747913189E+006, +4.83107383622E+001, +6.03597559317E+001
+2.65275459098E+006, +4.83819719596E+001, +6.44423115204E+001
+2.81803005008E+006, +4.84790436531E+001, +6.84790177140E+001
+2.98330550918E+006, +4.83700172456E+001, +7.25421340504E+001
+3.14858096828E+006, +4.85482796068E+001, +7.66956956756E+001
+3.31385642738E+006, +4.85822886984E+001, +8.07132516556E+001
+3.47913188648E+006, +4.87296050465E+001, +8.48221748385E+001
+3.64440734558E+006, +4.87487552681E+001, +8.90742565297E+001
+3.80968280467E+006, +4.89814607102E+001, +9.32223290288E+001
+3.97495826377E+006, +4.89975804078E+001, +9.75415288810E+001
+4.14023372287E+006, +4.88432554416E+001, +9.94989196081E+001
+4.30550918197E+006, +4.89478525233E+001, +1.05892862170E+002
+4.47078464107E+006, +4.92839737504E+001, +1.09943116122E+002
+4.63606010017E+006, +4.93617046271E+001, +1.14315886052E+002
+4.80133555927E+006, +4.94657617271E+001, +1.18551866477E+002
+4.96661101836E+006, +4.95900647701E+001, +1.22616694948E+002
+5.13188647746E+006, +4.97222327701E+001, +1.26806053163E+002
+5.29716193656E+006, +4.98253983052E+001, +1.31213389314E+002
+5.46243739566E+006, +5.00722274978E+001, +1.35761708359E+002
+5.62771285476E+006, +5.01891489566E+001, +1.39772539663E+002
+5.79298831386E+006, +5.01352347516E+001, +1.44210394624E+002
+5.95826377295E+006, +5.02955321986E+001, +1.48631686888E+002
+6.12353923205E+006, +5.03950216898E+001, +1.53201340118E+002
+6.28881469115E+006, +5.05530098279E+001, +1.57415963220E+002
+6.45409015025E+006, +5.07233722365E+001, +1.61832475557E+002
+6.61936560935E+006, +5.10678313254E+001, +1.66244942102E+002
+6.78464106845E+006, +5.12901164039E+001, +1.71070429812E+002
+6.94991652755E+006, +5.12845702792E+001, +1.75411602181E+002
+7.11519198664E+006, +5.16759116509E+001, +1.80033813227E+002
+7.28046744574E+006, +5.16515696729E+001, +1.84487221763E+002
+7.44574290484E+006, +5.16981148363E+001, +1.89014044527E+002
+7.61101836394E+006, +5.20276392025E+001, +1.93975968344E+002
+7.77629382304E+006, +5.20909759846E+001, +1.98442258155E+002
+7.94156928214E+006, +5.21161124038E+001, +2.03012713810E+002
+8.10684474124E+006, +5.23832863102E+001, +2.07966765036E+002
+8.27212020033E+006, +5.25272263521E+001, +2.12702668530E+002
+8.43739565943E+006, +5.25827247741E+001, +2.17634351349E+002
+8.60267111853E+006, +5.24846479349E+001, +2.22175827886E+002
+8.76794657763E+006, +5.33019636142E+001, +2.27040388531E+002
+8.93322203673E+006, +5.35269568823E+001, +2.31831401218E+002
+9.09849749583E+006, +5.34277032548E+001, +2.37148776797E+002
+9.26377295492E+006, +5.36345876459E+001, +2.42512991978E+002
+9.42904841402E+006, +5.37510332503E+001, +2.47585019666E+002
+9.59432387312E+006, +5.37235246833E+001, +2.52032095706E+002
+9.75959933222E+006, +5.40123815120E+001, +2.55962783020E+002
+9.92487479132E+006, +5.40327868437E+001, +2.60835559970E+002
+1.00901502504E+007, +5.46353969558E+001, +2.65755174372E+002
+1.02554257095E+007, +5.47585632875E+001, +2.71012411646E+002
+1.04207011686E+007, +5.46878262051E+001, +2.76000726323E+002
+1.05859766277E+007, +5.51850050185E+001, +2.81537453415E+002
+1.07512520868E+007, +5.51144354591E+001, +2.87495413389E+002
+1.09165275459E+007, +5.54567677222E+001, +2.93681841584E+002
+1.10818030050E+007, +5.51300633480E+001, +3.00043935017E+002
+1.12470784641E+007, +5.58744488455E+001, +3.06768971853E+002
+1.14123539232E+007, +5.60861206954E+001, +3.13294783292E+002
+1.15776293823E+007, +5.63739903115E+001, +3.20138684063E+002
+1.17429048414E+007, +5.65065380131E+001, +3.25748373204E+002
+1.19081803005E+007, +5.71234472335E+001, +3.31538327589E+002
+1.20734557596E+007, +5.69455647044E+001, +3.37888432009E+002
+1.22387312187E+007, +5.72850004359E+001, +3.44118148462E+002
+1.24040066778E+007, +5.77864996706E+001, +3.50186540891E+002
+1.25692821369E+007, +5.78686723820E+001, +3.57181637307E+002
+1.27345575960E+007, +5.78690405507E+001, +3.64031131676E+002
+1.28998330551E+007, +5.88855297043E+001, +3.69186142923E+002
+1.30651085142E+007, +5.86023763370E+001, +3.76598814171E+002
+1.32303839733E+007, +5.89347884380E+001, +3.83529168716E+002
+1.33956594324E+007, +5.90509304229E+001, +3.89739921529E+002
+1.35609348915E+007, +6.04810796520E+001, +3.96301221158E+002
+1.37262103506E+007, +6.11025636043E+001, +4.04161881869E+002
+1.38914858097E+007, +6.13920933653E+001, +4.11942561107E+002
+1.40567612688E+007, +6.14263470108E+001, +4.18740137474E+002
+1.42220367279E+007, +6.10914517515E+001, +4.25777639868E+002
+1.43873121870E+007, +6.21281132501E+001, +4.33555164389E+002
+1.45525876461E+007, +6.23402810847E+001, +4.40795490070E+002
+1.47178631052E+007, +6.33705793833E+001, +4.48086186210E+002
+1.48831385643E+007, +6.27758850513E+001, +4.56230577556E+002
+1.50484140234E+007, +6.37301353216E+001, +4.64839553789E+002
+1.52136894825E+007, +6.45297331142E+001, +4.73591105862E+002
+1.53789649416E+007, +6.67744320843E+001, +4.80536738982E+002
+1.55442404007E+007, +6.56715027759E+001, +4.89638382354E+002
+1.57095158598E+007, +6.65166273021E+001, +4.99254119324E+002
+1.58747913189E+007, +6.67645077336E+001, +5.06933730597E+002
+1.60400667780E+007, +6.78292147911E+001, +5.16434143844E+002
+1.62053422371E+007, +6.90164357376E+001, +5.24226415478E+002
+1.63706176962E+007, +6.87404963663E+001, +5.33662629824E+002
+1.65358931553E+007, +6.88499614775E+001, +5.45063204800E+002
+1.67011686144E+007, +7.12844316704E+001, +5.53087037538E+002
+1.68664440735E+007, +7.13298130846E+001, +5.62806198512E+002
+1.70317195326E+007, +7.11923262907E+001, +5.73588221201E+002
+1.71969949917E+007, +7.16508759382E+001, +5.83194308578E+002
+1.73622704508E+007, +7.45356865609E+001, +5.92304893982E+002
+1.75275459098E+007, +7.35555280942E+001, +6.03168404986E+002
+1.76928213689E+007, +7.53311243187E+001, +6.16329977669E+002
+1.78580968280E+007, +7.62088877514E+001, +6.25911651149E+002
+1.80233722871E+007, +7.68387626865E+001, +6.37703617615E+002
+1.81886477462E+007, +7.78860795075E+001, +6.48026020668E+002
+1.83539232053E+007, +7.83794072730E+001, +6.61737440537E+002
+1.85191986644E+007, +7.99882498818E+001, +6.73070920437E+002
+1.86844741235E+007, +8.28695340311E+001, +6.84872577978E+002
+1.88497495826E+007, +8.27300599778E+001, +6.99162991421E+002
+1.90150250417E+007, +8.21235708241E+001, +7.10515218575E+002
+1.91803005008E+007, +8.43976789890E+001, +7.24715243080E+002
+1.93455759599E+007, +8.66808285777E+001, +7.36439225498E+002
+1.95108514190E+007, +8.81372426647E+001, +7.52952874456E+002
+1.96761268781E+007, +8.97876636296E+001, +7.67173390134E+002
+1.98414023372E+007, +8.99298968680E+001, +7.80124967907E+002
+2.00066777963E+007, +9.33333367151E+001, +7.94750766394E+002
+2.01719532554E+007, +9.25932465401E+001, +8.09976985901E+002
+2.03372287145E+007, +9.57428776370E+001, +8.29058384077E+002
+2.05025041736E+007, +9.80165312903E+001, +8.44765034074E+002
+2.06677796327E+007, +9.89199205637E+001, +8.59171120766E+002
+2.08330550918E+007, +1.01079545130E+002, +8.78245944819E+002
+2.09983305509E+007, +1.01093232452E+002, +8.98029929346E+002
+2.11636060100E+007, +1.04389509491E+002, +9.11581497504E+002
+2.13288814691E+007, +1.04142092196E+002, +9.33674314815E+002
+2.14941569282E+007, +1.11254679272E+002, +9.54672388312E+002
+2.16594323873E+007, +1.13407276120E+002, +9.72683442989E+002
+2.18247078464E+007, +1.14799102741E+002, +9.92650640686E+002
+2.19899833055E+007, +1.17921967915E+002, +1.01439567476E+003
+2.21552587646E+007, +1.19922661571E+002, +1.03620995119E+003
+2.23205342237E+007, +1.23927709581E+002, +1.05796082217E+003
+2.24858096828E+007, +1.19516362652E+002, +1.08574057162E+003
+2.26510851419E+007, +1.23979423239E+002, +1.10849695738E+003
+2.28163606010E+007, +1.32699770526E+002, +1.13680930784E+003
+2.29816360601E+007, +1.31651628724E+002, +1.16322589120E+003
+2.31469115192E+007, +1.36483584064E+002, +1.19193216850E+003
+2.33121869783E+007, +1.39279212583E+002, +1.21785919433E+003
+2.34774624374E+007, +1.45749758898E+002, +1.24911036245E+003
+2.36427378965E+007, +1.50305301335E+002, +1.27751913219E+003
+2.38080133556E+007, +1.54813559340E+002, +1.30725164615E+003
+2.39732888147E+007, +1.57926750658E+002, +1.34371342790E+003
+2.41385642738E+007, +1.65381263629E+002, +1.37729388259E+003
+2.43038397329E+007, +1.78502942965E+002, +1.42066120488E+003
+2.44691151920E+007, +1.85030369508E+002, +1.45566686752E+003
+2.46343906511E+007, +1.79304372786E+002, +1.49777056008E+003
+2.47996661102E+007, +1.91970658754E+002, +1.53838755019E+003
+2.49649415693E+007, +1.94548574366E+002, +1.57766178940E+003
+2.51302170284E+007, +2.12590948981E+002, +1.63070818444E+003
+2.52954924875E+007, +2.24704094041E+002, +1.67124425638E+003
+2.54607679466E+007, +2.23901826160E+002, +1.72054000501E+003
+2.56260434057E+007, +2.33243582435E+002, +1.77570147574E+003
+2.57913188648E+007, +2.44206266048E+002, +1.83083174279E+003
+2.59565943239E+007, +2.55970858770E+002, +1.90408449015E+003
+2.61218697830E+007, +2.77077576428E+002, +1.94628332505E+003
+2.62871452421E+007, +2.88854165149E+002, +2.02729084416E+003
+2.64524207012E+007, +2.97912910093E+002, +2.08824444355E+003
+2.66176961603E+007, +3.17886502746E+002, +2.17508656901E+003
+2.67829716194E+007, +3.52556557810E+002, +2.26265539126E+003
+2.69482470785E+007, +3.54216823008E+002, +2.35518833308E+003
+2.71135225376E+007, +3.81383083674E+002, +2.42963808455E+003
+2.72787979967E+007, +4.03570500499E+002, +2.52346875386E+003
+2.74440734558E+007, +4.59767291682E+002, +2.65186737189E+003
+2.76093489149E+007, +4.99414422312E+002, +2.78015995028E+003
+2.77746243740E+007, +5.33523441461E+002, +2.85646444784E+003
+2.79398998331E+007, +5.69600552185E+002, +3.01207361784E+003
+2.81051752922E+007, +6.68453407314E+002, +3.16934592986E+003
+2.82704507513E+007, +7.26022172453E+002, +3.33696783792E+003
+2.84357262104E+007, +7.93851532024E+002, +3.50012860080E+003
+2.86010016694E+007, +8.70305245842E+002, +3.67510236989E+003
+2.87662771285E+007, +9.52141243443E+002, +3.88158372404E+003
+2.89315525876E+007, +1.09671194488E+003, +4.11942673342E+003
+2.90968280467E+007, +1.25022695971E+003, +4.40534644958E+003
+2.92621035058E+007, +1.51804108687E+003, +4.67630982732E+003
+2.94273789649E+007, +1.62601797783E+003, +5.13498529498E+003
+2.95926544240E+007, +1.94504188794E+003, +5.29754059559E+003
+2.97579298831E+007, +2.11843935086E+003, +5.66647146011E+003
+2.99232053422E+007, +2.81662379965E+003, +6.14450703401E+003
+3.00884808013E+007, +3.20270170635E+003, +6.58016858195E+003
+3.02537562604E+007, +3.62950886630E+003, +7.05363942177E+003
+3.04190317195E+007, +4.68818517690E+003, +7.68762757255E+003
+3.05843071786E+007, +5.61192513871E+003, +8.06293120233E+003
+3.07495826377E+007, +7.10090542143E+003, +8.65391104038E+003
+3.09148580968E+007, +9.63842393252E+003, +8.54193004333E+003
+3.10801335559E+007, +1.21219913249E+004, +8.37604095100E+003
+3.12454090150E+007, +1.42338293540E+004, +6.42005034925E+003
+3.14106844741E+007, +1.61362561251E+004, +3.38520486512E+003
+3.15759599332E+007, +1.76406262780E+004, -9.03578813122E+002
+3.17412353923E+007, +1.68053850156E+004, -4.51202313653E+003
+3.19065108514E+007, +1.42698694013E+004, -7.70972111703E+003
+3.20717863105E+007, +1.15412325362E+004, -8.23460300893E+003
+3.22370617696E+007, +9.23970197946E+003, -8.86899742876E+003
+3.24023372287E+007, +7.18360880377E+003, -8.85027890697E+003
+3.25676126878E+007, +5.57323073666E+003, -8.31800840834E+003
+3.27328881469E+007, +4.25804965243E+003, -7.79610085159E+003
+3.28981636060E+007, +3.22603730025E+003, -7.43297006251E+003
+3.30634390651E+007, +3.14480777040E+003, -7.02686204225E+003
+3.32287145242E+007, +2.46999902173E+003, -6.36634770383E+003
+3.33939899833E+007, +2.20053865436E+003, -5.93425361727E+003
+3.35592654424E+007, +1.84012970840E+003, -5.50113866652E+003
+3.37245409015E+007, +1.61612139303E+003, -5.23784171556E+003
+3.38898163606E+007, +1.36175425435E+003, -4.89156269323E+003
+3.40550918197E+007, +1.18861079188E+003, -4.68519569333E+003
+3.42203672788E+007, +1.21125233576E+003, -4.35575725691E+003
+3.43856427379E+007, +9.80765626491E+002, -4.17530390587E+003
+3.45509181970E+007, +8.58768939781E+002, -3.98120791345E+003
+3.47161936561E+007, +8.45274242830E+002, -3.77356053746E+003
+3.48814691152E+007, +7.26176487312E+002, -3.73169781923E+003
+3.50467445743E+007, +6.41126620747E+002, -3.45660188448E+003
+3.52120200334E+007, +5.93671881396E+002, -3.36825034594E+003
+3.53772954925E+007, +5.68751660789E+002, -3.17780425500E+003
+3.55425709516E+007, +4.84389408619E+002, -3.09183596389E+003
+3.57078464107E+007, +4.72104298386E+002, -2.95812022956E+003
+3.58731218698E+007, +4.34018798627E+002, -2.89574910452E+003
+3.60383973289E+007, +4.39389266059E+002, -2.80371984556E+003
+3.62036727880E+007, +3.90454337199E+002, -2.68303062864E+003
+3.63689482471E+007, +3.41936608823E+002, -2.61170981273E+003
+3.65342237062E+007, +3.44570866994E+002, -2.52187104668E+003
+3.66994991653E+007, +3.20194877151E+002, -2.45165112100E+003
+3.68647746244E+007, +2.80512825169E+002, -2.39078930958E+003
+3.70300500835E+007, +2.97974669440E+002, -2.31070054916E+003
+3.71953255426E+007, +2.68260849420E+002, -2.24512217672E+003
+3.73606010017E+007, +2.80775455305E+002, -2.18182358849E+003
+3.75258764608E+007, +2.66279386242E+002, -2.14272285572E+003
+3.76911519199E+007, +2.29463830916E+002, -2.06881766979E+003
+3.78564273790E+007, +2.30027762653E+002, -2.03369149378E+003
+3.80217028381E+007, +2.29657604464E+002, -1.99121030829E+003
+3.81869782972E+007, +2.12687411057E+002, -1.94266619501E+003
+3.83522537563E+007, +1.91774615036E+002, -1.90267492806E+003
+3.85175292154E+007, +1.72873551651E+002, -1.85637624278E+003
+3.86828046745E+007, +1.80854573101E+002, -1.82575817802E+003
+3.88480801336E+007, +1.71475971832E+002, -1.78919983165E+003
+3.90133555927E+007, +1.57979873658E+002, -1.73654626727E+003
+3.91786310518E+007, +1.56460944190E+002, -1.70672421880E+003
+3.93439065109E+007, +1.50008122675E+002, -1.68079915542E+003
+3.95091819699E+007, +1.47445761818E+002, -1.65355951825E+003
+3.96744574290E+007, +1.40211070446E+002, -1.62143789715E+003
+3.98397328881E+007, +1.28762445171E+002, -1.58340811089E+003
+4.00050083472E+007, +1.30799741932E+002, -1.55154726153E+003
+4.01702838063E+007, +1.20808502304E+002, -1.52929740352E+003
+4.03355592654E+007, +1.22065080674E+002, -1.50288629900E+003
+4.05008347245E+007, +1.14804981780E+002, -1.47282287313E+003
+4.06661101836E+007, +1.10754389905E+002, -1.44734376665E+003
+4.08313856427E+007, +1.08891714727E+002, -1.42744734113E+003
+4.09966611018E+007, +1.03173349975E+002, -1.40179063649E+003
+4.11619365609E+007, +1.06838379034E+002, -1.37906014174E+003
+4.13272120200E+007, +1.01073281214E+002, -1.36029412476E+003
+4.14924874791E+007, +1.00609177136E+002, -1.33460051798E+003
+4.16577629382E+007, +9.52054839973E+001, -1.31853937808E+003
+4.18230383973E+007, +9.73725754518E+001, -1.30197339611E+003
+4.19883138564E+007, +9.27736631308E+001, -1.27792852333E+003
+4.21535893155E+007, +9.22366087004E+001, -1.26329079105E+003
+4.23188647746E+007, +8.66789122364E+001, -1.24611018305E+003
+4.24841402337E+007, +8.80122959781E+001, -1.22882982442E+003
+4.26494156928E+007, +8.32284525263E+001, -1.20918961497E+003
+4.28146911519E+007, +7.95564976711E+001, -1.19426061393E+003
+4.29799666110E+007, +7.81893841992E+001, -1.18240535245E+003
+4.31452420701E+007, +7.14047311809E+001, -1.16254737264E+003
+4.33105175292E+007, +7.21108334205E+001, -1.14470309751E+003
+4.34757929883E+007, +7.00022793901E+001, -1.13367331139E+003
+4.36410684474E+007, +6.52938323973E+001, -1.11795925733E+003
+4.38063439065E+007, +6.06882715158E+001, -1.10424173875E+003
+4.39716193656E+007, +6.09712999631E+001, -1.08826843418E+003
+4.41368948247E+007, +5.75960770425E+001, -1.07407601723E+003
+4.43021702838E+007, +5.91085452677E+001, -1.06074505425E+003
+4.44674457429E+007, +5.62993674719E+001, -1.05041646316E+003
+4.46327212020E+007, +5.49873345683E+001, -1.03347801906E+003
+4.47979966611E+007, +5.37011693593E+001, -1.02399839248E+003
+4.49632721202E+007, +5.05977238895E+001, -1.00993954145E+003
+4.51285475793E+007, +4.64768223021E+001, -9.99221538039E+002
+4.52938230384E+007, +4.71882256640E+001, -9.81736510842E+002
+4.54590984975E+007, +4.61988847664E+001, -9.73440670517E+002
+4.56243739566E+007, +4.58188462778E+001, -9.62110185903E+002
+4.57896494157E+007, +4.41085511182E+001, -9.48296419964E+002
+4.59549248748E+007, +4.42850088971E+001, -9.38360105564E+002
+4.61202003339E+007, +3.89970461965E+001, -9.28521612450E+002
+4.62854757930E+007, +4.07275309765E+001, -9.20623307047E+002
+4.64507512521E+007, +4.03741598998E+001, -9.11225785452E+002
+4.66160267112E+007, +3.77291951197E+001, -8.97288147843E+002
+4.67813021703E+007, +4.04208102805E+001, -8.88319873765E+002
+4.69465776294E+007, +4.01100322286E+001, -8.78826688993E+002
+4.71118530885E+007, +3.80532177935E+001, -8.69184078444E+002
+4.72771285476E+007, +3.68673859128E+001, -8.59751576658E+002
+4.74424040067E+007, +3.61996080423E+001, -8.53313547883E+002
+4.76076794658E+007, +3.32521655781E+001, -8.42815421857E+002
+4.77729549249E+007, +3.54963266821E+001, -8.32803652594E+002
+4.79382303840E+007, +3.24907508220E+001, -8.23708653054E+002
+4.81035058431E+007, +3.13346106873E+001, -8.17063952091E+002
+4.82687813022E+007, +3.19011922503E+001, -8.07676386828E+002
+4.84340567613E+007, +3.33688380888E+001, -7.98606189935E+002
+4.85993322204E+007, +3.16134471772E+001, -7.92427104016E+002
+4.87646076795E+007, +3.27509139961E+001, -7.83430111292E+002
+4.89298831386E+007, +3.19052242058E+001, -7.74993570493E+002
+4.90951585977E+007, +3.11305895680E+001, -7.70308715183E+002
+4.92604340568E+007, +3.23707048450E+001, -7.61326853865E+002
+4.94257095159E+007, +3.17943012644E+001, -7.54973963905E+002
+4.95909849750E+007, +3.46989345733E+001, -7.46416389999E+002
+4.97562604341E+007, +3.16562845546E+001, -7.40328243906E+002
+4.99215358932E+007, +3.21439176293E+001, -7.33965428616E+002
+5.00868113523E+007, +3.37620740662E+001, -7.27597003578E+002
+5.02520868114E+007, +3.43372655303E+001, -7.19919954367E+002
+5.04173622705E+007, +3.40821548080E+001, -7.14970677284E+002
+5.05826377295E+007, +3.32378638456E+001, -7.09716915767E+002
+5.07479131886E+007, +3.39161821773E+001, -7.02481906182E+002
+5.09131886477E+007, +3.60398089846E+001, -7.00347271018E+002
+5.10784641068E+007, +3.42082364756E+001, -6.92811760621E+002
+5.12437395659E+007, +3.46441660635E+001, -6.87716661576E+002
+5.14090150250E+007, +3.43415010972E+001, -6.82212510303E+002
+5.15742904841E+007, +3.28537698824E+001, -6.76907018388E+002
+5.17395659432E+007, +3.28786853047E+001, -6.72472452000E+002
+5.19048414023E+007, +3.34974802960E+001, -6.67004076257E+002
+5.20701168614E+007, +3.28466427753E+001, -6.62458597962E+002
+5.22353923205E+007, +3.15942700875E+001, -6.58882892352E+002
+5.24006677796E+007, +2.98091219228E+001, -6.52998107877E+002
+5.25659432387E+007, +2.97161762215E+001, -6.47935257688E+002
+5.27312186978E+007, +2.88673649491E+001, -6.43378854706E+002
+5.28964941569E+007, +2.75844545298E+001, -6.38082766082E+002
+5.30617696160E+007, +2.89581882324E+001, -6.31994877485E+002
+5.32270450751E+007, +2.72126525288E+001, -6.27734153903E+002
+5.33923205342E+007, +2.60153742394E+001, -6.23327610654E+002
+5.35575959933E+007, +2.57425448091E+001, -6.17913663728E+002
+5.37228714524E+007, +2.51531901035E+001, -6.13312975255E+002
+5.38881469115E+007, +2.43788770660E+001, -6.07996562366E+002
