"# Channel 1"
"# Trace 1"
Frequency, Formatted Data, Formatted Data
+1.00000000000E+005, +2.61032470625E+001, +2.21085921807E+000
+2.66777963272E+005, +2.60878191029E+001, +6.15451024026E+000
+4.33555926544E+005, +2.60498990051E+001, +1.00653273778E+001
+6.00333889816E+005, +2.60957606928E+001, +1.39552540115E+001
+7.67111853088E+005, +2.61232268396E+001, +1.78578703360E+001
+9.33889816361E+005, +2.61419357009E+001, +2.17502559973E+001
+1.10066777963E+006, +2.61613994138E+001, +2.56281690702E+001
+1.26744574290E+006, +2.61462395469E+001, +2.94478578809E+001
+1.43422370618E+006, +2.61643325605E+001, +3.33134120616E+001
+1.60100166945E+006, +2.61471919237E+001, +3.71973869531E+001
+1.76777963272E+006, +2.61442328341E+001, +4.10809533172E+001
+1.93455759599E+006, +2.61420482470E+001, +4.48721474564E+001
+2.10133555927E+006, +2.61900226038E+001, +4.87309809160E+001
+2.26811352254E+006, +2.60809739976E+001, +5.26231837894E+001
+2.43489148581E+006, +2.61235506944E+001, +5.65195109342E+001
+2.60166944908E+006, +2.60620637006E+001, +6.04570807142E+001
+2.76844741235E+006, +2.60479958754E+001, +6.43322581931E+001
+2.93522537563E+006, +2.59240372475E+001, +6.81579100293E+001
+3.10200333890E+006, +2.59471433286E+001, +7.18949250129E+001
+3.26878130217E+006, +2.61485463584E+001, +7.58422059770E+001
+3.43555926544E+006, +2.60848371327E+001, +7.98160494329E+001
+3.60233722871E+006, +2.60543356316E+001, +8.36190152535E+001
+3.76911519199E+006, +2.62506399735E+001, +8.74270537308E+001
+3.93589315526E+006, +2.61042221299E+001, +9.14475487133E+001
+4.10267111853E+006, +2.75088820381E+001, +9.49351698166E+001
+4.26944908180E+006, +2.59516349142E+001, +9.94140071303E+001
+4.43622704508E+006, +2.62119959358E+001, +1.03001066009E+002
+4.60300500835E+006, +2.61020543031E+001, +1.06974608823E+002
+4.76978297162E+006, +2.60126903761E+001, +1.10814753331E+002
+4.93656093489E+006, +2.61693586735E+001, +1.14657819685E+002
+5.10333889816E+006, +2.61829190665E+001, +1.18574315158E+002
+5.27011686144E+006, +2.60238993715E+001, +1.22418289662E+002
+5.43689482471E+006, +2.61785549922E+001, +1.26534662660E+002
+5.60367278798E+006, +2.63837620342E+001, +1.30244049525E+002
+5.77045075125E+006, +2.66456800303E+001, +1.34377388659E+002
+5.93722871452E+006, +2.65158612513E+001, +1.38296429033E+002
+6.10400667780E+006, +2.69187385042E+001, +1.41709655630E+002
+6.27078464107E+006, +2.66355426855E+001, +1.45757586401E+002
+6.43756260434E+006, +2.67061146644E+001, +1.49682154904E+002
+6.60434056761E+006, +2.66301550652E+001, +1.53643809636E+002
+6.77111853088E+006, +2.68177531537E+001, +1.57560056384E+002
+6.93789649416E+006, +2.69507978232E+001, +1.61462482816E+002
+7.10467445743E+006, +2.69642635234E+001, +1.65281077247E+002
+7.27145242070E+006, +2.69575542242E+001, +1.69248208101E+002
+7.43823038397E+006, +2.71131571047E+001, +1.73125190567E+002
+7.60500834725E+006, +2.70559965013E+001, +1.77058058251E+002
+7.77178631052E+006, +2.72518740476E+001, +1.81029210446E+002
+7.93856427379E+006, +2.70058293357E+001, +1.84888360245E+002
+8.10534223706E+006, +2.68891002202E+001, +1.88571278809E+002
+8.27212020033E+006, +2.71681905762E+001, +1.92638539962E+002
+8.43889816361E+006, +2.71785337337E+001, +1.96885476315E+002
+8.60567612688E+006, +2.68839324948E+001, +2.00721222112E+002
+8.77245409015E+006, +2.71595378129E+001, +2.04771728249E+002
+8.93923205342E+006, +2.70056687063E+001, +2.08940730667E+002
+9.10601001669E+006, +2.69767250827E+001, +2.12517158297E+002
+9.27278797997E+006, +2.70993694521E+001, +2.17091599442E+002
+9.43956594324E+006, +2.69350657702E+001, +2.20859181984E+002
+9.60634390651E+006, +2.71485225343E+001, +2.24638820500E+002
+9.77312186978E+006, +2.68221334855E+001, +2.28538357376E+002
+9.93989983306E+006, +2.68188766365E+001, +2.32458703309E+002
+1.01066777963E+007, +2.70471345816E+001, +2.36602132669E+002
+1.02734557596E+007, +2.69134743331E+001, +2.40399618102E+002
+1.04402337229E+007, +2.71710313789E+001, +2.44618988737E+002
+1.06070116861E+007, +2.71582626357E+001, +2.49164984334E+002
+1.07737896494E+007, +2.71652213381E+001, +2.53085089319E+002
+1.09405676127E+007, +2.71713912299E+001, +2.56868118308E+002
+1.11073455760E+007, +2.74374378117E+001, +2.61255990262E+002
+1.12741235392E+007, +2.70143034107E+001, +2.64553296489E+002
+1.14409015025E+007, +2.73864229116E+001, +2.68973235454E+002
+1.16076794658E+007, +2.74926880957E+001, +2.73459327075E+002
+1.17744574290E+007, +2.69946079868E+001, +2.77298485358E+002
+1.19412353923E+007, +2.73387446511E+001, +2.81244378628E+002
+1.21080133556E+007, +2.73385170854E+001, +2.85852391036E+002
+1.22747913189E+007, +2.71759241982E+001, +2.89828835816E+002
+1.24415692821E+007, +2.76513191609E+001, +2.93506097435E+002
+1.26083472454E+007, +2.70899139134E+001, +2.97833975658E+002
+1.27751252087E+007, +2.79597631464E+001, +3.01422120158E+002
+1.29419031720E+007, +2.75231917489E+001, +3.06144704804E+002
+1.31086811352E+007, +2.74127401689E+001, +3.10094315917E+002
+1.32754590985E+007, +2.77813339324E+001, +3.14841604760E+002
+1.34422370618E+007, +2.73328528174E+001, +3.18796532077E+002
+1.36090150250E+007, +2.77719647992E+001, +3.22439590354E+002
+1.37757929883E+007, +2.74472275406E+001, +3.26353177089E+002
+1.39425709516E+007, +2.83737024679E+001, +3.30462628544E+002
+1.41093489149E+007, +2.78229971630E+001, +3.34561217893E+002
+1.42761268781E+007, +2.78562815923E+001, +3.39818424809E+002
+1.44429048414E+007, +2.76336136609E+001, +3.43602388386E+002
+1.46096828047E+007, +2.77129986252E+001, +3.47989645401E+002
+1.47764607679E+007, +2.80579042596E+001, +3.51766506879E+002
+1.49432387312E+007, +2.80515818693E+001, +3.55764527930E+002
+1.51100166945E+007, +2.81129715943E+001, +3.60603733086E+002
+1.52767946578E+007, +2.86806394757E+001, +3.65028717908E+002
+1.54435726210E+007, +2.86139034699E+001, +3.69240851436E+002
+1.56103505843E+007, +2.85414632568E+001, +3.73501392793E+002
+1.57771285476E+007, +2.88878118929E+001, +3.77418097924E+002
+1.59439065109E+007, +2.92282696386E+001, +3.81865839664E+002
+1.61106844741E+007, +2.90813570588E+001, +3.86510681388E+002
+1.62774624374E+007, +2.82856009532E+001, +3.89870500477E+002
+1.64442404007E+007, +2.86321362820E+001, +3.94380434026E+002
+1.66110183639E+007, +2.94667511209E+001, +3.98873237225E+002
+1.67777963272E+007, +2.93491416764E+001, +4.02796695439E+002
+1.69445742905E+007, +2.88358539794E+001, +4.07700129285E+002
+1.71113522538E+007, +2.85268594162E+001, +4.12439163173E+002
+1.72781302170E+007, +2.83819809754E+001, +4.17030393749E+002
+1.74449081803E+007, +2.91092355631E+001, +4.21137190891E+002
+1.76116861436E+007, +2.87194024570E+001, +4.25689145254E+002
+1.77784641068E+007, +2.88462240901E+001, +4.29421366209E+002
+1.79452420701E+007, +2.98092545599E+001, +4.34386137779E+002
+1.81120200334E+007, +2.95533707436E+001, +4.38199610717E+002
+1.82787979967E+007, +2.97821353527E+001, +4.42774114124E+002
+1.84455759599E+007, +3.10752017801E+001, +4.46931412824E+002
+1.86123539232E+007, +2.99140682290E+001, +4.50827370596E+002
+1.87791318865E+007, +3.01794291783E+001, +4.55655346837E+002
+1.89459098497E+007, +2.98141880895E+001, +4.61090626303E+002
+1.91126878130E+007, +3.00295408648E+001, +4.65623743962E+002
+1.92794657763E+007, +3.00810124839E+001, +4.68830690975E+002
+1.94462437396E+007, +3.04027998278E+001, +4.74260422555E+002
+1.96130217028E+007, +3.11388840586E+001, +4.78953997531E+002
+1.97797996661E+007, +3.16125470258E+001, +4.83165523132E+002
+1.99465776294E+007, +3.11684970595E+001, +4.87726983205E+002
+2.01133555927E+007, +3.06585267078E+001, +4.92013659301E+002
+2.02801335559E+007, +3.14468962896E+001, +4.96992044203E+002
+2.04469115192E+007, +3.18876205156E+001, +5.01856900050E+002
+2.06136894825E+007, +3.29190231317E+001, +5.06830350745E+002
+2.07804674457E+007, +3.14112624996E+001, +5.11314333300E+002
+2.09472454090E+007, +3.14428760672E+001, +5.15854661682E+002
+2.11140233723E+007, +3.07700166206E+001, +5.20231187936E+002
+2.12808013356E+007, +3.18541379169E+001, +5.26343283714E+002
+2.14475792988E+007, +3.31613363464E+001, +5.29345134685E+002
+2.16143572621E+007, +3.28350712941E+001, +5.33796798218E+002
+2.17811352254E+007, +3.24614160199E+001, +5.40465809798E+002
+2.19479131886E+007, +3.27019862320E+001, +5.44671829418E+002
+2.21146911519E+007, +3.39078802432E+001, +5.46934279275E+002
+2.22814691152E+007, +3.48044275875E+001, +5.54079845460E+002
+2.24482470785E+007, +3.37028660688E+001, +5.57527487853E+002
+2.26150250417E+007, +3.37906528208E+001, +5.63313297998E+002
+2.27818030050E+007, +3.45792930555E+001, +5.67587913890E+002
+2.29485809683E+007, +3.44253156652E+001, +5.72944509003E+002
+2.31153589316E+007, +3.71685007283E+001, +5.78191283817E+002
+2.32821368948E+007, +3.67158765223E+001, +5.83372652065E+002
+2.34489148581E+007, +3.75915440222E+001, +5.86691572638E+002
+2.36156928214E+007, +3.68682297134E+001, +5.93906760158E+002
+2.37824707846E+007, +3.75411073832E+001, +5.97154975325E+002
+2.39492487479E+007, +3.86316245575E+001, +6.01699797174E+002
+2.41160267112E+007, +3.93166567805E+001, +6.06045776709E+002
+2.42828046745E+007, +3.69738769266E+001, +6.12715415744E+002
+2.44495826377E+007, +3.95105481742E+001, +6.16190563623E+002
+2.46163606010E+007, +3.72855392458E+001, +6.21959742584E+002
+2.47831385643E+007, +3.85318709759E+001, +6.26079777632E+002
+2.49499165275E+007, +3.99903471236E+001, +6.31574105812E+002
+2.51166944908E+007, +4.05419283564E+001, +6.36532146930E+002
+2.52834724541E+007, +4.09909010172E+001, +6.40615481906E+002
+2.54502504174E+007, +4.06494823100E+001, +6.45769351619E+002
+2.56170283806E+007, +3.99661123822E+001, +6.49271185898E+002
+2.57838063439E+007, +3.94776863281E+001, +6.55125371934E+002
+2.59505843072E+007, +4.16364113306E+001, +6.58058017867E+002
+2.61173622705E+007, +4.15405474932E+001, +6.63640888725E+002
+2.62841402337E+007, +4.30070521511E+001, +6.70182720502E+002
+2.64509181970E+007, +4.01878575468E+001, +6.73902721305E+002
+2.66176961603E+007, +4.03670584501E+001, +6.82113971919E+002
+2.67844741235E+007, +3.87694294655E+001, +6.83025908868E+002
+2.69512520868E+007, +3.90490848317E+001, +6.93214854052E+002
+2.71180300501E+007, +4.13521853912E+001, +6.99088783285E+002
+2.72848080134E+007, +4.34022345139E+001, +7.04643712860E+002
+2.74515859766E+007, +4.08778852303E+001, +7.07050087159E+002
+2.76183639399E+007, +4.16864613761E+001, +7.11856170903E+002
+2.77851419032E+007, +4.04310654239E+001, +7.19834654310E+002
+2.79519198664E+007, +4.13681402593E+001, +7.23952825863E+002
+2.81186978297E+007, +4.40272879007E+001, +7.28040231415E+002
+2.82854757930E+007, +4.34636037451E+001, +7.37890050159E+002
+2.84522537563E+007, +4.39944194377E+001, +7.42284487118E+002
+2.86190317195E+007, +4.21883201010E+001, +7.49439492639E+002
+2.87858096828E+007, +4.19736233241E+001, +7.54267553126E+002
+2.89525876461E+007, +4.36948206538E+001, +7.58574432330E+002
+2.91193656093E+007, +4.47507482076E+001, +7.66048292633E+002
+2.92861435726E+007, +4.45583804925E+001, +7.70184714801E+002
+2.94529215359E+007, +4.33051837723E+001, +7.78060629841E+002
+2.96196994992E+007, +4.32680827986E+001, +7.83497315071E+002
+2.97864774624E+007, +4.67459878313E+001, +7.89143080339E+002
+2.99532554257E+007, +4.47420758262E+001, +7.94550251723E+002
+3.01200333890E+007, +4.54550893278E+001, +8.01064694206E+002
+3.02868113523E+007, +4.69325966577E+001, +8.07945095814E+002
+3.04535893155E+007, +4.66030817253E+001, +8.12883791858E+002
+3.06203672788E+007, +4.55724492833E+001, +8.17477740969E+002
+3.07871452421E+007, +4.49777583630E+001, +8.26883896709E+002
+3.09539232053E+007, +4.65395338596E+001, +8.30802326006E+002
+3.11207011686E+007, +4.59640901501E+001, +8.39386916521E+002
+3.12874791319E+007, +4.54424633018E+001, +8.43460778658E+002
+3.14542570952E+007, +4.86045026174E+001, +8.51865678512E+002
+3.16210350584E+007, +4.75861635525E+001, +8.58877722396E+002
+3.17878130217E+007, +4.78308331808E+001, +8.66679172686E+002
+3.19545909850E+007, +5.06078548307E+001, +8.67767184614E+002
+3.21213689482E+007, +4.30784912843E+001, +8.75309666930E+002
+3.22881469115E+007, +4.97129710654E+001, +8.81962248604E+002
+3.24549248748E+007, +4.74272903415E+001, +8.90720678756E+002
+3.26217028381E+007, +5.22140368039E+001, +8.94890941047E+002
+3.27884808013E+007, +4.95239976141E+001, +9.00951581970E+002
+3.29552587646E+007, +4.77692759559E+001, +9.09420492931E+002
+3.31220367279E+007, +4.87660472429E+001, +9.18530450587E+002
+3.32888146912E+007, +4.89033788277E+001, +9.29817645221E+002
+3.34555926544E+007, +4.74146139542E+001, +9.30752842156E+002
+3.36223706177E+007, +5.28605751334E+001, +9.38660273986E+002
+3.37891485810E+007, +5.12445643125E+001, +9.47997243589E+002
+3.39559265442E+007, +5.28395884042E+001, +9.53762627455E+002
+3.41227045075E+007, +5.04270550121E+001, +9.60916094080E+002
+3.42894824708E+007, +5.18581356125E+001, +9.64129547989E+002
+3.44562604341E+007, +5.17142492474E+001, +9.72721716047E+002
+3.46230383973E+007, +5.21180266498E+001, +9.81802459315E+002
+3.47898163606E+007, +5.06247704780E+001, +9.89416771833E+002
+3.49565943239E+007, +5.33422603893E+001, +9.96628626540E+002
+3.51233722871E+007, +5.55226569554E+001, +1.00684428187E+003
+3.52901502504E+007, +5.74117536078E+001, +1.01562045632E+003
+3.54569282137E+007, +5.18291104202E+001, +1.01727768060E+003
+3.56237061770E+007, +5.65570138690E+001, +1.03070319943E+003
+3.57904841402E+007, +5.65648506383E+001, +1.03404253457E+003
+3.59572621035E+007, +6.11782006275E+001, +1.04101834442E+003
+3.61240400668E+007, +5.51742838124E+001, +1.05335354533E+003
+3.62908180301E+007, +5.60993825088E+001, +1.05736070041E+003
+3.64575959933E+007, +5.67113860043E+001, +1.07068770417E+003
+3.66243739566E+007, +5.62360485292E+001, +1.08124261519E+003
+3.67911519199E+007, +5.81329451890E+001, +1.08524221158E+003
+3.69579298831E+007, +6.14777120327E+001, +1.09099193437E+003
+3.71247078464E+007, +6.16926315096E+001, +1.11010974631E+003
+3.72914858097E+007, +6.14169884183E+001, +1.12232692977E+003
+3.74582637730E+007, +6.28732990351E+001, +1.13114537322E+003
+3.76250417362E+007, +6.03536980824E+001, +1.13794607890E+003
+3.77918196995E+007, +6.35466591487E+001, +1.14376605757E+003
+3.79585976628E+007, +6.25622098489E+001, +1.15372540588E+003
+3.81253756260E+007, +6.32878367156E+001, +1.16357686046E+003
+3.82921535893E+007, +5.85454206746E+001, +1.17426573977E+003
+3.84589315526E+007, +6.53827817774E+001, +1.18190124301E+003
+3.86257095159E+007, +6.26921995621E+001, +1.19458601424E+003
+3.87924874791E+007, +6.46079278437E+001, +1.20597073421E+003
+3.89592654424E+007, +6.75565394000E+001, +1.21463656980E+003
+3.91260434057E+007, +7.02253285482E+001, +1.22752588360E+003
+3.92928213689E+007, +6.80023460280E+001, +1.23978636622E+003
+3.94595993322E+007, +7.33663095454E+001, +1.24874037688E+003
+3.96263772955E+007, +8.08321203177E+001, +1.25303027728E+003
+3.97931552588E+007, +7.03971340630E+001, +1.27549619772E+003
+3.99599332220E+007, +7.38388588779E+001, +1.28941673347E+003
+4.01267111853E+007, +7.16942069047E+001, +1.29477271899E+003
+4.02934891486E+007, +7.33098033550E+001, +1.30301973368E+003
+4.04602671119E+007, +7.60523177105E+001, +1.31946844493E+003
+4.06270450751E+007, +6.85388333723E+001, +1.33293583917E+003
+4.07938230384E+007, +8.00204137430E+001, +1.34381026265E+003
+4.09606010017E+007, +7.61002401875E+001, +1.35418632528E+003
+4.11273789649E+007, +8.77208275773E+001, +1.36252373309E+003
+4.12941569282E+007, +8.89281882129E+001, +1.37014210724E+003
+4.14609348915E+007, +8.59031699792E+001, +1.38254776049E+003
+4.16277128548E+007, +8.92529708782E+001, +1.40157201124E+003
+4.17944908180E+007, +8.12734962129E+001, +1.41799276445E+003
+4.19612687813E+007, +8.03194415125E+001, +1.43101383329E+003
+4.21280467446E+007, +8.56314166746E+001, +1.44302060504E+003
+4.22948247078E+007, +9.29961687324E+001, +1.45367079491E+003
+4.24616026711E+007, +8.99707987500E+001, +1.47989595278E+003
+4.26283806344E+007, +8.12807669549E+001, +1.48385809166E+003
+4.27951585977E+007, +9.84789984013E+001, +1.49961422694E+003
+4.29619365609E+007, +9.52629279958E+001, +1.51848846387E+003
+4.31287145242E+007, +1.06330293851E+002, +1.54419510806E+003
+4.32954924875E+007, +1.06517647866E+002, +1.55516349031E+003
+4.34622704508E+007, +9.25498901601E+001, +1.58223186565E+003
+4.36290484140E+007, +9.38405018479E+001, +1.59175824896E+003
+4.37958263773E+007, +9.81623511358E+001, +1.60585879498E+003
+4.39626043406E+007, +1.15475528953E+002, +1.62690399981E+003
+4.41293823038E+007, +1.14091136298E+002, +1.63652414865E+003
+4.42961602671E+007, +1.16419790920E+002, +1.66860717901E+003
+4.44629382304E+007, +1.19117856969E+002, +1.68580791269E+003
+4.46297161937E+007, +1.18626503971E+002, +1.69092310354E+003
+4.47964941569E+007, +1.24582085989E+002, +1.71843715062E+003
+4.49632721202E+007, +1.30487572788E+002, +1.75412054868E+003
+4.51300500835E+007, +1.36259592157E+002, +1.76419163725E+003
+4.52968280467E+007, +1.40802315836E+002, +1.79223887426E+003
+4.54636060100E+007, +1.26183324896E+002, +1.80246788866E+003
+4.56303839733E+007, +1.52171129311E+002, +1.83124744921E+003
+4.57971619366E+007, +1.64747166178E+002, +1.84783300638E+003
+4.59639398998E+007, +1.55466630351E+002, +1.88265535248E+003
+4.61307178631E+007, +1.56406060094E+002, +1.91238492778E+003
+4.62974958264E+007, +1.65288132733E+002, +1.93639514679E+003
+4.64642737896E+007, +1.72937968270E+002, +1.95197939571E+003
+4.66310517529E+007, +1.80490184834E+002, +1.99154998670E+003
+4.67978297162E+007, +1.96940768294E+002, +2.01025323111E+003
+4.69646076795E+007, +1.93381488993E+002, +2.04788919708E+003
+4.71313856427E+007, +2.00771697792E+002, +2.07156917928E+003
+4.72981636060E+007, +2.29563071161E+002, +2.11892194852E+003
+4.74649415693E+007, +2.19832531490E+002, +2.13211766052E+003
+4.76317195326E+007, +2.30106643785E+002, +2.16170490342E+003
+4.77984974958E+007, +2.49257975083E+002, +2.19451482564E+003
+4.79652754591E+007, +2.54291375755E+002, +2.22835528213E+003
+4.81320534224E+007, +2.86408686278E+002, +2.29151158905E+003
+4.82988313856E+007, +2.90316949069E+002, +2.28885362359E+003
+4.84656093489E+007, +3.09548275579E+002, +2.34993344839E+003
+4.86323873122E+007, +3.58722836266E+002, +2.37447917488E+003
+4.87991652755E+007, +3.60120986640E+002, +2.40901207739E+003
+4.89659432387E+007, +3.60380240923E+002, +2.42633368128E+003
+4.91327212020E+007, +3.95960697667E+002, +2.45983158321E+003
+4.92994991653E+007, +4.23617038300E+002, +2.51816960426E+003
+4.94662771285E+007, +4.50246302214E+002, +2.53987922670E+003
+4.96330550918E+007, +4.59478308089E+002, +2.58218416911E+003
+4.97998330551E+007, +4.87145556454E+002, +2.60591971961E+003
+4.99666110184E+007, +5.17944163257E+002, +2.67918040366E+003
+5.01333889816E+007, +5.49237764122E+002, +2.71446216810E+003
+5.03001669449E+007, +5.84176160576E+002, +2.72663787081E+003
+5.04669449082E+007, +6.01337384345E+002, +2.80169418487E+003
+5.06337228715E+007, +5.99483542984E+002, +2.80903654689E+003
+5.08005008347E+007, +6.52955658122E+002, +2.83152710572E+003
+5.09672787980E+007, +6.67638598947E+002, +2.87571180036E+003
+5.11340567613E+007, +6.90235845030E+002, +2.94492260224E+003
+5.13008347245E+007, +7.13590696913E+002, +2.98876726090E+003
+5.14676126878E+007, +7.58324347893E+002, +3.03417924911E+003
+5.16343906511E+007, +7.87859304296E+002, +3.09030071609E+003
+5.18011686144E+007, +8.18243391586E+002, +3.11789809794E+003
+5.19679465776E+007, +8.58811108317E+002, +3.17489260100E+003
+5.21347245409E+007, +8.66628697410E+002, +3.29105147631E+003
+5.23015025042E+007, +8.74527642834E+002, +3.31403741933E+003
+5.24682804674E+007, +9.05414397021E+002, +3.37821596769E+003
+5.26350584307E+007, +9.63135291876E+002, +3.48293705542E+003
+5.28018363940E+007, +1.02116094052E+003, +3.60967557520E+003
+5.29686143573E+007, +1.09309116396E+003, +3.74531860892E+003
+5.31353923205E+007, +1.10874671413E+003, +3.79568939940E+003
+5.33021702838E+007, +1.12736469845E+003, +3.89929471242E+003
+5.34689482471E+007, +1.25400651667E+003, +4.07686728778E+003
