"# Channel 1"
"# Trace 1"
Frequency, Formatted Data, Formatted Data
+1.00000000000E+006, +2.66081231060E+001, +2.36267054655E+001
+1.16527545910E+006, +2.66365611004E+001, +2.75021851835E+001
+1.33055091820E+006, +2.66476703914E+001, +3.13230235426E+001
+1.49582637730E+006, +2.65912146646E+001, +3.52656030493E+001
+1.66110183639E+006, +2.66019323460E+001, +3.91427584827E+001
+1.82637729549E+006, +2.65663252439E+001, +4.29881977874E+001
+1.99165275459E+006, +2.66240589107E+001, +4.68907922704E+001
+2.15692821369E+006, +2.66018486936E+001, +5.07595318039E+001
+2.32220367279E+006, +2.65199891339E+001, +5.46684263650E+001
+2.48747913189E+006, +2.65167793995E+001, +5.86008897430E+001
+2.65275459098E+006, +2.64359300192E+001, +6.24719954199E+001
+2.81803005008E+006, +2.65606039853E+001, +6.63866673775E+001
+2.98330550918E+006, +2.63865356246E+001, +7.02352661436E+001
+3.14858096828E+006, +2.65147817496E+001, +7.41300598797E+001
+3.31385642738E+006, +2.65913752690E+001, +7.79594528846E+001
+3.47913188648E+006, +2.65060548327E+001, +8.19944532665E+001
+3.64440734558E+006, +2.65106567987E+001, +8.57519275611E+001
+3.80968280467E+006, +2.66694726668E+001, +8.95792872733E+001
+3.97495826377E+006, +2.66658541905E+001, +9.34529291070E+001
+4.14023372287E+006, +2.67316725758E+001, +9.77838218000E+001
+4.30550918197E+006, +2.64830942241E+001, +1.01112480731E+002
+4.47078464107E+006, +2.65538264441E+001, +1.05317993029E+002
+4.63606010017E+006, +2.63969817840E+001, +1.09292900836E+002
+4.80133555927E+006, +2.65439790507E+001, +1.13277718368E+002
+4.96661101836E+006, +2.66609613464E+001, +1.17206628322E+002
+5.13188647746E+006, +2.66064037617E+001, +1.21020635397E+002
+5.29716193656E+006, +2.66425636677E+001, +1.24744318032E+002
+5.46243739566E+006, +2.65706527177E+001, +1.28887384719E+002
+5.62771285476E+006, +2.67504133942E+001, +1.32739501171E+002
+5.79298831386E+006, +2.70304147650E+001, +1.36925285935E+002
+5.95826377295E+006, +2.68587643579E+001, +1.40657263114E+002
+6.12353923205E+006, +2.73438535798E+001, +1.44358762940E+002
+6.28881469115E+006, +2.70323755079E+001, +1.48446788774E+002
+6.45409015025E+006, +2.72455091006E+001, +1.52336960607E+002
+6.61936560935E+006, +2.70957569596E+001, +1.56421911689E+002
+6.78464106845E+006, +2.71885581232E+001, +1.60220872023E+002
+6.94991652755E+006, +2.73790766800E+001, +1.64198857476E+002
+7.11519198664E+006, +2.74505959201E+001, +1.68063695620E+002
+7.28046744574E+006, +2.74388122448E+001, +1.72015650180E+002
+7.44574290484E+006, +2.75669033259E+001, +1.75926778727E+002
+7.61101836394E+006, +2.74701222089E+001, +1.79826832676E+002
+7.77629382304E+006, +2.75462848272E+001, +1.83927085995E+002
+7.94156928214E+006, +2.73191802094E+001, +1.87828444822E+002
+8.10684474124E+006, +2.73239018164E+001, +1.91609801324E+002
+8.27212020033E+006, +2.75829910679E+001, +1.95623647666E+002
+8.43739565943E+006, +2.75796124109E+001, +1.99694161118E+002
+8.60267111853E+006, +2.72801514265E+001, +2.03566777407E+002
+8.76794657763E+006, +2.77120696054E+001, +2.07519061779E+002
+8.93322203673E+006, +2.75002824794E+001, +2.11827843139E+002
+9.09849749583E+006, +2.75135541566E+001, +2.15530349172E+002
+9.26377295492E+006, +2.74353026942E+001, +2.19966743204E+002
+9.42904841402E+006, +2.74032878971E+001, +2.23541047844E+002
+9.59432387312E+006, +2.74498580886E+001, +2.27648450888E+002
+9.75959933222E+006, +2.72320181889E+001, +2.31824997024E+002
+9.92487479132E+006, +2.73600832278E+001, +2.35801811742E+002
+1.00901502504E+007, +2.75427695298E+001, +2.39755611325E+002
+1.02554257095E+007, +2.75725395308E+001, +2.43733110146E+002
+1.04207011686E+007, +2.73781801275E+001, +2.47789149051E+002
+1.05859766277E+007, +2.76581539358E+001, +2.51866546267E+002
+1.07512520868E+007, +2.76966275220E+001, +2.56003714019E+002
+1.09165275459E+007, +2.73325317716E+001, +2.60151836497E+002
+1.10818030050E+007, +2.77679760312E+001, +2.64345784308E+002
+1.12470784641E+007, +2.75313873914E+001, +2.68197567313E+002
+1.14123539232E+007, +2.73827217958E+001, +2.72422131650E+002
+1.15776293823E+007, +2.79543494376E+001, +2.76894979366E+002
+1.17429048414E+007, +2.75411681979E+001, +2.81291509813E+002
+1.19081803005E+007, +2.77925013256E+001, +2.85155983098E+002
+1.20734557596E+007, +2.79060377472E+001, +2.89177486069E+002
+1.22387312187E+007, +2.75942573245E+001, +2.92999663964E+002
+1.24040066778E+007, +2.76737118799E+001, +2.96847122370E+002
+1.25692821369E+007, +2.77533435221E+001, +3.01018927332E+002
+1.27345575960E+007, +2.81785261057E+001, +3.05057473236E+002
+1.28998330551E+007, +2.78225313743E+001, +3.10152784995E+002
+1.30651085142E+007, +2.74594975378E+001, +3.13780190770E+002
+1.32303839733E+007, +2.88658059988E+001, +3.18438143759E+002
+1.33956594324E+007, +2.77439165852E+001, +3.22736733761E+002
+1.35609348915E+007, +2.81884426844E+001, +3.26405128755E+002
+1.37262103506E+007, +2.81111037980E+001, +3.30393659922E+002
+1.38914858097E+007, +2.79969382810E+001, +3.34009550121E+002
+1.40567612688E+007, +2.82822674712E+001, +3.38741773818E+002
+1.42220367279E+007, +2.87278909905E+001, +3.43590993067E+002
+1.43873121870E+007, +2.81603865921E+001, +3.47563717603E+002
+1.45525876461E+007, +2.80440774099E+001, +3.52133103303E+002
+1.47178631052E+007, +2.79352431698E+001, +3.55930439492E+002
+1.48831385643E+007, +2.87620622541E+001, +3.60040427419E+002
+1.50484140234E+007, +2.88222160153E+001, +3.64654975244E+002
+1.52136894825E+007, +2.74975560386E+001, +3.68958527506E+002
+1.53789649416E+007, +2.89193364774E+001, +3.72982156268E+002
+1.55442404007E+007, +2.84150760207E+001, +3.77628187604E+002
+1.57095158598E+007, +2.89405646023E+001, +3.81140292503E+002
+1.58747913189E+007, +2.95496977392E+001, +3.86018702910E+002
+1.60400667780E+007, +2.87234845179E+001, +3.89718015482E+002
+1.62053422371E+007, +2.84658055233E+001, +3.94387177892E+002
+1.63706176962E+007, +2.85187422801E+001, +3.99017939559E+002
+1.65358931553E+007, +2.93291753424E+001, +4.02425664522E+002
+1.67011686144E+007, +2.98390033074E+001, +4.07699613835E+002
+1.68664440735E+007, +2.88762261455E+001, +4.11563899343E+002
+1.70317195326E+007, +2.72150458440E+001, +4.17233999939E+002
+1.71969949917E+007, +2.74489796378E+001, +4.21625194936E+002
+1.73622704508E+007, +2.85089449776E+001, +4.25146381232E+002
+1.75275459098E+007, +2.85383679904E+001, +4.30424872120E+002
+1.76928213689E+007, +2.88098638151E+001, +4.34963530900E+002
+1.78580968280E+007, +2.97935172506E+001, +4.39686825186E+002
+1.80233722871E+007, +2.96519461057E+001, +4.42968776583E+002
+1.81886477462E+007, +2.83822632459E+001, +4.48041346894E+002
+1.83539232053E+007, +3.05601640282E+001, +4.51803046841E+002
+1.85191986644E+007, +3.01615738843E+001, +4.57097070419E+002
+1.86844741235E+007, +3.01060794708E+001, +4.61242245876E+002
+1.88497495826E+007, +3.00483976294E+001, +4.65711347844E+002
+1.90150250417E+007, +3.00468383055E+001, +4.71070852878E+002
+1.91803005008E+007, +3.00393748511E+001, +4.75355852537E+002
+1.93455759599E+007, +2.98891570795E+001, +4.79044333464E+002
+1.95108514190E+007, +3.17940660514E+001, +4.82872644783E+002
+1.96761268781E+007, +3.09414219310E+001, +4.88545793828E+002
+1.98414023372E+007, +3.17263057218E+001, +4.92905826504E+002
+2.00066777963E+007, +2.91295570472E+001, +4.97268318755E+002
+2.01719532554E+007, +3.17778684958E+001, +5.03239001061E+002
+2.03372287145E+007, +3.22408147244E+001, +5.06962633436E+002
+2.05025041736E+007, +3.14390211024E+001, +5.11166046349E+002
+2.06677796327E+007, +3.19729837134E+001, +5.17324060509E+002
+2.08330550918E+007, +3.11533168402E+001, +5.21012528530E+002
+2.09983305509E+007, +3.25597616842E+001, +5.26494630533E+002
+2.11636060100E+007, +3.20064938907E+001, +5.30786171134E+002
+2.13288814691E+007, +3.26252458573E+001, +5.34889727111E+002
+2.14941569282E+007, +3.20986525531E+001, +5.39323036146E+002
+2.16594323873E+007, +3.29192809302E+001, +5.43635605339E+002
+2.18247078464E+007, +3.26003278928E+001, +5.50186976009E+002
+2.19899833055E+007, +3.18348063198E+001, +5.55496575561E+002
+2.21552587646E+007, +3.12145171916E+001, +5.58519979719E+002
+2.23205342237E+007, +3.39462229672E+001, +5.62945863790E+002
+2.24858096828E+007, +3.28324645292E+001, +5.67459236927E+002
+2.26510851419E+007, +3.41414870464E+001, +5.73476582883E+002
+2.28163606010E+007, +3.40434156730E+001, +5.79310801603E+002
+2.29816360601E+007, +3.31825635153E+001, +5.84642160223E+002
+2.31469115192E+007, +3.55251231589E+001, +5.88959055305E+002
+2.33121869783E+007, +3.66327004546E+001, +5.93390123368E+002
+2.34774624374E+007, +3.63977266252E+001, +5.99986863583E+002
+2.36427378965E+007, +3.55286156066E+001, +6.04267903609E+002
+2.38080133556E+007, +3.65551633271E+001, +6.08790601104E+002
+2.39732888147E+007, +3.69574931848E+001, +6.15223871797E+002
+2.41385642738E+007, +3.55526798223E+001, +6.20568588051E+002
+2.43038397329E+007, +3.59237032302E+001, +6.23591135185E+002
+2.44691151920E+007, +3.78133496554E+001, +6.28705157490E+002
+2.46343906511E+007, +3.75545817605E+001, +6.36225301210E+002
+2.47996661102E+007, +3.56381249827E+001, +6.39544556456E+002
+2.49649415693E+007, +3.73927759961E+001, +6.45309552455E+002
+2.51302170284E+007, +3.75102478652E+001, +6.49373208580E+002
+2.52954924875E+007, +3.91939471398E+001, +6.54614714010E+002
+2.54607679466E+007, +3.87106477214E+001, +6.58632326445E+002
+2.56260434057E+007, +3.99342279132E+001, +6.64154795664E+002
+2.57913188648E+007, +4.01420916402E+001, +6.69867302502E+002
+2.59565943239E+007, +3.94381583626E+001, +6.74691649128E+002
+2.61218697830E+007, +4.09969219193E+001, +6.80090494260E+002
+2.62871452421E+007, +4.38514813159E+001, +6.84580187679E+002
+2.64524207012E+007, +4.16689708877E+001, +6.89925432641E+002
+2.66176961603E+007, +4.21623775955E+001, +6.97875426556E+002
+2.67829716194E+007, +4.00729728025E+001, +7.00191854514E+002
+2.69482470785E+007, +3.99281465344E+001, +7.06797953989E+002
+2.71135225376E+007, +4.25987052999E+001, +7.14108097582E+002
+2.72787979967E+007, +4.35038059140E+001, +7.19658141860E+002
+2.74440734558E+007, +4.26791349682E+001, +7.25333482163E+002
+2.76093489149E+007, +4.33162577712E+001, +7.27142339670E+002
+2.77746243740E+007, +4.22009954128E+001, +7.33415357719E+002
+2.79398998331E+007, +4.12821773469E+001, +7.40058810325E+002
+2.81051752922E+007, +4.68387026808E+001, +7.45527351540E+002
+2.82704507513E+007, +4.25892827882E+001, +7.52683957813E+002
+2.84357262104E+007, +4.44229601629E+001, +7.57757940115E+002
+2.86010016694E+007, +4.36742729672E+001, +7.65830356160E+002
+2.87662771285E+007, +4.63751872573E+001, +7.70228500865E+002
+2.89315525876E+007, +4.57869580056E+001, +7.74760847510E+002
+2.90968280467E+007, +4.68538098468E+001, +7.82311262571E+002
+2.92621035058E+007, +4.61367761560E+001, +7.85836520307E+002
+2.94273789649E+007, +5.00712729449E+001, +7.92288619572E+002
+2.95926544240E+007, +4.42745554436E+001, +7.97142861097E+002
+2.97579298831E+007, +4.70678078420E+001, +8.06067536589E+002
+2.99232053422E+007, +5.01974240737E+001, +8.12587015800E+002
+3.00884808013E+007, +4.85663663100E+001, +8.18598738356E+002
+3.02537562604E+007, +5.00670987849E+001, +8.21746991874E+002
+3.04190317195E+007, +4.77768298018E+001, +8.28391903480E+002
+3.05843071786E+007, +4.79062019027E+001, +8.32601145717E+002
+3.07495826377E+007, +4.60626093668E+001, +8.40461588810E+002
+3.09148580968E+007, +4.88484269856E+001, +8.43672769321E+002
+3.10801335559E+007, +4.87104977118E+001, +8.52095228192E+002
+3.12454090150E+007, +5.04501843995E+001, +8.57131242703E+002
+3.14106844741E+007, +5.19282000330E+001, +8.63678973990E+002
+3.15759599332E+007, +4.98648768234E+001, +8.71914513849E+002
+3.17412353923E+007, +4.96487506136E+001, +8.76828612176E+002
+3.19065108514E+007, +5.41694394132E+001, +8.86112506066E+002
+3.20717863105E+007, +4.39699785470E+001, +8.89092276505E+002
+3.22370617696E+007, +5.19183180249E+001, +8.95147395545E+002
+3.24023372287E+007, +4.95510242174E+001, +9.04921808694E+002
+3.25676126878E+007, +5.58887309580E+001, +9.12336973481E+002
+3.27328881469E+007, +5.25555465112E+001, +9.14075336309E+002
+3.28981636060E+007, +4.82040163350E+001, +9.22925075462E+002
+3.30634390651E+007, +5.34567868532E+001, +9.30333644542E+002
+3.32287145242E+007, +5.25938425078E+001, +9.45286871014E+002
+3.33939899833E+007, +4.95008263405E+001, +9.50108751075E+002
+3.35592654424E+007, +5.85796591918E+001, +9.55611964185E+002
+3.37245409015E+007, +5.86791269289E+001, +9.64258379564E+002
+3.38898163606E+007, +5.21740158575E+001, +9.69357518229E+002
+3.40550918197E+007, +5.23701040287E+001, +9.76413846989E+002
+3.42203672788E+007, +5.66802202960E+001, +9.85251268429E+002
+3.43856427379E+007, +5.50401846563E+001, +9.92896373227E+002
+3.45509181970E+007, +5.40931944308E+001, +9.98226167136E+002
+3.47161936561E+007, +5.70563994954E+001, +1.01019838330E+003
+3.48814691152E+007, +5.60461295069E+001, +1.01228231562E+003
+3.50467445743E+007, +5.59709402584E+001, +1.02060353305E+003
+3.52120200334E+007, +5.89572617591E+001, +1.02675883640E+003
+3.53772954925E+007, +5.84129079311E+001, +1.03739889598E+003
+3.55425709516E+007, +5.85603729923E+001, +1.04658809707E+003
+3.57078464107E+007, +6.09916722361E+001, +1.05425343007E+003
+3.58731218698E+007, +6.06371161736E+001, +1.06202745489E+003
+3.60383973289E+007, +6.34600034697E+001, +1.06661422922E+003
+3.62036727880E+007, +6.29431745781E+001, +1.08243641292E+003
+3.63689482471E+007, +6.47792050305E+001, +1.08367175654E+003
+3.65342237062E+007, +6.12671116265E+001, +1.09833616160E+003
+3.66994991653E+007, +6.27708069503E+001, +1.11146204350E+003
+3.68647746244E+007, +6.64165987035E+001, +1.10834223599E+003
+3.70300500835E+007, +6.63527847658E+001, +1.12235740667E+003
+3.71953255426E+007, +7.02543994692E+001, +1.13762752672E+003
+3.73606010017E+007, +7.15662723692E+001, +1.14368502157E+003
+3.75258764608E+007, +7.17148905387E+001, +1.15426105328E+003
+3.76911519199E+007, +6.83751924198E+001, +1.16506996885E+003
+3.78564273790E+007, +7.16066301822E+001, +1.17275937249E+003
+3.80217028381E+007, +7.17519963331E+001, +1.17640437788E+003
+3.81869782972E+007, +7.41169183086E+001, +1.18804855484E+003
+3.83522537563E+007, +6.69319215134E+001, +1.19840759979E+003
+3.85175292154E+007, +7.75764572581E+001, +1.20871906844E+003
+3.86828046745E+007, +7.16997284840E+001, +1.21491363675E+003
+3.88480801336E+007, +8.24783230449E+001, +1.22929798289E+003
+3.90133555927E+007, +7.44543506508E+001, +1.24103519488E+003
+3.91786310518E+007, +7.19908118550E+001, +1.25302886277E+003
+3.93439065109E+007, +7.88689614882E+001, +1.25863503281E+003
+3.95091819699E+007, +8.39971859171E+001, +1.26585057445E+003
+3.96744574290E+007, +8.23450860785E+001, +1.27782727796E+003
+3.98397328881E+007, +7.76456004127E+001, +1.29616857466E+003
+4.00050083472E+007, +7.53223533022E+001, +1.31303039848E+003
+4.01702838063E+007, +7.36182066195E+001, +1.31204260312E+003
+4.03355592654E+007, +8.40964469035E+001, +1.32304602713E+003
+4.05008347245E+007, +8.24525672215E+001, +1.34317864244E+003
+4.06661101836E+007, +8.37904712241E+001, +1.34677856808E+003
+4.08313856427E+007, +8.25737825639E+001, +1.37105056991E+003
+4.09966611018E+007, +7.93502890419E+001, +1.37565183431E+003
+4.11619365609E+007, +9.60606388670E+001, +1.39066787221E+003
+4.13272120200E+007, +9.50425787486E+001, +1.40032367042E+003
+4.14924874791E+007, +9.29748228208E+001, +1.41013727300E+003
+4.16577629382E+007, +9.90252054161E+001, +1.43651296754E+003
+4.18230383973E+007, +9.65700159136E+001, +1.43431010846E+003
+4.19883138564E+007, +9.39771517508E+001, +1.45151244638E+003
+4.21535893155E+007, +1.02168902760E+002, +1.46107137222E+003
+4.23188647746E+007, +1.12013176224E+002, +1.48218553894E+003
+4.24841402337E+007, +9.98449607376E+001, +1.50865624957E+003
+4.26494156928E+007, +9.67916648525E+001, +1.51509557614E+003
+4.28146911519E+007, +1.14359118762E+002, +1.53023695855E+003
+4.29799666110E+007, +1.06925174570E+002, +1.53853482133E+003
+4.31452420701E+007, +1.15695138077E+002, +1.56742465898E+003
+4.33105175292E+007, +1.19888323322E+002, +1.57600206229E+003
+4.34757929883E+007, +1.11553903392E+002, +1.59433813315E+003
+4.36410684474E+007, +1.10312546068E+002, +1.60594659737E+003
+4.38063439065E+007, +1.15213373345E+002, +1.63180691180E+003
+4.39716193656E+007, +1.30214227269E+002, +1.63135172254E+003
+4.41368948247E+007, +1.24636827858E+002, +1.65337580802E+003
+4.43021702838E+007, +1.21205758583E+002, +1.67591561092E+003
+4.44674457429E+007, +1.37788109127E+002, +1.70734645926E+003
+4.46327212020E+007, +1.36287366330E+002, +1.70473747805E+003
+4.47979966611E+007, +1.32362333675E+002, +1.73246261605E+003
+4.49632721202E+007, +1.42096129686E+002, +1.75172777790E+003
+4.51285475793E+007, +1.39444269101E+002, +1.77407576652E+003
+4.52938230384E+007, +1.51891049400E+002, +1.80237151663E+003
+4.54590984975E+007, +1.34934803585E+002, +1.80648138486E+003
+4.56243739566E+007, +1.50337104916E+002, +1.84640665743E+003
+4.57896494157E+007, +1.54209948412E+002, +1.85118519727E+003
+4.59549248748E+007, +1.56879950039E+002, +1.89979315773E+003
+4.61202003339E+007, +1.47725350712E+002, +1.90266109573E+003
+4.62854757930E+007, +1.82217690040E+002, +1.94564152804E+003
+4.64507512521E+007, +1.88121203192E+002, +1.97115871478E+003
+4.66160267112E+007, +1.90271720865E+002, +1.99165286789E+003
+4.67813021703E+007, +1.95704563712E+002, +2.01837755368E+003
+4.69465776294E+007, +2.13403930337E+002, +2.04525950566E+003
+4.71118530885E+007, +2.04320577638E+002, +2.07620675826E+003
+4.72771285476E+007, +2.22985861334E+002, +2.10206287549E+003
+4.74424040067E+007, +2.33851755484E+002, +2.13757533028E+003
+4.76076794658E+007, +2.15336158386E+002, +2.16730537338E+003
+4.77729549249E+007, +2.24509584898E+002, +2.19712099220E+003
+4.79382303840E+007, +2.61958401156E+002, +2.22057161189E+003
+4.81035058431E+007, +2.83174923646E+002, +2.25685718329E+003
+4.82687813022E+007, +2.83357652788E+002, +2.30651936289E+003
+4.84340567613E+007, +3.08317082944E+002, +2.33421307255E+003
+4.85993322204E+007, +3.22525245704E+002, +2.38111252086E+003
+4.87646076795E+007, +3.42447569648E+002, +2.41027460448E+003
+4.89298831386E+007, +3.48473497154E+002, +2.43031366445E+003
+4.90951585977E+007, +3.35962529871E+002, +2.46971191386E+003
+4.92604340568E+007, +3.93585035241E+002, +2.52091618125E+003
+4.94257095159E+007, +4.38229475598E+002, +2.55630690350E+003
+4.95909849750E+007, +4.38966216486E+002, +2.55686670272E+003
+4.97562604341E+007, +4.52131079270E+002, +2.60437504180E+003
+4.99215358932E+007, +4.79092843388E+002, +2.65819951900E+003
+5.00868113523E+007, +5.03424435599E+002, +2.72260018216E+003
+5.02520868114E+007, +5.55413422978E+002, +2.80445776309E+003
+5.04173622705E+007, +5.59193676147E+002, +2.79086792903E+003
+5.05826377295E+007, +6.10469387733E+002, +2.81026962076E+003
+5.07479131886E+007, +5.92915299268E+002, +2.84823650429E+003
+5.09131886477E+007, +6.28902493164E+002, +2.90719017313E+003
+5.10784641068E+007, +6.69381578162E+002, +2.98240502787E+003
+5.12437395659E+007, +7.24275261714E+002, +3.03542561992E+003
+5.14090150250E+007, +7.39242561721E+002, +3.04495884488E+003
+5.15742904841E+007, +7.60661661170E+002, +3.07944949591E+003
+5.17395659432E+007, +8.37881801894E+002, +3.16084804271E+003
+5.19048414023E+007, +9.08030652548E+002, +3.19587147189E+003
+5.20701168614E+007, +8.95450305331E+002, +3.29036677278E+003
+5.22353923205E+007, +9.13543740921E+002, +3.34466056999E+003
+5.24006677796E+007, +9.48845798879E+002, +3.31622495728E+003
+5.25659432387E+007, +1.01302381715E+003, +3.41852527169E+003
+5.27312186978E+007, +1.08157107028E+003, +3.43745488049E+003
+5.28964941569E+007, +1.11924169845E+003, +3.58539747299E+003
+5.30617696160E+007, +1.11423146810E+003, +3.66687848816E+003
+5.32270450751E+007, +1.14413512829E+003, +3.68326276200E+003
+5.33923205342E+007, +1.19535470291E+003, +3.86255588005E+003
+5.35575959933E+007, +1.29396173606E+003, +3.90794663272E+003
+5.37228714524E+007, +1.35745878333E+003, +4.03321539358E+003
+5.38881469115E+007, +1.32773813705E+003, +4.07716686992E+003
