"# Channel 1"
"# Trace 1"
Frequency, Formatted Data, Formatted Data
+1.00000000000E+005, +2.92997907118E+001, +2.22202485062E+000
+2.66777963272E+005, +2.92708870025E+001, +6.16075355347E+000
+4.33555926544E+005, +2.92589886416E+001, +1.00245875726E+001
+6.00333889816E+005, +2.92784638592E+001, +1.38822939904E+001
+7.67111853088E+005, +2.93542207779E+001, +1.77156390237E+001
+9.33889816361E+005, +2.92850159823E+001, +2.15358292205E+001
+1.10066777963E+006, +2.92866891424E+001, +2.54838742042E+001
+1.26744574290E+006, +2.93119434729E+001, +2.92814165068E+001
+1.43422370618E+006, +2.93091775216E+001, +3.32560556596E+001
+1.60100166945E+006, +2.93059187607E+001, +3.69909293670E+001
+1.76777963272E+006, +2.93632749699E+001, +4.08668827160E+001
+1.93455759599E+006, +2.92817967411E+001, +4.46757013742E+001
+2.10133555927E+006, +2.93348072156E+001, +4.85171817070E+001
+2.26811352254E+006, +2.93386531876E+001, +5.23665881212E+001
+2.43489148581E+006, +2.93501226676E+001, +5.63630385813E+001
+2.60166944908E+006, +2.93616712939E+001, +6.00676272561E+001
+2.76844741235E+006, +2.93220571586E+001, +6.40152227678E+001
+2.93522537563E+006, +2.93860985964E+001, +6.79401520072E+001
+3.10200333890E+006, +2.94152474739E+001, +7.16466773309E+001
+3.26878130217E+006, +2.92811711623E+001, +7.57396084251E+001
+3.43555926544E+006, +2.93404224991E+001, +7.95002107213E+001
+3.60233722871E+006, +2.95234033798E+001, +8.35252791922E+001
+3.76911519199E+006, +2.94856970119E+001, +8.75334392216E+001
+3.93589315526E+006, +2.93002285460E+001, +9.12222674197E+001
+4.10267111853E+006, +2.94856899262E+001, +9.53315453860E+001
+4.26944908180E+006, +2.95206131555E+001, +9.92744048496E+001
+4.43622704508E+006, +2.94578338270E+001, +1.02983071332E+002
+4.60300500835E+006, +2.95713880373E+001, +1.07224611955E+002
+4.76978297162E+006, +2.95073956500E+001, +1.10942505431E+002
+4.93656093489E+006, +2.97398185791E+001, +1.14832147379E+002
+5.10333889816E+006, +2.95620685390E+001, +1.18815443730E+002
+5.27011686144E+006, +2.99645463480E+001, +1.22876465964E+002
+5.43689482471E+006, +2.97476057473E+001, +1.26832434633E+002
+5.60367278798E+006, +2.99793354798E+001, +1.30891711207E+002
+5.77045075125E+006, +2.98164963411E+001, +1.34700302699E+002
+5.93722871452E+006, +3.00758534776E+001, +1.38643856650E+002
+6.10400667780E+006, +3.03285571005E+001, +1.42819940523E+002
+6.27078464107E+006, +3.02884199877E+001, +1.46656049717E+002
+6.43756260434E+006, +3.04617328691E+001, +1.50809125623E+002
+6.60434056761E+006, +3.03727639757E+001, +1.54681201812E+002
+6.77111853088E+006, +3.07324575880E+001, +1.58505530510E+002
+6.93789649416E+006, +3.05197880662E+001, +1.62681252895E+002
+7.10467445743E+006, +3.07010452144E+001, +1.66541404328E+002
+7.27145242070E+006, +3.07495622496E+001, +1.70585369826E+002
+7.43823038397E+006, +3.08808711817E+001, +1.74652673461E+002
+7.60500834725E+006, +3.06640132211E+001, +1.78693458923E+002
+7.77178631052E+006, +3.09249115287E+001, +1.82883368875E+002
+7.93856427379E+006, +3.09216423585E+001, +1.86791623549E+002
+8.10534223706E+006, +3.09883375342E+001, +1.90991493430E+002
+8.27212020033E+006, +3.10865310830E+001, +1.95180695498E+002
+8.43889816361E+006, +3.11180739724E+001, +1.99230032205E+002
+8.60567612688E+006, +3.09117984205E+001, +2.03668744613E+002
+8.77245409015E+006, +3.08173628850E+001, +2.07575755722E+002
+8.93923205342E+006, +3.10416191005E+001, +2.11862434800E+002
+9.10601001669E+006, +3.10366245009E+001, +2.16034277732E+002
+9.27278797997E+006, +3.12176140530E+001, +2.20360714621E+002
+9.43956594324E+006, +3.12016230255E+001, +2.24460927856E+002
+9.60634390651E+006, +3.11278825484E+001, +2.28823540749E+002
+9.77312186978E+006, +3.14073716767E+001, +2.32908433297E+002
+9.93989983306E+006, +3.17033590292E+001, +2.37425558547E+002
+1.01066777963E+007, +3.13647704177E+001, +2.41686094743E+002
+1.02734557596E+007, +3.17437978667E+001, +2.46021825681E+002
+1.04402337229E+007, +3.14101181440E+001, +2.50238362481E+002
+1.06070116861E+007, +3.14491435564E+001, +2.54657321156E+002
+1.07737896494E+007, +3.16068111418E+001, +2.59244231816E+002
+1.09405676127E+007, +3.20599105681E+001, +2.63359063034E+002
+1.11073455760E+007, +3.18855751975E+001, +2.67802755004E+002
+1.12741235392E+007, +3.20077445447E+001, +2.71962093572E+002
+1.14409015025E+007, +3.22067908723E+001, +2.76771858752E+002
+1.16076794658E+007, +3.23958595775E+001, +2.80885260141E+002
+1.17744574290E+007, +3.23825935600E+001, +2.86020383544E+002
+1.19412353923E+007, +3.24553361470E+001, +2.90151762877E+002
+1.21080133556E+007, +3.21175875051E+001, +2.94878409013E+002
+1.22747913189E+007, +3.23115482714E+001, +2.99246664926E+002
+1.24415692821E+007, +3.21357581512E+001, +3.03941823110E+002
+1.26083472454E+007, +3.26828396337E+001, +3.08661593887E+002
+1.27751252087E+007, +3.26869698855E+001, +3.12982644303E+002
+1.29419031720E+007, +3.29845096886E+001, +3.17455845547E+002
+1.31086811352E+007, +3.27015050100E+001, +3.22433052115E+002
+1.32754590985E+007, +3.29692075306E+001, +3.27389657390E+002
+1.34422370618E+007, +3.27155826327E+001, +3.32014463885E+002
+1.36090150250E+007, +3.35413461341E+001, +3.36190338073E+002
+1.37757929883E+007, +3.30061908609E+001, +3.41338370873E+002
+1.39425709516E+007, +3.38529945554E+001, +3.45433209953E+002
+1.41093489149E+007, +3.37724993633E+001, +3.50868469682E+002
+1.42761268781E+007, +3.41005899646E+001, +3.54945625216E+002
+1.44429048414E+007, +3.44397645676E+001, +3.59681415921E+002
+1.46096828047E+007, +3.45900023871E+001, +3.65340806980E+002
+1.47764607679E+007, +3.41405162527E+001, +3.69841685250E+002
+1.49432387312E+007, +3.40458225547E+001, +3.74602199347E+002
+1.51100166945E+007, +3.39116968628E+001, +3.79616740811E+002
+1.52767946578E+007, +3.48543508449E+001, +3.85067973670E+002
+1.54435726210E+007, +3.54142611082E+001, +3.90052591636E+002
+1.56103505843E+007, +3.59100856499E+001, +3.94148050315E+002
+1.57771285476E+007, +3.47493976896E+001, +3.99508190135E+002
+1.59439065109E+007, +3.51996313913E+001, +4.05036158376E+002
+1.61106844741E+007, +3.54307933830E+001, +4.10179299987E+002
+1.62774624374E+007, +3.58734502497E+001, +4.14748672559E+002
+1.64442404007E+007, +3.56461549665E+001, +4.20142641141E+002
+1.66110183639E+007, +3.61616696219E+001, +4.25113316881E+002
+1.67777963272E+007, +3.64818520018E+001, +4.31440699626E+002
+1.69445742905E+007, +3.70960924922E+001, +4.36926895114E+002
+1.71113522538E+007, +3.49232136942E+001, +4.41520062113E+002
+1.72781302170E+007, +3.67195119419E+001, +4.48379642629E+002
+1.74449081803E+007, +3.56660743342E+001, +4.51004533071E+002
+1.76116861436E+007, +3.69355537677E+001, +4.58359113289E+002
+1.77784641068E+007, +3.66985264979E+001, +4.62713937030E+002
+1.79452420701E+007, +3.64923467482E+001, +4.68206126743E+002
+1.81120200334E+007, +3.63674197471E+001, +4.73363820458E+002
+1.82787979967E+007, +3.75699564454E+001, +4.80280178793E+002
+1.84455759599E+007, +3.87096047009E+001, +4.85402192489E+002
+1.86123539232E+007, +3.85489152586E+001, +4.91448951270E+002
+1.87791318865E+007, +3.77549344686E+001, +4.96367213327E+002
+1.89459098497E+007, +3.95681851625E+001, +5.03432536575E+002
+1.91126878130E+007, +3.96710111287E+001, +5.07374798888E+002
+1.92794657763E+007, +3.99582980242E+001, +5.14098009566E+002
+1.94462437396E+007, +4.13472144579E+001, +5.20713494552E+002
+1.96130217028E+007, +4.18381446783E+001, +5.26238194778E+002
+1.97797996661E+007, +4.04503988185E+001, +5.31471128061E+002
+1.99465776294E+007, +4.04740158541E+001, +5.37547052634E+002
+2.01133555927E+007, +4.10767517885E+001, +5.44078651483E+002
+2.02801335559E+007, +4.11295793212E+001, +5.50611876318E+002
+2.04469115192E+007, +4.42429525524E+001, +5.56440502778E+002
+2.06136894825E+007, +4.28741226931E+001, +5.63119944451E+002
+2.07804674457E+007, +4.45892876103E+001, +5.68968144810E+002
+2.09472454090E+007, +4.38982624754E+001, +5.77453315669E+002
+2.11140233723E+007, +4.43381946313E+001, +5.81879021244E+002
+2.12808013356E+007, +4.49849158731E+001, +5.87683989589E+002
+2.14475792988E+007, +4.49312917916E+001, +5.96031917756E+002
+2.16143572621E+007, +4.64943163749E+001, +6.00922443834E+002
+2.17811352254E+007, +4.60515197700E+001, +6.05686900892E+002
+2.19479131886E+007, +4.83608574276E+001, +6.14157881256E+002
+2.21146911519E+007, +4.86033741036E+001, +6.19809995015E+002
+2.22814691152E+007, +4.73759169963E+001, +6.27616369325E+002
+2.24482470785E+007, +4.95793915319E+001, +6.35893721411E+002
+2.26150250417E+007, +5.14369910158E+001, +6.42802732682E+002
+2.27818030050E+007, +5.06043017542E+001, +6.50054895579E+002
+2.29485809683E+007, +5.31593624394E+001, +6.53828932794E+002
+2.31153589316E+007, +5.11087352140E+001, +6.63871532471E+002
+2.32821368948E+007, +5.39319734336E+001, +6.68420244889E+002
+2.34489148581E+007, +5.46587794961E+001, +6.74219792615E+002
+2.36156928214E+007, +5.60220815357E+001, +6.83025210859E+002
+2.37824707846E+007, +5.60580305035E+001, +6.91117474341E+002
+2.39492487479E+007, +5.52064587683E+001, +6.97241576729E+002
+2.41160267112E+007, +5.69262239544E+001, +7.04531457547E+002
+2.42828046745E+007, +5.67023769214E+001, +7.13110663926E+002
+2.44495826377E+007, +6.28180998424E+001, +7.23018239304E+002
+2.46163606010E+007, +6.07704641326E+001, +7.27415099407E+002
+2.47831385643E+007, +5.82244699052E+001, +7.36781352387E+002
+2.49499165275E+007, +6.44054629714E+001, +7.42700695135E+002
+2.51166944908E+007, +6.31945400989E+001, +7.48426929003E+002
+2.52834724541E+007, +6.40735831727E+001, +7.56352015673E+002
+2.54502504174E+007, +6.56271015202E+001, +7.67538417207E+002
+2.56170283806E+007, +6.50923972648E+001, +7.74591021266E+002
+2.57838063439E+007, +6.52804177237E+001, +7.83156036317E+002
+2.59505843072E+007, +6.76959583820E+001, +7.92558135571E+002
+2.61173622705E+007, +6.88988527742E+001, +7.98783740515E+002
+2.62841402337E+007, +6.97291108560E+001, +8.07554906702E+002
+2.64509181970E+007, +6.86056350986E+001, +8.15763774613E+002
+2.66176961603E+007, +7.07919710075E+001, +8.28027276070E+002
+2.67844741235E+007, +7.21276827757E+001, +8.35555165822E+002
+2.69512520868E+007, +7.00397736437E+001, +8.42264554468E+002
+2.71180300501E+007, +7.33641579979E+001, +8.48661025445E+002
+2.72848080134E+007, +7.40359792512E+001, +8.59179441712E+002
+2.74515859766E+007, +7.55448268953E+001, +8.66999954739E+002
+2.76183639399E+007, +7.62105322043E+001, +8.75068920835E+002
+2.77851419032E+007, +7.60460506886E+001, +8.86574280455E+002
+2.79519198664E+007, +8.08471483451E+001, +8.95736992383E+002
+2.81186978297E+007, +8.13852197856E+001, +9.03145540552E+002
+2.82854757930E+007, +8.53344897673E+001, +9.15756080742E+002
+2.84522537563E+007, +7.88001978324E+001, +9.23320199062E+002
+2.86190317195E+007, +8.17496711282E+001, +9.32868042964E+002
+2.87858096828E+007, +8.86828973234E+001, +9.45517336390E+002
+2.89525876461E+007, +8.78389430731E+001, +9.55195340934E+002
+2.91193656093E+007, +8.52284890906E+001, +9.58687953065E+002
+2.92861435726E+007, +8.47671148461E+001, +9.75174222790E+002
+2.94529215359E+007, +9.13600998083E+001, +9.82310417623E+002
+2.96196994992E+007, +9.09186442742E+001, +9.93378209789E+002
+2.97864774624E+007, +9.54315841229E+001, +1.00489415599E+003
+2.99532554257E+007, +9.73361685762E+001, +1.01943056479E+003
+3.01200333890E+007, +9.74908768652E+001, +1.03297123580E+003
+3.02868113523E+007, +9.68112722011E+001, +1.04267674941E+003
+3.04535893155E+007, +9.92905282467E+001, +1.05421269328E+003
+3.06203672788E+007, +1.02803526066E+002, +1.06373384158E+003
+3.07871452421E+007, +1.03795753399E+002, +1.07594771536E+003
+3.09539232053E+007, +1.03744502486E+002, +1.08736302671E+003
+3.11207011686E+007, +1.00194061924E+002, +1.10336182490E+003
+3.12874791319E+007, +1.05172348460E+002, +1.11043358173E+003
+3.14542570952E+007, +1.04842954365E+002, +1.12245052953E+003
+3.16210350584E+007, +1.07841227528E+002, +1.13895678271E+003
+3.17878130217E+007, +1.08602634426E+002, +1.15066271983E+003
+3.19545909850E+007, +1.16490059211E+002, +1.16524897856E+003
+3.21213689482E+007, +1.07337474338E+002, +1.17630903887E+003
+3.22881469115E+007, +1.13090509308E+002, +1.18614395439E+003
+3.24549248748E+007, +1.14269965750E+002, +1.20851877036E+003
+3.26217028381E+007, +1.12906928820E+002, +1.22734212104E+003
+3.27884808013E+007, +1.18151834332E+002, +1.23770208885E+003
+3.29552587646E+007, +1.24514285688E+002, +1.25070087616E+003
+3.31220367279E+007, +1.28338393996E+002, +1.25651182511E+003
+3.32888146912E+007, +1.22470353417E+002, +1.27994618291E+003
+3.34555926544E+007, +1.16992699051E+002, +1.29449557814E+003
+3.36223706177E+007, +1.24120612808E+002, +1.31058674817E+003
+3.37891485810E+007, +1.30809833397E+002, +1.32391812204E+003
+3.39559265442E+007, +1.30405203692E+002, +1.34887667610E+003
+3.41227045075E+007, +1.22488375622E+002, +1.35814340495E+003
+3.42894824708E+007, +1.38732181255E+002, +1.38415287029E+003
+3.44562604341E+007, +1.36405584429E+002, +1.40281167390E+003
+3.46230383973E+007, +1.44468038661E+002, +1.42593122566E+003
+3.47898163606E+007, +1.41780362889E+002, +1.43476765958E+003
+3.49565943239E+007, +1.53408001905E+002, +1.46897145464E+003
+3.51233722871E+007, +1.51199230844E+002, +1.48282954901E+003
+3.52901502504E+007, +1.50988673521E+002, +1.48859040363E+003
+3.54569282137E+007, +1.47558973375E+002, +1.51432563620E+003
+3.56237061770E+007, +1.54366089795E+002, +1.54482610049E+003
+3.57904841402E+007, +1.53810449353E+002, +1.56389825093E+003
+3.59572621035E+007, +1.76406320294E+002, +1.58736878091E+003
+3.61240400668E+007, +1.67088225530E+002, +1.60652108325E+003
+3.62908180301E+007, +1.72082286800E+002, +1.63162139776E+003
+3.64575959933E+007, +1.76826167621E+002, +1.65673978148E+003
+3.66243739566E+007, +1.84637097367E+002, +1.67621174247E+003
+3.67911519199E+007, +2.00200032630E+002, +1.71377645153E+003
+3.69579298831E+007, +1.82495094658E+002, +1.73607997609E+003
+3.71247078464E+007, +1.85822268678E+002, +1.75116199272E+003
+3.72914858097E+007, +2.00371231769E+002, +1.79353758080E+003
+3.74582637730E+007, +2.15734381555E+002, +1.83531911341E+003
+3.76250417362E+007, +2.12532381924E+002, +1.85619722353E+003
+3.77918196995E+007, +2.06032103478E+002, +1.87051764288E+003
+3.79585976628E+007, +2.20668828104E+002, +1.89929455176E+003
+3.81253756260E+007, +2.36590802380E+002, +1.94239325743E+003
+3.82921535893E+007, +2.53469515455E+002, +1.95682055981E+003
+3.84589315526E+007, +2.53333365087E+002, +2.00925003891E+003
+3.86257095159E+007, +2.70067551232E+002, +2.03775597620E+003
+3.87924874791E+007, +2.50205573489E+002, +2.07574954159E+003
+3.89592654424E+007, +2.73497349883E+002, +2.09872075109E+003
+3.91260434057E+007, +2.97553621478E+002, +2.17407329870E+003
+3.92928213689E+007, +3.02647579605E+002, +2.16881407491E+003
+3.94595993322E+007, +3.13135398261E+002, +2.24698473184E+003
+3.96263772955E+007, +3.04481905297E+002, +2.26084615063E+003
+3.97931552588E+007, +3.16571816303E+002, +2.29471112295E+003
+3.99599332220E+007, +3.31574717802E+002, +2.32857245893E+003
+4.01267111853E+007, +3.55310870985E+002, +2.42274403806E+003
+4.02934891486E+007, +3.37525568581E+002, +2.42974817749E+003
+4.04602671119E+007, +3.68048636214E+002, +2.48041480337E+003
+4.06270450751E+007, +4.16223516102E+002, +2.57065382591E+003
+4.07938230384E+007, +4.12089433750E+002, +2.59438207222E+003
+4.09606010017E+007, +4.33035434927E+002, +2.66187794988E+003
+4.11273789649E+007, +4.57112471802E+002, +2.72788494650E+003
+4.12941569282E+007, +4.66666859517E+002, +2.80194806177E+003
+4.14609348915E+007, +5.22734038235E+002, +2.91148130194E+003
+4.16277128548E+007, +5.14841420797E+002, +2.91129451579E+003
+4.17944908180E+007, +5.44712769587E+002, +2.97459185033E+003
+4.19612687813E+007, +5.14199081848E+002, +3.05180102697E+003
+4.21280467446E+007, +6.05150794519E+002, +3.15621769044E+003
+4.22948247078E+007, +5.92124899182E+002, +3.20491908856E+003
+4.24616026711E+007, +6.66561231569E+002, +3.27314826106E+003
+4.26283806344E+007, +7.04764614439E+002, +3.37651196677E+003
+4.27951585977E+007, +7.04590826482E+002, +3.53804210037E+003
+4.29619365609E+007, +8.14632800340E+002, +3.60980668656E+003
+4.31287145242E+007, +8.31544183011E+002, +3.70619508058E+003
+4.32954924875E+007, +8.08124205388E+002, +3.79322960907E+003
+4.34622704508E+007, +9.16124596207E+002, +3.95818673292E+003
+4.36290484140E+007, +9.97719316319E+002, +3.98486096871E+003
+4.37958263773E+007, +1.06883275057E+003, +4.27597617910E+003
+4.39626043406E+007, +1.17253687568E+003, +4.31342454074E+003
+4.41293823038E+007, +1.31212091359E+003, +4.48276347819E+003
+4.42961602671E+007, +1.32427132237E+003, +4.70337002683E+003
+4.44629382304E+007, +1.43526064768E+003, +4.82844826505E+003
+4.46297161937E+007, +1.63424229245E+003, +4.87955534186E+003
+4.47964941569E+007, +1.71629708731E+003, +5.29306615971E+003
+4.49632721202E+007, +1.82424613968E+003, +5.60791971181E+003
+4.51300500835E+007, +1.97599430522E+003, +5.60390386625E+003
+4.52968280467E+007, +2.30127791669E+003, +5.82195582098E+003
+4.54636060100E+007, +2.86465810881E+003, +6.18215710867E+003
+4.56303839733E+007, +3.12015733795E+003, +6.47843767062E+003
+4.57971619366E+007, +3.26917534047E+003, +6.69545483233E+003
+4.59639398998E+007, +3.86005756732E+003, +7.39678219982E+003
+4.61307178631E+007, +4.24671458717E+003, +7.14496673415E+003
+4.62974958264E+007, +4.99597632083E+003, +7.52706507560E+003
+4.64642737896E+007, +5.50253503550E+003, +7.81953987241E+003
+4.66310517529E+007, +6.84001756161E+003, +8.30342534824E+003
+4.67978297162E+007, +7.00663623979E+003, +7.12011287492E+003
+4.69646076795E+007, +8.75087990017E+003, +7.70920338245E+003
+4.71313856427E+007, +9.29559688618E+003, +7.58705545476E+003
+4.72981636060E+007, +1.09392501378E+004, +7.02711548609E+003
+4.74649415693E+007, +1.20070876958E+004, +5.99836004462E+003
+4.76317195326E+007, +1.25265418466E+004, +4.26633435648E+003
+4.77984974958E+007, +1.32683888928E+004, +2.81872769280E+003
+4.79652754591E+007, +1.39235321247E+004, +2.51227510397E+003
+4.81320534224E+007, +1.35328980434E+004, +8.89520522215E+000
+4.82988313856E+007, +1.31712021832E+004, -1.39029244896E+003
+4.84656093489E+007, +1.22963752890E+004, -2.21968406784E+003
+4.86323873122E+007, +1.18420681449E+004, -3.08368455931E+003
+4.87991652755E+007, +1.05172920801E+004, -4.39662517377E+003
+4.89659432387E+007, +9.74708720223E+003, -4.50092225833E+003
+4.91327212020E+007, +8.70791306954E+003, -5.38128049152E+003
+4.92994991653E+007, +8.44060921613E+003, -5.14443189546E+003
+4.94662771285E+007, +7.16122091518E+003, -5.39970079767E+003
+4.96330550918E+007, +6.79726703101E+003, -5.50144988153E+003
+4.97998330551E+007, +6.16087547529E+003, -5.20875528954E+003
+4.99666110184E+007, +5.71887572439E+003, -5.21424865519E+003
+5.01333889816E+007, +5.53292057231E+003, -5.47291739172E+003
+5.03001669449E+007, +5.07954969886E+003, -5.33452526652E+003
+5.04669449082E+007, +4.64039816708E+003, -5.04752698500E+003
+5.06337228715E+007, +4.40411081578E+003, -4.98741361571E+003
+5.08005008347E+007, +4.17480948037E+003, -4.96304472178E+003
+5.09672787980E+007, +4.07512271995E+003, -4.87117877521E+003
+5.11340567613E+007, +3.66199241937E+003, -4.69878568520E+003
+5.13008347245E+007, +3.35902560008E+003, -4.91858029326E+003
+5.14676126878E+007, +3.26330087157E+003, -4.72616560358E+003
+5.16343906511E+007, +2.91258127620E+003, -4.49355286870E+003
+5.18011686144E+007, +2.82588906233E+003, -4.51140774574E+003
+5.19679465776E+007, +2.67062460385E+003, -4.46839299888E+003
+5.21347245409E+007, +2.39752702049E+003, -4.40389943164E+003
+5.23015025042E+007, +2.24145543175E+003, -4.21837625528E+003
+5.24682804674E+007, +2.01319300686E+003, -4.17179271565E+003
+5.26350584307E+007, +1.91504947563E+003, -4.06003074637E+003
+5.28018363940E+007, +1.74755725974E+003, -4.02537628209E+003
+5.29686143573E+007, +1.55195624629E+003, -3.85721219413E+003
+5.31353923205E+007, +1.54352563316E+003, -3.82375170908E+003
+5.33021702838E+007, +1.29645616518E+003, -3.71115857661E+003
+5.34689482471E+007, +1.22431067655E+003, -3.56376102384E+003
