"# Channel 1"
"# Trace 1"
Frequency, Formatted Data, Formatted Data
+1.00000000000E+006, +4.72827709573E+001, +2.43722735329E+001
+1.16527545910E+006, +4.73146301600E+001, +2.83303308969E+001
+1.33055091820E+006, +4.72487044086E+001, +3.23742579298E+001
+1.49582637730E+006, +4.72577469245E+001, +3.63573898684E+001
+1.66110183639E+006, +4.73033149365E+001, +4.03858100654E+001
+1.82637729549E+006, +4.72107400801E+001, +4.43120304509E+001
+1.99165275459E+006, +4.72552992252E+001, +4.83690413066E+001
+2.15692821369E+006, +4.72684454223E+001, +5.23375067562E+001
+2.32220367279E+006, +4.71514715273E+001, +5.64270322742E+001
+2.48747913189E+006, +4.72208549106E+001, +6.05052736286E+001
+2.65275459098E+006, +4.70762761988E+001, +6.45437005229E+001
+2.81803005008E+006, +4.71827950531E+001, +6.84984371849E+001
+2.98330550918E+006, +4.70327639988E+001, +7.24907734783E+001
+3.14858096828E+006, +4.71299206704E+001, +7.64029016671E+001
+3.31385642738E+006, +4.72087098821E+001, +8.04236298889E+001
+3.47913188648E+006, +4.72055730573E+001, +8.47024634453E+001
+3.64440734558E+006, +4.70902682265E+001, +8.84504813768E+001
+3.80968280467E+006, +4.72770744032E+001, +9.25361078079E+001
+3.97495826377E+006, +4.73080394890E+001, +9.63113558824E+001
+4.14023372287E+006, +4.70870052108E+001, +1.00951427768E+002
+4.30550918197E+006, +4.71647360629E+001, +1.04513259096E+002
+4.47078464107E+006, +4.71781458668E+001, +1.08580570211E+002
+4.63606010017E+006, +4.71613860852E+001, +1.12767837671E+002
+4.80133555927E+006, +4.71044984841E+001, +1.16851198062E+002
+4.96661101836E+006, +4.72415571821E+001, +1.20691037207E+002
+5.13188647746E+006, +4.72006299660E+001, +1.24635236152E+002
+5.29716193656E+006, +4.68752902073E+001, +1.28772182707E+002
+5.46243739566E+006, +4.72522062325E+001, +1.32987510776E+002
+5.62771285476E+006, +4.72924779691E+001, +1.36800953553E+002
+5.79298831386E+006, +4.76969940285E+001, +1.41067279398E+002
+5.95826377295E+006, +4.74100630550E+001, +1.44938258421E+002
+6.12353923205E+006, +4.75511186631E+001, +1.48778389717E+002
+6.28881469115E+006, +4.74887875299E+001, +1.53011719977E+002
+6.45409015025E+006, +4.78542616916E+001, +1.56978838063E+002
+6.61936560935E+006, +4.76413681891E+001, +1.61115567543E+002
+6.78464106845E+006, +4.77159814939E+001, +1.65150742606E+002
+6.94991652755E+006, +4.79077746852E+001, +1.69158360086E+002
+7.11519198664E+006, +4.78466486190E+001, +1.73240730270E+002
+7.28046744574E+006, +4.79334599932E+001, +1.77381082305E+002
+7.44574290484E+006, +4.79720777561E+001, +1.81233447052E+002
+7.61101836394E+006, +4.79587158367E+001, +1.85155457577E+002
+7.77629382304E+006, +4.80711398453E+001, +1.89459275184E+002
+7.94156928214E+006, +4.78987577838E+001, +1.93339729537E+002
+8.10684474124E+006, +4.77201477655E+001, +1.97387136113E+002
+8.27212020033E+006, +4.81044959434E+001, +2.01552294227E+002
+8.43739565943E+006, +4.81384924490E+001, +2.05822210208E+002
+8.60267111853E+006, +4.77952365384E+001, +2.09809255094E+002
+8.76794657763E+006, +4.82115630640E+001, +2.13779236255E+002
+8.93322203673E+006, +4.79505989902E+001, +2.18369056717E+002
+9.09849749583E+006, +4.79999389877E+001, +2.22387738972E+002
+9.26377295492E+006, +4.81307018178E+001, +2.26564830444E+002
+9.42904841402E+006, +4.81352969302E+001, +2.30616336921E+002
+9.59432387312E+006, +4.81515704760E+001, +2.34746867403E+002
+9.75959933222E+006, +4.78346790890E+001, +2.39161762688E+002
+9.92487479132E+006, +4.78104009510E+001, +2.43184296458E+002
+1.00901502504E+007, +4.80602545899E+001, +2.47320029922E+002
+1.02554257095E+007, +4.79148407110E+001, +2.51477709973E+002
+1.04207011686E+007, +4.82817924123E+001, +2.55403119480E+002
+1.05859766277E+007, +4.80196261789E+001, +2.60091511555E+002
+1.07512520868E+007, +4.82337253892E+001, +2.64170346257E+002
+1.09165275459E+007, +4.78507835513E+001, +2.68368666601E+002
+1.10818030050E+007, +4.83913390174E+001, +2.72847248621E+002
+1.12470784641E+007, +4.80149615043E+001, +2.76204627031E+002
+1.14123539232E+007, +4.78020345285E+001, +2.80872576040E+002
+1.15776293823E+007, +4.84683051952E+001, +2.85576736365E+002
+1.17429048414E+007, +4.81516992879E+001, +2.89760868663E+002
+1.19081803005E+007, +4.84960074536E+001, +2.94221470712E+002
+1.20734557596E+007, +4.83749474598E+001, +2.98134570146E+002
+1.22387312187E+007, +4.83533408526E+001, +3.02432538115E+002
+1.24040066778E+007, +4.89103985639E+001, +3.06346464628E+002
+1.25692821369E+007, +4.81255065915E+001, +3.10880567216E+002
+1.27345575960E+007, +4.86448040026E+001, +3.15038508566E+002
+1.28998330551E+007, +4.85870318577E+001, +3.19279119243E+002
+1.30651085142E+007, +4.84518629192E+001, +3.23844944540E+002
+1.32303839733E+007, +4.91131740891E+001, +3.27966929682E+002
+1.33956594324E+007, +4.85962962757E+001, +3.32116062434E+002
+1.35609348915E+007, +4.89829703217E+001, +3.36611357269E+002
+1.37262103506E+007, +4.83572356140E+001, +3.40379111151E+002
+1.38914858097E+007, +4.88314879463E+001, +3.44863970955E+002
+1.40567612688E+007, +4.95577977589E+001, +3.49463201804E+002
+1.42220367279E+007, +4.91946147758E+001, +3.53853233616E+002
+1.43873121870E+007, +4.93604077838E+001, +3.59074861341E+002
+1.45525876461E+007, +4.82318003269E+001, +3.62607602644E+002
+1.47178631052E+007, +4.89169383251E+001, +3.67328686639E+002
+1.48831385643E+007, +4.91610603736E+001, +3.70598032731E+002
+1.50484140234E+007, +4.92943423239E+001, +3.75644893838E+002
+1.52136894825E+007, +4.92497117834E+001, +3.80529163434E+002
+1.53789649416E+007, +4.93926650102E+001, +3.85028234312E+002
+1.55442404007E+007, +4.90702058872E+001, +3.89172090788E+002
+1.57095158598E+007, +4.87389429031E+001, +3.93679124012E+002
+1.58747913189E+007, +4.94931064377E+001, +3.98508196328E+002
+1.60400667780E+007, +4.94543827627E+001, +4.02661980046E+002
+1.62053422371E+007, +4.95122455345E+001, +4.06576061303E+002
+1.63706176962E+007, +4.94625804731E+001, +4.10981562939E+002
+1.65358931553E+007, +4.92201602880E+001, +4.15545120753E+002
+1.67011686144E+007, +5.04341572257E+001, +4.20188720251E+002
+1.68664440735E+007, +4.99416251305E+001, +4.24545202944E+002
+1.70317195326E+007, +4.90256216450E+001, +4.29331269473E+002
+1.71969949917E+007, +4.90970382991E+001, +4.34978072760E+002
+1.73622704508E+007, +4.92189006118E+001, +4.38621506365E+002
+1.75275459098E+007, +4.91221829109E+001, +4.43079562405E+002
+1.76928213689E+007, +4.90171406078E+001, +4.48198057771E+002
+1.78580968280E+007, +4.98247669541E+001, +4.52351784431E+002
+1.80233722871E+007, +5.01480109989E+001, +4.56690930982E+002
+1.81886477462E+007, +5.04502889580E+001, +4.61929520004E+002
+1.83539232053E+007, +5.13267612570E+001, +4.65647409642E+002
+1.85191986644E+007, +5.07933106522E+001, +4.70479219321E+002
+1.86844741235E+007, +5.00067843030E+001, +4.74170989314E+002
+1.88497495826E+007, +5.13014065950E+001, +4.80265905274E+002
+1.90150250417E+007, +5.09365922499E+001, +4.86196780662E+002
+1.91803005008E+007, +5.01875748893E+001, +4.89588658784E+002
+1.93455759599E+007, +5.09499931753E+001, +4.93103007073E+002
+1.95108514190E+007, +5.21825264398E+001, +4.99543204234E+002
+1.96761268781E+007, +5.20853640526E+001, +5.04995538045E+002
+1.98414023372E+007, +5.10563112663E+001, +5.08515960499E+002
+2.00066777963E+007, +5.08357438381E+001, +5.12630905265E+002
+2.01719532554E+007, +5.15915785913E+001, +5.17966088507E+002
+2.03372287145E+007, +5.30166343695E+001, +5.22870464277E+002
+2.05025041736E+007, +5.30581442543E+001, +5.27599695478E+002
+2.06677796327E+007, +5.17664208838E+001, +5.32066541713E+002
+2.08330550918E+007, +5.26727106622E+001, +5.38417067687E+002
+2.09983305509E+007, +5.34609509276E+001, +5.42540000810E+002
+2.11636060100E+007, +5.17164109782E+001, +5.46694107842E+002
+2.13288814691E+007, +5.29302178024E+001, +5.51334802739E+002
+2.14941569282E+007, +5.33954291628E+001, +5.55679061338E+002
+2.16594323873E+007, +5.43807207191E+001, +5.62360818579E+002
+2.18247078464E+007, +5.55507521038E+001, +5.67599749917E+002
+2.19899833055E+007, +5.32124799214E+001, +5.73454516212E+002
+2.21552587646E+007, +5.26473227742E+001, +5.74904451580E+002
+2.23205342237E+007, +5.43514258403E+001, +5.81562684572E+002
+2.24858096828E+007, +5.49736491979E+001, +5.85529366475E+002
+2.26510851419E+007, +5.54190818015E+001, +5.90588161862E+002
+2.28163606010E+007, +5.59928633638E+001, +5.96243961213E+002
+2.29816360601E+007, +5.44718976330E+001, +6.01699627427E+002
+2.31469115192E+007, +5.75675072309E+001, +6.06509458941E+002
+2.33121869783E+007, +5.65600177062E+001, +6.11932009368E+002
+2.34774624374E+007, +5.63653754884E+001, +6.18362565145E+002
+2.36427378965E+007, +5.65825312208E+001, +6.23691724594E+002
+2.38080133556E+007, +5.75419348538E+001, +6.28734320304E+002
+2.39732888147E+007, +5.84406288657E+001, +6.35638131540E+002
+2.41385642738E+007, +5.84292486033E+001, +6.40474502422E+002
+2.43038397329E+007, +5.66255532981E+001, +6.43275372633E+002
+2.44691151920E+007, +5.85653087509E+001, +6.48943507472E+002
+2.46343906511E+007, +5.68322960905E+001, +6.57461890878E+002
+2.47996661102E+007, +5.75745867935E+001, +6.59841588433E+002
+2.49649415693E+007, +5.89166208658E+001, +6.66804016891E+002
+2.51302170284E+007, +5.91602327900E+001, +6.72120751130E+002
+2.52954924875E+007, +6.04241845119E+001, +6.74921060665E+002
+2.54607679466E+007, +6.00713299974E+001, +6.80938096979E+002
+2.56260434057E+007, +6.11275788635E+001, +6.84832783649E+002
+2.57913188648E+007, +6.15220000872E+001, +6.90365015322E+002
+2.59565943239E+007, +6.07326771206E+001, +6.94024527016E+002
+2.61218697830E+007, +6.09651531752E+001, +7.02542739107E+002
+2.62871452421E+007, +6.20160974493E+001, +7.07221766224E+002
+2.64524207012E+007, +6.17973026639E+001, +7.13802041367E+002
+2.66176961603E+007, +6.36715642959E+001, +7.19445648168E+002
+2.67829716194E+007, +6.21988908450E+001, +7.21317279874E+002
+2.69482470785E+007, +6.25870318761E+001, +7.30859976773E+002
+2.71135225376E+007, +6.30270810944E+001, +7.37093071716E+002
+2.72787979967E+007, +6.35020273850E+001, +7.41147691511E+002
+2.74440734558E+007, +6.33629427585E+001, +7.46057725846E+002
+2.76093489149E+007, +6.59954077925E+001, +7.49593742622E+002
+2.77746243740E+007, +6.34688924084E+001, +7.59432683070E+002
+2.79398998331E+007, +6.56341453136E+001, +7.66580144696E+002
+2.81051752922E+007, +6.50237005441E+001, +7.70290068066E+002
+2.82704507513E+007, +6.62133794439E+001, +7.76827565006E+002
+2.84357262104E+007, +6.66272762510E+001, +7.83354706572E+002
+2.86010016694E+007, +6.40100542926E+001, +7.90003519822E+002
+2.87662771285E+007, +6.39000344033E+001, +7.96497069751E+002
+2.89315525876E+007, +6.70377007982E+001, +8.04551219899E+002
+2.90968280467E+007, +6.72350857599E+001, +8.07979600246E+002
+2.92621035058E+007, +6.73611753718E+001, +8.13756199014E+002
+2.94273789649E+007, +6.74015599554E+001, +8.20661369013E+002
+2.95926544240E+007, +6.52871430126E+001, +8.26960958414E+002
+2.97579298831E+007, +6.77521693921E+001, +8.34327345497E+002
+2.99232053422E+007, +6.69713537540E+001, +8.43074053345E+002
+3.00884808013E+007, +7.11250430448E+001, +8.47143598042E+002
+3.02537562604E+007, +7.08160944476E+001, +8.51692816559E+002
+3.04190317195E+007, +7.06645331165E+001, +8.59263405266E+002
+3.05843071786E+007, +6.85220859990E+001, +8.66977986125E+002
+3.07495826377E+007, +6.99805262682E+001, +8.71700456993E+002
+3.09148580968E+007, +7.01802936984E+001, +8.77810420658E+002
+3.10801335559E+007, +7.48062892606E+001, +8.83242955281E+002
+3.12454090150E+007, +7.17629968491E+001, +8.92359204739E+002
+3.14106844741E+007, +7.13377788054E+001, +8.94661268310E+002
+3.15759599332E+007, +7.19208010824E+001, +9.05120292294E+002
+3.17412353923E+007, +7.62420462270E+001, +9.12245838381E+002
+3.19065108514E+007, +7.35459810040E+001, +9.20803466698E+002
+3.20717863105E+007, +6.97259336263E+001, +9.26148336913E+002
+3.22370617696E+007, +7.06172987993E+001, +9.31279034515E+002
+3.24023372287E+007, +6.85239845860E+001, +9.38789021777E+002
+3.25676126878E+007, +7.57044225667E+001, +9.45585162461E+002
+3.27328881469E+007, +7.27877940151E+001, +9.53512410065E+002
+3.28981636060E+007, +7.25503079720E+001, +9.59129400385E+002
+3.30634390651E+007, +7.98357284831E+001, +9.69248448281E+002
+3.32287145242E+007, +7.46967351430E+001, +9.82550014851E+002
+3.33939899833E+007, +7.80228985843E+001, +9.85234732640E+002
+3.35592654424E+007, +7.68499136109E+001, +9.93497071971E+002
+3.37245409015E+007, +7.79732298242E+001, +9.96724867850E+002
+3.38898163606E+007, +7.43787342734E+001, +1.00475235653E+003
+3.40550918197E+007, +7.41775846685E+001, +1.01501151235E+003
+3.42203672788E+007, +7.71465668720E+001, +1.01815062580E+003
+3.43856427379E+007, +8.06782842572E+001, +1.02775262152E+003
+3.45509181970E+007, +7.68404554197E+001, +1.03957650856E+003
+3.47161936561E+007, +8.00169949805E+001, +1.04712907498E+003
+3.48814691152E+007, +8.27656169392E+001, +1.05475966680E+003
+3.50467445743E+007, +8.01146903594E+001, +1.06403544167E+003
+3.52120200334E+007, +8.28322252769E+001, +1.06939597833E+003
+3.53772954925E+007, +7.99787302977E+001, +1.08197103350E+003
+3.55425709516E+007, +8.41359936259E+001, +1.09374154582E+003
+3.57078464107E+007, +8.43644813987E+001, +1.09460028576E+003
+3.58731218698E+007, +8.62463055308E+001, +1.11160805957E+003
+3.60383973289E+007, +8.51963861942E+001, +1.11030294385E+003
+3.62036727880E+007, +8.71201947265E+001, +1.12786201955E+003
+3.63689482471E+007, +9.07685049364E+001, +1.13313113341E+003
+3.65342237062E+007, +9.35886175647E+001, +1.13982218467E+003
+3.66994991653E+007, +8.38172481980E+001, +1.15513105593E+003
+3.68647746244E+007, +9.87161821401E+001, +1.16088733825E+003
+3.70300500835E+007, +8.90205526183E+001, +1.17146571217E+003
+3.71953255426E+007, +9.26123990017E+001, +1.18835538422E+003
+3.73606010017E+007, +9.47315876502E+001, +1.19365735034E+003
+3.75258764608E+007, +9.57942815450E+001, +1.20779211801E+003
+3.76911519199E+007, +9.94860762977E+001, +1.21165960888E+003
+3.78564273790E+007, +9.50607892573E+001, +1.22308714264E+003
+3.80217028381E+007, +9.69144632840E+001, +1.23185521801E+003
+3.81869782972E+007, +9.79273523008E+001, +1.24115439376E+003
+3.83522537563E+007, +9.88155260994E+001, +1.25030672826E+003
+3.85175292154E+007, +1.03976771032E+002, +1.25340261710E+003
+3.86828046745E+007, +1.01023377687E+002, +1.27208789593E+003
+3.88480801336E+007, +1.03981725160E+002, +1.28558296182E+003
+3.90133555927E+007, +1.07095373242E+002, +1.28588965641E+003
+3.91786310518E+007, +1.05355097008E+002, +1.30839809917E+003
+3.93439065109E+007, +1.05003767468E+002, +1.31786697746E+003
+3.95091819699E+007, +1.15731333533E+002, +1.33002828180E+003
+3.96744574290E+007, +1.06804718297E+002, +1.34192680351E+003
+3.98397328881E+007, +1.06226408717E+002, +1.35044507644E+003
+4.00050083472E+007, +1.08061928105E+002, +1.36660558813E+003
+4.01702838063E+007, +1.00010097334E+002, +1.36949694077E+003
+4.03355592654E+007, +1.10606169994E+002, +1.38301898882E+003
+4.05008347245E+007, +1.11970148064E+002, +1.40270627550E+003
+4.06661101836E+007, +1.12833136210E+002, +1.41060580110E+003
+4.08313856427E+007, +1.06920687527E+002, +1.43351456905E+003
+4.09966611018E+007, +1.09048592488E+002, +1.43411975262E+003
+4.11619365609E+007, +1.18066598546E+002, +1.45240692779E+003
+4.13272120200E+007, +1.33195060317E+002, +1.46855222591E+003
+4.14924874791E+007, +1.18696521267E+002, +1.48430994769E+003
+4.16577629382E+007, +1.32142500615E+002, +1.50069960046E+003
+4.18230383973E+007, +1.32563889684E+002, +1.50668236488E+003
+4.19883138564E+007, +1.29633337580E+002, +1.52371879642E+003
+4.21535893155E+007, +1.31052789456E+002, +1.54377618840E+003
+4.23188647746E+007, +1.38593372746E+002, +1.55943769804E+003
+4.24841402337E+007, +1.31481668524E+002, +1.58661674631E+003
+4.26494156928E+007, +1.35461767785E+002, +1.59165923431E+003
+4.28146911519E+007, +1.47503713857E+002, +1.60604150523E+003
+4.29799666110E+007, +1.48002484432E+002, +1.62133011234E+003
+4.31452420701E+007, +1.51634488987E+002, +1.64999657568E+003
+4.33105175292E+007, +1.47098740754E+002, +1.66673515017E+003
+4.34757929883E+007, +1.47137176957E+002, +1.69439959023E+003
+4.36410684474E+007, +1.46391237402E+002, +1.69175940893E+003
+4.38063439065E+007, +1.42519487418E+002, +1.71629627509E+003
+4.39716193656E+007, +1.65440164594E+002, +1.73742659942E+003
+4.41368948247E+007, +1.50962800008E+002, +1.76458686446E+003
+4.43021702838E+007, +1.69061856319E+002, +1.77782573679E+003
+4.44674457429E+007, +1.73588808238E+002, +1.79358982840E+003
+4.46327212020E+007, +1.81527564960E+002, +1.80854195180E+003
+4.47979966611E+007, +1.75129998341E+002, +1.83640754924E+003
+4.49632721202E+007, +1.92669151807E+002, +1.87024297001E+003
+4.51285475793E+007, +1.85196368540E+002, +1.88616261207E+003
+4.52938230384E+007, +2.02787292102E+002, +1.91626611123E+003
+4.54590984975E+007, +1.78039167839E+002, +1.92772763821E+003
+4.56243739566E+007, +2.05085567143E+002, +1.94813757623E+003
+4.57896494157E+007, +2.09095814039E+002, +1.97267702699E+003
+4.59549248748E+007, +2.14502554894E+002, +2.01719063389E+003
+4.61202003339E+007, +2.05748556741E+002, +2.03812401071E+003
+4.62854757930E+007, +2.26360352441E+002, +2.08365578969E+003
+4.64507512521E+007, +2.47547332486E+002, +2.07755464258E+003
+4.66160267112E+007, +2.49635387335E+002, +2.13362170562E+003
+4.67813021703E+007, +2.69202839320E+002, +2.16401444294E+003
+4.69465776294E+007, +2.70587730179E+002, +2.20535195295E+003
+4.71118530885E+007, +2.81190025826E+002, +2.22423855454E+003
+4.72771285476E+007, +2.86086976909E+002, +2.25903449257E+003
+4.74424040067E+007, +3.13488403918E+002, +2.29237484874E+003
+4.76076794658E+007, +3.01857969885E+002, +2.33898918966E+003
+4.77729549249E+007, +3.18154545698E+002, +2.36790286865E+003
+4.79382303840E+007, +3.33640518139E+002, +2.39583117950E+003
+4.81035058431E+007, +3.80157890479E+002, +2.44027462379E+003
+4.82687813022E+007, +3.82629641796E+002, +2.46854156640E+003
+4.84340567613E+007, +4.11445068407E+002, +2.51397243810E+003
+4.85993322204E+007, +4.11036214403E+002, +2.58497462001E+003
+4.87646076795E+007, +4.66759815715E+002, +2.62092439178E+003
+4.89298831386E+007, +5.02347102028E+002, +2.66805727309E+003
+4.90951585977E+007, +4.83569864668E+002, +2.68476357107E+003
+4.92604340568E+007, +5.43795962035E+002, +2.72482419564E+003
+4.94257095159E+007, +5.73615256896E+002, +2.77337456127E+003
+4.95909849750E+007, +5.83938136188E+002, +2.83881210499E+003
+4.97562604341E+007, +6.35673568976E+002, +2.81507854684E+003
+4.99215358932E+007, +6.28237605028E+002, +2.95787307588E+003
+5.00868113523E+007, +6.85121332895E+002, +2.98066357090E+003
+5.02520868114E+007, +7.51701596821E+002, +3.05329863894E+003
+5.04173622705E+007, +7.66742654613E+002, +3.07173362203E+003
+5.05826377295E+007, +8.01247127921E+002, +3.07287096012E+003
+5.07479131886E+007, +8.39029121254E+002, +3.17490690859E+003
+5.09131886477E+007, +8.71368659041E+002, +3.18439270097E+003
+5.10784641068E+007, +9.42653818554E+002, +3.20635358119E+003
+5.12437395659E+007, +1.00543990524E+003, +3.33895708469E+003
+5.14090150250E+007, +1.06537404931E+003, +3.34411209227E+003
+5.15742904841E+007, +1.07901951281E+003, +3.38383730593E+003
+5.17395659432E+007, +1.14139318189E+003, +3.40140988341E+003
+5.19048414023E+007, +1.27055605231E+003, +3.48250526115E+003
+5.20701168614E+007, +1.24672708856E+003, +3.57145569676E+003
+5.22353923205E+007, +1.34223060202E+003, +3.67715491178E+003
+5.24006677796E+007, +1.31759108720E+003, +3.63945579566E+003
+5.25659432387E+007, +1.44584260346E+003, +3.80635653784E+003
+5.27312186978E+007, +1.51434317369E+003, +3.77368308858E+003
+5.28964941569E+007, +1.57358713978E+003, +3.88881767728E+003
+5.30617696160E+007, +1.57569464485E+003, +3.99782094626E+003
+5.32270450751E+007, +1.58371523258E+003, +4.01560241826E+003
+5.33923205342E+007, +1.75900760686E+003, +4.26648713047E+003
+5.35575959933E+007, +1.82519484615E+003, +4.36964945861E+003
+5.37228714524E+007, +1.99339582845E+003, +4.53598910578E+003
+5.38881469115E+007, +2.03991724690E+003, +4.51780243032E+003
