"# Channel 1"
"# Trace 1"
Frequency, Formatted Data, Formatted Data
+1.00000000000E+005, +6.14909832576E-001, +2.08143864643E+000
+2.25031289111E+005, +5.92780946851E-001, +4.71875096351E+000
+3.50062578223E+005, +6.26807674126E-001, +7.35222700669E+000
+4.75093867334E+005, +6.35883795024E-001, +1.00104622005E+001
+6.00125156446E+005, +6.62389003083E-001, +1.26048117798E+001
+7.25156445557E+005, +7.25045602285E-001, +1.52017217900E+001
+8.50187734668E+005, +7.44800987358E-001, +1.77666376576E+001
+9.75219023780E+005, +7.81438345049E-001, +2.04289947556E+001
+1.10025031289E+006, +7.91560681148E-001, +2.29851197310E+001
+1.22528160200E+006, +8.00405504076E-001, +2.55086260547E+001
+1.35031289111E+006, +8.48368823596E-001, +2.81991260136E+001
+1.47534418023E+006, +8.94706008922E-001, +3.07308699643E+001
+1.60037546934E+006, +9.11807563159E-001, +3.33202322504E+001
+1.72540675845E+006, +9.37120765524E-001, +3.58735517390E+001
+1.85043804756E+006, +9.33456855438E-001, +3.83810975881E+001
+1.97546933667E+006, +1.03992879482E+000, +4.09704429987E+001
+2.10050062578E+006, +1.02285986542E+000, +4.35997591759E+001
+2.22553191489E+006, +1.01156890910E+000, +4.61081461896E+001
+2.35056320401E+006, +1.13863565817E+000, +4.87045168550E+001
+2.47559449312E+006, +1.02987908510E+000, +5.13171268654E+001
+2.60062578223E+006, +1.02628032348E+000, +5.38774019785E+001
+2.72565707134E+006, +1.06184787354E+000, +5.64475349150E+001
+2.85068836045E+006, +9.96869752341E-001, +5.90917439062E+001
+2.97571964956E+006, +1.13731294083E+000, +6.16697954392E+001
+3.10075093867E+006, +1.15016763413E+000, +6.41469118390E+001
+3.22578222778E+006, +1.09847579248E+000, +6.68012758294E+001
+3.35081351690E+006, +1.12218893953E+000, +6.92734608509E+001
+3.47584480601E+006, +1.08999175433E+000, +7.19206711910E+001
+3.60087609512E+006, +1.12825415014E+000, +7.46335687795E+001
+3.72590738423E+006, +1.14219188341E+000, +7.71416275568E+001
+3.85093867334E+006, +1.16411990917E+000, +7.96900676773E+001
+3.97596996245E+006, +1.18788093016E+000, +8.22765442070E+001
+4.10100125156E+006, +1.41086770473E+000, +8.48441582995E+001
+4.22603254068E+006, +1.15508601521E+000, +8.74695978403E+001
+4.35106382979E+006, +1.17524547683E+000, +9.00299713040E+001
+4.47609511890E+006, +1.12518639564E+000, +9.27350852876E+001
+4.60112640801E+006, +1.10333485482E+000, +9.54079213728E+001
+4.72615769712E+006, +1.17896305414E+000, +9.78994480638E+001
+4.85118898623E+006, +1.26647543819E+000, +1.00574502064E+002
+4.97622027534E+006, +1.46146836990E+000, +1.03081482877E+002
+5.10125156446E+006, +1.13358124469E+000, +1.05796385175E+002
+5.22628285357E+006, +1.17872381439E+000, +1.08267515065E+002
+5.35131414268E+006, +1.37965972396E+000, +1.10906961264E+002
+5.47634543179E+006, +1.30787259824E+000, +1.13433308064E+002
+5.60137672090E+006, +1.33784049916E+000, +1.16294486850E+002
+5.72640801001E+006, +1.36007385179E+000, +1.18771013019E+002
+5.85143929912E+006, +1.25437353045E+000, +1.21448240547E+002
+5.97647058824E+006, +1.35086256041E+000, +1.23932539888E+002
+6.10150187735E+006, +1.22166019128E+000, +1.26828774957E+002
+6.22653316646E+006, +1.46730946845E+000, +1.29623780451E+002
+6.35156445557E+006, +1.41301589463E+000, +1.32027483801E+002
+6.47659574468E+006, +1.51567624102E+000, +1.34716951926E+002
+6.60162703379E+006, +1.49297927081E+000, +1.37509584324E+002
+6.72665832290E+006, +1.61701435293E+000, +1.40205798529E+002
+6.85168961202E+006, +1.63616654655E+000, +1.42876931646E+002
+6.97672090113E+006, +1.77548227718E+000, +1.45434696456E+002
+7.10175219024E+006, +1.57479125547E+000, +1.48087187848E+002
+7.22678347935E+006, +1.48372009916E+000, +1.50565859992E+002
+7.35181476846E+006, +1.74405015496E+000, +1.53432516701E+002
+7.47684605757E+006, +1.71605796316E+000, +1.55995112413E+002
+7.60187734668E+006, +1.69327712663E+000, +1.58855534118E+002
+7.72690863579E+006, +1.82115141976E+000, +1.61771376823E+002
+7.85193992491E+006, +1.80155177976E+000, +1.64358730925E+002
+7.97697121402E+006, +1.53794235329E+000, +1.66903389138E+002
+8.10200250313E+006, +1.76591287341E+000, +1.69677292461E+002
+8.22703379224E+006, +1.80152639291E+000, +1.72154774448E+002
+8.35206508135E+006, +1.87868584936E+000, +1.74954021385E+002
+8.47709637046E+006, +1.80708614320E+000, +1.77834031741E+002
+8.60212765957E+006, +1.72691339642E+000, +1.80382252707E+002
+8.72715894869E+006, +1.68195560296E+000, +1.83221493025E+002
+8.85219023780E+006, +1.54050905447E+000, +1.86082304633E+002
+8.97722152691E+006, +1.53228276196E+000, +1.88420832244E+002
+9.10225281602E+006, +1.66417231007E+000, +1.91515899024E+002
+9.22728410513E+006, +1.50142662369E+000, +1.94144496259E+002
+9.35231539424E+006, +1.86669479524E+000, +1.96853338684E+002
+9.47734668335E+006, +1.87695942220E+000, +1.99634361687E+002
+9.60237797247E+006, +2.04321282773E+000, +2.02522426449E+002
+9.72740926158E+006, +2.09178099998E+000, +2.04924197979E+002
+9.85244055069E+006, +2.06669250800E+000, +2.07922432399E+002
+9.97747183980E+006, +2.03860646709E+000, +2.10747684806E+002
+1.01025031289E+007, +1.81299607739E+000, +2.13512077325E+002
+1.02275344180E+007, +1.80608556873E+000, +2.16349321331E+002
+1.03525657071E+007, +1.81282207350E+000, +2.19393939140E+002
+1.04775969962E+007, +1.74148368632E+000, +2.21717195383E+002
+1.06026282854E+007, +1.91996681175E+000, +2.24593913021E+002
+1.07276595745E+007, +1.78969146596E+000, +2.27345378017E+002
+1.08526908636E+007, +1.57441970836E+000, +2.30362505041E+002
+1.09777221527E+007, +1.99355311094E+000, +2.33064304778E+002
+1.11027534418E+007, +2.11747775354E+000, +2.35800783826E+002
+1.12277847309E+007, +1.94500031252E+000, +2.38555506575E+002
+1.13528160200E+007, +1.83595128520E+000, +2.41270268089E+002
+1.14778473091E+007, +1.67088055916E+000, +2.44177817001E+002
+1.16028785982E+007, +2.33185928045E+000, +2.47200282731E+002
+1.17279098874E+007, +1.77750536704E+000, +2.50274932118E+002
+1.18529411765E+007, +1.65173727959E+000, +2.53460962723E+002
+1.19779724656E+007, +1.66864013479E+000, +2.55704560701E+002
+1.21030037547E+007, +1.64746869358E+000, +2.58901041442E+002
+1.22280350438E+007, +1.81560495131E+000, +2.61700580733E+002
+1.23530663329E+007, +2.16412275139E+000, +2.64341224536E+002
+1.24780976220E+007, +1.36882930531E+000, +2.67499660788E+002
+1.26031289111E+007, +1.71641496872E+000, +2.70532695144E+002
+1.27281602003E+007, +1.62594268142E+000, +2.73287176247E+002
+1.28531914894E+007, +1.25985073399E+000, +2.76074618683E+002
+1.29782227785E+007, +1.93144057344E+000, +2.78869779185E+002
+1.31032540676E+007, +1.96038521636E+000, +2.81874788048E+002
+1.32282853567E+007, +1.86674335026E+000, +2.85219205372E+002
+1.33533166458E+007, +1.52458156321E+000, +2.87861538685E+002
+1.34783479349E+007, +1.71489015194E+000, +2.90744008386E+002
+1.36033792240E+007, +1.82412248591E+000, +2.94112379200E+002
+1.37284105131E+007, +1.98262605726E+000, +2.96532100099E+002
+1.38534418023E+007, +1.45547410388E+000, +3.00375537224E+002
+1.39784730914E+007, +1.63224066059E+000, +3.03169228758E+002
+1.41035043805E+007, +1.46884190695E+000, +3.05362829743E+002
+1.42285356696E+007, +1.74747807073E+000, +3.08729593882E+002
+1.43535669587E+007, +1.59790058082E+000, +3.12192880873E+002
+1.44785982478E+007, +1.76950890151E+000, +3.15017812168E+002
+1.46036295369E+007, +1.54063911406E+000, +3.17958845239E+002
+1.47286608260E+007, +1.01700960645E+000, +3.22128409272E+002
+1.48536921151E+007, +1.52454131056E+000, +3.24330934286E+002
+1.49787234043E+007, +1.44163797310E+000, +3.27505829374E+002
+1.51037546934E+007, +1.92145352660E+000, +3.30468691665E+002
+1.52287859825E+007, +1.76887081064E+000, +3.34178458946E+002
+1.53538172716E+007, +1.81832494360E+000, +3.36763947580E+002
+1.54788485607E+007, +1.50340878468E+000, +3.39642365126E+002
+1.56038798498E+007, +1.56411874007E+000, +3.43305662905E+002
+1.57289111389E+007, +1.07925782301E+000, +3.46560175393E+002
+1.58539424280E+007, +1.21428714325E+000, +3.48818326479E+002
+1.59789737171E+007, +1.73346148562E+000, +3.52269415579E+002
+1.61040050063E+007, +1.55779731049E+000, +3.55465208482E+002
+1.62290362954E+007, +1.47937131079E+000, +3.59034863011E+002
+1.63540675845E+007, +9.86576888389E-001, +3.61741723794E+002
+1.64790988736E+007, +1.98380120822E+000, +3.65902577587E+002
+1.66041301627E+007, +1.50302432501E+000, +3.69142536740E+002
+1.67291614518E+007, +9.77845799741E-001, +3.71632525506E+002
+1.68541927409E+007, +1.95247198961E+000, +3.75225100022E+002
+1.69792240300E+007, +1.94507668528E+000, +3.78615749629E+002
+1.71042553191E+007, +1.07676386444E+000, +3.81138480133E+002
+1.72292866083E+007, +9.02165757363E-001, +3.85131340821E+002
+1.73543178974E+007, +9.55045347721E-001, +3.88090644170E+002
+1.74793491865E+007, +1.05755271922E+000, +3.91839881666E+002
+1.76043804756E+007, +6.68839770347E-001, +3.94657687936E+002
+1.77294117647E+007, +1.62712041023E+000, +3.98447394127E+002
+1.78544430538E+007, +1.91247322564E+000, +4.01562128850E+002
+1.79794743429E+007, +6.79144424726E-001, +4.05167272696E+002
+1.81045056320E+007, +8.56315393535E-001, +4.08103101266E+002
+1.82295369212E+007, +1.30700335432E+000, +4.12612149530E+002
+1.83545682103E+007, +2.41097708078E+000, +4.15866197832E+002
+1.84795994994E+007, +8.70637489833E-001, +4.18407501050E+002
+1.86046307885E+007, +1.80978771799E+000, +4.23033378452E+002
+1.87296620776E+007, +1.14811680801E+000, +4.25667933937E+002
+1.88546933667E+007, +7.85474755017E-001, +4.29225257845E+002
+1.89797246558E+007, +1.76466589332E+000, +4.32772474181E+002
+1.91047559449E+007, +1.46936406824E+000, +4.37015404132E+002
+1.92297872340E+007, +8.26309943950E-001, +4.39952417827E+002
+1.93548185232E+007, +1.66252075581E+000, +4.42987451057E+002
+1.94798498123E+007, +1.75347595211E+000, +4.47040050573E+002
+1.96048811014E+007, +6.91712897455E-001, +4.49927643937E+002
+1.97299123905E+007, +1.04207050887E+000, +4.54756177591E+002
+1.98549436796E+007, +1.94132154737E+000, +4.57179470709E+002
+1.99799749687E+007, +1.10660736368E+000, +4.61600458289E+002
+2.01050062578E+007, +1.56974923282E+000, +4.64445088383E+002
+2.02300375469E+007, +8.53915912432E-001, +4.69592064049E+002
+2.03550688360E+007, +1.96383410986E+000, +4.71842753555E+002
+2.04801001252E+007, +7.27018468234E-001, +4.75476246423E+002
+2.06051314143E+007, +2.37886128415E+000, +4.79432204064E+002
+2.07301627034E+007, +1.11976103250E+000, +4.84436191161E+002
+2.08551939925E+007, +1.57479172261E+000, +4.87489180886E+002
+2.09802252816E+007, +1.30405715878E+000, +4.91515704575E+002
+2.11052565707E+007, +2.83070107778E+000, +4.95390417600E+002
+2.12302878598E+007, +1.65052101758E+000, +4.97389362167E+002
+2.13553191489E+007, +2.28200551383E+000, +5.02062037423E+002
+2.14803504380E+007, +2.09394318385E+000, +5.05600672396E+002
+2.16053817272E+007, +2.16623260259E+000, +5.09972375963E+002
+2.17304130163E+007, +2.18763673411E+000, +5.13923269069E+002
+2.18554443054E+007, +1.61992862610E+000, +5.17273302451E+002
+2.19804755945E+007, +3.16126042788E-001, +5.21545233784E+002
+2.21055068836E+007, +2.45810336979E+000, +5.28077611175E+002
+2.22305381727E+007, +3.19726733080E+000, +5.28266620146E+002
+2.23555694618E+007, +1.78735901182E+000, +5.34360073014E+002
+2.24806007509E+007, +2.07857277882E+000, +5.37620226692E+002
+2.26056320401E+007, +2.34930289559E+000, +5.41268142863E+002
+2.27306633292E+007, +1.59476570653E+000, +5.46343145968E+002
+2.28556946183E+007, +4.54992300747E+000, +5.51757032273E+002
+2.29807259074E+007, +4.15601355557E+000, +5.53615014915E+002
+2.31057571965E+007, +4.83212875108E+000, +5.59686179449E+002
+2.32307884856E+007, +4.53016544814E+000, +5.63360516351E+002
+2.33558197747E+007, +4.92959670800E+000, +5.66227193922E+002
+2.34808510638E+007, +4.19950145837E+000, +5.69042696287E+002
+2.36058823529E+007, +5.79968137318E+000, +5.73892221439E+002
+2.37309136421E+007, +6.12248251136E+000, +5.77773550279E+002
+2.38559449312E+007, +8.18881311544E+000, +5.84037132745E+002
+2.39809762203E+007, +6.12230639914E+000, +5.85508163821E+002
+2.41060075094E+007, +5.90695275905E+000, +5.92273219401E+002
+2.42310387985E+007, +6.42393555394E+000, +5.92616952558E+002
+2.43560700876E+007, +5.78988998735E+000, +5.98010280454E+002
+2.44811013767E+007, +3.34229246799E+000, +6.03491101256E+002
+2.46061326658E+007, +5.81914156916E+000, +6.05959104361E+002
+2.47311639549E+007, +4.66106150563E+000, +6.10871030510E+002
+2.48561952441E+007, +2.83415443804E+000, +6.14030433435E+002
+2.49812265332E+007, +2.91475610296E+000, +6.19315801767E+002
+2.51062578223E+007, +4.29350687802E+000, +6.21780982344E+002
+2.52312891114E+007, +4.77286693337E+000, +6.27363402359E+002
+2.53563204005E+007, +6.06371761209E+000, +6.34716992607E+002
+2.54813516896E+007, +3.73022021332E+000, +6.38272643516E+002
+2.56063829787E+007, +3.56573849924E+000, +6.41663190412E+002
+2.57314142678E+007, +4.88541485469E+000, +6.45873818839E+002
+2.58564455569E+007, +3.06407021343E+000, +6.52461870387E+002
+2.59814768461E+007, +5.46623376683E+000, +6.56705479269E+002
+2.61065081352E+007, +2.54737198162E+000, +6.59221150589E+002
+2.62315394243E+007, +4.59131720631E+000, +6.65850776671E+002
+2.63565707134E+007, +4.05555158708E+000, +6.69673240715E+002
+2.64816020025E+007, +1.00084896317E+000, +6.73044726669E+002
+2.66066332916E+007, +3.60153651778E+000, +6.79440079479E+002
+2.67316645807E+007, +3.35113137087E+000, +6.82280971914E+002
+2.68566958698E+007, +2.07011085278E+000, +6.87997671711E+002
+2.69817271589E+007, +4.97325667874E+000, +6.94005605341E+002
+2.71067584481E+007, +3.67118019180E+000, +6.98637367362E+002
+2.72317897372E+007, +4.35693474553E+000, +7.04119576883E+002
+2.73568210263E+007, +3.45148392091E+000, +7.07068458313E+002
+2.74818523154E+007, +3.20188926898E+000, +7.15369405817E+002
+2.76068836045E+007, +6.02260861222E+000, +7.21010410578E+002
+2.77319148936E+007, +2.20235962771E+000, +7.23280261542E+002
+2.78569461827E+007, +6.24503030421E+000, +7.28375805373E+002
+2.79819774718E+007, +8.67591716981E-001, +7.34389874175E+002
+2.81070087610E+007, +6.16729528862E+000, +7.35937376360E+002
+2.82320400501E+007, +3.37404682393E+000, +7.44644472646E+002
+2.83570713392E+007, +3.31306727817E+000, +7.51558000776E+002
+2.84821026283E+007, -2.93804882832E-001, +7.57022513604E+002
+2.86071339174E+007, +8.29688909368E-001, +7.58871256796E+002
+2.87321652065E+007, +2.87064008768E+000, +7.67496088968E+002
+2.88571964956E+007, -1.49053086110E+000, +7.71763953274E+002
+2.89822277847E+007, +2.97930005132E+000, +7.77920937407E+002
+2.91072590738E+007, +7.95356187517E-001, +7.82412685338E+002
+2.92322903630E+007, +2.73650612989E+000, +7.89238401207E+002
+2.93573216521E+007, +8.22238438565E-001, +7.94268310770E+002
+2.94823529412E+007, +3.40658275730E+000, +7.98679250763E+002
+2.96073842303E+007, +2.55376425068E+000, +8.03647477404E+002
+2.97324155194E+007, +1.54035824148E+000, +8.08244945298E+002
+2.98574468085E+007, +2.51038729033E+000, +8.21074797034E+002
+2.99824780976E+007, +5.20068793517E+000, +8.24839703394E+002
+3.01075093867E+007, -5.43311780810E-001, +8.30060834718E+002
+3.02325406758E+007, -1.69462385421E-002, +8.38150301556E+002
+3.03575719650E+007, +8.32475942663E-001, +8.40481804009E+002
+3.04826032541E+007, +3.30446763731E+000, +8.47805195208E+002
+3.06076345432E+007, +2.36804671675E+000, +8.54013418596E+002
+3.07326658323E+007, +2.10385268108E+000, +8.59136722600E+002
+3.08576971214E+007, +5.01339313514E+000, +8.63391424637E+002
+3.09827284105E+007, +1.16672382509E+000, +8.69313071320E+002
+3.11077596996E+007, -7.53329832835E-001, +8.75701835960E+002
+3.12327909887E+007, -2.24016058941E-001, +8.86091756909E+002
+3.13578222778E+007, +1.51236907966E+000, +8.96591937073E+002
+3.14828535670E+007, +2.63645380931E+000, +9.00346203735E+002
+3.16078848561E+007, +4.27347291056E-001, +9.05365556463E+002
+3.17329161452E+007, +2.91462002592E+000, +9.09268239306E+002
+3.18579474343E+007, +1.89457207854E+000, +9.19801149549E+002
+3.19829787234E+007, -2.96672755693E-002, +9.25905870215E+002
+3.21080100125E+007, +8.07677424255E-002, +9.33563163680E+002
+3.22330413016E+007, +2.11798479597E+000, +9.42274348102E+002
+3.23580725907E+007, -3.81341568372E+000, +9.46557541898E+002
+3.24831038798E+007, +4.33832166959E+000, +9.51232802270E+002
+3.26081351690E+007, +2.30534298857E+000, +9.60326952441E+002
+3.27331664581E+007, +6.33967567324E-001, +9.65318730130E+002
+3.28581977472E+007, +9.22155699496E-001, +9.78425085606E+002
+3.29832290363E+007, -1.89145749656E-001, +9.86174564921E+002
+3.31082603254E+007, +5.70295839160E-002, +9.95568621115E+002
+3.32332916145E+007, -2.02537915395E+000, +1.00040797824E+003
+3.33583229036E+007, +9.80551147988E-001, +1.00564311058E+003
+3.34833541927E+007, +2.11735000261E+000, +1.01059633676E+003
+3.36083854819E+007, +1.33177896114E+000, +1.02475951192E+003
+3.37334167710E+007, +3.84959054749E+000, +1.02302162495E+003
+3.38584480601E+007, +2.30888143684E+000, +1.03437109919E+003
+3.39834793492E+007, +3.64877044239E+000, +1.04061413411E+003
+3.41085106383E+007, -1.07679741004E+000, +1.05355407787E+003
+3.42335419274E+007, -3.50859850891E-001, +1.06321607399E+003
+3.43585732165E+007, -7.86008127808E-001, +1.06989028476E+003
+3.44836045056E+007, +1.92312484584E+000, +1.07934864167E+003
+3.46086357947E+007, +1.07039684917E+000, +1.08641665804E+003
+3.47336670839E+007, -2.54657304230E-001, +1.09546245948E+003
+3.48586983730E+007, -2.24214839815E+000, +1.10832121998E+003
+3.49837296621E+007, -1.85042765447E+000, +1.11132038581E+003
+3.51087609512E+007, -2.11947392394E+000, +1.11895323172E+003
+3.52337922403E+007, +3.38648370079E-001, +1.13112834397E+003
+3.53588235294E+007, +6.86524958885E-001, +1.13734434639E+003
+3.54838548185E+007, +4.77476137305E+000, +1.14563882717E+003
+3.56088861076E+007, +7.05062406079E-001, +1.15781609652E+003
+3.57339173967E+007, +2.84293472787E+000, +1.16284786233E+003
+3.58589486859E+007, +5.07859156695E+000, +1.17418716055E+003
+3.59839799750E+007, -6.54726827745E-001, +1.18537617239E+003
+3.61090112641E+007, -2.40584694470E-001, +1.19409198098E+003
+3.62340425532E+007, +7.17069229765E+000, +1.20551027626E+003
+3.63590738423E+007, -1.49702037106E+000, +1.21248058141E+003
+3.64841051314E+007, -2.41216209785E+000, +1.21780667314E+003
+3.66091364205E+007, -2.27809022225E+000, +1.22580202113E+003
+3.67341677096E+007, +3.24572711010E-001, +1.24667032270E+003
+3.68591989987E+007, -1.09461986900E+000, +1.24743754473E+003
+3.69842302879E+007, -8.16205433465E-001, +1.26294489217E+003
+3.71092615770E+007, -8.29601129137E-001, +1.27756005281E+003
+3.72342928661E+007, +4.65004444928E+000, +1.28767082677E+003
+3.73593241552E+007, +7.37624325149E+000, +1.29870473032E+003
+3.74843554443E+007, -2.54092616289E+000, +1.30250417456E+003
+3.76093867334E+007, +9.60021692532E-001, +1.31807587430E+003
+3.77344180225E+007, -8.21680984346E+000, +1.33225405987E+003
+3.78594493116E+007, -1.03292218378E+001, +1.34448371534E+003
+3.79844806008E+007, +4.56240060469E-001, +1.35310471710E+003
+3.81095118899E+007, +6.20051617251E+000, +1.36910778340E+003
+3.82345431790E+007, +2.48129653452E+000, +1.38579525072E+003
+3.83595744681E+007, -6.14360866051E+000, +1.39207604604E+003
+3.84846057572E+007, -1.04061804468E+001, +1.38786689144E+003
+3.86096370463E+007, -3.36298834015E+000, +1.41143827393E+003
+3.87346683354E+007, +2.12817726965E+000, +1.42027356233E+003
+3.88596996245E+007, -2.51005698647E+000, +1.43946888050E+003
+3.89847309136E+007, -5.19330022940E+000, +1.44960454753E+003
+3.91097622028E+007, +5.29817827015E+000, +1.46929842696E+003
+3.92347934919E+007, -3.32446962497E+000, +1.48163562170E+003
+3.93598247810E+007, -7.52209987956E+000, +1.49595431817E+003
+3.94848560701E+007, +2.64653474488E+000, +1.50616527070E+003
+3.96098873592E+007, +9.52094582629E+000, +1.51580554580E+003
+3.97349186483E+007, -3.01037165967E+000, +1.54397835224E+003
+3.98599499374E+007, +4.81559207886E+000, +1.56262544205E+003
+3.99849812265E+007, +6.66916634599E+000, +1.55864141799E+003
+4.01100125156E+007, +2.19279095980E+001, +1.59129016252E+003
