"# Channel 1"
"# Trace 1"
Frequency, Formatted Data, Formatted Data
+1.00000000000E+005, +1.00519381153E+001, +2.18063601029E+000
+2.66777963272E+005, +1.00405626614E+001, +5.84857403551E+000
+4.33555926544E+005, +1.00509252310E+001, +9.50992663824E+000
+6.00333889816E+005, +1.00787707333E+001, +1.31442996334E+001
+7.67111853088E+005, +1.01034223375E+001, +1.68230736825E+001
+9.33889816361E+005, +1.00897158964E+001, +2.04167480678E+001
+1.10066777963E+006, +1.00605027071E+001, +2.41392169570E+001
+1.26744574290E+006, +1.01123553922E+001, +2.77378180000E+001
+1.43422370618E+006, +1.00598701056E+001, +3.14669008811E+001
+1.60100166945E+006, +1.01365583566E+001, +3.50109437892E+001
+1.76777963272E+006, +1.01061358356E+001, +3.86925254818E+001
+1.93455759599E+006, +1.01037628161E+001, +4.22651904379E+001
+2.10133555927E+006, +1.01567277997E+001, +4.59179771209E+001
+2.26811352254E+006, +1.01320732888E+001, +4.95731032505E+001
+2.43489148581E+006, +1.01650708357E+001, +5.32858927505E+001
+2.60166944908E+006, +1.02158153363E+001, +5.68642250962E+001
+2.76844741235E+006, +1.02028931999E+001, +6.05893013008E+001
+2.93522537563E+006, +1.01253517743E+001, +6.42192547845E+001
+3.10200333890E+006, +1.03109677157E+001, +6.78164181816E+001
+3.26878130217E+006, +1.01588893139E+001, +7.16150397762E+001
+3.43555926544E+006, +1.02770654832E+001, +7.52384364780E+001
+3.60233722871E+006, +1.02466411637E+001, +7.90424077441E+001
+3.76911519199E+006, +1.03608732814E+001, +8.28156484995E+001
+3.93589315526E+006, +1.03632214524E+001, +8.62416793673E+001
+4.10267111853E+006, +9.90745497709E+000, +8.96004536962E+001
+4.26944908180E+006, +1.02416493083E+001, +9.42137800221E+001
+4.43622704508E+006, +1.02966086668E+001, +9.74891372609E+001
+4.60300500835E+006, +1.03969839019E+001, +1.01344337397E+002
+4.76978297162E+006, +1.04419999208E+001, +1.04857231626E+002
+4.93656093489E+006, +1.06085824221E+001, +1.08655209605E+002
+5.10333889816E+006, +1.06538237400E+001, +1.12247889543E+002
+5.27011686144E+006, +1.09450764423E+001, +1.16222968753E+002
+5.43689482471E+006, +1.05763223247E+001, +1.19864915993E+002
+5.60367278798E+006, +1.07806951834E+001, +1.23973124969E+002
+5.77045075125E+006, +1.07699171674E+001, +1.27428315107E+002
+5.93722871452E+006, +1.09647944885E+001, +1.31135554145E+002
+6.10400667780E+006, +1.09145661242E+001, +1.35016313788E+002
+6.27078464107E+006, +1.12730014724E+001, +1.38717010825E+002
+6.43756260434E+006, +1.12849252869E+001, +1.42653859036E+002
+6.60434056761E+006, +1.13362291321E+001, +1.46187322171E+002
+6.77111853088E+006, +1.16682504769E+001, +1.49916600631E+002
+6.93789649416E+006, +1.16101734966E+001, +1.53807674543E+002
+7.10467445743E+006, +1.15738505024E+001, +1.57575814280E+002
+7.27145242070E+006, +1.17738454493E+001, +1.61303646287E+002
+7.43823038397E+006, +1.18082089811E+001, +1.65008835027E+002
+7.60500834725E+006, +1.17554716887E+001, +1.68839402198E+002
+7.77178631052E+006, +1.20036792344E+001, +1.72882425902E+002
+7.93856427379E+006, +1.18767888460E+001, +1.76365627206E+002
+8.10534223706E+006, +1.17964348332E+001, +1.80318377964E+002
+8.27212020033E+006, +1.19707601635E+001, +1.84236377548E+002
+8.43889816361E+006, +1.18295153053E+001, +1.88191533382E+002
+8.60567612688E+006, +1.17829282319E+001, +1.92252025676E+002
+8.77245409015E+006, +1.18203413250E+001, +1.95903269630E+002
+8.93923205342E+006, +1.17486297938E+001, +1.99956573826E+002
+9.10601001669E+006, +1.20043247124E+001, +2.03847382891E+002
+9.27278797997E+006, +1.20346607763E+001, +2.07664498409E+002
+9.43956594324E+006, +1.19085627448E+001, +2.11881830856E+002
+9.60634390651E+006, +1.19551057609E+001, +2.16000435171E+002
+9.77312186978E+006, +1.20387575098E+001, +2.19660035547E+002
+9.93989983306E+006, +1.22361112843E+001, +2.24081479615E+002
+1.01066777963E+007, +1.19765514249E+001, +2.27817088794E+002
+1.02734557596E+007, +1.21363947920E+001, +2.31995777291E+002
+1.04402337229E+007, +1.21973260547E+001, +2.35846358263E+002
+1.06070116861E+007, +1.21425758321E+001, +2.39859070283E+002
+1.07737896494E+007, +1.21723523542E+001, +2.44042054371E+002
+1.09405676127E+007, +1.27519219715E+001, +2.48263793474E+002
+1.11073455760E+007, +1.24565713117E+001, +2.52470902563E+002
+1.12741235392E+007, +1.25979091189E+001, +2.56681231601E+002
+1.14409015025E+007, +1.25280138365E+001, +2.60928856110E+002
+1.16076794658E+007, +1.26789207213E+001, +2.65012804946E+002
+1.17744574290E+007, +1.29507519148E+001, +2.69228211330E+002
+1.19412353923E+007, +1.24648658817E+001, +2.73710373884E+002
+1.21080133556E+007, +1.27064553714E+001, +2.77978933241E+002
+1.22747913189E+007, +1.28957114512E+001, +2.82125620835E+002
+1.24415692821E+007, +1.25552265671E+001, +2.86293888652E+002
+1.26083472454E+007, +1.24868295071E+001, +2.91032956160E+002
+1.27751252087E+007, +1.31053389202E+001, +2.94843994521E+002
+1.29419031720E+007, +1.28178487609E+001, +2.99024834207E+002
+1.31086811352E+007, +1.32198555402E+001, +3.03377526520E+002
+1.32754590985E+007, +1.33494777448E+001, +3.07813100124E+002
+1.34422370618E+007, +1.33217036673E+001, +3.12482199740E+002
+1.36090150250E+007, +1.39020572584E+001, +3.16962823981E+002
+1.37757929883E+007, +1.32543629537E+001, +3.21362855435E+002
+1.39425709516E+007, +1.38192219620E+001, +3.25889031286E+002
+1.41093489149E+007, +1.37412990970E+001, +3.30113088462E+002
+1.42761268781E+007, +1.41805456897E+001, +3.34506778223E+002
+1.44429048414E+007, +1.40763443178E+001, +3.39087924718E+002
+1.46096828047E+007, +1.40279009971E+001, +3.43777201255E+002
+1.47764607679E+007, +1.43658461260E+001, +3.48240871212E+002
+1.49432387312E+007, +1.38700864515E+001, +3.53107570441E+002
+1.51100166945E+007, +1.46513606476E+001, +3.57734435033E+002
+1.52767946578E+007, +1.49897327302E+001, +3.61973543852E+002
+1.54435726210E+007, +1.49948498661E+001, +3.66207905101E+002
+1.56103505843E+007, +1.53510167793E+001, +3.71199278402E+002
+1.57771285476E+007, +1.52752387802E+001, +3.75540598619E+002
+1.59439065109E+007, +1.52268212605E+001, +3.80817817173E+002
+1.61106844741E+007, +1.46886337110E+001, +3.85280648461E+002
+1.62774624374E+007, +1.57952578405E+001, +3.90016893410E+002
+1.64442404007E+007, +1.47603449030E+001, +3.95478626450E+002
+1.66110183639E+007, +1.64466822293E+001, +4.00337293599E+002
+1.67777963272E+007, +1.54367258570E+001, +4.05411325470E+002
+1.69445742905E+007, +1.65751079690E+001, +4.09585517967E+002
+1.71113522538E+007, +1.43409909373E+001, +4.14701560309E+002
+1.72781302170E+007, +1.59149839188E+001, +4.19921323527E+002
+1.74449081803E+007, +1.51051558346E+001, +4.24266822715E+002
+1.76116861436E+007, +1.66554569244E+001, +4.29803475457E+002
+1.77784641068E+007, +1.58083382512E+001, +4.34392586687E+002
+1.79452420701E+007, +1.58615915090E+001, +4.38903986412E+002
+1.81120200334E+007, +1.75943890276E+001, +4.43505786771E+002
+1.82787979967E+007, +1.69851382003E+001, +4.50691382319E+002
+1.84455759599E+007, +1.78299480175E+001, +4.55678589970E+002
+1.86123539232E+007, +1.76511848614E+001, +4.60190042607E+002
+1.87791318865E+007, +1.79735949658E+001, +4.66660085105E+002
+1.89459098497E+007, +1.81960368252E+001, +4.71452026253E+002
+1.91126878130E+007, +1.81330194812E+001, +4.75914700432E+002
+1.92794657763E+007, +1.81102639164E+001, +4.82355600533E+002
+1.94462437396E+007, +1.87006603190E+001, +4.88133825235E+002
+1.96130217028E+007, +1.71368563563E+001, +4.93725407979E+002
+1.97797996661E+007, +1.85931545687E+001, +4.97774830733E+002
+1.99465776294E+007, +1.84092089326E+001, +5.03909485120E+002
+2.01133555927E+007, +1.93650058870E+001, +5.10714350906E+002
+2.02801335559E+007, +2.06007075303E+001, +5.16196044393E+002
+2.04469115192E+007, +1.97792512118E+001, +5.22534182687E+002
+2.06136894825E+007, +2.05999729414E+001, +5.27310464389E+002
+2.07804674457E+007, +2.16388012176E+001, +5.34335811171E+002
+2.09472454090E+007, +2.09554497197E+001, +5.40910837524E+002
+2.11140233723E+007, +2.19321978929E+001, +5.45209366027E+002
+2.12808013356E+007, +2.24800015153E+001, +5.50503773155E+002
+2.14475792988E+007, +2.23480208229E+001, +5.58655124151E+002
+2.16143572621E+007, +2.31756113234E+001, +5.62846843970E+002
+2.17811352254E+007, +2.24881481055E+001, +5.68191261444E+002
+2.19479131886E+007, +2.49925293464E+001, +5.75295162494E+002
+2.21146911519E+007, +2.54884887706E+001, +5.81443527017E+002
+2.22814691152E+007, +2.40316689823E+001, +5.87811139033E+002
+2.24482470785E+007, +2.69005271308E+001, +5.95798530148E+002
+2.26150250417E+007, +2.70565440880E+001, +6.02056026562E+002
+2.27818030050E+007, +2.82661568047E+001, +6.07615080076E+002
+2.29485809683E+007, +3.01344836890E+001, +6.13896066837E+002
+2.31153589316E+007, +2.84447782312E+001, +6.21997780033E+002
+2.32821368948E+007, +3.03351808544E+001, +6.27669407006E+002
+2.34489148581E+007, +3.11176496266E+001, +6.33334648317E+002
+2.36156928214E+007, +3.45073094567E+001, +6.40464794020E+002
+2.37824707846E+007, +3.42663889734E+001, +6.46777937295E+002
+2.39492487479E+007, +3.24677361976E+001, +6.53382370632E+002
+2.41160267112E+007, +3.57808599560E+001, +6.59333888742E+002
+2.42828046745E+007, +3.50517657704E+001, +6.66999095536E+002
+2.44495826377E+007, +3.81110911632E+001, +6.73630065792E+002
+2.46163606010E+007, +3.85727686299E+001, +6.81051760040E+002
+2.47831385643E+007, +3.97072823927E+001, +6.85142995056E+002
+2.49499165275E+007, +4.38646472020E+001, +6.93452904938E+002
+2.51166944908E+007, +4.31320542660E+001, +6.98025799607E+002
+2.52834724541E+007, +4.04673806399E+001, +7.04577340186E+002
+2.54502504174E+007, +4.29986221993E+001, +7.11984816581E+002
+2.56170283806E+007, +4.18591302614E+001, +7.20639148761E+002
+2.57838063439E+007, +4.41370633419E+001, +7.28370283372E+002
+2.59505843072E+007, +4.48573379628E+001, +7.35304641687E+002
+2.61173622705E+007, +4.46834858663E+001, +7.41184034542E+002
+2.62841402337E+007, +4.54321940123E+001, +7.47878396376E+002
+2.64509181970E+007, +4.53706575774E+001, +7.57146064476E+002
+2.66176961603E+007, +4.74579607400E+001, +7.65543249918E+002
+2.67844741235E+007, +4.55650848421E+001, +7.72988171270E+002
+2.69512520868E+007, +5.02506415545E+001, +7.82117053099E+002
+2.71180300501E+007, +4.57616942271E+001, +7.82302697501E+002
+2.72848080134E+007, +4.90544575156E+001, +7.95847167942E+002
+2.74515859766E+007, +4.80319549991E+001, +8.03325113232E+002
+2.76183639399E+007, +4.84430131097E+001, +8.12058440653E+002
+2.77851419032E+007, +4.87458654301E+001, +8.17757233167E+002
+2.79519198664E+007, +5.15279793199E+001, +8.28572511205E+002
+2.81186978297E+007, +5.21270043627E+001, +8.35534313704E+002
+2.82854757930E+007, +5.17503190608E+001, +8.42298697514E+002
+2.84522537563E+007, +5.00722380898E+001, +8.56347377184E+002
+2.86190317195E+007, +4.92590339544E+001, +8.63107655857E+002
+2.87858096828E+007, +5.98599155921E+001, +8.72755673200E+002
+2.89525876461E+007, +5.60473443418E+001, +8.79552879923E+002
+2.91193656093E+007, +5.34959101471E+001, +8.87494684185E+002
+2.92861435726E+007, +5.80051568504E+001, +8.99080193268E+002
+2.94529215359E+007, +5.95940985433E+001, +9.09107829882E+002
+2.96196994992E+007, +6.10886109574E+001, +9.20111735137E+002
+2.97864774624E+007, +6.14813500852E+001, +9.30719191869E+002
+2.99532554257E+007, +6.33196566981E+001, +9.41184452681E+002
+3.01200333890E+007, +6.14231077107E+001, +9.52634844923E+002
+3.02868113523E+007, +6.25377345169E+001, +9.61375740378E+002
+3.04535893155E+007, +6.37762510740E+001, +9.72134124498E+002
+3.06203672788E+007, +6.71307317789E+001, +9.82297647877E+002
+3.07871452421E+007, +6.52454812291E+001, +9.88616643648E+002
+3.09539232053E+007, +6.86258215432E+001, +9.99579520360E+002
+3.11207011686E+007, +6.83622306497E+001, +1.01637246997E+003
+3.12874791319E+007, +6.95341101360E+001, +1.02073295787E+003
+3.14542570952E+007, +6.72060529325E+001, +1.03777435308E+003
+3.16210350584E+007, +6.82249625763E+001, +1.05034285204E+003
+3.17878130217E+007, +6.89601350407E+001, +1.05788068063E+003
+3.19545909850E+007, +7.95835728474E+001, +1.07011049722E+003
+3.21213689482E+007, +6.78525585612E+001, +1.08299254087E+003
+3.22881469115E+007, +7.18746595149E+001, +1.08953438894E+003
+3.24549248748E+007, +7.61785579069E+001, +1.10723151544E+003
+3.26217028381E+007, +7.18212734059E+001, +1.11886480227E+003
+3.27884808013E+007, +7.44699777340E+001, +1.13748623550E+003
+3.29552587646E+007, +7.64094520178E+001, +1.14012070532E+003
+3.31220367279E+007, +7.67092577186E+001, +1.15674715391E+003
+3.32888146912E+007, +7.76665473524E+001, +1.17163126128E+003
+3.34555926544E+007, +7.75204720520E+001, +1.18756115326E+003
+3.36223706177E+007, +8.01458924240E+001, +1.19653065511E+003
+3.37891485810E+007, +8.00628920460E+001, +1.21320211708E+003
+3.39559265442E+007, +8.46718512378E+001, +1.23494231009E+003
+3.41227045075E+007, +7.79162942000E+001, +1.23951459044E+003
+3.42894824708E+007, +8.05330971623E+001, +1.25596576940E+003
+3.44562604341E+007, +8.93348540859E+001, +1.27299858333E+003
+3.46230383973E+007, +8.64086851696E+001, +1.30085306241E+003
+3.47898163606E+007, +9.07600713239E+001, +1.30319590637E+003
+3.49565943239E+007, +9.35022321257E+001, +1.32960657562E+003
+3.51233722871E+007, +9.39356320930E+001, +1.35194224684E+003
+3.52901502504E+007, +9.92234612788E+001, +1.35277323699E+003
+3.54569282137E+007, +9.75470220206E+001, +1.38625752564E+003
+3.56237061770E+007, +9.41222406970E+001, +1.39964492418E+003
+3.57904841402E+007, +1.01382796796E+002, +1.41844943335E+003
+3.59572621035E+007, +1.02386944062E+002, +1.43827211903E+003
+3.61240400668E+007, +1.04983782227E+002, +1.45366877500E+003
+3.62908180301E+007, +1.07429538500E+002, +1.48479320270E+003
+3.64575959933E+007, +1.09320552587E+002, +1.49880985352E+003
+3.66243739566E+007, +1.24298974956E+002, +1.52182666644E+003
+3.67911519199E+007, +1.21884466465E+002, +1.55410305677E+003
+3.69579298831E+007, +1.13077106939E+002, +1.57031245691E+003
+3.71247078464E+007, +1.14804619560E+002, +1.60174492124E+003
+3.72914858097E+007, +1.18385088972E+002, +1.62953107548E+003
+3.74582637730E+007, +1.38305318392E+002, +1.66048621018E+003
+3.76250417362E+007, +1.40217318533E+002, +1.67368689729E+003
+3.77918196995E+007, +1.37062333951E+002, +1.70050916244E+003
+3.79585976628E+007, +1.49063798891E+002, +1.73206098830E+003
+3.81253756260E+007, +1.42521970587E+002, +1.74990703110E+003
+3.82921535893E+007, +1.65809431392E+002, +1.77945365133E+003
+3.84589315526E+007, +1.64083615060E+002, +1.82199512134E+003
+3.86257095159E+007, +1.65104446067E+002, +1.85419394969E+003
+3.87924874791E+007, +1.62214000856E+002, +1.88714182357E+003
+3.89592654424E+007, +1.85620664501E+002, +1.90598199534E+003
+3.91260434057E+007, +2.04180760183E+002, +1.95946498672E+003
+3.92928213689E+007, +2.00939961761E+002, +1.97437487632E+003
+3.94595993322E+007, +2.05296414270E+002, +2.03183853584E+003
+3.96263772955E+007, +2.06909541682E+002, +2.04224461557E+003
+3.97931552588E+007, +2.30841856504E+002, +2.09662066978E+003
+3.99599332220E+007, +2.34323783238E+002, +2.12210303823E+003
+4.01267111853E+007, +2.56825043832E+002, +2.18258286133E+003
+4.02934891486E+007, +2.41369047416E+002, +2.22684141560E+003
+4.04602671119E+007, +2.77714221706E+002, +2.24062453514E+003
+4.06270450751E+007, +2.81101120332E+002, +2.29674868114E+003
+4.07938230384E+007, +2.95298422048E+002, +2.33688579578E+003
+4.09606010017E+007, +3.21236164108E+002, +2.38287902916E+003
+4.11273789649E+007, +3.26035221928E+002, +2.44744407854E+003
+4.12941569282E+007, +3.37382563135E+002, +2.48608677080E+003
+4.14609348915E+007, +3.62209931099E+002, +2.56616287076E+003
+4.16277128548E+007, +3.77537163211E+002, +2.60758011306E+003
+4.17944908180E+007, +3.97736966263E+002, +2.66485206103E+003
+4.19612687813E+007, +3.85866981259E+002, +2.72769536790E+003
+4.21280467446E+007, +4.32039683423E+002, +2.79494985930E+003
+4.22948247078E+007, +4.64955680318E+002, +2.83535848168E+003
+4.24616026711E+007, +5.21779289998E+002, +2.89827158464E+003
+4.26283806344E+007, +5.29602812127E+002, +2.98195544768E+003
+4.27951585977E+007, +4.98601004911E+002, +3.09975661540E+003
+4.29619365609E+007, +6.00470405965E+002, +3.14023603931E+003
+4.31287145242E+007, +6.47858004015E+002, +3.24917677760E+003
+4.32954924875E+007, +6.59083936463E+002, +3.32545767189E+003
+4.34622704508E+007, +7.06645706991E+002, +3.48064310453E+003
+4.36290484140E+007, +8.13231111705E+002, +3.52683448938E+003
+4.37958263773E+007, +8.19887915912E+002, +3.63895120671E+003
+4.39626043406E+007, +9.07277405563E+002, +3.76785796509E+003
+4.41293823038E+007, +1.03360035524E+003, +3.88535526099E+003
+4.42961602671E+007, +1.04989937999E+003, +4.06169784546E+003
+4.44629382304E+007, +1.13200375526E+003, +4.15253507307E+003
+4.46297161937E+007, +1.28759462147E+003, +4.27805661010E+003
+4.47964941569E+007, +1.40429601280E+003, +4.40378765626E+003
+4.49632721202E+007, +1.46285996291E+003, +4.62115125583E+003
+4.51300500835E+007, +1.66302109435E+003, +4.66229705769E+003
+4.52968280467E+007, +1.82044906226E+003, +4.90273165422E+003
+4.54636060100E+007, +2.13068176721E+003, +5.11480895097E+003
+4.56303839733E+007, +2.32723940374E+003, +5.26017574898E+003
+4.57971619366E+007, +2.57132921072E+003, +5.34903082440E+003
+4.59639398998E+007, +3.03357173283E+003, +5.77767679416E+003
+4.61307178631E+007, +3.28001097685E+003, +5.73402147587E+003
+4.62974958264E+007, +3.93733696982E+003, +5.69964009243E+003
+4.64642737896E+007, +4.06428384427E+003, +5.96284503303E+003
+4.66310517529E+007, +4.70527924395E+003, +6.35201212114E+003
+4.67978297162E+007, +5.09783912400E+003, +5.66786842634E+003
+4.69646076795E+007, +6.08852128310E+003, +5.66222839548E+003
+4.71313856427E+007, +6.67190482037E+003, +5.53124406691E+003
+4.72981636060E+007, +7.55458423110E+003, +5.18818123217E+003
+4.74649415693E+007, +7.71957982848E+003, +4.97056194336E+003
+4.76317195326E+007, +8.05003862608E+003, +3.83576683423E+003
+4.77984974958E+007, +8.44906013204E+003, +3.30375594116E+003
+4.79652754591E+007, +8.45862160790E+003, +2.78481155882E+003
+4.81320534224E+007, +8.55893059877E+003, +1.81205418510E+003
+4.82988313856E+007, +8.68829876433E+003, +1.18632124991E+003
+4.84656093489E+007, +8.26172912480E+003, +8.49961200296E+002
+4.86323873122E+007, +7.98194608035E+003, +1.81606723536E+002
+4.87991652755E+007, +8.03668157107E+003, -5.53918449573E+002
+4.89659432387E+007, +7.74338263749E+003, -6.63881531182E+002
+4.91327212020E+007, +7.26256837569E+003, -1.34337732625E+003
+4.92994991653E+007, +6.85444457447E+003, -1.32887932090E+003
+4.94662771285E+007, +6.50486758051E+003, -1.49263285195E+003
+4.96330550918E+007, +6.29798831028E+003, -1.83776150543E+003
+4.97998330551E+007, +5.98851489102E+003, -1.66049959706E+003
+4.99666110184E+007, +5.78447571322E+003, -1.89888018459E+003
+5.01333889816E+007, +5.53997482702E+003, -1.81167895882E+003
+5.03001669449E+007, +5.35700969717E+003, -1.86674426897E+003
+5.04669449082E+007, +5.20173755096E+003, -1.79719324770E+003
+5.06337228715E+007, +5.02734263059E+003, -1.78271184960E+003
+5.08005008347E+007, +5.03087865468E+003, -1.80333080313E+003
+5.09672787980E+007, +4.97202466906E+003, -1.64855254797E+003
+5.11340567613E+007, +4.93045529835E+003, -1.77353899254E+003
+5.13008347245E+007, +4.91439403222E+003, -1.84056570575E+003
+5.14676126878E+007, +5.08203598643E+003, -1.89939734490E+003
+5.16343906511E+007, +5.04448289370E+003, -2.01194000769E+003
+5.18011686144E+007, +5.17483311574E+003, -2.11518862923E+003
+5.19679465776E+007, +5.01724655350E+003, -2.38672936476E+003
+5.21347245409E+007, +5.04269247025E+003, -2.62820244935E+003
+5.23015025042E+007, +4.72804727105E+003, -2.94643781270E+003
+5.24682804674E+007, +4.83187576053E+003, -3.34292219133E+003
+5.26350584307E+007, +4.51248717746E+003, -3.28774091703E+003
+5.28018363940E+007, +4.29438733965E+003, -3.58375046115E+003
+5.29686143573E+007, +4.12516042564E+003, -3.72013402528E+003
+5.31353923205E+007, +3.90388517128E+003, -3.88772599058E+003
+5.33021702838E+007, +3.65257585651E+003, -3.89143152538E+003
+5.34689482471E+007, +3.31357552814E+003, -3.81277808260E+003
