"# Channel 1"
"# Trace 1"
Frequency, Formatted Data, Formatted Data
+1.00000000000E+005, +2.45842533436E-001, +2.07246562926E+000
+2.87609511890E+005, +2.80909182243E-001, +5.96843382047E+000
+4.75219023780E+005, +2.63767342157E-001, +9.82940486338E+000
+6.62828535670E+005, +3.41560518364E-001, +1.37239027198E+001
+8.50438047559E+005, +3.88788526400E-001, +1.75069077636E+001
+1.03804755945E+006, +4.33332194302E-001, +2.13080047087E+001
+1.22565707134E+006, +4.43062239922E-001, +2.51340387219E+001
+1.41326658323E+006, +4.56266564087E-001, +2.89348854658E+001
+1.60087609512E+006, +4.58128259174E-001, +3.27926972339E+001
+1.78848560701E+006, +4.83565701460E-001, +3.65813301820E+001
+1.97609511890E+006, +4.88006443186E-001, +4.04274456507E+001
+2.16370463079E+006, +4.16629754211E-001, +4.41760963715E+001
+2.35131414268E+006, +4.14130508096E-001, +4.79394281239E+001
+2.53892365457E+006, +4.69471413045E-001, +5.19002677127E+001
+2.72653316646E+006, +3.96742452413E-001, +5.57116082221E+001
+2.91414267835E+006, +4.70098009639E-001, +5.94949466312E+001
+3.10175219024E+006, +5.33199750043E-001, +6.34204102599E+001
+3.28936170213E+006, +5.13118199167E-001, +6.73205904927E+001
+3.47697121402E+006, +3.43983766202E-001, +7.11116028282E+001
+3.66458072591E+006, +5.66320289438E-001, +7.49414695811E+001
+3.85219023780E+006, +4.03384653469E-001, +7.87942504543E+001
+4.03979974969E+006, +5.17380266159E-001, +8.27916303601E+001
+4.22740926158E+006, +5.98127826772E-001, +8.65084597366E+001
+4.41501877347E+006, +4.31353307128E-001, +9.01286669436E+001
+4.60262828536E+006, +4.68743560880E-001, +9.40553328042E+001
+4.79023779725E+006, +4.01183742680E-001, +9.80600325885E+001
+4.97784730914E+006, +3.59154207196E-001, +1.02011537649E+002
+5.16545682103E+006, +4.37628660205E-001, +1.05823070916E+002
+5.35306633292E+006, +4.74708953335E-001, +1.09769046472E+002
+5.54067584481E+006, +3.61282156968E-001, +1.13640011231E+002
+5.72828535670E+006, +2.62521742239E-001, +1.17616437523E+002
+5.91589486859E+006, +3.38137717132E-001, +1.21476347648E+002
+6.10350438048E+006, +3.03374321255E-001, +1.25698865147E+002
+6.29111389237E+006, +6.39937499864E-001, +1.29510422261E+002
+6.47872340426E+006, +4.41061644682E-001, +1.33559998353E+002
+6.66633291615E+006, +6.19875759195E-001, +1.37336724312E+002
+6.85394242804E+006, +6.44199310437E-001, +1.41653223247E+002
+7.04155193992E+006, +7.84483949781E-001, +1.45323186958E+002
+7.22916145181E+006, +6.96995749528E-001, +1.49232934243E+002
+7.41677096370E+006, +6.49285887882E-001, +1.53390278401E+002
+7.60438047559E+006, +6.64185346376E-001, +1.57382047773E+002
+7.79198998748E+006, +8.19647801306E-001, +1.61481068628E+002
+7.97959949937E+006, +7.67310354632E-001, +1.65531154169E+002
+8.16720901126E+006, +7.72893748749E-001, +1.69605152901E+002
+8.35481852315E+006, +7.91980480242E-001, +1.73579934896E+002
+8.54242803504E+006, +7.39734530138E-001, +1.77394570918E+002
+8.73003754693E+006, +8.27442621106E-001, +1.81648422996E+002
+8.91764705882E+006, +7.60219715410E-001, +1.85835429992E+002
+9.10525657071E+006, +8.01306806587E-001, +1.89497365412E+002
+9.29286608260E+006, +7.48598431028E-001, +1.93844044797E+002
+9.48047559449E+006, +7.07278219605E-001, +1.97872954058E+002
+9.66808510638E+006, +8.38663770141E-001, +2.02216884989E+002
+9.85569461827E+006, +5.36446729991E-001, +2.06064486729E+002
+1.00433041302E+007, +6.10218993558E-001, +2.10352370486E+002
+1.02309136421E+007, +5.75330611990E-001, +2.14510803424E+002
+1.04185231539E+007, +8.62195726394E-001, +2.18409816908E+002
+1.06061326658E+007, +7.84776248105E-001, +2.22861994744E+002
+1.07937421777E+007, +6.08470633779E-001, +2.27202899942E+002
+1.09813516896E+007, +7.68376977927E-001, +2.31141849670E+002
+1.11689612015E+007, +6.64421394636E-001, +2.35376603159E+002
+1.13565707134E+007, +7.78788444539E-001, +2.39946629893E+002
+1.15441802253E+007, +6.77670033051E-001, +2.44070731151E+002
+1.17317897372E+007, +4.09722906952E-001, +2.48116302183E+002
+1.19193992491E+007, +8.86254140999E-001, +2.52685595600E+002
+1.21070087610E+007, +6.10671958410E-001, +2.56929277623E+002
+1.22946182728E+007, +6.11054559494E-001, +2.61300877062E+002
+1.24822277847E+007, +6.83525627821E-002, +2.65810952825E+002
+1.26698372966E+007, +2.83810646006E-001, +2.69916947952E+002
+1.28574468085E+007, +2.64846210696E-001, +2.73956150377E+002
+1.30450563204E+007, +5.64284289903E-001, +2.78809364437E+002
+1.32326658323E+007, +4.59829508252E-001, +2.83264312381E+002
+1.34202753442E+007, +1.93593800477E-001, +2.87396357887E+002
+1.36078848561E+007, +6.36279757657E-002, +2.91706486799E+002
+1.37954943680E+007, +7.93449793022E-002, +2.96709200711E+002
+1.39831038798E+007, +1.52301758040E-002, +3.01033207914E+002
+1.41707133917E+007, +1.76952206704E-001, +3.05299894495E+002
+1.43583229036E+007, +1.05915281545E-001, +3.10247544186E+002
+1.45459324155E+007, +2.88218160369E-001, +3.15255051827E+002
+1.47335419274E+007, +3.69169834966E-001, +3.19085240258E+002
+1.49211514393E+007, -1.48088779469E-001, +3.23243966277E+002
+1.51087609512E+007, +4.02871870866E-001, +3.28615088331E+002
+1.52963704631E+007, +2.34705527329E-001, +3.33000430419E+002
+1.54839799750E+007, -1.19343274291E-001, +3.37887851986E+002
+1.56715894869E+007, +2.11446493056E-001, +3.42120059443E+002
+1.58591989987E+007, +1.32856916295E-001, +3.47047885653E+002
+1.60468085106E+007, -3.62770271047E-001, +3.52156843996E+002
+1.62344180225E+007, -1.82790075864E-001, +3.57670059457E+002
+1.64220275344E+007, -8.60943414814E-001, +3.61694767304E+002
+1.66096370463E+007, -1.73551756761E-001, +3.66839690974E+002
+1.67972465582E+007, -7.09991394653E-001, +3.71988284225E+002
+1.69848560701E+007, -3.86410508771E-001, +3.76217717310E+002
+1.71724655820E+007, -1.60342192423E+000, +3.81407833369E+002
+1.73600750939E+007, -4.35577861435E-001, +3.86527035744E+002
+1.75476846058E+007, -1.38059461942E+000, +3.91445023595E+002
+1.77352941176E+007, -8.99539351798E-001, +3.95789609837E+002
+1.79229036295E+007, -1.12274264408E+000, +4.01676473478E+002
+1.81105131414E+007, -5.01473417458E-001, +4.06217621611E+002
+1.82981226533E+007, -6.76120795530E-001, +4.11885671471E+002
+1.84857321652E+007, -1.07642078489E+000, +4.16775889231E+002
+1.86733416771E+007, -1.23961378926E+000, +4.21245765502E+002
+1.88609511890E+007, -3.82487292223E-001, +4.27482378934E+002
+1.90485607009E+007, -3.36286462115E-001, +4.32110559323E+002
+1.92361702128E+007, -3.86359050866E-001, +4.37950318567E+002
+1.94237797247E+007, -6.84643115552E-001, +4.42811708746E+002
+1.96113892365E+007, +2.82765780081E-002, +4.49384291757E+002
+1.97989987484E+007, -7.29441455904E-001, +4.54569740469E+002
+1.99866082603E+007, -1.54355096390E+000, +4.59915808682E+002
+2.01742177722E+007, -1.54099819744E-001, +4.64305641857E+002
+2.03618272841E+007, -1.30764310984E+000, +4.70389847932E+002
+2.05494367960E+007, -4.85402504030E-001, +4.76157254278E+002
+2.07370463079E+007, -1.14893774200E+000, +4.82229647999E+002
+2.09246558198E+007, -7.57016675196E-001, +4.87470977405E+002
+2.11122653317E+007, +3.87314447157E-002, +4.93121345775E+002
+2.12998748436E+007, -6.91609792903E-001, +4.97746468525E+002
+2.14874843554E+007, -2.08993059685E+000, +5.04372142249E+002
+2.16750938673E+007, -8.91260600741E-001, +5.10617525446E+002
+2.18627033792E+007, -5.21640357397E-002, +5.15981704110E+002
+2.20503128911E+007, -1.33996631565E+000, +5.21297525656E+002
+2.22379224030E+007, -1.72347203370E+000, +5.27653494016E+002
+2.24255319149E+007, -3.59237991449E-001, +5.33936865708E+002
+2.26131414268E+007, +1.73471744387E-001, +5.38323293755E+002
+2.28007509387E+007, +9.56684026541E-001, +5.46235940682E+002
+2.29883604506E+007, +7.13675382960E-002, +5.52484779971E+002
+2.31759699625E+007, +7.75426784042E-002, +5.58058146615E+002
+2.33635794743E+007, +9.94287696585E-001, +5.64882705947E+002
+2.35511889862E+007, +1.00757538298E+000, +5.73223364779E+002
+2.37387984981E+007, -1.46066367684E+000, +5.78829715919E+002
+2.39264080100E+007, -2.14327571571E+000, +5.85376632026E+002
+2.41140175219E+007, +6.62047782035E-001, +5.91612760831E+002
+2.43016270338E+007, +5.73560036434E-001, +5.98223798535E+002
+2.44892365457E+007, +1.06005835369E+000, +6.03956109705E+002
+2.46768460576E+007, +1.25562046260E+000, +6.11047457529E+002
+2.48644555695E+007, -1.23100361293E-001, +6.16544591609E+002
+2.50520650814E+007, -4.47737355413E-001, +6.24184387161E+002
+2.52396745932E+007, +1.17404785146E+000, +6.30203743898E+002
+2.54272841051E+007, +7.25133288374E-001, +6.37646483412E+002
+2.56148936170E+007, -3.50894297930E-001, +6.43617899272E+002
+2.58025031289E+007, +8.37382247676E-001, +6.51861019921E+002
+2.59901126408E+007, +2.01906916773E+000, +6.58100533740E+002
+2.61777221527E+007, +4.15077986606E-001, +6.63665992371E+002
+2.63653316646E+007, +1.20317693523E+000, +6.72640362997E+002
+2.65529411765E+007, +1.33296005484E+000, +6.75887651802E+002
+2.67405506884E+007, -5.40981624794E-001, +6.86894906318E+002
+2.69281602003E+007, -2.12761025833E-001, +6.95505344408E+002
+2.71157697121E+007, -2.20604246430E-001, +7.02030549778E+002
+2.73033792240E+007, -2.83189386741E+000, +7.10910756814E+002
+2.74909887359E+007, +8.98111824617E-001, +7.20671618051E+002
+2.76785982478E+007, +2.85810270207E+000, +7.24827990620E+002
+2.78662077597E+007, +2.99984311766E+000, +7.32482011650E+002
+2.80538172716E+007, +4.00386994133E+000, +7.42085842348E+002
+2.82414267835E+007, +2.28973121180E+000, +7.45610520047E+002
+2.84290362954E+007, +2.63917593975E-001, +7.52728671024E+002
+2.86166458073E+007, -3.79633596737E-001, +7.64003134458E+002
+2.88042553191E+007, -2.68787738244E+000, +7.71783008631E+002
+2.89918648310E+007, -1.20898350352E+000, +7.78774131640E+002
+2.91794743429E+007, -1.36687720344E+000, +7.89477254764E+002
+2.93670838548E+007, -6.38904283204E-001, +7.96694216959E+002
+2.95546933667E+007, -7.58326500534E-001, +8.05801302590E+002
+2.97423028786E+007, -1.85636746095E-002, +8.14795528239E+002
+2.99299123905E+007, -2.21893075429E+000, +8.26910119381E+002
+3.01175219024E+007, -4.29206169570E+000, +8.36054272250E+002
+3.03051314143E+007, -3.08093301508E+000, +8.44263347964E+002
+3.04927409262E+007, -1.78494651460E-001, +8.53795423842E+002
+3.06803504380E+007, -3.07196205174E+000, +8.62398998368E+002
+3.08679599499E+007, -3.79170037170E+000, +8.73508254498E+002
+3.10555694618E+007, -6.92782401745E+000, +8.86414729928E+002
+3.12431789737E+007, -4.19166300412E+000, +8.95116860412E+002
+3.14307884856E+007, -4.61301089074E+000, +8.99996761555E+002
+3.16183979975E+007, -6.25353429911E+000, +9.13599645055E+002
+3.18060075094E+007, -3.32311427346E+000, +9.26086584093E+002
+3.19936170213E+007, -6.57517402754E+000, +9.38317513068E+002
+3.21812265332E+007, -8.34905347096E+000, +9.46177103664E+002
+3.23688360451E+007, -2.06960238023E+000, +9.59889134303E+002
+3.25564455569E+007, -5.88988198209E+000, +9.65703321076E+002
+3.27440550688E+007, -6.83939047556E+000, +9.82712074567E+002
+3.29316645807E+007, -6.91233264633E+000, +9.87185249295E+002
+3.31192740926E+007, -5.92526422538E+000, +1.00115916230E+003
+3.33068836045E+007, -8.36657096542E+000, +1.01140723096E+003
+3.34944931164E+007, -6.95707331121E+000, +1.02830546258E+003
+3.36821026283E+007, -8.11744000515E+000, +1.04012568486E+003
+3.38697121402E+007, -1.05503766798E+001, +1.04763054335E+003
+3.40573216521E+007, -4.27011620034E+000, +1.06323662033E+003
+3.42449311640E+007, -1.09452425209E+001, +1.07585407514E+003
+3.44325406758E+007, -5.81204344063E+000, +1.09267912390E+003
+3.46201501877E+007, -1.03977604020E+001, +1.10428955588E+003
+3.48077596996E+007, -7.96538431616E+000, +1.11643374339E+003
+3.49953692115E+007, -1.35171404542E+001, +1.13040690102E+003
+3.51829787234E+007, -8.81819151036E+000, +1.14558615042E+003
+3.53705882353E+007, -1.45451387765E+000, +1.16119148159E+003
+3.55581977472E+007, -1.45473212867E+001, +1.16960287599E+003
+3.57458072591E+007, -1.53767246247E+001, +1.18987884440E+003
+3.59334167710E+007, -1.55580018839E+001, +1.19903700508E+003
+3.61210262829E+007, -1.13848741786E+000, +1.21827272670E+003
+3.63086357947E+007, -5.81938840771E+000, +1.23942752644E+003
+3.64962453066E+007, -6.59709862979E+000, +1.25476798831E+003
+3.66838548185E+007, -1.24646837064E+001, +1.26070218671E+003
+3.68714643304E+007, -1.62393154959E+001, +1.28731476393E+003
+3.70590738423E+007, -5.92958685523E+000, +1.29496423839E+003
+3.72466833542E+007, -8.50485992565E+000, +1.31198642123E+003
+3.74342928661E+007, -1.03173526938E+001, +1.33396163742E+003
+3.76219023780E+007, -1.67194896353E+001, +1.35430261379E+003
+3.78095118899E+007, -2.09771990863E+001, +1.36318156727E+003
+3.79971214018E+007, -1.29689352667E+001, +1.38714757829E+003
+3.81847309136E+007, -1.07046008704E+001, +1.40105842644E+003
+3.83723404255E+007, -2.09681037659E+001, +1.42565199363E+003
+3.85599499374E+007, -1.99497383351E+001, +1.44381542721E+003
+3.87475594493E+007, -1.73678281313E+001, +1.46740706973E+003
+3.89351689612E+007, -2.60337232545E+001, +1.49843747713E+003
+3.91227784731E+007, -3.06877207275E+001, +1.51858837171E+003
+3.93103879850E+007, -2.94374758390E+001, +1.54936615785E+003
+3.94979974969E+007, -2.30537806578E+001, +1.56821260523E+003
+3.96856070088E+007, -2.85400710753E+001, +1.59169336309E+003
+3.98732165207E+007, -2.76111905934E+001, +1.61497721825E+003
+4.00608260325E+007, -1.85186046754E+001, +1.62670699478E+003
+4.02484355444E+007, -3.26909908380E+001, +1.67244473528E+003
+4.04360450563E+007, -2.79213028956E+001, +1.69527706915E+003
+4.06236545682E+007, -2.52521502286E+001, +1.70295813788E+003
+4.08112640801E+007, -2.41201864501E+001, +1.73464643086E+003
+4.09988735920E+007, -1.27470180676E+001, +1.77264308456E+003
+4.11864831039E+007, -1.42826114406E+001, +1.80877937253E+003
+4.13740926158E+007, -1.80339353626E+001, +1.83432508658E+003
+4.15617021277E+007, -2.63447480990E+001, +1.87501459575E+003
+4.17493116395E+007, -5.24921560606E+000, +1.91444246394E+003
+4.19369211514E+007, -8.98372108281E-001, +1.93707112914E+003
+4.21245306633E+007, -2.97842428273E+001, +1.96908194778E+003
+4.23121401752E+007, -2.31724338841E+001, +2.00723722322E+003
+4.24997496871E+007, -5.93429815789E+000, +2.06652018239E+003
+4.26873591990E+007, -1.96853800693E+001, +2.06896377631E+003
+4.28749687109E+007, -7.82568179645E+000, +2.10884938126E+003
+4.30625782228E+007, -1.40798345029E+001, +2.14333671819E+003
+4.32501877347E+007, +5.71906327463E-001, +2.18636187052E+003
+4.34377972466E+007, -7.66278185744E+000, +2.23624106040E+003
+4.36254067584E+007, -2.89309472012E+001, +2.31341356127E+003
+4.38130162703E+007, -1.48038340232E+001, +2.31240982793E+003
+4.40006257822E+007, -2.81581880955E+001, +2.37522320124E+003
+4.41882352941E+007, -1.98167798429E+001, +2.40206297493E+003
+4.43758448060E+007, -3.54622637359E+001, +2.47391798899E+003
+4.45634543179E+007, -3.10486809793E+000, +2.52736055297E+003
+4.47510638298E+007, -4.16518180147E+001, +2.58703209746E+003
+4.49386733417E+007, -5.16572936049E+001, +2.61305052472E+003
+4.51262828536E+007, -4.14109096911E+001, +2.73772816277E+003
+4.53138923655E+007, -4.08789243470E+001, +2.77405021913E+003
+4.55015018773E+007, -3.85381385542E+001, +2.88779580532E+003
+4.56891113892E+007, -4.82891399502E+001, +2.93522351313E+003
+4.58767209011E+007, -1.77711342514E+001, +2.98200121278E+003
+4.60643304130E+007, -2.95054675754E+001, +3.08173893456E+003
+4.62519399249E+007, -5.93554653266E+000, +3.11961448183E+003
+4.64395494368E+007, -6.92403430753E+000, +3.25375918473E+003
+4.66271589487E+007, +6.66374667902E+000, +3.40444349301E+003
+4.68147684606E+007, +2.30274462631E+000, +3.42738737240E+003
+4.70023779725E+007, +2.72438884628E+000, +3.54003317137E+003
+4.71899874844E+007, -1.92006955433E+001, +3.61238371531E+003
+4.73775969962E+007, -2.44671712757E+001, +3.75025133874E+003
+4.75652065081E+007, -2.29894403671E+001, +3.86471347630E+003
+4.77528160200E+007, -7.99097779683E+000, +3.93329505350E+003
+4.79404255319E+007, -5.01207329772E+001, +4.08614370945E+003
+4.81280350438E+007, +4.09320343526E+001, +4.30190415844E+003
+4.83156445557E+007, +1.23265634305E+001, +4.46992814961E+003
+4.85032540676E+007, -1.27968550818E+001, +4.69305692287E+003
+4.86908635795E+007, +5.62301475548E+001, +4.84688611050E+003
+4.88784730914E+007, +1.08769901582E+001, +5.07219446710E+003
+4.90660826033E+007, +5.50775236712E+001, +5.33014069453E+003
+4.92536921151E+007, +2.19402456606E+002, +5.45826632066E+003
+4.94413016270E+007, +2.88291918701E+002, +5.74372441054E+003
+4.96289111389E+007, +5.98673203931E+001, +6.19104974991E+003
+4.98165206508E+007, +1.07923693755E+002, +6.33563596040E+003
+5.00041301627E+007, +2.92753524628E+002, +6.77969233469E+003
+5.01917396746E+007, +4.50425930726E+002, +7.07935763740E+003
+5.03793491865E+007, +6.64713798463E+002, +7.28708128755E+003
+5.05669586984E+007, +2.68067349356E+002, +7.84165080299E+003
+5.07545682103E+007, +4.16492554420E+002, +8.32710349008E+003
+5.09421777222E+007, +8.59757795253E+002, +9.07501008325E+003
+5.11297872340E+007, +9.74702197957E+002, +9.74754738581E+003
+5.13173967459E+007, +1.19496976025E+003, +1.04205839242E+004
+5.15050062578E+007, +1.03665983401E+003, +1.05944404305E+004
+5.16926157697E+007, +1.18639666860E+003, +1.18729980422E+004
+5.18802252816E+007, +1.29632135218E+003, +1.37008520402E+004
+5.20678347935E+007, +2.87803324094E+003, +1.46570195456E+004
+5.22554443054E+007, +1.88237186307E+003, +1.69314449875E+004
+5.24430538173E+007, +4.88090804406E+003, +2.04904726050E+004
+5.26306633292E+007, +4.31352869904E+003, +2.34772598372E+004
+5.28182728411E+007, +9.30410737632E+003, +2.60047195872E+004
+5.30058823529E+007, +1.29436222238E+004, +3.12549342840E+004
+5.31934918648E+007, +3.33045998897E+004, +4.43209767852E+004
+5.33811013767E+007, +6.79181708398E+004, +3.31300838735E+004
+5.35687108886E+007, +1.10028260428E+005, +6.42472147493E+003
+5.37563204005E+007, +4.83051512231E+004, -4.35511397296E+004
+5.39439299124E+007, +2.20644344369E+004, -3.89548791947E+004
+5.41315394243E+007, +8.80588684682E+003, -3.15336560058E+004
+5.43191489362E+007, +7.88926010732E+003, -2.99130550190E+004
+5.45067584481E+007, +5.70747178598E+003, -2.12599179149E+004
+5.46943679599E+007, +5.00363525017E+003, -1.82465602575E+004
+5.48819774718E+007, +3.20628102432E+003, -1.56680609598E+004
+5.50695869837E+007, +2.85961104692E+003, -1.46006809509E+004
+5.52571964956E+007, +1.84341780259E+003, -1.24145794759E+004
+5.54448060075E+007, +2.60106968133E+003, -1.19201134480E+004
+5.56324155194E+007, +1.82917484919E+003, -1.05680254394E+004
+5.58200250313E+007, +1.45523297037E+003, -9.74322870557E+003
+5.60076345432E+007, +9.60171433306E+002, -9.15500402727E+003
+5.61952440551E+007, +9.76592598524E+002, -8.55890793381E+003
+5.63828535670E+007, +1.04605321996E+003, -7.74324136721E+003
+5.65704630788E+007, +7.49606041159E+002, -7.56272352919E+003
+5.67580725907E+007, +5.98343171945E+002, -6.93307354134E+003
+5.69456821026E+007, +5.43167214177E+002, -6.24391694301E+003
+5.71332916145E+007, +6.43168706069E+002, -6.04602327571E+003
+5.73209011264E+007, +4.27355303062E+002, -5.69238415322E+003
+5.75085106383E+007, +3.19259728200E+002, -5.38636780197E+003
+5.76961201502E+007, +4.80341410542E+002, -5.20745203988E+003
+5.78837296621E+007, +3.73828567377E+002, -4.77355892929E+003
+5.80713391740E+007, +3.53158022361E+002, -4.55696768038E+003
+5.82589486859E+007, +3.61947038004E+002, -4.40594646146E+003
+5.84465581977E+007, +4.09434599442E+002, -4.20428205115E+003
+5.86341677096E+007, +2.99545352934E+002, -4.03713066824E+003
+5.88217772215E+007, +3.39372113422E+002, -3.87390842505E+003
+5.90093867334E+007, +3.37815637851E+002, -3.68237500334E+003
+5.91969962453E+007, +4.25261150375E+002, -3.59000994993E+003
+5.93846057572E+007, +3.74098736056E+002, -3.49266227496E+003
+5.95722152691E+007, +3.38155566077E+002, -3.37191116324E+003
+5.97598247810E+007, +3.85781148248E+002, -3.26711011465E+003
+5.99474342929E+007, +4.41844103625E+002, -3.17854191979E+003
+6.01350438048E+007, +4.13721511298E+002, -3.11099968380E+003
