"# Channel 1"
"# Trace 1"
Frequency, Formatted Data, Formatted Data
+1.00000000000E+006, +2.70537458054E+001, +2.35112871904E+001
+1.16527545910E+006, +2.71012050161E+001, +2.73847764089E+001
+1.33055091820E+006, +2.70982165272E+001, +3.12566473458E+001
+1.49582637730E+006, +2.71433161978E+001, +3.51999848347E+001
+1.66110183639E+006, +2.71645018790E+001, +3.90757764495E+001
+1.82637729549E+006, +2.71692871254E+001, +4.29676816958E+001
+1.99165275459E+006, +2.72167420286E+001, +4.69093113903E+001
+2.15692821369E+006, +2.72577969917E+001, +5.07647760201E+001
+2.32220367279E+006, +2.72754178254E+001, +5.47070680036E+001
+2.48747913189E+006, +2.72747866131E+001, +5.86299345263E+001
+2.65275459098E+006, +2.72771350016E+001, +6.25417852423E+001
+2.81803005008E+006, +2.74091247891E+001, +6.64888262803E+001
+2.98330550918E+006, +2.73703158056E+001, +7.04449710265E+001
+3.14858096828E+006, +2.74184668854E+001, +7.44179534035E+001
+3.31385642738E+006, +2.74079650780E+001, +7.83948238940E+001
+3.47913188648E+006, +2.75096799323E+001, +8.23819104444E+001
+3.64440734558E+006, +2.74286069534E+001, +8.63798003455E+001
+3.80968280467E+006, +2.75135373448E+001, +9.04133631672E+001
+3.97495826377E+006, +2.76267000377E+001, +9.46461203001E+001
+4.14023372287E+006, +2.78780068438E+001, +9.67534591454E+001
+4.30550918197E+006, +2.73070128644E+001, +1.02559945133E+002
+4.47078464107E+006, +2.77350521837E+001, +1.06714465286E+002
+4.63606010017E+006, +2.77170894775E+001, +1.10711555128E+002
+4.80133555927E+006, +2.78183358966E+001, +1.14823658829E+002
+4.96661101836E+006, +2.78461376231E+001, +1.18803662281E+002
+5.13188647746E+006, +2.79485138651E+001, +1.22985933876E+002
+5.29716193656E+006, +2.78021013729E+001, +1.27157555321E+002
+5.46243739566E+006, +2.79712486554E+001, +1.31327461926E+002
+5.62771285476E+006, +2.80319475155E+001, +1.35702269454E+002
+5.79298831386E+006, +2.81256055166E+001, +1.39858229341E+002
+5.95826377295E+006, +2.81269422197E+001, +1.43877731198E+002
+6.12353923205E+006, +2.83944300270E+001, +1.48336055747E+002
+6.28881469115E+006, +2.82491537592E+001, +1.52604997789E+002
+6.45409015025E+006, +2.83650676232E+001, +1.56910815147E+002
+6.61936560935E+006, +2.85039828571E+001, +1.61293967599E+002
+6.78464106845E+006, +2.85977938601E+001, +1.65767882455E+002
+6.94991652755E+006, +2.85943486957E+001, +1.70010031068E+002
+7.11519198664E+006, +2.87356494512E+001, +1.74342907816E+002
+7.28046744574E+006, +2.87631559904E+001, +1.78746185790E+002
+7.44574290484E+006, +2.86990014075E+001, +1.83220010760E+002
+7.61101836394E+006, +2.89156624208E+001, +1.87558073912E+002
+7.77629382304E+006, +2.90045734332E+001, +1.92144151533E+002
+7.94156928214E+006, +2.88417502802E+001, +1.96838876125E+002
+8.10684474124E+006, +2.89868727942E+001, +2.01371703995E+002
+8.27212020033E+006, +2.89978859049E+001, +2.05899822012E+002
+8.43739565943E+006, +2.88998407645E+001, +2.10716631289E+002
+8.60267111853E+006, +2.89683919873E+001, +2.15116358504E+002
+8.76794657763E+006, +2.94433920329E+001, +2.19922133740E+002
+8.93322203673E+006, +2.96064028002E+001, +2.24392616359E+002
+9.09849749583E+006, +2.93706874046E+001, +2.29381368600E+002
+9.26377295492E+006, +2.93407353864E+001, +2.34326498126E+002
+9.42904841402E+006, +2.90793018710E+001, +2.39520851409E+002
+9.59432387312E+006, +2.94623988375E+001, +2.43338845101E+002
+9.75959933222E+006, +2.95201058486E+001, +2.47885580963E+002
+9.92487479132E+006, +2.96973094897E+001, +2.52146645454E+002
+1.00901502504E+007, +2.99493572149E+001, +2.56794378363E+002
+1.02554257095E+007, +2.98929923231E+001, +2.61496657750E+002
+1.04207011686E+007, +3.01558850221E+001, +2.66825551442E+002
+1.05859766277E+007, +2.99144233870E+001, +2.72654560672E+002
+1.07512520868E+007, +2.98162596474E+001, +2.77898741020E+002
+1.09165275459E+007, +2.97860841935E+001, +2.83878100326E+002
+1.10818030050E+007, +2.99208951615E+001, +2.89622490382E+002
+1.12470784641E+007, +2.98107726493E+001, +2.95752931268E+002
+1.14123539232E+007, +2.95485036598E+001, +3.02164972126E+002
+1.15776293823E+007, +2.91210676193E+001, +3.08605567590E+002
+1.17429048414E+007, +2.95003197160E+001, +3.14050357911E+002
+1.19081803005E+007, +2.98941786834E+001, +3.19844048863E+002
+1.20734557596E+007, +2.97251494638E+001, +3.25479416234E+002
+1.22387312187E+007, +2.96994937483E+001, +3.31196038652E+002
+1.24040066778E+007, +2.95511681414E+001, +3.37707025006E+002
+1.25692821369E+007, +2.95618716106E+001, +3.43830187593E+002
+1.27345575960E+007, +2.99893710273E+001, +3.49795300597E+002
+1.28998330551E+007, +2.95592758166E+001, +3.55845213739E+002
+1.30651085142E+007, +2.93416594475E+001, +3.62272431356E+002
+1.32303839733E+007, +3.03013182029E+001, +3.68269771933E+002
+1.33956594324E+007, +3.03528045683E+001, +3.74474773229E+002
+1.35609348915E+007, +3.02047461264E+001, +3.81455422821E+002
+1.37262103506E+007, +3.03919994451E+001, +3.88306941935E+002
+1.38914858097E+007, +3.11251076581E+001, +3.95386871269E+002
+1.40567612688E+007, +3.00986273106E+001, +4.02563309198E+002
+1.42220367279E+007, +3.07518092937E+001, +4.09405330752E+002
+1.43873121870E+007, +3.03559373225E+001, +4.15859609516E+002
+1.45525876461E+007, +3.05602743758E+001, +4.23826565757E+002
+1.47178631052E+007, +3.08218819437E+001, +4.30492805614E+002
+1.48831385643E+007, +3.09072401363E+001, +4.38080189100E+002
+1.50484140234E+007, +3.05618759707E+001, +4.46182875983E+002
+1.52136894825E+007, +3.08335830485E+001, +4.52816448069E+002
+1.53789649416E+007, +3.10719654520E+001, +4.61205388436E+002
+1.55442404007E+007, +3.18335723662E+001, +4.69246092716E+002
+1.57095158598E+007, +3.16832894358E+001, +4.77837602720E+002
+1.58747913189E+007, +3.15750412111E+001, +4.85818224965E+002
+1.60400667780E+007, +3.26753446283E+001, +4.93389170202E+002
+1.62053422371E+007, +3.18261119861E+001, +5.02797849723E+002
+1.63706176962E+007, +3.19194662256E+001, +5.10707075835E+002
+1.65358931553E+007, +3.19718413856E+001, +5.19824328055E+002
+1.67011686144E+007, +3.18572555261E+001, +5.28778958021E+002
+1.68664440735E+007, +3.31052053708E+001, +5.38675573776E+002
+1.70317195326E+007, +3.23144293704E+001, +5.47027141012E+002
+1.71969949917E+007, +3.35695675607E+001, +5.55301932481E+002
+1.73622704508E+007, +3.12812570721E+001, +5.66373148245E+002
+1.75275459098E+007, +3.19276920404E+001, +5.75517850373E+002
+1.76928213689E+007, +3.25994592538E+001, +5.85970129662E+002
+1.78580968280E+007, +3.30125382069E+001, +5.96955566456E+002
+1.80233722871E+007, +3.36380858492E+001, +6.06615842622E+002
+1.81886477462E+007, +3.35991631848E+001, +6.16931040543E+002
+1.83539232053E+007, +3.45253423206E+001, +6.27671225356E+002
+1.85191986644E+007, +3.48974732136E+001, +6.38965088460E+002
+1.86844741235E+007, +3.36942859847E+001, +6.50808632888E+002
+1.88497495826E+007, +3.39600100488E+001, +6.62243977052E+002
+1.90150250417E+007, +3.58201316711E+001, +6.73669729494E+002
+1.91803005008E+007, +3.64722104364E+001, +6.86839644640E+002
+1.93455759599E+007, +3.59938319999E+001, +6.99029597336E+002
+1.95108514190E+007, +3.76890917951E+001, +7.11828601687E+002
+1.96761268781E+007, +3.77337482805E+001, +7.24688520964E+002
+1.98414023372E+007, +3.86386418377E+001, +7.36529726855E+002
+2.00066777963E+007, +3.80558278659E+001, +7.53262353335E+002
+2.01719532554E+007, +3.83318327652E+001, +7.70024300727E+002
+2.03372287145E+007, +3.69311923664E+001, +7.81686702970E+002
+2.05025041736E+007, +4.03626663419E+001, +7.97807098638E+002
+2.06677796327E+007, +3.86837159669E+001, +8.12440945377E+002
+2.08330550918E+007, +3.77521215095E+001, +8.22600067092E+002
+2.09983305509E+007, +4.25303864895E+001, +8.43013290030E+002
+2.11636060100E+007, +4.14832974728E+001, +8.58069831170E+002
+2.13288814691E+007, +4.19909644581E+001, +8.77967082954E+002
+2.14941569282E+007, +4.44812092038E+001, +8.93414739670E+002
+2.16594323873E+007, +4.69987643957E+001, +9.09435187529E+002
+2.18247078464E+007, +4.40001534415E+001, +9.28739201272E+002
+2.19899833055E+007, +4.24419578052E+001, +9.49412354279E+002
+2.21552587646E+007, +4.51157142789E+001, +9.70509652081E+002
+2.23205342237E+007, +4.70790857121E+001, +9.90188224007E+002
+2.24858096828E+007, +4.19883690960E+001, +1.01037567005E+003
+2.26510851419E+007, +4.55373250811E+001, +1.03525483917E+003
+2.28163606010E+007, +4.72419532678E+001, +1.05624858128E+003
+2.29816360601E+007, +5.07449016916E+001, +1.08022008799E+003
+2.31469115192E+007, +4.68096230398E+001, +1.10571360240E+003
+2.33121869783E+007, +4.98445438741E+001, +1.13108065780E+003
+2.34774624374E+007, +4.94655049277E+001, +1.15755760263E+003
+2.36427378965E+007, +5.20033851916E+001, +1.17881236214E+003
+2.38080133556E+007, +4.54792090343E+001, +1.21212050329E+003
+2.39732888147E+007, +5.24318142918E+001, +1.24100852405E+003
+2.41385642738E+007, +5.02946505807E+001, +1.27188479369E+003
+2.43038397329E+007, +6.05443248660E+001, +1.30379985218E+003
+2.44691151920E+007, +6.29189647982E+001, +1.33766402154E+003
+2.46343906511E+007, +6.20757616425E+001, +1.36690674903E+003
+2.47996661102E+007, +5.83716690275E+001, +1.40346806160E+003
+2.49649415693E+007, +6.26598930326E+001, +1.43192900543E+003
+2.51302170284E+007, +6.93818716363E+001, +1.47757252368E+003
+2.52954924875E+007, +6.58293258536E+001, +1.52466416228E+003
+2.54607679466E+007, +6.79667703084E+001, +1.55441773075E+003
+2.56260434057E+007, +7.97278024436E+001, +1.60622013977E+003
+2.57913188648E+007, +7.27141088382E+001, +1.65313990160E+003
+2.59565943239E+007, +8.63204263024E+001, +1.69825901140E+003
+2.61218697830E+007, +8.81293837165E+001, +1.75064602028E+003
+2.62871452421E+007, +7.77226138646E+001, +1.79557669289E+003
+2.64524207012E+007, +8.33736809463E+001, +1.86333654817E+003
+2.66176961603E+007, +8.77721144422E+001, +1.91508352622E+003
+2.67829716194E+007, +1.09532028197E+002, +1.98963759228E+003
+2.69482470785E+007, +1.02411092754E+002, +2.05173137823E+003
+2.71135225376E+007, +1.15976183658E+002, +2.15198949809E+003
+2.72787979967E+007, +1.09969639888E+002, +2.20477638818E+003
+2.74440734558E+007, +1.16647000100E+002, +2.30102041824E+003
+2.76093489149E+007, +1.50337061108E+002, +2.39534078665E+003
+2.77746243740E+007, +1.27560873431E+002, +2.46155779071E+003
+2.79398998331E+007, +1.72351549926E+002, +2.60144160902E+003
+2.81051752922E+007, +1.53256899360E+002, +2.69421683156E+003
+2.82704507513E+007, +2.00876182982E+002, +2.78499658930E+003
+2.84357262104E+007, +2.11926290712E+002, +2.95531513649E+003
+2.86010016694E+007, +2.03443222929E+002, +3.10750384011E+003
+2.87662771285E+007, +2.36361764554E+002, +3.22435582038E+003
+2.89315525876E+007, +3.27486174119E+002, +3.40866048501E+003
+2.90968280467E+007, +3.11354006372E+002, +3.59009311220E+003
+2.92621035058E+007, +3.47607826399E+002, +3.82512699794E+003
+2.94273789649E+007, +3.85781436450E+002, +4.06798644904E+003
+2.95926544240E+007, +3.99864402660E+002, +4.30821732839E+003
+2.97579298831E+007, +5.29664751865E+002, +4.57489745033E+003
+2.99232053422E+007, +5.38968080749E+002, +4.86318459448E+003
+3.00884808013E+007, +6.96552263837E+002, +5.18890476077E+003
+3.02537562604E+007, +8.24155045666E+002, +5.72832418671E+003
+3.04190317195E+007, +8.98945299129E+002, +6.04315565649E+003
+3.05843071786E+007, +1.18005477219E+003, +6.67241836996E+003
+3.07495826377E+007, +1.54129545047E+003, +7.20612385537E+003
+3.09148580968E+007, +1.43366828276E+003, +8.21317424865E+003
+3.10801335559E+007, +1.88429014548E+003, +9.38761784488E+003
+3.12454090150E+007, +2.90184133106E+003, +1.04704095937E+004
+3.14106844741E+007, +3.88092516117E+003, +1.25741417364E+004
+3.15759599332E+007, +5.73795320505E+003, +1.43788848684E+004
+3.17412353923E+007, +8.50844587120E+003, +1.75198741963E+004
+3.19065108514E+007, +1.38727895170E+004, +2.09984903281E+004
+3.20717863105E+007, +2.51039065230E+004, +2.04377590711E+004
+3.22370617696E+007, +3.92417808266E+004, +7.77934837080E+003
+3.24023372287E+007, +3.00250545367E+004, -1.09973400383E+004
+3.25676126878E+007, +2.26266144867E+004, -1.92843837292E+004
+3.27328881469E+007, +1.34967589126E+004, -1.88607660376E+004
+3.28981636060E+007, +8.80008532363E+003, -1.65335458210E+004
+3.30634390651E+007, +6.36048342506E+003, -1.49126890365E+004
+3.32287145242E+007, +4.46249160404E+003, -1.19782009603E+004
+3.33939899833E+007, +3.12012175397E+003, -1.02935802549E+004
+3.35592654424E+007, +2.31765886106E+003, -9.28880608702E+003
+3.37245409015E+007, +1.81888524854E+003, -8.27626759730E+003
+3.38898163606E+007, +1.52210444325E+003, -7.48444035908E+003
+3.40550918197E+007, +1.12397606434E+003, -6.96056710174E+003
+3.42203672788E+007, +1.03148320072E+003, -6.28021872945E+003
+3.43856427379E+007, +1.01560477867E+003, -5.91638676902E+003
+3.45509181970E+007, +7.79760033785E+002, -5.40891229459E+003
+3.47161936561E+007, +6.56425072545E+002, -5.09808227241E+003
+3.48814691152E+007, +6.22631753501E+002, -4.77563930624E+003
+3.50467445743E+007, +6.09661699005E+002, -4.56015590573E+003
+3.52120200334E+007, +4.83322601337E+002, -4.33468189093E+003
+3.53772954925E+007, +4.35066324060E+002, -4.01187571952E+003
+3.55425709516E+007, +3.71712831955E+002, -3.87633763010E+003
+3.57078464107E+007, +3.74502475201E+002, -3.66608262939E+003
+3.58731218698E+007, +3.39784565748E+002, -3.54917922159E+003
+3.60383973289E+007, +3.11500262775E+002, -3.35349970089E+003
+3.62036727880E+007, +2.85820625650E+002, -3.25413165755E+003
+3.63689482471E+007, +3.11192125910E+002, -3.13365084947E+003
+3.65342237062E+007, +2.73603482032E+002, -3.01728364277E+003
+3.66994991653E+007, +2.25607038397E+002, -2.90799036797E+003
+3.68647746244E+007, +2.22998149387E+002, -2.82243040758E+003
+3.70300500835E+007, +2.14125900736E+002, -2.70096392570E+003
+3.71953255426E+007, +2.15449913295E+002, -2.61639124167E+003
+3.73606010017E+007, +2.08496964084E+002, -2.55921799693E+003
+3.75258764608E+007, +2.10369468081E+002, -2.49284703645E+003
+3.76911519199E+007, +1.90084976126E+002, -2.38277871132E+003
+3.78564273790E+007, +1.85334882134E+002, -2.34235457349E+003
+3.80217028381E+007, +1.68618748243E+002, -2.27839637751E+003
+3.81869782972E+007, +1.44323022789E+002, -2.23089384702E+003
+3.83522537563E+007, +1.56764851373E+002, -2.17100318927E+003
+3.85175292154E+007, +1.40475159945E+002, -2.11850687322E+003
+3.86828046745E+007, +1.27095442674E+002, -2.06496418708E+003
+3.88480801336E+007, +1.20807486025E+002, -2.02079147988E+003
+3.90133555927E+007, +1.12707251445E+002, -1.97626245577E+003
+3.91786310518E+007, +1.09749942431E+002, -1.93108834676E+003
+3.93439065109E+007, +1.17408390060E+002, -1.87925413993E+003
+3.95091819699E+007, +1.11694877719E+002, -1.83492044592E+003
+3.96744574290E+007, +1.13268212121E+002, -1.81272820934E+003
+3.98397328881E+007, +1.06010009968E+002, -1.75328478693E+003
+4.00050083472E+007, +9.11492622572E+001, -1.72438294598E+003
+4.01702838063E+007, +8.90431853311E+001, -1.70014078788E+003
+4.03355592654E+007, +9.38443309906E+001, -1.66686520528E+003
+4.05008347245E+007, +8.66327024585E+001, -1.63258072659E+003
+4.06661101836E+007, +8.00413025731E+001, -1.59741769168E+003
+4.08313856427E+007, +8.26309208104E+001, -1.56954223843E+003
+4.09966611018E+007, +8.36386410577E+001, -1.54020302330E+003
+4.11619365609E+007, +7.54865765513E+001, -1.53108325033E+003
+4.13272120200E+007, +6.98631158484E+001, -1.49988650564E+003
+4.14924874791E+007, +6.80401165466E+001, -1.46362189020E+003
+4.16577629382E+007, +7.46762813305E+001, -1.43781384445E+003
+4.18230383973E+007, +6.86309447059E+001, -1.41828136053E+003
+4.19883138564E+007, +6.75435739617E+001, -1.39489766769E+003
+4.21535893155E+007, +6.73371329701E+001, -1.37436203426E+003
+4.23188647746E+007, +5.67785930999E+001, -1.35260119803E+003
+4.24841402337E+007, +6.05136382708E+001, -1.32971103317E+003
+4.26494156928E+007, +5.97344659619E+001, -1.31584191855E+003
+4.28146911519E+007, +5.15590059268E+001, -1.29258160067E+003
+4.29799666110E+007, +5.87937514362E+001, -1.27493045884E+003
+4.31452420701E+007, +5.39855594081E+001, -1.25115130190E+003
+4.33105175292E+007, +4.95352379486E+001, -1.23493000683E+003
+4.34757929883E+007, +4.95843719912E+001, -1.21942033207E+003
+4.36410684474E+007, +4.95313919543E+001, -1.20738009463E+003
+4.38063439065E+007, +4.88986317264E+001, -1.18990503261E+003
+4.39716193656E+007, +5.01776364471E+001, -1.17137606730E+003
+4.41368948247E+007, +4.08767348421E+001, -1.15443100985E+003
+4.43021702838E+007, +4.18074225709E+001, -1.14066317385E+003
+4.44674457429E+007, +3.97957133880E+001, -1.12437327881E+003
+4.46327212020E+007, +3.95692588419E+001, -1.11034882996E+003
+4.47979966611E+007, +3.66160027510E+001, -1.09803369386E+003
+4.49632721202E+007, +3.94266685721E+001, -1.07878890190E+003
+4.51285475793E+007, +3.98723599707E+001, -1.06854427103E+003
+4.52938230384E+007, +3.17788945248E+001, -1.05542716515E+003
+4.54590984975E+007, +3.02738502146E+001, -1.04467393797E+003
+4.56243739566E+007, +3.10894199685E+001, -1.02992646988E+003
+4.57896494157E+007, +3.15199340117E+001, -1.01706325245E+003
+4.59549248748E+007, +3.08001795633E+001, -1.00592584495E+003
+4.61202003339E+007, +2.58331369677E+001, -9.96347049272E+002
+4.62854757930E+007, +2.73373507466E+001, -9.81879610668E+002
+4.64507512521E+007, +2.95304333411E+001, -9.71500605745E+002
+4.66160267112E+007, +2.82809802911E+001, -9.58438462656E+002
+4.67813021703E+007, +2.91852947011E+001, -9.47839768216E+002
+4.69465776294E+007, +2.47571478383E+001, -9.37775405275E+002
+4.71118530885E+007, +2.60904390989E+001, -9.29426735145E+002
+4.72771285476E+007, +2.52435495750E+001, -9.16331885868E+002
+4.74424040067E+007, +2.43338867481E+001, -9.04069036208E+002
+4.76076794658E+007, +2.49616203308E+001, -8.97313295505E+002
+4.77729549249E+007, +2.62707877114E+001, -8.88579783598E+002
+4.79382303840E+007, +2.51297956832E+001, -8.78114253115E+002
+4.81035058431E+007, +2.34849929839E+001, -8.68975662825E+002
+4.82687813022E+007, +2.24473478496E+001, -8.62058621951E+002
+4.84340567613E+007, +2.34790072634E+001, -8.50953785500E+002
+4.85993322204E+007, +2.27463228033E+001, -8.41471906245E+002
+4.87646076795E+007, +2.16281515596E+001, -8.34014870611E+002
+4.89298831386E+007, +2.14854171486E+001, -8.29031656078E+002
+4.90951585977E+007, +2.17154570753E+001, -8.19910323389E+002
+4.92604340568E+007, +2.19068625930E+001, -8.08994134650E+002
+4.94257095159E+007, +2.13472095358E+001, -7.99884239543E+002
+4.95909849750E+007, +2.13126617621E+001, -7.94147157660E+002
+4.97562604341E+007, +2.26210562281E+001, -7.87999099778E+002
+4.99215358932E+007, +2.28026848930E+001, -7.81558662537E+002
+5.00868113523E+007, +2.22744801076E+001, -7.71669452860E+002
+5.02520868114E+007, +2.38011052903E+001, -7.64463032853E+002
+5.04173622705E+007, +2.29668840953E+001, -7.57970128076E+002
+5.05826377295E+007, +2.20408381243E+001, -7.52485351557E+002
+5.07479131886E+007, +2.30654500696E+001, -7.47752728996E+002
+5.09131886477E+007, +2.42587160038E+001, -7.38367982860E+002
+5.10784641068E+007, +2.26432587557E+001, -7.33025507561E+002
+5.12437395659E+007, +2.37721630868E+001, -7.26767575240E+002
+5.14090150250E+007, +2.32797863519E+001, -7.20014058642E+002
+5.15742904841E+007, +2.23606984185E+001, -7.14861358648E+002
+5.17395659432E+007, +2.32927316536E+001, -7.10406802385E+002
+5.19048414023E+007, +2.30287622634E+001, -7.03300688002E+002
+5.20701168614E+007, +2.35366207653E+001, -6.98130092397E+002
+5.22353923205E+007, +2.34880525988E+001, -6.92648923790E+002
+5.24006677796E+007, +2.15386185565E+001, -6.85472319634E+002
+5.25659432387E+007, +2.03246665016E+001, -6.83208062129E+002
+5.27312186978E+007, +2.00041044364E+001, -6.73351438469E+002
+5.28964941569E+007, +2.10567466623E+001, -6.69924482139E+002
+5.30617696160E+007, +2.05448283889E+001, -6.65386741603E+002
+5.32270450751E+007, +2.05253699192E+001, -6.58877378931E+002
+5.33923205342E+007, +1.89136030746E+001, -6.53587342293E+002
+5.35575959933E+007, +1.85353931053E+001, -6.50031856241E+002
+5.37228714524E+007, +1.87747741503E+001, -6.44062486264E+002
+5.38881469115E+007, +1.80867822741E+001, -6.39833085325E+002
