"# Channel 1"
"# Trace 1"
Frequency, Formatted Data, Formatted Data
+1.00000000000E+006, +9.13099984398E+000, +2.19300378160E+001
+1.16527545910E+006, +9.20969724071E+000, +2.55889660276E+001
+1.33055091820E+006, +9.24453389940E+000, +2.91044121042E+001
+1.49582637730E+006, +9.17788847858E+000, +3.27690849551E+001
+1.66110183639E+006, +9.21273039453E+000, +3.63517141671E+001
+1.82637729549E+006, +9.20893611028E+000, +3.99329058718E+001
+1.99165275459E+006, +9.22179089495E+000, +4.35500764186E+001
+2.15692821369E+006, +9.21620344608E+000, +4.71825360605E+001
+2.32220367279E+006, +9.15753874833E+000, +5.07373742340E+001
+2.48747913189E+006, +9.16206106024E+000, +5.43923876837E+001
+2.65275459098E+006, +9.12282999947E+000, +5.80345158531E+001
+2.81803005008E+006, +9.15303011593E+000, +6.16471738276E+001
+2.98330550918E+006, +9.09505537187E+000, +6.51597473606E+001
+3.14858096828E+006, +9.20872596661E+000, +6.88473428908E+001
+3.31385642738E+006, +9.32119244830E+000, +7.24329956070E+001
+3.47913188648E+006, +9.17754260415E+000, +7.61634438851E+001
+3.64440734558E+006, +9.26287454453E+000, +7.96765974162E+001
+3.80968280467E+006, +9.33921520616E+000, +8.32594731616E+001
+3.97495826377E+006, +9.38827383370E+000, +8.68466789508E+001
+4.14023372287E+006, +9.48675645293E+000, +9.08217219803E+001
+4.30550918197E+006, +9.42229595404E+000, +9.39554686330E+001
+4.47078464107E+006, +9.31136387617E+000, +9.78561097939E+001
+4.63606010017E+006, +9.17251615684E+000, +1.01573433675E+002
+4.80133555927E+006, +9.30352187382E+000, +1.05083903966E+002
+4.96661101836E+006, +9.39173838406E+000, +1.08737133620E+002
+5.13188647746E+006, +9.44119165917E+000, +1.12409844672E+002
+5.29716193656E+006, +9.38854722811E+000, +1.15981417657E+002
+5.46243739566E+006, +9.48485596026E+000, +1.19746249955E+002
+5.62771285476E+006, +9.61244606349E+000, +1.23283648291E+002
+5.79298831386E+006, +9.64406122672E+000, +1.27140385129E+002
+5.95826377295E+006, +9.74282218861E+000, +1.30727443171E+002
+6.12353923205E+006, +9.94370345456E+000, +1.34278527464E+002
+6.28881469115E+006, +9.90346302195E+000, +1.37877420515E+002
+6.45409015025E+006, +1.00285733972E+001, +1.41591315703E+002
+6.61936560935E+006, +1.00220378186E+001, +1.45225685159E+002
+6.78464106845E+006, +1.02132255828E+001, +1.48951868650E+002
+6.94991652755E+006, +1.02127228902E+001, +1.52599902946E+002
+7.11519198664E+006, +1.02683729946E+001, +1.56224610533E+002
+7.28046744574E+006, +1.03614535103E+001, +1.59915043904E+002
+7.44574290484E+006, +1.04977126730E+001, +1.63579509914E+002
+7.61101836394E+006, +1.03431344183E+001, +1.67074371683E+002
+7.77629382304E+006, +1.05672172947E+001, +1.70822583446E+002
+7.94156928214E+006, +1.04647741452E+001, +1.74380177910E+002
+8.10684474124E+006, +1.04416430263E+001, +1.77875645259E+002
+8.27212020033E+006, +1.05855785930E+001, +1.81651709606E+002
+8.43739565943E+006, +1.05856742433E+001, +1.85490313171E+002
+8.60267111853E+006, +1.05011376296E+001, +1.89108914788E+002
+8.76794657763E+006, +1.07348603504E+001, +1.92637204343E+002
+8.93322203673E+006, +1.05368909405E+001, +1.96745009538E+002
+9.09849749583E+006, +1.05434333227E+001, +2.00214313489E+002
+9.26377295492E+006, +1.05918264784E+001, +2.04320732674E+002
+9.42904841402E+006, +1.07902297219E+001, +2.07783816345E+002
+9.59432387312E+006, +1.07422891275E+001, +2.11238293615E+002
+9.75959933222E+006, +1.05854145651E+001, +2.14995068887E+002
+9.92487479132E+006, +1.06305127237E+001, +2.18734504112E+002
+1.00901502504E+007, +1.06200340367E+001, +2.22456431117E+002
+1.02554257095E+007, +1.07795326034E+001, +2.26046534667E+002
+1.04207011686E+007, +1.09084418542E+001, +2.29695898372E+002
+1.05859766277E+007, +1.08194730077E+001, +2.34058226832E+002
+1.07512520868E+007, +1.07608836375E+001, +2.37417145026E+002
+1.09165275459E+007, +1.06715656827E+001, +2.41279462927E+002
+1.10818030050E+007, +1.09468968386E+001, +2.45141903065E+002
+1.12470784641E+007, +1.06886400789E+001, +2.48560788027E+002
+1.14123539232E+007, +1.07927213560E+001, +2.52486519066E+002
+1.15776293823E+007, +1.10277161593E+001, +2.56635618874E+002
+1.17429048414E+007, +1.10693063666E+001, +2.60331911890E+002
+1.19081803005E+007, +1.11262847171E+001, +2.64420299715E+002
+1.20734557596E+007, +1.10085785918E+001, +2.67968594611E+002
+1.22387312187E+007, +1.08840373193E+001, +2.71810596790E+002
+1.24040066778E+007, +1.10364936660E+001, +2.75446898935E+002
+1.25692821369E+007, +1.09301245233E+001, +2.79361442528E+002
+1.27345575960E+007, +1.11129831138E+001, +2.83165669615E+002
+1.28998330551E+007, +1.10766885875E+001, +2.87189783630E+002
+1.30651085142E+007, +1.07026937063E+001, +2.90879603394E+002
+1.32303839733E+007, +1.21791723815E+001, +2.95051837215E+002
+1.33956594324E+007, +1.12462699393E+001, +2.98985613999E+002
+1.35609348915E+007, +1.16410327404E+001, +3.02485122779E+002
+1.37262103506E+007, +1.11556430399E+001, +3.05688039547E+002
+1.38914858097E+007, +1.19785265510E+001, +3.09917021088E+002
+1.40567612688E+007, +1.16929311846E+001, +3.14342722885E+002
+1.42220367279E+007, +1.15960243289E+001, +3.17639956352E+002
+1.43873121870E+007, +1.16081773025E+001, +3.22215786380E+002
+1.45525876461E+007, +1.16694689912E+001, +3.26237412220E+002
+1.47178631052E+007, +1.14333745628E+001, +3.29735996999E+002
+1.48831385643E+007, +1.18722547713E+001, +3.33430820379E+002
+1.50484140234E+007, +1.19907389742E+001, +3.37632638927E+002
+1.52136894825E+007, +1.17824524696E+001, +3.41162966527E+002
+1.53789649416E+007, +1.18505077589E+001, +3.45825081033E+002
+1.55442404007E+007, +1.22327238110E+001, +3.49828810280E+002
+1.57095158598E+007, +1.17629778049E+001, +3.53092451360E+002
+1.58747913189E+007, +1.24277872162E+001, +3.57513983864E+002
+1.60400667780E+007, +1.22825844392E+001, +3.60748075866E+002
+1.62053422371E+007, +1.19430488700E+001, +3.65417220463E+002
+1.63706176962E+007, +1.25147381007E+001, +3.68785612089E+002
+1.65358931553E+007, +1.23110453448E+001, +3.72139651737E+002
+1.67011686144E+007, +1.33124544870E+001, +3.77067809257E+002
+1.68664440735E+007, +1.25048550176E+001, +3.80306563557E+002
+1.70317195326E+007, +1.13229274185E+001, +3.85819527254E+002
+1.71969949917E+007, +1.09398829360E+001, +3.89471653437E+002
+1.73622704508E+007, +1.15639844037E+001, +3.94177433484E+002
+1.75275459098E+007, +1.11695473741E+001, +3.97109052169E+002
+1.76928213689E+007, +1.13965945090E+001, +4.02188419761E+002
+1.78580968280E+007, +1.21686170437E+001, +4.06815149454E+002
+1.80233722871E+007, +1.27438407345E+001, +4.09406213509E+002
+1.81886477462E+007, +1.19261981678E+001, +4.14475020466E+002
+1.83539232053E+007, +1.34032847337E+001, +4.18740616717E+002
+1.85191986644E+007, +1.25677599566E+001, +4.23098806339E+002
+1.86844741235E+007, +1.22758057191E+001, +4.25816251171E+002
+1.88497495826E+007, +1.32001966551E+001, +4.30929326510E+002
+1.90150250417E+007, +1.25409601038E+001, +4.35335880467E+002
+1.91803005008E+007, +1.24147843446E+001, +4.39467601071E+002
+1.93455759599E+007, +1.32846693615E+001, +4.41887136640E+002
+1.95108514190E+007, +1.41901940426E+001, +4.47573250372E+002
+1.96761268781E+007, +1.32352998486E+001, +4.52039564629E+002
+1.98414023372E+007, +1.44098949212E+001, +4.56155485543E+002
+2.00066777963E+007, +1.35960696240E+001, +4.59703796612E+002
+2.01719532554E+007, +1.43083311354E+001, +4.64823755845E+002
+2.03372287145E+007, +1.42088791114E+001, +4.69467201593E+002
+2.05025041736E+007, +1.38007758343E+001, +4.74317484656E+002
+2.06677796327E+007, +1.52425400778E+001, +4.78578563157E+002
+2.08330550918E+007, +1.40729999143E+001, +4.82502005119E+002
+2.09983305509E+007, +1.44654236788E+001, +4.86239300798E+002
+2.11636060100E+007, +1.52034612865E+001, +4.90757669571E+002
+2.13288814691E+007, +1.52532322028E+001, +4.95116971251E+002
+2.14941569282E+007, +1.44292651786E+001, +4.98871143131E+002
+2.16594323873E+007, +1.47693466907E+001, +5.04315886020E+002
+2.18247078464E+007, +1.50208947583E+001, +5.09025954189E+002
+2.19899833055E+007, +1.47951693314E+001, +5.13816505167E+002
+2.21552587646E+007, +1.45857090827E+001, +5.17037321174E+002
+2.23205342237E+007, +1.63965980572E+001, +5.22440608669E+002
+2.24858096828E+007, +1.53994368686E+001, +5.25759318919E+002
+2.26510851419E+007, +1.66985252254E+001, +5.31554761821E+002
+2.28163606010E+007, +1.60641733835E+001, +5.36078560572E+002
+2.29816360601E+007, +1.64086715922E+001, +5.39492417928E+002
+2.31469115192E+007, +1.80511873254E+001, +5.44155126375E+002
+2.33121869783E+007, +1.78024333417E+001, +5.49174101304E+002
+2.34774624374E+007, +1.99648293987E+001, +5.53642597890E+002
+2.36427378965E+007, +1.99148613367E+001, +5.58476665356E+002
+2.38080133556E+007, +1.99672712785E+001, +5.62800155311E+002
+2.39732888147E+007, +1.95819041549E+001, +5.69957578790E+002
+2.41385642738E+007, +1.82923244102E+001, +5.73400862829E+002
+2.43038397329E+007, +1.75071539898E+001, +5.77668306123E+002
+2.44691151920E+007, +2.00886413956E+001, +5.82078668057E+002
+2.46343906511E+007, +2.01674607192E+001, +5.86426568301E+002
+2.47996661102E+007, +2.00070831339E+001, +5.90400628077E+002
+2.49649415693E+007, +2.00352260441E+001, +5.98136736761E+002
+2.51302170284E+007, +2.07293156739E+001, +6.00600555528E+002
+2.52954924875E+007, +2.21340480388E+001, +6.05212581083E+002
+2.54607679466E+007, +2.19370396220E+001, +6.09950360335E+002
+2.56260434057E+007, +2.23797228694E+001, +6.14093063446E+002
+2.57913188648E+007, +2.23633432729E+001, +6.19203197508E+002
+2.59565943239E+007, +2.23700149543E+001, +6.23290807909E+002
+2.61218697830E+007, +2.32547261492E+001, +6.29029669303E+002
+2.62871452421E+007, +2.43762225787E+001, +6.31331618702E+002
+2.64524207012E+007, +2.19120152801E+001, +6.38753124460E+002
+2.66176961603E+007, +2.36995754497E+001, +6.43094681750E+002
+2.67829716194E+007, +2.37436644365E+001, +6.47478919754E+002
+2.69482470785E+007, +2.29512862751E+001, +6.54889062448E+002
+2.71135225376E+007, +2.33008649946E+001, +6.61395103997E+002
+2.72787979967E+007, +2.43471182692E+001, +6.65209601147E+002
+2.74440734558E+007, +2.49586986429E+001, +6.67595990315E+002
+2.76093489149E+007, +2.44888780014E+001, +6.73406162319E+002
+2.77746243740E+007, +2.54432443767E+001, +6.79788213042E+002
+2.79398998331E+007, +2.48708069608E+001, +6.85223449018E+002
+2.81051752922E+007, +2.77836713087E+001, +6.86590523693E+002
+2.82704507513E+007, +2.71963401759E+001, +6.95961210268E+002
+2.84357262104E+007, +2.63060882625E+001, +6.99655826037E+002
+2.86010016694E+007, +2.47504938750E+001, +7.07721244242E+002
+2.87662771285E+007, +2.66479028681E+001, +7.11172838513E+002
+2.89315525876E+007, +2.61865500876E+001, +7.16831408577E+002
+2.90968280467E+007, +2.82017646906E+001, +7.20888023392E+002
+2.92621035058E+007, +2.97847396455E+001, +7.25250439163E+002
+2.94273789649E+007, +2.82886175949E+001, +7.30922379644E+002
+2.95926544240E+007, +2.57038957662E+001, +7.37265284252E+002
+2.97579298831E+007, +2.75401304458E+001, +7.42635545929E+002
+2.99232053422E+007, +2.83255230070E+001, +7.49028336591E+002
+3.00884808013E+007, +3.06705124787E+001, +7.54344880188E+002
+3.02537562604E+007, +3.17643353099E+001, +7.59463090981E+002
+3.04190317195E+007, +2.94129129627E+001, +7.64077616354E+002
+3.05843071786E+007, +2.99306652814E+001, +7.65578355979E+002
+3.07495826377E+007, +2.78955658789E+001, +7.77492031184E+002
+3.09148580968E+007, +2.98464151380E+001, +7.82924611801E+002
+3.10801335559E+007, +3.22692180731E+001, +7.86930117855E+002
+3.12454090150E+007, +3.24149689962E+001, +7.94079420848E+002
+3.14106844741E+007, +3.19183296349E+001, +7.99438005121E+002
+3.15759599332E+007, +3.36925778650E+001, +8.05490489715E+002
+3.17412353923E+007, +3.58651853432E+001, +8.10611440624E+002
+3.19065108514E+007, +3.41561134155E+001, +8.19144252138E+002
+3.20717863105E+007, +3.05346332574E+001, +8.25025764264E+002
+3.22370617696E+007, +3.50625659275E+001, +8.27163303114E+002
+3.24023372287E+007, +3.33177061785E+001, +8.38193433284E+002
+3.25676126878E+007, +3.60979762825E+001, +8.39647263553E+002
+3.27328881469E+007, +3.38026807779E+001, +8.44569380270E+002
+3.28981636060E+007, +3.15266855393E+001, +8.53451260312E+002
+3.30634390651E+007, +3.64762889790E+001, +8.60633938726E+002
+3.32287145242E+007, +3.42117726596E+001, +8.71802697392E+002
+3.33939899833E+007, +3.73532343340E+001, +8.76000412830E+002
+3.35592654424E+007, +3.86157904943E+001, +8.79403386133E+002
+3.37245409015E+007, +3.68946036674E+001, +8.86024701720E+002
+3.38898163606E+007, +3.64096410771E+001, +8.92231492691E+002
+3.40550918197E+007, +3.44273406233E+001, +8.97330467341E+002
+3.42203672788E+007, +3.96689877165E+001, +9.03943642666E+002
+3.43856427379E+007, +4.16177121790E+001, +9.11080867196E+002
+3.45509181970E+007, +3.62596641370E+001, +9.18915155385E+002
+3.47161936561E+007, +3.84620989106E+001, +9.26500983038E+002
+3.48814691152E+007, +3.84655899748E+001, +9.30231035711E+002
+3.50467445743E+007, +4.01596371033E+001, +9.37874651907E+002
+3.52120200334E+007, +4.57827098263E+001, +9.43752862865E+002
+3.53772954925E+007, +4.06403988348E+001, +9.52188172142E+002
+3.55425709516E+007, +3.94071645369E+001, +9.58196235932E+002
+3.57078464107E+007, +4.04898289726E+001, +9.66772414592E+002
+3.58731218698E+007, +4.25143267861E+001, +9.71002948979E+002
+3.60383973289E+007, +3.93270748484E+001, +9.78868068899E+002
+3.62036727880E+007, +3.95482575948E+001, +9.87284562236E+002
+3.63689482471E+007, +4.06171850418E+001, +9.94254711331E+002
+3.65342237062E+007, +3.83289213462E+001, +1.00236899217E+003
+3.66994991653E+007, +3.97561149757E+001, +1.01022351819E+003
+3.68647746244E+007, +4.36346691045E+001, +1.01894563743E+003
+3.70300500835E+007, +3.87951974216E+001, +1.02783704284E+003
+3.71953255426E+007, +4.44040519149E+001, +1.03745401830E+003
+3.73606010017E+007, +4.45876674666E+001, +1.04536646082E+003
+3.75258764608E+007, +4.24565896574E+001, +1.05821884912E+003
+3.76911519199E+007, +4.15716011826E+001, +1.06051019811E+003
+3.78564273790E+007, +3.93231933548E+001, +1.07299511015E+003
+3.80217028381E+007, +4.29652503279E+001, +1.07582990709E+003
+3.81869782972E+007, +3.85668823030E+001, +1.09335239340E+003
+3.83522537563E+007, +4.47582731950E+001, +1.09527987563E+003
+3.85175292154E+007, +4.50940777716E+001, +1.10151193798E+003
+3.86828046745E+007, +4.20855280868E+001, +1.11534610704E+003
+3.88480801336E+007, +5.03077694420E+001, +1.12737585149E+003
+3.90133555927E+007, +5.00072208873E+001, +1.14272628437E+003
+3.91786310518E+007, +4.30246404889E+001, +1.15206028987E+003
+3.93439065109E+007, +4.78148672660E+001, +1.15651923518E+003
+3.95091819699E+007, +5.13443074738E+001, +1.16031187385E+003
+3.96744574290E+007, +5.51847561579E+001, +1.17513760329E+003
+3.98397328881E+007, +4.84163124951E+001, +1.19027654842E+003
+4.00050083472E+007, +5.22049279129E+001, +1.19639832895E+003
+4.01702838063E+007, +4.89775870461E+001, +1.20043505098E+003
+4.03355592654E+007, +5.28796528338E+001, +1.21073625968E+003
+4.05008347245E+007, +5.47641253376E+001, +1.23106305746E+003
+4.06661101836E+007, +5.35759303169E+001, +1.23128282572E+003
+4.08313856427E+007, +4.89347800366E+001, +1.25131295457E+003
+4.09966611018E+007, +5.14265312077E+001, +1.25981376763E+003
+4.11619365609E+007, +5.75487334483E+001, +1.26856523752E+003
+4.13272120200E+007, +6.29875725287E+001, +1.28050309255E+003
+4.14924874791E+007, +6.13103566667E+001, +1.28744958780E+003
+4.16577629382E+007, +6.35695164082E+001, +1.30964836866E+003
+4.18230383973E+007, +6.35187389140E+001, +1.31962621980E+003
+4.19883138564E+007, +6.28162907574E+001, +1.33727881554E+003
+4.21535893155E+007, +6.42422946100E+001, +1.34311359227E+003
+4.23188647746E+007, +7.29130491355E+001, +1.36021313659E+003
+4.24841402337E+007, +6.13640786840E+001, +1.37403897443E+003
+4.26494156928E+007, +6.62476798168E+001, +1.37630221759E+003
+4.28146911519E+007, +7.85896727540E+001, +1.39340958960E+003
+4.29799666110E+007, +7.22637608743E+001, +1.40288232251E+003
+4.31452420701E+007, +7.05078627454E+001, +1.43188321848E+003
+4.33105175292E+007, +7.25335042281E+001, +1.44259332906E+003
+4.34757929883E+007, +7.14285035454E+001, +1.45927469419E+003
+4.36410684474E+007, +6.68858819806E+001, +1.46476692579E+003
+4.38063439065E+007, +8.10957710936E+001, +1.49036243853E+003
+4.39716193656E+007, +8.37941131009E+001, +1.49239956450E+003
+4.41368948247E+007, +7.87018469561E+001, +1.52277616356E+003
+4.43021702838E+007, +8.95954441045E+001, +1.53388830088E+003
+4.44674457429E+007, +8.83987792565E+001, +1.55662628723E+003
+4.46327212020E+007, +8.97302706545E+001, +1.55989950809E+003
+4.47979966611E+007, +9.23522166714E+001, +1.59546955182E+003
+4.49632721202E+007, +9.93092770292E+001, +1.62163046562E+003
+4.51285475793E+007, +9.48337790102E+001, +1.62820239244E+003
+4.52938230384E+007, +1.11754247009E+002, +1.65903772659E+003
+4.54590984975E+007, +8.85718642215E+001, +1.65888908267E+003
+4.56243739566E+007, +1.13752331532E+002, +1.68583284492E+003
+4.57896494157E+007, +1.21110445941E+002, +1.69556079203E+003
+4.59549248748E+007, +1.13353094259E+002, +1.74054030676E+003
+4.61202003339E+007, +1.14213562151E+002, +1.74950499462E+003
+4.62854757930E+007, +1.41959807286E+002, +1.76713292889E+003
+4.64507512521E+007, +1.36122977322E+002, +1.79072502558E+003
+4.66160267112E+007, +1.56335414489E+002, +1.82866796355E+003
+4.67813021703E+007, +1.53182949155E+002, +1.86116093150E+003
+4.69465776294E+007, +1.68284850514E+002, +1.86828152577E+003
+4.71118530885E+007, +1.70281017686E+002, +1.89681651786E+003
+4.72771285476E+007, +1.83788640727E+002, +1.91598643634E+003
+4.74424040067E+007, +1.89622685903E+002, +1.94485250939E+003
+4.76076794658E+007, +1.99496148921E+002, +1.96835098217E+003
+4.77729549249E+007, +2.08281297141E+002, +1.99706344688E+003
+4.79382303840E+007, +2.23406824257E+002, +2.01666458310E+003
+4.81035058431E+007, +2.45032670076E+002, +2.06073252591E+003
+4.82687813022E+007, +2.48515989998E+002, +2.07348076754E+003
+4.84340567613E+007, +2.71909861030E+002, +2.12414346664E+003
+4.85993322204E+007, +2.94332241969E+002, +2.14119994715E+003
+4.87646076795E+007, +3.05532058121E+002, +2.17652630461E+003
+4.89298831386E+007, +3.14170708318E+002, +2.19055764878E+003
+4.90951585977E+007, +3.38929259324E+002, +2.21676867596E+003
+4.92604340568E+007, +3.43823268211E+002, +2.24926784756E+003
+4.94257095159E+007, +3.84733905256E+002, +2.26265990754E+003
+4.95909849750E+007, +4.04127256595E+002, +2.29724053685E+003
+4.97562604341E+007, +4.30284479120E+002, +2.30284899008E+003
+4.99215358932E+007, +4.55732704734E+002, +2.36915490263E+003
+5.00868113523E+007, +4.66036596896E+002, +2.40220290180E+003
+5.02520868114E+007, +4.88446785916E+002, +2.42659802989E+003
+5.04173622705E+007, +5.05588970475E+002, +2.48143722474E+003
+5.05826377295E+007, +5.04119272923E+002, +2.44622943408E+003
+5.07479131886E+007, +5.32350612593E+002, +2.45828267069E+003
+5.09131886477E+007, +5.16373790188E+002, +2.51684856634E+003
+5.10784641068E+007, +5.91279977562E+002, +2.52730909769E+003
+5.12437395659E+007, +5.78133657408E+002, +2.57774479866E+003
+5.14090150250E+007, +5.89152504302E+002, +2.58125794965E+003
+5.15742904841E+007, +5.77425860306E+002, +2.63150225450E+003
+5.17395659432E+007, +6.18144708785E+002, +2.63832711271E+003
+5.19048414023E+007, +6.52196846481E+002, +2.70835539043E+003
+5.20701168614E+007, +6.39959116194E+002, +2.78480803998E+003
+5.22353923205E+007, +6.34325754075E+002, +2.85120804075E+003
+5.24006677796E+007, +6.13128777175E+002, +2.85713298931E+003
+5.25659432387E+007, +6.97912849638E+002, +2.95657443733E+003
+5.27312186978E+007, +7.44150585660E+002, +2.99154433484E+003
+5.28964941569E+007, +7.46822899914E+002, +3.09771099502E+003
+5.30617696160E+007, +7.62368391399E+002, +3.20914722312E+003
+5.32270450751E+007, +7.92635759891E+002, +3.21235457567E+003
+5.33923205342E+007, +8.33357084325E+002, +3.36352389087E+003
+5.35575959933E+007, +8.52857245774E+002, +3.44523754644E+003
+5.37228714524E+007, +9.81424661525E+002, +3.55706646992E+003
+5.38881469115E+007, +9.90269827488E+002, +3.56783545922E+003
