"# Channel 1"
"# Trace 1"
Frequency, Formatted Data, Formatted Data
+1.00000000000E+005, +6.14837594795E-001, +2.08958610544E+000
+2.25031289111E+005, +5.86741364923E-001, +4.70403042218E+000
+3.50062578223E+005, +6.27260858343E-001, +7.34985129537E+000
+4.75093867334E+005, +6.45595980089E-001, +1.00099137609E+001
+6.00125156446E+005, +6.66675482935E-001, +1.25902797795E+001
+7.25156445557E+005, +7.07541390474E-001, +1.51914972922E+001
+8.50187734668E+005, +7.45627908939E-001, +1.77651281920E+001
+9.75219023780E+005, +7.84119069651E-001, +2.03970360569E+001
+1.10025031289E+006, +8.12992168173E-001, +2.29743210146E+001
+1.22528160200E+006, +8.37507119243E-001, +2.54841328300E+001
+1.35031289111E+006, +8.56218015369E-001, +2.81956229743E+001
+1.47534418023E+006, +8.96635318073E-001, +3.07151968055E+001
+1.60037546934E+006, +9.49425121741E-001, +3.32988543259E+001
+1.72540675845E+006, +9.30627909530E-001, +3.58848773707E+001
+1.85043804756E+006, +9.73131564567E-001, +3.83653303026E+001
+1.97546933667E+006, +1.09669332798E+000, +4.09598204506E+001
+2.10050062578E+006, +1.00375653798E+000, +4.35936475859E+001
+2.22553191489E+006, +1.02529687939E+000, +4.61437365832E+001
+2.35056320401E+006, +1.13462358717E+000, +4.86504121389E+001
+2.47559449312E+006, +1.10648529498E+000, +5.13081737155E+001
+2.60062578223E+006, +9.57521639388E-001, +5.38216634443E+001
+2.72565707134E+006, +1.06112662553E+000, +5.63976775695E+001
+2.85068836045E+006, +9.86627952007E-001, +5.90469077254E+001
+2.97571964956E+006, +1.13600457899E+000, +6.16380598336E+001
+3.10075093867E+006, +1.18992876787E+000, +6.41245448029E+001
+3.22578222778E+006, +1.13981583970E+000, +6.67655484819E+001
+3.35081351690E+006, +1.19788016593E+000, +6.92358466760E+001
+3.47584480601E+006, +1.04151798404E+000, +7.19249872702E+001
+3.60087609512E+006, +1.19464901159E+000, +7.45331521718E+001
+3.72590738423E+006, +1.16064140055E+000, +7.71229600848E+001
+3.85093867334E+006, +1.14008009741E+000, +7.96753135248E+001
+3.97596996245E+006, +1.20187336452E+000, +8.21947371419E+001
+4.10100125156E+006, +1.28516760856E+000, +8.47546368868E+001
+4.22603254068E+006, +1.11528168705E+000, +8.73840283356E+001
+4.35106382979E+006, +1.13887192892E+000, +9.00443887692E+001
+4.47609511890E+006, +1.21231374739E+000, +9.26405870621E+001
+4.60112640801E+006, +1.14525304655E+000, +9.53714804697E+001
+4.72615769712E+006, +1.16946376485E+000, +9.78787159583E+001
+4.85118898623E+006, +1.24731987542E+000, +1.00545871004E+002
+4.97622027534E+006, +1.36784516388E+000, +1.02875499798E+002
+5.10125156446E+006, +1.21609015923E+000, +1.05815626476E+002
+5.22628285357E+006, +1.12514837258E+000, +1.08225300763E+002
+5.35131414268E+006, +1.40363740261E+000, +1.10758612690E+002
+5.47634543179E+006, +1.32826334874E+000, +1.13329392456E+002
+5.60137672090E+006, +1.44361613160E+000, +1.16107429915E+002
+5.72640801001E+006, +1.28833599055E+000, +1.18819938919E+002
+5.85143929912E+006, +1.17341658482E+000, +1.21325464963E+002
+5.97647058824E+006, +1.41418620594E+000, +1.23942952025E+002
+6.10150187735E+006, +1.26154304994E+000, +1.26750482985E+002
+6.22653316646E+006, +1.62678198078E+000, +1.29354146062E+002
+6.35156445557E+006, +1.34475487321E+000, +1.31935448530E+002
+6.47659574468E+006, +1.53023641126E+000, +1.34737759128E+002
+6.60162703379E+006, +1.51255858824E+000, +1.37343646472E+002
+6.72665832290E+006, +1.52977187345E+000, +1.40087146250E+002
+6.85168961202E+006, +1.73591920700E+000, +1.42766055743E+002
+6.97672090113E+006, +1.73644747917E+000, +1.45456064442E+002
+7.10175219024E+006, +1.51779410910E+000, +1.47888108486E+002
+7.22678347935E+006, +1.49889491401E+000, +1.50542050142E+002
+7.35181476846E+006, +1.73173832359E+000, +1.53321483246E+002
+7.47684605757E+006, +1.75664364809E+000, +1.55888379537E+002
+7.60187734668E+006, +1.77938048133E+000, +1.58712002891E+002
+7.72690863579E+006, +1.69255773963E+000, +1.61665599264E+002
+7.85193992491E+006, +1.71343865251E+000, +1.64220634560E+002
+7.97697121402E+006, +1.65611562218E+000, +1.66683981756E+002
+8.10200250313E+006, +1.76056434361E+000, +1.69684674393E+002
+8.22703379224E+006, +1.70903263976E+000, +1.72078571665E+002
+8.35206508135E+006, +1.88558538615E+000, +1.74837972557E+002
+8.47709637046E+006, +1.88991152544E+000, +1.77610332273E+002
+8.60212765957E+006, +1.68758104651E+000, +1.80256099629E+002
+8.72715894869E+006, +1.90056342276E+000, +1.83195614837E+002
+8.85219023780E+006, +1.60048817043E+000, +1.85887699603E+002
+8.97722152691E+006, +1.71743239212E+000, +1.88357196008E+002
+9.10225281602E+006, +1.53899477140E+000, +1.91367018209E+002
+9.22728410513E+006, +1.55283926809E+000, +1.94082004898E+002
+9.35231539424E+006, +1.78849389854E+000, +1.96742326571E+002
+9.47734668335E+006, +1.86685483106E+000, +1.99557080991E+002
+9.60237797247E+006, +2.04466918264E+000, +2.02135533296E+002
+9.72740926158E+006, +1.95479743229E+000, +2.04827715763E+002
+9.85244055069E+006, +1.90298237819E+000, +2.07744801737E+002
+9.97747183980E+006, +1.87775308857E+000, +2.10612487211E+002
+1.01025031289E+007, +1.70476150330E+000, +2.13369703297E+002
+1.02275344180E+007, +1.85349770530E+000, +2.16095990077E+002
+1.03525657071E+007, +1.75161485475E+000, +2.19218840378E+002
+1.04775969962E+007, +1.83959423599E+000, +2.21657897324E+002
+1.06026282854E+007, +1.87761608943E+000, +2.24446007163E+002
+1.07276595745E+007, +1.99116410857E+000, +2.27230874872E+002
+1.08526908636E+007, +1.43725557871E+000, +2.30204668769E+002
+1.09777221527E+007, +2.00039641223E+000, +2.32875557757E+002
+1.11027534418E+007, +2.12880812398E+000, +2.35440115654E+002
+1.12277847309E+007, +1.77149709975E+000, +2.38434031326E+002
+1.13528160200E+007, +1.71781628635E+000, +2.41198115267E+002
+1.14778473091E+007, +1.65830421020E+000, +2.44310774147E+002
+1.16028785982E+007, +2.27296375093E+000, +2.46921835194E+002
+1.17279098874E+007, +1.94269934230E+000, +2.50087423147E+002
+1.18529411765E+007, +1.66034443121E+000, +2.53131866602E+002
+1.19779724656E+007, +1.71039422148E+000, +2.55731441627E+002
+1.21030037547E+007, +1.71823456388E+000, +2.58531607905E+002
+1.22280350438E+007, +1.85129891716E+000, +2.61371280545E+002
+1.23530663329E+007, +1.95078364726E+000, +2.64359069752E+002
+1.24780976220E+007, +1.74652260690E+000, +2.67210937264E+002
+1.26031289111E+007, +1.57763143991E+000, +2.70141929786E+002
+1.27281602003E+007, +1.52699814804E+000, +2.73171703402E+002
+1.28531914894E+007, +1.48544808112E+000, +2.75809006471E+002
+1.29782227785E+007, +1.88754509179E+000, +2.79405049215E+002
+1.31032540676E+007, +1.90057160753E+000, +2.82185335312E+002
+1.32282853567E+007, +1.57185592987E+000, +2.84887576843E+002
+1.33533166458E+007, +1.35700569430E+000, +2.87415932107E+002
+1.34783479349E+007, +1.48709313598E+000, +2.90691101602E+002
+1.36033792240E+007, +1.75400639623E+000, +2.93756609348E+002
+1.37284105131E+007, +1.74507414765E+000, +2.96621315058E+002
+1.38534418023E+007, +1.39236567581E+000, +3.00173413845E+002
+1.39784730914E+007, +1.80074882669E+000, +3.03146694632E+002
+1.41035043805E+007, +1.31767351426E+000, +3.05451558167E+002
+1.42285356696E+007, +1.89309392634E+000, +3.08722093877E+002
+1.43535669587E+007, +1.60345285810E+000, +3.11813201682E+002
+1.44785982478E+007, +1.64519857042E+000, +3.15289949471E+002
+1.46036295369E+007, +1.96227415412E+000, +3.18070891452E+002
+1.47286608260E+007, +1.12744955683E+000, +3.21532072664E+002
+1.48536921151E+007, +1.80917953207E+000, +3.23991681880E+002
+1.49787234043E+007, +1.51582730253E+000, +3.27401680784E+002
+1.51037546934E+007, +1.84125481617E+000, +3.30360695394E+002
+1.52287859825E+007, +1.47149809739E+000, +3.34075411691E+002
+1.53538172716E+007, +1.59995420024E+000, +3.36644031488E+002
+1.54788485607E+007, +1.40903640583E+000, +3.39746109829E+002
+1.56038798498E+007, +1.87805398491E+000, +3.43478302936E+002
+1.57289111389E+007, +1.51600407992E+000, +3.46272557684E+002
+1.58539424280E+007, +2.22334492377E+000, +3.48885540182E+002
+1.59789737171E+007, +1.66742149790E+000, +3.52772903373E+002
+1.61040050063E+007, +1.70809976020E+000, +3.55215806996E+002
+1.62290362954E+007, +1.55536154270E+000, +3.58934496111E+002
+1.63540675845E+007, +1.13116158486E+000, +3.61939882528E+002
+1.64790988736E+007, +2.13208066804E+000, +3.65438020926E+002
+1.66041301627E+007, +1.94048210243E+000, +3.68047770275E+002
+1.67291614518E+007, +1.49484120110E+000, +3.71829824479E+002
+1.68541927409E+007, +2.09683675753E+000, +3.74113212517E+002
+1.69792240300E+007, +7.25005359274E-001, +3.78216792808E+002
+1.71042553191E+007, +9.65954050872E-001, +3.81220677984E+002
+1.72292866083E+007, +1.09343670334E+000, +3.85185123707E+002
+1.73543178974E+007, +6.81265438409E-001, +3.87439342029E+002
+1.74793491865E+007, +1.24327302351E+000, +3.91835936547E+002
+1.76043804756E+007, +3.85039100382E-001, +3.94461543025E+002
+1.77294117647E+007, +1.29626634243E+000, +3.98077954025E+002
+1.78544430538E+007, +1.34214269055E+000, +4.00573125641E+002
+1.79794743429E+007, +1.43733172268E+000, +4.04802825766E+002
+1.81045056320E+007, +1.24176517226E+000, +4.08462228346E+002
+1.82295369212E+007, +9.44877441090E-001, +4.11341816347E+002
+1.83545682103E+007, +2.00544402391E+000, +4.15358698698E+002
+1.84795994994E+007, +1.12249366786E+000, +4.17879092497E+002
+1.86046307885E+007, +1.64649732856E+000, +4.21703347690E+002
+1.87296620776E+007, +4.64524591124E-001, +4.25341336820E+002
+1.88546933667E+007, +1.03157143843E+000, +4.28581133314E+002
+1.89797246558E+007, +2.18990310217E+000, +4.31253426927E+002
+1.91047559449E+007, +1.37542555554E+000, +4.36714942631E+002
+1.92297872340E+007, +3.92014578058E-001, +4.39778606066E+002
+1.93548185232E+007, +1.79029118956E+000, +4.43015022104E+002
+1.94798498123E+007, +7.63914906424E-001, +4.46088423239E+002
+1.96048811014E+007, +4.34245783019E-001, +4.49434717027E+002
+1.97299123905E+007, +1.81370522481E+000, +4.54090816639E+002
+1.98549436796E+007, +2.19304298782E+000, +4.57348075065E+002
+1.99799749687E+007, +1.47886731204E+000, +4.60604460251E+002
+2.01050062578E+007, +1.62183254528E+000, +4.64901115075E+002
+2.02300375469E+007, +1.15098752924E+000, +4.68068640569E+002
+2.03550688360E+007, +1.32382262082E+000, +4.71299921504E+002
+2.04801001252E+007, +1.16305835796E+000, +4.74734675410E+002
+2.06051314143E+007, +2.59621762963E+000, +4.78994063417E+002
+2.07301627034E+007, +1.79367824641E+000, +4.83098396510E+002
+2.08551939925E+007, +1.49530243355E+000, +4.87208789612E+002
+2.09802252816E+007, +1.62622669234E+000, +4.90435878111E+002
+2.11052565707E+007, +3.17034502337E+000, +4.93742305262E+002
+2.12302878598E+007, +1.72717214592E+000, +4.98866283957E+002
+2.13553191489E+007, +1.58657899127E+000, +5.02671160837E+002
+2.14803504380E+007, +1.89718132790E+000, +5.04630043144E+002
+2.16053817272E+007, +2.05476178248E+000, +5.11073779400E+002
+2.17304130163E+007, +2.77867599923E+000, +5.13893200756E+002
+2.18554443054E+007, +1.54029373226E+000, +5.16724808533E+002
+2.19804755945E+007, +7.60610239054E-002, +5.21201291282E+002
+2.21055068836E+007, +1.38761231970E+000, +5.28528315330E+002
+2.22305381727E+007, +3.33418800581E+000, +5.28812603643E+002
+2.23555694618E+007, +2.17936830689E+000, +5.32929277331E+002
+2.24806007509E+007, +2.18493080864E+000, +5.37912708846E+002
+2.26056320401E+007, +2.16306558067E+000, +5.41238172803E+002
+2.27306633292E+007, +2.62896774991E+000, +5.46347742366E+002
+2.28556946183E+007, +5.29543916011E+000, +5.50376704257E+002
+2.29807259074E+007, +3.97160122542E+000, +5.53077915880E+002
+2.31057571965E+007, +4.00645797747E+000, +5.57337319920E+002
+2.32307884856E+007, +4.12904226769E+000, +5.63821994847E+002
+2.33558197747E+007, +5.25949797755E+000, +5.66346087471E+002
+2.34808510638E+007, +3.42467953037E+000, +5.69330178189E+002
+2.36058823529E+007, +4.62625025906E+000, +5.73311450356E+002
+2.37309136421E+007, +5.38989923503E+000, +5.76626646850E+002
+2.38559449312E+007, +7.54359657717E+000, +5.82510342652E+002
+2.39809762203E+007, +4.90548939060E+000, +5.85602252748E+002
+2.41060075094E+007, +6.52754205008E+000, +5.90969460568E+002
+2.42310387985E+007, +4.88269419895E+000, +5.92945510021E+002
+2.43560700876E+007, +3.50180023444E+000, +5.99220824970E+002
+2.44811013767E+007, +4.91529968132E+000, +6.02061473546E+002
+2.46061326658E+007, +6.35960565697E+000, +6.04711764394E+002
+2.47311639549E+007, +4.24170766526E+000, +6.10811740964E+002
+2.48561952441E+007, +4.19648306037E+000, +6.14532167474E+002
+2.49812265332E+007, +2.93154509666E+000, +6.19520817498E+002
+2.51062578223E+007, +6.34675710391E+000, +6.21456035953E+002
+2.52312891114E+007, +5.36311190999E+000, +6.28198347635E+002
+2.53563204005E+007, +5.19127912187E+000, +6.33881591474E+002
+2.54813516896E+007, +3.32385665991E+000, +6.36644444301E+002
+2.56063829787E+007, +4.78579869288E+000, +6.41496974680E+002
+2.57314142678E+007, +5.15343249978E+000, +6.46261785341E+002
+2.58564455569E+007, +4.46651632182E+000, +6.51562878613E+002
+2.59814768461E+007, +5.65520079902E+000, +6.53785085725E+002
+2.61065081352E+007, +4.56521609893E+000, +6.59507671063E+002
+2.62315394243E+007, +3.59909324880E+000, +6.62924020986E+002
+2.63565707134E+007, +2.24089587905E+000, +6.66194655751E+002
+2.64816020025E+007, +2.65188470601E+000, +6.73946384825E+002
+2.66066332916E+007, +2.32663207688E+000, +6.79499054132E+002
+2.67316645807E+007, +4.03892349113E+000, +6.81983828168E+002
+2.68566958698E+007, +2.44818253008E+000, +6.88492925097E+002
+2.69817271589E+007, +2.74597628832E+000, +6.92340642849E+002
+2.71067584481E+007, +5.79887854942E+000, +7.00131503893E+002
+2.72317897372E+007, +3.87853358706E+000, +7.03164401726E+002
+2.73568210263E+007, +5.65442163072E+000, +7.04803935224E+002
+2.74818523154E+007, +2.30756329705E+000, +7.17105189485E+002
+2.76068836045E+007, +6.31354443442E+000, +7.20094981965E+002
+2.77319148936E+007, +2.72096653831E+000, +7.21420150802E+002
+2.78569461827E+007, +4.95239704910E+000, +7.29107514215E+002
+2.79819774718E+007, +4.20856881318E+000, +7.32011035008E+002
+2.81070087610E+007, +4.35213292263E+000, +7.35085471694E+002
+2.82320400501E+007, +2.26658842532E+000, +7.44926509995E+002
+2.83570713392E+007, +2.64898997366E+000, +7.49021354345E+002
+2.84821026283E+007, +1.23107663798E+000, +7.56399106376E+002
+2.86071339174E+007, +3.18110502317E+000, +7.59337034356E+002
+2.87321652065E+007, +4.64973052061E+000, +7.66144266234E+002
+2.88571964956E+007, +2.48465078751E+000, +7.71254071329E+002
+2.89822277847E+007, +2.35889018870E+000, +7.77678909469E+002
+2.91072590738E+007, +2.88213402334E+000, +7.81473042628E+002
+2.92322903630E+007, +4.37301547768E+000, +7.89138871061E+002
+2.93573216521E+007, +2.68001975750E+000, +7.94725101556E+002
+2.94823529412E+007, +3.18835240071E+000, +7.99324136992E+002
+2.96073842303E+007, +3.19017042553E+000, +8.03686251956E+002
+2.97324155194E+007, +1.53340081392E+000, +8.09503585974E+002
+2.98574468085E+007, +2.64825925719E+000, +8.20070035543E+002
+2.99824780976E+007, +1.11003314849E+000, +8.26420801996E+002
+3.01075093867E+007, +1.23977616942E+000, +8.29446194265E+002
+3.02325406758E+007, +3.19885483306E+000, +8.35546187405E+002
+3.03575719650E+007, +1.72346637104E+000, +8.43538640634E+002
+3.04826032541E+007, +2.15174799479E+000, +8.45793999925E+002
+3.06076345432E+007, -2.00816973547E+000, +8.52848375335E+002
+3.07326658323E+007, +3.88133320759E+000, +8.58928336527E+002
+3.08576971214E+007, +1.05140241460E+000, +8.62740777740E+002
+3.09827284105E+007, -7.65360301294E-001, +8.72186396728E+002
+3.11077596996E+007, -8.52454926320E-001, +8.77229752874E+002
+3.12327909887E+007, -1.51246108571E+000, +8.82770219924E+002
+3.13578222778E+007, -9.98623355338E-001, +8.92084453547E+002
+3.14828535670E+007, +3.82810093021E+000, +9.01358498599E+002
+3.16078848561E+007, -1.15177217635E+000, +9.06917558882E+002
+3.17329161452E+007, +2.17103007204E+000, +9.06288775006E+002
+3.18579474343E+007, +2.40431726485E+000, +9.14378624988E+002
+3.19829787234E+007, +2.41728178063E+000, +9.22089029454E+002
+3.21080100125E+007, -8.51434079781E-002, +9.31420740728E+002
+3.22330413016E+007, +3.49832608179E+000, +9.41475008353E+002
+3.23580725907E+007, -2.17231290608E+000, +9.46622751132E+002
+3.24831038798E+007, +9.47570611481E+000, +9.52497131842E+002
+3.26081351690E+007, +1.38418892639E+000, +9.62763991240E+002
+3.27331664581E+007, +1.27128292438E+000, +9.65586468471E+002
+3.28581977472E+007, -1.83401897107E-001, +9.76249233061E+002
+3.29832290363E+007, -1.62494228297E+000, +9.86261083188E+002
+3.31082603254E+007, +1.88915984532E+000, +9.95172465746E+002
+3.32332916145E+007, -3.96555114949E+000, +1.00184705608E+003
+3.33583229036E+007, +4.29692107221E+000, +1.00375893966E+003
+3.34833541927E+007, +1.82472168970E-001, +1.00938253916E+003
+3.36083854819E+007, +1.78025009905E+000, +1.01694787737E+003
+3.37334167710E+007, +4.95003053284E+000, +1.02322486423E+003
+3.38584480601E+007, -3.06470203317E+000, +1.03542743303E+003
+3.39834793492E+007, +4.31256706066E+000, +1.04264172815E+003
+3.41085106383E+007, -3.76632606864E+000, +1.05536086180E+003
+3.42335419274E+007, -4.02213564878E-001, +1.06873728775E+003
+3.43585732165E+007, +1.46178893050E+000, +1.06322414680E+003
+3.44836045056E+007, +4.80369433473E+000, +1.07687811990E+003
+3.46086357947E+007, +3.60471971010E+000, +1.08554091029E+003
+3.47336670839E+007, -1.10304559417E+000, +1.09271869950E+003
+3.48586983730E+007, +3.94559081348E+000, +1.10303094811E+003
+3.49837296621E+007, +2.15402193619E+000, +1.11173052246E+003
+3.51087609512E+007, -4.50330707710E+000, +1.11047933406E+003
+3.52337922403E+007, +3.22207682401E+000, +1.13284983006E+003
+3.53588235294E+007, -6.56175663011E-001, +1.13257035284E+003
+3.54838548185E+007, +7.19290332906E+000, +1.14536310009E+003
+3.56088861076E+007, -3.02552072324E+000, +1.15773900671E+003
+3.57339173967E+007, +3.67781983654E+000, +1.16332386427E+003
+3.58589486859E+007, +6.18462224619E+000, +1.16912201012E+003
+3.59839799750E+007, +4.40605636434E+000, +1.18240652776E+003
+3.61090112641E+007, +1.44377391823E+000, +1.18845842842E+003
+3.62340425532E+007, +1.26328459008E+001, +1.20171105171E+003
+3.63590738423E+007, +3.80924663523E+000, +1.21103789065E+003
+3.64841051314E+007, +1.84292493126E+000, +1.21154849054E+003
+3.66091364205E+007, -3.19056496143E+000, +1.22766003008E+003
+3.67341677096E+007, +3.86224474059E+000, +1.23705635422E+003
+3.68591989987E+007, +5.92140312003E+000, +1.24641247481E+003
+3.69842302879E+007, +1.00304828616E+000, +1.25890513980E+003
+3.71092615770E+007, +3.42443582621E+000, +1.27365317750E+003
+3.72342928661E+007, +7.17938736804E+000, +1.28807671619E+003
+3.73593241552E+007, +1.15114047097E+000, +1.29751230461E+003
+3.74843554443E+007, +4.58973291881E-001, +1.30301001369E+003
+3.76093867334E+007, +9.26779738966E+000, +1.31008431608E+003
+3.77344180225E+007, +1.77168077506E+000, +1.33026367774E+003
+3.78594493116E+007, -2.92688221200E+000, +1.33216235787E+003
+3.79844806008E+007, -5.35566328211E-001, +1.35061761199E+003
+3.81095118899E+007, +7.08614822573E+000, +1.35765887403E+003
+3.82345431790E+007, +2.66380274763E+000, +1.36978053657E+003
+3.83595744681E+007, -6.31272780766E+000, +1.38557656767E+003
+3.84846057572E+007, +4.05203175111E+000, +1.38715710418E+003
+3.86096370463E+007, +2.50600842188E+000, +1.41074847668E+003
+3.87346683354E+007, +2.94982176978E+000, +1.41913718756E+003
+3.88596996245E+007, -1.27303729033E+000, +1.43672763237E+003
+3.89847309136E+007, +8.58256347911E+000, +1.44553709508E+003
+3.91097622028E+007, -1.06764411799E+000, +1.46756808714E+003
+3.92347934919E+007, +2.44555717661E+000, +1.47354838129E+003
+3.93598247810E+007, -6.14206867363E+000, +1.50197543293E+003
+3.94848560701E+007, +8.06324095980E+000, +1.50555588553E+003
+3.96098873592E+007, +7.56117088969E+000, +1.50433560965E+003
+3.97349186483E+007, +1.00374737849E+001, +1.53815329220E+003
+3.98599499374E+007, +1.18079281451E+001, +1.55120570753E+003
+3.99849812265E+007, +8.40821682426E+000, +1.54787143189E+003
+4.01100125156E+007, +2.15952290782E+001, +1.57653485518E+003
