"# Channel 1"
"# Trace 1"
Frequency, Formatted Data, Formatted Data
+1.00000000000E+005, +7.00497340347E+000, +2.36447639308E+000
+2.25031289111E+005, +6.94090033787E+000, +5.23778073629E+000
+3.50062578223E+005, +6.98237263995E+000, +8.20630964162E+000
+4.75093867334E+005, +7.00539540449E+000, +1.10760181320E+001
+6.00125156446E+005, +6.97173022405E+000, +1.40093914096E+001
+7.25156445557E+005, +6.97544808550E+000, +1.69278978971E+001
+8.50187734668E+005, +6.98157270359E+000, +1.98153564782E+001
+9.75219023780E+005, +6.98690630986E+000, +2.27197921994E+001
+1.10025031289E+006, +6.98909417010E+000, +2.55802123941E+001
+1.22528160200E+006, +6.98020638012E+000, +2.85097228202E+001
+1.35031289111E+006, +7.00646096964E+000, +3.13987742483E+001
+1.47534418023E+006, +6.98500528493E+000, +3.43128252747E+001
+1.60037546934E+006, +7.01204989103E+000, +3.72206920810E+001
+1.72540675845E+006, +6.94881648037E+000, +4.01185938711E+001
+1.85043804756E+006, +7.02566299444E+000, +4.30267174471E+001
+1.97546933667E+006, +7.02679941823E+000, +4.59482851416E+001
+2.10050062578E+006, +7.00476998149E+000, +4.87614068654E+001
+2.22553191489E+006, +6.93752530782E+000, +5.16146865775E+001
+2.35056320401E+006, +7.02961084108E+000, +5.45753339356E+001
+2.47559449312E+006, +7.00540653810E+000, +5.74860881177E+001
+2.60062578223E+006, +6.91677092793E+000, +6.03424894127E+001
+2.72565707134E+006, +6.93091866565E+000, +6.33330368778E+001
+2.85068836045E+006, +6.96829002566E+000, +6.61980367095E+001
+2.97571964956E+006, +7.06634545763E+000, +6.91410456524E+001
+3.10075093867E+006, +6.91872128904E+000, +7.21367262250E+001
+3.22578222778E+006, +7.01412525879E+000, +7.49607214758E+001
+3.35081351690E+006, +7.11003938478E+000, +7.78266747502E+001
+3.47584480601E+006, +7.07922808849E+000, +8.08348389970E+001
+3.60087609512E+006, +7.11132364191E+000, +8.38266233450E+001
+3.72590738423E+006, +7.08343098788E+000, +8.65909641720E+001
+3.85093867334E+006, +7.09739950028E+000, +8.96407846429E+001
+3.97596996245E+006, +6.98846209899E+000, +9.23386304632E+001
+4.10100125156E+006, +7.33639845511E+000, +9.54376284871E+001
+4.22603254068E+006, +7.05206813927E+000, +9.83025691569E+001
+4.35106382979E+006, +7.13044507223E+000, +1.01086155187E+002
+4.47609511890E+006, +6.93331940929E+000, +1.04067417500E+002
+4.60112640801E+006, +6.92384788468E+000, +1.06995289857E+002
+4.72615769712E+006, +7.20824562851E+000, +1.09931350000E+002
+4.85118898623E+006, +7.24684521107E+000, +1.12778238737E+002
+4.97622027534E+006, +7.07021254118E+000, +1.15961885824E+002
+5.10125156446E+006, +7.25778069839E+000, +1.18809787188E+002
+5.22628285357E+006, +7.32933537762E+000, +1.21542457886E+002
+5.35131414268E+006, +7.04156908307E+000, +1.24527767605E+002
+5.47634543179E+006, +7.08311455463E+000, +1.27471593885E+002
+5.60137672090E+006, +7.21867397257E+000, +1.30693610200E+002
+5.72640801001E+006, +7.22638901093E+000, +1.33632532483E+002
+5.85143929912E+006, +7.58247514415E+000, +1.36457080556E+002
+5.97647058824E+006, +7.56645211907E+000, +1.39484815437E+002
+6.10150187735E+006, +7.41582304562E+000, +1.42076914532E+002
+6.22653316646E+006, +7.50359000945E+000, +1.45329974961E+002
+6.35156445557E+006, +7.43317016888E+000, +1.48025763037E+002
+6.47659574468E+006, +7.54354725927E+000, +1.51115584016E+002
+6.60162703379E+006, +7.57083111376E+000, +1.54034838662E+002
+6.72665832290E+006, +7.63401361673E+000, +1.56915134067E+002
+6.85168961202E+006, +7.71474131358E+000, +1.60030917030E+002
+6.97672090113E+006, +7.76199193620E+000, +1.62979091548E+002
+7.10175219024E+006, +7.82557460213E+000, +1.65753836201E+002
+7.22678347935E+006, +7.81673136759E+000, +1.68741062559E+002
+7.35181476846E+006, +7.86251926787E+000, +1.71756345732E+002
+7.47684605757E+006, +7.86642373976E+000, +1.74574460836E+002
+7.60187734668E+006, +7.92850332929E+000, +1.77551621030E+002
+7.72690863579E+006, +7.99721376476E+000, +1.80543344909E+002
+7.85193992491E+006, +7.68890068644E+000, +1.83497120548E+002
+7.97697121402E+006, +7.95087212213E+000, +1.86603518876E+002
+8.10200250313E+006, +8.01069399364E+000, +1.89615626787E+002
+8.22703379224E+006, +8.33302558443E+000, +1.92717576606E+002
+8.35206508135E+006, +8.19902510778E+000, +1.95455473496E+002
+8.47709637046E+006, +8.11392792737E+000, +1.98286405672E+002
+8.60212765957E+006, +8.15337050389E+000, +2.01329910831E+002
+8.72715894869E+006, +7.98090413355E+000, +2.04075368233E+002
+8.85219023780E+006, +8.19988181829E+000, +2.07102909212E+002
+8.97722152691E+006, +8.34453979998E+000, +2.10432744125E+002
+9.10225281602E+006, +8.21801817101E+000, +2.13290807996E+002
+9.22728410513E+006, +8.11571753412E+000, +2.15991850859E+002
+9.35231539424E+006, +8.20207111528E+000, +2.19185707164E+002
+9.47734668335E+006, +8.32384000970E+000, +2.22460480820E+002
+9.60237797247E+006, +8.20255286992E+000, +2.25228146438E+002
+9.72740926158E+006, +8.41567924181E+000, +2.27937376139E+002
+9.85244055069E+006, +8.50771626983E+000, +2.31035187894E+002
+9.97747183980E+006, +8.17156115036E+000, +2.34392302846E+002
+1.01025031289E+007, +8.53109238211E+000, +2.36786024108E+002
+1.02275344180E+007, +8.57514992145E+000, +2.40392939206E+002
+1.03525657071E+007, +8.21436672385E+000, +2.43247904941E+002
+1.04775969962E+007, +8.39055323170E+000, +2.46142734087E+002
+1.06026282854E+007, +8.63690374902E+000, +2.49025881969E+002
+1.07276595745E+007, +8.46664477760E+000, +2.52670061158E+002
+1.08526908636E+007, +8.55694707116E+000, +2.55209494328E+002
+1.09777221527E+007, +8.48489132455E+000, +2.58189708238E+002
+1.11027534418E+007, +8.52793867680E+000, +2.61251179633E+002
+1.12277847309E+007, +8.71429667010E+000, +2.64334024634E+002
+1.13528160200E+007, +8.14812525630E+000, +2.67064402062E+002
+1.14778473091E+007, +9.01963657217E+000, +2.70258951881E+002
+1.16028785982E+007, +8.28616458632E+000, +2.72859332178E+002
+1.17279098874E+007, +8.90490330958E+000, +2.76451972512E+002
+1.18529411765E+007, +8.63780939792E+000, +2.79227117215E+002
+1.19779724656E+007, +8.82529145752E+000, +2.82472004522E+002
+1.21030037547E+007, +8.19839999327E+000, +2.84963539059E+002
+1.22280350438E+007, +8.49906954582E+000, +2.88909163907E+002
+1.23530663329E+007, +8.91936072337E+000, +2.91721508288E+002
+1.24780976220E+007, +9.04980152002E+000, +2.94657025141E+002
+1.26031289111E+007, +8.75042725090E+000, +2.97487641564E+002
+1.27281602003E+007, +8.38873124454E+000, +3.00552299558E+002
+1.28531914894E+007, +8.71721437114E+000, +3.02853431395E+002
+1.29782227785E+007, +8.79491284111E+000, +3.07041612065E+002
+1.31032540676E+007, +8.80078057414E+000, +3.10062024811E+002
+1.32282853567E+007, +9.27182628028E+000, +3.12871530365E+002
+1.33533166458E+007, +9.06100615655E+000, +3.16000385310E+002
+1.34783479349E+007, +8.45928233026E+000, +3.19074578242E+002
+1.36033792240E+007, +8.65222196334E+000, +3.22436352148E+002
+1.37284105131E+007, +8.95261984793E+000, +3.25757564803E+002
+1.38534418023E+007, +9.39477362003E+000, +3.28767093357E+002
+1.39784730914E+007, +9.43529399526E+000, +3.31522766676E+002
+1.41035043805E+007, +8.89826969838E+000, +3.35326180368E+002
+1.42285356696E+007, +9.30588602667E+000, +3.38289196796E+002
+1.43535669587E+007, +9.71080893337E+000, +3.41233306384E+002
+1.44785982478E+007, +9.79796067744E+000, +3.43653451447E+002
+1.46036295369E+007, +9.13184263476E+000, +3.47316567400E+002
+1.47286608260E+007, +9.20686445800E+000, +3.50509618829E+002
+1.48536921151E+007, +9.45106944428E+000, +3.54007567325E+002
+1.49787234043E+007, +9.92485416892E+000, +3.56718246384E+002
+1.51037546934E+007, +9.77406167409E+000, +3.60011248577E+002
+1.52287859825E+007, +9.82013179454E+000, +3.63610448217E+002
+1.53538172716E+007, +9.22200808652E+000, +3.65699565061E+002
+1.54788485607E+007, +9.62386319877E+000, +3.69146038746E+002
+1.56038798498E+007, +9.32522121631E+000, +3.73137066583E+002
+1.57289111389E+007, +9.44457202703E+000, +3.74914396298E+002
+1.58539424280E+007, +9.60874211557E+000, +3.79119000683E+002
+1.59789737171E+007, +9.72956209968E+000, +3.81601354532E+002
+1.61040050063E+007, +9.84673284430E+000, +3.85081962122E+002
+1.62290362954E+007, +9.32015465704E+000, +3.88325874962E+002
+1.63540675845E+007, +1.03518947158E+001, +3.91289118517E+002
+1.64790988736E+007, +1.05910561613E+001, +3.95006762811E+002
+1.66041301627E+007, +1.08139291805E+001, +3.97737331319E+002
+1.67291614518E+007, +9.76733232016E+000, +4.00411200023E+002
+1.68541927409E+007, +9.31688685670E+000, +4.04108737094E+002
+1.69792240300E+007, +1.00458455099E+001, +4.07526827712E+002
+1.71042553191E+007, +8.30010350471E+000, +4.10872120822E+002
+1.72292866083E+007, +9.32718708282E+000, +4.14472780747E+002
+1.73543178974E+007, +1.03322258411E+001, +4.17129958168E+002
+1.74793491865E+007, +9.12160253391E+000, +4.20439155606E+002
+1.76043804756E+007, +9.11820731466E+000, +4.24678387197E+002
+1.77294117647E+007, +8.78796758788E+000, +4.28351733423E+002
+1.78544430538E+007, +9.09308615167E+000, +4.30202838419E+002
+1.79794743429E+007, +9.35893263456E+000, +4.34017201278E+002
+1.81045056320E+007, +1.03133370053E+001, +4.37518120319E+002
+1.82295369212E+007, +1.07205493430E+001, +4.40170104912E+002
+1.83545682103E+007, +9.58226184389E+000, +4.44408002996E+002
+1.84795994994E+007, +1.03135866072E+001, +4.47562190453E+002
+1.86046307885E+007, +9.87945828411E+000, +4.50455008496E+002
+1.87296620776E+007, +9.80741026236E+000, +4.54122817697E+002
+1.88546933667E+007, +1.03511254569E+001, +4.57089084649E+002
+1.89797246558E+007, +1.07212290624E+001, +4.59558239429E+002
+1.91047559449E+007, +1.03169066497E+001, +4.61600315090E+002
+1.92297872340E+007, +9.86441696498E+000, +4.67196811213E+002
+1.93548185232E+007, +1.08212912643E+001, +4.70902622847E+002
+1.94798498123E+007, +9.93628257421E+000, +4.75239367035E+002
+1.96048811014E+007, +1.04888963511E+001, +4.77236697142E+002
+1.97299123905E+007, +1.05109587919E+001, +4.80248673006E+002
+1.98549436796E+007, +1.08096364007E+001, +4.83506942494E+002
+1.99799749687E+007, +9.64062570487E+000, +4.88969757566E+002
+2.01050062578E+007, +1.07692176351E+001, +4.91103882897E+002
+2.02300375469E+007, +1.00474390374E+001, +4.93790224229E+002
+2.03550688360E+007, +1.08873198698E+001, +4.96538362131E+002
+2.04801001252E+007, +1.08048237739E+001, +5.00410758044E+002
+2.06051314143E+007, +1.05696634736E+001, +5.04778414288E+002
+2.07301627034E+007, +1.13094787463E+001, +5.08098235427E+002
+2.08551939925E+007, +1.19719412631E+001, +5.11751714505E+002
+2.09802252816E+007, +1.24512009125E+001, +5.16089269653E+002
+2.11052565707E+007, +1.09953108785E+001, +5.20028432354E+002
+2.12302878598E+007, +1.20802510465E+001, +5.22954949041E+002
+2.13553191489E+007, +1.04865609161E+001, +5.26398171569E+002
+2.14803504380E+007, +1.10896228458E+001, +5.30243558887E+002
+2.16053817272E+007, +1.14174547139E+001, +5.34342177741E+002
+2.17304130163E+007, +1.33530086530E+001, +5.37789731648E+002
+2.18554443054E+007, +1.22526567304E+001, +5.39617678808E+002
+2.19804755945E+007, +1.13155929712E+001, +5.43598987083E+002
+2.21055068836E+007, +1.18345152349E+001, +5.46304596785E+002
+2.22305381727E+007, +1.11120201495E+001, +5.52096097273E+002
+2.23555694618E+007, +1.17137548868E+001, +5.54978359344E+002
+2.24806007509E+007, +1.17128914210E+001, +5.58979763732E+002
+2.26056320401E+007, +1.39508819726E+001, +5.61593703798E+002
+2.27306633292E+007, +1.16685208274E+001, +5.65317048762E+002
+2.28556946183E+007, +1.32815038519E+001, +5.71610861419E+002
+2.29807259074E+007, +1.32905420318E+001, +5.73283640947E+002
+2.31057571965E+007, +1.53417753497E+001, +5.76171729557E+002
+2.32307884856E+007, +1.53399555202E+001, +5.78136478763E+002
+2.33558197747E+007, +1.30939271806E+001, +5.85479351682E+002
+2.34808510638E+007, +1.49146652756E+001, +5.85727003929E+002
+2.36058823529E+007, +1.54448841856E+001, +5.93236065999E+002
+2.37309136421E+007, +1.57243059620E+001, +5.96192547935E+002
+2.38559449312E+007, +1.58186657216E+001, +5.98465124398E+002
+2.39809762203E+007, +1.78303922895E+001, +6.02241385059E+002
+2.41060075094E+007, +1.57716256463E+001, +6.06929827920E+002
+2.42310387985E+007, +1.70319341742E+001, +6.10477620092E+002
+2.43560700876E+007, +1.68401852496E+001, +6.12855056245E+002
+2.44811013767E+007, +1.52964846444E+001, +6.18649693989E+002
+2.46061326658E+007, +1.65741550458E+001, +6.21341115893E+002
+2.47311639549E+007, +1.55478118004E+001, +6.23819742868E+002
+2.48561952441E+007, +1.56198516302E+001, +6.28892039421E+002
+2.49812265332E+007, +1.74859686392E+001, +6.32739535194E+002
+2.51062578223E+007, +1.75719008718E+001, +6.36876654815E+002
+2.52312891114E+007, +1.74290541781E+001, +6.38424628567E+002
+2.53563204005E+007, +1.73151098045E+001, +6.44111440574E+002
+2.54813516896E+007, +1.70297389988E+001, +6.45969572442E+002
+2.56063829787E+007, +1.83747460621E+001, +6.48204935058E+002
+2.57314142678E+007, +1.88914142681E+001, +6.56632770617E+002
+2.58564455569E+007, +1.74652944127E+001, +6.58440121248E+002
+2.59814768461E+007, +1.84683160379E+001, +6.61930818474E+002
+2.61065081352E+007, +2.00490548603E+001, +6.66120070400E+002
+2.62315394243E+007, +1.99201649721E+001, +6.72025490861E+002
+2.63565707134E+007, +2.00878429940E+001, +6.77057102926E+002
+2.64816020025E+007, +1.87130579302E+001, +6.77650366809E+002
+2.66066332916E+007, +2.08287208502E+001, +6.81771446275E+002
+2.67316645807E+007, +2.12870335155E+001, +6.86631722944E+002
+2.68566958698E+007, +2.10786552970E+001, +6.90545498341E+002
+2.69817271589E+007, +2.05580766655E+001, +6.95825474608E+002
+2.71067584481E+007, +2.28723784042E+001, +6.96791036254E+002
+2.72317897372E+007, +2.12393338438E+001, +7.02056903332E+002
+2.73568210263E+007, +1.99364844160E+001, +7.04444568167E+002
+2.74818523154E+007, +2.19851609777E+001, +7.10914214464E+002
+2.76068836045E+007, +2.20641658348E+001, +7.12275813725E+002
+2.77319148936E+007, +2.19015129707E+001, +7.16979029845E+002
+2.78569461827E+007, +2.16584152345E+001, +7.21648042207E+002
+2.79819774718E+007, +2.14804548724E+001, +7.23741798333E+002
+2.81070087610E+007, +2.45999960658E+001, +7.31420764129E+002
+2.82320400501E+007, +2.25617724227E+001, +7.33601230843E+002
+2.83570713392E+007, +2.17501668287E+001, +7.37546133633E+002
+2.84821026283E+007, +2.37144781018E+001, +7.43869692736E+002
+2.86071339174E+007, +1.85380799249E+001, +7.48471737869E+002
+2.87321652065E+007, +2.39417422367E+001, +7.48598138298E+002
+2.88571964956E+007, +2.33986562275E+001, +7.52303040809E+002
+2.89822277847E+007, +2.39275302469E+001, +7.58340652186E+002
+2.91072590738E+007, +2.33371025070E+001, +7.59807255143E+002
+2.92322903630E+007, +2.20442207372E+001, +7.67086234414E+002
+2.93573216521E+007, +2.74282892033E+001, +7.67816780846E+002
+2.94823529412E+007, +2.18463910812E+001, +7.78992525184E+002
+2.96073842303E+007, +2.29508778596E+001, +7.79609377580E+002
+2.97324155194E+007, +2.47180256677E+001, +7.82307434124E+002
+2.98574468085E+007, +2.22614231104E+001, +7.91088193774E+002
+2.99824780976E+007, +2.62441511971E+001, +7.91952480317E+002
+3.01075093867E+007, +2.72583332373E+001, +7.95720343270E+002
+3.02325406758E+007, +2.52197917844E+001, +7.99483306862E+002
+3.03575719650E+007, +2.29512676832E+001, +8.05518835755E+002
+3.04826032541E+007, +2.58132789171E+001, +8.09315485772E+002
+3.06076345432E+007, +2.26339274532E+001, +8.13119068456E+002
+3.07326658323E+007, +2.69872495883E+001, +8.18189646946E+002
+3.08576971214E+007, +2.46882224793E+001, +8.22333800918E+002
+3.09827284105E+007, +2.49753541053E+001, +8.29505900421E+002
+3.11077596996E+007, +2.40473120067E+001, +8.34522025615E+002
+3.12327909887E+007, +2.52753815175E+001, +8.37791458858E+002
+3.13578222778E+007, +2.36817438368E+001, +8.44739789357E+002
+3.14828535670E+007, +2.43729562571E+001, +8.45997484937E+002
+3.16078848561E+007, +2.65414305385E+001, +8.50231370489E+002
+3.17329161452E+007, +2.50573741456E+001, +8.52678510655E+002
+3.18579474343E+007, +2.39635969915E+001, +8.58633789847E+002
+3.19829787234E+007, +2.29187801498E+001, +8.67941251846E+002
+3.21080100125E+007, +2.61384696212E+001, +8.68457103040E+002
+3.22330413016E+007, +2.48106014630E+001, +8.73957566351E+002
+3.23580725907E+007, +2.46146406732E+001, +8.77641048440E+002
+3.24831038798E+007, +2.65256393563E+001, +8.87266500430E+002
+3.26081351690E+007, +2.89585165187E+001, +8.88161704033E+002
+3.27331664581E+007, +2.76538960066E+001, +8.96810739574E+002
+3.28581977472E+007, +2.37621513851E+001, +8.98161291994E+002
+3.29832290363E+007, +2.38813775634E+001, +9.02533257932E+002
+3.31082603254E+007, +2.98610172951E+001, +9.10750560760E+002
+3.32332916145E+007, +2.80928532159E+001, +9.16050303275E+002
+3.33583229036E+007, +2.36366506346E+001, +9.21093768181E+002
+3.34833541927E+007, +2.79200666568E+001, +9.24390974348E+002
+3.36083854819E+007, +2.57810575409E+001, +9.29775810859E+002
+3.37334167710E+007, +2.83904340013E+001, +9.29552996606E+002
+3.38584480601E+007, +2.49332881382E+001, +9.40409450741E+002
+3.39834793492E+007, +2.38776391412E+001, +9.43867461177E+002
+3.41085106383E+007, +2.90179869597E+001, +9.51930446845E+002
+3.42335419274E+007, +2.84083819213E+001, +9.54165110729E+002
+3.43585732165E+007, +2.65427429283E+001, +9.63016580844E+002
+3.44836045056E+007, +2.45906454601E+001, +9.65602351711E+002
+3.46086357947E+007, +3.16870674261E+001, +9.74169193566E+002
+3.47336670839E+007, +2.71368536619E+001, +9.79556931266E+002
+3.48586983730E+007, +2.62890212898E+001, +9.83279511483E+002
+3.49837296621E+007, +3.21965060326E+001, +9.83836170220E+002
+3.51087609512E+007, +2.40270602853E+001, +9.96069642060E+002
+3.52337922403E+007, +2.89399157661E+001, +9.98532481277E+002
+3.53588235294E+007, +2.71833706186E+001, +1.00534376520E+003
+3.54838548185E+007, +2.96000524120E+001, +1.01193294996E+003
+3.56088861076E+007, +3.07921740636E+001, +1.01756058183E+003
+3.57339173967E+007, +2.60541712987E+001, +1.02603277596E+003
+3.58589486859E+007, +3.31547714889E+001, +1.02926265057E+003
+3.59839799750E+007, +2.80496424137E+001, +1.03847590499E+003
+3.61090112641E+007, +2.76907237981E+001, +1.04148011603E+003
+3.62340425532E+007, +2.57338002265E+001, +1.04661760896E+003
+3.63590738423E+007, +3.48787280434E+001, +1.05046219470E+003
+3.64841051314E+007, +2.42272825254E+001, +1.06505769817E+003
+3.66091364205E+007, +2.57755997320E+001, +1.06551204908E+003
+3.67341677096E+007, +3.01920652484E+001, +1.07814516991E+003
+3.68591989987E+007, +3.04427319143E+001, +1.08752101407E+003
+3.69842302879E+007, +2.37420310536E+001, +1.09000687816E+003
+3.71092615770E+007, +2.91407484572E+001, +1.09192440017E+003
+3.72342928661E+007, +2.65907174450E+001, +1.09989792871E+003
+3.73593241552E+007, +2.56036919790E+001, +1.10320211624E+003
+3.74843554443E+007, +2.74251337852E+001, +1.11458477424E+003
+3.76093867334E+007, +2.42471597130E+001, +1.11800873423E+003
+3.77344180225E+007, +3.45937694303E+001, +1.12759908603E+003
+3.78594493116E+007, +2.93505622217E+001, +1.13465005606E+003
+3.79844806008E+007, +2.91450875420E+001, +1.13918532596E+003
+3.81095118899E+007, +2.69189152871E+001, +1.15026376198E+003
+3.82345431790E+007, +2.69412904620E+001, +1.15533495539E+003
+3.83595744681E+007, +2.80316082038E+001, +1.16109300611E+003
+3.84846057572E+007, +3.03200401235E+001, +1.16635453124E+003
+3.86096370463E+007, +2.42161741919E+001, +1.17891667121E+003
+3.87346683354E+007, +3.14743831834E+001, +1.17961984765E+003
+3.88596996245E+007, +3.25734210256E+001, +1.19533382555E+003
+3.89847309136E+007, +3.66728685778E+001, +1.20441712104E+003
+3.91097622028E+007, +3.02613173030E+001, +1.20943315686E+003
+3.92347934919E+007, +3.35902499947E+001, +1.21922176012E+003
+3.93598247810E+007, +3.30122401930E+001, +1.22727845888E+003
+3.94848560701E+007, +3.84114730608E+001, +1.23037779513E+003
+3.96098873592E+007, +3.26087796153E+001, +1.24027264465E+003
+3.97349186483E+007, +3.47542253375E+001, +1.24632793726E+003
+3.98599499374E+007, +2.81317646831E+001, +1.25707368959E+003
+3.99849812265E+007, +4.17041099207E+001, +1.26765285998E+003
+4.01100125156E+007, +3.81668306910E+001, +1.27292455787E+003
