"# Channel 1"
"# Trace 1"
Frequency, Formatted Data, Formatted Data
+1.00000000000E+005, +5.18574976970E+001, +2.09426306450E+000
+2.66777963272E+005, +5.17874822006E+001, +6.32209850188E+000
+4.33555926544E+005, +5.17518731961E+001, +1.02697554258E+001
+6.00333889816E+005, +5.17851098047E+001, +1.43002863881E+001
+7.67111853088E+005, +5.18168561177E+001, +1.82078558665E+001
+9.33889816361E+005, +5.18114752961E+001, +2.21302224042E+001
+1.10066777963E+006, +5.18701792114E+001, +2.62845874078E+001
+1.26744574290E+006, +5.17965784161E+001, +3.00899268705E+001
+1.43422370618E+006, +5.18843329810E+001, +3.42103150197E+001
+1.60100166945E+006, +5.17891017971E+001, +3.81380295321E+001
+1.76777963272E+006, +5.19232094796E+001, +4.20290706637E+001
+1.93455759599E+006, +5.17620823114E+001, +4.60642572573E+001
+2.10133555927E+006, +5.18472904934E+001, +4.99993512138E+001
+2.26811352254E+006, +5.19372047412E+001, +5.39652795890E+001
+2.43489148581E+006, +5.19921111191E+001, +5.79214313597E+001
+2.60166944908E+006, +5.19550077224E+001, +6.19072958623E+001
+2.76844741235E+006, +5.19698786984E+001, +6.60748356644E+001
+2.93522537563E+006, +5.19941288824E+001, +6.99955782372E+001
+3.10200333890E+006, +5.20093422832E+001, +7.39173119372E+001
+3.26878130217E+006, +5.19103874920E+001, +7.80446233286E+001
+3.43555926544E+006, +5.20825312023E+001, +8.20062745982E+001
+3.60233722871E+006, +5.21936836472E+001, +8.60177567648E+001
+3.76911519199E+006, +5.21674748543E+001, +8.99672836568E+001
+3.93589315526E+006, +5.19630310065E+001, +9.39723605777E+001
+4.10267111853E+006, +5.19863221779E+001, +9.81051063393E+001
+4.26944908180E+006, +5.23788541326E+001, +1.02468885851E+002
+4.43622704508E+006, +5.22116579229E+001, +1.06245103144E+002
+4.60300500835E+006, +5.23334502875E+001, +1.10219238210E+002
+4.76978297162E+006, +5.21613665778E+001, +1.14347721084E+002
+4.93656093489E+006, +5.26505149805E+001, +1.18404172995E+002
+5.10333889816E+006, +5.24012224089E+001, +1.22208280378E+002
+5.27011686144E+006, +5.28901609417E+001, +1.26544660189E+002
+5.43689482471E+006, +5.27852698362E+001, +1.30522973902E+002
+5.60367278798E+006, +5.28284802377E+001, +1.34829592634E+002
+5.77045075125E+006, +5.27847552526E+001, +1.38696351449E+002
+5.93722871452E+006, +5.28317841357E+001, +1.42711235918E+002
+6.10400667780E+006, +5.28456624591E+001, +1.46973464059E+002
+6.27078464107E+006, +5.33176198853E+001, +1.50791114284E+002
+6.43756260434E+006, +5.34368691184E+001, +1.55048539246E+002
+6.60434056761E+006, +5.35874714139E+001, +1.58971230470E+002
+6.77111853088E+006, +5.37217093095E+001, +1.63153349703E+002
+6.93789649416E+006, +5.39158457662E+001, +1.67226682898E+002
+7.10467445743E+006, +5.37335287994E+001, +1.71432597576E+002
+7.27145242070E+006, +5.38810146626E+001, +1.75415144341E+002
+7.43823038397E+006, +5.39362278994E+001, +1.79510969838E+002
+7.60500834725E+006, +5.38133087182E+001, +1.83889727092E+002
+7.77178631052E+006, +5.41908396741E+001, +1.88086884975E+002
+7.93856427379E+006, +5.39474979776E+001, +1.92146303368E+002
+8.10534223706E+006, +5.42718326722E+001, +1.96217405288E+002
+8.27212020033E+006, +5.43910865533E+001, +2.00546473910E+002
+8.43889816361E+006, +5.44883383674E+001, +2.04990006672E+002
+8.60567612688E+006, +5.43336263542E+001, +2.09318640551E+002
+8.77245409015E+006, +5.42774923550E+001, +2.13580005808E+002
+8.93923205342E+006, +5.43962248686E+001, +2.17638264467E+002
+9.10601001669E+006, +5.45633637487E+001, +2.22340375265E+002
+9.27278797997E+006, +5.45445928234E+001, +2.26510663006E+002
+9.43956594324E+006, +5.45204197012E+001, +2.31003903586E+002
+9.60634390651E+006, +5.49830478508E+001, +2.35331435902E+002
+9.77312186978E+006, +5.48506436374E+001, +2.39691790633E+002
+9.93989983306E+006, +5.52859411885E+001, +2.43850509235E+002
+1.01066777963E+007, +5.48490668321E+001, +2.48156009627E+002
+1.02734557596E+007, +5.54103865492E+001, +2.52954438105E+002
+1.04402337229E+007, +5.51174031066E+001, +2.57351035042E+002
+1.06070116861E+007, +5.51926821138E+001, +2.61859256550E+002
+1.07737896494E+007, +5.55554782174E+001, +2.66473249939E+002
+1.09405676127E+007, +5.59055182299E+001, +2.70628349316E+002
+1.11073455760E+007, +5.60160249376E+001, +2.75320074911E+002
+1.12741235392E+007, +5.61363548740E+001, +2.79805466555E+002
+1.14409015025E+007, +5.63792963998E+001, +2.84019479351E+002
+1.16076794658E+007, +5.62364986086E+001, +2.89081106482E+002
+1.17744574290E+007, +5.63483218794E+001, +2.93453696120E+002
+1.19412353923E+007, +5.63094676525E+001, +2.98866240474E+002
+1.21080133556E+007, +5.63574789968E+001, +3.03250324536E+002
+1.22747913189E+007, +5.70938232753E+001, +3.07775226790E+002
+1.24415692821E+007, +5.66984390683E+001, +3.12438534346E+002
+1.26083472454E+007, +5.68007300412E+001, +3.17482332014E+002
+1.27751252087E+007, +5.73302920340E+001, +3.21660565617E+002
+1.29419031720E+007, +5.72316180960E+001, +3.26319703238E+002
+1.31086811352E+007, +5.73691362778E+001, +3.31289959780E+002
+1.32754590985E+007, +5.72930009978E+001, +3.35873811413E+002
+1.34422370618E+007, +5.76909818789E+001, +3.40727116626E+002
+1.36090150250E+007, +5.84721984446E+001, +3.45480571964E+002
+1.37757929883E+007, +5.82047007786E+001, +3.50914446166E+002
+1.39425709516E+007, +5.85806411171E+001, +3.55302399134E+002
+1.41093489149E+007, +5.84893299988E+001, +3.60355662672E+002
+1.42761268781E+007, +5.88803952797E+001, +3.65338395094E+002
+1.44429048414E+007, +5.89911594359E+001, +3.69744233384E+002
+1.46096828047E+007, +5.94033275718E+001, +3.75370107488E+002
+1.47764607679E+007, +5.93038221863E+001, +3.79793270602E+002
+1.49432387312E+007, +5.99115474710E+001, +3.85088916182E+002
+1.51100166945E+007, +5.99441964481E+001, +3.90496470873E+002
+1.52767946578E+007, +6.13685038944E+001, +3.95426267837E+002
+1.54435726210E+007, +6.07192497330E+001, +4.00381410265E+002
+1.56103505843E+007, +6.14934630236E+001, +4.05991917065E+002
+1.57771285476E+007, +6.13519520948E+001, +4.10512317421E+002
+1.59439065109E+007, +6.19154230723E+001, +4.15029588424E+002
+1.61106844741E+007, +6.15794631839E+001, +4.21172794409E+002
+1.62774624374E+007, +6.22058665063E+001, +4.26427686317E+002
+1.64442404007E+007, +6.20172946256E+001, +4.30956935781E+002
+1.66110183639E+007, +6.28671891657E+001, +4.36364235706E+002
+1.67777963272E+007, +6.27086328662E+001, +4.43114087739E+002
+1.69445742905E+007, +6.38238088830E+001, +4.47736932730E+002
+1.71113522538E+007, +6.07720506580E+001, +4.52840414134E+002
+1.72781302170E+007, +6.36088239700E+001, +4.58232874775E+002
+1.74449081803E+007, +6.28304423413E+001, +4.63528163420E+002
+1.76116861436E+007, +6.38911579058E+001, +4.69708082970E+002
+1.77784641068E+007, +6.37038880914E+001, +4.73870307081E+002
+1.79452420701E+007, +6.53386856125E+001, +4.80661163865E+002
+1.81120200334E+007, +6.45663320638E+001, +4.85336108909E+002
+1.82787979967E+007, +6.54906930420E+001, +4.92017767643E+002
+1.84455759599E+007, +6.60200876142E+001, +4.97570637277E+002
+1.86123539232E+007, +6.63715318620E+001, +5.02508066410E+002
+1.87791318865E+007, +6.55590148413E+001, +5.10317619774E+002
+1.89459098497E+007, +6.76480920169E+001, +5.15995560837E+002
+1.91126878130E+007, +6.74366071458E+001, +5.21232141260E+002
+1.92794657763E+007, +6.70481053616E+001, +5.27231871776E+002
+1.94462437396E+007, +6.95644930673E+001, +5.32457795704E+002
+1.96130217028E+007, +6.80693797364E+001, +5.39245030496E+002
+1.97797996661E+007, +6.83921514827E+001, +5.44095951212E+002
+1.99465776294E+007, +6.77140077619E+001, +5.50394962201E+002
+2.01133555927E+007, +6.98028435434E+001, +5.58205283905E+002
+2.02801335559E+007, +6.93795344361E+001, +5.65019682507E+002
+2.04469115192E+007, +7.12319811653E+001, +5.71393891450E+002
+2.06136894825E+007, +6.98014607112E+001, +5.77582595389E+002
+2.07804674457E+007, +7.17443132011E+001, +5.83105031248E+002
+2.09472454090E+007, +7.33058085997E+001, +5.91747775301E+002
+2.11140233723E+007, +7.39854051457E+001, +5.96311716870E+002
+2.12808013356E+007, +7.33839487169E+001, +6.01498303015E+002
+2.14475792988E+007, +7.52408332161E+001, +6.10078708570E+002
+2.16143572621E+007, +7.58595941149E+001, +6.16004749601E+002
+2.17811352254E+007, +7.53569161969E+001, +6.21939269631E+002
+2.19479131886E+007, +7.72225167813E+001, +6.28690575241E+002
+2.21146911519E+007, +7.87807970375E+001, +6.34121921501E+002
+2.22814691152E+007, +7.92702122682E+001, +6.42346230410E+002
+2.24482470785E+007, +8.04074273781E+001, +6.51404134428E+002
+2.26150250417E+007, +8.17442472437E+001, +6.57312299795E+002
+2.27818030050E+007, +8.19555941027E+001, +6.62776189603E+002
+2.29485809683E+007, +8.78923527293E+001, +6.70033414934E+002
+2.31153589316E+007, +8.22407509407E+001, +6.79790983340E+002
+2.32821368948E+007, +8.58658779987E+001, +6.85826863138E+002
+2.34489148581E+007, +8.52787777134E+001, +6.90551421883E+002
+2.36156928214E+007, +8.71238508598E+001, +6.98505922427E+002
+2.37824707846E+007, +8.85344727541E+001, +7.07453282291E+002
+2.39492487479E+007, +8.98087597338E+001, +7.14150955524E+002
+2.41160267112E+007, +9.02125037879E+001, +7.20631231526E+002
+2.42828046745E+007, +9.12654855315E+001, +7.29758943697E+002
+2.44495826377E+007, +9.51992533846E+001, +7.36150338942E+002
+2.46163606010E+007, +9.20415285868E+001, +7.45752135329E+002
+2.47831385643E+007, +9.26598899721E+001, +7.54346676871E+002
+2.49499165275E+007, +9.85425423975E+001, +7.57608869616E+002
+2.51166944908E+007, +1.00643520847E+002, +7.67904835472E+002
+2.52834724541E+007, +9.80320399802E+001, +7.74829822951E+002
+2.54502504174E+007, +1.00528860908E+002, +7.84375920656E+002
+2.56170283806E+007, +1.01392507272E+002, +7.91371307270E+002
+2.57838063439E+007, +1.01828787095E+002, +8.02232901773E+002
+2.59505843072E+007, +1.05654469784E+002, +8.12282042955E+002
+2.61173622705E+007, +1.04196170701E+002, +8.16463886494E+002
+2.62841402337E+007, +1.04893016209E+002, +8.23966096673E+002
+2.64509181970E+007, +1.07090200938E+002, +8.34829059729E+002
+2.66176961603E+007, +1.09064298550E+002, +8.45816265960E+002
+2.67844741235E+007, +1.08507771906E+002, +8.51337302313E+002
+2.69512520868E+007, +1.12244435124E+002, +8.57612809501E+002
+2.71180300501E+007, +1.11462404254E+002, +8.61723899814E+002
+2.72848080134E+007, +1.13872825987E+002, +8.74458135547E+002
+2.74515859766E+007, +1.16658527304E+002, +8.85839659616E+002
+2.76183639399E+007, +1.14550938248E+002, +8.93765882860E+002
+2.77851419032E+007, +1.13776847677E+002, +9.03223679163E+002
+2.79519198664E+007, +1.20263096174E+002, +9.10345543594E+002
+2.81186978297E+007, +1.22644509516E+002, +9.17185080843E+002
+2.82854757930E+007, +1.21172352324E+002, +9.26676141485E+002
+2.84522537563E+007, +1.17572642279E+002, +9.40595312880E+002
+2.86190317195E+007, +1.22342244464E+002, +9.46835195642E+002
+2.87858096828E+007, +1.30512500893E+002, +9.58614992387E+002
+2.89525876461E+007, +1.28085869788E+002, +9.67608158952E+002
+2.91193656093E+007, +1.22782995163E+002, +9.77897445305E+002
+2.92861435726E+007, +1.24720398576E+002, +9.90159662919E+002
+2.94529215359E+007, +1.27252357989E+002, +1.00312627393E+003
+2.96196994992E+007, +1.34995252565E+002, +1.01119207586E+003
+2.97864774624E+007, +1.34726936563E+002, +1.01990846722E+003
+2.99532554257E+007, +1.38159559065E+002, +1.03486446069E+003
+3.01200333890E+007, +1.35813651185E+002, +1.04399664652E+003
+3.02868113523E+007, +1.35337027355E+002, +1.05739301226E+003
+3.04535893155E+007, +1.33939722886E+002, +1.06641814214E+003
+3.06203672788E+007, +1.35351981407E+002, +1.08010272171E+003
+3.07871452421E+007, +1.39993246821E+002, +1.09014717603E+003
+3.09539232053E+007, +1.39522107408E+002, +1.10501693218E+003
+3.11207011686E+007, +1.47388319718E+002, +1.12314287067E+003
+3.12874791319E+007, +1.45160018643E+002, +1.12089143000E+003
+3.14542570952E+007, +1.47549937597E+002, +1.13734350034E+003
+3.16210350584E+007, +1.51424762579E+002, +1.15511084613E+003
+3.17878130217E+007, +1.51955614645E+002, +1.17062252846E+003
+3.19545909850E+007, +1.55546070525E+002, +1.17839544884E+003
+3.21213689482E+007, +1.47090857950E+002, +1.19758583217E+003
+3.22881469115E+007, +1.52569835423E+002, +1.21110677842E+003
+3.24549248748E+007, +1.55211944184E+002, +1.22791955282E+003
+3.26217028381E+007, +1.57412720430E+002, +1.24531706406E+003
+3.27884808013E+007, +1.64531378356E+002, +1.25890591082E+003
+3.29552587646E+007, +1.70477555670E+002, +1.26158354777E+003
+3.31220367279E+007, +1.71601685523E+002, +1.28518707094E+003
+3.32888146912E+007, +1.72736863002E+002, +1.30208742516E+003
+3.34555926544E+007, +1.69554392559E+002, +1.32634399032E+003
+3.36223706177E+007, +1.77601672250E+002, +1.32801801263E+003
+3.37891485810E+007, +1.76431696848E+002, +1.34727242138E+003
+3.39559265442E+007, +1.77699629016E+002, +1.37365699937E+003
+3.41227045075E+007, +1.82196832214E+002, +1.38715910618E+003
+3.42894824708E+007, +1.85448509920E+002, +1.40836146391E+003
+3.44562604341E+007, +1.89823483749E+002, +1.42654188267E+003
+3.46230383973E+007, +2.02903482151E+002, +1.44431674983E+003
+3.47898163606E+007, +1.99150088572E+002, +1.45613229848E+003
+3.49565943239E+007, +2.10965135977E+002, +1.47773453443E+003
+3.51233722871E+007, +2.07213187264E+002, +1.49941481931E+003
+3.52901502504E+007, +2.12578397352E+002, +1.51467594481E+003
+3.54569282137E+007, +2.08550837496E+002, +1.54549067419E+003
+3.56237061770E+007, +2.21932555747E+002, +1.56859416798E+003
+3.57904841402E+007, +2.20022425860E+002, +1.59266062807E+003
+3.59572621035E+007, +2.35303539374E+002, +1.61490367851E+003
+3.61240400668E+007, +2.23683439786E+002, +1.62631643914E+003
+3.62908180301E+007, +2.45252809548E+002, +1.66663909588E+003
+3.64575959933E+007, +2.31314502327E+002, +1.68407388805E+003
+3.66243739566E+007, +2.44914039069E+002, +1.69932180355E+003
+3.67911519199E+007, +2.62213824952E+002, +1.73071053006E+003
+3.69579298831E+007, +2.57508395438E+002, +1.73985132482E+003
+3.71247078464E+007, +2.63897495569E+002, +1.77843588682E+003
+3.72914858097E+007, +2.73304989763E+002, +1.82004090056E+003
+3.74582637730E+007, +2.94503756035E+002, +1.84379727785E+003
+3.76250417362E+007, +2.85092087217E+002, +1.85664589696E+003
+3.77918196995E+007, +2.87921420743E+002, +1.90387283959E+003
+3.79585976628E+007, +2.98148674102E+002, +1.92416770261E+003
+3.81253756260E+007, +3.22061942491E+002, +1.95948852371E+003
+3.82921535893E+007, +3.25253240746E+002, +1.98452898703E+003
+3.84589315526E+007, +3.43367397590E+002, +2.02921009246E+003
+3.86257095159E+007, +3.47625573076E+002, +2.06615407465E+003
+3.87924874791E+007, +3.33983654992E+002, +2.10048725684E+003
+3.89592654424E+007, +3.72133659850E+002, +2.12912981345E+003
+3.91260434057E+007, +3.84182434895E+002, +2.19003640940E+003
+3.92928213689E+007, +4.00183145484E+002, +2.20309367831E+003
+3.94595993322E+007, +4.14324738066E+002, +2.26466407988E+003
+3.96263772955E+007, +3.95170037358E+002, +2.29476311363E+003
+3.97931552588E+007, +4.20482620151E+002, +2.31869865743E+003
+3.99599332220E+007, +4.56964748703E+002, +2.37956060441E+003
+4.01267111853E+007, +4.64534874641E+002, +2.43975673922E+003
+4.02934891486E+007, +4.54366231739E+002, +2.49409235461E+003
+4.04602671119E+007, +4.97556888259E+002, +2.50090858458E+003
+4.06270450751E+007, +5.10357859613E+002, +2.57659557182E+003
+4.07938230384E+007, +5.63210762095E+002, +2.61420373714E+003
+4.09606010017E+007, +5.68815317329E+002, +2.69894982185E+003
+4.11273789649E+007, +5.82673186320E+002, +2.74269941515E+003
+4.12941569282E+007, +6.22554779280E+002, +2.81571354578E+003
+4.14609348915E+007, +6.57934969620E+002, +2.90716157773E+003
+4.16277128548E+007, +6.71442759622E+002, +2.91783730916E+003
+4.17944908180E+007, +6.80422250434E+002, +2.96918585504E+003
+4.19612687813E+007, +7.02234480341E+002, +3.09556313379E+003
+4.21280467446E+007, +7.62375953000E+002, +3.18286147200E+003
+4.22948247078E+007, +8.08276816978E+002, +3.27384483501E+003
+4.24616026711E+007, +8.34182018606E+002, +3.28002194427E+003
+4.26283806344E+007, +9.32030319868E+002, +3.39350671828E+003
+4.27951585977E+007, +9.06791273675E+002, +3.52209747474E+003
+4.29619365609E+007, +1.03539685442E+003, +3.55178418907E+003
+4.31287145242E+007, +1.11807259386E+003, +3.70891036229E+003
+4.32954924875E+007, +1.12226919842E+003, +3.80088229389E+003
+4.34622704508E+007, +1.11172859791E+003, +3.94040635504E+003
+4.36290484140E+007, +1.26617312497E+003, +4.02269686250E+003
+4.37958263773E+007, +1.38538160707E+003, +4.18187710384E+003
+4.39626043406E+007, +1.53096475273E+003, +4.30262355780E+003
+4.41293823038E+007, +1.64227796576E+003, +4.39454614292E+003
+4.42961602671E+007, +1.67687981367E+003, +4.66383265991E+003
+4.44629382304E+007, +1.78514716162E+003, +4.63519949508E+003
+4.46297161937E+007, +2.06106815396E+003, +4.77395514907E+003
+4.47964941569E+007, +2.12469861221E+003, +4.95476323437E+003
+4.49632721202E+007, +2.19714149191E+003, +5.32941321118E+003
+4.51300500835E+007, +2.47826711975E+003, +5.41110149863E+003
+4.52968280467E+007, +2.75348773937E+003, +5.60870676455E+003
+4.54636060100E+007, +3.25292222418E+003, +5.89246587958E+003
+4.56303839733E+007, +3.47155676256E+003, +6.12233370432E+003
+4.57971619366E+007, +4.00906395117E+003, +6.07791795103E+003
+4.59639398998E+007, +4.70166302042E+003, +6.60673748632E+003
+4.61307178631E+007, +4.82152789040E+003, +6.55140815568E+003
+4.62974958264E+007, +5.51356982556E+003, +6.74103728360E+003
+4.64642737896E+007, +6.04807771762E+003, +6.86642266937E+003
+4.66310517529E+007, +6.78612770260E+003, +6.70080866479E+003
+4.67978297162E+007, +7.15799905728E+003, +5.92104497119E+003
+4.69646076795E+007, +8.98046098846E+003, +6.40589002161E+003
+4.71313856427E+007, +9.48338226397E+003, +6.16917402065E+003
+4.72981636060E+007, +1.07963847400E+004, +5.04270434937E+003
+4.74649415693E+007, +1.16138554126E+004, +4.16523188146E+003
+4.76317195326E+007, +1.17702732351E+004, +2.96703080867E+003
+4.77984974958E+007, +1.19275138048E+004, +1.74175316092E+003
+4.79652754591E+007, +1.21850618994E+004, +4.36748183033E+002
+4.81320534224E+007, +1.17073513664E+004, +1.49244826491E+002
+4.82988313856E+007, +1.17842205048E+004, -1.62417328382E+003
+4.84656093489E+007, +1.09139283527E+004, -1.90096575249E+003
+4.86323873122E+007, +1.00675789228E+004, -3.18527710554E+003
+4.87991652755E+007, +9.38693438105E+003, -3.90095866720E+003
+4.89659432387E+007, +9.25394148497E+003, -4.28142749871E+003
+4.91327212020E+007, +7.89334584041E+003, -4.31573021420E+003
+4.92994991653E+007, +7.68701732111E+003, -4.63441401236E+003
+4.94662771285E+007, +6.74208678888E+003, -4.66571694372E+003
+4.96330550918E+007, +6.46514168456E+003, -4.70577848755E+003
+4.97998330551E+007, +5.96540973380E+003, -4.64272805488E+003
+4.99666110184E+007, +5.45565743733E+003, -4.73088335538E+003
+5.01333889816E+007, +5.13683853864E+003, -4.64213945880E+003
+5.03001669449E+007, +4.92480343865E+003, -4.83582106763E+003
+5.04669449082E+007, +4.38671096461E+003, -4.68417647493E+003
+5.06337228715E+007, +4.19183850850E+003, -4.35542529396E+003
+5.08005008347E+007, +4.03407100293E+003, -4.58689723101E+003
+5.09672787980E+007, +3.80330535090E+003, -4.51595744057E+003
+5.11340567613E+007, +3.49416124773E+003, -4.35393582541E+003
+5.13008347245E+007, +3.25339657013E+003, -4.45290401065E+003
+5.14676126878E+007, +3.22442827910E+003, -4.36069328193E+003
+5.16343906511E+007, +2.94744364406E+003, -4.30496703995E+003
+5.18011686144E+007, +2.81024103319E+003, -4.34143120438E+003
+5.19679465776E+007, +2.66488054201E+003, -4.22394624333E+003
+5.21347245409E+007, +2.41878895508E+003, -4.13140323362E+003
+5.23015025042E+007, +2.17786272693E+003, -3.91964947740E+003
+5.24682804674E+007, +2.03601041874E+003, -4.00507695270E+003
+5.26350584307E+007, +1.94032623316E+003, -3.90435457396E+003
+5.28018363940E+007, +1.67133088936E+003, -3.80724858152E+003
+5.29686143573E+007, +1.61844312679E+003, -3.69408194696E+003
+5.31353923205E+007, +1.50325557114E+003, -3.70553593510E+003
+5.33021702838E+007, +1.40992217276E+003, -3.52148955687E+003
+5.34689482471E+007, +1.28568296102E+003, -3.38050413039E+003
