"# Channel 1"
"# Trace 1"
Frequency, Formatted Data, Formatted Data
+1.00000000000E+006, +5.19815257436E-001, +2.26658389004E+001
+1.16527545910E+006, +5.73864402324E-001, +2.63983325370E+001
+1.33055091820E+006, +6.83011706975E-001, +2.99677861207E+001
+1.49582637730E+006, +6.35662833614E-001, +3.37324124895E+001
+1.66110183639E+006, +6.64977727717E-001, +3.74115194660E+001
+1.82637729549E+006, +6.55430536460E-001, +4.10720569922E+001
+1.99165275459E+006, +7.25179933368E-001, +4.47568823565E+001
+2.15692821369E+006, +7.04802576974E-001, +4.84290409800E+001
+2.32220367279E+006, +6.22956745189E-001, +5.21582657753E+001
+2.48747913189E+006, +7.15924668302E-001, +5.58485414752E+001
+2.65275459098E+006, +6.31744752941E-001, +5.95575626761E+001
+2.81803005008E+006, +6.14387408953E-001, +6.32807937016E+001
+2.98330550918E+006, +5.91405335726E-001, +6.68775342923E+001
+3.14858096828E+006, +7.16684776363E-001, +7.05392493129E+001
+3.31385642738E+006, +8.57109283482E-001, +7.42698920847E+001
+3.47913188648E+006, +6.76319394133E-001, +7.81412735852E+001
+3.64440734558E+006, +7.39268461669E-001, +8.17167214466E+001
+3.80968280467E+006, +8.44230689641E-001, +8.53452883521E+001
+3.97495826377E+006, +9.48918100831E-001, +8.91062200316E+001
+4.14023372287E+006, +7.85555611583E-001, +9.30988302204E+001
+4.30550918197E+006, +8.48655968595E-001, +9.64085230025E+001
+4.47078464107E+006, +8.00481842399E-001, +1.00343069668E+002
+4.63606010017E+006, +6.46531442950E-001, +1.04076292334E+002
+4.80133555927E+006, +6.93745101372E-001, +1.07808821621E+002
+4.96661101836E+006, +7.92051496779E-001, +1.11445506192E+002
+5.13188647746E+006, +7.66027975817E-001, +1.15214533720E+002
+5.29716193656E+006, +7.84360219795E-001, +1.18676229017E+002
+5.46243739566E+006, +8.36549126708E-001, +1.22728194669E+002
+5.62771285476E+006, +9.16860353689E-001, +1.26495706944E+002
+5.79298831386E+006, +1.13104690236E+000, +1.30265408000E+002
+5.95826377295E+006, +1.06885126736E+000, +1.33875450545E+002
+6.12353923205E+006, +1.37886166051E+000, +1.37372520263E+002
+6.28881469115E+006, +1.14319538246E+000, +1.41319024465E+002
+6.45409015025E+006, +1.37280947126E+000, +1.45063674662E+002
+6.61936560935E+006, +1.24037912945E+000, +1.48778405446E+002
+6.78464106845E+006, +1.34110789419E+000, +1.52551344208E+002
+6.94991652755E+006, +1.34277644469E+000, +1.56335027537E+002
+7.11519198664E+006, +1.59391100604E+000, +1.60007266950E+002
+7.28046744574E+006, +1.43002283925E+000, +1.63835580636E+002
+7.44574290484E+006, +1.51414887846E+000, +1.67564644217E+002
+7.61101836394E+006, +1.60670882449E+000, +1.71265206368E+002
+7.77629382304E+006, +1.70404987036E+000, +1.74976333725E+002
+7.94156928214E+006, +1.39723821193E+000, +1.78710489766E+002
+8.10684474124E+006, +1.40661463225E+000, +1.82245521815E+002
+8.27212020033E+006, +1.57324493041E+000, +1.86195017537E+002
+8.43739565943E+006, +1.60457541660E+000, +1.90074831405E+002
+8.60267111853E+006, +1.39196377007E+000, +1.93668170987E+002
+8.76794657763E+006, +1.50192270949E+000, +1.97602489013E+002
+8.93322203673E+006, +1.33857262474E+000, +2.01501965922E+002
+9.09849749583E+006, +1.51631590139E+000, +2.05295911025E+002
+9.26377295492E+006, +1.22718559067E+000, +2.09337447864E+002
+9.42904841402E+006, +1.52478145144E+000, +2.12929033155E+002
+9.59432387312E+006, +1.34824412619E+000, +2.16519729042E+002
+9.75959933222E+006, +9.32634715627E-001, +2.20466214684E+002
+9.92487479132E+006, +1.47789937453E+000, +2.23959261122E+002
+1.00901502504E+007, +1.27239870030E+000, +2.28128809450E+002
+1.02554257095E+007, +1.05913527316E+000, +2.31669178591E+002
+1.04207011686E+007, +1.04717934016E+000, +2.35366082462E+002
+1.05859766277E+007, +1.21309026929E+000, +2.39856074940E+002
+1.07512520868E+007, +1.15098609167E+000, +2.43412116336E+002
+1.09165275459E+007, +9.76043459932E-001, +2.47442893647E+002
+1.10818030050E+007, +1.01361448726E+000, +2.51512886287E+002
+1.12470784641E+007, +9.74749003238E-001, +2.54890513191E+002
+1.14123539232E+007, +1.12850902794E+000, +2.58639295357E+002
+1.15776293823E+007, +1.35292799694E+000, +2.63135712398E+002
+1.17429048414E+007, +9.87429269549E-001, +2.66817699922E+002
+1.19081803005E+007, +1.01599503020E+000, +2.70721004913E+002
+1.20734557596E+007, +9.65758399893E-001, +2.74765254323E+002
+1.22387312187E+007, +4.30711760569E-001, +2.78623303621E+002
+1.24040066778E+007, +8.40133026300E-001, +2.82740323258E+002
+1.25692821369E+007, +4.69219873242E-001, +2.86124558588E+002
+1.27345575960E+007, +1.02176593902E+000, +2.90246672086E+002
+1.28998330551E+007, +8.56007061510E-001, +2.94185234062E+002
+1.30651085142E+007, +2.76480137977E-001, +2.98204034957E+002
+1.32303839733E+007, +1.50204329549E+000, +3.02396845552E+002
+1.33956594324E+007, +7.50748186486E-001, +3.06596417898E+002
+1.35609348915E+007, +1.07377905373E+000, +3.10157592253E+002
+1.37262103506E+007, +6.36918531243E-001, +3.13726854637E+002
+1.38914858097E+007, +1.17279456928E+000, +3.18112319467E+002
+1.40567612688E+007, +8.66863680893E-001, +3.22124783684E+002
+1.42220367279E+007, +3.98803212994E-001, +3.25980404257E+002
+1.43873121870E+007, +6.45178092990E-001, +3.30619108743E+002
+1.45525876461E+007, +6.63761839417E-001, +3.34663469911E+002
+1.47178631052E+007, +1.18716499297E+000, +3.38631390713E+002
+1.48831385643E+007, +9.47971473488E-001, +3.41900856710E+002
+1.50484140234E+007, +7.99119189402E-001, +3.45950303315E+002
+1.52136894825E+007, +7.85058098166E-001, +3.50492170006E+002
+1.53789649416E+007, +1.63134806191E-001, +3.54968608748E+002
+1.55442404007E+007, +5.50108484727E-001, +3.58243441036E+002
+1.57095158598E+007, +9.59222294392E-001, +3.63129178708E+002
+1.58747913189E+007, +1.07777635375E+000, +3.66734540477E+002
+1.60400667780E+007, +9.46055708127E-001, +3.70371505733E+002
+1.62053422371E+007, +6.51724670998E-001, +3.75058234819E+002
+1.63706176962E+007, +6.54183090793E-001, +3.78522825033E+002
+1.65358931553E+007, +1.05928445503E+000, +3.82193204879E+002
+1.67011686144E+007, +2.72843975227E+000, +3.86935672663E+002
+1.68664440735E+007, +1.01414655779E+000, +3.91006814410E+002
+1.70317195326E+007, +1.12065688314E-003, +3.96197245484E+002
+1.71969949917E+007, -7.05673443618E-001, +4.00694115104E+002
+1.73622704508E+007, +1.88861509153E-001, +4.04402200519E+002
+1.75275459098E+007, +2.55835423442E-001, +4.08009888870E+002
+1.76928213689E+007, +5.44668892178E-001, +4.13311102090E+002
+1.78580968280E+007, +1.73792987570E-001, +4.17094940749E+002
+1.80233722871E+007, +6.38713448135E-001, +4.20631032868E+002
+1.81886477462E+007, +2.59262137631E-001, +4.25491217866E+002
+1.83539232053E+007, +1.01906638849E+000, +4.28374023169E+002
+1.85191986644E+007, +1.01799173737E+000, +4.33373244871E+002
+1.86844741235E+007, +9.12576745848E-001, +4.37526246144E+002
+1.88497495826E+007, +9.60164773159E-001, +4.42085821287E+002
+1.90150250417E+007, +4.93240200749E-002, +4.47118896354E+002
+1.91803005008E+007, +7.21446738471E-001, +4.50640098700E+002
+1.93455759599E+007, +1.01363916767E+000, +4.54885652598E+002
+1.95108514190E+007, +2.02442125035E+000, +4.60055216270E+002
+1.96761268781E+007, +1.94162665278E+000, +4.63087574628E+002
+1.98414023372E+007, +2.36416055224E+000, +4.68881515252E+002
+2.00066777963E+007, +3.05879106960E-001, +4.72303681455E+002
+2.01719532554E+007, +1.34509026787E+000, +4.77380043555E+002
+2.03372287145E+007, +1.97042252557E+000, +4.82240469833E+002
+2.05025041736E+007, +2.02826558746E+000, +4.85328630979E+002
+2.06677796327E+007, +2.02781430742E+000, +4.91476587840E+002
+2.08330550918E+007, +1.07553884755E+000, +4.95117412168E+002
+2.09983305509E+007, +1.82212833119E+000, +4.99423656188E+002
+2.11636060100E+007, +1.40730975947E+000, +5.03687159233E+002
+2.13288814691E+007, +9.56879626261E-001, +5.09171758904E+002
+2.14941569282E+007, +9.92486780543E-001, +5.12436048477E+002
+2.16594323873E+007, +2.00480000187E+000, +5.17915182708E+002
+2.18247078464E+007, +2.68921366284E+000, +5.22803451979E+002
+2.19899833055E+007, +8.71762627424E-001, +5.27647489033E+002
+2.21552587646E+007, +6.16370718008E-001, +5.30319774187E+002
+2.23205342237E+007, +2.11913898298E+000, +5.36153819119E+002
+2.24858096828E+007, +1.40717895863E+000, +5.40678547123E+002
+2.26510851419E+007, +2.34707345599E+000, +5.44458558285E+002
+2.28163606010E+007, +1.48048475482E+000, +5.50505183065E+002
+2.29816360601E+007, +1.55525088032E+000, +5.52611029479E+002
+2.31469115192E+007, +4.32425458527E+000, +5.57863772265E+002
+2.33121869783E+007, +2.93856837427E+000, +5.63920412258E+002
+2.34774624374E+007, +3.00736475740E+000, +5.69635210830E+002
+2.36427378965E+007, +3.62020779249E+000, +5.74942906246E+002
+2.38080133556E+007, +3.12282749459E+000, +5.78327104801E+002
+2.39732888147E+007, +5.36013089444E+000, +5.84130608001E+002
+2.41385642738E+007, +5.05598398784E+000, +5.89601782338E+002
+2.43038397329E+007, +2.95741730405E+000, +5.93556714413E+002
+2.44691151920E+007, +4.61834286633E+000, +5.97362736222E+002
+2.46343906511E+007, +3.13900229462E+000, +6.03535540097E+002
+2.47996661102E+007, +2.14752599135E+000, +6.07768955650E+002
+2.49649415693E+007, +5.12616249454E+000, +6.14468243141E+002
+2.51302170284E+007, +3.29007670966E+000, +6.17905130493E+002
+2.52954924875E+007, +4.97262385376E+000, +6.22883494846E+002
+2.54607679466E+007, +6.19634432385E+000, +6.27443405151E+002
+2.56260434057E+007, +5.44931220197E+000, +6.30930900322E+002
+2.57913188648E+007, +5.70004144388E+000, +6.37028870345E+002
+2.59565943239E+007, +6.83040714582E+000, +6.39775574839E+002
+2.61218697830E+007, +6.48990647705E+000, +6.44694824964E+002
+2.62871452421E+007, +9.70920601927E+000, +6.49405157811E+002
+2.64524207012E+007, +7.67421943448E+000, +6.57134786970E+002
+2.66176961603E+007, +6.58600230194E+000, +6.62258469213E+002
+2.67829716194E+007, +5.44928625618E+000, +6.63254333200E+002
+2.69482470785E+007, +7.72283991739E+000, +6.71482509624E+002
+2.71135225376E+007, +5.79503343553E+000, +6.79007870076E+002
+2.72787979967E+007, +9.97611519122E+000, +6.83152240201E+002
+2.74440734558E+007, +8.24385373663E+000, +6.86206247992E+002
+2.76093489149E+007, +8.16874134215E+000, +6.87691133951E+002
+2.77746243740E+007, +8.34757986838E+000, +6.96641542655E+002
+2.79398998331E+007, +6.80277900714E+000, +7.03286749061E+002
+2.81051752922E+007, +8.95795222394E+000, +7.07442232529E+002
+2.82704507513E+007, +8.35057168010E+000, +7.12153716897E+002
+2.84357262104E+007, +5.94506048193E+000, +7.18312037054E+002
+2.86010016694E+007, +6.77491601097E+000, +7.28401252174E+002
+2.87662771285E+007, +8.53735799581E+000, +7.29740254157E+002
+2.89315525876E+007, +7.85910442496E+000, +7.36265779750E+002
+2.90968280467E+007, +7.46069745208E+000, +7.40518621675E+002
+2.92621035058E+007, +9.01399343269E+000, +7.46313416141E+002
+2.94273789649E+007, +8.38724620604E+000, +7.51417610478E+002
+2.95926544240E+007, +5.80239031956E+000, +7.56303429952E+002
+2.97579298831E+007, +7.73514455826E+000, +7.63293170850E+002
+2.99232053422E+007, +9.98371519001E+000, +7.71087581252E+002
+3.00884808013E+007, +9.64780953902E+000, +7.74333021523E+002
+3.02537562604E+007, +1.11514115335E+001, +7.79190276992E+002
+3.04190317195E+007, +8.82960682381E+000, +7.84778376636E+002
+3.05843071786E+007, +7.12929180568E+000, +7.89522872472E+002
+3.07495826377E+007, +6.78009321786E+000, +7.96431204778E+002
+3.09148580968E+007, +8.22414820495E+000, +8.02400082663E+002
+3.10801335559E+007, +6.95111222306E+000, +8.07321741289E+002
+3.12454090150E+007, +9.28488089518E+000, +8.15415237948E+002
+3.14106844741E+007, +8.99195985168E+000, +8.17537995808E+002
+3.15759599332E+007, +9.26934127890E+000, +8.28603798609E+002
+3.17412353923E+007, +7.96520779490E+000, +8.32468209894E+002
+3.19065108514E+007, +1.18523221206E+001, +8.39736288088E+002
+3.20717863105E+007, +5.68319744895E+000, +8.46724383351E+002
+3.22370617696E+007, +8.96812223018E+000, +8.50553980193E+002
+3.24023372287E+007, +7.77495442175E+000, +8.55732687008E+002
+3.25676126878E+007, +8.87751050065E+000, +8.61131606769E+002
+3.27328881469E+007, +6.49397260039E+000, +8.67045276620E+002
+3.28981636060E+007, +4.24359110892E+000, +8.76468814629E+002
+3.30634390651E+007, +9.33682160103E+000, +8.84417390686E+002
+3.32287145242E+007, +4.69610394300E+000, +8.95020971531E+002
+3.33939899833E+007, +7.86290341552E+000, +8.98923657668E+002
+3.35592654424E+007, +8.57388516771E+000, +9.06373813361E+002
+3.37245409015E+007, +1.11988924871E+001, +9.12324080405E+002
+3.38898163606E+007, +7.63000739740E+000, +9.19596328493E+002
+3.40550918197E+007, +7.08995190698E+000, +9.25769893046E+002
+3.42203672788E+007, +6.75306012493E+000, +9.32197736468E+002
+3.43856427379E+007, +1.04830803900E+001, +9.40568962913E+002
+3.45509181970E+007, +6.46266931919E+000, +9.47622513183E+002
+3.47161936561E+007, +5.65504012133E+000, +9.55464082659E+002
+3.48814691152E+007, +9.92613028125E+000, +9.58865956521E+002
+3.50467445743E+007, +6.96670578693E+000, +9.68457903530E+002
+3.52120200334E+007, +1.20092134008E+001, +9.77958005816E+002
+3.53772954925E+007, +7.85052227599E+000, +9.80583716059E+002
+3.55425709516E+007, +9.71691977499E+000, +9.94623096075E+002
+3.57078464107E+007, +1.25798037724E+001, +9.96501500004E+002
+3.58731218698E+007, +1.05704190328E+001, +1.00872107666E+003
+3.60383973289E+007, +7.88288595955E+000, +1.01431277466E+003
+3.62036727880E+007, +9.70164445826E+000, +1.02217791341E+003
+3.63689482471E+007, +1.33041925560E+001, +1.03103573688E+003
+3.65342237062E+007, +1.64512893533E+001, +1.03490481706E+003
+3.66994991653E+007, +7.66298918363E+000, +1.05023310234E+003
+3.68647746244E+007, +1.85360943048E+001, +1.05350770927E+003
+3.70300500835E+007, +8.12427996400E+000, +1.06289563355E+003
+3.71953255426E+007, +1.42253114243E+001, +1.07332781331E+003
+3.73606010017E+007, +1.13895400972E+001, +1.08608556569E+003
+3.75258764608E+007, +1.60529193897E+001, +1.09731437040E+003
+3.76911519199E+007, +1.26128204511E+001, +1.09694945512E+003
+3.78564273790E+007, +1.05175117109E+001, +1.10248724011E+003
+3.80217028381E+007, +1.19079857068E+001, +1.11224349753E+003
+3.81869782972E+007, +1.53502714234E+001, +1.12099342999E+003
+3.83522537563E+007, +1.25209901168E+001, +1.12839329067E+003
+3.85175292154E+007, +1.26074631444E+001, +1.14116368753E+003
+3.86828046745E+007, +9.66575905395E+000, +1.15054904452E+003
+3.88480801336E+007, +1.60705155363E+001, +1.16142063402E+003
+3.90133555927E+007, +1.57237297849E+001, +1.17132394309E+003
+3.91786310518E+007, +1.13587049135E+001, +1.18960744014E+003
+3.93439065109E+007, +8.56578884554E+000, +1.19477620205E+003
+3.95091819699E+007, +2.20108571656E+001, +1.19878849990E+003
+3.96744574290E+007, +1.85898593899E+001, +1.20770410099E+003
+3.98397328881E+007, +8.30699099471E+000, +1.22771547662E+003
+4.00050083472E+007, +1.03840355467E+001, +1.24044375599E+003
+4.01702838063E+007, +1.23948994249E+001, +1.23375408029E+003
+4.03355592654E+007, +1.47137550285E+001, +1.25004522564E+003
+4.05008347245E+007, +1.69139023651E+001, +1.26737042549E+003
+4.06661101836E+007, +1.51978548599E+001, +1.27195690365E+003
+4.08313856427E+007, +1.12053529618E+001, +1.29353248352E+003
+4.09966611018E+007, +1.37785895162E+001, +1.29915227947E+003
+4.11619365609E+007, +1.43721504227E+001, +1.31240663204E+003
+4.13272120200E+007, +2.57770148238E+001, +1.32157792287E+003
+4.14924874791E+007, +1.79651287275E+001, +1.33315419851E+003
+4.16577629382E+007, +1.76280271409E+001, +1.35362776038E+003
+4.18230383973E+007, +2.47409444055E+001, +1.35377366339E+003
+4.19883138564E+007, +1.91975196079E+001, +1.37705066515E+003
+4.21535893155E+007, +2.38856200184E+001, +1.38129258518E+003
+4.23188647746E+007, +2.50180075013E+001, +1.40354245964E+003
+4.24841402337E+007, +2.15279071904E+001, +1.42032079247E+003
+4.26494156928E+007, +2.26111103873E+001, +1.41593242950E+003
+4.28146911519E+007, +3.17072233168E+001, +1.43696958753E+003
+4.29799666110E+007, +1.71200069850E+001, +1.44943478422E+003
+4.31452420701E+007, +2.31957782540E+001, +1.47299476041E+003
+4.33105175292E+007, +2.68405469987E+001, +1.47533559302E+003
+4.34757929883E+007, +2.70426884154E+001, +1.49796962433E+003
+4.36410684474E+007, +2.72677924254E+001, +1.50351430867E+003
+4.38063439065E+007, +2.48405308389E+001, +1.51465652740E+003
+4.39716193656E+007, +4.35463377382E+001, +1.53198442833E+003
+4.41368948247E+007, +2.91692198544E+001, +1.55481620173E+003
+4.43021702838E+007, +2.52535535952E+001, +1.56763959631E+003
+4.44674457429E+007, +3.45971618205E+001, +1.58533576961E+003
+4.46327212020E+007, +3.39727746221E+001, +1.59802758673E+003
+4.47979966611E+007, +2.59205038050E+001, +1.61807123853E+003
+4.49632721202E+007, +3.19462464295E+001, +1.64384921959E+003
+4.51285475793E+007, +2.89425619259E+001, +1.65726838198E+003
+4.52938230384E+007, +3.84307575515E+001, +1.67578492626E+003
+4.54590984975E+007, +2.94599217911E+001, +1.68469189043E+003
+4.56243739566E+007, +4.50478537587E+001, +1.71899626500E+003
+4.57896494157E+007, +4.45082100350E+001, +1.73445441282E+003
+4.59549248748E+007, +3.91750851906E+001, +1.75478212032E+003
+4.61202003339E+007, +3.36643586625E+001, +1.77596521382E+003
+4.62854757930E+007, +3.78809564636E+001, +1.80439601933E+003
+4.64507512521E+007, +6.04279841195E+001, +1.83140992432E+003
+4.66160267112E+007, +4.89792064444E+001, +1.85839298500E+003
+4.67813021703E+007, +5.62192915302E+001, +1.87473220253E+003
+4.69465776294E+007, +7.45574502931E+001, +1.88806736323E+003
+4.71118530885E+007, +6.31638547095E+001, +1.93350212577E+003
+4.72771285476E+007, +7.25901082721E+001, +1.95424915068E+003
+4.74424040067E+007, +5.77247102290E+001, +1.98264750121E+003
+4.76076794658E+007, +6.90053342614E+001, +1.99999180525E+003
+4.77729549249E+007, +8.05096225040E+001, +2.04977293483E+003
+4.79382303840E+007, +7.53608683942E+001, +2.04693964665E+003
+4.81035058431E+007, +9.54435120281E+001, +2.09816699487E+003
+4.82687813022E+007, +9.92893144213E+001, +2.11813940139E+003
+4.84340567613E+007, +1.01847156539E+002, +2.15135646823E+003
+4.85993322204E+007, +1.25279785025E+002, +2.20950542967E+003
+4.87646076795E+007, +1.29678348649E+002, +2.22143768878E+003
+4.89298831386E+007, +1.21038831096E+002, +2.24439678561E+003
+4.90951585977E+007, +1.34668395826E+002, +2.27732447897E+003
+4.92604340568E+007, +1.72060647744E+002, +2.30871941630E+003
+4.94257095159E+007, +1.55404002230E+002, +2.34333021856E+003
+4.95909849750E+007, +1.56384746492E+002, +2.39022789969E+003
+4.97562604341E+007, +1.93542490925E+002, +2.40767226175E+003
+4.99215358932E+007, +1.99626144944E+002, +2.46366590360E+003
+5.00868113523E+007, +2.07144371953E+002, +2.51568037509E+003
+5.02520868114E+007, +2.45074524229E+002, +2.55590814836E+003
+5.04173622705E+007, +2.51601982469E+002, +2.61746564031E+003
+5.05826377295E+007, +2.37941775334E+002, +2.61602958945E+003
+5.07479131886E+007, +2.87299527261E+002, +2.67671008664E+003
+5.09131886477E+007, +2.62141740787E+002, +2.69404750053E+003
+5.10784641068E+007, +3.30402947177E+002, +2.72142904632E+003
+5.12437395659E+007, +3.46420287873E+002, +2.82244018013E+003
+5.14090150250E+007, +3.53338653932E+002, +2.83041561460E+003
+5.15742904841E+007, +3.59155172276E+002, +2.87836977019E+003
+5.17395659432E+007, +4.16920874534E+002, +2.93917683062E+003
+5.19048414023E+007, +4.17440145827E+002, +3.00029080818E+003
+5.20701168614E+007, +4.55867057075E+002, +3.03959874993E+003
+5.22353923205E+007, +4.59088924781E+002, +3.10458858987E+003
+5.24006677796E+007, +4.39609496740E+002, +3.14294457251E+003
+5.25659432387E+007, +5.00742489934E+002, +3.20076258111E+003
+5.27312186978E+007, +5.66512373045E+002, +3.23145426913E+003
+5.28964941569E+007, +5.46632942704E+002, +3.34854889728E+003
+5.30617696160E+007, +5.66689251398E+002, +3.42583659640E+003
+5.32270450751E+007, +5.94244180605E+002, +3.43742334826E+003
+5.33923205342E+007, +6.31999266871E+002, +3.53116823584E+003
+5.35575959933E+007, +5.93669682892E+002, +3.62273804858E+003
+5.37228714524E+007, +6.56040455302E+002, +3.81785772808E+003
+5.38881469115E+007, +5.91927394449E+002, +3.77351223917E+003
