"# Channel 1"
"# Trace 1"
Frequency, Formatted Data, Formatted Data
+1.00000000000E+005, +9.51344444969E+001, +2.26946960656E+000
+2.25031289111E+005, +9.51577332839E+001, +5.63953738774E+000
+3.50062578223E+005, +9.50312856149E+001, +8.62199193507E+000
+4.75093867334E+005, +9.52278990687E+001, +1.17635249158E+001
+6.00125156446E+005, +9.53394432539E+001, +1.47081878066E+001
+7.25156445557E+005, +9.52122571920E+001, +1.77741020893E+001
+8.50187734668E+005, +9.53006152856E+001, +2.08895904839E+001
+9.75219023780E+005, +9.54369224417E+001, +2.40637400791E+001
+1.10025031289E+006, +9.56004903191E+001, +2.70267636770E+001
+1.22528160200E+006, +9.54138763872E+001, +3.00385256148E+001
+1.35031289111E+006, +9.54671589795E+001, +3.30439699044E+001
+1.47534418023E+006, +9.54754221905E+001, +3.63101213217E+001
+1.60037546934E+006, +9.56471599898E+001, +3.91476442230E+001
+1.72540675845E+006, +9.55014348267E+001, +4.23028552012E+001
+1.85043804756E+006, +9.54941457370E+001, +4.55672909420E+001
+1.97546933667E+006, +9.55853119773E+001, +4.84630288040E+001
+2.10050062578E+006, +9.57218438654E+001, +5.16884182155E+001
+2.22553191489E+006, +9.56220564325E+001, +5.47661520866E+001
+2.35056320401E+006, +9.57642399796E+001, +5.75908122417E+001
+2.47559449312E+006, +9.57487879899E+001, +6.08144683356E+001
+2.60062578223E+006, +9.59720351069E+001, +6.39964949774E+001
+2.72565707134E+006, +9.57867439796E+001, +6.72756589017E+001
+2.85068836045E+006, +9.60844487683E+001, +6.99704165675E+001
+2.97571964956E+006, +9.62708085351E+001, +7.33265731140E+001
+3.10075093867E+006, +9.61881968841E+001, +7.64350520533E+001
+3.22578222778E+006, +9.62740436521E+001, +7.95020888437E+001
+3.35081351690E+006, +9.62365005634E+001, +8.25372465479E+001
+3.47584480601E+006, +9.62061064942E+001, +8.56793840613E+001
+3.60087609512E+006, +9.64612146408E+001, +8.86742075903E+001
+3.72590738423E+006, +9.70399627888E+001, +9.17249724739E+001
+3.85093867334E+006, +9.64893010278E+001, +9.47925512298E+001
+3.97596996245E+006, +9.64380234739E+001, +9.82860756356E+001
+4.10100125156E+006, +9.66942480699E+001, +1.01200759331E+002
+4.22603254068E+006, +9.66303137002E+001, +1.04311185046E+002
+4.35106382979E+006, +9.70739471100E+001, +1.07348312346E+002
+4.47609511890E+006, +9.70079610382E+001, +1.10730919083E+002
+4.60112640801E+006, +9.71725449085E+001, +1.13847900872E+002
+4.72615769712E+006, +9.74225141781E+001, +1.16677758289E+002
+4.85118898623E+006, +9.77504612512E+001, +1.19665083580E+002
+4.97622027534E+006, +9.74025715756E+001, +1.22868704329E+002
+5.10125156446E+006, +9.76826089149E+001, +1.26077589311E+002
+5.22628285357E+006, +9.80536929945E+001, +1.28934324361E+002
+5.35131414268E+006, +9.82050681519E+001, +1.32539267654E+002
+5.47634543179E+006, +9.82858271141E+001, +1.35505143408E+002
+5.60137672090E+006, +9.84264651789E+001, +1.38295516216E+002
+5.72640801001E+006, +9.80596242528E+001, +1.41344865336E+002
+5.85143929912E+006, +9.87719039728E+001, +1.45029300118E+002
+5.97647058824E+006, +9.86570304735E+001, +1.48050238951E+002
+6.10150187735E+006, +9.91413562178E+001, +1.51297232235E+002
+6.22653316646E+006, +9.90662714792E+001, +1.54937548934E+002
+6.35156445557E+006, +9.92362033364E+001, +1.57642207571E+002
+6.47659574468E+006, +9.94680605864E+001, +1.60673710812E+002
+6.60162703379E+006, +9.95124154616E+001, +1.63786998432E+002
+6.72665832290E+006, +9.97679002022E+001, +1.66864844492E+002
+6.85168961202E+006, +1.00020614973E+002, +1.70146104695E+002
+6.97672090113E+006, +1.00152491445E+002, +1.73273446784E+002
+7.10175219024E+006, +1.00532745740E+002, +1.76407221536E+002
+7.22678347935E+006, +1.00424934633E+002, +1.79710063535E+002
+7.35181476846E+006, +1.00698295272E+002, +1.82939719356E+002
+7.47684605757E+006, +1.00839963055E+002, +1.86006140057E+002
+7.60187734668E+006, +1.00830034302E+002, +1.89316247002E+002
+7.72690863579E+006, +1.01389210050E+002, +1.92477534100E+002
+7.85193992491E+006, +1.01814156380E+002, +1.95776418948E+002
+7.97697121402E+006, +1.01482988257E+002, +1.98723832710E+002
+8.10200250313E+006, +1.01738113773E+002, +2.02072178389E+002
+8.22703379224E+006, +1.02103931422E+002, +2.05430778946E+002
+8.35206508135E+006, +1.02282581540E+002, +2.08723470887E+002
+8.47709637046E+006, +1.02453198788E+002, +2.12191755608E+002
+8.60212765957E+006, +1.02977710508E+002, +2.15185868028E+002
+8.72715894869E+006, +1.03170571824E+002, +2.18497181470E+002
+8.85219023780E+006, +1.03042348418E+002, +2.21488112870E+002
+8.97722152691E+006, +1.03339615168E+002, +2.24931126781E+002
+9.10225281602E+006, +1.03495653030E+002, +2.28608208919E+002
+9.22728410513E+006, +1.03738101858E+002, +2.31455196078E+002
+9.35231539424E+006, +1.03828696526E+002, +2.35378699548E+002
+9.47734668335E+006, +1.03848086101E+002, +2.38285700491E+002
+9.60237797247E+006, +1.04382401281E+002, +2.41334528535E+002
+9.72740926158E+006, +1.04426876650E+002, +2.44765659970E+002
+9.85244055069E+006, +1.04454092535E+002, +2.48114633733E+002
+9.97747183980E+006, +1.05024720278E+002, +2.51643065586E+002
+1.01025031289E+007, +1.05330437353E+002, +2.54894757308E+002
+1.02275344180E+007, +1.05001743650E+002, +2.58203573582E+002
+1.03525657071E+007, +1.05482678453E+002, +2.61888182143E+002
+1.04775969962E+007, +1.05702223626E+002, +2.64922552540E+002
+1.06026282854E+007, +1.06091193030E+002, +2.68566901446E+002
+1.07276595745E+007, +1.06553659229E+002, +2.71714176630E+002
+1.08526908636E+007, +1.06844551474E+002, +2.74916440524E+002
+1.09777221527E+007, +1.07295690399E+002, +2.78971200019E+002
+1.11027534418E+007, +1.07111496637E+002, +2.81936554875E+002
+1.12277847309E+007, +1.07985190314E+002, +2.85038495857E+002
+1.13528160200E+007, +1.07528696784E+002, +2.88685701928E+002
+1.14778473091E+007, +1.08620564177E+002, +2.92001671998E+002
+1.16028785982E+007, +1.08540535899E+002, +2.95813175870E+002
+1.17279098874E+007, +1.08509485202E+002, +2.99148117147E+002
+1.18529411765E+007, +1.09077285748E+002, +3.02432243489E+002
+1.19779724656E+007, +1.09175473779E+002, +3.06114125780E+002
+1.21030037547E+007, +1.09400809295E+002, +3.08871637005E+002
+1.22280350438E+007, +1.09078147806E+002, +3.12913705372E+002
+1.23530663329E+007, +1.10281004162E+002, +3.16776671662E+002
+1.24780976220E+007, +1.09823197707E+002, +3.19983704339E+002
+1.26031289111E+007, +1.10337067879E+002, +3.23473275290E+002
+1.27281602003E+007, +1.11094144403E+002, +3.26934400300E+002
+1.28531914894E+007, +1.11676594111E+002, +3.30281133783E+002
+1.29782227785E+007, +1.11006722333E+002, +3.33347039302E+002
+1.31032540676E+007, +1.11935176268E+002, +3.37527730872E+002
+1.32282853567E+007, +1.12017521778E+002, +3.41045855615E+002
+1.33533166458E+007, +1.12919905982E+002, +3.44834194138E+002
+1.34783479349E+007, +1.12885700207E+002, +3.47833338542E+002
+1.36033792240E+007, +1.12698432442E+002, +3.52000997065E+002
+1.37284105131E+007, +1.13727026338E+002, +3.55020749182E+002
+1.38534418023E+007, +1.14337274879E+002, +3.58976221683E+002
+1.39784730914E+007, +1.13228948057E+002, +3.62163163217E+002
+1.41035043805E+007, +1.14306361713E+002, +3.65479348135E+002
+1.42285356696E+007, +1.14584678630E+002, +3.69401658834E+002
+1.43535669587E+007, +1.15650824202E+002, +3.72561610141E+002
+1.44785982478E+007, +1.15361287822E+002, +3.77026477793E+002
+1.46036295369E+007, +1.16576336289E+002, +3.81134714012E+002
+1.47286608260E+007, +1.16485980921E+002, +3.84074845452E+002
+1.48536921151E+007, +1.16974176078E+002, +3.88258961276E+002
+1.49787234043E+007, +1.16995085949E+002, +3.91448727161E+002
+1.51037546934E+007, +1.18263629745E+002, +3.95555254036E+002
+1.52287859825E+007, +1.18283028915E+002, +3.99235903843E+002
+1.53538172716E+007, +1.18887175242E+002, +4.02346000246E+002
+1.54788485607E+007, +1.19229368692E+002, +4.06211270701E+002
+1.56038798498E+007, +1.20326182294E+002, +4.11037136396E+002
+1.57289111389E+007, +1.19237627831E+002, +4.14303253208E+002
+1.58539424280E+007, +1.19565636932E+002, +4.18423549826E+002
+1.59789737171E+007, +1.19750204448E+002, +4.22919220629E+002
+1.61040050063E+007, +1.20941916271E+002, +4.25659845631E+002
+1.62290362954E+007, +1.21495818939E+002, +4.29406067589E+002
+1.63540675845E+007, +1.20757346403E+002, +4.33591610383E+002
+1.64790988736E+007, +1.21712899670E+002, +4.36488420078E+002
+1.66041301627E+007, +1.22421400784E+002, +4.41154696504E+002
+1.67291614518E+007, +1.23279209422E+002, +4.44397561467E+002
+1.68541927409E+007, +1.22990199567E+002, +4.46886529030E+002
+1.69792240300E+007, +1.23738123115E+002, +4.52775787912E+002
+1.71042553191E+007, +1.24584367694E+002, +4.56857173458E+002
+1.72292866083E+007, +1.23748689290E+002, +4.59474365415E+002
+1.73543178974E+007, +1.24531105102E+002, +4.65927370614E+002
+1.74793491865E+007, +1.25847960498E+002, +4.67543833722E+002
+1.76043804756E+007, +1.24590894867E+002, +4.73353985324E+002
+1.77294117647E+007, +1.26930841561E+002, +4.76258194339E+002
+1.78544430538E+007, +1.26471462711E+002, +4.80302603116E+002
+1.79794743429E+007, +1.27460358708E+002, +4.83178122036E+002
+1.81045056320E+007, +1.27239782807E+002, +4.88090658645E+002
+1.82295369212E+007, +1.29187139640E+002, +4.93514188844E+002
+1.83545682103E+007, +1.29925589757E+002, +4.97641280471E+002
+1.84795994994E+007, +1.29136690400E+002, +5.01213297459E+002
+1.86046307885E+007, +1.30100230086E+002, +5.04889909036E+002
+1.87296620776E+007, +1.30977812732E+002, +5.10103797299E+002
+1.88546933667E+007, +1.31274444633E+002, +5.12273419479E+002
+1.89797246558E+007, +1.34040216437E+002, +5.17551881944E+002
+1.91047559449E+007, +1.34826648460E+002, +5.20923634742E+002
+1.92297872340E+007, +1.34395549060E+002, +5.25128826292E+002
+1.93548185232E+007, +1.34084885576E+002, +5.30398085389E+002
+1.94798498123E+007, +1.34410424388E+002, +5.34625606653E+002
+1.96048811014E+007, +1.36563019076E+002, +5.37966900513E+002
+1.97299123905E+007, +1.36492106019E+002, +5.43466364951E+002
+1.98549436796E+007, +1.34747399207E+002, +5.45506693058E+002
+1.99799749687E+007, +1.36611597778E+002, +5.50151155007E+002
+2.01050062578E+007, +1.38253643215E+002, +5.56275211592E+002
+2.02300375469E+007, +1.38309315177E+002, +5.60468751290E+002
+2.03550688360E+007, +1.38384249786E+002, +5.63750723291E+002
+2.04801001252E+007, +1.39379566791E+002, +5.68795277492E+002
+2.06051314143E+007, +1.41205748555E+002, +5.72831317318E+002
+2.07301627034E+007, +1.42545713689E+002, +5.76454271438E+002
+2.08551939925E+007, +1.41719976233E+002, +5.82438435501E+002
+2.09802252816E+007, +1.44318625418E+002, +5.87019206545E+002
+2.11052565707E+007, +1.45494735939E+002, +5.90250412613E+002
+2.12302878598E+007, +1.44785197428E+002, +5.94734943697E+002
+2.13553191489E+007, +1.43706609655E+002, +6.00369902178E+002
+2.14803504380E+007, +1.46591820605E+002, +6.02478095908E+002
+2.16053817272E+007, +1.46147207587E+002, +6.09240391618E+002
+2.17304130163E+007, +1.47778502179E+002, +6.11806434276E+002
+2.18554443054E+007, +1.47792018036E+002, +6.16963863976E+002
+2.19804755945E+007, +1.49825496254E+002, +6.22241821708E+002
+2.21055068836E+007, +1.48803535440E+002, +6.25789190218E+002
+2.22305381727E+007, +1.51375048447E+002, +6.32334320508E+002
+2.23555694618E+007, +1.50866866004E+002, +6.35608881948E+002
+2.24806007509E+007, +1.51592445268E+002, +6.40864850049E+002
+2.26056320401E+007, +1.53979808242E+002, +6.44204340698E+002
+2.27306633292E+007, +1.53672767328E+002, +6.52028228229E+002
+2.28556946183E+007, +1.57725784751E+002, +6.54092660130E+002
+2.29807259074E+007, +1.58261273757E+002, +6.58816909902E+002
+2.31057571965E+007, +1.59119398416E+002, +6.62909800045E+002
+2.32307884856E+007, +1.57726874377E+002, +6.69551568830E+002
+2.33558197747E+007, +1.58205893686E+002, +6.75914548539E+002
+2.34808510638E+007, +1.62331771358E+002, +6.77190640245E+002
+2.36058823529E+007, +1.63145847541E+002, +6.84340490700E+002
+2.37309136421E+007, +1.61949673926E+002, +6.89273521743E+002
+2.38559449312E+007, +1.65960042487E+002, +6.94003620990E+002
+2.39809762203E+007, +1.65006095077E+002, +6.97631859667E+002
+2.41060075094E+007, +1.65834112500E+002, +7.02511083100E+002
+2.42310387985E+007, +1.68398312268E+002, +7.05061430869E+002
+2.43560700876E+007, +1.69424157710E+002, +7.11358474302E+002
+2.44811013767E+007, +1.70443085300E+002, +7.16212947458E+002
+2.46061326658E+007, +1.70721203491E+002, +7.21127894896E+002
+2.47311639549E+007, +1.72878810864E+002, +7.26313130433E+002
+2.48561952441E+007, +1.73364830496E+002, +7.28486848570E+002
+2.49812265332E+007, +1.72550877950E+002, +7.37744521885E+002
+2.51062578223E+007, +1.71008029045E+002, +7.39596320938E+002
+2.52312891114E+007, +1.75818983099E+002, +7.49511875253E+002
+2.53563204005E+007, +1.75469504007E+002, +7.51139011707E+002
+2.54813516896E+007, +1.80743019308E+002, +7.53817243774E+002
+2.56063829787E+007, +1.76544590616E+002, +7.58436284619E+002
+2.57314142678E+007, +1.80000065073E+002, +7.68578219615E+002
+2.58564455569E+007, +1.80774812517E+002, +7.71889310881E+002
+2.59814768461E+007, +1.79196961291E+002, +7.77290653672E+002
+2.61065081352E+007, +1.82721845025E+002, +7.85805444243E+002
+2.62315394243E+007, +1.83705669877E+002, +7.90077455064E+002
+2.63565707134E+007, +1.82726335682E+002, +7.93913087642E+002
+2.64816020025E+007, +1.86897533062E+002, +7.97625634757E+002
+2.66066332916E+007, +1.86620935160E+002, +8.05604638254E+002
+2.67316645807E+007, +1.85282313332E+002, +8.11653872118E+002
+2.68566958698E+007, +1.87386464546E+002, +8.13925520984E+002
+2.69817271589E+007, +1.90984030976E+002, +8.21944974650E+002
+2.71067584481E+007, +1.92122859786E+002, +8.28016808354E+002
+2.72317897372E+007, +1.91903626000E+002, +8.32475849041E+002
+2.73568210263E+007, +1.93912740424E+002, +8.35850357022E+002
+2.74818523154E+007, +1.95743332709E+002, +8.43120453651E+002
+2.76068836045E+007, +1.96159219295E+002, +8.55027450175E+002
+2.77319148936E+007, +1.94685912066E+002, +8.58423896441E+002
+2.78569461827E+007, +1.96038398889E+002, +8.66028958472E+002
+2.79819774718E+007, +2.02373475210E+002, +8.70631598264E+002
+2.81070087610E+007, +2.01792995005E+002, +8.72586824712E+002
+2.82320400501E+007, +2.00928673522E+002, +8.77478015471E+002
+2.83570713392E+007, +2.02983817377E+002, +8.89125625604E+002
+2.84821026283E+007, +2.09203153153E+002, +8.95836467682E+002
+2.86071339174E+007, +2.06079291265E+002, +8.97865517509E+002
+2.87321652065E+007, +2.07009318800E+002, +9.09085895638E+002
+2.88571964956E+007, +2.06491248000E+002, +9.09708071360E+002
+2.89822277847E+007, +2.12728138264E+002, +9.19280374498E+002
+2.91072590738E+007, +2.12393094312E+002, +9.26286117073E+002
+2.92322903630E+007, +2.11992800341E+002, +9.36804329872E+002
+2.93573216521E+007, +2.16519016951E+002, +9.35348775576E+002
+2.94823529412E+007, +2.16333015542E+002, +9.47136709681E+002
+2.96073842303E+007, +2.18499041547E+002, +9.50883648368E+002
+2.97324155194E+007, +2.19454759390E+002, +9.58176652378E+002
+2.98574468085E+007, +2.17545558655E+002, +9.64292795473E+002
+2.99824780976E+007, +2.21750615210E+002, +9.77248004528E+002
+3.01075093867E+007, +2.25502429557E+002, +9.79929851821E+002
+3.02325406758E+007, +2.28484767969E+002, +9.90051733996E+002
+3.03575719650E+007, +2.27359596341E+002, +9.96130757416E+002
+3.04826032541E+007, +2.31189585845E+002, +9.99713852106E+002
+3.06076345432E+007, +2.27494424690E+002, +1.01163684291E+003
+3.07326658323E+007, +2.33818934377E+002, +1.01866583448E+003
+3.08576971214E+007, +2.35375864540E+002, +1.02549732880E+003
+3.09827284105E+007, +2.41202493332E+002, +1.02238033731E+003
+3.11077596996E+007, +2.39610002142E+002, +1.04320580716E+003
+3.12327909887E+007, +2.42087809962E+002, +1.04431393551E+003
+3.13578222778E+007, +2.44846801299E+002, +1.05444893692E+003
+3.14828535670E+007, +2.50617100546E+002, +1.05655821301E+003
+3.16078848561E+007, +2.48044314901E+002, +1.06570012372E+003
+3.17329161452E+007, +2.49453611379E+002, +1.07343863980E+003
+3.18579474343E+007, +2.48325862783E+002, +1.08726212288E+003
+3.19829787234E+007, +2.51487245179E+002, +1.08790426852E+003
+3.21080100125E+007, +2.54439166483E+002, +1.10057835531E+003
+3.22330413016E+007, +2.51030289377E+002, +1.11086342140E+003
+3.23580725907E+007, +2.59173560627E+002, +1.11298336092E+003
+3.24831038798E+007, +2.64563508081E+002, +1.12590619439E+003
+3.26081351690E+007, +2.66832638615E+002, +1.13734307354E+003
+3.27331664581E+007, +2.64871322975E+002, +1.14010798980E+003
+3.28581977472E+007, +2.63298683749E+002, +1.14872415913E+003
+3.29832290363E+007, +2.67640770401E+002, +1.16022172319E+003
+3.31082603254E+007, +2.74990509956E+002, +1.16276407966E+003
+3.32332916145E+007, +2.77226298181E+002, +1.17494451844E+003
+3.33583229036E+007, +2.83688363078E+002, +1.18739218845E+003
+3.34833541927E+007, +2.81334610323E+002, +1.19354314188E+003
+3.36083854819E+007, +2.83456266386E+002, +1.20518785228E+003
+3.37334167710E+007, +2.82796296647E+002, +1.20790333652E+003
+3.38584480601E+007, +2.86259365603E+002, +1.22267067896E+003
+3.39834793492E+007, +2.83944428090E+002, +1.22641286516E+003
+3.41085106383E+007, +2.91695991457E+002, +1.23887712101E+003
+3.42335419274E+007, +2.97431371563E+002, +1.24390591320E+003
+3.43585732165E+007, +3.01783112843E+002, +1.25676034871E+003
+3.44836045056E+007, +3.03921067497E+002, +1.26206597129E+003
+3.46086357947E+007, +3.08900310758E+002, +1.27017475795E+003
+3.47336670839E+007, +3.15934390305E+002, +1.28324125465E+003
+3.48586983730E+007, +3.16587112269E+002, +1.29656946920E+003
+3.49837296621E+007, +3.17542100418E+002, +1.30743073879E+003
+3.51087609512E+007, +3.23361561694E+002, +1.31156709701E+003
+3.52337922403E+007, +3.17141490940E+002, +1.33310286439E+003
+3.53588235294E+007, +3.31418601343E+002, +1.32684836732E+003
+3.54838548185E+007, +3.37310172110E+002, +1.34433673338E+003
+3.56088861076E+007, +3.32344982381E+002, +1.36123858542E+003
+3.57339173967E+007, +3.35302765464E+002, +1.35209601724E+003
+3.58589486859E+007, +3.38547169065E+002, +1.36518704971E+003
+3.59839799750E+007, +3.55297982564E+002, +1.36808153717E+003
+3.61090112641E+007, +3.48722214202E+002, +1.39739975733E+003
+3.62340425532E+007, +3.50797305294E+002, +1.40442735574E+003
+3.63590738423E+007, +3.62144928923E+002, +1.41322757135E+003
+3.64841051314E+007, +3.52608094101E+002, +1.42190626591E+003
+3.66091364205E+007, +3.65032046016E+002, +1.42996734802E+003
+3.67341677096E+007, +3.65865880910E+002, +1.45024754351E+003
+3.68591989987E+007, +3.70153790892E+002, +1.45739685639E+003
+3.69842302879E+007, +3.78190147994E+002, +1.48175783213E+003
+3.71092615770E+007, +3.78385331906E+002, +1.47387481163E+003
+3.72342928661E+007, +3.87717009500E+002, +1.49155445654E+003
+3.73593241552E+007, +3.90472259790E+002, +1.50837578711E+003
+3.74843554443E+007, +3.98480233005E+002, +1.52260789137E+003
+3.76093867334E+007, +4.06312695845E+002, +1.53073167571E+003
+3.77344180225E+007, +4.13173985325E+002, +1.53224059267E+003
+3.78594493116E+007, +4.14857242337E+002, +1.55148414362E+003
+3.79844806008E+007, +4.27829683700E+002, +1.56012904436E+003
+3.81095118899E+007, +4.04353685823E+002, +1.57143098700E+003
+3.82345431790E+007, +4.34054864795E+002, +1.59813777902E+003
+3.83595744681E+007, +4.21457582116E+002, +1.59466024507E+003
+3.84846057572E+007, +4.35320428447E+002, +1.61396021384E+003
+3.86096370463E+007, +4.53432116736E+002, +1.63910560038E+003
+3.87346683354E+007, +4.46582799949E+002, +1.64513777767E+003
+3.88596996245E+007, +4.74766972590E+002, +1.66502236261E+003
+3.89847309136E+007, +4.53666214080E+002, +1.67098469540E+003
+3.91097622028E+007, +4.91661105341E+002, +1.69305567654E+003
+3.92347934919E+007, +4.77699504717E+002, +1.69948437332E+003
+3.93598247810E+007, +5.12248617412E+002, +1.71355462323E+003
+3.94848560701E+007, +5.05874507760E+002, +1.72840613577E+003
+3.96098873592E+007, +5.02440201777E+002, +1.73420309300E+003
+3.97349186483E+007, +5.11236836484E+002, +1.75679482761E+003
+3.98599499374E+007, +5.12954925035E+002, +1.76277375684E+003
+3.99849812265E+007, +5.14353091590E+002, +1.79961057238E+003
+4.01100125156E+007, +5.32096918515E+002, +1.81046311775E+003
