"# Channel 1"
"# Trace 1"
Frequency, Formatted Data, Formatted Data
+1.00000000000E+005, +8.25645781982E-001, +2.25873688897E+000
+2.25031289111E+005, +8.33546883766E-001, +5.08955919703E+000
+3.50062578223E+005, +8.34210253962E-001, +7.90248295051E+000
+4.75093867334E+005, +8.33361212378E-001, +1.07605384444E+001
+6.00125156446E+005, +8.66758533244E-001, +1.35908482045E+001
+7.25156445557E+005, +8.92346187798E-001, +1.63686821045E+001
+8.50187734668E+005, +9.73896411602E-001, +1.91713575867E+001
+9.75219023780E+005, +9.58238043960E-001, +2.19556250730E+001
+1.10025031289E+006, +1.06186351998E+000, +2.47501375501E+001
+1.22528160200E+006, +1.08642996634E+000, +2.75756411627E+001
+1.35031289111E+006, +1.05925149830E+000, +3.03989660623E+001
+1.47534418023E+006, +1.12439124591E+000, +3.31074197354E+001
+1.60037546934E+006, +1.11503427038E+000, +3.58540398289E+001
+1.72540675845E+006, +1.19349319319E+000, +3.86568130054E+001
+1.85043804756E+006, +1.23825289176E+000, +4.13953451852E+001
+1.97546933667E+006, +1.21156590949E+000, +4.41527359918E+001
+2.10050062578E+006, +1.24684779968E+000, +4.69520318285E+001
+2.22553191489E+006, +1.18490781491E+000, +4.98178492957E+001
+2.35056320401E+006, +1.20862374206E+000, +5.24808545522E+001
+2.47559449312E+006, +1.26157344019E+000, +5.52402844860E+001
+2.60062578223E+006, +1.27469024463E+000, +5.80088870279E+001
+2.72565707134E+006, +1.35571806801E+000, +6.08054097448E+001
+2.85068836045E+006, +1.26254078300E+000, +6.36178725433E+001
+2.97571964956E+006, +1.34947154750E+000, +6.64142769728E+001
+3.10075093867E+006, +1.33365827486E+000, +6.92818943782E+001
+3.22578222778E+006, +1.34720442998E+000, +7.19910822105E+001
+3.35081351690E+006, +1.45665256556E+000, +7.48016434945E+001
+3.47584480601E+006, +1.48575867506E+000, +7.74768755036E+001
+3.60087609512E+006, +1.51228380051E+000, +8.02564461868E+001
+3.72590738423E+006, +1.45062464474E+000, +8.32255772468E+001
+3.85093867334E+006, +1.48945704712E+000, +8.59419773599E+001
+3.97596996245E+006, +1.39217678540E+000, +8.86868282880E+001
+4.10100125156E+006, +1.44375057882E+000, +9.17508352853E+001
+4.22603254068E+006, +1.52109113709E+000, +9.41928758672E+001
+4.35106382979E+006, +1.54556982414E+000, +9.71165258174E+001
+4.47609511890E+006, +1.58314833538E+000, +9.98199811530E+001
+4.60112640801E+006, +1.32826138452E+000, +1.02836572651E+002
+4.72615769712E+006, +1.33714539888E+000, +1.05415013768E+002
+4.85118898623E+006, +1.47665523590E+000, +1.08304249351E+002
+4.97622027534E+006, +1.54253821244E+000, +1.11213147634E+002
+5.10125156446E+006, +1.46662655550E+000, +1.13772565387E+002
+5.22628285357E+006, +1.65495526114E+000, +1.16747482974E+002
+5.35131414268E+006, +1.47108308298E+000, +1.19683749122E+002
+5.47634543179E+006, +1.57209192817E+000, +1.22431937519E+002
+5.60137672090E+006, +1.84391790350E+000, +1.25401276148E+002
+5.72640801001E+006, +1.47427709172E+000, +1.28149198838E+002
+5.85143929912E+006, +1.81494692761E+000, +1.31122972008E+002
+5.97647058824E+006, +1.72467815410E+000, +1.33707772412E+002
+6.10150187735E+006, +1.67129576644E+000, +1.36751125654E+002
+6.22653316646E+006, +1.97828558949E+000, +1.39548970906E+002
+6.35156445557E+006, +1.80224162392E+000, +1.42526922586E+002
+6.47659574468E+006, +1.94997574867E+000, +1.45415461347E+002
+6.60162703379E+006, +1.75583382916E+000, +1.48325489902E+002
+6.72665832290E+006, +1.90681675343E+000, +1.51103563466E+002
+6.85168961202E+006, +1.83245181766E+000, +1.54184756405E+002
+6.97672090113E+006, +1.80318884785E+000, +1.56949363455E+002
+7.10175219024E+006, +1.82291724667E+000, +1.59753128465E+002
+7.22678347935E+006, +1.96094529019E+000, +1.62597828469E+002
+7.35181476846E+006, +1.98619748126E+000, +1.65608891814E+002
+7.47684605757E+006, +1.93647200538E+000, +1.68499223586E+002
+7.60187734668E+006, +2.05261343983E+000, +1.71280322091E+002
+7.72690863579E+006, +2.01690473035E+000, +1.74136430903E+002
+7.85193992491E+006, +2.21797704717E+000, +1.77177559488E+002
+7.97697121402E+006, +2.26208824709E+000, +1.80041830425E+002
+8.10200250313E+006, +1.98775529975E+000, +1.83196164528E+002
+8.22703379224E+006, +2.13000970273E+000, +1.86104662901E+002
+8.35206508135E+006, +1.95131784478E+000, +1.88821060035E+002
+8.47709637046E+006, +2.02847569828E+000, +1.91695916381E+002
+8.60212765957E+006, +2.00552957445E+000, +1.94760143541E+002
+8.72715894869E+006, +1.97704476408E+000, +1.97678763650E+002
+8.85219023780E+006, +2.19709485480E+000, +2.00810132879E+002
+8.97722152691E+006, +2.09064280879E+000, +2.03844303016E+002
+9.10225281602E+006, +2.25022426062E+000, +2.06785378405E+002
+9.22728410513E+006, +2.33190297106E+000, +2.09681594922E+002
+9.35231539424E+006, +2.31859990302E+000, +2.12680346717E+002
+9.47734668335E+006, +2.03858944375E+000, +2.15312879039E+002
+9.60237797247E+006, +2.15846387157E+000, +2.18508818095E+002
+9.72740926158E+006, +2.09565393925E+000, +2.21452557061E+002
+9.85244055069E+006, +2.29550519859E+000, +2.24373492575E+002
+9.97747183980E+006, +2.02671020027E+000, +2.27495570651E+002
+1.01025031289E+007, +2.04307327467E+000, +2.30185549001E+002
+1.02275344180E+007, +2.43520277639E+000, +2.33366862319E+002
+1.03525657071E+007, +2.12673873184E+000, +2.36307335694E+002
+1.04775969962E+007, +2.20882892355E+000, +2.39530945540E+002
+1.06026282854E+007, +2.16653731460E+000, +2.42476334810E+002
+1.07276595745E+007, +2.03462882780E+000, +2.45909507188E+002
+1.08526908636E+007, +2.41711050257E+000, +2.48989160081E+002
+1.09777221527E+007, +2.11233265754E+000, +2.51901374614E+002
+1.11027534418E+007, +2.19864223300E+000, +2.54795277880E+002
+1.12277847309E+007, +2.20272453611E+000, +2.57773618586E+002
+1.13528160200E+007, +1.99632641994E+000, +2.61408172152E+002
+1.14778473091E+007, +2.20540683002E+000, +2.64159031738E+002
+1.16028785982E+007, +1.90116320422E+000, +2.67467832865E+002
+1.17279098874E+007, +2.28517568013E+000, +2.70687603285E+002
+1.18529411765E+007, +1.97182885325E+000, +2.73641221097E+002
+1.19779724656E+007, +1.87950366341E+000, +2.76627029805E+002
+1.21030037547E+007, +2.19554929345E+000, +2.80102202805E+002
+1.22280350438E+007, +1.62803253017E+000, +2.83079111332E+002
+1.23530663329E+007, +1.86720748068E+000, +2.86944518259E+002
+1.24780976220E+007, +2.04501747622E+000, +2.89655185560E+002
+1.26031289111E+007, +1.68181759359E+000, +2.92505575895E+002
+1.27281602003E+007, +2.03556519882E+000, +2.95621167035E+002
+1.28531914894E+007, +2.00025643226E+000, +2.99162089792E+002
+1.29782227785E+007, +1.83457710816E+000, +3.02528108302E+002
+1.31032540676E+007, +2.09393480529E+000, +3.05607740063E+002
+1.32282853567E+007, +1.99389486734E+000, +3.08811479844E+002
+1.33533166458E+007, +2.20756621239E+000, +3.11974247291E+002
+1.34783479349E+007, +1.68191577751E+000, +3.15665266646E+002
+1.36033792240E+007, +1.72043959096E+000, +3.18179983563E+002
+1.37284105131E+007, +1.64819458377E+000, +3.21980765586E+002
+1.38534418023E+007, +2.26900318301E+000, +3.24810752283E+002
+1.39784730914E+007, +1.96227106621E+000, +3.27633823969E+002
+1.41035043805E+007, +1.63257638971E+000, +3.31651857424E+002
+1.42285356696E+007, +2.04323369588E+000, +3.34927919255E+002
+1.43535669587E+007, +2.27229474729E+000, +3.38355727463E+002
+1.44785982478E+007, +1.46693132527E+000, +3.41449223993E+002
+1.46036295369E+007, +1.50232028093E+000, +3.44418182801E+002
+1.47286608260E+007, +9.23942271858E-001, +3.49382277605E+002
+1.48536921151E+007, +1.66737933590E+000, +3.51468518512E+002
+1.49787234043E+007, +1.95810606821E+000, +3.55894184118E+002
+1.51037546934E+007, +2.38652837869E+000, +3.58295514877E+002
+1.52287859825E+007, +2.08654422707E+000, +3.61770248627E+002
+1.53538172716E+007, +1.89775882026E+000, +3.65222563302E+002
+1.54788485607E+007, +1.48757934655E+000, +3.69517160358E+002
+1.56038798498E+007, +2.23504779783E+000, +3.72137156935E+002
+1.57289111389E+007, +1.28171478848E+000, +3.76589240429E+002
+1.58539424280E+007, +1.30399937046E+000, +3.78745860338E+002
+1.59789737171E+007, +2.12751120759E+000, +3.82552667406E+002
+1.61040050063E+007, +2.12111554223E+000, +3.86082456770E+002
+1.62290362954E+007, +1.45138444562E+000, +3.89595140586E+002
+1.63540675845E+007, +1.63924230138E+000, +3.93288670001E+002
+1.64790988736E+007, +1.32306561047E+000, +3.96691948557E+002
+1.66041301627E+007, +1.54519724184E+000, +4.00467172113E+002
+1.67291614518E+007, +6.90250114176E-001, +4.04819205563E+002
+1.68541927409E+007, +1.65249667477E+000, +4.08256384207E+002
+1.69792240300E+007, +3.80315736755E-001, +4.11034102582E+002
+1.71042553191E+007, +4.35318674648E-001, +4.16307985698E+002
+1.72292866083E+007, +6.14253579534E-001, +4.18426368691E+002
+1.73543178974E+007, +9.53576146386E-001, +4.23088816959E+002
+1.74793491865E+007, +6.21445241226E-001, +4.25920515518E+002
+1.76043804756E+007, +1.22970310412E+000, +4.30370979190E+002
+1.77294117647E+007, +1.27415780299E+000, +4.32417607227E+002
+1.78544430538E+007, +1.55732184222E+000, +4.38374214828E+002
+1.79794743429E+007, +1.35464562167E+000, +4.39916102677E+002
+1.81045056320E+007, +5.91469560142E-001, +4.45146311711E+002
+1.82295369212E+007, +2.13071182258E+000, +4.47964152655E+002
+1.83545682103E+007, +2.10929837146E+000, +4.52516653016E+002
+1.84795994994E+007, +2.86178825948E+000, +4.55790158860E+002
+1.86046307885E+007, +2.33745425073E+000, +4.60915724013E+002
+1.87296620776E+007, +2.01231683649E+000, +4.64055913246E+002
+1.88546933667E+007, +1.73636453582E+000, +4.67613255628E+002
+1.89797246558E+007, +9.38787967145E-001, +4.71544345088E+002
+1.91047559449E+007, +1.62923016693E+000, +4.75707983539E+002
+1.92297872340E+007, +1.61304012059E+000, +4.81392656932E+002
+1.93548185232E+007, +2.09323597129E+000, +4.83419361450E+002
+1.94798498123E+007, +1.15474969600E+000, +4.86399557590E+002
+1.96048811014E+007, +1.97324605502E+000, +4.91436728372E+002
+1.97299123905E+007, +3.99977419490E-001, +4.95393939211E+002
+1.98549436796E+007, +1.25452345450E+000, +5.00122448938E+002
+1.99799749687E+007, +1.75168661395E+000, +5.03211855794E+002
+2.01050062578E+007, +1.05491550849E+000, +5.07951501571E+002
+2.02300375469E+007, +2.58099237728E+000, +5.12708275096E+002
+2.03550688360E+007, +8.09711215230E-001, +5.16505362247E+002
+2.04801001252E+007, +5.63416148538E-001, +5.20110059701E+002
+2.06051314143E+007, +2.06099596689E+000, +5.25378508523E+002
+2.07301627034E+007, +2.23928884453E+000, +5.27860640831E+002
+2.08551939925E+007, +1.15744135216E+000, +5.33977361800E+002
+2.09802252816E+007, +1.94762926518E+000, +5.36891795272E+002
+2.11052565707E+007, +1.83606442894E+000, +5.43096882911E+002
+2.12302878598E+007, +1.61793575297E+000, +5.46327540773E+002
+2.13553191489E+007, +1.74948053504E+000, +5.48494300111E+002
+2.14803504380E+007, +2.15162628099E+000, +5.54130513681E+002
+2.16053817272E+007, +4.61397452472E-001, +5.59325679004E+002
+2.17304130163E+007, +1.93971300623E+000, +5.64618459006E+002
+2.18554443054E+007, +2.77506563449E+000, +5.69177035955E+002
+2.19804755945E+007, +1.86024816159E+000, +5.72661313969E+002
+2.21055068836E+007, +1.34231319312E+000, +5.77892171996E+002
+2.22305381727E+007, +2.35083766821E+000, +5.80925704034E+002
+2.23555694618E+007, +3.21010587349E+000, +5.87132740648E+002
+2.24806007509E+007, +3.75747857957E+000, +5.91086698783E+002
+2.26056320401E+007, +4.90487925155E+000, +5.95497843463E+002
+2.27306633292E+007, +3.36269914926E+000, +5.98501527200E+002
+2.28556946183E+007, +2.07628513849E+000, +6.04658162329E+002
+2.29807259074E+007, +4.43906679244E+000, +6.10086378659E+002
+2.31057571965E+007, +4.28778301176E+000, +6.12552491978E+002
+2.32307884856E+007, +4.82989110193E+000, +6.20199130398E+002
+2.33558197747E+007, +5.31087858968E+000, +6.20787832035E+002
+2.34808510638E+007, +3.43756167623E+000, +6.27464855413E+002
+2.36058823529E+007, +5.63950048890E+000, +6.32703866387E+002
+2.37309136421E+007, +7.26250277310E+000, +6.35252493966E+002
+2.38559449312E+007, +7.57207514190E+000, +6.43819517046E+002
+2.39809762203E+007, +5.89957806688E+000, +6.44450145909E+002
+2.41060075094E+007, +5.15047624243E+000, +6.49531711402E+002
+2.42310387985E+007, +6.98999357727E+000, +6.55698369427E+002
+2.43560700876E+007, +7.54625672965E+000, +6.58973388654E+002
+2.44811013767E+007, +7.08882654964E+000, +6.63190976797E+002
+2.46061326658E+007, +7.66259165270E+000, +6.67989319307E+002
+2.47311639549E+007, +5.38489292396E+000, +6.73458610698E+002
+2.48561952441E+007, +8.63213741875E+000, +6.80150026320E+002
+2.49812265332E+007, +6.23211651801E+000, +6.84673154048E+002
+2.51062578223E+007, +9.18331566849E+000, +6.86976195607E+002
+2.52312891114E+007, +6.60130078213E+000, +6.92713424670E+002
+2.53563204005E+007, +5.42302138541E+000, +7.01040784484E+002
+2.54813516896E+007, +2.49847741731E+000, +7.02433648471E+002
+2.56063829787E+007, +5.70705845086E+000, +7.09030665165E+002
+2.57314142678E+007, +4.41254569435E+000, +7.16452621421E+002
+2.58564455569E+007, +3.66817541307E+000, +7.17762077922E+002
+2.59814768461E+007, +7.22433736919E+000, +7.24447918741E+002
+2.61065081352E+007, +6.06395501373E+000, +7.31038692628E+002
+2.62315394243E+007, +3.78512918466E+000, +7.37501317590E+002
+2.63565707134E+007, +2.86562477651E+000, +7.42166442560E+002
+2.64816020025E+007, +3.07710854902E+000, +7.47303966842E+002
+2.66066332916E+007, +4.80264101825E+000, +7.53425095582E+002
+2.67316645807E+007, +4.39666190582E+000, +7.58160879349E+002
+2.68566958698E+007, +6.99575561197E+000, +7.64397316033E+002
+2.69817271589E+007, +2.57891746843E+000, +7.71085840016E+002
+2.71067584481E+007, +5.18809733828E+000, +7.78961698542E+002
+2.72317897372E+007, +4.67573080247E+000, +7.78552251550E+002
+2.73568210263E+007, +1.08960957796E+001, +7.87742902654E+002
+2.74818523154E+007, +6.07518538833E+000, +7.91600879002E+002
+2.76068836045E+007, +7.13023384026E+000, +7.98106778362E+002
+2.77319148936E+007, +4.42212123940E+000, +8.02527502800E+002
+2.78569461827E+007, +5.89056107474E+000, +8.09189631307E+002
+2.79819774718E+007, +3.69916842502E+000, +8.16645693501E+002
+2.81070087610E+007, +7.93703192186E+000, +8.21451340750E+002
+2.82320400501E+007, +3.00986372424E+000, +8.28123396717E+002
+2.83570713392E+007, +3.80223484609E+000, +8.33663139502E+002
+2.84821026283E+007, +5.67068803736E+000, +8.41662164768E+002
+2.86071339174E+007, +1.56236512394E+000, +8.48892153710E+002
+2.87321652065E+007, +5.13118523429E+000, +8.52665495812E+002
+2.88571964956E+007, +8.03458278661E+000, +8.62066237541E+002
+2.89822277847E+007, +2.78039257505E+000, +8.68891808760E+002
+2.91072590738E+007, +3.84325263230E+000, +8.79512524833E+002
+2.92322903630E+007, +2.53438178610E+000, +8.82424244317E+002
+2.93573216521E+007, +1.86838403400E+000, +8.90255779187E+002
+2.94823529412E+007, +6.04080065316E+000, +8.98958545370E+002
+2.96073842303E+007, +2.44817097465E+000, +9.02743684614E+002
+2.97324155194E+007, +3.16748045130E+000, +9.16623542165E+002
+2.98574468085E+007, +6.20815109632E+000, +9.18031916614E+002
+2.99824780976E+007, +3.57666014748E+000, +9.25145931003E+002
+3.01075093867E+007, +2.25604558217E+000, +9.32331569670E+002
+3.02325406758E+007, +1.38081101048E+000, +9.39825818898E+002
+3.03575719650E+007, -6.54496345726E-002, +9.45260262307E+002
+3.04826032541E+007, -7.61580548195E-001, +9.54587105324E+002
+3.06076345432E+007, +3.22634167665E+000, +9.60277597132E+002
+3.07326658323E+007, -5.90228142238E-001, +9.65551379038E+002
+3.08576971214E+007, -1.63645300700E+000, +9.71686875962E+002
+3.09827284105E+007, -6.14340627944E-001, +9.84215029965E+002
+3.11077596996E+007, -3.22560597177E+000, +9.89886304642E+002
+3.12327909887E+007, +1.75279759351E+000, +9.97730175105E+002
+3.13578222778E+007, +2.87582660169E+000, +1.00641134411E+003
+3.14828535670E+007, +4.64645173723E+000, +1.01697167619E+003
+3.16078848561E+007, +2.97456339195E+000, +1.02266413593E+003
+3.17329161452E+007, +1.46722539873E+000, +1.03429278385E+003
+3.18579474343E+007, -3.75585323919E+000, +1.04429953881E+003
+3.19829787234E+007, -3.75695136815E+000, +1.04822403724E+003
+3.21080100125E+007, +3.03815237858E+000, +1.05919492084E+003
+3.22330413016E+007, -2.65820964733E+000, +1.06975997863E+003
+3.23580725907E+007, -4.32467701917E-002, +1.06970731794E+003
+3.24831038798E+007, +4.33487389244E+000, +1.08432365447E+003
+3.26081351690E+007, -2.73182116928E+000, +1.09285855851E+003
+3.27331664581E+007, +1.21376121895E+000, +1.09930395159E+003
+3.28581977472E+007, -3.98576719017E+000, +1.11567446762E+003
+3.29832290363E+007, +7.44528941161E-001, +1.12217314077E+003
+3.31082603254E+007, -4.07548017260E+000, +1.12653998610E+003
+3.32332916145E+007, +1.16399875139E+000, +1.13614792738E+003
+3.33583229036E+007, -7.82432958117E+000, +1.14821887478E+003
+3.34833541927E+007, +6.76826137987E-002, +1.15732390141E+003
+3.36083854819E+007, +5.52804330526E+000, +1.16522715944E+003
+3.37334167710E+007, -4.14685830520E-001, +1.17417507894E+003
+3.38584480601E+007, -3.66898772117E-001, +1.18300603662E+003
+3.39834793492E+007, -2.50206803553E+000, +1.19583557713E+003
+3.41085106383E+007, +1.38913386192E+000, +1.20848747213E+003
+3.42335419274E+007, +8.19841863785E+000, +1.21483940456E+003
+3.43585732165E+007, +1.07796205083E+000, +1.23225810888E+003
+3.44836045056E+007, +7.02397919942E+000, +1.24279350090E+003
+3.46086357947E+007, +3.11151653272E+000, +1.24842212172E+003
+3.47336670839E+007, -6.47620048431E-001, +1.26372591065E+003
+3.48586983730E+007, +3.90891976134E+000, +1.27784905489E+003
+3.49837296621E+007, +9.95329846274E+000, +1.28392253426E+003
+3.51087609512E+007, +6.30307005836E+000, +1.30059658426E+003
+3.52337922403E+007, +6.74859602691E+000, +1.30325762493E+003
+3.53588235294E+007, +4.17894564008E+000, +1.31856404089E+003
+3.54838548185E+007, +5.75539010827E+000, +1.32954747447E+003
+3.56088861076E+007, +1.19292847820E+000, +1.33832309339E+003
+3.57339173967E+007, +7.54421187824E+000, +1.35268558547E+003
+3.58589486859E+007, -8.22737374735E+000, +1.37238729840E+003
+3.59839799750E+007, +2.19529299413E+000, +1.37915112084E+003
+3.61090112641E+007, +6.64543884116E+000, +1.39252669427E+003
+3.62340425532E+007, +1.72703304113E+000, +1.39967031353E+003
+3.63590738423E+007, +4.06408237077E+000, +1.41071979133E+003
+3.64841051314E+007, +6.20189653905E+000, +1.41622617210E+003
+3.66091364205E+007, +5.87428303619E+000, +1.43540804662E+003
+3.67341677096E+007, +1.86360080979E+000, +1.45129125848E+003
+3.68591989987E+007, +4.91167948546E-001, +1.47494501518E+003
+3.69842302879E+007, +7.02413594600E+000, +1.47809649513E+003
+3.71092615770E+007, +1.14831899612E+001, +1.49761033095E+003
+3.72342928661E+007, -9.14573946536E+000, +1.50741895537E+003
+3.73593241552E+007, -3.87589490000E+000, +1.54011183116E+003
+3.74843554443E+007, -5.57870766768E+000, +1.54733491852E+003
+3.76093867334E+007, +2.39763700212E+000, +1.54808837889E+003
+3.77344180225E+007, +1.58514233797E+001, +1.58001281621E+003
+3.78594493116E+007, +3.97641481143E+000, +1.59491625175E+003
+3.79844806008E+007, +2.63149546461E+000, +1.61349792626E+003
+3.81095118899E+007, +6.90209831786E+000, +1.63259763545E+003
+3.82345431790E+007, +1.80457259949E+001, +1.62870075187E+003
+3.83595744681E+007, +5.95358076145E+000, +1.65467387027E+003
+3.84846057572E+007, +3.22072062028E-001, +1.66190488428E+003
+3.86096370463E+007, -3.59782089376E+000, +1.70134601776E+003
+3.87346683354E+007, +4.52843325965E+000, +1.70394483704E+003
+3.88596996245E+007, +7.23324429137E+000, +1.72493499175E+003
+3.89847309136E+007, +1.65734316206E+001, +1.74922336201E+003
+3.91097622028E+007, +1.61027007570E+001, +1.76698919465E+003
+3.92347934919E+007, +1.22612325563E+001, +1.78592869779E+003
+3.93598247810E+007, +1.74305633039E+001, +1.79666673369E+003
+3.94848560701E+007, +1.15664528222E+001, +1.83571831683E+003
+3.96098873592E+007, +6.42829769965E+000, +1.84880945617E+003
+3.97349186483E+007, +3.08642856988E+001, +1.88753575735E+003
+3.98599499374E+007, +3.44893047905E+001, +1.87685751632E+003
+3.99849812265E+007, +1.14069769832E+001, +1.91488921124E+003
+4.01100125156E+007, +2.13917156439E+001, +1.94928861968E+003
