"# Channel 1"
"# Trace 1"
Frequency, Formatted Data, Formatted Data
+1.00000000000E+005, +1.01692180706E+001, +2.17933065142E+000
+2.66777963272E+005, +1.01452456153E+001, +5.82512926716E+000
+4.33555926544E+005, +1.01529930390E+001, +9.49855164479E+000
+6.00333889816E+005, +1.01715094006E+001, +1.31090514471E+001
+7.67111853088E+005, +1.01999375950E+001, +1.67551297427E+001
+9.33889816361E+005, +1.01973133894E+001, +2.03498301735E+001
+1.10066777963E+006, +1.01543277330E+001, +2.40008893166E+001
+1.26744574290E+006, +1.01830023081E+001, +2.76476566436E+001
+1.43422370618E+006, +1.01345683285E+001, +3.13394722293E+001
+1.60100166945E+006, +1.02250525076E+001, +3.48899300271E+001
+1.76777963272E+006, +1.02300120206E+001, +3.85216206640E+001
+1.93455759599E+006, +1.01911703081E+001, +4.20909724880E+001
+2.10133555927E+006, +1.02458488464E+001, +4.57464853021E+001
+2.26811352254E+006, +1.02940032097E+001, +4.93806862358E+001
+2.43489148581E+006, +1.02471513067E+001, +5.30741624394E+001
+2.60166944908E+006, +1.02808368794E+001, +5.66318865664E+001
+2.76844741235E+006, +1.02408762499E+001, +6.03819015089E+001
+2.93522537563E+006, +1.02638431626E+001, +6.39847238686E+001
+3.10200333890E+006, +1.04095366021E+001, +6.75430815191E+001
+3.26878130217E+006, +1.02128201287E+001, +7.13889464220E+001
+3.43555926544E+006, +1.03248028026E+001, +7.49533657642E+001
+3.60233722871E+006, +1.04140260856E+001, +7.86813085878E+001
+3.76911519199E+006, +1.04289707924E+001, +8.24920879568E+001
+3.93589315526E+006, +1.04606744537E+001, +8.59065669272E+001
+4.10267111853E+006, +1.01368668083E+001, +8.94286106403E+001
+4.26944908180E+006, +1.04303121695E+001, +9.37712500521E+001
+4.43622704508E+006, +1.05181870217E+001, +9.70738202596E+001
+4.60300500835E+006, +1.05394333625E+001, +1.00909641595E+002
+4.76978297162E+006, +1.04409642392E+001, +1.04497332488E+002
+4.93656093489E+006, +1.07784280623E+001, +1.08335277445E+002
+5.10333889816E+006, +1.07093072532E+001, +1.11825806429E+002
+5.27011686144E+006, +1.11375437590E+001, +1.15769971909E+002
+5.43689482471E+006, +1.08245691026E+001, +1.19405616630E+002
+5.60367278798E+006, +1.08753079884E+001, +1.23304952500E+002
+5.77045075125E+006, +1.08065651241E+001, +1.26908268705E+002
+5.93722871452E+006, +1.12476150466E+001, +1.30751466424E+002
+6.10400667780E+006, +1.10901524192E+001, +1.34439168241E+002
+6.27078464107E+006, +1.12975655837E+001, +1.38160541206E+002
+6.43756260434E+006, +1.14715520774E+001, +1.41975853315E+002
+6.60434056761E+006, +1.15709636405E+001, +1.45675727991E+002
+6.77111853088E+006, +1.17668341986E+001, +1.49326163905E+002
+6.93789649416E+006, +1.16696424515E+001, +1.53237411910E+002
+7.10467445743E+006, +1.17883794035E+001, +1.56758773780E+002
+7.27145242070E+006, +1.18317842808E+001, +1.60586014402E+002
+7.43823038397E+006, +1.19589485499E+001, +1.64155409872E+002
+7.60500834725E+006, +1.19179096520E+001, +1.68025396593E+002
+7.77178631052E+006, +1.21280922578E+001, +1.72031182391E+002
+7.93856427379E+006, +1.19738305736E+001, +1.75708731607E+002
+8.10534223706E+006, +1.21907020559E+001, +1.79614069150E+002
+8.27212020033E+006, +1.22111494456E+001, +1.83457704892E+002
+8.43889816361E+006, +1.20650295320E+001, +1.87264739026E+002
+8.60567612688E+006, +1.20220120839E+001, +1.91299487613E+002
+8.77245409015E+006, +1.18293313900E+001, +1.94882899501E+002
+8.93923205342E+006, +1.21092377071E+001, +1.99056968125E+002
+9.10601001669E+006, +1.20512523918E+001, +2.03025746390E+002
+9.27278797997E+006, +1.20399748761E+001, +2.06747390169E+002
+9.43956594324E+006, +1.19365026515E+001, +2.10770403023E+002
+9.60634390651E+006, +1.20101512512E+001, +2.14866567092E+002
+9.77312186978E+006, +1.22404883583E+001, +2.18721237407E+002
+9.93989983306E+006, +1.23633131382E+001, +2.22696293159E+002
+1.01066777963E+007, +1.21074453109E+001, +2.26672695241E+002
+1.02734557596E+007, +1.21989485297E+001, +2.30955118113E+002
+1.04402337229E+007, +1.22351248882E+001, +2.35071703695E+002
+1.06070116861E+007, +1.23618822253E+001, +2.39134812021E+002
+1.07737896494E+007, +1.22373042402E+001, +2.43314268171E+002
+1.09405676127E+007, +1.27116048643E+001, +2.47224706450E+002
+1.11073455760E+007, +1.27367972716E+001, +2.51407287273E+002
+1.12741235392E+007, +1.27457238864E+001, +2.55213476281E+002
+1.14409015025E+007, +1.29314061521E+001, +2.59428687033E+002
+1.16076794658E+007, +1.31383916483E+001, +2.63862897566E+002
+1.17744574290E+007, +1.28405901629E+001, +2.68291532621E+002
+1.19412353923E+007, +1.27508720895E+001, +2.72343364837E+002
+1.21080133556E+007, +1.25505426584E+001, +2.76520384714E+002
+1.22747913189E+007, +1.29997675738E+001, +2.80798595058E+002
+1.24415692821E+007, +1.26554440026E+001, +2.84617675671E+002
+1.26083472454E+007, +1.29315936716E+001, +2.89382586969E+002
+1.27751252087E+007, +1.32273154589E+001, +2.93406078240E+002
+1.29419031720E+007, +1.31820874269E+001, +2.97855328673E+002
+1.31086811352E+007, +1.35532096426E+001, +3.02339160658E+002
+1.32754590985E+007, +1.31803910953E+001, +3.06389834648E+002
+1.34422370618E+007, +1.34307724540E+001, +3.10959598977E+002
+1.36090150250E+007, +1.38868263043E+001, +3.15355049410E+002
+1.37757929883E+007, +1.34856703930E+001, +3.19625791262E+002
+1.39425709516E+007, +1.38983151666E+001, +3.23697805276E+002
+1.41093489149E+007, +1.43081679305E+001, +3.28486095398E+002
+1.42761268781E+007, +1.43519776552E+001, +3.32873849231E+002
+1.44429048414E+007, +1.42504907687E+001, +3.37228741928E+002
+1.46096828047E+007, +1.42454458171E+001, +3.41864682408E+002
+1.47764607679E+007, +1.46331707989E+001, +3.45868465148E+002
+1.49432387312E+007, +1.41908768302E+001, +3.51263629890E+002
+1.51100166945E+007, +1.41570673883E+001, +3.55217291585E+002
+1.52767946578E+007, +1.46546955702E+001, +3.60179054083E+002
+1.54435726210E+007, +1.45925738939E+001, +3.64717459406E+002
+1.56103505843E+007, +1.49050891248E+001, +3.69347749112E+002
+1.57771285476E+007, +1.52260024419E+001, +3.73409402019E+002
+1.59439065109E+007, +1.47272031243E+001, +3.78864289289E+002
+1.61106844741E+007, +1.48739682267E+001, +3.84082027614E+002
+1.62774624374E+007, +1.46054015044E+001, +3.87800379273E+002
+1.64442404007E+007, +1.48695951598E+001, +3.93136774124E+002
+1.66110183639E+007, +1.53588698970E+001, +3.97840223369E+002
+1.67777963272E+007, +1.57296631158E+001, +4.03370062938E+002
+1.69445742905E+007, +1.70294175106E+001, +4.08130239084E+002
+1.71113522538E+007, +1.41060155869E+001, +4.11816428030E+002
+1.72781302170E+007, +1.53372722865E+001, +4.18161158296E+002
+1.74449081803E+007, +1.47779785623E+001, +4.22489665707E+002
+1.76116861436E+007, +1.62706069506E+001, +4.28797422406E+002
+1.77784641068E+007, +1.57876483527E+001, +4.32516320982E+002
+1.79452420701E+007, +1.66486273397E+001, +4.37507299367E+002
+1.81120200334E+007, +1.71445637426E+001, +4.42415764064E+002
+1.82787979967E+007, +1.66625401547E+001, +4.47538452333E+002
+1.84455759599E+007, +1.85719619770E+001, +4.53376111724E+002
+1.86123539232E+007, +1.82968231452E+001, +4.58944031517E+002
+1.87791318865E+007, +1.69529685103E+001, +4.64288098351E+002
+1.89459098497E+007, +1.82690179661E+001, +4.68785320736E+002
+1.91126878130E+007, +1.87522967791E+001, +4.74295357577E+002
+1.92794657763E+007, +1.84520370852E+001, +4.79576122725E+002
+1.94462437396E+007, +1.94270469087E+001, +4.86362754379E+002
+1.96130217028E+007, +1.98553341574E+001, +4.91209113760E+002
+1.97797996661E+007, +2.03071928417E+001, +4.95284341135E+002
+1.99465776294E+007, +1.81784668466E+001, +5.01833974702E+002
+2.01133555927E+007, +1.83069884241E+001, +5.07604728758E+002
+2.02801335559E+007, +1.94944341228E+001, +5.14100109844E+002
+2.04469115192E+007, +2.06562636755E+001, +5.17956195349E+002
+2.06136894825E+007, +2.20340097393E+001, +5.24500651398E+002
+2.07804674457E+007, +2.07306741441E+001, +5.30279444378E+002
+2.09472454090E+007, +2.06813168495E+001, +5.38038944812E+002
+2.11140233723E+007, +2.16715679843E+001, +5.42144706078E+002
+2.12808013356E+007, +2.17014508471E+001, +5.46654047516E+002
+2.14475792988E+007, +2.19527360563E+001, +5.54186119236E+002
+2.16143572621E+007, +2.43442683905E+001, +5.59940323011E+002
+2.17811352254E+007, +2.29907082758E+001, +5.65156484616E+002
+2.19479131886E+007, +2.47979243754E+001, +5.72433338093E+002
+2.21146911519E+007, +2.60836189757E+001, +5.76152798606E+002
+2.22814691152E+007, +2.39092131732E+001, +5.84037885295E+002
+2.24482470785E+007, +2.47906142141E+001, +5.91727224525E+002
+2.26150250417E+007, +2.60868814142E+001, +5.96836142383E+002
+2.27818030050E+007, +2.57546464986E+001, +6.03744494097E+002
+2.29485809683E+007, +2.85536484806E+001, +6.10327446760E+002
+2.31153589316E+007, +2.64320909759E+001, +6.17756918146E+002
+2.32821368948E+007, +2.81117984535E+001, +6.21760205713E+002
+2.34489148581E+007, +2.83970855437E+001, +6.28375005716E+002
+2.36156928214E+007, +2.92883472427E+001, +6.36670244742E+002
+2.37824707846E+007, +3.05724977941E+001, +6.42392960440E+002
+2.39492487479E+007, +3.01886839855E+001, +6.48923458126E+002
+2.41160267112E+007, +2.95677545315E+001, +6.55911299508E+002
+2.42828046745E+007, +3.13296590255E+001, +6.62061706537E+002
+2.44495826377E+007, +3.40087120055E+001, +6.69912081809E+002
+2.46163606010E+007, +3.42097729560E+001, +6.75228613829E+002
+2.47831385643E+007, +3.48763858084E+001, +6.85039934745E+002
+2.49499165275E+007, +3.50818697798E+001, +6.91015295895E+002
+2.51166944908E+007, +3.70034076953E+001, +6.97891300204E+002
+2.52834724541E+007, +3.69784799063E+001, +7.05876304917E+002
+2.54502504174E+007, +3.81364545892E+001, +7.12436173152E+002
+2.56170283806E+007, +3.85765078427E+001, +7.19035880297E+002
+2.57838063439E+007, +3.83870280544E+001, +7.27403758648E+002
+2.59505843072E+007, +3.95797815658E+001, +7.36440008468E+002
+2.61173622705E+007, +4.05375995513E+001, +7.42090475690E+002
+2.62841402337E+007, +4.25478215963E+001, +7.50137222580E+002
+2.64509181970E+007, +4.08369735402E+001, +7.56492359272E+002
+2.66176961603E+007, +4.29961715425E+001, +7.67199149273E+002
+2.67844741235E+007, +4.40599007036E+001, +7.72018435693E+002
+2.69512520868E+007, +4.56235701883E+001, +7.79465953623E+002
+2.71180300501E+007, +4.60114906974E+001, +7.83453189960E+002
+2.72848080134E+007, +4.43723814833E+001, +7.95696693126E+002
+2.74515859766E+007, +4.79176712416E+001, +8.04515707628E+002
+2.76183639399E+007, +4.39210375132E+001, +8.10274153290E+002
+2.77851419032E+007, +4.43890958433E+001, +8.18164516804E+002
+2.79519198664E+007, +4.55055690153E+001, +8.28340652126E+002
+2.81186978297E+007, +4.91656066374E+001, +8.36088492550E+002
+2.82854757930E+007, +5.04900379511E+001, +8.41689715179E+002
+2.84522537563E+007, +4.28145110660E+001, +8.54937920791E+002
+2.86190317195E+007, +4.76134715308E+001, +8.57921773883E+002
+2.87858096828E+007, +5.61003584911E+001, +8.69013866998E+002
+2.89525876461E+007, +5.07839964536E+001, +8.80309345415E+002
+2.91193656093E+007, +5.18656948015E+001, +8.84426296759E+002
+2.92861435726E+007, +4.95883551864E+001, +8.95226587035E+002
+2.94529215359E+007, +5.12347660338E+001, +9.08300151870E+002
+2.96196994992E+007, +5.46025334768E+001, +9.15932913292E+002
+2.97864774624E+007, +5.73843885271E+001, +9.28658108008E+002
+2.99532554257E+007, +5.70516866048E+001, +9.36755582926E+002
+3.01200333890E+007, +5.25593621362E+001, +9.47534123335E+002
+3.02868113523E+007, +5.25926626202E+001, +9.59735838537E+002
+3.04535893155E+007, +5.46156803322E+001, +9.69089802845E+002
+3.06203672788E+007, +5.41681306339E+001, +9.81534164425E+002
+3.07871452421E+007, +5.65414919371E+001, +9.91749199644E+002
+3.09539232053E+007, +5.83319262721E+001, +1.00324306150E+003
+3.11207011686E+007, +5.64374043002E+001, +1.01258145190E+003
+3.12874791319E+007, +5.81101219111E+001, +1.02493502839E+003
+3.14542570952E+007, +5.97936162303E+001, +1.04022448488E+003
+3.16210350584E+007, +5.80150574819E+001, +1.05253667640E+003
+3.17878130217E+007, +5.32235178339E+001, +1.06339015142E+003
+3.19545909850E+007, +6.04561059278E+001, +1.07413622828E+003
+3.21213689482E+007, +5.70209995937E+001, +1.08915519733E+003
+3.22881469115E+007, +5.72352695680E+001, +1.09921361874E+003
+3.24549248748E+007, +6.57116492153E+001, +1.11559350003E+003
+3.26217028381E+007, +6.21914460978E+001, +1.13047527269E+003
+3.27884808013E+007, +6.35227183789E+001, +1.13778629581E+003
+3.29552587646E+007, +6.69282086379E+001, +1.15169062149E+003
+3.31220367279E+007, +6.75125997149E+001, +1.16898617654E+003
+3.32888146912E+007, +6.72615804395E+001, +1.19018647766E+003
+3.34555926544E+007, +6.47165135561E+001, +1.19590387429E+003
+3.36223706177E+007, +7.78088491244E+001, +1.20960477544E+003
+3.37891485810E+007, +7.27421617299E+001, +1.22945163521E+003
+3.39559265442E+007, +7.16598329902E+001, +1.24811717263E+003
+3.41227045075E+007, +7.33816407629E+001, +1.25648025578E+003
+3.42894824708E+007, +7.40413802910E+001, +1.27852519312E+003
+3.44562604341E+007, +7.82547576818E+001, +1.29241210993E+003
+3.46230383973E+007, +8.01968218751E+001, +1.31793608929E+003
+3.47898163606E+007, +8.38253909797E+001, +1.32267477540E+003
+3.49565943239E+007, +8.80234086521E+001, +1.34493451712E+003
+3.51233722871E+007, +8.74592245429E+001, +1.36649670785E+003
+3.52901502504E+007, +9.00059945257E+001, +1.36670831995E+003
+3.54569282137E+007, +9.41920419351E+001, +1.39758989940E+003
+3.56237061770E+007, +7.84800763104E+001, +1.42380388249E+003
+3.57904841402E+007, +8.48722440561E+001, +1.43041295711E+003
+3.59572621035E+007, +1.01928137721E+002, +1.46306304160E+003
+3.61240400668E+007, +9.24856189183E+001, +1.47182982697E+003
+3.62908180301E+007, +1.00238315049E+002, +1.49878071488E+003
+3.64575959933E+007, +9.78455780954E+001, +1.52550928550E+003
+3.66243739566E+007, +1.01819573850E+002, +1.53936911691E+003
+3.67911519199E+007, +1.14880310390E+002, +1.57172915095E+003
+3.69579298831E+007, +1.12197844636E+002, +1.58834226985E+003
+3.71247078464E+007, +1.09260622967E+002, +1.62123543001E+003
+3.72914858097E+007, +1.20313392094E+002, +1.64549375163E+003
+3.74582637730E+007, +1.28226811308E+002, +1.67283647805E+003
+3.76250417362E+007, +1.28406617340E+002, +1.69401981749E+003
+3.77918196995E+007, +1.23969924202E+002, +1.71662532943E+003
+3.79585976628E+007, +1.20744248395E+002, +1.74558796371E+003
+3.81253756260E+007, +1.39297915325E+002, +1.77924480387E+003
+3.82921535893E+007, +1.52943900841E+002, +1.80259859681E+003
+3.84589315526E+007, +1.35083319425E+002, +1.83042346506E+003
+3.86257095159E+007, +1.48137575834E+002, +1.86152816002E+003
+3.87924874791E+007, +1.44604936958E+002, +1.90351877252E+003
+3.89592654424E+007, +1.60812952229E+002, +1.93014853163E+003
+3.91260434057E+007, +1.71932980578E+002, +1.98786416394E+003
+3.92928213689E+007, +1.77633091665E+002, +2.00710049733E+003
+3.94595993322E+007, +1.67647576114E+002, +2.04473754359E+003
+3.96263772955E+007, +1.74723904688E+002, +2.07040977601E+003
+3.97931552588E+007, +1.91963434201E+002, +2.13457697712E+003
+3.99599332220E+007, +2.15046437537E+002, +2.17101498757E+003
+4.01267111853E+007, +2.07455991051E+002, +2.22985862373E+003
+4.02934891486E+007, +2.16772871536E+002, +2.24123880008E+003
+4.04602671119E+007, +2.37694583171E+002, +2.29213532411E+003
+4.06270450751E+007, +2.59729653994E+002, +2.36083821408E+003
+4.07938230384E+007, +2.46057398926E+002, +2.41671046332E+003
+4.09606010017E+007, +2.69114558284E+002, +2.46563689089E+003
+4.11273789649E+007, +2.93457900680E+002, +2.50369802275E+003
+4.12941569282E+007, +2.92790892568E+002, +2.55380394589E+003
+4.14609348915E+007, +3.11860927505E+002, +2.63488986215E+003
+4.16277128548E+007, +3.33015917193E+002, +2.66932923758E+003
+4.17944908180E+007, +3.46530003103E+002, +2.71645103166E+003
+4.19612687813E+007, +3.75162866686E+002, +2.80756311743E+003
+4.21280467446E+007, +3.44912018205E+002, +2.88643283867E+003
+4.22948247078E+007, +4.12403262592E+002, +2.97167253453E+003
+4.24616026711E+007, +4.39621139934E+002, +3.01469846641E+003
+4.26283806344E+007, +4.65326478419E+002, +3.07978626812E+003
+4.27951585977E+007, +4.50964231443E+002, +3.23666309965E+003
+4.29619365609E+007, +5.43196286353E+002, +3.28445518123E+003
+4.31287145242E+007, +5.30276655737E+002, +3.40448981364E+003
+4.32954924875E+007, +5.62044613625E+002, +3.37366803193E+003
+4.34622704508E+007, +5.81476961795E+002, +3.59234282983E+003
+4.36290484140E+007, +6.97656009776E+002, +3.66343215344E+003
+4.37958263773E+007, +6.94539885313E+002, +3.88312588936E+003
+4.39626043406E+007, +7.39433918722E+002, +3.89485472866E+003
+4.41293823038E+007, +8.53496449221E+002, +4.08101012516E+003
+4.42961602671E+007, +9.11933278974E+002, +4.22928730255E+003
+4.44629382304E+007, +9.37891576462E+002, +4.36899547922E+003
+4.46297161937E+007, +1.06085870576E+003, +4.51462142448E+003
+4.47964941569E+007, +1.07551430972E+003, +4.66000785364E+003
+4.49632721202E+007, +1.19157644662E+003, +4.91095199851E+003
+4.51300500835E+007, +1.14924697163E+003, +5.04540371544E+003
+4.52968280467E+007, +1.51737017543E+003, +5.29304449163E+003
+4.54636060100E+007, +1.76869027991E+003, +5.58328230048E+003
+4.56303839733E+007, +1.86502042876E+003, +5.83103709452E+003
+4.57971619366E+007, +2.07195611422E+003, +6.06808040372E+003
+4.59639398998E+007, +2.50627505373E+003, +6.62362975367E+003
+4.61307178631E+007, +2.88343260780E+003, +6.53948048676E+003
+4.62974958264E+007, +3.20714484070E+003, +6.93540006532E+003
+4.64642737896E+007, +3.55003697323E+003, +7.67797710023E+003
+4.66310517529E+007, +4.09310651850E+003, +8.03385191097E+003
+4.67978297162E+007, +4.60343238533E+003, +7.74555377469E+003
+4.69646076795E+007, +5.70921296680E+003, +8.60752325824E+003
+4.71313856427E+007, +6.84680430098E+003, +8.50111852886E+003
+4.72981636060E+007, +8.41223197634E+003, +9.18129100468E+003
+4.74649415693E+007, +9.22993864238E+003, +9.22699820140E+003
+4.76317195326E+007, +1.04830906980E+004, +8.25959450858E+003
+4.77984974958E+007, +1.26010066178E+004, +6.89956214455E+003
+4.79652754591E+007, +1.42490961016E+004, +6.30984801506E+003
+4.81320534224E+007, +1.43835627890E+004, +4.37312635172E+003
+4.82988313856E+007, +1.64552940762E+004, +1.73602869662E+003
+4.84656093489E+007, +1.51749270851E+004, +4.40929457419E+001
+4.86323873122E+007, +1.47803669582E+004, -1.86692416100E+003
+4.87991652755E+007, +1.34973961684E+004, -3.56360411890E+003
+4.89659432387E+007, +1.33067129228E+004, -4.59009319467E+003
+4.91327212020E+007, +1.04871967374E+004, -5.88229175425E+003
+4.92994991653E+007, +1.03399921011E+004, -5.86246757115E+003
+4.94662771285E+007, +8.84683049299E+003, -6.37287578109E+003
+4.96330550918E+007, +7.67658827778E+003, -6.24078302982E+003
+4.97998330551E+007, +7.15149328089E+003, -6.46001516563E+003
+4.99666110184E+007, +6.35807131775E+003, -6.09336272935E+003
+5.01333889816E+007, +5.78505411514E+003, -6.40320067364E+003
+5.03001669449E+007, +5.34131142566E+003, -6.49222371453E+003
+5.04669449082E+007, +4.52539075284E+003, -6.02126049925E+003
+5.06337228715E+007, +4.38165620544E+003, -5.80100158042E+003
+5.08005008347E+007, +4.12013861880E+003, -5.75877655738E+003
+5.09672787980E+007, +3.66339074557E+003, -5.51289618058E+003
+5.11340567613E+007, +3.10459852453E+003, -5.35743199010E+003
+5.13008347245E+007, +2.73588569492E+003, -5.28183712461E+003
+5.14676126878E+007, +2.72737797833E+003, -4.96983186014E+003
+5.16343906511E+007, +2.37232070384E+003, -4.76537306056E+003
+5.18011686144E+007, +2.20106951467E+003, -4.66272480406E+003
+5.19679465776E+007, +2.07250020315E+003, -4.50961464010E+003
+5.21347245409E+007, +1.89459597489E+003, -4.20848984926E+003
+5.23015025042E+007, +1.76596726008E+003, -4.04956682178E+003
+5.24682804674E+007, +1.52981124881E+003, -3.96463941232E+003
+5.26350584307E+007, +1.55149841171E+003, -3.79225382459E+003
+5.28018363940E+007, +1.39040082822E+003, -3.71440280493E+003
+5.29686143573E+007, +1.32949934668E+003, -3.50589992520E+003
+5.31353923205E+007, +1.31520999829E+003, -3.48202934424E+003
+5.33021702838E+007, +1.18218220111E+003, -3.34298475377E+003
+5.34689482471E+007, +1.15915342047E+003, -3.21132843155E+003
