"# Channel 1"
"# Trace 1"
Frequency, Formatted Data, Formatted Data
+1.00000000000E+006, +2.65846399521E+001, +2.34770935301E+001
+1.16527545910E+006, +2.66068272933E+001, +2.73214395538E+001
+1.33055091820E+006, +2.66164583235E+001, +3.11291999815E+001
+1.49582637730E+006, +2.65956049368E+001, +3.50560425000E+001
+1.66110183639E+006, +2.66061042910E+001, +3.89269934575E+001
+1.82637729549E+006, +2.65961957685E+001, +4.27238879415E+001
+1.99165275459E+006, +2.66056441553E+001, +4.65837535014E+001
+2.15692821369E+006, +2.65859245099E+001, +5.04373486959E+001
+2.32220367279E+006, +2.65354060147E+001, +5.43320476466E+001
+2.48747913189E+006, +2.65270605243E+001, +5.82037375630E+001
+2.65275459098E+006, +2.64932903777E+001, +6.21319315123E+001
+2.81803005008E+006, +2.64548583011E+001, +6.60077535194E+001
+2.98330550918E+006, +2.63793897368E+001, +6.97389017045E+001
+3.14858096828E+006, +2.65078927764E+001, +7.37279636760E+001
+3.31385642738E+006, +2.66191367041E+001, +7.75014753548E+001
+3.47913188648E+006, +2.65009939721E+001, +8.15484655373E+001
+3.64440734558E+006, +2.64666481830E+001, +8.52180393651E+001
+3.80968280467E+006, +2.66142288313E+001, +8.90950357182E+001
+3.97495826377E+006, +2.66684873428E+001, +9.27917688112E+001
+4.14023372287E+006, +2.67045992859E+001, +9.71574660135E+001
+4.30550918197E+006, +2.65623709269E+001, +1.00463081248E+002
+4.47078464107E+006, +2.64761822212E+001, +1.04705294162E+002
+4.63606010017E+006, +2.65142889036E+001, +1.08536725452E+002
+4.80133555927E+006, +2.64715861455E+001, +1.12517114244E+002
+4.96661101836E+006, +2.65323529272E+001, +1.16301993113E+002
+5.13188647746E+006, +2.65492685349E+001, +1.20242892320E+002
+5.29716193656E+006, +2.65406330725E+001, +1.24025603491E+002
+5.46243739566E+006, +2.66642721916E+001, +1.28050103250E+002
+5.62771285476E+006, +2.69356094491E+001, +1.31813633310E+002
+5.79298831386E+006, +2.71315225142E+001, +1.36092537581E+002
+5.95826377295E+006, +2.68151559342E+001, +1.39868819226E+002
+6.12353923205E+006, +2.71352970139E+001, +1.43651629428E+002
+6.28881469115E+006, +2.69630594128E+001, +1.47567720309E+002
+6.45409015025E+006, +2.71778137018E+001, +1.51429904012E+002
+6.61936560935E+006, +2.71044502984E+001, +1.55364627705E+002
+6.78464106845E+006, +2.73148957477E+001, +1.59276361999E+002
+6.94991652755E+006, +2.73774745258E+001, +1.63116928150E+002
+7.11519198664E+006, +2.73542045148E+001, +1.67089174051E+002
+7.28046744574E+006, +2.73818689226E+001, +1.71041276881E+002
+7.44574290484E+006, +2.75709034288E+001, +1.74938221042E+002
+7.61101836394E+006, +2.75090498778E+001, +1.78757309715E+002
+7.77629382304E+006, +2.75688843186E+001, +1.82590697643E+002
+7.94156928214E+006, +2.72952824374E+001, +1.86680984905E+002
+8.10684474124E+006, +2.73556086200E+001, +1.90479172122E+002
+8.27212020033E+006, +2.73701300556E+001, +1.94382869113E+002
+8.43739565943E+006, +2.74932747071E+001, +1.98733176444E+002
+8.60267111853E+006, +2.73633848481E+001, +2.02506221361E+002
+8.76794657763E+006, +2.76178350968E+001, +2.06342781062E+002
+8.93322203673E+006, +2.72835162577E+001, +2.10614439273E+002
+9.09849749583E+006, +2.74535474568E+001, +2.14293883824E+002
+9.26377295492E+006, +2.74206020212E+001, +2.18713597842E+002
+9.42904841402E+006, +2.76981969555E+001, +2.22316908411E+002
+9.59432387312E+006, +2.77324154776E+001, +2.26204751266E+002
+9.75959933222E+006, +2.73402656264E+001, +2.30425101680E+002
+9.92487479132E+006, +2.74577331831E+001, +2.34230090989E+002
+1.00901502504E+007, +2.76032459839E+001, +2.38312454126E+002
+1.02554257095E+007, +2.73784252460E+001, +2.42219108456E+002
+1.04207011686E+007, +2.73993053572E+001, +2.46437889981E+002
+1.05859766277E+007, +2.74668506638E+001, +2.50671531397E+002
+1.07512520868E+007, +2.76501003716E+001, +2.54460219039E+002
+1.09165275459E+007, +2.73552694211E+001, +2.58944521569E+002
+1.10818030050E+007, +2.77798983753E+001, +2.63094113127E+002
+1.12470784641E+007, +2.73587032902E+001, +2.66424793553E+002
+1.14123539232E+007, +2.78016525326E+001, +2.70809056721E+002
+1.15776293823E+007, +2.77781085782E+001, +2.75313997825E+002
+1.17429048414E+007, +2.77758260101E+001, +2.78943755681E+002
+1.19081803005E+007, +2.78492103986E+001, +2.83679744711E+002
+1.20734557596E+007, +2.80206229412E+001, +2.87656933710E+002
+1.22387312187E+007, +2.76881876949E+001, +2.91555089733E+002
+1.24040066778E+007, +2.82290583913E+001, +2.95507192906E+002
+1.25692821369E+007, +2.76777321402E+001, +2.99607371542E+002
+1.27345575960E+007, +2.80246895569E+001, +3.03343512726E+002
+1.28998330551E+007, +2.80893761696E+001, +3.08223634417E+002
+1.30651085142E+007, +2.76173497667E+001, +3.12672219135E+002
+1.32303839733E+007, +2.84704021970E+001, +3.16380423575E+002
+1.33956594324E+007, +2.80135875241E+001, +3.20517472992E+002
+1.35609348915E+007, +2.85911957232E+001, +3.24312387334E+002
+1.37262103506E+007, +2.80316754838E+001, +3.28115029692E+002
+1.38914858097E+007, +2.85972144634E+001, +3.32719373599E+002
+1.40567612688E+007, +2.84291793235E+001, +3.36999954705E+002
+1.42220367279E+007, +2.86709351207E+001, +3.41099383913E+002
+1.43873121870E+007, +2.83407050256E+001, +3.45968587719E+002
+1.45525876461E+007, +2.82592176465E+001, +3.49784853443E+002
+1.47178631052E+007, +2.85040891639E+001, +3.54415524334E+002
+1.48831385643E+007, +2.87662488057E+001, +3.57761242593E+002
+1.50484140234E+007, +2.84896240182E+001, +3.62421284406E+002
+1.52136894825E+007, +2.85116078936E+001, +3.67148390834E+002
+1.53789649416E+007, +2.86118866518E+001, +3.71690952287E+002
+1.55442404007E+007, +2.87097951011E+001, +3.75328870655E+002
+1.57095158598E+007, +2.83363915952E+001, +3.79636254889E+002
+1.58747913189E+007, +2.92613921852E+001, +3.84189638998E+002
+1.60400667780E+007, +2.86752278841E+001, +3.88060620005E+002
+1.62053422371E+007, +2.88733424635E+001, +3.92720844624E+002
+1.63706176962E+007, +2.88862096724E+001, +3.96023436130E+002
+1.65358931553E+007, +2.90451904037E+001, +4.00814874385E+002
+1.67011686144E+007, +2.99786824525E+001, +4.05155101515E+002
+1.68664440735E+007, +2.92592451807E+001, +4.09867551698E+002
+1.70317195326E+007, +2.81663549999E+001, +4.14415551680E+002
+1.71969949917E+007, +2.80733578309E+001, +4.19714607861E+002
+1.73622704508E+007, +2.85477287571E+001, +4.22886339658E+002
+1.75275459098E+007, +2.80348249975E+001, +4.27543797569E+002
+1.76928213689E+007, +2.85613719408E+001, +4.32249571834E+002
+1.78580968280E+007, +2.98475478791E+001, +4.37502088764E+002
+1.80233722871E+007, +3.00390677591E+001, +4.41035695937E+002
+1.81886477462E+007, +2.92214330454E+001, +4.45943120919E+002
+1.83539232053E+007, +2.97873441873E+001, +4.50578170367E+002
+1.85191986644E+007, +2.97800133825E+001, +4.55892992778E+002
+1.86844741235E+007, +3.04073471974E+001, +4.57675030332E+002
+1.88497495826E+007, +3.03053970468E+001, +4.63310736079E+002
+1.90150250417E+007, +2.97604521952E+001, +4.68237602531E+002
+1.91803005008E+007, +3.07680966662E+001, +4.73073472056E+002
+1.93455759599E+007, +3.10598656978E+001, +4.76343963201E+002
+1.95108514190E+007, +3.16373723463E+001, +4.81120770705E+002
+1.96761268781E+007, +3.12876044129E+001, +4.86145948126E+002
+1.98414023372E+007, +3.23300212578E+001, +4.91188269144E+002
+2.00066777963E+007, +3.05726137885E+001, +4.95163236718E+002
+2.01719532554E+007, +3.06364131338E+001, +5.00219102600E+002
+2.03372287145E+007, +3.21554648253E+001, +5.05091004354E+002
+2.05025041736E+007, +3.16933784208E+001, +5.09132401684E+002
+2.06677796327E+007, +3.30541536772E+001, +5.13741149570E+002
+2.08330550918E+007, +3.16512441811E+001, +5.17422798497E+002
+2.09983305509E+007, +3.22579480529E+001, +5.23208618793E+002
+2.11636060100E+007, +3.26582157860E+001, +5.27779090419E+002
+2.13288814691E+007, +3.31140242760E+001, +5.31900112016E+002
+2.14941569282E+007, +3.21166603418E+001, +5.35767309505E+002
+2.16594323873E+007, +3.37520306816E+001, +5.42445304296E+002
+2.18247078464E+007, +3.37996315080E+001, +5.49055373485E+002
+2.19899833055E+007, +3.22814589465E+001, +5.52400675761E+002
+2.21552587646E+007, +3.23488762752E+001, +5.54981904786E+002
+2.23205342237E+007, +3.38872800962E+001, +5.60789143242E+002
+2.24858096828E+007, +3.29067061290E+001, +5.65394467019E+002
+2.26510851419E+007, +3.48490590925E+001, +5.70428009493E+002
+2.28163606010E+007, +3.36288420911E+001, +5.74860272166E+002
+2.29816360601E+007, +3.30577236930E+001, +5.80130034325E+002
+2.31469115192E+007, +3.64332580562E+001, +5.84581012809E+002
+2.33121869783E+007, +3.65540922596E+001, +5.90943497309E+002
+2.34774624374E+007, +3.66855423422E+001, +5.95409967801E+002
+2.36427378965E+007, +3.71888855855E+001, +6.01380949345E+002
+2.38080133556E+007, +3.63605918210E+001, +6.05027818578E+002
+2.39732888147E+007, +3.90215276882E+001, +6.12816699960E+002
+2.41385642738E+007, +3.70396199195E+001, +6.16700001968E+002
+2.43038397329E+007, +3.70026562606E+001, +6.21484825058E+002
+2.44691151920E+007, +3.75956962705E+001, +6.25637133623E+002
+2.46343906511E+007, +3.60674319251E+001, +6.29908999445E+002
+2.47996661102E+007, +3.95716229196E+001, +6.36452611191E+002
+2.49649415693E+007, +3.85156501643E+001, +6.41078382804E+002
+2.51302170284E+007, +3.75040317892E+001, +6.44662259076E+002
+2.52954924875E+007, +3.98592377269E+001, +6.51608852780E+002
+2.54607679466E+007, +4.07486059083E+001, +6.55839173238E+002
+2.56260434057E+007, +4.05793557564E+001, +6.60084998771E+002
+2.57913188648E+007, +4.00378752606E+001, +6.65717358715E+002
+2.59565943239E+007, +4.14655088683E+001, +6.69827986104E+002
+2.61218697830E+007, +4.04378275879E+001, +6.76036110812E+002
+2.62871452421E+007, +4.34237349929E+001, +6.80783236232E+002
+2.64524207012E+007, +4.15322627591E+001, +6.85044327464E+002
+2.66176961603E+007, +4.15867910153E+001, +6.92885349643E+002
+2.67829716194E+007, +4.05216935377E+001, +6.96344421256E+002
+2.69482470785E+007, +4.10992558930E+001, +7.04366688444E+002
+2.71135225376E+007, +4.62952644450E+001, +7.10548721110E+002
+2.72787979967E+007, +4.45429180543E+001, +7.13124748083E+002
+2.74440734558E+007, +4.31212321347E+001, +7.20627543688E+002
+2.76093489149E+007, +4.32676959480E+001, +7.21160419305E+002
+2.77746243740E+007, +4.42611483097E+001, +7.28134040182E+002
+2.79398998331E+007, +4.27919563625E+001, +7.37717401320E+002
+2.81051752922E+007, +4.47676068557E+001, +7.39786377341E+002
+2.82704507513E+007, +4.36823665871E+001, +7.50550919481E+002
+2.84357262104E+007, +4.34753779498E+001, +7.51426234917E+002
+2.86010016694E+007, +4.63190492111E+001, +7.60518311734E+002
+2.87662771285E+007, +4.40822805244E+001, +7.64000029186E+002
+2.89315525876E+007, +4.31922421435E+001, +7.72779311584E+002
+2.90968280467E+007, +4.97337410010E+001, +7.77391455406E+002
+2.92621035058E+007, +4.64467624454E+001, +7.82528561073E+002
+2.94273789649E+007, +4.62281434850E+001, +7.87323411796E+002
+2.95926544240E+007, +4.43547160430E+001, +7.93980315641E+002
+2.97579298831E+007, +4.72944133804E+001, +7.98647601078E+002
+2.99232053422E+007, +4.73974660065E+001, +8.06287866058E+002
+3.00884808013E+007, +4.93886699005E+001, +8.09382984454E+002
+3.02537562604E+007, +4.64889316916E+001, +8.16313807886E+002
+3.04190317195E+007, +5.11913801471E+001, +8.20792498888E+002
+3.05843071786E+007, +4.75557182810E+001, +8.28250113731E+002
+3.07495826377E+007, +4.32450936092E+001, +8.33417608307E+002
+3.09148580968E+007, +4.44517003980E+001, +8.41807778751E+002
+3.10801335559E+007, +5.06189175400E+001, +8.46884675818E+002
+3.12454090150E+007, +4.68224953571E+001, +8.52906384221E+002
+3.14106844741E+007, +4.80802985719E+001, +8.59078338906E+002
+3.15759599332E+007, +5.04220294921E+001, +8.67570073914E+002
+3.17412353923E+007, +4.78798672918E+001, +8.71416103460E+002
+3.19065108514E+007, +4.90452336442E+001, +8.80375078931E+002
+3.20717863105E+007, +4.62232584276E+001, +8.86443083129E+002
+3.22370617696E+007, +4.69135538398E+001, +8.89848999515E+002
+3.24023372287E+007, +4.68015680999E+001, +8.99766691908E+002
+3.25676126878E+007, +5.19587872868E+001, +9.05287894341E+002
+3.27328881469E+007, +4.70261812734E+001, +9.11449577163E+002
+3.28981636060E+007, +4.64118801676E+001, +9.17061364386E+002
+3.30634390651E+007, +4.81932008515E+001, +9.29772150195E+002
+3.32287145242E+007, +4.80878010824E+001, +9.38572565711E+002
+3.33939899833E+007, +4.78416999142E+001, +9.43819467320E+002
+3.35592654424E+007, +5.10014380143E+001, +9.52163902936E+002
+3.37245409015E+007, +5.32251288909E+001, +9.54564741711E+002
+3.38898163606E+007, +4.67381515335E+001, +9.64096045005E+002
+3.40550918197E+007, +5.08904206748E+001, +9.69366978858E+002
+3.42203672788E+007, +5.41110562987E+001, +9.75072926923E+002
+3.43856427379E+007, +5.33088313056E+001, +9.84934956047E+002
+3.45509181970E+007, +5.08221565959E+001, +9.97956892210E+002
+3.47161936561E+007, +5.41331235459E+001, +9.98989206611E+002
+3.48814691152E+007, +5.14527274520E+001, +1.00105768324E+003
+3.50467445743E+007, +5.43918644966E+001, +1.01382022998E+003
+3.52120200334E+007, +6.40893099282E+001, +1.02435841814E+003
+3.53772954925E+007, +5.06347077960E+001, +1.03123102549E+003
+3.55425709516E+007, +5.76818928506E+001, +1.04517999731E+003
+3.57078464107E+007, +5.41454954645E+001, +1.04843238586E+003
+3.58731218698E+007, +5.76854230800E+001, +1.05276007147E+003
+3.60383973289E+007, +5.29815114662E+001, +1.06325435568E+003
+3.62036727880E+007, +6.01261791945E+001, +1.07378102965E+003
+3.63689482471E+007, +6.29279397281E+001, +1.08068551934E+003
+3.65342237062E+007, +5.72173980417E+001, +1.09159392453E+003
+3.66994991653E+007, +5.90767300681E+001, +1.10075129188E+003
+3.68647746244E+007, +6.77343493745E+001, +1.11104594562E+003
+3.70300500835E+007, +6.06284439750E+001, +1.11284379917E+003
+3.71953255426E+007, +6.77921720481E+001, +1.12891041973E+003
+3.73606010017E+007, +5.94967306463E+001, +1.13684246860E+003
+3.75258764608E+007, +6.05855156942E+001, +1.14878472063E+003
+3.76911519199E+007, +6.41638634285E+001, +1.15677427923E+003
+3.78564273790E+007, +6.23920050063E+001, +1.15931419547E+003
+3.80217028381E+007, +6.30921354252E+001, +1.16565135420E+003
+3.81869782972E+007, +6.41345413174E+001, +1.17562760386E+003
+3.83522537563E+007, +6.41330834469E+001, +1.19009524096E+003
+3.85175292154E+007, +7.16007308462E+001, +1.19413530548E+003
+3.86828046745E+007, +6.62482342109E+001, +1.20961245810E+003
+3.88480801336E+007, +6.90461222495E+001, +1.21964235647E+003
+3.90133555927E+007, +7.61222258488E+001, +1.22646421719E+003
+3.91786310518E+007, +6.37942685379E+001, +1.24405894482E+003
+3.93439065109E+007, +6.73614141247E+001, +1.25940540834E+003
+3.95091819699E+007, +7.61807827090E+001, +1.25543220967E+003
+3.96744574290E+007, +7.94910212469E+001, +1.26605011457E+003
+3.98397328881E+007, +7.13709204432E+001, +1.28209548998E+003
+4.00050083472E+007, +7.17178363839E+001, +1.29757565461E+003
+4.01702838063E+007, +6.65967264642E+001, +1.30523786526E+003
+4.03355592654E+007, +7.50370884958E+001, +1.31648275394E+003
+4.05008347245E+007, +8.11170561487E+001, +1.33011813786E+003
+4.06661101836E+007, +7.15665514006E+001, +1.33731146017E+003
+4.08313856427E+007, +7.56055470243E+001, +1.35708456822E+003
+4.09966611018E+007, +7.80881727471E+001, +1.35447025591E+003
+4.11619365609E+007, +8.25046059609E+001, +1.36529763229E+003
+4.13272120200E+007, +8.57862261782E+001, +1.39303369824E+003
+4.14924874791E+007, +8.70068275977E+001, +1.39278667608E+003
+4.16577629382E+007, +8.31224747499E+001, +1.41192282706E+003
+4.18230383973E+007, +8.62533907799E+001, +1.42125624377E+003
+4.19883138564E+007, +8.22983790019E+001, +1.43832998789E+003
+4.21535893155E+007, +9.02906498849E+001, +1.44966043080E+003
+4.23188647746E+007, +9.28026010100E+001, +1.46082988139E+003
+4.24841402337E+007, +8.80315731890E+001, +1.48709097183E+003
+4.26494156928E+007, +8.90882700021E+001, +1.49402077476E+003
+4.28146911519E+007, +1.08422444564E+002, +1.49854762877E+003
+4.29799666110E+007, +9.99540098917E+001, +1.51828644720E+003
+4.31452420701E+007, +1.05391827009E+002, +1.55089178806E+003
+4.33105175292E+007, +1.01840029377E+002, +1.55823171104E+003
+4.34757929883E+007, +9.71123939959E+001, +1.57251796153E+003
+4.36410684474E+007, +1.01368493604E+002, +1.58297536548E+003
+4.38063439065E+007, +1.01203297112E+002, +1.60478808230E+003
+4.39716193656E+007, +1.13873569159E+002, +1.61419670454E+003
+4.41368948247E+007, +1.11140129830E+002, +1.63205526708E+003
+4.43021702838E+007, +1.13590924103E+002, +1.65712866244E+003
+4.44674457429E+007, +1.09117746247E+002, +1.66437643135E+003
+4.46327212020E+007, +1.09336355517E+002, +1.67435895647E+003
+4.47979966611E+007, +1.15732431162E+002, +1.70503120255E+003
+4.49632721202E+007, +1.25033771301E+002, +1.73144651465E+003
+4.51285475793E+007, +1.20923043564E+002, +1.73861177625E+003
+4.52938230384E+007, +1.29151527414E+002, +1.76840319732E+003
+4.54590984975E+007, +1.17752284734E+002, +1.77592985871E+003
+4.56243739566E+007, +1.39582911582E+002, +1.81722489901E+003
+4.57896494157E+007, +1.28975294734E+002, +1.81076293209E+003
+4.59549248748E+007, +1.33521048324E+002, +1.85698494676E+003
+4.61202003339E+007, +1.36439238250E+002, +1.87334209701E+003
+4.62854757930E+007, +1.47578655348E+002, +1.88629919454E+003
+4.64507512521E+007, +1.68784018702E+002, +1.90615251765E+003
+4.66160267112E+007, +1.60550711901E+002, +1.92778099025E+003
+4.67813021703E+007, +1.66480908992E+002, +1.95602284363E+003
+4.69465776294E+007, +1.70694310766E+002, +1.98205938965E+003
+4.71118530885E+007, +1.82972338010E+002, +2.01628210259E+003
+4.72771285476E+007, +1.87363864748E+002, +2.05309603464E+003
+4.74424040067E+007, +2.01924444331E+002, +2.07469809111E+003
+4.76076794658E+007, +1.97659043237E+002, +2.08206234101E+003
+4.77729549249E+007, +1.98393737476E+002, +2.12930358505E+003
+4.79382303840E+007, +2.10018000046E+002, +2.13903970419E+003
+4.81035058431E+007, +2.20479033875E+002, +2.18459340812E+003
+4.82687813022E+007, +2.28692161368E+002, +2.20514973035E+003
+4.84340567613E+007, +2.53159887332E+002, +2.25943070555E+003
+4.85993322204E+007, +2.58141394588E+002, +2.28613035376E+003
+4.87646076795E+007, +2.74350461436E+002, +2.31109369547E+003
+4.89298831386E+007, +2.65225463226E+002, +2.34271858152E+003
+4.90951585977E+007, +2.91146324039E+002, +2.36326736714E+003
+4.92604340568E+007, +2.90809291728E+002, +2.39407191630E+003
+4.94257095159E+007, +3.34659722879E+002, +2.43368116876E+003
+4.95909849750E+007, +3.33430678978E+002, +2.45841718738E+003
+4.97562604341E+007, +3.54982063214E+002, +2.46851489629E+003
+4.99215358932E+007, +3.62838526806E+002, +2.55834741649E+003
+5.00868113523E+007, +3.75325570813E+002, +2.61053355519E+003
+5.02520868114E+007, +4.01624552902E+002, +2.63502142802E+003
+5.04173622705E+007, +4.46426322571E+002, +2.66096693567E+003
+5.05826377295E+007, +4.00948918329E+002, +2.67636260475E+003
+5.07479131886E+007, +4.43741360841E+002, +2.75225315336E+003
+5.09131886477E+007, +4.43589529214E+002, +2.79259965704E+003
+5.10784641068E+007, +5.23703326298E+002, +2.81158758969E+003
+5.12437395659E+007, +5.28805988204E+002, +2.88675958585E+003
+5.14090150250E+007, +5.38406692596E+002, +2.91926644327E+003
+5.15742904841E+007, +5.53014150007E+002, +2.95534512614E+003
+5.17395659432E+007, +6.20551750028E+002, +2.98942392343E+003
+5.19048414023E+007, +6.32920438082E+002, +3.07087552442E+003
+5.20701168614E+007, +6.88216809489E+002, +3.12483663617E+003
+5.22353923205E+007, +6.98579227536E+002, +3.22039657990E+003
+5.24006677796E+007, +6.57786297424E+002, +3.16568221900E+003
+5.25659432387E+007, +7.33994293920E+002, +3.26849866915E+003
+5.27312186978E+007, +8.46058412247E+002, +3.30504136207E+003
+5.28964941569E+007, +8.21028114574E+002, +3.38437777699E+003
+5.30617696160E+007, +7.89073756129E+002, +3.44616472096E+003
+5.32270450751E+007, +8.57477208933E+002, +3.47518264706E+003
+5.33923205342E+007, +8.82008042083E+002, +3.64508214378E+003
+5.35575959933E+007, +9.16220508025E+002, +3.71411661111E+003
+5.37228714524E+007, +9.53768580770E+002, +3.85081194380E+003
+5.38881469115E+007, +9.60156078379E+002, +3.81401982546E+003
