"# Channel 1"
"# Trace 1"
Frequency, Formatted Data, Formatted Data
+1.00000000000E+006, +5.43248022887E-001, +2.25129697098E+001
+1.16527545910E+006, +6.07250341939E-001, +2.61977573259E+001
+1.33055091820E+006, +5.77285099749E-001, +2.98377710060E+001
+1.49582637730E+006, +6.37914912101E-001, +3.35181313839E+001
+1.66110183639E+006, +6.54509580845E-001, +3.71735069408E+001
+1.82637729549E+006, +6.76080058883E-001, +4.08742773925E+001
+1.99165275459E+006, +6.87802861876E-001, +4.45645865312E+001
+2.15692821369E+006, +7.14694970458E-001, +4.81905953504E+001
+2.32220367279E+006, +6.33359146967E-001, +5.19198725332E+001
+2.48747913189E+006, +7.41516447848E-001, +5.55916950254E+001
+2.65275459098E+006, +6.64692626240E-001, +5.92336499749E+001
+2.81803005008E+006, +7.07683933796E-001, +6.28477298462E+001
+2.98330550918E+006, +5.91796449778E-001, +6.65026312320E+001
+3.14858096828E+006, +6.71558149916E-001, +7.02730887207E+001
+3.31385642738E+006, +7.28066523701E-001, +7.39498992147E+001
+3.47913188648E+006, +8.26580220932E-001, +7.76462033146E+001
+3.64440734558E+006, +7.76415905639E-001, +8.12996953432E+001
+3.80968280467E+006, +8.57457900325E-001, +8.51111213301E+001
+3.97495826377E+006, +9.09310357048E-001, +8.87208224171E+001
+4.14023372287E+006, +8.26558513457E-001, +9.26475270228E+001
+4.30550918197E+006, +8.97728978183E-001, +9.61137803625E+001
+4.47078464107E+006, +6.94789884595E-001, +9.98872811141E+001
+4.63606010017E+006, +8.08362469055E-001, +1.03419586458E+002
+4.80133555927E+006, +7.13407959180E-001, +1.07068946721E+002
+4.96661101836E+006, +8.45083985534E-001, +1.10995854128E+002
+5.13188647746E+006, +9.40153970928E-001, +1.14534123505E+002
+5.29716193656E+006, +9.52450983832E-001, +1.18238659183E+002
+5.46243739566E+006, +9.64063054109E-001, +1.22116311616E+002
+5.62771285476E+006, +7.91851362619E-001, +1.25843926846E+002
+5.79298831386E+006, +1.04947457083E+000, +1.29417872072E+002
+5.95826377295E+006, +1.12578916003E+000, +1.32923934365E+002
+6.12353923205E+006, +1.08849873747E+000, +1.36954132491E+002
+6.28881469115E+006, +1.19666911363E+000, +1.40477074516E+002
+6.45409015025E+006, +1.38527721088E+000, +1.44338352876E+002
+6.61936560935E+006, +1.19356277364E+000, +1.48006693255E+002
+6.78464106845E+006, +1.43135838805E+000, +1.51796034071E+002
+6.94991652755E+006, +1.41570511867E+000, +1.55318487503E+002
+7.11519198664E+006, +1.30176102218E+000, +1.59129919468E+002
+7.28046744574E+006, +1.61374375024E+000, +1.62799236359E+002
+7.44574290484E+006, +1.55567166549E+000, +1.66533295007E+002
+7.61101836394E+006, +1.68519033079E+000, +1.70140783572E+002
+7.77629382304E+006, +1.62677187859E+000, +1.74062659687E+002
+7.94156928214E+006, +1.50631682528E+000, +1.77591034682E+002
+8.10684474124E+006, +1.48857689850E+000, +1.81353668547E+002
+8.27212020033E+006, +1.39984550905E+000, +1.85029402725E+002
+8.43739565943E+006, +1.32697089852E+000, +1.88942639277E+002
+8.60267111853E+006, +1.16214117072E+000, +1.92877630982E+002
+8.76794657763E+006, +1.43250376696E+000, +1.96405115410E+002
+8.93322203673E+006, +1.31872339280E+000, +2.00132684176E+002
+9.09849749583E+006, +1.38154524620E+000, +2.04101540273E+002
+9.26377295492E+006, +1.22588071492E+000, +2.07739162060E+002
+9.42904841402E+006, +1.17519006539E+000, +2.11579036771E+002
+9.59432387312E+006, +1.11331577587E+000, +2.15249896345E+002
+9.75959933222E+006, +1.27246692353E+000, +2.19269863508E+002
+9.92487479132E+006, +1.42141529580E+000, +2.22827517713E+002
+1.00901502504E+007, +1.09096042489E+000, +2.26476072726E+002
+1.02554257095E+007, +1.21634338706E+000, +2.30707152240E+002
+1.04207011686E+007, +1.43360313551E+000, +2.33891806887E+002
+1.05859766277E+007, +8.69568759574E-001, +2.38104110213E+002
+1.07512520868E+007, +1.02390110673E+000, +2.42216397939E+002
+1.09165275459E+007, +1.31762435202E+000, +2.46135417111E+002
+1.10818030050E+007, +1.09165405488E+000, +2.49614122531E+002
+1.12470784641E+007, +8.97558925855E-001, +2.53630825698E+002
+1.14123539232E+007, +1.27028996601E+000, +2.57505568452E+002
+1.15776293823E+007, +9.72436597952E-001, +2.61058250583E+002
+1.17429048414E+007, +1.09622080154E+000, +2.65011463218E+002
+1.19081803005E+007, +7.83067089903E-001, +2.68785204153E+002
+1.20734557596E+007, +7.49045149937E-001, +2.72714063794E+002
+1.22387312187E+007, +7.22088315129E-001, +2.76787859571E+002
+1.24040066778E+007, +4.00178012547E-001, +2.80614906630E+002
+1.25692821369E+007, +8.87610301067E-001, +2.84380462721E+002
+1.27345575960E+007, +5.88933053547E-001, +2.88642441499E+002
+1.28998330551E+007, +6.97583617774E-001, +2.92276792562E+002
+1.30651085142E+007, +8.42217694385E-001, +2.96491579642E+002
+1.32303839733E+007, +8.25099648892E-001, +3.00471004422E+002
+1.33956594324E+007, +9.35322559360E-001, +3.04188408330E+002
+1.35609348915E+007, +1.54423339816E+000, +3.07987293917E+002
+1.37262103506E+007, +1.13157138724E+000, +3.11650977979E+002
+1.38914858097E+007, +9.33445495719E-001, +3.15917710134E+002
+1.40567612688E+007, +5.59838601627E-001, +3.19867936580E+002
+1.42220367279E+007, +5.64581752389E-001, +3.23641767492E+002
+1.43873121870E+007, +4.50951641896E-001, +3.27603814392E+002
+1.45525876461E+007, +9.31309393808E-001, +3.31776228255E+002
+1.47178631052E+007, +1.20125992950E+000, +3.35370017761E+002
+1.48831385643E+007, +3.74663845457E-001, +3.39106833769E+002
+1.50484140234E+007, +9.24285350802E-001, +3.44082120125E+002
+1.52136894825E+007, +1.07542004429E+000, +3.47280847369E+002
+1.53789649416E+007, +1.02124465679E+000, +3.50771870359E+002
+1.55442404007E+007, +8.48860578207E-001, +3.56009948672E+002
+1.57095158598E+007, +9.00955637088E-001, +3.59788555961E+002
+1.58747913189E+007, +4.42598956400E-001, +3.63269126250E+002
+1.60400667780E+007, +7.71090649136E-001, +3.67880827637E+002
+1.62053422371E+007, +2.15281771712E-001, +3.71811959793E+002
+1.63706176962E+007, +1.48467387277E+000, +3.75492480579E+002
+1.65358931553E+007, +1.04578100008E+000, +3.80365235664E+002
+1.67011686144E+007, +5.49583571207E-001, +3.83470551561E+002
+1.68664440735E+007, +9.71537632408E-001, +3.88310142506E+002
+1.70317195326E+007, -1.65415972178E+000, +3.92478958392E+002
+1.71969949917E+007, +1.79506850950E-001, +3.96690989530E+002
+1.73622704508E+007, -4.31825035944E-001, +4.01085548246E+002
+1.75275459098E+007, +2.59337506592E-002, +4.04605492687E+002
+1.76928213689E+007, -2.32294439723E-001, +4.09250764703E+002
+1.78580968280E+007, +5.05440072140E-001, +4.12868227191E+002
+1.80233722871E+007, +8.60436284895E-001, +4.17577354516E+002
+1.81886477462E+007, +1.30549142055E+000, +4.21797052616E+002
+1.83539232053E+007, -3.29632334482E-001, +4.25986564740E+002
+1.85191986644E+007, +6.31800094761E-001, +4.29967795920E+002
+1.86844741235E+007, +5.49660545619E-001, +4.34522835100E+002
+1.88497495826E+007, +1.27216879868E+000, +4.39498080888E+002
+1.90150250417E+007, +9.04181205867E-001, +4.42390542384E+002
+1.91803005008E+007, +1.03555143054E+000, +4.47603766410E+002
+1.93455759599E+007, +1.00885710971E+000, +4.51802790063E+002
+1.95108514190E+007, +9.51358224959E-001, +4.55721160778E+002
+1.96761268781E+007, +5.25625018456E-001, +4.60062423289E+002
+1.98414023372E+007, +1.31709783762E+000, +4.64584231248E+002
+2.00066777963E+007, +3.10017694501E-001, +4.68175363420E+002
+2.01719532554E+007, +1.50252598556E+000, +4.72291565579E+002
+2.03372287145E+007, +6.98424343993E-001, +4.76664503021E+002
+2.05025041736E+007, +2.09451329741E+000, +4.80710315112E+002
+2.06677796327E+007, +1.93995127770E+000, +4.85801064319E+002
+2.08330550918E+007, +2.50714965662E+000, +4.90713797197E+002
+2.09983305509E+007, +1.57319524295E+000, +4.93767015036E+002
+2.11636060100E+007, +1.95971808888E+000, +4.99609005355E+002
+2.13288814691E+007, +2.52382711919E+000, +5.02473996742E+002
+2.14941569282E+007, +1.86354414215E+000, +5.08165347449E+002
+2.16594323873E+007, +2.99950397367E+000, +5.11773524433E+002
+2.18247078464E+007, +8.53430632941E-001, +5.17924012589E+002
+2.19899833055E+007, +1.36307427243E+000, +5.19851198997E+002
+2.21552587646E+007, +1.83840853046E+000, +5.25938139251E+002
+2.23205342237E+007, +3.18491009881E+000, +5.30183729863E+002
+2.24858096828E+007, +1.93543235956E+000, +5.35044510820E+002
+2.26510851419E+007, +3.71736612046E+000, +5.39221400262E+002
+2.28163606010E+007, +3.17523284867E+000, +5.43140459785E+002
+2.29816360601E+007, +2.15449892952E+000, +5.48111523792E+002
+2.31469115192E+007, +2.64004801706E+000, +5.54016131200E+002
+2.33121869783E+007, +1.82624638873E+000, +5.57521218180E+002
+2.34774624374E+007, +2.41795358164E+000, +5.63249504284E+002
+2.36427378965E+007, +4.22476090843E+000, +5.66767128653E+002
+2.38080133556E+007, +4.21298240072E+000, +5.70958894307E+002
+2.39732888147E+007, +4.76776874924E+000, +5.77512616959E+002
+2.41385642738E+007, +4.75520023265E+000, +5.80982659403E+002
+2.43038397329E+007, +2.16888994177E+000, +5.85761401595E+002
+2.44691151920E+007, +4.81838673000E+000, +5.89731471054E+002
+2.46343906511E+007, +3.91104035263E+000, +5.94567727186E+002
+2.47996661102E+007, +3.20773550071E+000, +5.99092877300E+002
+2.49649415693E+007, +4.67742780744E+000, +6.04396577236E+002
+2.51302170284E+007, +3.69329777946E+000, +6.09814006773E+002
+2.52954924875E+007, +6.01524581556E+000, +6.12800831800E+002
+2.54607679466E+007, +4.34242764152E+000, +6.21239403874E+002
+2.56260434057E+007, +2.97811718443E+000, +6.24230411001E+002
+2.57913188648E+007, +6.08954653331E+000, +6.26204166604E+002
+2.59565943239E+007, +5.66247114920E+000, +6.31616703870E+002
+2.61218697830E+007, +6.27473794047E+000, +6.37007489440E+002
+2.62871452421E+007, +7.34953603281E+000, +6.42961910439E+002
+2.64524207012E+007, +5.18260658124E+000, +6.49223228630E+002
+2.66176961603E+007, +5.33772595727E+000, +6.53101546710E+002
+2.67829716194E+007, +7.11175434210E+000, +6.59041325733E+002
+2.69482470785E+007, +6.75842291681E+000, +6.63606027783E+002
+2.71135225376E+007, +5.77056952298E+000, +6.68277103227E+002
+2.72787979967E+007, +5.34929710928E+000, +6.74225065133E+002
+2.74440734558E+007, +5.53708506345E+000, +6.79387220492E+002
+2.76093489149E+007, +6.92640767705E+000, +6.85043504870E+002
+2.77746243740E+007, +7.05692706356E+000, +6.93879479522E+002
+2.79398998331E+007, +1.10384658091E+001, +6.93886570297E+002
+2.81051752922E+007, +8.39653248164E+000, +6.99332848134E+002
+2.82704507513E+007, +5.92008182205E+000, +7.07037295749E+002
+2.84357262104E+007, +8.84079409451E+000, +7.12512233796E+002
+2.86010016694E+007, +7.88063511447E+000, +7.15767228800E+002
+2.87662771285E+007, +6.18671249469E+000, +7.22928876155E+002
+2.89315525876E+007, +5.56382056574E+000, +7.28230391683E+002
+2.90968280467E+007, +7.12557530678E+000, +7.34795868813E+002
+2.92621035058E+007, +9.70089852139E+000, +7.40361409070E+002
+2.94273789649E+007, +1.02661050525E+001, +7.44813122508E+002
+2.95926544240E+007, +1.12436825700E+001, +7.50723654411E+002
+2.97579298831E+007, +8.57763122400E+000, +7.54972349653E+002
+2.99232053422E+007, +9.92240081466E+000, +7.61460566717E+002
+3.00884808013E+007, +9.96475880680E+000, +7.63106847714E+002
+3.02537562604E+007, +1.17935423288E+001, +7.72252011378E+002
+3.04190317195E+007, +1.11935015844E+001, +7.77753120511E+002
+3.05843071786E+007, +1.22235405751E+001, +7.81291392762E+002
+3.07495826377E+007, +1.11850554038E+001, +7.87562057088E+002
+3.09148580968E+007, +9.59231625697E+000, +7.95568418859E+002
+3.10801335559E+007, +1.02254253156E+001, +8.00224813408E+002
+3.12454090150E+007, +1.01755272243E+001, +8.01364665639E+002
+3.14106844741E+007, +1.03573023812E+001, +8.13941810872E+002
+3.15759599332E+007, +1.33370465435E+001, +8.16251337117E+002
+3.17412353923E+007, +9.89481634745E+000, +8.21650654498E+002
+3.19065108514E+007, +9.88464493891E+000, +8.24450113185E+002
+3.20717863105E+007, +1.01203262217E+001, +8.38313411916E+002
+3.22370617696E+007, +1.12187802064E+001, +8.39169548531E+002
+3.24023372287E+007, +1.13752079630E+001, +8.48561170781E+002
+3.25676126878E+007, +7.66389439473E+000, +8.56301645123E+002
+3.27328881469E+007, +1.08922503548E+001, +8.58614553087E+002
+3.28981636060E+007, +1.13850936309E+001, +8.63886087113E+002
+3.30634390651E+007, +1.10410184293E+001, +8.73296196192E+002
+3.32287145242E+007, +1.09301955026E+001, +8.81078667619E+002
+3.33939899833E+007, +8.33988731630E+000, +8.84058194829E+002
+3.35592654424E+007, +1.41331253537E+001, +8.95484695655E+002
+3.37245409015E+007, +1.12261634714E+001, +8.98749395374E+002
+3.38898163606E+007, +8.29748680409E+000, +9.05574534444E+002
+3.40550918197E+007, +9.60208263585E+000, +9.11042507668E+002
+3.42203672788E+007, +1.03258885787E+001, +9.23618608221E+002
+3.43856427379E+007, +1.12535872107E+001, +9.29762429201E+002
+3.45509181970E+007, +1.22944987553E+001, +9.35594232438E+002
+3.47161936561E+007, +1.13875136747E+001, +9.42344963442E+002
+3.48814691152E+007, +1.44492609069E+001, +9.46855048664E+002
+3.50467445743E+007, +1.57477572257E+001, +9.55873087727E+002
+3.52120200334E+007, +1.05328139993E+001, +9.60689234286E+002
+3.53772954925E+007, +1.04542781132E+001, +9.62155866629E+002
+3.55425709516E+007, +1.41351226141E+001, +9.80461470589E+002
+3.57078464107E+007, +1.32830616347E+001, +9.79020720128E+002
+3.58731218698E+007, +1.68630423884E+001, +9.97191245433E+002
+3.60383973289E+007, +8.01248611723E+000, +9.97114752795E+002
+3.62036727880E+007, +1.82904311750E+001, +1.01075246604E+003
+3.63689482471E+007, +1.82867699819E+001, +1.01740308273E+003
+3.65342237062E+007, +1.20479662051E+001, +1.02250144273E+003
+3.66994991653E+007, +1.74619687754E+001, +1.03018794058E+003
+3.68647746244E+007, +2.16205835624E+001, +1.03658558363E+003
+3.70300500835E+007, +1.76296553840E+001, +1.04422320921E+003
+3.71953255426E+007, +1.91398527792E+001, +1.05521638135E+003
+3.73606010017E+007, +1.49092622300E+001, +1.05930908040E+003
+3.75258764608E+007, +1.75392734285E+001, +1.07330401354E+003
+3.76911519199E+007, +2.44803837730E+001, +1.07452638098E+003
+3.78564273790E+007, +1.85674761847E+001, +1.08764702753E+003
+3.80217028381E+007, +1.67710946793E+001, +1.09561071316E+003
+3.81869782972E+007, +1.84163065982E+001, +1.10341547491E+003
+3.83522537563E+007, +2.07775475480E+001, +1.11398624782E+003
+3.85175292154E+007, +2.10592658244E+001, +1.11453188954E+003
+3.86828046745E+007, +1.88671219777E+001, +1.13194703874E+003
+3.88480801336E+007, +7.34675548904E+000, +1.14213217854E+003
+3.90133555927E+007, +2.22889438930E+001, +1.15341131791E+003
+3.91786310518E+007, +2.90795479201E+001, +1.16329838990E+003
+3.93439065109E+007, +1.99056779640E+001, +1.17145238799E+003
+3.95091819699E+007, +2.41026588851E+001, +1.17314923432E+003
+3.96744574290E+007, +1.46871839448E+001, +1.18547105480E+003
+3.98397328881E+007, +2.26724656861E+001, +1.19818890960E+003
+4.00050083472E+007, +2.52479853479E+001, +1.21202456714E+003
+4.01702838063E+007, +2.37568562159E+001, +1.22220236375E+003
+4.03355592654E+007, +2.73191532127E+001, +1.22538266331E+003
+4.05008347245E+007, +3.02747168977E+001, +1.24298829098E+003
+4.06661101836E+007, +2.48132132546E+001, +1.25222970096E+003
+4.08313856427E+007, +2.54523228514E+001, +1.27480203012E+003
+4.09966611018E+007, +2.50422566741E+001, +1.27522445455E+003
+4.11619365609E+007, +2.83829491659E+001, +1.28816921754E+003
+4.13272120200E+007, +2.65791792643E+001, +1.30115695091E+003
+4.14924874791E+007, +2.95855327519E+001, +1.30865382380E+003
+4.16577629382E+007, +2.81268006867E+001, +1.31887340189E+003
+4.18230383973E+007, +3.49121736337E+001, +1.32762963680E+003
+4.19883138564E+007, +3.73177300261E+001, +1.34641317344E+003
+4.21535893155E+007, +3.15041942732E+001, +1.35996829360E+003
+4.23188647746E+007, +3.50263797098E+001, +1.36425176555E+003
+4.24841402337E+007, +3.11185772166E+001, +1.36987778613E+003
+4.26494156928E+007, +3.54213363871E+001, +1.38798090107E+003
+4.28146911519E+007, +3.46887062747E+001, +1.41158169001E+003
+4.29799666110E+007, +2.88786734679E+001, +1.42031854684E+003
+4.31452420701E+007, +4.09748189520E+001, +1.42945460785E+003
+4.33105175292E+007, +3.51090382772E+001, +1.44851314960E+003
+4.34757929883E+007, +3.61053986433E+001, +1.45943582952E+003
+4.36410684474E+007, +4.00864555973E+001, +1.47955614866E+003
+4.38063439065E+007, +2.83165717646E+001, +1.48176025079E+003
+4.39716193656E+007, +4.54779466705E+001, +1.50826206868E+003
+4.41368948247E+007, +3.81201872263E+001, +1.52199032189E+003
+4.43021702838E+007, +5.36224467356E+001, +1.54979513351E+003
+4.44674457429E+007, +3.37557605179E+001, +1.54802932953E+003
+4.46327212020E+007, +4.28661923125E+001, +1.56818298791E+003
+4.47979966611E+007, +4.16452598349E+001, +1.58452330421E+003
+4.49632721202E+007, +5.11412919880E+001, +1.60568575026E+003
+4.51285475793E+007, +4.81052576869E+001, +1.62082034998E+003
+4.52938230384E+007, +6.19654005792E+001, +1.65076953160E+003
+4.54590984975E+007, +5.61287662376E+001, +1.66142776896E+003
+4.56243739566E+007, +4.21348738307E+001, +1.68874801478E+003
+4.57896494157E+007, +5.63083776143E+001, +1.70406776999E+003
+4.59549248748E+007, +5.41789844326E+001, +1.71942045233E+003
+4.61202003339E+007, +5.98690889545E+001, +1.73150344347E+003
+4.62854757930E+007, +5.41906106304E+001, +1.77986975775E+003
+4.64507512521E+007, +5.65738135470E+001, +1.80000597282E+003
+4.66160267112E+007, +4.57723799024E+001, +1.81954123062E+003
+4.67813021703E+007, +7.95320819507E+001, +1.83502944339E+003
+4.69465776294E+007, +7.83325798702E+001, +1.84253267025E+003
+4.71118530885E+007, +7.58352399935E+001, +1.86823280264E+003
+4.72771285476E+007, +8.65999825586E+001, +1.90654124896E+003
+4.74424040067E+007, +9.32182816460E+001, +1.95705301616E+003
+4.76076794658E+007, +9.59758307134E+001, +1.95165032709E+003
+4.77729549249E+007, +7.50303153210E+001, +1.99412918295E+003
+4.79382303840E+007, +9.36295938188E+001, +2.00680641212E+003
+4.81035058431E+007, +9.50461839386E+001, +2.04954068727E+003
+4.82687813022E+007, +1.12487888091E+002, +2.06840484471E+003
+4.84340567613E+007, +1.08111991194E+002, +2.10262117398E+003
+4.85993322204E+007, +1.21994705650E+002, +2.13576813555E+003
+4.87646076795E+007, +1.11811298784E+002, +2.17999916939E+003
+4.89298831386E+007, +1.51509595036E+002, +2.23083365572E+003
+4.90951585977E+007, +1.67701242117E+002, +2.19832428201E+003
+4.92604340568E+007, +1.77096397944E+002, +2.26999714318E+003
+4.94257095159E+007, +1.93282866098E+002, +2.29550505979E+003
+4.95909849750E+007, +2.52574766008E+002, +2.32173951848E+003
+4.97562604341E+007, +2.05581431806E+002, +2.39362097506E+003
+4.99215358932E+007, +2.22926610517E+002, +2.40229181207E+003
+5.00868113523E+007, +2.60792580830E+002, +2.44130677067E+003
+5.02520868114E+007, +2.70456535374E+002, +2.51491338293E+003
+5.04173622705E+007, +3.09669470408E+002, +2.53693468328E+003
+5.05826377295E+007, +2.76488825640E+002, +2.55627450351E+003
+5.07479131886E+007, +3.02197921170E+002, +2.59789242226E+003
+5.09131886477E+007, +3.37914637771E+002, +2.64561306001E+003
+5.10784641068E+007, +3.49649633591E+002, +2.70239547837E+003
+5.12437395659E+007, +3.62808270268E+002, +2.71629519943E+003
+5.14090150250E+007, +3.91647892755E+002, +2.74587676879E+003
+5.15742904841E+007, +4.09943689145E+002, +2.79683659811E+003
+5.17395659432E+007, +3.79242540655E+002, +2.85169187678E+003
+5.19048414023E+007, +4.29432671846E+002, +2.92345342831E+003
+5.20701168614E+007, +4.01612682919E+002, +2.94900781117E+003
+5.22353923205E+007, +4.44832312090E+002, +3.07982072593E+003
+5.24006677796E+007, +4.75301262757E+002, +3.05255615091E+003
+5.25659432387E+007, +4.94851331855E+002, +3.16848950693E+003
+5.27312186978E+007, +5.47916719153E+002, +3.21601798544E+003
+5.28964941569E+007, +5.35882937453E+002, +3.34359167077E+003
+5.30617696160E+007, +5.89957881969E+002, +3.37808175534E+003
+5.32270450751E+007, +6.39186890069E+002, +3.48095339031E+003
+5.33923205342E+007, +6.33032110103E+002, +3.60245878164E+003
+5.35575959933E+007, +6.64073973761E+002, +3.70011405341E+003
+5.37228714524E+007, +7.61316602685E+002, +3.80888566743E+003
+5.38881469115E+007, +7.73717663850E+002, +3.87169204099E+003
