"# Channel 1"
"# Trace 1"
Frequency, Formatted Data, Formatted Data
+1.00000000000E+005, +2.70593795377E+002, -4.00513402360E+000
+2.25031289111E+005, +2.69817678906E+002, +4.21546972786E+000
+3.50062578223E+005, +2.69740023494E+002, +6.76739421613E+000
+4.75093867334E+005, +2.69896641956E+002, +8.88565780434E+000
+6.00125156446E+005, +2.69613870311E+002, +1.08738908646E+001
+7.25156445557E+005, +2.68303981852E+002, +1.34740352762E+001
+8.50187734668E+005, +2.69871211222E+002, +1.64243269282E+001
+9.75219023780E+005, +2.70969242864E+002, +1.88868838356E+001
+1.10025031289E+006, +2.70336869106E+002, +1.99892152619E+001
+1.22528160200E+006, +2.70475982276E+002, +2.32456690405E+001
+1.35031289111E+006, +2.71240824820E+002, +2.54681615316E+001
+1.47534418023E+006, +2.69645355528E+002, +2.77654840606E+001
+1.60037546934E+006, +2.70373804220E+002, +2.93558791024E+001
+1.72540675845E+006, +2.70256688179E+002, +3.17498686652E+001
+1.85043804756E+006, +2.70203911934E+002, +3.47814830191E+001
+1.97546933667E+006, +2.70165368788E+002, +3.69021241606E+001
+2.10050062578E+006, +2.70998861490E+002, +3.83996966394E+001
+2.22553191489E+006, +2.70451164416E+002, +4.17734292110E+001
+2.35056320401E+006, +2.70297125395E+002, +4.43787107592E+001
+2.47559449312E+006, +2.70839728713E+002, +4.61288405209E+001
+2.60062578223E+006, +2.70393520691E+002, +4.79739553007E+001
+2.72565707134E+006, +2.70199522473E+002, +5.09966054258E+001
+2.85068836045E+006, +2.70627110768E+002, +5.26444649394E+001
+2.97571964956E+006, +2.70336182031E+002, +5.47152099493E+001
+3.10075093867E+006, +2.70287429233E+002, +5.68705369014E+001
+3.22578222778E+006, +2.70676245065E+002, +5.93779023715E+001
+3.35081351690E+006, +2.70792401664E+002, +6.24994446383E+001
+3.47584480601E+006, +2.69824653526E+002, +6.36062223234E+001
+3.60087609512E+006, +2.71188136496E+002, +6.65896221441E+001
+3.72590738423E+006, +2.69780027788E+002, +6.89848414778E+001
+3.85093867334E+006, +2.68573991441E+002, +7.09619898880E+001
+3.97596996245E+006, +2.69294036087E+002, +7.44582903049E+001
+4.10100125156E+006, +2.68936645726E+002, +7.68584421621E+001
+4.22603254068E+006, +2.69278382186E+002, +7.88847160962E+001
+4.35106382979E+006, +2.69550706516E+002, +8.06840058763E+001
+4.47609511890E+006, +2.69745899809E+002, +8.18661016817E+001
+4.60112640801E+006, +2.70086965973E+002, +8.44355686226E+001
+4.72615769712E+006, +2.68450393372E+002, +8.72428651285E+001
+4.85118898623E+006, +2.69227869376E+002, +8.93488078853E+001
+4.97622027534E+006, +2.69200041575E+002, +9.20632749923E+001
+5.10125156446E+006, +2.69224927711E+002, +9.43285226357E+001
+5.22628285357E+006, +2.70389595014E+002, +9.68350774000E+001
+5.35131414268E+006, +2.69239097794E+002, +9.89464076023E+001
+5.47634543179E+006, +2.69123173543E+002, +1.01750966122E+002
+5.60137672090E+006, +2.68817512833E+002, +1.04317332880E+002
+5.72640801001E+006, +2.68791242580E+002, +1.05083046504E+002
+5.85143929912E+006, +2.69789521517E+002, +1.08092829242E+002
+5.97647058824E+006, +2.69079174635E+002, +1.10826696649E+002
+6.10150187735E+006, +2.69196164275E+002, +1.13218205032E+002
+6.22653316646E+006, +2.68419445960E+002, +1.14791223783E+002
+6.35156445557E+006, +2.69080690203E+002, +1.17698208843E+002
+6.47659574468E+006, +2.68901946139E+002, +1.20158216040E+002
+6.60162703379E+006, +2.68890116390E+002, +1.22472203315E+002
+6.72665832290E+006, +2.68133578380E+002, +1.24493696741E+002
+6.85168961202E+006, +2.68250840720E+002, +1.26718571810E+002
+6.97672090113E+006, +2.68345026546E+002, +1.29615162075E+002
+7.10175219024E+006, +2.68621501998E+002, +1.32110788247E+002
+7.22678347935E+006, +2.68218196872E+002, +1.34356026764E+002
+7.35181476846E+006, +2.67938035146E+002, +1.36522600897E+002
+7.47684605757E+006, +2.67960206262E+002, +1.39632363484E+002
+7.60187734668E+006, +2.68125479984E+002, +1.41855352740E+002
+7.72690863579E+006, +2.67617425966E+002, +1.44226284554E+002
+7.85193992491E+006, +2.67715978796E+002, +1.46556791260E+002
+7.97697121402E+006, +2.67919135111E+002, +1.48883734697E+002
+8.10200250313E+006, +2.67934346302E+002, +1.51129720447E+002
+8.22703379224E+006, +2.67915197444E+002, +1.54039779686E+002
+8.35206508135E+006, +2.68113289794E+002, +1.56670088054E+002
+8.47709637046E+006, +2.67925773674E+002, +1.59513770369E+002
+8.60212765957E+006, +2.68057895245E+002, +1.61909207730E+002
+8.72715894869E+006, +2.67405393062E+002, +1.64593961903E+002
+8.85219023780E+006, +2.67292996164E+002, +1.66404200152E+002
+8.97722152691E+006, +2.67375109631E+002, +1.69319293330E+002
+9.10225281602E+006, +2.68398751573E+002, +1.72039691061E+002
+9.22728410513E+006, +2.67546328602E+002, +1.74307571767E+002
+9.35231539424E+006, +2.67351183423E+002, +1.77458932507E+002
+9.47734668335E+006, +2.67333861765E+002, +1.79518657935E+002
+9.60237797247E+006, +2.67699080087E+002, +1.82338032076E+002
+9.72740926158E+006, +2.67641027492E+002, +1.84451427509E+002
+9.85244055069E+006, +2.68293629711E+002, +1.87715551845E+002
+9.97747183980E+006, +2.68764188451E+002, +1.89552743546E+002
+1.01025031289E+007, +2.67911740624E+002, +1.92437847091E+002
+1.02275344180E+007, +2.68000400447E+002, +1.94484895362E+002
+1.03525657071E+007, +2.67887350128E+002, +1.97635411614E+002
+1.04775969962E+007, +2.67876071695E+002, +2.00645864979E+002
+1.06026282854E+007, +2.67649563676E+002, +2.04003893734E+002
+1.07276595745E+007, +2.67737151812E+002, +2.06251732446E+002
+1.08526908636E+007, +2.67981692566E+002, +2.08809381160E+002
+1.09777221527E+007, +2.68293085667E+002, +2.10831532019E+002
+1.11027534418E+007, +2.67544702005E+002, +2.14173125384E+002
+1.12277847309E+007, +2.67780033103E+002, +2.17034514659E+002
+1.13528160200E+007, +2.68367308472E+002, +2.19123322867E+002
+1.14778473091E+007, +2.67788359920E+002, +2.22531906875E+002
+1.16028785982E+007, +2.68850828834E+002, +2.25529217503E+002
+1.17279098874E+007, +2.66506817684E+002, +2.28450421081E+002
+1.18529411765E+007, +2.66894074128E+002, +2.32231138250E+002
+1.19779724656E+007, +2.66579250248E+002, +2.34956454981E+002
+1.21030037547E+007, +2.66361615146E+002, +2.36638492202E+002
+1.22280350438E+007, +2.67483235470E+002, +2.40911000329E+002
+1.23530663329E+007, +2.67362111007E+002, +2.43018189279E+002
+1.24780976220E+007, +2.66946270501E+002, +2.46056308555E+002
+1.26031289111E+007, +2.67287964491E+002, +2.48972079847E+002
+1.27281602003E+007, +2.67918029641E+002, +2.51412381908E+002
+1.28531914894E+007, +2.67395498001E+002, +2.54372514394E+002
+1.29782227785E+007, +2.67822375787E+002, +2.57879039351E+002
+1.31032540676E+007, +2.67919387830E+002, +2.59736380205E+002
+1.32282853567E+007, +2.67878934063E+002, +2.63208060903E+002
+1.33533166458E+007, +2.67959033342E+002, +2.65743614127E+002
+1.34783479349E+007, +2.67327972353E+002, +2.68741349122E+002
+1.36033792240E+007, +2.67795265196E+002, +2.71868802611E+002
+1.37284105131E+007, +2.67675331342E+002, +2.75413824819E+002
+1.38534418023E+007, +2.68616163207E+002, +2.77462453633E+002
+1.39784730914E+007, +2.67925997038E+002, +2.81547349271E+002
+1.41035043805E+007, +2.68438525764E+002, +2.83652207267E+002
+1.42285356696E+007, +2.68962558866E+002, +2.86393127541E+002
+1.43535669587E+007, +2.69214077108E+002, +2.89344639666E+002
+1.44785982478E+007, +2.68814254084E+002, +2.92411348287E+002
+1.46036295369E+007, +2.69650985039E+002, +2.95373411595E+002
+1.47286608260E+007, +2.69337294532E+002, +2.98857063583E+002
+1.48536921151E+007, +2.69600798795E+002, +3.02305586496E+002
+1.49787234043E+007, +2.68970840967E+002, +3.04204214202E+002
+1.51037546934E+007, +2.69361882162E+002, +3.09285549659E+002
+1.52287859825E+007, +2.69485023307E+002, +3.11839035878E+002
+1.53538172716E+007, +2.69549605501E+002, +3.14913542271E+002
+1.54788485607E+007, +2.70053583969E+002, +3.18635290401E+002
+1.56038798498E+007, +2.70908325162E+002, +3.20522515258E+002
+1.57289111389E+007, +2.69970118209E+002, +3.23922478333E+002
+1.58539424280E+007, +2.70060705940E+002, +3.26357535568E+002
+1.59789737171E+007, +2.69952565844E+002, +3.30112266917E+002
+1.61040050063E+007, +2.71545823536E+002, +3.33822168068E+002
+1.62290362954E+007, +2.71761803004E+002, +3.37459171879E+002
+1.63540675845E+007, +2.71628445380E+002, +3.39976695218E+002
+1.64790988736E+007, +2.71576150627E+002, +3.44043143424E+002
+1.66041301627E+007, +2.71130640521E+002, +3.46889675296E+002
+1.67291614518E+007, +2.72312257965E+002, +3.51218019101E+002
+1.68541927409E+007, +2.71831361622E+002, +3.53202345233E+002
+1.69792240300E+007, +2.72201317599E+002, +3.56363673336E+002
+1.71042553191E+007, +2.70195962672E+002, +3.62008797511E+002
+1.72292866083E+007, +2.72420824286E+002, +3.63740373771E+002
+1.73543178974E+007, +2.73257084293E+002, +3.68375367464E+002
+1.74793491865E+007, +2.73725914816E+002, +3.70922917184E+002
+1.76043804756E+007, +2.73466087791E+002, +3.74571398149E+002
+1.77294117647E+007, +2.74850498753E+002, +3.79549345763E+002
+1.78544430538E+007, +2.73907744684E+002, +3.81832191656E+002
+1.79794743429E+007, +2.74689049732E+002, +3.84367977946E+002
+1.81045056320E+007, +2.74568090986E+002, +3.86888554195E+002
+1.82295369212E+007, +2.75515788814E+002, +3.93025960116E+002
+1.83545682103E+007, +2.76472713203E+002, +3.95544062906E+002
+1.84795994994E+007, +2.75311295447E+002, +3.99044706259E+002
+1.86046307885E+007, +2.76160491244E+002, +4.02706078148E+002
+1.87296620776E+007, +2.76835065427E+002, +4.06257622120E+002
+1.88546933667E+007, +2.76391175042E+002, +4.09414435976E+002
+1.89797246558E+007, +2.77598797597E+002, +4.12839623549E+002
+1.91047559449E+007, +2.77301601470E+002, +4.16365027929E+002
+1.92297872340E+007, +2.77826093842E+002, +4.20671480101E+002
+1.93548185232E+007, +2.78083399146E+002, +4.23963832994E+002
+1.94798498123E+007, +2.78083159091E+002, +4.27427700077E+002
+1.96048811014E+007, +2.77781381238E+002, +4.31935649192E+002
+1.97299123905E+007, +2.78012171617E+002, +4.33620306747E+002
+1.98549436796E+007, +2.80088225865E+002, +4.39771006541E+002
+1.99799749687E+007, +2.79938132977E+002, +4.42671285054E+002
+2.01050062578E+007, +2.79930553777E+002, +4.45873002659E+002
+2.02300375469E+007, +2.81801547150E+002, +4.50652706940E+002
+2.03550688360E+007, +2.80753124461E+002, +4.54766531793E+002
+2.04801001252E+007, +2.82713443081E+002, +4.59236683198E+002
+2.06051314143E+007, +2.83015464987E+002, +4.62606755187E+002
+2.07301627034E+007, +2.82470961096E+002, +4.66930284697E+002
+2.08551939925E+007, +2.83950034611E+002, +4.70226323197E+002
+2.09802252816E+007, +2.84019147149E+002, +4.72580296244E+002
+2.11052565707E+007, +2.83096545564E+002, +4.77838321285E+002
+2.12302878598E+007, +2.84982638510E+002, +4.81286286808E+002
+2.13553191489E+007, +2.85413358663E+002, +4.85234923250E+002
+2.14803504380E+007, +2.86404728604E+002, +4.91020471722E+002
+2.16053817272E+007, +2.87090665187E+002, +4.92875908070E+002
+2.17304130163E+007, +2.86024997132E+002, +4.97740621660E+002
+2.18554443054E+007, +2.84795862900E+002, +5.01138372935E+002
+2.19804755945E+007, +2.87009880551E+002, +5.07568956707E+002
+2.21055068836E+007, +2.88915568743E+002, +5.11168650649E+002
+2.22305381727E+007, +2.90005381853E+002, +5.16350957367E+002
+2.23555694618E+007, +2.88525315743E+002, +5.18433849024E+002
+2.24806007509E+007, +2.88384035409E+002, +5.22137616240E+002
+2.26056320401E+007, +2.90978993022E+002, +5.29476796771E+002
+2.27306633292E+007, +2.90797029379E+002, +5.33084731246E+002
+2.28556946183E+007, +2.91962210958E+002, +5.37353769526E+002
+2.29807259074E+007, +2.93309761434E+002, +5.42857579785E+002
+2.31057571965E+007, +2.93872228376E+002, +5.46346333178E+002
+2.32307884856E+007, +2.94390722849E+002, +5.51120025357E+002
+2.33558197747E+007, +2.93314863480E+002, +5.53155277707E+002
+2.34808510638E+007, +2.96991569237E+002, +5.57851247505E+002
+2.36058823529E+007, +2.96009340537E+002, +5.63747031990E+002
+2.37309136421E+007, +2.96478167942E+002, +5.69831064676E+002
+2.38559449312E+007, +2.98604272529E+002, +5.74201508087E+002
+2.39809762203E+007, +2.98416483571E+002, +5.77782297687E+002
+2.41060075094E+007, +2.98185040012E+002, +5.82315314874E+002
+2.42310387985E+007, +3.02018307929E+002, +5.86749466317E+002
+2.43560700876E+007, +3.00599181473E+002, +5.92853011607E+002
+2.44811013767E+007, +3.01634284773E+002, +5.96769406561E+002
+2.46061326658E+007, +3.03230039153E+002, +6.00977432539E+002
+2.47311639549E+007, +3.02673278046E+002, +6.06503381898E+002
+2.48561952441E+007, +3.06727798988E+002, +6.12651284451E+002
+2.49812265332E+007, +3.07000145974E+002, +6.17484174319E+002
+2.51062578223E+007, +3.07321909555E+002, +6.22544795694E+002
+2.52312891114E+007, +3.08653743827E+002, +6.26033248113E+002
+2.53563204005E+007, +3.08058602257E+002, +6.31276818698E+002
+2.54813516896E+007, +3.10547715679E+002, +6.38320577388E+002
+2.56063829787E+007, +3.10460850332E+002, +6.43650430670E+002
+2.57314142678E+007, +3.12011746147E+002, +6.47059527597E+002
+2.58564455569E+007, +3.12429865204E+002, +6.51497229331E+002
+2.59814768461E+007, +3.13046934160E+002, +6.57563759779E+002
+2.61065081352E+007, +3.17501535506E+002, +6.62302711471E+002
+2.62315394243E+007, +3.19642568281E+002, +6.70790397863E+002
+2.63565707134E+007, +3.18833762354E+002, +6.74319794820E+002
+2.64816020025E+007, +3.19040590219E+002, +6.78871821016E+002
+2.66066332916E+007, +3.21366129949E+002, +6.85214308012E+002
+2.67316645807E+007, +3.21991201778E+002, +6.87626403212E+002
+2.68566958698E+007, +3.21494482466E+002, +6.95384110365E+002
+2.69817271589E+007, +3.21698567276E+002, +7.03899235748E+002
+2.71067584481E+007, +3.25599468719E+002, +7.09026992843E+002
+2.72317897372E+007, +3.26884293142E+002, +7.16974382370E+002
+2.73568210263E+007, +3.24266854386E+002, +7.18878365027E+002
+2.74818523154E+007, +3.28923027546E+002, +7.27414027737E+002
+2.76068836045E+007, +3.30938646391E+002, +7.26832296218E+002
+2.77319148936E+007, +3.33476923417E+002, +7.36458162675E+002
+2.78569461827E+007, +3.35502117450E+002, +7.42723542176E+002
+2.79819774718E+007, +3.34398460015E+002, +7.50189293236E+002
+2.81070087610E+007, +3.36322525998E+002, +7.53396388727E+002
+2.82320400501E+007, +3.39886997973E+002, +7.61970020022E+002
+2.83570713392E+007, +3.38801426775E+002, +7.67876763792E+002
+2.84821026283E+007, +3.40978474714E+002, +7.71946804706E+002
+2.86071339174E+007, +3.42229311052E+002, +7.78269686746E+002
+2.87321652065E+007, +3.43557145162E+002, +7.84513466261E+002
+2.88571964956E+007, +3.43311248527E+002, +7.95390691784E+002
+2.89822277847E+007, +3.47065083466E+002, +8.00363227226E+002
+2.91072590738E+007, +3.45034025136E+002, +8.07159173104E+002
+2.92322903630E+007, +3.44042231925E+002, +8.13456766289E+002
+2.93573216521E+007, +3.49790730214E+002, +8.22268448992E+002
+2.94823529412E+007, +3.52118997690E+002, +8.25537399103E+002
+2.96073842303E+007, +3.53128774722E+002, +8.32995739848E+002
+2.97324155194E+007, +3.56269165634E+002, +8.36848085290E+002
+2.98574468085E+007, +3.55602850465E+002, +8.49039536162E+002
+2.99824780976E+007, +3.59597254909E+002, +8.54965422923E+002
+3.01075093867E+007, +3.59842297055E+002, +8.63122916903E+002
+3.02325406758E+007, +3.70107742486E+002, +8.73027161457E+002
+3.03575719650E+007, +3.68570032929E+002, +8.76846828839E+002
+3.04826032541E+007, +3.67626555911E+002, +8.82901078539E+002
+3.06076345432E+007, +3.69961067937E+002, +8.94251127836E+002
+3.07326658323E+007, +3.74746418232E+002, +9.02786130961E+002
+3.08576971214E+007, +3.75068356810E+002, +9.06142117411E+002
+3.09827284105E+007, +3.80647010918E+002, +9.14862638401E+002
+3.11077596996E+007, +3.80885901057E+002, +9.24741019456E+002
+3.12327909887E+007, +3.81382136512E+002, +9.29324569679E+002
+3.13578222778E+007, +3.79712572332E+002, +9.38881234739E+002
+3.14828535670E+007, +3.88663391831E+002, +9.42849569559E+002
+3.16078848561E+007, +3.85888083360E+002, +9.54503574148E+002
+3.17329161452E+007, +3.95299322067E+002, +9.60214094059E+002
+3.18579474343E+007, +3.96942279075E+002, +9.69009630958E+002
+3.19829787234E+007, +3.97295545708E+002, +9.82248259373E+002
+3.21080100125E+007, +4.01964156951E+002, +9.87929713768E+002
+3.22330413016E+007, +4.02320225321E+002, +1.00072314552E+003
+3.23580725907E+007, +4.10520697355E+002, +1.00298862924E+003
+3.24831038798E+007, +4.08443058888E+002, +1.01814133672E+003
+3.26081351690E+007, +4.12083793673E+002, +1.02460953887E+003
+3.27331664581E+007, +4.13463504778E+002, +1.03131842345E+003
+3.28581977472E+007, +4.21314653450E+002, +1.04140615819E+003
+3.29832290363E+007, +4.25693680345E+002, +1.05629196327E+003
+3.31082603254E+007, +4.22137209869E+002, +1.05259846183E+003
+3.32332916145E+007, +4.28904860513E+002, +1.07204711449E+003
+3.33583229036E+007, +4.26025556854E+002, +1.07404103606E+003
+3.34833541927E+007, +4.31841105085E+002, +1.08736991929E+003
+3.36083854819E+007, +4.39226995975E+002, +1.09259420568E+003
+3.37334167710E+007, +4.40061394199E+002, +1.10712647614E+003
+3.38584480601E+007, +4.45500723028E+002, +1.11628877684E+003
+3.39834793492E+007, +4.48071273195E+002, +1.12616697637E+003
+3.41085106383E+007, +4.50356163793E+002, +1.13482517448E+003
+3.42335419274E+007, +4.54035985626E+002, +1.15026497917E+003
+3.43585732165E+007, +4.59299442305E+002, +1.15641540318E+003
+3.44836045056E+007, +4.61832107340E+002, +1.16294610078E+003
+3.46086357947E+007, +4.72699881779E+002, +1.17861061450E+003
+3.47336670839E+007, +4.71927253630E+002, +1.19001929705E+003
+3.48586983730E+007, +4.68700505158E+002, +1.20025641189E+003
+3.49837296621E+007, +4.86224977635E+002, +1.21295324218E+003
+3.51087609512E+007, +4.90256795782E+002, +1.22919539943E+003
+3.52337922403E+007, +4.89210285990E+002, +1.24053425984E+003
+3.53588235294E+007, +4.94436277649E+002, +1.24549110547E+003
+3.54838548185E+007, +5.04739014933E+002, +1.25424959506E+003
+3.56088861076E+007, +5.02503531923E+002, +1.27190865314E+003
+3.57339173967E+007, +5.17789191851E+002, +1.28027715380E+003
+3.58589486859E+007, +5.15227670215E+002, +1.29399069132E+003
+3.59839799750E+007, +5.16327003333E+002, +1.30688635816E+003
+3.61090112641E+007, +5.21790411516E+002, +1.31327260340E+003
+3.62340425532E+007, +5.31252688569E+002, +1.32384907726E+003
+3.63590738423E+007, +5.32199692376E+002, +1.34448484564E+003
+3.64841051314E+007, +5.35681765731E+002, +1.35341339875E+003
+3.66091364205E+007, +5.48165160733E+002, +1.36017518735E+003
+3.67341677096E+007, +5.70622538854E+002, +1.38452305594E+003
+3.68591989987E+007, +5.65164362645E+002, +1.39811711959E+003
+3.69842302879E+007, +5.66159857306E+002, +1.40685076060E+003
+3.71092615770E+007, +5.80897805716E+002, +1.42623378052E+003
+3.72342928661E+007, +5.74998556290E+002, +1.44086477950E+003
+3.73593241552E+007, +5.86750934754E+002, +1.45273196845E+003
+3.74843554443E+007, +5.95290262266E+002, +1.46580666461E+003
+3.76093867334E+007, +6.08843455994E+002, +1.48858489471E+003
+3.77344180225E+007, +6.17994587908E+002, +1.49526378321E+003
+3.78594493116E+007, +6.40964358425E+002, +1.51056806238E+003
+3.79844806008E+007, +6.43155698932E+002, +1.54406803275E+003
+3.81095118899E+007, +6.31430933466E+002, +1.54392974710E+003
+3.82345431790E+007, +6.52706862038E+002, +1.55516767011E+003
+3.83595744681E+007, +6.50777526111E+002, +1.57410398269E+003
+3.84846057572E+007, +6.60946428860E+002, +1.58808458292E+003
+3.86096370463E+007, +6.67620863968E+002, +1.62292290725E+003
+3.87346683354E+007, +6.98816751898E+002, +1.61160549523E+003
+3.88596996245E+007, +7.09311338314E+002, +1.65253937475E+003
+3.89847309136E+007, +7.28937771500E+002, +1.66649936661E+003
+3.91097622028E+007, +7.29410857827E+002, +1.66705937842E+003
+3.92347934919E+007, +7.43643902810E+002, +1.68384195476E+003
+3.93598247810E+007, +7.52094304648E+002, +1.72835405205E+003
+3.94848560701E+007, +7.60376892706E+002, +1.73823566659E+003
+3.96098873592E+007, +7.72924297335E+002, +1.74434634736E+003
+3.97349186483E+007, +7.82633398820E+002, +1.77331237406E+003
+3.98599499374E+007, +7.96400375770E+002, +1.77750170620E+003
+3.99849812265E+007, +8.14584398998E+002, +1.82209014129E+003
+4.01100125156E+007, +8.35480059640E+002, +1.82772827140E+003
