"# Channel 1"
"# Trace 1"
Frequency, Formatted Data, Formatted Data
+1.00000000000E+005, +9.61234007690E+001, +2.48431273720E+000
+3.18898623279E+005, +9.61666436463E+001, +7.78809107170E+000
+5.37797246558E+005, +9.62425128185E+001, +1.32293225995E+001
+7.56695869837E+005, +9.62404390112E+001, +1.87771242671E+001
+9.75594493116E+005, +9.61844248093E+001, +2.41586739764E+001
+1.19449311640E+006, +9.60625036363E+001, +2.94780288793E+001
+1.41339173967E+006, +9.61652768933E+001, +3.50439317201E+001
+1.63229036295E+006, +9.61201256209E+001, +4.03156441499E+001
+1.85118898623E+006, +9.59934802903E+001, +4.58389280763E+001
+2.07008760951E+006, +9.62236154644E+001, +5.11743808643E+001
+2.28898623279E+006, +9.63304459772E+001, +5.68671052322E+001
+2.50788485607E+006, +9.63964653821E+001, +6.19043733592E+001
+2.72678347935E+006, +9.62118846260E+001, +6.77083847144E+001
+2.94568210263E+006, +9.65665705775E+001, +7.30633387856E+001
+3.16458072591E+006, +9.62750328867E+001, +7.85760891645E+001
+3.38347934919E+006, +9.66393249425E+001, +8.38215767248E+001
+3.60237797247E+006, +9.64132182714E+001, +8.92424165840E+001
+3.82127659574E+006, +9.64468353840E+001, +9.45281953654E+001
+4.04017521902E+006, +9.71537378310E+001, +1.00051876837E+002
+4.25907384230E+006, +9.66952278497E+001, +1.05616012435E+002
+4.47797246558E+006, +9.70029043668E+001, +1.10962687022E+002
+4.69687108886E+006, +9.69031675022E+001, +1.16473987926E+002
+4.91576971214E+006, +9.70814232531E+001, +1.21984993553E+002
+5.13466833542E+006, +9.72585830329E+001, +1.27540114037E+002
+5.35356695870E+006, +9.75285979158E+001, +1.32960288134E+002
+5.57246558198E+006, +9.73283844348E+001, +1.38318963095E+002
+5.79136420526E+006, +9.80565376205E+001, +1.44084455880E+002
+6.01026282854E+006, +9.79486054487E+001, +1.49300735665E+002
+6.22916145181E+006, +9.80723439407E+001, +1.54722434287E+002
+6.44806007509E+006, +9.83191059399E+001, +1.60437450937E+002
+6.66695869837E+006, +9.87267107883E+001, +1.66150920101E+002
+6.88585732165E+006, +9.88164531496E+001, +1.71802416906E+002
+7.10475594493E+006, +9.91342497635E+001, +1.77246747193E+002
+7.32365456821E+006, +9.93368328961E+001, +1.83034180060E+002
+7.54255319149E+006, +9.93192431840E+001, +1.88002628345E+002
+7.76145181477E+006, +9.99471676462E+001, +1.94110494264E+002
+7.98035043805E+006, +1.00025897538E+002, +1.99963367503E+002
+8.19924906133E+006, +1.00085408081E+002, +2.05562530022E+002
+8.41814768461E+006, +1.00642456247E+002, +2.11042104634E+002
+8.63704630788E+006, +1.00876859157E+002, +2.16881330327E+002
+8.85594493116E+006, +1.01137079708E+002, +2.22773195771E+002
+9.07484355444E+006, +1.00903551918E+002, +2.28495774280E+002
+9.29374217772E+006, +1.01462172906E+002, +2.34586991544E+002
+9.51264080100E+006, +1.01914504288E+002, +2.39862489211E+002
+9.73153942428E+006, +1.02406890473E+002, +2.46073910587E+002
+9.95043804756E+006, +1.02246837115E+002, +2.51723954176E+002
+1.01693366708E+007, +1.02559663891E+002, +2.57549973618E+002
+1.03882352941E+007, +1.02832109203E+002, +2.63185261135E+002
+1.06071339174E+007, +1.03031744722E+002, +2.69570932029E+002
+1.08260325407E+007, +1.03279398133E+002, +2.75763685596E+002
+1.10449311640E+007, +1.03609076396E+002, +2.81029568658E+002
+1.12638297872E+007, +1.03993408748E+002, +2.88008576472E+002
+1.14827284105E+007, +1.04814791103E+002, +2.93299826491E+002
+1.17016270338E+007, +1.05015269765E+002, +2.99164628828E+002
+1.19205256571E+007, +1.05253982734E+002, +3.05476443309E+002
+1.21394242804E+007, +1.06172723944E+002, +3.11223624389E+002
+1.23583229036E+007, +1.06521417336E+002, +3.17885973187E+002
+1.25772215269E+007, +1.05943777508E+002, +3.23912070233E+002
+1.27961201502E+007, +1.06752995223E+002, +3.30061669889E+002
+1.30150187735E+007, +1.07448756682E+002, +3.36596571151E+002
+1.32339173967E+007, +1.07484876884E+002, +3.42772791768E+002
+1.34528160200E+007, +1.07600576719E+002, +3.48729632328E+002
+1.36717146433E+007, +1.08349231697E+002, +3.55494030508E+002
+1.38906132666E+007, +1.08749673564E+002, +3.62550731305E+002
+1.41095118899E+007, +1.09831979398E+002, +3.68715995867E+002
+1.43284105131E+007, +1.09416136946E+002, +3.75238629780E+002
+1.45473091364E+007, +1.10613100284E+002, +3.81378933471E+002
+1.47662077597E+007, +1.10604233472E+002, +3.87240317002E+002
+1.49851063830E+007, +1.11345457999E+002, +3.93594554744E+002
+1.52040050063E+007, +1.11742255427E+002, +4.02175747295E+002
+1.54229036295E+007, +1.13234327027E+002, +4.08517081465E+002
+1.56418022528E+007, +1.11859568474E+002, +4.15263292315E+002
+1.58607008761E+007, +1.13448842865E+002, +4.20546786512E+002
+1.60795994994E+007, +1.13522086609E+002, +4.28671537329E+002
+1.62984981227E+007, +1.14303163768E+002, +4.34989330201E+002
+1.65173967459E+007, +1.15372541081E+002, +4.42698488324E+002
+1.67362953692E+007, +1.15273309228E+002, +4.49744858287E+002
+1.69551939925E+007, +1.16182005448E+002, +4.53485340983E+002
+1.71740926158E+007, +1.15119705693E+002, +4.63953335969E+002
+1.73929912390E+007, +1.15244244115E+002, +4.72160905874E+002
+1.76118898623E+007, +1.16538271976E+002, +4.76494634415E+002
+1.78307884856E+007, +1.19068586743E+002, +4.84480235313E+002
+1.80496871089E+007, +1.19430935180E+002, +4.91419463953E+002
+1.82685857322E+007, +1.20235450850E+002, +4.99522313342E+002
+1.84874843554E+007, +1.20091263835E+002, +5.06156872236E+002
+1.87063829787E+007, +1.21501539231E+002, +5.14380798839E+002
+1.89252816020E+007, +1.22497940630E+002, +5.23365936052E+002
+1.91441802253E+007, +1.24073518006E+002, +5.28935963535E+002
+1.93630788486E+007, +1.23411918860E+002, +5.37924511794E+002
+1.95819774718E+007, +1.24805933680E+002, +5.42346845171E+002
+1.98008760951E+007, +1.26449346150E+002, +5.53211758180E+002
+2.00197747184E+007, +1.25753147335E+002, +5.60529775179E+002
+2.02386733417E+007, +1.25789408535E+002, +5.67930577557E+002
+2.04575719650E+007, +1.28060697922E+002, +5.75542015949E+002
+2.06764705882E+007, +1.28460689602E+002, +5.84520443741E+002
+2.08953692115E+007, +1.31354516749E+002, +5.94512799159E+002
+2.11142678348E+007, +1.32563953579E+002, +6.00013120551E+002
+2.13331664581E+007, +1.33016872427E+002, +6.10395857886E+002
+2.15520650814E+007, +1.34284375058E+002, +6.15461407455E+002
+2.17709637046E+007, +1.36074103830E+002, +6.25756917081E+002
+2.19898623279E+007, +1.35712754660E+002, +6.35390106476E+002
+2.22087609512E+007, +1.37303240273E+002, +6.42679976744E+002
+2.24276595745E+007, +1.42048603537E+002, +6.51328772781E+002
+2.26465581977E+007, +1.41500626683E+002, +6.61302442806E+002
+2.28654568210E+007, +1.43764371833E+002, +6.68525432521E+002
+2.30843554443E+007, +1.43795886363E+002, +6.78184780981E+002
+2.33032540676E+007, +1.45787037599E+002, +6.86396869451E+002
+2.35221526909E+007, +1.46547597408E+002, +6.94646198736E+002
+2.37410513141E+007, +1.45530656921E+002, +7.01754995805E+002
+2.39599499374E+007, +1.46944842618E+002, +7.13405680025E+002
+2.41788485607E+007, +1.50494073600E+002, +7.18306318403E+002
+2.43977471840E+007, +1.52965347856E+002, +7.30344513242E+002
+2.46166458073E+007, +1.52030200622E+002, +7.42096761041E+002
+2.48355444305E+007, +1.54855503620E+002, +7.50248743930E+002
+2.50544430538E+007, +1.59576448986E+002, +7.59877576323E+002
+2.52733416771E+007, +1.61940443742E+002, +7.68480409088E+002
+2.54922403004E+007, +1.62218568593E+002, +7.80712005871E+002
+2.57111389237E+007, +1.62554901234E+002, +7.88138133065E+002
+2.59300375469E+007, +1.62291718378E+002, +7.96846499873E+002
+2.61489361702E+007, +1.64991445433E+002, +8.06729230998E+002
+2.63678347935E+007, +1.63722929233E+002, +8.18072060329E+002
+2.65867334168E+007, +1.68879526972E+002, +8.26905437326E+002
+2.68056320401E+007, +1.71721575970E+002, +8.40925783528E+002
+2.70245306633E+007, +1.71127559426E+002, +8.49573641850E+002
+2.72434292866E+007, +1.66931152576E+002, +8.60006347823E+002
+2.74623279099E+007, +1.72556262046E+002, +8.74869794535E+002
+2.76812265332E+007, +1.72543447154E+002, +8.82396131128E+002
+2.79001251564E+007, +1.76953008814E+002, +8.97710364845E+002
+2.81190237797E+007, +1.79204419238E+002, +9.09107792878E+002
+2.83379224030E+007, +1.80962897740E+002, +9.16342750365E+002
+2.85568210263E+007, +1.82451530297E+002, +9.33125718883E+002
+2.87757196496E+007, +1.83479883070E+002, +9.44695381689E+002
+2.89946182728E+007, +1.84270165348E+002, +9.63155115030E+002
+2.92135168961E+007, +1.85065888019E+002, +9.72278239898E+002
+2.94324155194E+007, +1.92828216051E+002, +9.87040518278E+002
+2.96513141427E+007, +1.89608053264E+002, +1.00206439633E+003
+2.98702127660E+007, +1.91091155142E+002, +1.01140927995E+003
+3.00891113892E+007, +1.91748183836E+002, +1.02396846026E+003
+3.03080100125E+007, +2.00742195481E+002, +1.03868463299E+003
+3.05269086358E+007, +2.06756262743E+002, +1.05492266240E+003
+3.07458072591E+007, +2.06951656754E+002, +1.06209397156E+003
+3.09647058824E+007, +2.09845103046E+002, +1.07890420818E+003
+3.11836045056E+007, +2.11455337228E+002, +1.09684594301E+003
+3.14025031289E+007, +2.16422102112E+002, +1.11112984538E+003
+3.16214017522E+007, +2.19392229257E+002, +1.12498461662E+003
+3.18403003755E+007, +2.19117701353E+002, +1.14959130212E+003
+3.20591989987E+007, +2.12800971154E+002, +1.16311965459E+003
+3.22780976220E+007, +2.20076567596E+002, +1.17462022939E+003
+3.24969962453E+007, +2.26283161739E+002, +1.18774700374E+003
+3.27158948686E+007, +2.29364386554E+002, +1.20896503012E+003
+3.29347934919E+007, +2.30124075309E+002, +1.22017515461E+003
+3.31536921151E+007, +2.37689338879E+002, +1.23644291549E+003
+3.33725907384E+007, +2.37975676999E+002, +1.26125492905E+003
+3.35914893617E+007, +2.48635013134E+002, +1.27610213238E+003
+3.38103879850E+007, +2.47864857618E+002, +1.29275815447E+003
+3.40292866083E+007, +2.50209773424E+002, +1.31654621730E+003
+3.42481852315E+007, +2.61937793069E+002, +1.32910894746E+003
+3.44670838548E+007, +2.66413189834E+002, +1.34930109375E+003
+3.46859824781E+007, +2.62660685566E+002, +1.37197960667E+003
+3.49048811014E+007, +2.77741232147E+002, +1.39297527455E+003
+3.51237797247E+007, +2.83062456124E+002, +1.41216368047E+003
+3.53426783479E+007, +2.83973648687E+002, +1.43405892594E+003
+3.55615769712E+007, +2.94662661520E+002, +1.46425586329E+003
+3.57804755945E+007, +3.11245750822E+002, +1.47313195226E+003
+3.59993742178E+007, +3.04484602797E+002, +1.50922603395E+003
+3.62182728411E+007, +3.09548099801E+002, +1.51178958443E+003
+3.64371714643E+007, +3.22282162999E+002, +1.53963897204E+003
+3.66560700876E+007, +3.20179722995E+002, +1.57309848193E+003
+3.68749687109E+007, +3.37175047709E+002, +1.60948020225E+003
+3.70938673342E+007, +3.46756298464E+002, +1.62370107971E+003
+3.73127659574E+007, +3.39249551265E+002, +1.65212932483E+003
+3.75316645807E+007, +3.48600418496E+002, +1.67878759416E+003
+3.77505632040E+007, +3.60189293299E+002, +1.70290963114E+003
+3.79694618273E+007, +3.72635968405E+002, +1.72303998825E+003
+3.81883604506E+007, +3.71694884246E+002, +1.76887092382E+003
+3.84072590738E+007, +3.89927903793E+002, +1.79993468593E+003
+3.86261576971E+007, +3.95379256183E+002, +1.82320661335E+003
+3.88450563204E+007, +3.96448714535E+002, +1.85625493494E+003
+3.90639549437E+007, +4.31819472894E+002, +1.85560142716E+003
+3.92828535670E+007, +4.29500719030E+002, +1.92537475779E+003
+3.95017521902E+007, +4.52625064072E+002, +1.93867776574E+003
+3.97206508135E+007, +4.67041058423E+002, +1.97750382626E+003
+3.99395494368E+007, +4.77158885585E+002, +2.02662133036E+003
+4.01584480601E+007, +4.94489104647E+002, +2.04441291466E+003
+4.03773466834E+007, +5.14271006132E+002, +2.11496429140E+003
+4.05962453066E+007, +5.18696035913E+002, +2.14805978417E+003
+4.08151439299E+007, +5.46178708921E+002, +2.15586427133E+003
+4.10340425532E+007, +5.45290050475E+002, +2.21888177773E+003
+4.12529411765E+007, +5.49237688772E+002, +2.26218149043E+003
+4.14718397997E+007, +5.67904100920E+002, +2.31726626933E+003
+4.16907384230E+007, +6.16237849535E+002, +2.36140771624E+003
+4.19096370463E+007, +6.23419318379E+002, +2.40782180053E+003
+4.21285356696E+007, +6.52447225744E+002, +2.46018016377E+003
+4.23474342929E+007, +6.64676566601E+002, +2.52474376533E+003
+4.25663329161E+007, +7.29131542786E+002, +2.53797307012E+003
+4.27852315394E+007, +7.31825839279E+002, +2.63873053072E+003
+4.30041301627E+007, +7.72284548978E+002, +2.67927093284E+003
+4.32230287860E+007, +8.09282048206E+002, +2.74693838605E+003
+4.34419274093E+007, +8.32522048321E+002, +2.83977585141E+003
+4.36608260325E+007, +8.32258712957E+002, +2.89650870152E+003
+4.38797246558E+007, +8.73852367151E+002, +2.96933400019E+003
+4.40986232791E+007, +9.06455534491E+002, +3.02257524186E+003
+4.43175219024E+007, +9.61609813806E+002, +3.08452190884E+003
+4.45364205257E+007, +1.02935302236E+003, +3.20530885061E+003
+4.47553191489E+007, +1.14448274261E+003, +3.26014863381E+003
+4.49742177722E+007, +1.16433066083E+003, +3.34244487842E+003
+4.51931163955E+007, +1.20389168279E+003, +3.39361791163E+003
+4.54120150188E+007, +1.25132726899E+003, +3.51380068418E+003
+4.56309136421E+007, +1.38028364114E+003, +3.55764264851E+003
+4.58498122653E+007, +1.38029768558E+003, +3.63356439020E+003
+4.60687108886E+007, +1.50775024259E+003, +3.83608283867E+003
+4.62876095119E+007, +1.55873121360E+003, +3.92275439957E+003
+4.65065081352E+007, +1.72663195215E+003, +3.98568389258E+003
+4.67254067584E+007, +1.75685569143E+003, +4.15770951969E+003
+4.69443053817E+007, +1.79613790005E+003, +4.22529723903E+003
+4.71632040050E+007, +2.08946634074E+003, +4.41945808251E+003
+4.73821026283E+007, +2.16631784452E+003, +4.36612881258E+003
+4.76010012516E+007, +2.43475903410E+003, +4.60713663358E+003
+4.78198998748E+007, +2.45485709605E+003, +4.84058602526E+003
+4.80387984981E+007, +2.83020157912E+003, +4.95257951387E+003
+4.82576971214E+007, +2.91827390460E+003, +5.21259704513E+003
+4.84765957447E+007, +3.09571979573E+003, +5.12454759386E+003
+4.86954943680E+007, +3.44347215058E+003, +5.38554258317E+003
+4.89143929912E+007, +3.65164435412E+003, +5.39180852166E+003
+4.91332916145E+007, +4.10471748675E+003, +5.55494935388E+003
+4.93521902378E+007, +4.33878615745E+003, +5.79025569977E+003
+4.95710888611E+007, +4.90514311022E+003, +5.67495896991E+003
+4.97899874844E+007, +5.28972523261E+003, +5.60239086280E+003
+5.00088861076E+007, +5.52068875947E+003, +6.01721096870E+003
+5.02277847309E+007, +6.54776415224E+003, +5.68509505334E+003
+5.04466833542E+007, +6.86366921941E+003, +5.72814213786E+003
+5.06655819775E+007, +7.76309148131E+003, +5.42116217492E+003
+5.08844806008E+007, +8.16524586036E+003, +5.46144997537E+003
+5.11033792240E+007, +8.98157425785E+003, +5.15250165848E+003
+5.13222778473E+007, +1.02393432762E+004, +4.18116629035E+003
+5.15411764706E+007, +1.04853460785E+004, +3.73227118676E+003
+5.17600750939E+007, +1.10246744475E+004, +2.94122369431E+003
+5.19789737171E+007, +1.17098563245E+004, +1.57918674790E+003
+5.21978723404E+007, +1.18107214217E+004, +4.07507944701E+002
+5.24167709637E+007, +1.28382325416E+004, -6.70478267852E+001
+5.26356695870E+007, +1.12309259472E+004, -1.23883865946E+003
+5.28545682103E+007, +1.09084178899E+004, -2.27795989539E+003
+5.30734668335E+007, +1.05153646713E+004, -3.41626186623E+003
+5.32923654568E+007, +1.02044084256E+004, -4.19373752557E+003
+5.35112640801E+007, +9.42400447967E+003, -4.60968855716E+003
+5.37301627034E+007, +8.63645722151E+003, -5.57960205833E+003
+5.39490613267E+007, +7.81509885021E+003, -5.38922406305E+003
+5.41679599499E+007, +7.16822400688E+003, -5.98860354648E+003
+5.43868585732E+007, +6.56827101854E+003, -6.07413748557E+003
+5.46057571965E+007, +6.31655137525E+003, -5.90412989488E+003
+5.48246558198E+007, +5.45750083919E+003, -6.01812504315E+003
+5.50435544431E+007, +4.54632758091E+003, -5.89821335979E+003
+5.52624530663E+007, +4.41285034662E+003, -5.48444434835E+003
+5.54813516896E+007, +4.12698909389E+003, -5.40806412938E+003
+5.57002503129E+007, +3.87379928016E+003, -5.24962479198E+003
+5.59191489362E+007, +3.47750582582E+003, -5.26485852432E+003
+5.61380475594E+007, +3.31282075645E+003, -5.12361545525E+003
+5.63569461827E+007, +2.86676680145E+003, -4.89963968411E+003
+5.65758448060E+007, +2.80213953710E+003, -4.80516693095E+003
+5.67947434293E+007, +2.51637625746E+003, -4.66777971171E+003
+5.70136420526E+007, +2.40895794893E+003, -4.49911615968E+003
+5.72325406758E+007, +2.24937998668E+003, -4.42641642206E+003
+5.74514392991E+007, +2.05012362706E+003, -4.31492019893E+003
+5.76703379224E+007, +1.96678699036E+003, -4.13062748512E+003
+5.78892365457E+007, +1.82190139696E+003, -4.03346682920E+003
+5.81081351690E+007, +1.76578262446E+003, -3.82778931801E+003
+5.83270337922E+007, +1.64502986497E+003, -3.86201965758E+003
+5.85459324155E+007, +1.58229203259E+003, -3.62265739999E+003
+5.87648310388E+007, +1.49062516023E+003, -3.63848120910E+003
+5.89837296621E+007, +1.43622435085E+003, -3.52573544720E+003
+5.92026282854E+007, +1.35871179319E+003, -3.37251291117E+003
+5.94215269086E+007, +1.27925901565E+003, -3.33844895159E+003
+5.96404255319E+007, +1.15776460088E+003, -3.24553384838E+003
+5.98593241552E+007, +1.16088454972E+003, -3.14972286616E+003
+6.00782227785E+007, +1.07873745645E+003, -3.05697255638E+003
+6.02971214018E+007, +1.08809084637E+003, -3.01047544928E+003
+6.05160200250E+007, +1.00958269507E+003, -2.93415239918E+003
+6.07349186483E+007, +9.99197763923E+002, -2.89762542429E+003
+6.09538172716E+007, +9.14855562651E+002, -2.80783292820E+003
+6.11727158949E+007, +9.33147660797E+002, -2.73600883471E+003
+6.13916145181E+007, +8.77667192483E+002, -2.71277649651E+003
+6.16105131414E+007, +8.31339153015E+002, -2.65305307306E+003
+6.18294117647E+007, +7.97250933080E+002, -2.60174645441E+003
+6.20483103880E+007, +7.84054279279E+002, -2.54822046246E+003
+6.22672090113E+007, +7.63550342921E+002, -2.48303717617E+003
+6.24861076345E+007, +7.28157102722E+002, -2.44144502600E+003
+6.27050062578E+007, +7.27212879087E+002, -2.40472534254E+003
+6.29239048811E+007, +6.85285732474E+002, -2.35389046371E+003
+6.31428035044E+007, +6.42050336321E+002, -2.30176419244E+003
+6.33617021277E+007, +6.44452817494E+002, -2.25824075206E+003
+6.35806007509E+007, +5.92907049672E+002, -2.22424868227E+003
+6.37994993742E+007, +5.88732584285E+002, -2.17748882643E+003
+6.40183979975E+007, +5.88166731704E+002, -2.14236167751E+003
+6.42372966208E+007, +5.53115076433E+002, -2.09754391703E+003
+6.44561952441E+007, +5.44627610300E+002, -2.06679899973E+003
+6.46750938673E+007, +5.13095726571E+002, -2.01600432425E+003
+6.48939924906E+007, +5.14111509766E+002, -1.96235769035E+003
+6.51128911139E+007, +4.91236340109E+002, -1.95120627398E+003
+6.53317897372E+007, +5.04384826455E+002, -1.89034003938E+003
+6.55506883605E+007, +4.85448361615E+002, -1.86863739224E+003
+6.57695869837E+007, +4.62303043162E+002, -1.83550724271E+003
+6.59884856070E+007, +4.67553928663E+002, -1.80141132939E+003
+6.62073842303E+007, +4.33218179776E+002, -1.78766390527E+003
+6.64262828536E+007, +4.33820534498E+002, -1.76312269049E+003
+6.66451814768E+007, +4.23002140249E+002, -1.72505846352E+003
+6.68640801001E+007, +4.21304600588E+002, -1.68720918105E+003
+6.70829787234E+007, +4.16989996795E+002, -1.66497051637E+003
+6.73018773467E+007, +4.11645364999E+002, -1.64809014920E+003
+6.75207759700E+007, +4.03694517318E+002, -1.60684650092E+003
+6.77396745932E+007, +3.93166646297E+002, -1.58766690671E+003
+6.79585732165E+007, +3.91778623488E+002, -1.55938655740E+003
+6.81774718398E+007, +3.74079677310E+002, -1.53757526627E+003
+6.83963704631E+007, +3.76015993041E+002, -1.52140303840E+003
+6.86152690864E+007, +3.73037314233E+002, -1.48902738960E+003
+6.88341677096E+007, +3.54896263075E+002, -1.46951503109E+003
+6.90530663329E+007, +3.50807760986E+002, -1.44275005511E+003
+6.92719649562E+007, +3.55557233309E+002, -1.42021954142E+003
+6.94908635795E+007, +3.49503544751E+002, -1.40307060207E+003
+6.97097622028E+007, +3.45936980422E+002, -1.38034288749E+003
+6.99286608260E+007, +3.29866914986E+002, -1.35213482452E+003
+7.01475594493E+007, +3.28754593502E+002, -1.34239564950E+003
