"# Channel 1"
"# Trace 1"
Frequency, Formatted Data, Formatted Data
+1.00000000000E+005, +1.00769506736E+001, +2.18214357139E+000
+2.66777963272E+005, +1.00650747264E+001, +5.82784841134E+000
+4.33555926544E+005, +1.00731054110E+001, +9.48524756443E+000
+6.00333889816E+005, +1.01058284489E+001, +1.30949458206E+001
+7.67111853088E+005, +1.01029797494E+001, +1.67391806880E+001
+9.33889816361E+005, +1.01176002978E+001, +2.03570519588E+001
+1.10066777963E+006, +1.00647768310E+001, +2.40198884593E+001
+1.26744574290E+006, +1.01191314771E+001, +2.76235797619E+001
+1.43422370618E+006, +1.00625408686E+001, +3.13595574804E+001
+1.60100166945E+006, +1.01102209089E+001, +3.48638677310E+001
+1.76777963272E+006, +1.01581583863E+001, +3.85278673406E+001
+1.93455759599E+006, +1.01230577765E+001, +4.20932132327E+001
+2.10133555927E+006, +1.01382018990E+001, +4.57358452346E+001
+2.26811352254E+006, +1.01773519717E+001, +4.94055656878E+001
+2.43489148581E+006, +1.01720576203E+001, +5.31274213156E+001
+2.60166944908E+006, +1.01660205978E+001, +5.66162422769E+001
+2.76844741235E+006, +1.01601310363E+001, +6.03431427299E+001
+2.93522537563E+006, +1.01225553428E+001, +6.39919645080E+001
+3.10200333890E+006, +1.03365907460E+001, +6.75805591050E+001
+3.26878130217E+006, +1.00915917965E+001, +7.13955375121E+001
+3.43555926544E+006, +1.02564049335E+001, +7.48795940190E+001
+3.60233722871E+006, +1.03434997359E+001, +7.86552014094E+001
+3.76911519199E+006, +1.03064257338E+001, +8.24118188018E+001
+3.93589315526E+006, +1.03160661061E+001, +8.59865315246E+001
+4.10267111853E+006, +9.96919229292E+000, +8.92621765971E+001
+4.26944908180E+006, +1.02686424788E+001, +9.38389851864E+001
+4.43622704508E+006, +1.03303990079E+001, +9.70089957622E+001
+4.60300500835E+006, +1.04100224281E+001, +1.00997874017E+002
+4.76978297162E+006, +1.03356372492E+001, +1.04544201373E+002
+4.93656093489E+006, +1.05844804057E+001, +1.08369972720E+002
+5.10333889816E+006, +1.05574879383E+001, +1.11973493822E+002
+5.27011686144E+006, +1.09573954540E+001, +1.15935918162E+002
+5.43689482471E+006, +1.06125583404E+001, +1.19523179605E+002
+5.60367278798E+006, +1.07981296920E+001, +1.23488753839E+002
+5.77045075125E+006, +1.06788780933E+001, +1.27080048871E+002
+5.93722871452E+006, +1.11251216914E+001, +1.30797894179E+002
+6.10400667780E+006, +1.09548374665E+001, +1.34589360067E+002
+6.27078464107E+006, +1.11934905592E+001, +1.38253612390E+002
+6.43756260434E+006, +1.12367981160E+001, +1.42089274691E+002
+6.60434056761E+006, +1.12923398135E+001, +1.45713155909E+002
+6.77111853088E+006, +1.15458879907E+001, +1.49456407151E+002
+6.93789649416E+006, +1.15393949569E+001, +1.53305043091E+002
+7.10467445743E+006, +1.15130124372E+001, +1.57019215769E+002
+7.27145242070E+006, +1.16537749798E+001, +1.60805358165E+002
+7.43823038397E+006, +1.17095133791E+001, +1.64437788018E+002
+7.60500834725E+006, +1.17430716827E+001, +1.68382803309E+002
+7.77178631052E+006, +1.19847559943E+001, +1.72293325790E+002
+7.93856427379E+006, +1.18929516620E+001, +1.75778977626E+002
+8.10534223706E+006, +1.18091473551E+001, +1.79773963771E+002
+8.27212020033E+006, +1.18290261776E+001, +1.83685434739E+002
+8.43889816361E+006, +1.18634885188E+001, +1.87646814077E+002
+8.60567612688E+006, +1.17648941505E+001, +1.91626112599E+002
+8.77245409015E+006, +1.16936487365E+001, +1.95396878874E+002
+8.93923205342E+006, +1.18116374877E+001, +1.99596166035E+002
+9.10601001669E+006, +1.18143825631E+001, +2.03501593829E+002
+9.27278797997E+006, +1.20100631554E+001, +2.07236542470E+002
+9.43956594324E+006, +1.19092670845E+001, +2.11260744877E+002
+9.60634390651E+006, +1.17782314005E+001, +2.15408530514E+002
+9.77312186978E+006, +1.20422785951E+001, +2.19225047921E+002
+9.93989983306E+006, +1.21614923929E+001, +2.23364216821E+002
+1.01066777963E+007, +1.22082379383E+001, +2.27356643390E+002
+1.02734557596E+007, +1.21566922359E+001, +2.31453978676E+002
+1.04402337229E+007, +1.19007255049E+001, +2.35449293664E+002
+1.06070116861E+007, +1.20964475949E+001, +2.39430008670E+002
+1.07737896494E+007, +1.22174528734E+001, +2.43894719999E+002
+1.09405676127E+007, +1.24749959738E+001, +2.47668283126E+002
+1.11073455760E+007, +1.23335687534E+001, +2.51981594121E+002
+1.12741235392E+007, +1.24227708482E+001, +2.56218643068E+002
+1.14409015025E+007, +1.24387943871E+001, +2.60383098493E+002
+1.16076794658E+007, +1.27734822713E+001, +2.64493963846E+002
+1.17744574290E+007, +1.30262922482E+001, +2.69257049651E+002
+1.19412353923E+007, +1.28510294780E+001, +2.73382125678E+002
+1.21080133556E+007, +1.22328179148E+001, +2.77268144310E+002
+1.22747913189E+007, +1.30105847582E+001, +2.81936439715E+002
+1.24415692821E+007, +1.27237125047E+001, +2.86345352220E+002
+1.26083472454E+007, +1.26768215649E+001, +2.90288161812E+002
+1.27751252087E+007, +1.31669966241E+001, +2.94766051008E+002
+1.29419031720E+007, +1.26457671202E+001, +2.98606622906E+002
+1.31086811352E+007, +1.32929647891E+001, +3.03083294262E+002
+1.32754590985E+007, +1.32427827640E+001, +3.07753441981E+002
+1.34422370618E+007, +1.33423168146E+001, +3.12366878073E+002
+1.36090150250E+007, +1.37835834286E+001, +3.16589150499E+002
+1.37757929883E+007, +1.38454406771E+001, +3.21030158566E+002
+1.39425709516E+007, +1.39102197424E+001, +3.25589256344E+002
+1.41093489149E+007, +1.40674232894E+001, +3.29788336276E+002
+1.42761268781E+007, +1.43263803212E+001, +3.34604259406E+002
+1.44429048414E+007, +1.38130850005E+001, +3.39272174606E+002
+1.46096828047E+007, +1.39855183336E+001, +3.44247476842E+002
+1.47764607679E+007, +1.47598702488E+001, +3.47597019568E+002
+1.49432387312E+007, +1.43530993587E+001, +3.53117127589E+002
+1.51100166945E+007, +1.48548895152E+001, +3.58064921189E+002
+1.52767946578E+007, +1.51962304971E+001, +3.62227377279E+002
+1.54435726210E+007, +1.55910528940E+001, +3.67028242970E+002
+1.56103505843E+007, +1.56530746665E+001, +3.71890478329E+002
+1.57771285476E+007, +1.53833631094E+001, +3.75705504085E+002
+1.59439065109E+007, +1.55722853502E+001, +3.81012209159E+002
+1.61106844741E+007, +1.55764739265E+001, +3.86569533550E+002
+1.62774624374E+007, +1.67109882612E+001, +3.90157541055E+002
+1.64442404007E+007, +1.57762889923E+001, +3.95271900754E+002
+1.66110183639E+007, +1.63296315966E+001, +4.00307193767E+002
+1.67777963272E+007, +1.65672657608E+001, +4.05596637206E+002
+1.69445742905E+007, +1.71388791635E+001, +4.10121426440E+002
+1.71113522538E+007, +1.47978687536E+001, +4.15378317907E+002
+1.72781302170E+007, +1.64308886862E+001, +4.21056838852E+002
+1.74449081803E+007, +1.65100750026E+001, +4.25415207542E+002
+1.76116861436E+007, +1.67964435837E+001, +4.30297052818E+002
+1.77784641068E+007, +1.72876737885E+001, +4.34235009770E+002
+1.79452420701E+007, +1.79243960875E+001, +4.40165180139E+002
+1.81120200334E+007, +1.78964687861E+001, +4.43839804664E+002
+1.82787979967E+007, +1.84049121746E+001, +4.50669994463E+002
+1.84455759599E+007, +1.89271757548E+001, +4.56630679449E+002
+1.86123539232E+007, +1.86606283297E+001, +4.61980496738E+002
+1.87791318865E+007, +1.83632594189E+001, +4.66624924057E+002
+1.89459098497E+007, +1.93072335495E+001, +4.72199540857E+002
+1.91126878130E+007, +1.83800685564E+001, +4.77598328997E+002
+1.92794657763E+007, +1.94827287510E+001, +4.83488721583E+002
+1.94462437396E+007, +1.96433996512E+001, +4.88954562749E+002
+1.96130217028E+007, +1.96127304691E+001, +4.94716625635E+002
+1.97797996661E+007, +2.02091514384E+001, +4.99474374433E+002
+1.99465776294E+007, +1.92040595913E+001, +5.04323342579E+002
+2.01133555927E+007, +1.99611500722E+001, +5.12087897892E+002
+2.02801335559E+007, +2.02965979002E+001, +5.17958554003E+002
+2.04469115192E+007, +2.17378050471E+001, +5.23857389230E+002
+2.06136894825E+007, +2.11811144032E+001, +5.29578224438E+002
+2.07804674457E+007, +2.24067848120E+001, +5.34359552959E+002
+2.09472454090E+007, +2.09090724186E+001, +5.41028340798E+002
+2.11140233723E+007, +2.21990853728E+001, +5.46184292649E+002
+2.12808013356E+007, +2.30953096545E+001, +5.52618768834E+002
+2.14475792988E+007, +2.34506350831E+001, +5.60364548109E+002
+2.16143572621E+007, +2.41152562750E+001, +5.65467332177E+002
+2.17811352254E+007, +2.31931295503E+001, +5.70728283296E+002
+2.19479131886E+007, +2.47116868719E+001, +5.78128466364E+002
+2.21146911519E+007, +2.51443370621E+001, +5.83335779890E+002
+2.22814691152E+007, +2.57548923206E+001, +5.90437743746E+002
+2.24482470785E+007, +2.54313662918E+001, +5.99088999988E+002
+2.26150250417E+007, +2.77506350783E+001, +6.04501461695E+002
+2.27818030050E+007, +2.81788074198E+001, +6.11241502843E+002
+2.29485809683E+007, +2.99412453316E+001, +6.15372411298E+002
+2.31153589316E+007, +2.70139505782E+001, +6.25772993899E+002
+2.32821368948E+007, +3.13414566264E+001, +6.30346698759E+002
+2.34489148581E+007, +3.22502196002E+001, +6.34640297595E+002
+2.36156928214E+007, +3.26721433097E+001, +6.45795948472E+002
+2.37824707846E+007, +3.43890511828E+001, +6.51517992655E+002
+2.39492487479E+007, +3.40896107092E+001, +6.57532067936E+002
+2.41160267112E+007, +3.55701958806E+001, +6.65388597200E+002
+2.42828046745E+007, +3.38498915774E+001, +6.69788315381E+002
+2.44495826377E+007, +3.79928131864E+001, +6.80156294670E+002
+2.46163606010E+007, +3.76904386331E+001, +6.86721340799E+002
+2.47831385643E+007, +3.90775617495E+001, +6.92672864251E+002
+2.49499165275E+007, +4.24642973155E+001, +6.99693355912E+002
+2.51166944908E+007, +4.33077988388E+001, +7.07923763419E+002
+2.52834724541E+007, +4.33688734467E+001, +7.15503951788E+002
+2.54502504174E+007, +4.49048450873E+001, +7.22685707769E+002
+2.56170283806E+007, +4.53077978226E+001, +7.29953426648E+002
+2.57838063439E+007, +4.75702303987E+001, +7.37210444574E+002
+2.59505843072E+007, +4.99638231371E+001, +7.46791035283E+002
+2.61173622705E+007, +4.90369206108E+001, +7.51911763657E+002
+2.62841402337E+007, +4.82558887135E+001, +7.58308118443E+002
+2.64509181970E+007, +4.95130768865E+001, +7.64964396506E+002
+2.66176961603E+007, +5.24025176742E+001, +7.77466207325E+002
+2.67844741235E+007, +5.06066334308E+001, +7.83303529824E+002
+2.69512520868E+007, +5.50425834719E+001, +7.88996323719E+002
+2.71180300501E+007, +5.45498928645E+001, +7.95982477492E+002
+2.72848080134E+007, +5.57009584522E+001, +8.07123729819E+002
+2.74515859766E+007, +5.88680496508E+001, +8.10246603306E+002
+2.76183639399E+007, +5.50173465857E+001, +8.19817465812E+002
+2.77851419032E+007, +5.56760109310E+001, +8.22654948093E+002
+2.79519198664E+007, +5.74727195049E+001, +8.34965908373E+002
+2.81186978297E+007, +5.94361934401E+001, +8.39596818569E+002
+2.82854757930E+007, +6.15598159436E+001, +8.49351132289E+002
+2.84522537563E+007, +5.71441326557E+001, +8.62518136745E+002
+2.86190317195E+007, +5.52372845934E+001, +8.69675306593E+002
+2.87858096828E+007, +6.17653044145E+001, +8.76671505497E+002
+2.89525876461E+007, +6.08460019360E+001, +8.86756181433E+002
+2.91193656093E+007, +5.77785698689E+001, +8.91235265437E+002
+2.92861435726E+007, +5.77919174271E+001, +9.02923935615E+002
+2.94529215359E+007, +6.07582366964E+001, +9.14708132946E+002
+2.96196994992E+007, +6.06258934191E+001, +9.26794074689E+002
+2.97864774624E+007, +6.16103615171E+001, +9.36585721213E+002
+2.99532554257E+007, +6.21096930983E+001, +9.48232734426E+002
+3.01200333890E+007, +5.96872853287E+001, +9.60751956479E+002
+3.02868113523E+007, +6.14743127393E+001, +9.71605110383E+002
+3.04535893155E+007, +6.14715849955E+001, +9.83372993891E+002
+3.06203672788E+007, +6.34744707011E+001, +9.93124814936E+002
+3.07871452421E+007, +6.16072914864E+001, +1.00575793109E+003
+3.09539232053E+007, +6.43356200064E+001, +1.01255303202E+003
+3.11207011686E+007, +6.21442893663E+001, +1.02875587203E+003
+3.12874791319E+007, +6.14581562692E+001, +1.03451796733E+003
+3.14542570952E+007, +6.54913036500E+001, +1.04855499005E+003
+3.16210350584E+007, +6.52294768429E+001, +1.06795598177E+003
+3.17878130217E+007, +6.35868035564E+001, +1.07951681834E+003
+3.19545909850E+007, +6.49296903915E+001, +1.09164227739E+003
+3.21213689482E+007, +6.05883858783E+001, +1.10940187523E+003
+3.22881469115E+007, +6.77484044921E+001, +1.11806247375E+003
+3.24549248748E+007, +6.94239431748E+001, +1.13528916800E+003
+3.26217028381E+007, +6.84951689707E+001, +1.14369537597E+003
+3.27884808013E+007, +7.31521504768E+001, +1.16407787323E+003
+3.29552587646E+007, +7.37882445397E+001, +1.17550718398E+003
+3.31220367279E+007, +7.71435231778E+001, +1.18715925813E+003
+3.32888146912E+007, +7.62494348630E+001, +1.21506923109E+003
+3.34555926544E+007, +7.68163135579E+001, +1.22208848858E+003
+3.36223706177E+007, +7.96014710590E+001, +1.23228310048E+003
+3.37891485810E+007, +7.80324817590E+001, +1.25118388109E+003
+3.39559265442E+007, +8.00845894454E+001, +1.27716220999E+003
+3.41227045075E+007, +8.31624893937E+001, +1.28411066998E+003
+3.42894824708E+007, +8.79059908324E+001, +1.30082871138E+003
+3.44562604341E+007, +9.05181197096E+001, +1.32384437882E+003
+3.46230383973E+007, +9.58868424482E+001, +1.35025453082E+003
+3.47898163606E+007, +8.79008427703E+001, +1.35439807697E+003
+3.49565943239E+007, +1.02272797981E+002, +1.37610616401E+003
+3.51233722871E+007, +1.00272987805E+002, +1.39601635290E+003
+3.52901502504E+007, +1.00840989443E+002, +1.40253313152E+003
+3.54569282137E+007, +9.37096175344E+001, +1.44170289088E+003
+3.56237061770E+007, +9.27517440648E+001, +1.45732779647E+003
+3.57904841402E+007, +9.76882390214E+001, +1.47803908132E+003
+3.59572621035E+007, +1.07099205121E+002, +1.50107609218E+003
+3.61240400668E+007, +1.13197823808E+002, +1.52611714564E+003
+3.62908180301E+007, +1.17299238795E+002, +1.54800006987E+003
+3.64575959933E+007, +1.00829767515E+002, +1.57334427287E+003
+3.66243739566E+007, +1.23018429802E+002, +1.59207120499E+003
+3.67911519199E+007, +1.19117718549E+002, +1.63080344976E+003
+3.69579298831E+007, +1.17128985754E+002, +1.64548500774E+003
+3.71247078464E+007, +1.21695161731E+002, +1.68338460143E+003
+3.72914858097E+007, +1.27364238029E+002, +1.71381373841E+003
+3.74582637730E+007, +1.33784106496E+002, +1.74968121085E+003
+3.76250417362E+007, +1.29366053364E+002, +1.76264500224E+003
+3.77918196995E+007, +1.47803936478E+002, +1.79331494824E+003
+3.79585976628E+007, +1.44259978056E+002, +1.82783615881E+003
+3.81253756260E+007, +1.64266004014E+002, +1.85276250664E+003
+3.82921535893E+007, +1.76994586741E+002, +1.89433991972E+003
+3.84589315526E+007, +1.70586219108E+002, +1.92826008466E+003
+3.86257095159E+007, +1.64676074867E+002, +1.97744230612E+003
+3.87924874791E+007, +1.86458042922E+002, +1.99889969789E+003
+3.89592654424E+007, +1.90492375221E+002, +2.04695435631E+003
+3.91260434057E+007, +2.03545235326E+002, +2.09228218954E+003
+3.92928213689E+007, +2.15914003995E+002, +2.11812003152E+003
+3.94595993322E+007, +2.10659986609E+002, +2.17605784743E+003
+3.96263772955E+007, +2.00204168208E+002, +2.21339224026E+003
+3.97931552588E+007, +2.36761914119E+002, +2.25035779326E+003
+3.99599332220E+007, +2.56445800230E+002, +2.30384585389E+003
+4.01267111853E+007, +2.57829727092E+002, +2.38192621842E+003
+4.02934891486E+007, +2.65194016830E+002, +2.41587949065E+003
+4.04602671119E+007, +2.91592983290E+002, +2.44970540563E+003
+4.06270450751E+007, +3.49023935083E+002, +2.53765585653E+003
+4.07938230384E+007, +3.29783770206E+002, +2.58858088055E+003
+4.09606010017E+007, +3.51868829913E+002, +2.65715263094E+003
+4.11273789649E+007, +3.74549601748E+002, +2.71140139780E+003
+4.12941569282E+007, +4.01661635742E+002, +2.80125078289E+003
+4.14609348915E+007, +4.48710288399E+002, +2.87581740316E+003
+4.16277128548E+007, +4.76277593259E+002, +2.92376022099E+003
+4.17944908180E+007, +4.75759319477E+002, +2.97523531852E+003
+4.19612687813E+007, +5.41766746324E+002, +3.07924660565E+003
+4.21280467446E+007, +5.64865621546E+002, +3.20481580770E+003
+4.22948247078E+007, +6.17995720591E+002, +3.26266076276E+003
+4.24616026711E+007, +6.97591108481E+002, +3.38249618419E+003
+4.26283806344E+007, +7.03244417993E+002, +3.48761306979E+003
+4.27951585977E+007, +7.15786008763E+002, +3.62164841438E+003
+4.29619365609E+007, +8.62942615529E+002, +3.67764610079E+003
+4.31287145242E+007, +8.76414161907E+002, +3.86278210699E+003
+4.32954924875E+007, +9.31776662164E+002, +3.90027002586E+003
+4.34622704508E+007, +1.01432651371E+003, +4.15820036037E+003
+4.36290484140E+007, +1.20580733004E+003, +4.16269441086E+003
+4.37958263773E+007, +1.26377379621E+003, +4.44937257880E+003
+4.39626043406E+007, +1.31959338285E+003, +4.54705983682E+003
+4.41293823038E+007, +1.63852841544E+003, +4.72241972100E+003
+4.42961602671E+007, +1.67453012488E+003, +4.87985436225E+003
+4.44629382304E+007, +1.85017360553E+003, +5.09285476287E+003
+4.46297161937E+007, +2.17223212422E+003, +5.36383137495E+003
+4.47964941569E+007, +2.36979189016E+003, +5.46958073819E+003
+4.49632721202E+007, +2.61074112670E+003, +5.79327722795E+003
+4.51300500835E+007, +2.97380195364E+003, +5.88452636443E+003
+4.52968280467E+007, +3.57503255236E+003, +6.16909876921E+003
+4.54636060100E+007, +4.07882138093E+003, +6.33837213078E+003
+4.56303839733E+007, +4.64019531090E+003, +6.43592768609E+003
+4.57971619366E+007, +5.22188006843E+003, +6.37386062449E+003
+4.59639398998E+007, +6.98779481027E+003, +6.39435477243E+003
+4.61307178631E+007, +7.04564996021E+003, +5.98316089766E+003
+4.62974958264E+007, +7.88645943415E+003, +5.25350500576E+003
+4.64642737896E+007, +8.69735815250E+003, +5.44003472926E+003
+4.66310517529E+007, +9.51194514970E+003, +3.62009207108E+003
+4.67978297162E+007, +9.20136314096E+003, +3.25178759181E+003
+4.69646076795E+007, +1.01096294131E+004, +2.09094267994E+003
+4.71313856427E+007, +9.82237972144E+003, +8.56608300194E+002
+4.72981636060E+007, +9.48340390619E+003, -1.29905679256E+002
+4.74649415693E+007, +9.12540062173E+003, -3.35177691463E+002
+4.76317195326E+007, +8.46623817996E+003, -1.20224386653E+003
+4.77984974958E+007, +7.73011486883E+003, -1.60512407004E+003
+4.79652754591E+007, +7.33177443738E+003, -1.87840813882E+003
+4.81320534224E+007, +7.05862796695E+003, -2.07649674014E+003
+4.82988313856E+007, +6.61053958665E+003, -2.41365060316E+003
+4.84656093489E+007, +6.08678484867E+003, -2.34713644668E+003
+4.86323873122E+007, +5.83375796103E+003, -2.30447261705E+003
+4.87991652755E+007, +5.35442233173E+003, -2.38748592543E+003
+4.89659432387E+007, +5.33485142378E+003, -2.45659257359E+003
+4.91327212020E+007, +4.90455276142E+003, -2.35971202869E+003
+4.92994991653E+007, +4.82685764584E+003, -2.26345751495E+003
+4.94662771285E+007, +4.63583200215E+003, -2.24903730009E+003
+4.96330550918E+007, +4.43793569061E+003, -2.15824999930E+003
+4.97998330551E+007, +4.32763182200E+003, -2.08440447272E+003
+4.99666110184E+007, +4.20865373314E+003, -2.02435129598E+003
+5.01333889816E+007, +4.33777418195E+003, -1.99083464614E+003
+5.03001669449E+007, +4.26256485139E+003, -1.95167397492E+003
+5.04669449082E+007, +4.21094044972E+003, -1.98531079853E+003
+5.06337228715E+007, +4.23013733579E+003, -1.89243910801E+003
+5.08005008347E+007, +4.34368418602E+003, -2.03853468644E+003
+5.09672787980E+007, +4.30347495068E+003, -2.15953274842E+003
+5.11340567613E+007, +4.35346132563E+003, -2.23045284437E+003
+5.13008347245E+007, +4.38954073095E+003, -2.52470034205E+003
+5.14676126878E+007, +4.45556574362E+003, -2.68307045148E+003
+5.16343906511E+007, +4.24489256108E+003, -2.85851028154E+003
+5.18011686144E+007, +4.11539257734E+003, -3.14991384314E+003
+5.19679465776E+007, +4.03200265078E+003, -3.31931100195E+003
+5.21347245409E+007, +3.70391448452E+003, -3.54476985856E+003
+5.23015025042E+007, +3.35794283329E+003, -3.61870570314E+003
+5.24682804674E+007, +3.03564531849E+003, -3.80482242235E+003
+5.26350584307E+007, +2.83151764642E+003, -3.71674473045E+003
+5.28018363940E+007, +2.57893604115E+003, -3.78467424389E+003
+5.29686143573E+007, +2.33468030846E+003, -3.71362475673E+003
+5.31353923205E+007, +2.22812050627E+003, -3.61052966121E+003
+5.33021702838E+007, +2.01039990416E+003, -3.54935419481E+003
+5.34689482471E+007, +1.82675921040E+003, -3.40520338248E+003
