"# Channel 1"
"# Trace 1"
Frequency, Formatted Data, Formatted Data
+1.00000000000E+005, +5.03949516668E+001, +2.27325908859E+000
+2.25031289111E+005, +5.02671130707E+001, +5.50350229481E+000
+3.50062578223E+005, +5.03583570745E+001, +8.66209867755E+000
+4.75093867334E+005, +5.04648834905E+001, +1.16752889506E+001
+6.00125156446E+005, +5.05743636000E+001, +1.47295850319E+001
+7.25156445557E+005, +5.04943351197E+001, +1.77805155372E+001
+8.50187734668E+005, +5.05543465975E+001, +2.07830546247E+001
+9.75219023780E+005, +5.06631933263E+001, +2.38477422390E+001
+1.10025031289E+006, +5.07595751221E+001, +2.68996511410E+001
+1.22528160200E+006, +5.07207275959E+001, +2.97459677594E+001
+1.35031289111E+006, +5.08443984956E+001, +3.27806177389E+001
+1.47534418023E+006, +5.08784150646E+001, +3.58940469639E+001
+1.60037546934E+006, +5.08567829204E+001, +3.88468722817E+001
+1.72540675845E+006, +5.09719941500E+001, +4.18090927316E+001
+1.85043804756E+006, +5.08965683365E+001, +4.50443834989E+001
+1.97546933667E+006, +5.10836806874E+001, +4.78407537840E+001
+2.10050062578E+006, +5.10913122136E+001, +5.10701106677E+001
+2.22553191489E+006, +5.09690668383E+001, +5.39929663170E+001
+2.35056320401E+006, +5.10984397444E+001, +5.68813774326E+001
+2.47559449312E+006, +5.10391019556E+001, +6.01220766819E+001
+2.60062578223E+006, +5.14400184804E+001, +6.31531241801E+001
+2.72565707134E+006, +5.12953095823E+001, +6.61244137232E+001
+2.85068836045E+006, +5.15673719745E+001, +6.89622917886E+001
+2.97571964956E+006, +5.15227527815E+001, +7.22373419050E+001
+3.10075093867E+006, +5.15643990359E+001, +7.51988514397E+001
+3.22578222778E+006, +5.15594809561E+001, +7.82296264864E+001
+3.35081351690E+006, +5.16320003921E+001, +8.13522081922E+001
+3.47584480601E+006, +5.15559053737E+001, +8.42202147694E+001
+3.60087609512E+006, +5.18344009867E+001, +8.74235343414E+001
+3.72590738423E+006, +5.25954622334E+001, +9.07230395232E+001
+3.85093867334E+006, +5.20940512688E+001, +9.32428838448E+001
+3.97596996245E+006, +5.18802697561E+001, +9.64915046688E+001
+4.10100125156E+006, +5.20374703684E+001, +9.92799617435E+001
+4.22603254068E+006, +5.17839636242E+001, +1.02595031543E+002
+4.35106382979E+006, +5.23850076416E+001, +1.05345418388E+002
+4.47609511890E+006, +5.23642551928E+001, +1.08703676676E+002
+4.60112640801E+006, +5.23448937584E+001, +1.11596119575E+002
+4.72615769712E+006, +5.23909477365E+001, +1.14590685740E+002
+4.85118898623E+006, +5.26760324990E+001, +1.17766028377E+002
+4.97622027534E+006, +5.27435276377E+001, +1.20772408842E+002
+5.10125156446E+006, +5.28545982808E+001, +1.23792537843E+002
+5.22628285357E+006, +5.32567439718E+001, +1.27101144144E+002
+5.35131414268E+006, +5.33292389348E+001, +1.30152988878E+002
+5.47634543179E+006, +5.33579911684E+001, +1.33135111375E+002
+5.60137672090E+006, +5.37140828778E+001, +1.36565394181E+002
+5.72640801001E+006, +5.35282508984E+001, +1.39097598630E+002
+5.85143929912E+006, +5.38321220491E+001, +1.42340685262E+002
+5.97647058824E+006, +5.36168151571E+001, +1.45606696932E+002
+6.10150187735E+006, +5.37691607863E+001, +1.48518951618E+002
+6.22653316646E+006, +5.38092710892E+001, +1.52299769111E+002
+6.35156445557E+006, +5.41468321176E+001, +1.54683259208E+002
+6.47659574468E+006, +5.43307796315E+001, +1.58067469050E+002
+6.60162703379E+006, +5.42989668162E+001, +1.61035377742E+002
+6.72665832290E+006, +5.46498995080E+001, +1.64182067530E+002
+6.85168961202E+006, +5.47602008810E+001, +1.67364321414E+002
+6.97672090113E+006, +5.48844691795E+001, +1.70406897308E+002
+7.10175219024E+006, +5.51776798708E+001, +1.73688164268E+002
+7.22678347935E+006, +5.53367394375E+001, +1.76773511781E+002
+7.35181476846E+006, +5.53438088347E+001, +1.79827588314E+002
+7.47684605757E+006, +5.55333901991E+001, +1.82953463403E+002
+7.60187734668E+006, +5.56020709972E+001, +1.86244754538E+002
+7.72690863579E+006, +5.57350508535E+001, +1.89297421864E+002
+7.85193992491E+006, +5.61544837517E+001, +1.92497641665E+002
+7.97697121402E+006, +5.59386164980E+001, +1.95490148341E+002
+8.10200250313E+006, +5.62403440550E+001, +1.98811955228E+002
+8.22703379224E+006, +5.65331981659E+001, +2.02037680422E+002
+8.35206508135E+006, +5.65934251920E+001, +2.05052769331E+002
+8.47709637046E+006, +5.67715408251E+001, +2.08495573648E+002
+8.60212765957E+006, +5.69088695775E+001, +2.11960349245E+002
+8.72715894869E+006, +5.72313778309E+001, +2.14890108387E+002
+8.85219023780E+006, +5.72630410950E+001, +2.17831343895E+002
+8.97722152691E+006, +5.75479219228E+001, +2.21597838371E+002
+9.10225281602E+006, +5.77219900113E+001, +2.24461803387E+002
+9.22728410513E+006, +5.80040465370E+001, +2.27769946348E+002
+9.35231539424E+006, +5.74805400759E+001, +2.31120689190E+002
+9.47734668335E+006, +5.78820899218E+001, +2.34131916766E+002
+9.60237797247E+006, +5.82655130629E+001, +2.37579844489E+002
+9.72740926158E+006, +5.82260714866E+001, +2.40250989626E+002
+9.85244055069E+006, +5.82909649763E+001, +2.43857299941E+002
+9.97747183980E+006, +5.84691907018E+001, +2.47196178628E+002
+1.01025031289E+007, +5.89382721763E+001, +2.50611883654E+002
+1.02275344180E+007, +5.85600789542E+001, +2.53637276749E+002
+1.03525657071E+007, +5.88280427443E+001, +2.57262980946E+002
+1.04775969962E+007, +5.93084875817E+001, +2.60535502551E+002
+1.06026282854E+007, +5.95920248226E+001, +2.63994160714E+002
+1.07276595745E+007, +5.97403975542E+001, +2.67062479264E+002
+1.08526908636E+007, +6.02912991940E+001, +2.70421966607E+002
+1.09777221527E+007, +5.99715873963E+001, +2.73563172559E+002
+1.11027534418E+007, +6.03323669687E+001, +2.77540016771E+002
+1.12277847309E+007, +6.10756123064E+001, +2.80462731526E+002
+1.13528160200E+007, +6.03720547707E+001, +2.83950005978E+002
+1.14778473091E+007, +6.10418443954E+001, +2.87202910541E+002
+1.16028785982E+007, +6.17233366195E+001, +2.90983654695E+002
+1.17279098874E+007, +6.10594632596E+001, +2.93681523914E+002
+1.18529411765E+007, +6.15410059101E+001, +2.97598889980E+002
+1.19779724656E+007, +6.14413264880E+001, +3.01084343475E+002
+1.21030037547E+007, +6.17320280045E+001, +3.03705449380E+002
+1.22280350438E+007, +6.16883136436E+001, +3.07243920258E+002
+1.23530663329E+007, +6.25726009990E+001, +3.11538081441E+002
+1.24780976220E+007, +6.28298961520E+001, +3.14238227818E+002
+1.26031289111E+007, +6.29185539142E+001, +3.17546932356E+002
+1.27281602003E+007, +6.30772806368E+001, +3.21443784666E+002
+1.28531914894E+007, +6.31578962448E+001, +3.24524482103E+002
+1.29782227785E+007, +6.34336141339E+001, +3.28393251846E+002
+1.31032540676E+007, +6.35813334687E+001, +3.31711486570E+002
+1.32282853567E+007, +6.39275483133E+001, +3.35329684435E+002
+1.33533166458E+007, +6.42586823011E+001, +3.39136769580E+002
+1.34783479349E+007, +6.47433750150E+001, +3.41745985430E+002
+1.36033792240E+007, +6.41356523824E+001, +3.46371433265E+002
+1.37284105131E+007, +6.49396399290E+001, +3.49238550336E+002
+1.38534418023E+007, +6.51204182461E+001, +3.53048888834E+002
+1.39784730914E+007, +6.50480389199E+001, +3.56569868471E+002
+1.41035043805E+007, +6.51715469078E+001, +3.60355933799E+002
+1.42285356696E+007, +6.57806163523E+001, +3.63809126915E+002
+1.43535669587E+007, +6.66272379972E+001, +3.67134278479E+002
+1.44785982478E+007, +6.63161159009E+001, +3.71096648631E+002
+1.46036295369E+007, +6.67172973342E+001, +3.75277002860E+002
+1.47286608260E+007, +6.68549503602E+001, +3.78510207875E+002
+1.48536921151E+007, +6.72075864542E+001, +3.82069444220E+002
+1.49787234043E+007, +6.81205242033E+001, +3.85130979289E+002
+1.51037546934E+007, +6.85393374100E+001, +3.89299957723E+002
+1.52287859825E+007, +6.86627420133E+001, +3.92764718120E+002
+1.53538172716E+007, +6.92548669879E+001, +3.96611653127E+002
+1.54788485607E+007, +6.92591817108E+001, +4.00777620327E+002
+1.56038798498E+007, +6.98453112119E+001, +4.03935245375E+002
+1.57289111389E+007, +6.86008822538E+001, +4.07198704054E+002
+1.58539424280E+007, +6.92907005869E+001, +4.11591517545E+002
+1.59789737171E+007, +6.99963717208E+001, +4.16757648750E+002
+1.61040050063E+007, +7.09522033788E+001, +4.20001877893E+002
+1.62290362954E+007, +7.10238572669E+001, +4.23307663263E+002
+1.63540675845E+007, +7.10659685777E+001, +4.26578116366E+002
+1.64790988736E+007, +7.07208796050E+001, +4.30783341955E+002
+1.66041301627E+007, +7.13994635695E+001, +4.34382032486E+002
+1.67291614518E+007, +7.20047277196E+001, +4.38669845508E+002
+1.68541927409E+007, +7.22199841973E+001, +4.41035523754E+002
+1.69792240300E+007, +7.20252373661E+001, +4.45848989363E+002
+1.71042553191E+007, +7.16943443221E+001, +4.50484253862E+002
+1.72292866083E+007, +7.18135097210E+001, +4.54473422971E+002
+1.73543178974E+007, +7.25392345452E+001, +4.58497565108E+002
+1.74793491865E+007, +7.40750862649E+001, +4.62362731421E+002
+1.76043804756E+007, +7.26805384437E+001, +4.66048307742E+002
+1.77294117647E+007, +7.42080204036E+001, +4.69943094926E+002
+1.78544430538E+007, +7.51030828064E+001, +4.74391849611E+002
+1.79794743429E+007, +7.50761745225E+001, +4.77235395106E+002
+1.81045056320E+007, +7.47762273144E+001, +4.82334035287E+002
+1.82295369212E+007, +7.59619603985E+001, +4.86423046777E+002
+1.83545682103E+007, +7.63124423017E+001, +4.90067567310E+002
+1.84795994994E+007, +7.65258300110E+001, +4.93311352111E+002
+1.86046307885E+007, +7.78695061982E+001, +4.99726008279E+002
+1.87296620776E+007, +7.73246728301E+001, +5.02755672122E+002
+1.88546933667E+007, +7.73642715800E+001, +5.06113118449E+002
+1.89797246558E+007, +7.88327518691E+001, +5.10252075642E+002
+1.91047559449E+007, +7.92924484645E+001, +5.15126501497E+002
+1.92297872340E+007, +7.92375541480E+001, +5.20177148903E+002
+1.93548185232E+007, +7.93281732593E+001, +5.25353191012E+002
+1.94798498123E+007, +8.08612864403E+001, +5.28320823945E+002
+1.96048811014E+007, +8.16638021891E+001, +5.32241018266E+002
+1.97299123905E+007, +8.22178532507E+001, +5.38109754258E+002
+1.98549436796E+007, +7.98452381759E+001, +5.39493421910E+002
+1.99799749687E+007, +8.23922030612E+001, +5.45226130676E+002
+2.01050062578E+007, +8.22675588363E+001, +5.50823601595E+002
+2.02300375469E+007, +8.32913436202E+001, +5.54822665070E+002
+2.03550688360E+007, +8.37864519892E+001, +5.56457412568E+002
+2.04801001252E+007, +8.45786442730E+001, +5.63820554133E+002
+2.06051314143E+007, +8.46239428591E+001, +5.66857175456E+002
+2.07301627034E+007, +8.53240555643E+001, +5.69703747567E+002
+2.08551939925E+007, +8.58577648783E+001, +5.74583807069E+002
+2.09802252816E+007, +8.64447928759E+001, +5.80807074308E+002
+2.11052565707E+007, +8.71598994819E+001, +5.84235632386E+002
+2.12302878598E+007, +8.74907852916E+001, +5.90104645892E+002
+2.13553191489E+007, +8.80428803347E+001, +5.94092954957E+002
+2.14803504380E+007, +8.83244673360E+001, +5.97002013990E+002
+2.16053817272E+007, +8.89136056329E+001, +6.04743241038E+002
+2.17304130163E+007, +8.85521730973E+001, +6.05985864284E+002
+2.18554443054E+007, +9.15164547168E+001, +6.13211635986E+002
+2.19804755945E+007, +8.96280441838E+001, +6.16499675093E+002
+2.21055068836E+007, +9.27409794379E+001, +6.22157509130E+002
+2.22305381727E+007, +9.21222235851E+001, +6.25584494620E+002
+2.23555694618E+007, +9.05747688632E+001, +6.29774032004E+002
+2.24806007509E+007, +9.39005351044E+001, +6.35101262598E+002
+2.26056320401E+007, +9.34806885853E+001, +6.39770905290E+002
+2.27306633292E+007, +9.40084478830E+001, +6.45594393362E+002
+2.28556946183E+007, +9.71456784952E+001, +6.49799086071E+002
+2.29807259074E+007, +9.70404378803E+001, +6.56092832422E+002
+2.31057571965E+007, +9.89055489075E+001, +6.57640372336E+002
+2.32307884856E+007, +9.60215421353E+001, +6.67200491903E+002
+2.33558197747E+007, +9.98520677556E+001, +6.70840305742E+002
+2.34808510638E+007, +1.00549345276E+002, +6.73756004703E+002
+2.36058823529E+007, +1.00280999159E+002, +6.80294702845E+002
+2.37309136421E+007, +1.00619672111E+002, +6.86283297252E+002
+2.38559449312E+007, +1.00735511325E+002, +6.91296975883E+002
+2.39809762203E+007, +1.04124252511E+002, +6.94796265227E+002
+2.41060075094E+007, +1.04245841500E+002, +7.02299164257E+002
+2.42310387985E+007, +1.04695114323E+002, +7.04176038987E+002
+2.43560700876E+007, +1.08263251555E+002, +7.08872519081E+002
+2.44811013767E+007, +1.06953104803E+002, +7.18210724515E+002
+2.46061326658E+007, +1.06771148633E+002, +7.20998248368E+002
+2.47311639549E+007, +1.08241286875E+002, +7.28464867075E+002
+2.48561952441E+007, +1.12154294471E+002, +7.29341049859E+002
+2.49812265332E+007, +1.08901966507E+002, +7.38250137510E+002
+2.51062578223E+007, +1.09491540475E+002, +7.39548906862E+002
+2.52312891114E+007, +1.12377634037E+002, +7.49448183497E+002
+2.53563204005E+007, +1.14230272432E+002, +7.51578130772E+002
+2.54813516896E+007, +1.15121688015E+002, +7.55343727988E+002
+2.56063829787E+007, +1.16441558098E+002, +7.59069382262E+002
+2.57314142678E+007, +1.17662124972E+002, +7.70421353082E+002
+2.58564455569E+007, +1.19381287434E+002, +7.73056407151E+002
+2.59814768461E+007, +1.17286153677E+002, +7.78698337905E+002
+2.61065081352E+007, +1.18847168791E+002, +7.83915287144E+002
+2.62315394243E+007, +1.20519211322E+002, +7.91565477782E+002
+2.63565707134E+007, +1.21829148623E+002, +7.94840999164E+002
+2.64816020025E+007, +1.22115475532E+002, +7.98813972969E+002
+2.66066332916E+007, +1.26088936613E+002, +8.04114019943E+002
+2.67316645807E+007, +1.22647773898E+002, +8.09442452637E+002
+2.68566958698E+007, +1.27333717417E+002, +8.15342685260E+002
+2.69817271589E+007, +1.26367740424E+002, +8.22424170160E+002
+2.71067584481E+007, +1.24117555165E+002, +8.27939910174E+002
+2.72317897372E+007, +1.27476556675E+002, +8.35853974247E+002
+2.73568210263E+007, +1.28677957762E+002, +8.41081747905E+002
+2.74818523154E+007, +1.31020387968E+002, +8.46316198317E+002
+2.76068836045E+007, +1.29128466397E+002, +8.53732460023E+002
+2.77319148936E+007, +1.29748793514E+002, +8.56771931599E+002
+2.78569461827E+007, +1.32446873610E+002, +8.65361962034E+002
+2.79819774718E+007, +1.32995881005E+002, +8.74596836427E+002
+2.81070087610E+007, +1.33009691273E+002, +8.79235357919E+002
+2.82320400501E+007, +1.33180460911E+002, +8.83477827255E+002
+2.83570713392E+007, +1.34167709643E+002, +8.93722545537E+002
+2.84821026283E+007, +1.38418786643E+002, +9.00381708005E+002
+2.86071339174E+007, +1.35654909171E+002, +9.02995756716E+002
+2.87321652065E+007, +1.34312019410E+002, +9.11873384262E+002
+2.88571964956E+007, +1.37215818256E+002, +9.15351790575E+002
+2.89822277847E+007, +1.40528870863E+002, +9.26116265191E+002
+2.91072590738E+007, +1.41940729109E+002, +9.30410523210E+002
+2.92322903630E+007, +1.40279718069E+002, +9.39523385376E+002
+2.93573216521E+007, +1.46487993230E+002, +9.43395979826E+002
+2.94823529412E+007, +1.44705461198E+002, +9.53775193800E+002
+2.96073842303E+007, +1.44305175132E+002, +9.59285447745E+002
+2.97324155194E+007, +1.43413916639E+002, +9.64190330185E+002
+2.98574468085E+007, +1.43311353892E+002, +9.67743470409E+002
+2.99824780976E+007, +1.48463478658E+002, +9.76549218053E+002
+3.01075093867E+007, +1.50756100599E+002, +9.87444556503E+002
+3.02325406758E+007, +1.45927295576E+002, +9.98330320785E+002
+3.03575719650E+007, +1.54125917292E+002, +1.00482291070E+003
+3.04826032541E+007, +1.57852113557E+002, +1.00797154338E+003
+3.06076345432E+007, +1.51361559331E+002, +1.02007890546E+003
+3.07326658323E+007, +1.55225016018E+002, +1.02723851882E+003
+3.08576971214E+007, +1.57148566638E+002, +1.03648474911E+003
+3.09827284105E+007, +1.59095252539E+002, +1.03690262970E+003
+3.11077596996E+007, +1.58487605570E+002, +1.05016286004E+003
+3.12327909887E+007, +1.59811940549E+002, +1.05481408892E+003
+3.13578222778E+007, +1.58558362741E+002, +1.06339610443E+003
+3.14828535670E+007, +1.68249142398E+002, +1.07107417248E+003
+3.16078848561E+007, +1.68476352825E+002, +1.07875403901E+003
+3.17329161452E+007, +1.72773048556E+002, +1.08269724083E+003
+3.18579474343E+007, +1.67024045736E+002, +1.08909637187E+003
+3.19829787234E+007, +1.70853979753E+002, +1.10384357455E+003
+3.21080100125E+007, +1.73555859007E+002, +1.11367574360E+003
+3.22330413016E+007, +1.72045593228E+002, +1.12021444998E+003
+3.23580725907E+007, +1.77345628740E+002, +1.12573128777E+003
+3.24831038798E+007, +1.82233674361E+002, +1.13449493824E+003
+3.26081351690E+007, +1.80795485249E+002, +1.15070226965E+003
+3.27331664581E+007, +1.82755277440E+002, +1.15348552869E+003
+3.28581977472E+007, +1.81141350880E+002, +1.16425359412E+003
+3.29832290363E+007, +1.89668938600E+002, +1.17698519958E+003
+3.31082603254E+007, +1.83306389322E+002, +1.18444781844E+003
+3.32332916145E+007, +1.95774347090E+002, +1.19540681997E+003
+3.33583229036E+007, +1.94382615559E+002, +1.19718875639E+003
+3.34833541927E+007, +1.90055130834E+002, +1.20523454710E+003
+3.36083854819E+007, +1.90167363717E+002, +1.21945709504E+003
+3.37334167710E+007, +1.99064265281E+002, +1.23002851631E+003
+3.38584480601E+007, +1.99961627029E+002, +1.24626846224E+003
+3.39834793492E+007, +2.02525307613E+002, +1.24775539136E+003
+3.41085106383E+007, +1.96476686916E+002, +1.25803245121E+003
+3.42335419274E+007, +2.14141264923E+002, +1.26577855707E+003
+3.43585732165E+007, +2.05438177616E+002, +1.28463087734E+003
+3.44836045056E+007, +2.13905084045E+002, +1.29067788998E+003
+3.46086357947E+007, +2.14606738825E+002, +1.29989238092E+003
+3.47336670839E+007, +2.28689311637E+002, +1.31298124190E+003
+3.48586983730E+007, +2.23923628478E+002, +1.32590992270E+003
+3.49837296621E+007, +2.18090010518E+002, +1.33600000866E+003
+3.51087609512E+007, +2.30656775179E+002, +1.34262215077E+003
+3.52337922403E+007, +2.28815439566E+002, +1.36225575968E+003
+3.53588235294E+007, +2.34903721875E+002, +1.36745549570E+003
+3.54838548185E+007, +2.40503380312E+002, +1.37588953326E+003
+3.56088861076E+007, +2.43289990693E+002, +1.39204135687E+003
+3.57339173967E+007, +2.24219860688E+002, +1.39246737025E+003
+3.58589486859E+007, +2.47745458689E+002, +1.40302590520E+003
+3.59839799750E+007, +2.58515644328E+002, +1.40968579107E+003
+3.61090112641E+007, +2.44823127501E+002, +1.43072800482E+003
+3.62340425532E+007, +2.50218425198E+002, +1.43471246981E+003
+3.63590738423E+007, +2.63885554716E+002, +1.45968561828E+003
+3.64841051314E+007, +2.50951684819E+002, +1.46156360719E+003
+3.66091364205E+007, +2.61979982112E+002, +1.47280505324E+003
+3.67341677096E+007, +2.74777499126E+002, +1.49114832505E+003
+3.68591989987E+007, +2.54440131362E+002, +1.50556033653E+003
+3.69842302879E+007, +2.74396535220E+002, +1.52638773288E+003
+3.71092615770E+007, +2.65571279218E+002, +1.52808964924E+003
+3.72342928661E+007, +2.80554036009E+002, +1.54470146432E+003
+3.73593241552E+007, +2.83939514291E+002, +1.55642939972E+003
+3.74843554443E+007, +2.94765690181E+002, +1.56080911876E+003
+3.76093867334E+007, +2.97171466333E+002, +1.58311306508E+003
+3.77344180225E+007, +3.01552653208E+002, +1.59020673736E+003
+3.78594493116E+007, +2.94624434456E+002, +1.60826139952E+003
+3.79844806008E+007, +3.03146700191E+002, +1.62300067943E+003
+3.81095118899E+007, +2.94673174171E+002, +1.64572710076E+003
+3.82345431790E+007, +3.25280937710E+002, +1.66828138776E+003
+3.83595744681E+007, +3.15052333407E+002, +1.66659209695E+003
+3.84846057572E+007, +3.26912898022E+002, +1.68191877339E+003
+3.86096370463E+007, +3.37712280033E+002, +1.71313448326E+003
+3.87346683354E+007, +3.35595196450E+002, +1.71668273227E+003
+3.88596996245E+007, +3.45422207482E+002, +1.74780619003E+003
+3.89847309136E+007, +3.56777813371E+002, +1.75696046600E+003
+3.91097622028E+007, +3.66031362976E+002, +1.76185514850E+003
+3.92347934919E+007, +3.49299544904E+002, +1.77546788137E+003
+3.93598247810E+007, +3.73435270759E+002, +1.79244076933E+003
+3.94848560701E+007, +3.71963661669E+002, +1.81963029106E+003
+3.96098873592E+007, +3.78657606039E+002, +1.82235199496E+003
+3.97349186483E+007, +3.74744836625E+002, +1.86125444895E+003
+3.98599499374E+007, +3.88175188852E+002, +1.85870855028E+003
+3.99849812265E+007, +3.85928759214E+002, +1.90059442444E+003
+4.01100125156E+007, +4.08414696926E+002, +1.91104264044E+003
