"# Channel 1"
"# Trace 1"
Frequency, Formatted Data, Formatted Data
+1.00000000000E+005, +4.64633456809E+001, +2.17181823646E+000
+2.25031289111E+005, +4.64486961233E+001, +5.24033987458E+000
+3.50062578223E+005, +4.64509421116E+001, +8.17560668662E+000
+4.75093867334E+005, +4.64451070088E+001, +1.10380211188E+001
+6.00125156446E+005, +4.64811689720E+001, +1.38908018736E+001
+7.25156445557E+005, +4.64909181107E+001, +1.68078862696E+001
+8.50187734668E+005, +4.64636458342E+001, +1.96590711767E+001
+9.75219023780E+005, +4.65407467916E+001, +2.25533329477E+001
+1.10025031289E+006, +4.65561703059E+001, +2.54239390983E+001
+1.22528160200E+006, +4.65377284090E+001, +2.83140583748E+001
+1.35031289111E+006, +4.65927868890E+001, +3.12187960913E+001
+1.47534418023E+006, +4.66005278871E+001, +3.41115614330E+001
+1.60037546934E+006, +4.65965473444E+001, +3.69929089743E+001
+1.72540675845E+006, +4.66194664381E+001, +3.99083843058E+001
+1.85043804756E+006, +4.66056623059E+001, +4.27081085257E+001
+1.97546933667E+006, +4.66085659069E+001, +4.56692675155E+001
+2.10050062578E+006, +4.67139450185E+001, +4.84653286282E+001
+2.22553191489E+006, +4.66942456325E+001, +5.13427992170E+001
+2.35056320401E+006, +4.66937447964E+001, +5.42674926826E+001
+2.47559449312E+006, +4.67517264809E+001, +5.71338481196E+001
+2.60062578223E+006, +4.67578244038E+001, +6.00504139363E+001
+2.72565707134E+006, +4.67328145136E+001, +6.28689790234E+001
+2.85068836045E+006, +4.67512310241E+001, +6.57479171848E+001
+2.97571964956E+006, +4.68441190048E+001, +6.86849515068E+001
+3.10075093867E+006, +4.69451088019E+001, +7.14818169841E+001
+3.22578222778E+006, +4.68972225743E+001, +7.43914048730E+001
+3.35081351690E+006, +4.68438598637E+001, +7.73312049667E+001
+3.47584480601E+006, +4.69122510932E+001, +8.01415733352E+001
+3.60087609512E+006, +4.69051068516E+001, +8.31578952519E+001
+3.72590738423E+006, +4.67945024806E+001, +8.60639083801E+001
+3.85093867334E+006, +4.67896015618E+001, +8.92874370344E+001
+3.97596996245E+006, +4.68404430019E+001, +9.24405773177E+001
+4.10100125156E+006, +4.85720362964E+001, +9.24482164634E+001
+4.22603254068E+006, +4.68524028669E+001, +9.74326548678E+001
+4.35106382979E+006, +4.69223809011E+001, +1.00394173830E+002
+4.47609511890E+006, +4.71005353815E+001, +1.03451346762E+002
+4.60112640801E+006, +4.72596723863E+001, +1.06394222503E+002
+4.72615769712E+006, +4.71289677510E+001, +1.09190192024E+002
+4.85118898623E+006, +4.71067676522E+001, +1.12200221118E+002
+4.97622027534E+006, +4.71614184344E+001, +1.14966350916E+002
+5.10125156446E+006, +4.71464812873E+001, +1.18003265525E+002
+5.22628285357E+006, +4.72088969715E+001, +1.20896205561E+002
+5.35131414268E+006, +4.72334111298E+001, +1.23909608356E+002
+5.47634543179E+006, +4.72688707738E+001, +1.26804175254E+002
+5.60137672090E+006, +4.73587628478E+001, +1.29844922550E+002
+5.72640801001E+006, +4.75041976125E+001, +1.32677966581E+002
+5.85143929912E+006, +4.74006592026E+001, +1.35822816833E+002
+5.97647058824E+006, +4.74961917651E+001, +1.38653632924E+002
+6.10150187735E+006, +4.74862720552E+001, +1.41376652174E+002
+6.22653316646E+006, +4.74140856649E+001, +1.44331112464E+002
+6.35156445557E+006, +4.74441258988E+001, +1.47479576666E+002
+6.47659574468E+006, +4.75399663061E+001, +1.50451654834E+002
+6.60162703379E+006, +4.76187096480E+001, +1.53595991714E+002
+6.72665832290E+006, +4.77733356680E+001, +1.56532960392E+002
+6.85168961202E+006, +4.79070243210E+001, +1.59459256804E+002
+6.97672090113E+006, +4.78242317716E+001, +1.62405107130E+002
+7.10175219024E+006, +4.80132654017E+001, +1.65353862041E+002
+7.22678347935E+006, +4.80604911597E+001, +1.68473940109E+002
+7.35181476846E+006, +4.81053699708E+001, +1.71426019657E+002
+7.47684605757E+006, +4.80354526467E+001, +1.74342776727E+002
+7.60187734668E+006, +4.83181702796E+001, +1.77428567620E+002
+7.72690863579E+006, +4.85705816327E+001, +1.80415372438E+002
+7.85193992491E+006, +4.85925694950E+001, +1.83212154367E+002
+7.97697121402E+006, +4.83384567954E+001, +1.86443724381E+002
+8.10200250313E+006, +4.84643548001E+001, +1.89437276912E+002
+8.22703379224E+006, +4.87074419006E+001, +1.92263134566E+002
+8.35206508135E+006, +4.85842093797E+001, +1.95234523037E+002
+8.47709637046E+006, +4.83895593947E+001, +1.98395007882E+002
+8.60212765957E+006, +4.88664956977E+001, +2.01236837688E+002
+8.72715894869E+006, +4.89382905335E+001, +2.03920692812E+002
+8.85219023780E+006, +4.91847699802E+001, +2.07075854762E+002
+8.97722152691E+006, +4.90559120539E+001, +2.10095090707E+002
+9.10225281602E+006, +4.91668549431E+001, +2.13027220738E+002
+9.22728410513E+006, +4.91176287642E+001, +2.16143222679E+002
+9.35231539424E+006, +4.90300240237E+001, +2.19609375790E+002
+9.47734668335E+006, +4.91518387348E+001, +2.22180624583E+002
+9.60237797247E+006, +4.91792741555E+001, +2.24601068974E+002
+9.72740926158E+006, +4.93811474764E+001, +2.27347356475E+002
+9.85244055069E+006, +4.93715393369E+001, +2.29981773838E+002
+9.97747183980E+006, +4.95912232240E+001, +2.32631973450E+002
+1.01025031289E+007, +4.93453058554E+001, +2.35612858786E+002
+1.02275344180E+007, +4.95620797355E+001, +2.38341340884E+002
+1.03525657071E+007, +4.94761395234E+001, +2.41394065963E+002
+1.04775969962E+007, +4.95536122224E+001, +2.44527726142E+002
+1.06026282854E+007, +4.96144889609E+001, +2.47812638647E+002
+1.07276595745E+007, +4.97825112869E+001, +2.50842606617E+002
+1.08526908636E+007, +4.94604189629E+001, +2.54243605947E+002
+1.09777221527E+007, +4.98560693971E+001, +2.57840525346E+002
+1.11027534418E+007, +4.97644553345E+001, +2.61135062129E+002
+1.12277847309E+007, +4.96717906026E+001, +2.65029715725E+002
+1.13528160200E+007, +5.00790143330E+001, +2.68612880525E+002
+1.14778473091E+007, +5.02109466812E+001, +2.72598766335E+002
+1.16028785982E+007, +4.98771094737E+001, +2.75426842576E+002
+1.17279098874E+007, +4.98153512972E+001, +2.78357082572E+002
+1.18529411765E+007, +4.96923481637E+001, +2.81718063717E+002
+1.19779724656E+007, +4.99315628790E+001, +2.84928104104E+002
+1.21030037547E+007, +4.98070811288E+001, +2.88222993415E+002
+1.22280350438E+007, +5.01497744069E+001, +2.91653584481E+002
+1.23530663329E+007, +5.04202022472E+001, +2.94920308432E+002
+1.24780976220E+007, +5.03348953869E+001, +2.98178756434E+002
+1.26031289111E+007, +5.04155414809E+001, +3.01941199754E+002
+1.27281602003E+007, +5.05033289567E+001, +3.04776539408E+002
+1.28531914894E+007, +5.05341085288E+001, +3.07595944439E+002
+1.29782227785E+007, +5.05455352008E+001, +3.11184107784E+002
+1.31032540676E+007, +5.04888751873E+001, +3.14211991192E+002
+1.32282853567E+007, +5.01887446808E+001, +3.17721854953E+002
+1.33533166458E+007, +5.05707039781E+001, +3.20597840157E+002
+1.34783479349E+007, +5.08498591115E+001, +3.24454819249E+002
+1.36033792240E+007, +5.09455791951E+001, +3.27628203261E+002
+1.37284105131E+007, +5.11890144270E+001, +3.31524022465E+002
+1.38534418023E+007, +5.13751917646E+001, +3.34341274865E+002
+1.39784730914E+007, +5.12920541197E+001, +3.38331427875E+002
+1.41035043805E+007, +5.12114538984E+001, +3.42222494959E+002
+1.42285356696E+007, +5.10121863839E+001, +3.44525784444E+002
+1.43535669587E+007, +5.17897523897E+001, +3.47759892548E+002
+1.44785982478E+007, +5.14375683599E+001, +3.51076098999E+002
+1.46036295369E+007, +5.14079526443E+001, +3.54481036099E+002
+1.47286608260E+007, +5.12411094738E+001, +3.58061485272E+002
+1.48536921151E+007, +5.13639573658E+001, +3.61801727817E+002
+1.49787234043E+007, +5.20099628692E+001, +3.65654355789E+002
+1.51037546934E+007, +5.16159033189E+001, +3.69039719355E+002
+1.52287859825E+007, +5.15836011508E+001, +3.72170893046E+002
+1.53538172716E+007, +5.18016104044E+001, +3.75530897276E+002
+1.54788485607E+007, +5.26289296542E+001, +3.78587353478E+002
+1.56038798498E+007, +5.29388217793E+001, +3.82829274521E+002
+1.57289111389E+007, +5.28472508601E+001, +3.86713214263E+002
+1.58539424280E+007, +5.27607898367E+001, +3.90460005501E+002
+1.59789737171E+007, +5.25275884086E+001, +3.94023184510E+002
+1.61040050063E+007, +5.26172933744E+001, +3.97337662697E+002
+1.62290362954E+007, +5.35808698288E+001, +4.00397277930E+002
+1.63540675845E+007, +5.29157316610E+001, +4.04240654146E+002
+1.64790988736E+007, +5.32497222212E+001, +4.07926098855E+002
+1.66041301627E+007, +5.31930138908E+001, +4.11349009895E+002
+1.67291614518E+007, +5.42488350079E+001, +4.14812320223E+002
+1.68541927409E+007, +5.38107176346E+001, +4.18715621644E+002
+1.69792240300E+007, +5.39838857375E+001, +4.22730209625E+002
+1.71042553191E+007, +5.37342623062E+001, +4.25697323526E+002
+1.72292866083E+007, +5.38106014062E+001, +4.30276013628E+002
+1.73543178974E+007, +5.50362683805E+001, +4.32886262425E+002
+1.74793491865E+007, +5.41272405624E+001, +4.37434436672E+002
+1.76043804756E+007, +5.41121329696E+001, +4.40877837492E+002
+1.77294117647E+007, +5.41525156786E+001, +4.45436225695E+002
+1.78544430538E+007, +5.48558829798E+001, +4.48644032256E+002
+1.79794743429E+007, +5.49863434155E+001, +4.52812220826E+002
+1.81045056320E+007, +5.48177310609E+001, +4.55971541900E+002
+1.82295369212E+007, +5.54280755940E+001, +4.59383044336E+002
+1.83545682103E+007, +5.51836812182E+001, +4.64339987466E+002
+1.84795994994E+007, +5.53436429369E+001, +4.68275377073E+002
+1.86046307885E+007, +5.61515579451E+001, +4.71593026072E+002
+1.87296620776E+007, +5.61675079375E+001, +4.76028352510E+002
+1.88546933667E+007, +5.56386779868E+001, +4.79479652941E+002
+1.89797246558E+007, +5.67320441509E+001, +4.83501197611E+002
+1.91047559449E+007, +5.80047975238E+001, +4.88007565245E+002
+1.92297872340E+007, +5.60965553307E+001, +4.91618815209E+002
+1.93548185232E+007, +5.70597233390E+001, +4.95300333348E+002
+1.94798498123E+007, +5.81189133290E+001, +4.99598645035E+002
+1.96048811014E+007, +5.78219846915E+001, +5.03118034993E+002
+1.97299123905E+007, +5.74683418834E+001, +5.07974001931E+002
+1.98549436796E+007, +5.83025896599E+001, +5.11719860305E+002
+1.99799749687E+007, +5.90924837935E+001, +5.15920816437E+002
+2.01050062578E+007, +5.86910241186E+001, +5.19881715090E+002
+2.02300375469E+007, +5.89842654896E+001, +5.23933920763E+002
+2.03550688360E+007, +5.92889975391E+001, +5.28433617211E+002
+2.04801001252E+007, +5.93413760020E+001, +5.32772852236E+002
+2.06051314143E+007, +5.90274772825E+001, +5.36207201729E+002
+2.07301627034E+007, +5.87834370419E+001, +5.40453735678E+002
+2.08551939925E+007, +6.00689865908E+001, +5.45672695635E+002
+2.09802252816E+007, +6.06057759881E+001, +5.49807527719E+002
+2.11052565707E+007, +6.02314727806E+001, +5.53062068866E+002
+2.12302878598E+007, +6.09434489190E+001, +5.58145966989E+002
+2.13553191489E+007, +6.11440699774E+001, +5.62816951839E+002
+2.14803504380E+007, +6.14765581321E+001, +5.66443128564E+002
+2.16053817272E+007, +6.17856842162E+001, +5.71108919598E+002
+2.17304130163E+007, +6.32624973887E+001, +5.75119495259E+002
+2.18554443054E+007, +6.23303366673E+001, +5.79807488316E+002
+2.19804755945E+007, +6.33556772937E+001, +5.84914845602E+002
+2.21055068836E+007, +6.42927552869E+001, +5.88516405801E+002
+2.22305381727E+007, +6.46551658139E+001, +5.95104907067E+002
+2.23555694618E+007, +6.48380839966E+001, +5.98242348321E+002
+2.24806007509E+007, +6.45548243710E+001, +6.02636963951E+002
+2.26056320401E+007, +6.54047994390E+001, +6.07401710615E+002
+2.27306633292E+007, +6.49358772820E+001, +6.11361894933E+002
+2.28556946183E+007, +6.59748597877E+001, +6.16024448046E+002
+2.29807259074E+007, +6.70405921593E+001, +6.21015412415E+002
+2.31057571965E+007, +6.69130713032E+001, +6.25258449718E+002
+2.32307884856E+007, +6.78638537739E+001, +6.29519499255E+002
+2.33558197747E+007, +6.79601070888E+001, +6.36268554417E+002
+2.34808510638E+007, +6.71613377004E+001, +6.39760145814E+002
+2.36058823529E+007, +6.98019147979E+001, +6.43650952079E+002
+2.37309136421E+007, +6.99885281493E+001, +6.47993731141E+002
+2.38559449312E+007, +6.94573232614E+001, +6.51004991390E+002
+2.39809762203E+007, +6.89179440378E+001, +6.56726424272E+002
+2.41060075094E+007, +7.06977505082E+001, +6.63746906555E+002
+2.42310387985E+007, +7.12172258262E+001, +6.67368263224E+002
+2.43560700876E+007, +7.12033118044E+001, +6.70164731414E+002
+2.44811013767E+007, +7.01416432467E+001, +6.76708710836E+002
+2.46061326658E+007, +7.16417861210E+001, +6.81348308239E+002
+2.47311639549E+007, +7.25498279724E+001, +6.84526490267E+002
+2.48561952441E+007, +7.42444060247E+001, +6.90654071033E+002
+2.49812265332E+007, +7.30579553544E+001, +6.95033652378E+002
+2.51062578223E+007, +7.27601221657E+001, +6.97418515675E+002
+2.52312891114E+007, +7.30370263830E+001, +7.05436300216E+002
+2.53563204005E+007, +7.01457266003E+001, +7.11270348529E+002
+2.54813516896E+007, +7.18803466403E+001, +7.13766261640E+002
+2.56063829787E+007, +7.24057428092E+001, +7.21306455848E+002
+2.57314142678E+007, +7.20985495786E+001, +7.27061613475E+002
+2.58564455569E+007, +7.27808651800E+001, +7.31165619408E+002
+2.59814768461E+007, +7.35351418654E+001, +7.37756995044E+002
+2.61065081352E+007, +7.26897455465E+001, +7.43737064651E+002
+2.62315394243E+007, +7.25635464375E+001, +7.49375583758E+002
+2.63565707134E+007, +7.34044601421E+001, +7.53685838909E+002
+2.64816020025E+007, +7.53005579867E+001, +7.62098420585E+002
+2.66066332916E+007, +7.25018398849E+001, +7.65872434536E+002
+2.67316645807E+007, +7.35325331605E+001, +7.71573564614E+002
+2.68566958698E+007, +7.52785853448E+001, +7.78369185501E+002
+2.69817271589E+007, +7.51979884989E+001, +7.82579611148E+002
+2.71067584481E+007, +7.80308518177E+001, +7.87722793372E+002
+2.72317897372E+007, +7.61143003005E+001, +7.94169524566E+002
+2.73568210263E+007, +7.70067343683E+001, +8.01434449523E+002
+2.74818523154E+007, +7.93098130077E+001, +8.05389752832E+002
+2.76068836045E+007, +8.15446377863E+001, +8.10987143415E+002
+2.77319148936E+007, +8.20373311416E+001, +8.16921492120E+002
+2.78569461827E+007, +8.10995719263E+001, +8.22736067195E+002
+2.79819774718E+007, +8.16576633992E+001, +8.27970397679E+002
+2.81070087610E+007, +8.40296552728E+001, +8.35467044800E+002
+2.82320400501E+007, +8.25667006470E+001, +8.40970895697E+002
+2.83570713392E+007, +8.28847671003E+001, +8.49518255766E+002
+2.84821026283E+007, +8.19055981936E+001, +8.55784233489E+002
+2.86071339174E+007, +8.30354811831E+001, +8.60720887858E+002
+2.87321652065E+007, +8.41912441760E+001, +8.66896191778E+002
+2.88571964956E+007, +8.38100123186E+001, +8.73099283988E+002
+2.89822277847E+007, +8.46640146454E+001, +8.77311016912E+002
+2.91072590738E+007, +8.60456500302E+001, +8.86670135543E+002
+2.92322903630E+007, +8.69792088946E+001, +8.93868229429E+002
+2.93573216521E+007, +8.70352924833E+001, +8.99797484121E+002
+2.94823529412E+007, +8.80600884266E+001, +9.02684530123E+002
+2.96073842303E+007, +9.01524844463E+001, +9.15314247739E+002
+2.97324155194E+007, +8.85173540868E+001, +9.18367815485E+002
+2.98574468085E+007, +8.87652590288E+001, +9.28979497172E+002
+2.99824780976E+007, +9.21832019872E+001, +9.34628927367E+002
+3.01075093867E+007, +9.19124250170E+001, +9.41314290138E+002
+3.02325406758E+007, +9.28451445274E+001, +9.50261125204E+002
+3.03575719650E+007, +9.59635121228E+001, +9.55314511061E+002
+3.04826032541E+007, +9.76507520546E+001, +9.61566906332E+002
+3.06076345432E+007, +9.83049747397E+001, +9.75050978441E+002
+3.07326658323E+007, +1.00852594445E+002, +9.77795048468E+002
+3.08576971214E+007, +9.94002429358E+001, +9.84344560882E+002
+3.09827284105E+007, +9.61780646801E+001, +9.87257778986E+002
+3.11077596996E+007, +1.01902850982E+002, +1.00116570350E+003
+3.12327909887E+007, +9.99552391235E+001, +1.00540600618E+003
+3.13578222778E+007, +1.02119988471E+002, +1.01828284144E+003
+3.14828535670E+007, +1.03098805770E+002, +1.02201704190E+003
+3.16078848561E+007, +1.05773770513E+002, +1.03102416214E+003
+3.17329161452E+007, +1.06124561935E+002, +1.03971558595E+003
+3.18579474343E+007, +1.05166327787E+002, +1.04773843661E+003
+3.19829787234E+007, +1.03285075070E+002, +1.06106525784E+003
+3.21080100125E+007, +1.04517183016E+002, +1.06302327541E+003
+3.22330413016E+007, +1.10552547003E+002, +1.06975339435E+003
+3.23580725907E+007, +1.13156663884E+002, +1.08256770025E+003
+3.24831038798E+007, +1.14073062628E+002, +1.08930904101E+003
+3.26081351690E+007, +1.15585599926E+002, +1.09298732382E+003
+3.27331664581E+007, +1.18066991153E+002, +1.10180943360E+003
+3.28581977472E+007, +1.17670384536E+002, +1.11370866916E+003
+3.29832290363E+007, +1.21203881544E+002, +1.12156527983E+003
+3.31082603254E+007, +1.23276468140E+002, +1.13086583580E+003
+3.32332916145E+007, +1.19228165943E+002, +1.14302857851E+003
+3.33583229036E+007, +1.26853751879E+002, +1.15200814626E+003
+3.34833541927E+007, +1.23650917225E+002, +1.16124775471E+003
+3.36083854819E+007, +1.26141513610E+002, +1.16921974313E+003
+3.37334167710E+007, +1.32976620863E+002, +1.16868277905E+003
+3.38584480601E+007, +1.29682874557E+002, +1.18261810653E+003
+3.39834793492E+007, +1.28983533672E+002, +1.19612723845E+003
+3.41085106383E+007, +1.30526137569E+002, +1.20288484482E+003
+3.42335419274E+007, +1.33478843216E+002, +1.21964861006E+003
+3.43585732165E+007, +1.35657885842E+002, +1.21986700826E+003
+3.44836045056E+007, +1.39089557979E+002, +1.23574279392E+003
+3.46086357947E+007, +1.41408952823E+002, +1.24711694849E+003
+3.47336670839E+007, +1.44200119116E+002, +1.25655807847E+003
+3.48586983730E+007, +1.49339917104E+002, +1.27035586715E+003
+3.49837296621E+007, +1.45637810163E+002, +1.27482311362E+003
+3.51087609512E+007, +1.44440934973E+002, +1.28995066202E+003
+3.52337922403E+007, +1.54991809338E+002, +1.29575098889E+003
+3.53588235294E+007, +1.52480209370E+002, +1.31227690592E+003
+3.54838548185E+007, +1.50688039561E+002, +1.32148063742E+003
+3.56088861076E+007, +1.53451206817E+002, +1.33226776764E+003
+3.57339173967E+007, +1.62355107258E+002, +1.34510954543E+003
+3.58589486859E+007, +1.60435277801E+002, +1.35489613611E+003
+3.59839799750E+007, +1.59478645181E+002, +1.36554756949E+003
+3.61090112641E+007, +1.62267215558E+002, +1.38230257879E+003
+3.62340425532E+007, +1.70319029980E+002, +1.38938782316E+003
+3.63590738423E+007, +1.73150282057E+002, +1.40122781933E+003
+3.64841051314E+007, +1.75396480696E+002, +1.41789974774E+003
+3.66091364205E+007, +1.79282594779E+002, +1.42973458880E+003
+3.67341677096E+007, +1.74787954408E+002, +1.44252717121E+003
+3.68591989987E+007, +1.79600570175E+002, +1.45140387675E+003
+3.69842302879E+007, +1.84093145935E+002, +1.46887501896E+003
+3.71092615770E+007, +1.90769662370E+002, +1.48363765700E+003
+3.72342928661E+007, +1.92102999945E+002, +1.48783403663E+003
+3.73593241552E+007, +1.86538674407E+002, +1.50460180222E+003
+3.74843554443E+007, +1.95284885114E+002, +1.50802350626E+003
+3.76093867334E+007, +2.08074523156E+002, +1.53380561336E+003
+3.77344180225E+007, +2.06444866247E+002, +1.54348672755E+003
+3.78594493116E+007, +2.10943814026E+002, +1.56200422302E+003
+3.79844806008E+007, +2.11941158214E+002, +1.57194104502E+003
+3.81095118899E+007, +2.11499149448E+002, +1.58563772842E+003
+3.82345431790E+007, +2.17365963667E+002, +1.61243481583E+003
+3.83595744681E+007, +2.26069402153E+002, +1.61590066207E+003
+3.84846057572E+007, +2.24509107139E+002, +1.63814856188E+003
+3.86096370463E+007, +2.23387239673E+002, +1.64670807169E+003
+3.87346683354E+007, +2.39221903702E+002, +1.66657374354E+003
+3.88596996245E+007, +2.36676651764E+002, +1.69477744902E+003
+3.89847309136E+007, +2.46789380543E+002, +1.69972103914E+003
+3.91097622028E+007, +2.60656247844E+002, +1.71497783579E+003
+3.92347934919E+007, +2.45162606768E+002, +1.73758707410E+003
+3.93598247810E+007, +2.64563122219E+002, +1.75204001450E+003
+3.94848560701E+007, +2.61045024541E+002, +1.76759580708E+003
+3.96098873592E+007, +2.69071254924E+002, +1.79094569049E+003
+3.97349186483E+007, +2.73134176733E+002, +1.80782712170E+003
+3.98599499374E+007, +2.77187663484E+002, +1.83093824576E+003
+3.99849812265E+007, +2.83884299047E+002, +1.84322413888E+003
+4.01100125156E+007, +3.05160035423E+002, +1.86017402050E+003
