"# Channel 1"
"# Trace 1"
Frequency, Formatted Data, Formatted Data
+1.00000000000E+005, +7.25000539716E-001, +2.37017530837E+000
+2.25031289111E+005, +6.83841904209E-001, +5.27739687839E+000
+3.50062578223E+005, +7.30861126291E-001, +8.26944094578E+000
+4.75093867334E+005, +7.62330341554E-001, +1.11576662797E+001
+6.00125156446E+005, +7.80385711487E-001, +1.40764316001E+001
+7.25156445557E+005, +7.62736426778E-001, +1.70466978291E+001
+8.50187734668E+005, +7.93372965836E-001, +1.99235576934E+001
+9.75219023780E+005, +8.55115964811E-001, +2.28113866568E+001
+1.10025031289E+006, +8.74733907792E-001, +2.56650495792E+001
+1.22528160200E+006, +9.06629343640E-001, +2.86059550415E+001
+1.35031289111E+006, +9.06400512656E-001, +3.15272320420E+001
+1.47534418023E+006, +9.39909009226E-001, +3.44043046710E+001
+1.60037546934E+006, +9.91338510129E-001, +3.72603241942E+001
+1.72540675845E+006, +9.62293538869E-001, +4.01460350630E+001
+1.85043804756E+006, +1.03516925076E+000, +4.30379814445E+001
+1.97546933667E+006, +1.05507395551E+000, +4.59915192791E+001
+2.10050062578E+006, +1.07085063488E+000, +4.87549774264E+001
+2.22553191489E+006, +1.07005033807E+000, +5.16151083803E+001
+2.35056320401E+006, +1.07677990421E+000, +5.45335582765E+001
+2.47559449312E+006, +1.09781859949E+000, +5.73628112761E+001
+2.60062578223E+006, +9.97038035486E-001, +6.02909173072E+001
+2.72565707134E+006, +1.04883013707E+000, +6.31678292803E+001
+2.85068836045E+006, +1.10537597121E+000, +6.60381156714E+001
+2.97571964956E+006, +1.16328174524E+000, +6.89527775736E+001
+3.10075093867E+006, +1.04999524528E+000, +7.17911092996E+001
+3.22578222778E+006, +1.12384754148E+000, +7.47414756074E+001
+3.35081351690E+006, +1.23971898085E+000, +7.76543262800E+001
+3.47584480601E+006, +1.23480025129E+000, +8.05139159912E+001
+3.60087609512E+006, +1.19214092256E+000, +8.34639998006E+001
+3.72590738423E+006, +1.19839463314E+000, +8.62383499808E+001
+3.85093867334E+006, +1.24617938236E+000, +8.93070620034E+001
+3.97596996245E+006, +1.22340121314E+000, +9.19808562086E+001
+4.10100125156E+006, +1.30100120606E+000, +9.50334131296E+001
+4.22603254068E+006, +1.12240020082E+000, +9.77998119044E+001
+4.35106382979E+006, +1.09153143391E+000, +1.00657569745E+002
+4.47609511890E+006, +1.00210375815E+000, +1.03524205489E+002
+4.60112640801E+006, +9.61123965509E-001, +1.06541845068E+002
+4.72615769712E+006, +1.27877690687E+000, +1.09362902250E+002
+4.85118898623E+006, +1.22053959736E+000, +1.12295811157E+002
+4.97622027534E+006, +1.13378954174E+000, +1.15132208749E+002
+5.10125156446E+006, +1.29180739277E+000, +1.18145335264E+002
+5.22628285357E+006, +1.18179586836E+000, +1.21018420067E+002
+5.35131414268E+006, +1.15656144060E+000, +1.23822677616E+002
+5.47634543179E+006, +1.10456151703E+000, +1.26677756043E+002
+5.60137672090E+006, +1.33061486890E+000, +1.29996126853E+002
+5.72640801001E+006, +1.32125606088E+000, +1.32651205787E+002
+5.85143929912E+006, +1.36191180928E+000, +1.35566839554E+002
+5.97647058824E+006, +1.39146258689E+000, +1.38512193219E+002
+6.10150187735E+006, +1.25307197737E+000, +1.41367024746E+002
+6.22653316646E+006, +1.45866268238E+000, +1.44384043036E+002
+6.35156445557E+006, +1.37687602832E+000, +1.47233717661E+002
+6.47659574468E+006, +1.34331421470E+000, +1.50144600035E+002
+6.60162703379E+006, +1.44827034766E+000, +1.53147508821E+002
+6.72665832290E+006, +1.38828609996E+000, +1.55998297621E+002
+6.85168961202E+006, +1.60203065798E+000, +1.58988056166E+002
+6.97672090113E+006, +1.58109657710E+000, +1.61944698934E+002
+7.10175219024E+006, +1.64660205736E+000, +1.64708076765E+002
+7.22678347935E+006, +1.61052842610E+000, +1.67620314771E+002
+7.35181476846E+006, +1.62197575217E+000, +1.70652857924E+002
+7.47684605757E+006, +1.64202612321E+000, +1.73353748073E+002
+7.60187734668E+006, +1.63417502990E+000, +1.76363062293E+002
+7.72690863579E+006, +1.70969895337E+000, +1.79389791628E+002
+7.85193992491E+006, +1.58983448430E+000, +1.82286379546E+002
+7.97697121402E+006, +1.42160677492E+000, +1.85386346752E+002
+8.10200250313E+006, +1.65919062610E+000, +1.88230150973E+002
+8.22703379224E+006, +1.80894019716E+000, +1.91464895114E+002
+8.35206508135E+006, +1.78764019987E+000, +1.93928169451E+002
+8.47709637046E+006, +1.64527374503E+000, +1.97021982976E+002
+8.60212765957E+006, +1.74297111731E+000, +1.99965047659E+002
+8.72715894869E+006, +1.63704083565E+000, +2.02741626570E+002
+8.85219023780E+006, +1.65935474879E+000, +2.05591038864E+002
+8.97722152691E+006, +1.77588515212E+000, +2.09036735329E+002
+9.10225281602E+006, +1.64479167553E+000, +2.11647782741E+002
+9.22728410513E+006, +1.67032252842E+000, +2.14686268332E+002
+9.35231539424E+006, +1.71188054441E+000, +2.17490370658E+002
+9.47734668335E+006, +1.62967968461E+000, +2.20627293949E+002
+9.60237797247E+006, +1.58111247290E+000, +2.23757891386E+002
+9.72740926158E+006, +1.91131180626E+000, +2.26348837065E+002
+9.85244055069E+006, +1.70846728352E+000, +2.29604067119E+002
+9.97747183980E+006, +1.49383544900E+000, +2.32452358742E+002
+1.01025031289E+007, +1.64806257252E+000, +2.35297014798E+002
+1.02275344180E+007, +1.72431433260E+000, +2.38717565223E+002
+1.03525657071E+007, +1.47783396865E+000, +2.41065962547E+002
+1.04775969962E+007, +1.61923072979E+000, +2.44277211341E+002
+1.06026282854E+007, +1.70121493076E+000, +2.47059700001E+002
+1.07276595745E+007, +1.81760391876E+000, +2.50592188658E+002
+1.08526908636E+007, +1.35690008220E+000, +2.53478365287E+002
+1.09777221527E+007, +1.31335360957E+000, +2.56079481280E+002
+1.11027534418E+007, +1.45842289077E+000, +2.59400031859E+002
+1.12277847309E+007, +1.79728737241E+000, +2.62167938006E+002
+1.13528160200E+007, +1.44375450477E+000, +2.65240282653E+002
+1.14778473091E+007, +2.03411985185E+000, +2.68287979149E+002
+1.16028785982E+007, +1.72194941884E+000, +2.71071510889E+002
+1.17279098874E+007, +1.36404036448E+000, +2.74675104895E+002
+1.18529411765E+007, +1.58406040097E+000, +2.76928756078E+002
+1.19779724656E+007, +1.33744521982E+000, +2.79774839153E+002
+1.21030037547E+007, +1.14430546919E+000, +2.82903594143E+002
+1.22280350438E+007, +1.58429875223E+000, +2.86319354491E+002
+1.23530663329E+007, +1.81836973127E+000, +2.89407415336E+002
+1.24780976220E+007, +1.75008705261E+000, +2.92720525227E+002
+1.26031289111E+007, +1.61035507311E+000, +2.95150596109E+002
+1.27281602003E+007, +1.48546645149E+000, +2.98044332760E+002
+1.28531914894E+007, +1.55655164205E+000, +3.00595169548E+002
+1.29782227785E+007, +1.26841517772E+000, +3.03960261324E+002
+1.31032540676E+007, +1.48848462194E+000, +3.07711781327E+002
+1.32282853567E+007, +1.47255399657E+000, +3.10230365639E+002
+1.33533166458E+007, +1.73270695281E+000, +3.13750992888E+002
+1.34783479349E+007, +1.43252771306E+000, +3.16695437831E+002
+1.36033792240E+007, +1.21678070153E+000, +3.19646897173E+002
+1.37284105131E+007, +1.32226267733E+000, +3.22456256674E+002
+1.38534418023E+007, +1.44123852595E+000, +3.26102539794E+002
+1.39784730914E+007, +1.53706478660E+000, +3.28722944637E+002
+1.41035043805E+007, +1.08663271007E+000, +3.32239669827E+002
+1.42285356696E+007, +1.78913377066E+000, +3.35003266462E+002
+1.43535669587E+007, +1.69879050987E+000, +3.38352399242E+002
+1.44785982478E+007, +1.80726294045E+000, +3.41527002188E+002
+1.46036295369E+007, +1.67549043615E+000, +3.44852524999E+002
+1.47286608260E+007, +1.34998457797E+000, +3.46620702138E+002
+1.48536921151E+007, +1.87033544509E+000, +3.50114969995E+002
+1.49787234043E+007, +1.80744299170E+000, +3.53785048517E+002
+1.51037546934E+007, +2.18985029355E+000, +3.56985260523E+002
+1.52287859825E+007, +1.83357047039E+000, +3.59985409764E+002
+1.53538172716E+007, +1.31449695893E+000, +3.62305571189E+002
+1.54788485607E+007, +1.50239123779E+000, +3.65957776270E+002
+1.56038798498E+007, +1.34193282264E+000, +3.69586097272E+002
+1.57289111389E+007, +1.84586364253E+000, +3.71758122295E+002
+1.58539424280E+007, +1.70855912419E+000, +3.75114306992E+002
+1.59789737171E+007, +1.70062764164E+000, +3.78603496035E+002
+1.61040050063E+007, +1.37475463709E+000, +3.80840992200E+002
+1.62290362954E+007, +1.00087358405E+000, +3.84137920521E+002
+1.63540675845E+007, +1.10338058122E+000, +3.88378679090E+002
+1.64790988736E+007, +1.78205178414E+000, +3.91993048907E+002
+1.66041301627E+007, +2.66472136810E+000, +3.93977902812E+002
+1.67291614518E+007, +1.42656959716E+000, +3.97135018153E+002
+1.68541927409E+007, +1.35974040559E+000, +4.00354980339E+002
+1.69792240300E+007, +2.16663148648E+000, +4.04218840781E+002
+1.71042553191E+007, +5.39363655122E-001, +4.06569608004E+002
+1.72292866083E+007, +7.48636033924E-001, +4.10697766685E+002
+1.73543178974E+007, +2.38835901466E+000, +4.13108372959E+002
+1.74793491865E+007, +9.45633558167E-001, +4.15783697038E+002
+1.76043804756E+007, +7.96070951520E-001, +4.19729284859E+002
+1.77294117647E+007, +3.62705708317E-001, +4.22945392543E+002
+1.78544430538E+007, +3.81203365851E-001, +4.25426564667E+002
+1.79794743429E+007, +6.45892117213E-001, +4.28565850605E+002
+1.81045056320E+007, +9.47102221398E-001, +4.33476758092E+002
+1.82295369212E+007, +1.45143664590E+000, +4.35735979636E+002
+1.83545682103E+007, +9.17909182647E-002, +4.39214712610E+002
+1.84795994994E+007, +1.70631392165E+000, +4.43178726316E+002
+1.86046307885E+007, +6.96101717773E-001, +4.45185726866E+002
+1.87296620776E+007, +1.15906676954E+000, +4.48909064702E+002
+1.88546933667E+007, +1.49424858380E+000, +4.51009694667E+002
+1.89797246558E+007, +5.53299241663E-001, +4.55124047434E+002
+1.91047559449E+007, +1.23089790197E+000, +4.56482130051E+002
+1.92297872340E+007, +1.29758914452E+000, +4.61594083572E+002
+1.93548185232E+007, +9.26223774510E-001, +4.65928856958E+002
+1.94798498123E+007, +5.45012460811E-001, +4.69877929617E+002
+1.96048811014E+007, +1.24275376234E+000, +4.71195912034E+002
+1.97299123905E+007, +1.06720423091E+000, +4.75420325306E+002
+1.98549436796E+007, +1.64272097407E+000, +4.78138579027E+002
+1.99799749687E+007, +1.29725109756E+000, +4.82347884681E+002
+2.01050062578E+007, +1.32681869735E+000, +4.85697792054E+002
+2.02300375469E+007, +1.08327668031E+000, +4.87204926047E+002
+2.03550688360E+007, +1.40378725463E+000, +4.90896223153E+002
+2.04801001252E+007, +1.27680706438E+000, +4.94406063333E+002
+2.06051314143E+007, +1.99069446913E+000, +4.99037295913E+002
+2.07301627034E+007, +1.46836262839E+000, +5.01818511140E+002
+2.08551939925E+007, +1.89288488025E+000, +5.04980206806E+002
+2.09802252816E+007, +1.67345560484E+000, +5.09310373700E+002
+2.11052565707E+007, +1.53267060865E+000, +5.13115780339E+002
+2.12302878598E+007, +1.65761457352E+000, +5.15548962971E+002
+2.13553191489E+007, +5.17267358026E-001, +5.18822138409E+002
+2.14803504380E+007, +2.18439215275E-001, +5.21777025156E+002
+2.16053817272E+007, +1.23454004501E+000, +5.26686342670E+002
+2.17304130163E+007, +1.65324160990E-001, +5.30929970708E+002
+2.18554443054E+007, +9.96841397725E-001, +5.31866054501E+002
+2.19804755945E+007, +1.62726527847E+000, +5.36221496431E+002
+2.21055068836E+007, +2.27965994797E+000, +5.38799717620E+002
+2.22305381727E+007, +4.56219749003E-001, +5.43683245325E+002
+2.23555694618E+007, +1.31571948912E+000, +5.46945523070E+002
+2.24806007509E+007, +2.91710631941E+000, +5.51901748447E+002
+2.26056320401E+007, +3.56260147943E+000, +5.54836054638E+002
+2.27306633292E+007, +3.12555674887E+000, +5.57840021143E+002
+2.28556946183E+007, +3.61686949505E+000, +5.63860966870E+002
+2.29807259074E+007, +3.90721834986E+000, +5.65117646874E+002
+2.31057571965E+007, +3.87440577973E+000, +5.68741537859E+002
+2.32307884856E+007, +4.62187359781E+000, +5.71176146713E+002
+2.33558197747E+007, +3.71110026875E+000, +5.75685791548E+002
+2.34808510638E+007, +2.96278192465E+000, +5.76940935489E+002
+2.36058823529E+007, +4.24638309582E+000, +5.84204623579E+002
+2.37309136421E+007, +3.80575389657E+000, +5.86267080598E+002
+2.38559449312E+007, +3.98892720998E+000, +5.88081463173E+002
+2.39809762203E+007, +5.68470202874E+000, +5.92102791290E+002
+2.41060075094E+007, +2.87122106296E+000, +5.94731675681E+002
+2.42310387985E+007, +4.59655457012E+000, +5.99899213958E+002
+2.43560700876E+007, +3.38972049467E+000, +6.03147267713E+002
+2.44811013767E+007, +4.80482091912E+000, +6.06374043598E+002
+2.46061326658E+007, +5.73139716520E+000, +6.10078981723E+002
+2.47311639549E+007, +4.13917004608E+000, +6.13750047699E+002
+2.48561952441E+007, +3.53378065621E+000, +6.18021537121E+002
+2.49812265332E+007, +4.51777577638E+000, +6.20032158905E+002
+2.51062578223E+007, +5.89064185339E+000, +6.25773085743E+002
+2.52312891114E+007, +6.47943042572E+000, +6.26953795200E+002
+2.53563204005E+007, +6.23573340535E+000, +6.32121532035E+002
+2.54813516896E+007, +5.35302850185E+000, +6.35480360829E+002
+2.56063829787E+007, +4.71387666145E+000, +6.36967132993E+002
+2.57314142678E+007, +4.33883583863E+000, +6.43034842940E+002
+2.58564455569E+007, +4.29680182255E+000, +6.44253332354E+002
+2.59814768461E+007, +5.16547996236E+000, +6.48597047906E+002
+2.61065081352E+007, +5.34434991618E+000, +6.51204394299E+002
+2.62315394243E+007, +3.80752876818E+000, +6.58295397808E+002
+2.63565707134E+007, +5.43404609003E+000, +6.62868041674E+002
+2.64816020025E+007, +1.77639589772E+000, +6.65461523972E+002
+2.66066332916E+007, +3.53134947481E+000, +6.67966088063E+002
+2.67316645807E+007, +5.32040399957E+000, +6.71892284593E+002
+2.68566958698E+007, +4.08449800570E+000, +6.76908932223E+002
+2.69817271589E+007, +3.55732818238E+000, +6.81886303672E+002
+2.71067584481E+007, +4.89532808017E+000, +6.83363671439E+002
+2.72317897372E+007, +4.57465154746E+000, +6.87961688243E+002
+2.73568210263E+007, +6.28018638941E+000, +6.91654251486E+002
+2.74818523154E+007, +2.14391952175E+000, +6.97307892132E+002
+2.76068836045E+007, +5.01225620820E+000, +6.99536921061E+002
+2.77319148936E+007, +4.99568263558E+000, +7.04034597633E+002
+2.78569461827E+007, +2.98194302711E+000, +7.07237999403E+002
+2.79819774718E+007, +4.28103127240E+000, +7.11319706172E+002
+2.81070087610E+007, +4.66179196556E+000, +7.18131697974E+002
+2.82320400501E+007, +3.12210385520E-001, +7.18894703011E+002
+2.83570713392E+007, +3.15067812058E+000, +7.24088828183E+002
+2.84821026283E+007, +4.87477106483E+000, +7.28973919396E+002
+2.86071339174E+007, +2.02253117101E+000, +7.32420828922E+002
+2.87321652065E+007, +2.42879660169E+000, +7.41297903234E+002
+2.88571964956E+007, +3.72782735620E+000, +7.40746934086E+002
+2.89822277847E+007, +3.35349152327E+000, +7.44915160770E+002
+2.91072590738E+007, +4.69898009666E+000, +7.46481463047E+002
+2.92322903630E+007, +3.51236737735E+000, +7.56614318006E+002
+2.93573216521E+007, +4.63270899916E+000, +7.55968219930E+002
+2.94823529412E+007, +2.60164605365E+000, +7.63852385485E+002
+2.96073842303E+007, +2.90508288704E+000, +7.66651935458E+002
+2.97324155194E+007, +3.48361781916E+000, +7.69449439035E+002
+2.98574468085E+007, +3.37406473205E+000, +7.76829588872E+002
+2.99824780976E+007, +4.72522893913E+000, +7.74071568369E+002
+3.01075093867E+007, +3.87195068074E+000, +7.83130176974E+002
+3.02325406758E+007, +3.47727148490E+000, +7.88290307650E+002
+3.03575719650E+007, +3.10124534614E+000, +7.90469632025E+002
+3.04826032541E+007, +3.95094140870E+000, +7.97307026094E+002
+3.06076345432E+007, +3.69226162656E+000, +8.01432888801E+002
+3.07326658323E+007, +3.09458893756E+000, +8.07270039182E+002
+3.08576971214E+007, +4.47141944144E+000, +8.09891364383E+002
+3.09827284105E+007, +1.51428645547E+000, +8.16504368299E+002
+3.11077596996E+007, +8.00554579564E-001, +8.21377789945E+002
+3.12327909887E+007, +2.62503580505E+000, +8.24018148634E+002
+3.13578222778E+007, +3.96874378477E-001, +8.31897784837E+002
+3.14828535670E+007, +2.88238929929E+000, +8.32696237202E+002
+3.16078848561E+007, +3.14387946738E+000, +8.38044342738E+002
+3.17329161452E+007, +4.77995863079E+000, +8.43091190897E+002
+3.18579474343E+007, +2.65304957546E+000, +8.47426499539E+002
+3.19829787234E+007, -1.24298388544E-001, +8.51985512362E+002
+3.21080100125E+007, +3.93548769179E+000, +8.56579324405E+002
+3.22330413016E+007, +2.74065912828E+000, +8.61915364184E+002
+3.23580725907E+007, +1.92395250425E+000, +8.67386987110E+002
+3.24831038798E+007, +6.80917228300E+000, +8.72980194145E+002
+3.26081351690E+007, +3.59957696523E+000, +8.75069240835E+002
+3.27331664581E+007, +3.04802827036E+000, +8.81646432276E+002
+3.28581977472E+007, +7.02081063545E+000, +8.88204159504E+002
+3.29832290363E+007, -2.28876250127E+000, +8.93149045701E+002
+3.31082603254E+007, +4.53858024377E+000, +8.97700431950E+002
+3.32332916145E+007, +2.32551280173E+000, +9.01490670458E+002
+3.33583229036E+007, +2.39177960676E+000, +9.08166622627E+002
+3.34833541927E+007, +2.09644427491E+000, +9.10396621100E+002
+3.36083854819E+007, +3.92991431299E+000, +9.16879454311E+002
+3.37334167710E+007, +2.87915021105E+000, +9.17907205923E+002
+3.38584480601E+007, +1.31380562754E+000, +9.27087497418E+002
+3.39834793492E+007, +1.08955381552E-001, +9.30777550813E+002
+3.41085106383E+007, +7.76181770887E+000, +9.39606735850E+002
+3.42335419274E+007, +5.45098361653E+000, +9.42649610982E+002
+3.43585732165E+007, +6.11522268677E+000, +9.47973924312E+002
+3.44836045056E+007, +2.37291052147E+000, +9.52978532980E+002
+3.46086357947E+007, +8.95497621582E+000, +9.56420438200E+002
+3.47336670839E+007, +2.99263955985E+000, +9.65521568196E+002
+3.48586983730E+007, +9.31513493439E+000, +9.65103465423E+002
+3.49837296621E+007, +6.07705000580E+000, +9.72377410524E+002
+3.51087609512E+007, +3.61574885928E+000, +9.80579281893E+002
+3.52337922403E+007, +6.40299687397E+000, +9.84684556936E+002
+3.53588235294E+007, +3.84173650353E+000, +9.94034294607E+002
+3.54838548185E+007, +3.21780036254E+000, +9.97142472095E+002
+3.56088861076E+007, +1.08394503151E+001, +1.00575237521E+003
+3.57339173967E+007, +1.58961681811E+000, +1.00516815394E+003
+3.58589486859E+007, +4.81022938758E+000, +1.01142021581E+003
+3.59839799750E+007, +1.41750216312E+000, +1.02602599901E+003
+3.61090112641E+007, +3.42791346712E+000, +1.02540890720E+003
+3.62340425532E+007, +7.52159542101E+000, +1.03325187104E+003
+3.63590738423E+007, +1.34154682772E+001, +1.03573547281E+003
+3.64841051314E+007, +8.95783759115E-001, +1.04278849412E+003
+3.66091364205E+007, +3.00693255581E+000, +1.04468887722E+003
+3.67341677096E+007, +7.38263370347E+000, +1.05653296577E+003
+3.68591989987E+007, +3.48508061059E+000, +1.06534976798E+003
+3.69842302879E+007, +3.57031425457E+000, +1.06959756096E+003
+3.71092615770E+007, +6.29612058807E+000, +1.07098342085E+003
+3.72342928661E+007, +2.74854158719E+000, +1.08335478407E+003
+3.73593241552E+007, -1.08831672769E+000, +1.08210971666E+003
+3.74843554443E+007, +9.30742523529E+000, +1.09906987176E+003
+3.76093867334E+007, +2.51534271447E+000, +1.09822911029E+003
+3.77344180225E+007, +1.07338311618E+001, +1.10952783107E+003
+3.78594493116E+007, +6.54409777848E+000, +1.11755080398E+003
+3.79844806008E+007, +5.46419814823E+000, +1.12240841987E+003
+3.81095118899E+007, +5.44155648396E+000, +1.12535958284E+003
+3.82345431790E+007, +5.96111998352E+000, +1.14100299953E+003
+3.83595744681E+007, +1.02172151462E+001, +1.14498054532E+003
+3.84846057572E+007, +8.22070918022E+000, +1.14728811925E+003
+3.86096370463E+007, +2.14509801595E+000, +1.16255470319E+003
+3.87346683354E+007, +8.68554470168E+000, +1.16588871253E+003
+3.88596996245E+007, +6.62487891318E+000, +1.17127170563E+003
+3.89847309136E+007, +1.25138134718E+001, +1.18222677321E+003
+3.91097622028E+007, +2.69625896591E-001, +1.18699620948E+003
+3.92347934919E+007, +1.86024866054E+001, +1.19184404045E+003
+3.93598247810E+007, +1.34177332568E+001, +1.19802560570E+003
+3.94848560701E+007, +1.53115046984E+001, +1.20897546593E+003
+3.96098873592E+007, +9.85181810130E+000, +1.21853849952E+003
+3.97349186483E+007, +9.42736994689E+000, +1.21898160574E+003
+3.98599499374E+007, +5.87998600485E+000, +1.23137847105E+003
+3.99849812265E+007, +1.37028435191E+001, +1.23913844600E+003
+4.01100125156E+007, +1.35824432988E+001, +1.24522089875E+003
