"# Channel 1"
"# Trace 1"
Frequency, Formatted Data, Formatted Data
+1.00000000000E+005, +7.85584859599E-001, +2.26821715037E+000
+2.25031289111E+005, +7.91901830290E-001, +5.07782607731E+000
+3.50062578223E+005, +8.03857260582E-001, +7.91672113435E+000
+4.75093867334E+005, +8.10006160108E-001, +1.07655772032E+001
+6.00125156446E+005, +8.33197546508E-001, +1.35827356590E+001
+7.25156445557E+005, +8.72727110414E-001, +1.63785281219E+001
+8.50187734668E+005, +9.53140181142E-001, +1.91713455664E+001
+9.75219023780E+005, +9.43325847952E-001, +2.19478141876E+001
+1.10025031289E+006, +1.01205783192E+000, +2.47489983465E+001
+1.22528160200E+006, +1.04191084066E+000, +2.75694475537E+001
+1.35031289111E+006, +1.04023017760E+000, +3.03897316468E+001
+1.47534418023E+006, +1.09697829453E+000, +3.31210724507E+001
+1.60037546934E+006, +1.08438001689E+000, +3.58683826194E+001
+1.72540675845E+006, +1.17308406652E+000, +3.86988245955E+001
+1.85043804756E+006, +1.21222906247E+000, +4.14221996509E+001
+1.97546933667E+006, +1.18659418979E+000, +4.41963587525E+001
+2.10050062578E+006, +1.23201779399E+000, +4.70204844886E+001
+2.22553191489E+006, +1.16666422939E+000, +4.98081677853E+001
+2.35056320401E+006, +1.17508171102E+000, +5.25525324987E+001
+2.47559449312E+006, +1.22142667307E+000, +5.52526332409E+001
+2.60062578223E+006, +1.28997285279E+000, +5.80710996306E+001
+2.72565707134E+006, +1.32265746697E+000, +6.08449876122E+001
+2.85068836045E+006, +1.25054163248E+000, +6.36707973646E+001
+2.97571964956E+006, +1.30371967688E+000, +6.64141118998E+001
+3.10075093867E+006, +1.26152391264E+000, +6.93133958961E+001
+3.22578222778E+006, +1.35034478574E+000, +7.19459929312E+001
+3.35081351690E+006, +1.44068986504E+000, +7.48442477467E+001
+3.47584480601E+006, +1.46468333320E+000, +7.74824031687E+001
+3.60087609512E+006, +1.57092176073E+000, +8.03582827985E+001
+3.72590738423E+006, +1.45037779212E+000, +8.33069368147E+001
+3.85093867334E+006, +1.53287952786E+000, +8.59562470350E+001
+3.97596996245E+006, +1.39307710836E+000, +8.87241032976E+001
+4.10100125156E+006, +1.35267267374E+000, +9.17315465785E+001
+4.22603254068E+006, +1.56888159853E+000, +9.42038232799E+001
+4.35106382979E+006, +1.53635370534E+000, +9.71449902195E+001
+4.47609511890E+006, +1.59829120524E+000, +9.99114654734E+001
+4.60112640801E+006, +1.46333426762E+000, +1.02867922154E+002
+4.72615769712E+006, +1.40894053017E+000, +1.05507538619E+002
+4.85118898623E+006, +1.50588511550E+000, +1.08429640742E+002
+4.97622027534E+006, +1.45362521113E+000, +1.11231979896E+002
+5.10125156446E+006, +1.35142175910E+000, +1.13941885939E+002
+5.22628285357E+006, +1.58332896473E+000, +1.16649828295E+002
+5.35131414268E+006, +1.59306757333E+000, +1.19691695151E+002
+5.47634543179E+006, +1.59208527766E+000, +1.22523887147E+002
+5.60137672090E+006, +1.76987949907E+000, +1.25454337915E+002
+5.72640801001E+006, +1.45985043806E+000, +1.28144270691E+002
+5.85143929912E+006, +1.85059955685E+000, +1.31147991026E+002
+5.97647058824E+006, +1.83527650065E+000, +1.33870175477E+002
+6.10150187735E+006, +1.55963327758E+000, +1.36861406371E+002
+6.22653316646E+006, +1.79415528509E+000, +1.39553283735E+002
+6.35156445557E+006, +1.80495059644E+000, +1.42558995610E+002
+6.47659574468E+006, +1.97227202112E+000, +1.45515278154E+002
+6.60162703379E+006, +1.75914137828E+000, +1.48426099170E+002
+6.72665832290E+006, +1.82782500663E+000, +1.51187677178E+002
+6.85168961202E+006, +1.84641162136E+000, +1.54315425645E+002
+6.97672090113E+006, +1.89908113122E+000, +1.56964480337E+002
+7.10175219024E+006, +1.91873308480E+000, +1.59778473693E+002
+7.22678347935E+006, +1.89263590502E+000, +1.62703446218E+002
+7.35181476846E+006, +1.93539082256E+000, +1.65457690538E+002
+7.47684605757E+006, +1.92033233516E+000, +1.68642761333E+002
+7.60187734668E+006, +1.98812131212E+000, +1.71325954675E+002
+7.72690863579E+006, +2.03363591150E+000, +1.74066019030E+002
+7.85193992491E+006, +2.18274231622E+000, +1.77360345836E+002
+7.97697121402E+006, +2.24518142898E+000, +1.80219985072E+002
+8.10200250313E+006, +2.09536758399E+000, +1.83146915951E+002
+8.22703379224E+006, +2.00751883693E+000, +1.85996259830E+002
+8.35206508135E+006, +2.02381777010E+000, +1.88768701058E+002
+8.47709637046E+006, +1.97526417361E+000, +1.91866004777E+002
+8.60212765957E+006, +2.02950560707E+000, +1.94667920960E+002
+8.72715894869E+006, +2.17594505112E+000, +1.97640617934E+002
+8.85219023780E+006, +2.35813304453E+000, +2.00808533366E+002
+8.97722152691E+006, +2.16886626724E+000, +2.03833835694E+002
+9.10225281602E+006, +2.28778061390E+000, +2.06755416854E+002
+9.22728410513E+006, +2.24431542709E+000, +2.09655262978E+002
+9.35231539424E+006, +2.10925727390E+000, +2.12850139856E+002
+9.47734668335E+006, +2.12757955943E+000, +2.15469997940E+002
+9.60237797247E+006, +2.22399634716E+000, +2.18505653932E+002
+9.72740926158E+006, +2.10315821889E+000, +2.21581448952E+002
+9.85244055069E+006, +2.23720891458E+000, +2.24423635878E+002
+9.97747183980E+006, +2.01996895317E+000, +2.27627738580E+002
+1.01025031289E+007, +2.02871169219E+000, +2.30427866747E+002
+1.02275344180E+007, +2.28330103474E+000, +2.33805801029E+002
+1.03525657071E+007, +2.36095904714E+000, +2.36621542027E+002
+1.04775969962E+007, +2.24839822006E+000, +2.39499299104E+002
+1.06026282854E+007, +1.97725735536E+000, +2.42438500090E+002
+1.07276595745E+007, +2.30412874094E+000, +2.46048814114E+002
+1.08526908636E+007, +2.42728960041E+000, +2.48827966322E+002
+1.09777221527E+007, +2.13721820846E+000, +2.52101170261E+002
+1.11027534418E+007, +2.19470316486E+000, +2.55088711042E+002
+1.12277847309E+007, +2.18518227802E+000, +2.58135165584E+002
+1.13528160200E+007, +1.93493033525E+000, +2.60965679001E+002
+1.14778473091E+007, +2.31810841937E+000, +2.64289331022E+002
+1.16028785982E+007, +2.20249159068E+000, +2.67527913328E+002
+1.17279098874E+007, +1.97573940418E+000, +2.70493384922E+002
+1.18529411765E+007, +2.06514216913E+000, +2.73587041987E+002
+1.19779724656E+007, +1.94307105330E+000, +2.76795981976E+002
+1.21030037547E+007, +2.34342794620E+000, +2.80030935002E+002
+1.22280350438E+007, +1.96304055324E+000, +2.83309353718E+002
+1.23530663329E+007, +2.31205498113E+000, +2.86786629714E+002
+1.24780976220E+007, +2.04845192257E+000, +2.89395953217E+002
+1.26031289111E+007, +1.70931743027E+000, +2.92722705911E+002
+1.27281602003E+007, +1.99499412849E+000, +2.95485217706E+002
+1.28531914894E+007, +2.38677226209E+000, +2.99059927359E+002
+1.29782227785E+007, +1.91527382609E+000, +3.02312059053E+002
+1.31032540676E+007, +2.55310842601E+000, +3.05262193063E+002
+1.32282853567E+007, +2.20834281479E+000, +3.08762074820E+002
+1.33533166458E+007, +2.27315797373E+000, +3.12023081368E+002
+1.34783479349E+007, +1.56393959280E+000, +3.15585659871E+002
+1.36033792240E+007, +1.97598109557E+000, +3.18350395164E+002
+1.37284105131E+007, +1.50240671286E+000, +3.21781753370E+002
+1.38534418023E+007, +2.26916691232E+000, +3.25002151977E+002
+1.39784730914E+007, +1.83989566778E+000, +3.27870664203E+002
+1.41035043805E+007, +1.90646792862E+000, +3.32176011442E+002
+1.42285356696E+007, +2.08355027210E+000, +3.35208210520E+002
+1.43535669587E+007, +2.00875795048E+000, +3.38676374707E+002
+1.44785982478E+007, +1.52481636547E+000, +3.41781034762E+002
+1.46036295369E+007, +1.48639007474E+000, +3.44699809172E+002
+1.47286608260E+007, +1.60202342645E+000, +3.49280765663E+002
+1.48536921151E+007, +1.93040771269E+000, +3.51681784915E+002
+1.49787234043E+007, +2.48189636439E+000, +3.55006087075E+002
+1.51037546934E+007, +1.40202595399E+000, +3.57973297666E+002
+1.52287859825E+007, +1.71018253825E+000, +3.61254617083E+002
+1.53538172716E+007, +1.76853544408E+000, +3.65111744375E+002
+1.54788485607E+007, +1.62925730777E+000, +3.69092797287E+002
+1.56038798498E+007, +2.20523107231E+000, +3.72006796116E+002
+1.57289111389E+007, +1.59826823875E+000, +3.76922571881E+002
+1.58539424280E+007, +1.79316262218E+000, +3.79114078705E+002
+1.59789737171E+007, +1.58630060690E+000, +3.82427090541E+002
+1.61040050063E+007, +2.09211854033E+000, +3.85830892860E+002
+1.62290362954E+007, +1.49546865578E+000, +3.89478362485E+002
+1.63540675845E+007, +1.85683257156E+000, +3.93233767137E+002
+1.64790988736E+007, +2.23921758126E+000, +3.96970584642E+002
+1.66041301627E+007, +1.54957265768E+000, +4.00966067485E+002
+1.67291614518E+007, +1.55111691053E+000, +4.04785811611E+002
+1.68541927409E+007, +1.44564642130E+000, +4.08861311595E+002
+1.69792240300E+007, +1.73150950315E+000, +4.11097757952E+002
+1.71042553191E+007, -2.22477786845E-001, +4.15207263109E+002
+1.72292866083E+007, +4.16333604074E-001, +4.18363290573E+002
+1.73543178974E+007, +1.28922311625E+000, +4.22392371124E+002
+1.74793491865E+007, +5.23371896348E-001, +4.25738396051E+002
+1.76043804756E+007, +8.22055585052E-001, +4.30203947089E+002
+1.77294117647E+007, +1.45405347002E+000, +4.32876616578E+002
+1.78544430538E+007, +1.52881976073E+000, +4.37577389099E+002
+1.79794743429E+007, +2.06715611598E+000, +4.40483911237E+002
+1.81045056320E+007, +1.91328407429E+000, +4.45994902183E+002
+1.82295369212E+007, +8.15456806575E-001, +4.48644098294E+002
+1.83545682103E+007, +2.18688691620E+000, +4.52547409699E+002
+1.84795994994E+007, +2.40422819402E+000, +4.55524684686E+002
+1.86046307885E+007, +1.80586892073E+000, +4.59798302095E+002
+1.87296620776E+007, +1.77060789005E+000, +4.64617490988E+002
+1.88546933667E+007, +1.14764271354E+000, +4.66724951226E+002
+1.89797246558E+007, +1.57087906021E+000, +4.70769207812E+002
+1.91047559449E+007, +2.05436976953E+000, +4.74925444705E+002
+1.92297872340E+007, +1.00548625439E+000, +4.81248477622E+002
+1.93548185232E+007, +2.35075476773E+000, +4.83195600828E+002
+1.94798498123E+007, +1.99023973409E+000, +4.86877526149E+002
+1.96048811014E+007, +2.23047761918E+000, +4.90698990817E+002
+1.97299123905E+007, +4.60948774042E-001, +4.94643482047E+002
+1.98549436796E+007, +1.35593553530E+000, +5.00666394613E+002
+1.99799749687E+007, +2.20509305132E+000, +5.02849570925E+002
+2.01050062578E+007, +9.94424464668E-001, +5.06734493572E+002
+2.02300375469E+007, +2.18507565371E+000, +5.11572046464E+002
+2.03550688360E+007, +1.05419568290E+000, +5.15835576583E+002
+2.04801001252E+007, +4.09464087603E-001, +5.18677309867E+002
+2.06051314143E+007, +1.83261080760E+000, +5.25820098064E+002
+2.07301627034E+007, +2.08816511407E+000, +5.28241045342E+002
+2.08551939925E+007, +1.32239828253E+000, +5.33528247428E+002
+2.09802252816E+007, +1.74709747102E+000, +5.35823527873E+002
+2.11052565707E+007, +1.54552795565E+000, +5.41795883978E+002
+2.12302878598E+007, +1.06418219573E+000, +5.46703545251E+002
+2.13553191489E+007, +7.70080240847E-001, +5.48963274160E+002
+2.14803504380E+007, +2.05683515669E+000, +5.53916884413E+002
+2.16053817272E+007, +2.00155480998E+000, +5.58733313558E+002
+2.17304130163E+007, +2.61068470970E+000, +5.63284962318E+002
+2.18554443054E+007, +3.40089151149E+000, +5.66906773017E+002
+2.19804755945E+007, +2.32763550849E+000, +5.72722201238E+002
+2.21055068836E+007, +1.75894817852E+000, +5.76415593680E+002
+2.22305381727E+007, +2.22938866187E+000, +5.81349269530E+002
+2.23555694618E+007, +3.56762844862E+000, +5.86177427735E+002
+2.24806007509E+007, +4.24349589169E+000, +5.88552512734E+002
+2.26056320401E+007, +4.21387774512E+000, +5.95181382848E+002
+2.27306633292E+007, +3.33067756823E+000, +5.96990695810E+002
+2.28556946183E+007, +2.99044542281E+000, +6.02673684507E+002
+2.29807259074E+007, +4.66863833593E+000, +6.10645925678E+002
+2.31057571965E+007, +3.79755059452E+000, +6.13113006999E+002
+2.32307884856E+007, +4.05988151376E+000, +6.20124041849E+002
+2.33558197747E+007, +3.89702627908E+000, +6.21481226139E+002
+2.34808510638E+007, +4.25546535202E+000, +6.25453963982E+002
+2.36058823529E+007, +4.99462816752E+000, +6.31845743441E+002
+2.37309136421E+007, +6.51206255480E+000, +6.34419740611E+002
+2.38559449312E+007, +7.43575792379E+000, +6.42705588376E+002
+2.39809762203E+007, +5.99094057826E+000, +6.43995422235E+002
+2.41060075094E+007, +5.27848713455E+000, +6.47801577912E+002
+2.42310387985E+007, +6.54983352239E+000, +6.53770372674E+002
+2.43560700876E+007, +8.99941475201E+000, +6.58691324774E+002
+2.44811013767E+007, +5.45214997328E+000, +6.64037254844E+002
+2.46061326658E+007, +6.47678111266E+000, +6.69749157854E+002
+2.47311639549E+007, +3.90838330000E+000, +6.70274032241E+002
+2.48561952441E+007, +7.78715717785E+000, +6.79311470674E+002
+2.49812265332E+007, +5.33886950179E+000, +6.83424504980E+002
+2.51062578223E+007, +6.29228453216E+000, +6.86442476470E+002
+2.52312891114E+007, +4.87964530264E+000, +6.93953099236E+002
+2.53563204005E+007, +3.18536093236E+000, +6.99887933931E+002
+2.54813516896E+007, +4.61208972231E+000, +7.03440914379E+002
+2.56063829787E+007, +6.81551942842E+000, +7.08113429946E+002
+2.57314142678E+007, +5.91157840012E+000, +7.13586176372E+002
+2.58564455569E+007, +5.55489165158E+000, +7.16449446750E+002
+2.59814768461E+007, +6.10790931652E+000, +7.24100820670E+002
+2.61065081352E+007, +6.62890109186E+000, +7.30073956170E+002
+2.62315394243E+007, +2.50274120603E+000, +7.35732589782E+002
+2.63565707134E+007, +4.11755067993E+000, +7.41457728182E+002
+2.64816020025E+007, +3.43153898412E+000, +7.47090641404E+002
+2.66066332916E+007, +5.45050859521E+000, +7.50639607368E+002
+2.67316645807E+007, +3.93877988376E+000, +7.56440198458E+002
+2.68566958698E+007, +9.02007642039E+000, +7.62143547848E+002
+2.69817271589E+007, +4.55340078875E+000, +7.69570308634E+002
+2.71067584481E+007, +5.74517982100E+000, +7.74611559064E+002
+2.72317897372E+007, +6.16314310272E+000, +7.76783164650E+002
+2.73568210263E+007, +1.07450942163E+001, +7.86337554368E+002
+2.74818523154E+007, +7.05043349414E+000, +7.89526073322E+002
+2.76068836045E+007, +5.94116304415E+000, +7.96188582289E+002
+2.77319148936E+007, +6.61301946838E+000, +8.02349657116E+002
+2.78569461827E+007, +5.06571484807E+000, +8.04136392433E+002
+2.79819774718E+007, +7.39518837436E+000, +8.16988443522E+002
+2.81070087610E+007, +5.73170448799E+000, +8.22111118133E+002
+2.82320400501E+007, +4.18480754662E+000, +8.26490645647E+002
+2.83570713392E+007, +4.23485326353E+000, +8.31995945658E+002
+2.84821026283E+007, +3.96770030582E+000, +8.38190410897E+002
+2.86071339174E+007, +1.57309242114E-001, +8.45022428557E+002
+2.87321652065E+007, +5.40919067564E+000, +8.52497841624E+002
+2.88571964956E+007, +5.32252982528E+000, +8.58570450239E+002
+2.89822277847E+007, +6.22267243710E+000, +8.66582541762E+002
+2.91072590738E+007, +4.76731112899E+000, +8.73464251157E+002
+2.92322903630E+007, +3.45777553775E+000, +8.79178537871E+002
+2.93573216521E+007, +5.09759957777E+000, +8.87030557451E+002
+2.94823529412E+007, +3.87822440025E+000, +8.91379972618E+002
+2.96073842303E+007, +2.71638128877E+000, +8.99592134666E+002
+2.97324155194E+007, +3.23004419851E+000, +9.10748544879E+002
+2.98574468085E+007, +1.35421694165E+000, +9.15424344474E+002
+2.99824780976E+007, +2.01889075250E+000, +9.21264432793E+002
+3.01075093867E+007, +5.67556022717E+000, +9.26928588170E+002
+3.02325406758E+007, +4.90435060236E+000, +9.32737338356E+002
+3.03575719650E+007, +1.72865411955E+000, +9.42659537502E+002
+3.04826032541E+007, +3.63731498424E+000, +9.48134188628E+002
+3.06076345432E+007, +3.47371646024E+000, +9.54450716190E+002
+3.07326658323E+007, +2.05109702341E+000, +9.63170898394E+002
+3.08576971214E+007, +1.42697872076E-001, +9.73235830077E+002
+3.09827284105E+007, +2.74812473188E-001, +9.82945708594E+002
+3.11077596996E+007, -2.36326536507E+000, +9.83598353251E+002
+3.12327909887E+007, +5.82278390469E+000, +9.96009551359E+002
+3.13578222778E+007, +5.12289720547E+000, +1.00008058063E+003
+3.14828535670E+007, +4.55056231016E+000, +1.00832701504E+003
+3.16078848561E+007, +5.06850090101E-001, +1.01637220210E+003
+3.17329161452E+007, +3.62825403765E+000, +1.03075226177E+003
+3.18579474343E+007, -1.96998261979E+000, +1.04268600954E+003
+3.19829787234E+007, -9.74119672736E-001, +1.04398684969E+003
+3.21080100125E+007, +3.69091459761E+000, +1.05357356592E+003
+3.22330413016E+007, -2.57958442137E+000, +1.05933308382E+003
+3.23580725907E+007, -2.15769555417E+000, +1.07185872376E+003
+3.24831038798E+007, +4.34356454179E+000, +1.07751189192E+003
+3.26081351690E+007, +1.99521775664E+000, +1.08227006343E+003
+3.27331664581E+007, +4.24801406215E+000, +1.09259315440E+003
+3.28581977472E+007, +1.60455455067E+000, +1.10210426203E+003
+3.29832290363E+007, +2.21363670985E+000, +1.11472453738E+003
+3.31082603254E+007, -4.89852129321E+000, +1.11739346740E+003
+3.32332916145E+007, +2.22545217442E+000, +1.13557718482E+003
+3.33583229036E+007, -5.35890151667E+000, +1.14305104991E+003
+3.34833541927E+007, +5.85552868134E-001, +1.14409200719E+003
+3.36083854819E+007, +3.41292648939E+000, +1.15797639128E+003
+3.37334167710E+007, +3.79688070195E+000, +1.17259799647E+003
+3.38584480601E+007, +2.36047202739E+000, +1.17832951484E+003
+3.39834793492E+007, +1.91516448008E+000, +1.19550118508E+003
+3.41085106383E+007, -4.51879248653E+000, +1.20407015680E+003
+3.42335419274E+007, +3.52429517711E+000, +1.20839849108E+003
+3.43585732165E+007, +1.24675048807E+000, +1.22298976473E+003
+3.44836045056E+007, +1.06390658010E+001, +1.23605144158E+003
+3.46086357947E+007, +1.52993283276E+000, +1.24833893668E+003
+3.47336670839E+007, +1.44234681818E+001, +1.26055877078E+003
+3.48586983730E+007, +4.77796944644E+000, +1.27136814564E+003
+3.49837296621E+007, +1.00520438583E+001, +1.27586433024E+003
+3.51087609512E+007, +1.29908210996E+001, +1.29107836462E+003
+3.52337922403E+007, +8.81530705526E+000, +1.29189546262E+003
+3.53588235294E+007, -2.92359117148E+000, +1.31962072564E+003
+3.54838548185E+007, +1.27167542810E+001, +1.31487484027E+003
+3.56088861076E+007, +1.03028805722E+001, +1.33495931490E+003
+3.57339173967E+007, +9.59661308228E+000, +1.35229438546E+003
+3.58589486859E+007, -6.55672086230E+000, +1.35828317765E+003
+3.59839799750E+007, +1.17418345028E+001, +1.36964368492E+003
+3.61090112641E+007, +8.07997344052E+000, +1.38717096524E+003
+3.62340425532E+007, +1.20928411957E+001, +1.38629091649E+003
+3.63590738423E+007, +1.45117887557E+001, +1.40648323421E+003
+3.64841051314E+007, +1.57174910503E+001, +1.40983768640E+003
+3.66091364205E+007, +6.25630052306E+000, +1.43221714198E+003
+3.67341677096E+007, +1.01363494294E+001, +1.44716227918E+003
+3.68591989987E+007, +3.07148427549E+000, +1.46512195554E+003
+3.69842302879E+007, +1.85750210436E+001, +1.47723585384E+003
+3.71092615770E+007, +2.16975042263E+001, +1.48459712875E+003
+3.72342928661E+007, +1.12717182480E+001, +1.49900982688E+003
+3.73593241552E+007, +4.66806523919E+000, +1.53493642671E+003
+3.74843554443E+007, +2.93968803972E+000, +1.53897754641E+003
+3.76093867334E+007, +2.78239522997E+000, +1.53886934347E+003
+3.77344180225E+007, +1.79701364573E+001, +1.56972508533E+003
+3.78594493116E+007, +1.23504416670E+001, +1.58427807572E+003
+3.79844806008E+007, +1.90475369334E+001, +1.59556562582E+003
+3.81095118899E+007, +1.01186915762E+001, +1.61116044096E+003
+3.82345431790E+007, +1.64353139555E+001, +1.63739724517E+003
+3.83595744681E+007, +2.40463693724E+001, +1.64071744716E+003
+3.84846057572E+007, +9.31331834174E-002, +1.66267452327E+003
+3.86096370463E+007, +8.70544293800E+000, +1.68534658132E+003
+3.87346683354E+007, +1.78523813340E+001, +1.68391962948E+003
+3.88596996245E+007, +1.11285960295E+001, +1.70713522790E+003
+3.89847309136E+007, +1.59540687858E+001, +1.72280040679E+003
+3.91097622028E+007, +1.95919636878E+001, +1.75957916036E+003
+3.92347934919E+007, +1.77663248861E+001, +1.76545649848E+003
+3.93598247810E+007, +3.95048882094E+001, +1.78204587359E+003
+3.94848560701E+007, +1.19482155933E+001, +1.80817707858E+003
+3.96098873592E+007, +1.84034825940E+001, +1.81094132477E+003
+3.97349186483E+007, +3.94672640162E+001, +1.84564460934E+003
+3.98599499374E+007, +3.50726044519E+001, +1.86960372063E+003
+3.99849812265E+007, +3.09222070653E+001, +1.89164466998E+003
+4.01100125156E+007, +3.15910113280E+001, +1.90800473061E+003
