"# Channel 1"
"# Trace 1"
Frequency, Formatted Data, Formatted Data
+1.00000000000E+005, +3.44779875617E-001, +2.26281261265E+000
+2.66777963272E+005, +3.68307021776E-001, +6.01018103527E+000
+4.33555926544E+005, +4.19695147840E-001, +9.76483103211E+000
+6.00333889816E+005, +4.86798505710E-001, +1.34444291390E+001
+7.67111853088E+005, +5.39789494554E-001, +1.71669761244E+001
+9.33889816361E+005, +5.79786753106E-001, +2.08082954305E+001
+1.10066777963E+006, +5.29298805573E-001, +2.45188878289E+001
+1.26744574290E+006, +6.40248909164E-001, +2.81670000301E+001
+1.43422370618E+006, +5.60029684158E-001, +3.19186774797E+001
+1.60100166945E+006, +6.87751035943E-001, +3.54947523366E+001
+1.76777963272E+006, +6.87578357532E-001, +3.91719791096E+001
+1.93455759599E+006, +6.99205415255E-001, +4.27433799206E+001
+2.10133555927E+006, +7.45483590805E-001, +4.64237020931E+001
+2.26811352254E+006, +8.13511637039E-001, +5.01231942157E+001
+2.43489148581E+006, +7.32905355458E-001, +5.38705778753E+001
+2.60166944908E+006, +7.48150285219E-001, +5.74570761486E+001
+2.76844741235E+006, +7.34751237939E-001, +6.12516039210E+001
+2.93522537563E+006, +7.07776555727E-001, +6.48560878104E+001
+3.10200333890E+006, +9.02403384320E-001, +6.84575791216E+001
+3.26878130217E+006, +6.56957293632E-001, +7.22363332545E+001
+3.43555926544E+006, +8.13561243206E-001, +7.58986126289E+001
+3.60233722871E+006, +8.39878487455E-001, +7.97497319813E+001
+3.76911519199E+006, +7.03318519681E-001, +8.34686164775E+001
+3.93589315526E+006, +6.88533106705E-001, +8.70183061323E+001
+4.10267111853E+006, +7.75564690583E-001, +9.09208998427E+001
+4.26944908180E+006, +8.21135380851E-001, +9.47295690540E+001
+4.43622704508E+006, +7.57795917960E-001, +9.82136381934E+001
+4.60300500835E+006, +7.36536688431E-001, +1.02149114211E+002
+4.76978297162E+006, +6.37240478759E-001, +1.05691949914E+002
+4.93656093489E+006, +9.42845222485E-001, +1.09537239943E+002
+5.10333889816E+006, +8.17287646905E-001, +1.13086272660E+002
+5.27011686144E+006, +1.09307595587E+000, +1.17223185327E+002
+5.43689482471E+006, +9.12321166281E-001, +1.20842873169E+002
+5.60367278798E+006, +9.07548980554E-001, +1.24807136955E+002
+5.77045075125E+006, +8.97743457999E-001, +1.28339975755E+002
+5.93722871452E+006, +1.07135689427E+000, +1.32164695371E+002
+6.10400667780E+006, +1.04343566477E+000, +1.36232399489E+002
+6.27078464107E+006, +1.18880026797E+000, +1.39806405192E+002
+6.43756260434E+006, +1.27202344612E+000, +1.43631321887E+002
+6.60434056761E+006, +1.30014629888E+000, +1.47481997696E+002
+6.77111853088E+006, +1.47182841323E+000, +1.51153034495E+002
+6.93789649416E+006, +1.31251691144E+000, +1.55037809426E+002
+7.10467445743E+006, +1.18926741481E+000, +1.58839192549E+002
+7.27145242070E+006, +1.49277865625E+000, +1.62571150763E+002
+7.43823038397E+006, +1.50943745635E+000, +1.66289687863E+002
+7.60500834725E+006, +1.32896682778E+000, +1.70277883904E+002
+7.77178631052E+006, +1.51104244361E+000, +1.74390632307E+002
+7.93856427379E+006, +1.44549101076E+000, +1.77945579509E+002
+8.10534223706E+006, +1.52599283122E+000, +1.81814368510E+002
+8.27212020033E+006, +1.51618725401E+000, +1.85904048822E+002
+8.43889816361E+006, +1.30859970974E+000, +1.89816789196E+002
+8.60567612688E+006, +1.17584160017E+000, +1.93797596876E+002
+8.77245409015E+006, +1.15274345608E+000, +1.97426332993E+002
+8.93923205342E+006, +1.10048150918E+000, +2.01449728955E+002
+9.10601001669E+006, +1.18995738048E+000, +2.05561436021E+002
+9.27278797997E+006, +1.30017473040E+000, +2.09532535701E+002
+9.43956594324E+006, +1.33759521878E+000, +2.13353629755E+002
+9.60634390651E+006, +1.21335783505E+000, +2.17404026656E+002
+9.77312186978E+006, +1.02476162105E+000, +2.21592451276E+002
+9.93989983306E+006, +1.51533109893E+000, +2.25642770231E+002
+1.01066777963E+007, +9.41108436663E-001, +2.29592609888E+002
+1.02734557596E+007, +8.85324970560E-001, +2.34040905111E+002
+1.04402337229E+007, +9.09182482573E-001, +2.37550016432E+002
+1.06070116861E+007, +9.98945443099E-001, +2.41887115688E+002
+1.07737896494E+007, +9.98171763766E-001, +2.46226723009E+002
+1.09405676127E+007, +1.12920671057E+000, +2.50379448009E+002
+1.11073455760E+007, +7.71289939320E-001, +2.54269175277E+002
+1.12741235392E+007, +9.86651883113E-001, +2.58404500155E+002
+1.14409015025E+007, +1.16189400670E+000, +2.62528679322E+002
+1.16076794658E+007, +1.04722003406E+000, +2.66926016337E+002
+1.17744574290E+007, +1.31295956176E+000, +2.71586993071E+002
+1.19412353923E+007, +1.09603093557E+000, +2.75647716535E+002
+1.21080133556E+007, +5.78876489867E-001, +2.79853372402E+002
+1.22747913189E+007, +8.61066757282E-001, +2.84305720465E+002
+1.24415692821E+007, +6.86454367243E-001, +2.88569581696E+002
+1.26083472454E+007, +4.34174845897E-001, +2.92838087126E+002
+1.27751252087E+007, +9.24632978299E-001, +2.96887996557E+002
+1.29419031720E+007, +2.62584038804E-001, +3.01016080367E+002
+1.31086811352E+007, +6.53368372957E-001, +3.05881607842E+002
+1.32754590985E+007, +5.71204298162E-001, +3.10252368147E+002
+1.34422370618E+007, +3.90180841547E-001, +3.14508481358E+002
+1.36090150250E+007, +6.63942723819E-001, +3.18999221391E+002
+1.37757929883E+007, +3.16616637125E-001, +3.23139731390E+002
+1.39425709516E+007, +6.37484322045E-001, +3.28139285843E+002
+1.41093489149E+007, +7.08572670435E-001, +3.32364775591E+002
+1.42761268781E+007, +8.35859660859E-001, +3.36954144373E+002
+1.44429048414E+007, +6.69819025947E-001, +3.41172213918E+002
+1.46096828047E+007, -2.69649069801E-002, +3.46702555342E+002
+1.47764607679E+007, +7.88237663198E-001, +3.50568306474E+002
+1.49432387312E+007, +2.64224286474E-001, +3.55679207877E+002
+1.51100166945E+007, +5.03025535484E-001, +3.60409806192E+002
+1.52767946578E+007, +3.07826219874E-001, +3.64886891999E+002
+1.54435726210E+007, +9.71203518818E-001, +3.69570258883E+002
+1.56103505843E+007, +1.09081746433E+000, +3.74175485789E+002
+1.57771285476E+007, +1.09319821061E+000, +3.78596876746E+002
+1.59439065109E+007, +6.57180574211E-001, +3.83453140012E+002
+1.61106844741E+007, +1.59500857024E+000, +3.88402703248E+002
+1.62774624374E+007, +1.64532628043E+000, +3.92674474621E+002
+1.64442404007E+007, +6.72617886787E-001, +3.98117717074E+002
+1.66110183639E+007, +1.56773371948E+000, +4.02212292286E+002
+1.67777963272E+007, +1.50586186066E+000, +4.08707604720E+002
+1.69445742905E+007, +1.67521766539E+000, +4.12625153100E+002
+1.71113522538E+007, -7.97460468024E-001, +4.16644166281E+002
+1.72781302170E+007, +7.69153694806E-001, +4.22941342358E+002
+1.74449081803E+007, -4.08829136419E-001, +4.26792078104E+002
+1.76116861436E+007, +8.03297778113E-001, +4.32405120349E+002
+1.77784641068E+007, +2.22083370553E-001, +4.36945369377E+002
+1.79452420701E+007, +5.92759758325E-001, +4.42080316625E+002
+1.81120200334E+007, +1.45330023945E+000, +4.47697649365E+002
+1.82787979967E+007, +1.68623392944E+000, +4.53097952707E+002
+1.84455759599E+007, +1.08532655291E+000, +4.57509567726E+002
+1.86123539232E+007, +6.34559696355E-001, +4.62916628239E+002
+1.87791318865E+007, +2.53066868768E-001, +4.68410515383E+002
+1.89459098497E+007, +4.78918686047E-001, +4.75335380516E+002
+1.91126878130E+007, +6.72555783414E-001, +4.80189523966E+002
+1.92794657763E+007, +1.20473208040E+000, +4.86129387126E+002
+1.94462437396E+007, +1.80907139373E+000, +4.91812989913E+002
+1.96130217028E+007, +1.13489842681E+000, +4.97230075908E+002
+1.97797996661E+007, +9.71404915051E-001, +5.01673888828E+002
+1.99465776294E+007, +7.36388464640E-001, +5.07128874498E+002
+2.01133555927E+007, +4.45793615448E-001, +5.13331553489E+002
+2.02801335559E+007, +1.10438784568E+000, +5.18997380338E+002
+2.04469115192E+007, +1.25528502718E+000, +5.24765879533E+002
+2.06136894825E+007, +7.31344892486E-001, +5.30453653906E+002
+2.07804674457E+007, +1.84075143521E+000, +5.36653832278E+002
+2.09472454090E+007, -5.06029334788E-002, +5.43889202004E+002
+2.11140233723E+007, +1.64203304661E+000, +5.49055320828E+002
+2.12808013356E+007, +1.14530155181E+000, +5.54536457133E+002
+2.14475792988E+007, +1.53672264353E+000, +5.61624577762E+002
+2.16143572621E+007, +3.73987646959E+000, +5.66537518815E+002
+2.17811352254E+007, +2.15888100101E+000, +5.73008146011E+002
+2.19479131886E+007, +4.56998501806E+000, +5.79133331587E+002
+2.21146911519E+007, +4.64173012770E+000, +5.84563057502E+002
+2.22814691152E+007, +2.74444021418E+000, +5.92525261573E+002
+2.24482470785E+007, +2.90162476461E+000, +5.99056236925E+002
+2.26150250417E+007, +5.49980432551E+000, +6.04349189981E+002
+2.27818030050E+007, +3.48017431421E+000, +6.11161569191E+002
+2.29485809683E+007, +6.66382964327E+000, +6.16250936467E+002
+2.31153589316E+007, +5.39470293324E+000, +6.25019069738E+002
+2.32821368948E+007, +7.23967221108E+000, +6.30902461483E+002
+2.34489148581E+007, +7.33009603208E+000, +6.38593844715E+002
+2.36156928214E+007, +7.10689767846E+000, +6.42720266936E+002
+2.37824707846E+007, +7.24185489041E+000, +6.50076053211E+002
+2.39492487479E+007, +5.70198199882E+000, +6.56441388862E+002
+2.41160267112E+007, +8.71541976844E+000, +6.64421727758E+002
+2.42828046745E+007, +7.97984055089E+000, +6.68650432436E+002
+2.44495826377E+007, +1.03158678463E+001, +6.79642762288E+002
+2.46163606010E+007, +7.40591013611E+000, +6.84212867048E+002
+2.47831385643E+007, +8.68235548796E+000, +6.91755357144E+002
+2.49499165275E+007, +1.37321468185E+001, +6.99583678700E+002
+2.51166944908E+007, +1.03021650023E+001, +7.03281520750E+002
+2.52834724541E+007, +1.29638920843E+001, +7.13247451499E+002
+2.54502504174E+007, +1.39075644345E+001, +7.22585181516E+002
+2.56170283806E+007, +1.21497675868E+001, +7.30250624385E+002
+2.57838063439E+007, +1.46006632386E+001, +7.40159462960E+002
+2.59505843072E+007, +1.31075728518E+001, +7.46778620527E+002
+2.61173622705E+007, +1.64372513964E+001, +7.52200694386E+002
+2.62841402337E+007, +1.41842715650E+001, +7.58857611132E+002
+2.64509181970E+007, +1.33288146595E+001, +7.69148825406E+002
+2.66176961603E+007, +1.70786230331E+001, +7.76304713626E+002
+2.67844741235E+007, +1.56368992007E+001, +7.84422306618E+002
+2.69512520868E+007, +1.80305438571E+001, +7.92251133240E+002
+2.71180300501E+007, +1.88841990600E+001, +7.95487012053E+002
+2.72848080134E+007, +2.00357283367E+001, +8.08122736068E+002
+2.74515859766E+007, +2.08089650607E+001, +8.12874113391E+002
+2.76183639399E+007, +1.84509544361E+001, +8.22517169932E+002
+2.77851419032E+007, +2.05709434632E+001, +8.30915305681E+002
+2.79519198664E+007, +2.32113175110E+001, +8.40218626370E+002
+2.81186978297E+007, +2.35512540032E+001, +8.45515928335E+002
+2.82854757930E+007, +2.51206143152E+001, +8.55247466667E+002
+2.84522537563E+007, +2.16453518549E+001, +8.65823883099E+002
+2.86190317195E+007, +1.93243817507E+001, +8.71882449816E+002
+2.87858096828E+007, +2.80963026252E+001, +8.82844842043E+002
+2.89525876461E+007, +2.67781613032E+001, +8.90757854396E+002
+2.91193656093E+007, +2.10340956363E+001, +8.95529935236E+002
+2.92861435726E+007, +2.19656079013E+001, +9.07402713476E+002
+2.94529215359E+007, +2.49543559182E+001, +9.17865651244E+002
+2.96196994992E+007, +2.60456570120E+001, +9.24542745471E+002
+2.97864774624E+007, +2.75326916494E+001, +9.37224572647E+002
+2.99532554257E+007, +3.15342727365E+001, +9.50171550463E+002
+3.01200333890E+007, +2.51112126289E+001, +9.60299997984E+002
+3.02868113523E+007, +2.56929973204E+001, +9.68389719397E+002
+3.04535893155E+007, +2.46190996574E+001, +9.82709512388E+002
+3.06203672788E+007, +3.23898682158E+001, +9.88484051598E+002
+3.07871452421E+007, +2.88232379220E+001, +9.98505107543E+002
+3.09539232053E+007, +3.01559671200E+001, +1.00903243548E+003
+3.11207011686E+007, +2.77086540514E+001, +1.02418774569E+003
+3.12874791319E+007, +2.92917063233E+001, +1.02681690664E+003
+3.14542570952E+007, +3.09738464958E+001, +1.04224326028E+003
+3.16210350584E+007, +2.94797149850E+001, +1.05794690506E+003
+3.17878130217E+007, +2.29352078488E+001, +1.06829872469E+003
+3.19545909850E+007, +3.10903502468E+001, +1.07850243943E+003
+3.21213689482E+007, +2.51948956003E+001, +1.09259249786E+003
+3.22881469115E+007, +2.56136172273E+001, +1.10479008404E+003
+3.24549248748E+007, +2.42203825310E+001, +1.11764844715E+003
+3.26217028381E+007, +2.62084707294E+001, +1.12792387890E+003
+3.27884808013E+007, +3.17964356658E+001, +1.14184157480E+003
+3.29552587646E+007, +3.20671264405E+001, +1.15398178931E+003
+3.31220367279E+007, +3.09149486075E+001, +1.16001332959E+003
+3.32888146912E+007, +3.01686866448E+001, +1.18694042981E+003
+3.34555926544E+007, +2.60489633377E+001, +1.19884940007E+003
+3.36223706177E+007, +3.68513868739E+001, +1.21229253010E+003
+3.37891485810E+007, +2.97466607073E+001, +1.21775821604E+003
+3.39559265442E+007, +3.21533193555E+001, +1.24095780467E+003
+3.41227045075E+007, +3.23112032535E+001, +1.25576315153E+003
+3.42894824708E+007, +3.12581528671E+001, +1.27287825716E+003
+3.44562604341E+007, +3.30098873940E+001, +1.28459711184E+003
+3.46230383973E+007, +3.61484658573E+001, +1.30955747734E+003
+3.47898163606E+007, +3.44961205708E+001, +1.31282145615E+003
+3.49565943239E+007, +4.12777626170E+001, +1.33431821101E+003
+3.51233722871E+007, +4.27980865909E+001, +1.35612294948E+003
+3.52901502504E+007, +3.57371371565E+001, +1.36420080561E+003
+3.54569282137E+007, +3.97157412223E+001, +1.39293480475E+003
+3.56237061770E+007, +3.55983481178E+001, +1.41013627714E+003
+3.57904841402E+007, +3.80245534806E+001, +1.43737417617E+003
+3.59572621035E+007, +3.92992240802E+001, +1.45286513054E+003
+3.61240400668E+007, +3.84252377093E+001, +1.46862430455E+003
+3.62908180301E+007, +4.41612567241E+001, +1.49729068777E+003
+3.64575959933E+007, +3.63713990036E+001, +1.51337815532E+003
+3.66243739566E+007, +5.20341730467E+001, +1.52342451463E+003
+3.67911519199E+007, +4.91188432473E+001, +1.55812546386E+003
+3.69579298831E+007, +3.62178783964E+001, +1.56241185580E+003
+3.71247078464E+007, +4.80934898808E+001, +1.59987809362E+003
+3.72914858097E+007, +4.20693264593E+001, +1.63441936186E+003
+3.74582637730E+007, +5.59995916903E+001, +1.65790677439E+003
+3.76250417362E+007, +5.47455326323E+001, +1.66650158268E+003
+3.77918196995E+007, +4.73790755925E+001, +1.69006207146E+003
+3.79585976628E+007, +4.97909198123E+001, +1.71934214230E+003
+3.81253756260E+007, +6.24528257349E+001, +1.75276904073E+003
+3.82921535893E+007, +7.40295167609E+001, +1.77511591592E+003
+3.84589315526E+007, +6.06035222879E+001, +1.80837094048E+003
+3.86257095159E+007, +6.37084899946E+001, +1.84015310695E+003
+3.87924874791E+007, +6.31709837710E+001, +1.87666264104E+003
+3.89592654424E+007, +6.84389803752E+001, +1.90624591460E+003
+3.91260434057E+007, +6.32963851448E+001, +1.94688297002E+003
+3.92928213689E+007, +7.51210020073E+001, +1.96371804249E+003
+3.94595993322E+007, +6.98167226002E+001, +2.01122856786E+003
+3.96263772955E+007, +8.08745055961E+001, +2.03613466931E+003
+3.97931552588E+007, +7.99165895287E+001, +2.07576708976E+003
+3.99599332220E+007, +9.27589045169E+001, +2.10341974151E+003
+4.01267111853E+007, +9.04467217572E+001, +2.14728020526E+003
+4.02934891486E+007, +8.32289766785E+001, +2.18884650102E+003
+4.04602671119E+007, +9.80824629148E+001, +2.23939350199E+003
+4.06270450751E+007, +1.23714761457E+002, +2.30174752477E+003
+4.07938230384E+007, +1.17691504537E+002, +2.31040377032E+003
+4.09606010017E+007, +1.42944033557E+002, +2.36859144856E+003
+4.11273789649E+007, +1.31086587769E+002, +2.39537957863E+003
+4.12941569282E+007, +1.47628896464E+002, +2.46563887269E+003
+4.14609348915E+007, +1.62118652430E+002, +2.53847035333E+003
+4.16277128548E+007, +1.65918786465E+002, +2.60133115255E+003
+4.17944908180E+007, +1.59895439469E+002, +2.61245179536E+003
+4.19612687813E+007, +1.59736335886E+002, +2.69989328771E+003
+4.21280467446E+007, +1.81343667612E+002, +2.77056277646E+003
+4.22948247078E+007, +2.06371936411E+002, +2.82230724040E+003
+4.24616026711E+007, +2.24721722766E+002, +2.87741431353E+003
+4.26283806344E+007, +2.57584121049E+002, +2.94567067155E+003
+4.27951585977E+007, +1.76574668316E+002, +3.04190788150E+003
+4.29619365609E+007, +2.59656831825E+002, +3.10699508503E+003
+4.31287145242E+007, +2.70669390188E+002, +3.19674787988E+003
+4.32954924875E+007, +2.81087580896E+002, +3.21883061381E+003
+4.34622704508E+007, +2.65293085229E+002, +3.41173504103E+003
+4.36290484140E+007, +3.32518819593E+002, +3.48606114594E+003
+4.37958263773E+007, +3.63359804654E+002, +3.66452656177E+003
+4.39626043406E+007, +3.51280773410E+002, +3.65844868677E+003
+4.41293823038E+007, +4.25349683104E+002, +3.85788698047E+003
+4.42961602671E+007, +4.51824128853E+002, +3.93546942019E+003
+4.44629382304E+007, +4.57322524835E+002, +4.10591194406E+003
+4.46297161937E+007, +5.24761877426E+002, +4.25982453936E+003
+4.47964941569E+007, +4.36987037488E+002, +4.36329031292E+003
+4.49632721202E+007, +5.96595310072E+002, +4.50725189440E+003
+4.51300500835E+007, +6.87718542398E+002, +4.68159243287E+003
+4.52968280467E+007, +7.86595062247E+002, +4.81891326420E+003
+4.54636060100E+007, +9.35893137609E+002, +5.24212724639E+003
+4.56303839733E+007, +8.78632223645E+002, +5.43352221846E+003
+4.57971619366E+007, +9.81499805321E+002, +5.73155036885E+003
+4.59639398998E+007, +1.25995438336E+003, +6.18447172360E+003
+4.61307178631E+007, +1.39095378816E+003, +6.34029072932E+003
+4.62974958264E+007, +1.62447653228E+003, +6.47015613579E+003
+4.64642737896E+007, +1.72065759135E+003, +6.90909175222E+003
+4.66310517529E+007, +2.09354722709E+003, +7.34419225954E+003
+4.67978297162E+007, +2.51743911027E+003, +7.49745668746E+003
+4.69646076795E+007, +2.84602422715E+003, +8.17537762745E+003
+4.71313856427E+007, +3.70112187422E+003, +8.62114740482E+003
+4.72981636060E+007, +4.25199944993E+003, +9.26519933122E+003
+4.74649415693E+007, +4.85219860207E+003, +9.49713712747E+003
+4.76317195326E+007, +6.12938449931E+003, +9.70073518984E+003
+4.77984974958E+007, +7.10583153233E+003, +1.00425975299E+004
+4.79652754591E+007, +8.39384091877E+003, +9.69064683300E+003
+4.81320534224E+007, +1.01730350531E+004, +9.92997826152E+003
+4.82988313856E+007, +1.13295916695E+004, +9.41900427366E+003
+4.84656093489E+007, +1.42573247040E+004, +7.54542275526E+003
+4.86323873122E+007, +1.38503186595E+004, +6.83453024071E+003
+4.87991652755E+007, +1.62806711865E+004, +4.47275818736E+003
+4.89659432387E+007, +1.67926996385E+004, +2.38232039599E+003
+4.91327212020E+007, +1.63923160769E+004, +6.02205832459E+002
+4.92994991653E+007, +1.52444039853E+004, -1.09574535823E+003
+4.94662771285E+007, +1.41542638703E+004, -3.08263885968E+003
+4.96330550918E+007, +1.36005912602E+004, -4.23726596875E+003
+4.97998330551E+007, +1.25277526557E+004, -5.25105055446E+003
+4.99666110184E+007, +1.11479235459E+004, -5.84013037782E+003
+5.01333889816E+007, +1.09211519386E+004, -6.01584115973E+003
+5.03001669449E+007, +9.46323437482E+003, -6.53852656492E+003
+5.04669449082E+007, +8.51195501992E+003, -6.70956389137E+003
+5.06337228715E+007, +7.69017367714E+003, -6.57087613125E+003
+5.08005008347E+007, +7.61829196077E+003, -6.73673020958E+003
+5.09672787980E+007, +6.97346973936E+003, -6.41472468209E+003
+5.11340567613E+007, +5.96551077889E+003, -6.40761842923E+003
+5.13008347245E+007, +5.59065948001E+003, -6.78392100077E+003
+5.14676126878E+007, +5.18831331484E+003, -6.51931838823E+003
+5.16343906511E+007, +4.57682427675E+003, -6.19226530273E+003
+5.18011686144E+007, +4.23306476047E+003, -6.36651798438E+003
+5.19679465776E+007, +3.84847230456E+003, -6.34443087626E+003
+5.21347245409E+007, +3.31272459036E+003, -6.08686672299E+003
+5.23015025042E+007, +2.81261101070E+003, -5.59746401786E+003
+5.24682804674E+007, +2.72170639807E+003, -5.80328770805E+003
+5.26350584307E+007, +2.45597599732E+003, -5.44756259686E+003
+5.28018363940E+007, +2.00252179641E+003, -5.29437155120E+003
+5.29686143573E+007, +1.92084152335E+003, -5.08106293824E+003
+5.31353923205E+007, +1.74950482850E+003, -4.94705382812E+003
+5.33021702838E+007, +1.50392356767E+003, -4.71329405842E+003
+5.34689482471E+007, +1.43362315658E+003, -4.48523854315E+003
