"# Channel 1"
"# Trace 1"
Frequency, Formatted Data, Formatted Data
+1.00000000000E+005, +1.72033430477E-001, +2.13055436951E+000
+2.66777963272E+005, +2.03981621132E-001, +5.61794589834E+000
+4.33555926544E+005, +2.40239855080E-001, +9.11022741247E+000
+6.00333889816E+005, +2.96251345180E-001, +1.25383436419E+001
+7.67111853088E+005, +3.30192336370E-001, +1.60202298000E+001
+9.33889816361E+005, +3.51189897251E-001, +1.94435092935E+001
+1.10066777963E+006, +3.03189288224E-001, +2.29290225553E+001
+1.26744574290E+006, +3.85465616567E-001, +2.63458809349E+001
+1.43422370618E+006, +3.08785642950E-001, +2.98421165828E+001
+1.60100166945E+006, +3.97645638088E-001, +3.32245703886E+001
+1.76777963272E+006, +4.02774779315E-001, +3.66963551388E+001
+1.93455759599E+006, +4.27268755045E-001, +4.00229137168E+001
+2.10133555927E+006, +4.10836073639E-001, +4.34713511082E+001
+2.26811352254E+006, +4.56523558688E-001, +4.69548929601E+001
+2.43489148581E+006, +4.09299185352E-001, +5.04672823803E+001
+2.60166944908E+006, +4.36082973027E-001, +5.38402490715E+001
+2.76844741235E+006, +3.89027258486E-001, +5.73526634121E+001
+2.93522537563E+006, +3.66878576583E-001, +6.07641034989E+001
+3.10200333890E+006, +5.66249131031E-001, +6.41961703125E+001
+3.26878130217E+006, +3.26147370771E-001, +6.77886077695E+001
+3.43555926544E+006, +4.71995800661E-001, +7.11519573138E+001
+3.60233722871E+006, +4.74473074825E-001, +7.47418496601E+001
+3.76911519199E+006, +4.46241820374E-001, +7.82950713115E+001
+3.93589315526E+006, +5.14172479203E-001, +8.15706639517E+001
+4.10267111853E+006, +2.13728676089E-003, +8.45513584458E+001
+4.26944908180E+006, +2.26514890922E-001, +8.91626667925E+001
+4.43622704508E+006, +3.82385563903E-001, +9.22300171391E+001
+4.60300500835E+006, +4.27634810540E-001, +9.58960658229E+001
+4.76978297162E+006, +3.44298022904E-001, +9.92355372745E+001
+4.93656093489E+006, +5.78241600593E-001, +1.02744453207E+002
+5.10333889816E+006, +5.29372093056E-001, +1.06297405362E+002
+5.27011686144E+006, +7.31135527625E-001, +1.10094298119E+002
+5.43689482471E+006, +5.47645540478E-001, +1.13461588116E+002
+5.60367278798E+006, +5.26365050331E-001, +1.17234950512E+002
+5.77045075125E+006, +6.68073118247E-001, +1.20541475656E+002
+5.93722871452E+006, +7.82784560359E-001, +1.24005961440E+002
+6.10400667780E+006, +7.88927849753E-001, +1.27867478663E+002
+6.27078464107E+006, +8.85821203281E-001, +1.31210322764E+002
+6.43756260434E+006, +9.40852240481E-001, +1.34816938696E+002
+6.60434056761E+006, +1.00265452288E+000, +1.38365980871E+002
+6.77111853088E+006, +1.20534911990E+000, +1.41882242009E+002
+6.93789649416E+006, +1.09763783196E+000, +1.45520364225E+002
+7.10467445743E+006, +9.99478921668E-001, +1.49020330877E+002
+7.27145242070E+006, +1.18887305675E+000, +1.52460150178E+002
+7.43823038397E+006, +1.15455582929E+000, +1.56145406048E+002
+7.60500834725E+006, +1.02491422863E+000, +1.59786247594E+002
+7.77178631052E+006, +1.11870519756E+000, +1.63595653586E+002
+7.93856427379E+006, +1.11639599132E+000, +1.66754317341E+002
+8.10534223706E+006, +9.85151915247E-001, +1.70601792652E+002
+8.27212020033E+006, +1.01416861491E+000, +1.74183786788E+002
+8.43889816361E+006, +8.70912043059E-001, +1.77896604066E+002
+8.60567612688E+006, +8.15266349753E-001, +1.81542838758E+002
+8.77245409015E+006, +6.23989183122E-001, +1.85334535991E+002
+8.93923205342E+006, +8.29324687424E-001, +1.89142875881E+002
+9.10601001669E+006, +6.67709868009E-001, +1.92965969731E+002
+9.27278797997E+006, +7.24617541930E-001, +1.96499529510E+002
+9.43956594324E+006, +5.95583068314E-001, +2.00237459909E+002
+9.60634390651E+006, +4.41639354198E-001, +2.04102534829E+002
+9.77312186978E+006, +4.48702996276E-001, +2.07857419843E+002
+9.93989983306E+006, +6.21763429237E-001, +2.11941869223E+002
+1.01066777963E+007, +4.32034597319E-001, +2.15525848669E+002
+1.02734557596E+007, +3.89179350210E-001, +2.19449584195E+002
+1.04402337229E+007, +2.45431757445E-001, +2.23400685495E+002
+1.06070116861E+007, +2.44144807833E-001, +2.27335048945E+002
+1.07737896494E+007, +2.79983560949E-001, +2.31116139001E+002
+1.09405676127E+007, +6.42522090957E-001, +2.35138942867E+002
+1.11073455760E+007, +2.47060268299E-001, +2.39060397485E+002
+1.12741235392E+007, +3.01176283066E-001, +2.42967164658E+002
+1.14409015025E+007, +5.98660443622E-001, +2.46913779055E+002
+1.16076794658E+007, +4.80345204911E-001, +2.50821481326E+002
+1.17744574290E+007, +2.53120382306E-001, +2.55197035279E+002
+1.19412353923E+007, +2.76423152760E-001, +2.59119544012E+002
+1.21080133556E+007, -2.24665775204E-002, +2.63217898252E+002
+1.22747913189E+007, +3.84721280678E-001, +2.67101577470E+002
+1.24415692821E+007, +2.09907259926E-001, +2.70789821221E+002
+1.26083472454E+007, -1.94358984577E-001, +2.75438946709E+002
+1.27751252087E+007, +1.42322527402E-001, +2.79375377170E+002
+1.29419031720E+007, -5.69207623154E-002, +2.83228589353E+002
+1.31086811352E+007, +1.89471472329E-001, +2.87607214328E+002
+1.32754590985E+007, +4.65233285712E-003, +2.91650765593E+002
+1.34422370618E+007, +1.47595075117E-001, +2.95825663161E+002
+1.36090150250E+007, +3.78766086093E-001, +3.00133188452E+002
+1.37757929883E+007, +2.23407109142E-001, +3.04174032727E+002
+1.39425709516E+007, +2.67682681949E-001, +3.08528524102E+002
+1.41093489149E+007, +2.92606032354E-001, +3.12761971844E+002
+1.42761268781E+007, +5.95953651858E-001, +3.17336041871E+002
+1.44429048414E+007, +5.95506483305E-001, +3.21008523304E+002
+1.46096828047E+007, +1.17671875607E-001, +3.26037986685E+002
+1.47764607679E+007, +7.84489225838E-001, +3.29614321413E+002
+1.49432387312E+007, +3.03755283082E-001, +3.34246951824E+002
+1.51100166945E+007, +6.85276699929E-001, +3.38429956914E+002
+1.52767946578E+007, +9.51164881302E-001, +3.42783656383E+002
+1.54435726210E+007, +8.88590431608E-001, +3.47212436361E+002
+1.56103505843E+007, +1.25824591920E+000, +3.52094528095E+002
+1.57771285476E+007, +5.25806225958E-001, +3.56706655667E+002
+1.59439065109E+007, +1.40090200609E+000, +3.60614464421E+002
+1.61106844741E+007, +1.04789667725E+000, +3.65232028903E+002
+1.62774624374E+007, +1.42938040541E+000, +3.68945294330E+002
+1.64442404007E+007, +5.27521099857E-001, +3.74252730043E+002
+1.66110183639E+007, +1.39476726354E+000, +3.78724367716E+002
+1.67777963272E+007, +6.08413873259E-001, +3.82937210955E+002
+1.69445742905E+007, +1.28762548874E+000, +3.88175261662E+002
+1.71113522538E+007, -1.07362491161E+000, +3.92303828046E+002
+1.72781302170E+007, +8.23003750989E-001, +3.97582502778E+002
+1.74449081803E+007, +7.31131519507E-002, +4.01772939734E+002
+1.76116861436E+007, +8.30316863212E-001, +4.07050006686E+002
+1.77784641068E+007, +5.48234649783E-001, +4.10934988565E+002
+1.79452420701E+007, +7.79698203045E-001, +4.16330835934E+002
+1.81120200334E+007, +1.86265981858E+000, +4.20975612478E+002
+1.82787979967E+007, +1.48043150552E+000, +4.26785612242E+002
+1.84455759599E+007, +1.82537882600E+000, +4.31648174589E+002
+1.86123539232E+007, +2.23858419859E+000, +4.36174777543E+002
+1.87791318865E+007, +1.29758958029E+000, +4.41474341940E+002
+1.89459098497E+007, +8.30906650263E-001, +4.46509360414E+002
+1.91126878130E+007, +2.01688192024E+000, +4.51446609536E+002
+1.92794657763E+007, +1.08366248006E+000, +4.56916494367E+002
+1.94462437396E+007, +2.10161309267E+000, +4.62094683159E+002
+1.96130217028E+007, +1.71014087244E+000, +4.67366067770E+002
+1.97797996661E+007, +2.24007858883E+000, +4.72428918413E+002
+1.99465776294E+007, +5.51670901102E-001, +4.76781981456E+002
+2.01133555927E+007, +6.07221217509E-001, +4.82444365792E+002
+2.02801335559E+007, +1.77851287675E+000, +4.88565202961E+002
+2.04469115192E+007, +3.09269257109E+000, +4.93144943205E+002
+2.06136894825E+007, +2.35194502713E+000, +4.97992428284E+002
+2.07804674457E+007, +3.54684103621E+000, +5.04893909922E+002
+2.09472454090E+007, +2.73811815728E+000, +5.11628736187E+002
+2.11140233723E+007, +2.61461233855E+000, +5.15629493453E+002
+2.12808013356E+007, +4.27143243866E+000, +5.20566472589E+002
+2.14475792988E+007, +3.02618793896E+000, +5.27244052217E+002
+2.16143572621E+007, +4.90744398394E+000, +5.32248024685E+002
+2.17811352254E+007, +3.35746810153E+000, +5.37909224083E+002
+2.19479131886E+007, +5.01072878590E+000, +5.43530293606E+002
+2.21146911519E+007, +6.21343990242E+000, +5.49734195376E+002
+2.22814691152E+007, +5.54311209167E+000, +5.56015312520E+002
+2.24482470785E+007, +6.04041264741E+000, +5.63909466132E+002
+2.26150250417E+007, +7.00917002266E+000, +5.69206125052E+002
+2.27818030050E+007, +6.86028637021E+000, +5.73900042856E+002
+2.29485809683E+007, +7.56485218712E+000, +5.79553548291E+002
+2.31153589316E+007, +6.41546874987E+000, +5.87261238905E+002
+2.32821368948E+007, +8.52745730297E+000, +5.92586827577E+002
+2.34489148581E+007, +8.27488099540E+000, +5.98509175797E+002
+2.36156928214E+007, +9.56568961503E+000, +6.04652202805E+002
+2.37824707846E+007, +9.46714521788E+000, +6.12269879515E+002
+2.39492487479E+007, +8.86190859351E+000, +6.17221085923E+002
+2.41160267112E+007, +8.96969282813E+000, +6.23880448880E+002
+2.42828046745E+007, +9.12286089250E+000, +6.31488937708E+002
+2.44495826377E+007, +1.21717261048E+001, +6.37097946216E+002
+2.46163606010E+007, +1.18486725180E+001, +6.44076249836E+002
+2.47831385643E+007, +1.31203090480E+001, +6.50309462556E+002
+2.49499165275E+007, +1.46079015241E+001, +6.57618130953E+002
+2.51166944908E+007, +1.60970658899E+001, +6.64068753120E+002
+2.52834724541E+007, +1.54839704517E+001, +6.69810492083E+002
+2.54502504174E+007, +1.70643797257E+001, +6.75722309090E+002
+2.56170283806E+007, +1.73942533715E+001, +6.84232051531E+002
+2.57838063439E+007, +1.62882853844E+001, +6.92607136049E+002
+2.59505843072E+007, +1.72405261629E+001, +6.98749279196E+002
+2.61173622705E+007, +1.96615642696E+001, +7.04258974604E+002
+2.62841402337E+007, +2.09763852925E+001, +7.12993935166E+002
+2.64509181970E+007, +1.80355544312E+001, +7.18242660845E+002
+2.66176961603E+007, +2.01259541935E+001, +7.27811846627E+002
+2.67844741235E+007, +2.08179137142E+001, +7.33493423506E+002
+2.69512520868E+007, +2.15035898011E+001, +7.40347548733E+002
+2.71180300501E+007, +2.01105660226E+001, +7.46570885533E+002
+2.72848080134E+007, +2.22561786651E+001, +7.55145361958E+002
+2.74515859766E+007, +2.49001387896E+001, +7.61345686432E+002
+2.76183639399E+007, +2.14416844954E+001, +7.67605493143E+002
+2.77851419032E+007, +2.07432710124E+001, +7.75250582752E+002
+2.79519198664E+007, +2.52075872286E+001, +7.84112900653E+002
+2.81186978297E+007, +2.44499288126E+001, +7.89710916674E+002
+2.82854757930E+007, +2.41354076994E+001, +7.97633014563E+002
+2.84522537563E+007, +2.08735796352E+001, +8.07776622376E+002
+2.86190317195E+007, +2.20365756383E+001, +8.13444504017E+002
+2.87858096828E+007, +2.47126413710E+001, +8.21879595682E+002
+2.89525876461E+007, +2.34776978112E+001, +8.32122331644E+002
+2.91193656093E+007, +2.35691042336E+001, +8.37115375546E+002
+2.92861435726E+007, +1.95333146132E+001, +8.44767623753E+002
+2.94529215359E+007, +2.38334386512E+001, +8.53639761554E+002
+2.96196994992E+007, +2.40393654686E+001, +8.64837152069E+002
+2.97864774624E+007, +2.64993350255E+001, +8.77438860926E+002
+2.99532554257E+007, +2.73172335400E+001, +8.83335185056E+002
+3.01200333890E+007, +2.36071553860E+001, +8.93646848050E+002
+3.02868113523E+007, +2.11115486975E+001, +9.05595839996E+002
+3.04535893155E+007, +2.09977457457E+001, +9.15383097540E+002
+3.06203672788E+007, +2.35407613543E+001, +9.23545894049E+002
+3.07871452421E+007, +2.39769563757E+001, +9.32933822398E+002
+3.09539232053E+007, +2.54129224330E+001, +9.45347212582E+002
+3.11207011686E+007, +2.30048773651E+001, +9.56949717754E+002
+3.12874791319E+007, +2.39070828162E+001, +9.64597603599E+002
+3.14542570952E+007, +2.58744332963E+001, +9.76882063174E+002
+3.16210350584E+007, +2.19372003036E+001, +9.87144023537E+002
+3.17878130217E+007, +2.15252251072E+001, +1.00169392501E+003
+3.19545909850E+007, +2.48423386908E+001, +1.01103241167E+003
+3.21213689482E+007, +2.01168739711E+001, +1.02500265505E+003
+3.22881469115E+007, +2.23028460550E+001, +1.03594534071E+003
+3.24549248748E+007, +2.38404487894E+001, +1.04917348192E+003
+3.26217028381E+007, +2.29779366748E+001, +1.05973489120E+003
+3.27884808013E+007, +2.24574110544E+001, +1.06873143047E+003
+3.29552587646E+007, +2.43002390013E+001, +1.08383581002E+003
+3.31220367279E+007, +2.93614695111E+001, +1.09597551154E+003
+3.32888146912E+007, +2.58906754531E+001, +1.11464635229E+003
+3.34555926544E+007, +2.44017743595E+001, +1.12174396652E+003
+3.36223706177E+007, +2.75608584229E+001, +1.13347579835E+003
+3.37891485810E+007, +2.35195009755E+001, +1.14189703307E+003
+3.39559265442E+007, +2.44538321304E+001, +1.17185161436E+003
+3.41227045075E+007, +2.33957616596E+001, +1.17848454723E+003
+3.42894824708E+007, +3.00827922839E+001, +1.19424758907E+003
+3.44562604341E+007, +2.87792754326E+001, +1.20634593420E+003
+3.46230383973E+007, +3.07913680568E+001, +1.23180133447E+003
+3.47898163606E+007, +3.39522504428E+001, +1.23808254885E+003
+3.49565943239E+007, +3.75362368887E+001, +1.25820487097E+003
+3.51233722871E+007, +3.47395171902E+001, +1.27432507554E+003
+3.52901502504E+007, +3.51759386176E+001, +1.28863395526E+003
+3.54569282137E+007, +2.69570500753E+001, +1.30907064977E+003
+3.56237061770E+007, +2.60341950108E+001, +1.32461087830E+003
+3.57904841402E+007, +3.58947601144E+001, +1.33869108497E+003
+3.59572621035E+007, +3.90905853079E+001, +1.35855592115E+003
+3.61240400668E+007, +3.79839444011E+001, +1.38287554409E+003
+3.62908180301E+007, +3.31476243123E+001, +1.40281809323E+003
+3.64575959933E+007, +3.71737688338E+001, +1.41306164889E+003
+3.66243739566E+007, +4.76993446940E+001, +1.43598314549E+003
+3.67911519199E+007, +3.76219113841E+001, +1.46942269009E+003
+3.69579298831E+007, +3.43653367444E+001, +1.48553873282E+003
+3.71247078464E+007, +4.08304147241E+001, +1.50990575995E+003
+3.72914858097E+007, +4.41283510482E+001, +1.53902030190E+003
+3.74582637730E+007, +5.55455127955E+001, +1.56196470319E+003
+3.76250417362E+007, +5.42522718949E+001, +1.57827470335E+003
+3.77918196995E+007, +3.98141459673E+001, +1.60219245462E+003
+3.79585976628E+007, +4.33081070131E+001, +1.63036189504E+003
+3.81253756260E+007, +6.29436481076E+001, +1.64567798934E+003
+3.82921535893E+007, +6.54497673785E+001, +1.67761826196E+003
+3.84589315526E+007, +6.40519400249E+001, +1.70373479673E+003
+3.86257095159E+007, +6.09834220449E+001, +1.73567414639E+003
+3.87924874791E+007, +5.08778843158E+001, +1.76348986394E+003
+3.89592654424E+007, +7.65959037349E+001, +1.79376878227E+003
+3.91260434057E+007, +7.51992321102E+001, +1.83392301096E+003
+3.92928213689E+007, +7.84467420868E+001, +1.85514770799E+003
+3.94595993322E+007, +8.35499053599E+001, +1.89645041973E+003
+3.96263772955E+007, +7.78183920025E+001, +1.91555584600E+003
+3.97931552588E+007, +7.53794705127E+001, +1.93778488080E+003
+3.99599332220E+007, +8.47980127158E+001, +1.98042774797E+003
+4.01267111853E+007, +1.12185859231E+002, +2.02454385219E+003
+4.02934891486E+007, +9.42729497531E+001, +2.03864263264E+003
+4.04602671119E+007, +1.14511285134E+002, +2.09219505205E+003
+4.06270450751E+007, +1.25740048031E+002, +2.12926316100E+003
+4.07938230384E+007, +1.14136250081E+002, +2.18091276329E+003
+4.09606010017E+007, +1.33310282189E+002, +2.21757339595E+003
+4.11273789649E+007, +1.51154501800E+002, +2.26159245098E+003
+4.12941569282E+007, +1.29720354762E+002, +2.30336768176E+003
+4.14609348915E+007, +1.59518070222E+002, +2.39024866593E+003
+4.16277128548E+007, +1.41071809156E+002, +2.40068198993E+003
+4.17944908180E+007, +1.61829291118E+002, +2.42256062448E+003
+4.19612687813E+007, +1.51053895235E+002, +2.50423412443E+003
+4.21280467446E+007, +1.47197558470E+002, +2.56358557525E+003
+4.22948247078E+007, +1.65524797774E+002, +2.66884948690E+003
+4.24616026711E+007, +2.01814871544E+002, +2.66907289175E+003
+4.26283806344E+007, +2.05341142989E+002, +2.75523249244E+003
+4.27951585977E+007, +1.59896484293E+002, +2.86770325179E+003
+4.29619365609E+007, +2.58424457009E+002, +2.89839843274E+003
+4.31287145242E+007, +2.40649048085E+002, +3.00311314480E+003
+4.32954924875E+007, +2.37116784365E+002, +3.07606132399E+003
+4.34622704508E+007, +2.56616089062E+002, +3.16392637810E+003
+4.36290484140E+007, +3.14545065735E+002, +3.24905478911E+003
+4.37958263773E+007, +2.55862204541E+002, +3.35659801197E+003
+4.39626043406E+007, +3.35354085534E+002, +3.44612481869E+003
+4.41293823038E+007, +3.68271629630E+002, +3.60502379052E+003
+4.42961602671E+007, +3.07297449380E+002, +3.67105270037E+003
+4.44629382304E+007, +3.74492850521E+002, +3.85573152019E+003
+4.46297161937E+007, +4.76667952881E+002, +3.90286607468E+003
+4.47964941569E+007, +4.52772012830E+002, +4.11165572718E+003
+4.49632721202E+007, +4.53197778672E+002, +4.30265403071E+003
+4.51300500835E+007, +6.06380110540E+002, +4.33523261246E+003
+4.52968280467E+007, +6.26245038593E+002, +4.62044250913E+003
+4.54636060100E+007, +7.98992322885E+002, +4.93816041616E+003
+4.56303839733E+007, +7.72046787918E+002, +5.04385370881E+003
+4.57971619366E+007, +8.73628331262E+002, +5.27811671531E+003
+4.59639398998E+007, +1.02262044109E+003, +5.72226033359E+003
+4.61307178631E+007, +1.20059073131E+003, +5.86600596021E+003
+4.62974958264E+007, +1.25440689516E+003, +6.13579713498E+003
+4.64642737896E+007, +1.32540764866E+003, +6.41793336989E+003
+4.66310517529E+007, +1.53589171972E+003, +6.81332174732E+003
+4.67978297162E+007, +1.97566476262E+003, +6.97959392562E+003
+4.69646076795E+007, +2.28373758456E+003, +7.89941491089E+003
+4.71313856427E+007, +2.75365582123E+003, +8.34712009410E+003
+4.72981636060E+007, +3.33391746871E+003, +8.94712671348E+003
+4.74649415693E+007, +3.77373677918E+003, +9.75285826091E+003
+4.76317195326E+007, +4.99758873549E+003, +9.87562857218E+003
+4.77984974958E+007, +6.12285335910E+003, +1.03712432787E+004
+4.79652754591E+007, +7.25406189605E+003, +1.09862269819E+004
+4.81320534224E+007, +8.83779338707E+003, +1.09752765981E+004
+4.82988313856E+007, +1.12366672771E+004, +1.11926282404E+004
+4.84656093489E+007, +1.33961885639E+004, +1.14671364026E+004
+4.86323873122E+007, +1.54108333935E+004, +8.28726722788E+003
+4.87991652755E+007, +1.82839170914E+004, +6.26601838054E+003
+4.89659432387E+007, +1.95864666006E+004, +3.72369817474E+003
+4.91327212020E+007, +1.90669342159E+004, -4.12755327554E+002
+4.92994991653E+007, +1.76378458818E+004, -3.63482151738E+003
+4.94662771285E+007, +1.64769448505E+004, -4.50101116515E+003
+4.96330550918E+007, +1.43011725661E+004, -6.09119047400E+003
+4.97998330551E+007, +1.15350451824E+004, -6.91123251418E+003
+4.99666110184E+007, +1.07150237815E+004, -7.53761474459E+003
+5.01333889816E+007, +9.93645253460E+003, -7.74749779742E+003
+5.03001669449E+007, +8.22793356858E+003, -7.99333628597E+003
+5.04669449082E+007, +6.99270748179E+003, -7.85142176169E+003
+5.06337228715E+007, +6.22897143950E+003, -7.29818637062E+003
+5.08005008347E+007, +5.66736686463E+003, -7.43156610774E+003
+5.09672787980E+007, +5.30603213678E+003, -7.05471619246E+003
+5.11340567613E+007, +4.49053370435E+003, -6.69059062157E+003
+5.13008347245E+007, +3.64788653587E+003, -6.56715391930E+003
+5.14676126878E+007, +3.42049906602E+003, -6.41005820654E+003
+5.16343906511E+007, +3.24203440635E+003, -5.99335748677E+003
+5.18011686144E+007, +2.84493927456E+003, -5.67565331609E+003
+5.19679465776E+007, +2.55023934865E+003, -5.56093773352E+003
+5.21347245409E+007, +2.25877090926E+003, -5.15811357917E+003
+5.23015025042E+007, +2.02353637711E+003, -4.86409145083E+003
+5.24682804674E+007, +1.82958314695E+003, -4.79388836598E+003
+5.26350584307E+007, +1.78316473459E+003, -4.58004929813E+003
+5.28018363940E+007, +1.59513062367E+003, -4.37915616605E+003
+5.29686143573E+007, +1.44217960094E+003, -4.20255618338E+003
+5.31353923205E+007, +1.42900674166E+003, -4.11036405208E+003
+5.33021702838E+007, +1.30049692502E+003, -3.86049707450E+003
+5.34689482471E+007, +1.23696637189E+003, -3.71249864409E+003
