"# Channel 1"
"# Trace 1"
Frequency, Formatted Data, Formatted Data
+1.00000000000E+005, +2.60328934952E+001, +2.18907962777E+000
+2.66777963272E+005, +2.59904332429E+001, +6.14419948210E+000
+4.33555926544E+005, +2.60021620224E+001, +1.00666995596E+001
+6.00333889816E+005, +2.60013673619E+001, +1.39444146021E+001
+7.67111853088E+005, +2.60511098393E+001, +1.78474249499E+001
+9.33889816361E+005, +2.60869575759E+001, +2.17260456078E+001
+1.10066777963E+006, +2.61118000236E+001, +2.55863130384E+001
+1.26744574290E+006, +2.61239720033E+001, +2.94159047597E+001
+1.43422370618E+006, +2.61064852221E+001, +3.32474441640E+001
+1.60100166945E+006, +2.60655935519E+001, +3.71372070109E+001
+1.76777963272E+006, +2.60853615333E+001, +4.09994971085E+001
+1.93455759599E+006, +2.61013163694E+001, +4.48401004478E+001
+2.10133555927E+006, +2.61110001214E+001, +4.86621926753E+001
+2.26811352254E+006, +2.60342726087E+001, +5.26127427542E+001
+2.43489148581E+006, +2.60488201517E+001, +5.64520101051E+001
+2.60166944908E+006, +2.59576331211E+001, +6.03412185055E+001
+2.76844741235E+006, +2.59902114925E+001, +6.42225240378E+001
+2.93522537563E+006, +2.58807961695E+001, +6.80028546280E+001
+3.10200333890E+006, +2.60119295653E+001, +7.18598938714E+001
+3.26878130217E+006, +2.61369463556E+001, +7.56613201459E+001
+3.43555926544E+006, +2.60358507091E+001, +7.96811268930E+001
+3.60233722871E+006, +2.60380413160E+001, +8.34990299153E+001
+3.76911519199E+006, +2.61049397387E+001, +8.73678758803E+001
+3.93589315526E+006, +2.60342559803E+001, +9.13378575235E+001
+4.10267111853E+006, +2.75708227749E+001, +9.48758601223E+001
+4.26944908180E+006, +2.58904179840E+001, +9.93012083783E+001
+4.43622704508E+006, +2.60225208924E+001, +1.02962562793E+002
+4.60300500835E+006, +2.60341932233E+001, +1.06897860373E+002
+4.76978297162E+006, +2.60395978193E+001, +1.10706651064E+002
+4.93656093489E+006, +2.60603644451E+001, +1.14678295170E+002
+5.10333889816E+006, +2.60557091327E+001, +1.18391711623E+002
+5.27011686144E+006, +2.60322572466E+001, +1.22396478719E+002
+5.43689482471E+006, +2.60712433085E+001, +1.26267835700E+002
+5.60367278798E+006, +2.62842159356E+001, +1.30051369905E+002
+5.77045075125E+006, +2.65714534206E+001, +1.34111590798E+002
+5.93722871452E+006, +2.64476632797E+001, +1.37922656513E+002
+6.10400667780E+006, +2.65852763571E+001, +1.41590240394E+002
+6.27078464107E+006, +2.64458191292E+001, +1.45787497534E+002
+6.43756260434E+006, +2.67239394169E+001, +1.49590460973E+002
+6.60434056761E+006, +2.66453061664E+001, +1.53548709723E+002
+6.77111853088E+006, +2.67966242547E+001, +1.57477066325E+002
+6.93789649416E+006, +2.67985004680E+001, +1.61364037407E+002
+7.10467445743E+006, +2.67945972224E+001, +1.65182701764E+002
+7.27145242070E+006, +2.68898950093E+001, +1.69262782853E+002
+7.43823038397E+006, +2.69516082855E+001, +1.73125792122E+002
+7.60500834725E+006, +2.69604149533E+001, +1.76882110833E+002
+7.77178631052E+006, +2.70967008567E+001, +1.80807044189E+002
+7.93856427379E+006, +2.68516780343E+001, +1.84802764492E+002
+8.10534223706E+006, +2.68059273953E+001, +1.88469807381E+002
+8.27212020033E+006, +2.69771741431E+001, +1.92585718202E+002
+8.43889816361E+006, +2.69638050753E+001, +1.96801214310E+002
+8.60567612688E+006, +2.66466333819E+001, +2.00630671169E+002
+8.77245409015E+006, +2.70499412742E+001, +2.04536209195E+002
+8.93923205342E+006, +2.71314282524E+001, +2.08949328355E+002
+9.10601001669E+006, +2.69686629347E+001, +2.12508060605E+002
+9.27278797997E+006, +2.72712850441E+001, +2.16902116776E+002
+9.43956594324E+006, +2.71449984785E+001, +2.20649904020E+002
+9.60634390651E+006, +2.70755933343E+001, +2.24532773012E+002
+9.77312186978E+006, +2.69669033052E+001, +2.28639915519E+002
+9.93989983306E+006, +2.67376331362E+001, +2.32482235218E+002
+1.01066777963E+007, +2.67919917156E+001, +2.36715761894E+002
+1.02734557596E+007, +2.68338891096E+001, +2.40325357544E+002
+1.04402337229E+007, +2.69975949279E+001, +2.44536742127E+002
+1.06070116861E+007, +2.68483057343E+001, +2.48788766476E+002
+1.07737896494E+007, +2.70687408557E+001, +2.52679487035E+002
+1.09405676127E+007, +2.70960549711E+001, +2.56957503191E+002
+1.11073455760E+007, +2.70318589452E+001, +2.61115696904E+002
+1.12741235392E+007, +2.70320207472E+001, +2.64852350992E+002
+1.14409015025E+007, +2.72288003689E+001, +2.68949295011E+002
+1.16076794658E+007, +2.76471610828E+001, +2.73483514664E+002
+1.17744574290E+007, +2.73954691253E+001, +2.77367970739E+002
+1.19412353923E+007, +2.73603813341E+001, +2.81713335378E+002
+1.21080133556E+007, +2.71796207585E+001, +2.85698811815E+002
+1.22747913189E+007, +2.69107293329E+001, +2.89210721674E+002
+1.24415692821E+007, +2.76706229529E+001, +2.93548427314E+002
+1.26083472454E+007, +2.77245499973E+001, +2.97696120208E+002
+1.27751252087E+007, +2.76711696996E+001, +3.01789115174E+002
+1.29419031720E+007, +2.74570399368E+001, +3.06014177725E+002
+1.31086811352E+007, +2.75676381004E+001, +3.10158225349E+002
+1.32754590985E+007, +2.83105280291E+001, +3.14486821325E+002
+1.34422370618E+007, +2.73228202943E+001, +3.18970967619E+002
+1.36090150250E+007, +2.80502511245E+001, +3.22534951319E+002
+1.37757929883E+007, +2.78788142420E+001, +3.26452952282E+002
+1.39425709516E+007, +2.81912191424E+001, +3.30713751800E+002
+1.41093489149E+007, +2.82373924095E+001, +3.34915472779E+002
+1.42761268781E+007, +2.76176831979E+001, +3.39523958499E+002
+1.44429048414E+007, +2.79226222066E+001, +3.43973645942E+002
+1.46096828047E+007, +2.80445739209E+001, +3.48372079926E+002
+1.47764607679E+007, +2.76235980841E+001, +3.52115521409E+002
+1.49432387312E+007, +2.78032356609E+001, +3.55920047762E+002
+1.51100166945E+007, +2.80941685571E+001, +3.60903140876E+002
+1.52767946578E+007, +2.81512795566E+001, +3.64219496473E+002
+1.54435726210E+007, +2.79528560058E+001, +3.69042701155E+002
+1.56103505843E+007, +2.84720563160E+001, +3.73277801178E+002
+1.57771285476E+007, +2.85978329677E+001, +3.77059276124E+002
+1.59439065109E+007, +2.87158438725E+001, +3.82067643782E+002
+1.61106844741E+007, +2.85477554851E+001, +3.85963196655E+002
+1.62774624374E+007, +2.78947340952E+001, +3.90193276676E+002
+1.64442404007E+007, +2.94960251108E+001, +3.94830637269E+002
+1.66110183639E+007, +2.92644217355E+001, +3.98147682522E+002
+1.67777963272E+007, +2.92071773208E+001, +4.02629246313E+002
+1.69445742905E+007, +2.85956060538E+001, +4.08246819000E+002
+1.71113522538E+007, +2.81721324396E+001, +4.13018596961E+002
+1.72781302170E+007, +2.85508279021E+001, +4.17541052813E+002
+1.74449081803E+007, +2.83107584307E+001, +4.21723557342E+002
+1.76116861436E+007, +2.77627432201E+001, +4.26246127157E+002
+1.77784641068E+007, +2.91789657692E+001, +4.29803838009E+002
+1.79452420701E+007, +2.96433560724E+001, +4.34944950218E+002
+1.81120200334E+007, +2.96645685835E+001, +4.39101705253E+002
+1.82787979967E+007, +2.94839989160E+001, +4.43019992824E+002
+1.84455759599E+007, +3.06513501252E+001, +4.48504096738E+002
+1.86123539232E+007, +2.99512258130E+001, +4.51827001723E+002
+1.87791318865E+007, +3.01156988456E+001, +4.56817655222E+002
+1.89459098497E+007, +3.01809543627E+001, +4.61159014289E+002
+1.91126878130E+007, +2.96606878238E+001, +4.66914292667E+002
+1.92794657763E+007, +3.05749727080E+001, +4.69464830244E+002
+1.94462437396E+007, +3.04114070174E+001, +4.74180813831E+002
+1.96130217028E+007, +3.13906459808E+001, +4.78907329044E+002
+1.97797996661E+007, +3.08750983537E+001, +4.84119516736E+002
+1.99465776294E+007, +3.14344799158E+001, +4.88799126889E+002
+2.01133555927E+007, +3.10240571416E+001, +4.92989592340E+002
+2.02801335559E+007, +3.14339077774E+001, +4.96955116784E+002
+2.04469115192E+007, +3.31639894949E+001, +5.02959602184E+002
+2.06136894825E+007, +3.28095028607E+001, +5.07020135643E+002
+2.07804674457E+007, +3.18091562830E+001, +5.12073513047E+002
+2.09472454090E+007, +3.12789276672E+001, +5.16708048016E+002
+2.11140233723E+007, +3.25294730770E+001, +5.21688460651E+002
+2.12808013356E+007, +3.22964603174E+001, +5.26205943013E+002
+2.14475792988E+007, +3.29963420899E+001, +5.30063418889E+002
+2.16143572621E+007, +3.37469066390E+001, +5.36011682646E+002
+2.17811352254E+007, +3.31497994864E+001, +5.41142540826E+002
+2.19479131886E+007, +3.24974243273E+001, +5.45383423588E+002
+2.21146911519E+007, +3.32795035967E+001, +5.49254248205E+002
+2.22814691152E+007, +3.43948012882E+001, +5.53208756877E+002
+2.24482470785E+007, +3.32091235163E+001, +5.59990130133E+002
+2.26150250417E+007, +3.47496864769E+001, +5.64741882022E+002
+2.27818030050E+007, +3.61145986255E+001, +5.68703836123E+002
+2.29485809683E+007, +3.52067407456E+001, +5.72971816544E+002
+2.31153589316E+007, +3.70210904532E+001, +5.77090281050E+002
+2.32821368948E+007, +3.73893961756E+001, +5.84522203653E+002
+2.34489148581E+007, +3.88449852058E+001, +5.88283443510E+002
+2.36156928214E+007, +3.76402634103E+001, +5.93273293941E+002
+2.37824707846E+007, +3.95592837323E+001, +5.97869205942E+002
+2.39492487479E+007, +3.95785883656E+001, +6.03550136709E+002
+2.41160267112E+007, +3.87671087141E+001, +6.09468589861E+002
+2.42828046745E+007, +3.79906802034E+001, +6.14189242045E+002
+2.44495826377E+007, +3.78512296717E+001, +6.18079177545E+002
+2.46163606010E+007, +3.77769574691E+001, +6.22216230549E+002
+2.47831385643E+007, +3.79747019840E+001, +6.27009274528E+002
+2.49499165275E+007, +3.83238910969E+001, +6.33331970462E+002
+2.51166944908E+007, +3.87003542743E+001, +6.39193039730E+002
+2.52834724541E+007, +4.13808812803E+001, +6.41767543144E+002
+2.54502504174E+007, +3.98702260944E+001, +6.47079865567E+002
+2.56170283806E+007, +4.23183733230E+001, +6.51125091719E+002
+2.57838063439E+007, +3.94250485546E+001, +6.57316715633E+002
+2.59505843072E+007, +4.12353398695E+001, +6.61506840758E+002
+2.61173622705E+007, +4.02109521146E+001, +6.66405557165E+002
+2.62841402337E+007, +4.13174655200E+001, +6.72972011188E+002
+2.64509181970E+007, +4.02098731219E+001, +6.76607657284E+002
+2.66176961603E+007, +4.22145230269E+001, +6.82643402673E+002
+2.67844741235E+007, +3.94984911236E+001, +6.87499371368E+002
+2.69512520868E+007, +4.22512988902E+001, +6.95418960518E+002
+2.71180300501E+007, +4.29205744006E+001, +7.01549060655E+002
+2.72848080134E+007, +4.30960456940E+001, +7.06766772177E+002
+2.74515859766E+007, +4.24433657905E+001, +7.11459445841E+002
+2.76183639399E+007, +4.38710595689E+001, +7.14872078179E+002
+2.77851419032E+007, +4.22086353388E+001, +7.21240989557E+002
+2.79519198664E+007, +4.33431077197E+001, +7.29059127431E+002
+2.81186978297E+007, +4.40852803518E+001, +7.33642570054E+002
+2.82854757930E+007, +4.28800234757E+001, +7.38200467756E+002
+2.84522537563E+007, +4.40542546129E+001, +7.43581703844E+002
+2.86190317195E+007, +4.14902140541E+001, +7.50705302592E+002
+2.87858096828E+007, +4.47738176775E+001, +7.57299614377E+002
+2.89525876461E+007, +4.35893637269E+001, +7.65355279740E+002
+2.91193656093E+007, +4.55062961783E+001, +7.67906254232E+002
+2.92861435726E+007, +4.40636511400E+001, +7.75608351368E+002
+2.94529215359E+007, +4.35093248282E+001, +7.80379816757E+002
+2.96196994992E+007, +4.17054582828E+001, +7.86655386178E+002
+2.97864774624E+007, +4.56086410539E+001, +7.92818469362E+002
+2.99532554257E+007, +4.51187434832E+001, +7.99356197617E+002
+3.01200333890E+007, +4.64860923808E+001, +8.00875832633E+002
+3.02868113523E+007, +4.65088661192E+001, +8.12233138272E+002
+3.04535893155E+007, +4.73090473530E+001, +8.15900229267E+002
+3.06203672788E+007, +4.67344405061E+001, +8.24093349074E+002
+3.07871452421E+007, +4.62573785334E+001, +8.29101951344E+002
+3.09539232053E+007, +4.87624549827E+001, +8.35492238240E+002
+3.11207011686E+007, +4.91085754032E+001, +8.43594167277E+002
+3.12874791319E+007, +5.08295142763E+001, +8.49565643519E+002
+3.14542570952E+007, +4.84577394690E+001, +8.54409044342E+002
+3.16210350584E+007, +4.97688747326E+001, +8.61118089387E+002
+3.17878130217E+007, +4.97607785994E+001, +8.70194956632E+002
+3.19545909850E+007, +4.88819116825E+001, +8.74421904670E+002
+3.21213689482E+007, +4.71313836688E+001, +8.79784308694E+002
+3.22881469115E+007, +5.00973162899E+001, +8.88653252330E+002
+3.24549248748E+007, +4.89561079180E+001, +8.95261133020E+002
+3.26217028381E+007, +5.26853942071E+001, +9.02691057276E+002
+3.27884808013E+007, +5.08912810783E+001, +9.07926434540E+002
+3.29552587646E+007, +5.11999299190E+001, +9.14387972062E+002
+3.31220367279E+007, +5.15365865314E+001, +9.24831500408E+002
+3.32888146912E+007, +5.08750800988E+001, +9.38437490166E+002
+3.34555926544E+007, +5.09525976832E+001, +9.39255448764E+002
+3.36223706177E+007, +5.34885811893E+001, +9.46580376789E+002
+3.37891485810E+007, +5.48756004212E+001, +9.51534760078E+002
+3.39559265442E+007, +5.27149182379E+001, +9.60831455691E+002
+3.41227045075E+007, +5.15313822043E+001, +9.68046142816E+002
+3.42894824708E+007, +5.83248064470E+001, +9.79100667741E+002
+3.44562604341E+007, +5.56931874412E+001, +9.82111044736E+002
+3.46230383973E+007, +5.25878577427E+001, +9.91724616079E+002
+3.47898163606E+007, +5.57751517847E+001, +9.97592860715E+002
+3.49565943239E+007, +5.73720718350E+001, +1.00370067243E+003
+3.51233722871E+007, +6.18145217639E+001, +1.01430198909E+003
+3.52901502504E+007, +5.67816736990E+001, +1.02141316326E+003
+3.54569282137E+007, +5.56908870158E+001, +1.03399177021E+003
+3.56237061770E+007, +5.53791309101E+001, +1.04113307226E+003
+3.57904841402E+007, +5.83015662398E+001, +1.04474177776E+003
+3.59572621035E+007, +5.70341112806E+001, +1.05280516385E+003
+3.61240400668E+007, +6.13119687876E+001, +1.06003464340E+003
+3.62908180301E+007, +5.91900665132E+001, +1.07191205563E+003
+3.64575959933E+007, +6.23232692208E+001, +1.07628030752E+003
+3.66243739566E+007, +5.81815187777E+001, +1.08956626069E+003
+3.67911519199E+007, +6.23275729982E+001, +1.09848646766E+003
+3.69579298831E+007, +6.12829897200E+001, +1.10498037526E+003
+3.71247078464E+007, +6.29135646539E+001, +1.11948889271E+003
+3.72914858097E+007, +6.71750203716E+001, +1.13139138848E+003
+3.74582637730E+007, +6.50339837395E+001, +1.13931390244E+003
+3.76250417362E+007, +6.68173234477E+001, +1.14580455200E+003
+3.77918196995E+007, +6.76461952043E+001, +1.15334074754E+003
+3.79585976628E+007, +6.54514193548E+001, +1.16659919648E+003
+3.81253756260E+007, +6.32108518658E+001, +1.17437831065E+003
+3.82921535893E+007, +6.68866292596E+001, +1.18857028118E+003
+3.84589315526E+007, +7.17016403896E+001, +1.19595957480E+003
+3.86257095159E+007, +6.70532101656E+001, +1.20629636351E+003
+3.87924874791E+007, +7.06217306429E+001, +1.21820130345E+003
+3.89592654424E+007, +7.69605734603E+001, +1.22733589881E+003
+3.91260434057E+007, +7.22558709219E+001, +1.24654810271E+003
+3.92928213689E+007, +7.63517078212E+001, +1.25928244097E+003
+3.94595993322E+007, +7.88705119039E+001, +1.25910006634E+003
+3.96263772955E+007, +7.90613877262E+001, +1.26882456769E+003
+3.97931552588E+007, +7.42952286541E+001, +1.27726399387E+003
+3.99599332220E+007, +7.67157895943E+001, +1.30132533821E+003
+4.01267111853E+007, +7.09591031145E+001, +1.30709656979E+003
+4.02934891486E+007, +7.65280791167E+001, +1.31682144898E+003
+4.04602671119E+007, +7.91290164288E+001, +1.33614150986E+003
+4.06270450751E+007, +7.85213575621E+001, +1.34530897325E+003
+4.07938230384E+007, +7.94855728345E+001, +1.36603544389E+003
+4.09606010017E+007, +7.90934139312E+001, +1.37314143479E+003
+4.11273789649E+007, +8.37905451259E+001, +1.38482873117E+003
+4.12941569282E+007, +9.40856649759E+001, +1.39247316607E+003
+4.14609348915E+007, +9.50626163599E+001, +1.40328731599E+003
+4.16277128548E+007, +9.15661040995E+001, +1.42779002335E+003
+4.17944908180E+007, +8.78769839007E+001, +1.43485021934E+003
+4.19612687813E+007, +8.43822801740E+001, +1.45534585205E+003
+4.21280467446E+007, +9.59170736056E+001, +1.46712575746E+003
+4.22948247078E+007, +9.46597396008E+001, +1.47753487278E+003
+4.24616026711E+007, +9.26678884533E+001, +1.49940753767E+003
+4.26283806344E+007, +9.52991681782E+001, +1.51404832892E+003
+4.27951585977E+007, +1.06625774529E+002, +1.53042440313E+003
+4.29619365609E+007, +1.02036992846E+002, +1.54996588902E+003
+4.31287145242E+007, +1.04981931544E+002, +1.57882353679E+003
+4.32954924875E+007, +1.12821685507E+002, +1.58584737392E+003
+4.34622704508E+007, +9.86406286692E+001, +1.60843540468E+003
+4.36290484140E+007, +9.81579085709E+001, +1.60905597516E+003
+4.37958263773E+007, +1.10800459180E+002, +1.63756063696E+003
+4.39626043406E+007, +1.27219922217E+002, +1.65120378869E+003
+4.41293823038E+007, +1.21032787915E+002, +1.66360900861E+003
+4.42961602671E+007, +1.25491707141E+002, +1.69554332060E+003
+4.44629382304E+007, +1.27994760731E+002, +1.71937454804E+003
+4.46297161937E+007, +1.33568719524E+002, +1.73018416061E+003
+4.47964941569E+007, +1.31628036210E+002, +1.76560513530E+003
+4.49632721202E+007, +1.48025617622E+002, +1.78711943957E+003
+4.51300500835E+007, +1.41541705155E+002, +1.80471935426E+003
+4.52968280467E+007, +1.60858647310E+002, +1.82814571990E+003
+4.54636060100E+007, +1.25586529415E+002, +1.83477915550E+003
+4.56303839733E+007, +1.57126033919E+002, +1.87625575290E+003
+4.57971619366E+007, +1.73552644986E+002, +1.88785311726E+003
+4.59639398998E+007, +1.64883506436E+002, +1.93794173816E+003
+4.61307178631E+007, +1.57717640339E+002, +1.94981727342E+003
+4.62974958264E+007, +1.87225407382E+002, +1.97537002966E+003
+4.64642737896E+007, +1.88868997817E+002, +2.00164052288E+003
+4.66310517529E+007, +2.04128164466E+002, +2.03662870073E+003
+4.67978297162E+007, +2.10236363697E+002, +2.06781765254E+003
+4.69646076795E+007, +2.20970648127E+002, +2.10233872997E+003
+4.71313856427E+007, +2.18902753130E+002, +2.14271102147E+003
+4.72981636060E+007, +2.30734301984E+002, +2.17545752875E+003
+4.74649415693E+007, +2.47165207331E+002, +2.20622326853E+003
+4.76317195326E+007, +2.51669006795E+002, +2.23730507593E+003
+4.77984974958E+007, +2.71458290819E+002, +2.27723266238E+003
+4.79652754591E+007, +2.74153124509E+002, +2.32006013859E+003
+4.81320534224E+007, +3.02985830857E+002, +2.33653449695E+003
+4.82988313856E+007, +3.28708717821E+002, +2.37812054614E+003
+4.84656093489E+007, +3.24369604227E+002, +2.45014508726E+003
+4.86323873122E+007, +3.53900367391E+002, +2.45463102603E+003
+4.87991652755E+007, +3.62032255763E+002, +2.50575581405E+003
+4.89659432387E+007, +4.08833368319E+002, +2.57082830577E+003
+4.91327212020E+007, +4.07897039010E+002, +2.58555479742E+003
+4.92994991653E+007, +4.58289705474E+002, +2.64122259386E+003
+4.94662771285E+007, +4.76562445630E+002, +2.67151405520E+003
+4.96330550918E+007, +5.08600307660E+002, +2.70822071486E+003
+4.97998330551E+007, +5.30115078739E+002, +2.74062990936E+003
+4.99666110184E+007, +5.60577577823E+002, +2.84202446541E+003
+5.01333889816E+007, +6.11364802333E+002, +2.87421119690E+003
+5.03001669449E+007, +6.57290049551E+002, +2.87790800016E+003
+5.04669449082E+007, +6.77846779698E+002, +2.95188097628E+003
+5.06337228715E+007, +6.99123353996E+002, +2.93244653430E+003
+5.08005008347E+007, +7.56960193613E+002, +3.01330986034E+003
+5.09672787980E+007, +7.49986023649E+002, +3.04708500395E+003
+5.11340567613E+007, +8.11698216797E+002, +3.13097165422E+003
+5.13008347245E+007, +8.37343280223E+002, +3.21143863127E+003
+5.14676126878E+007, +8.60395230147E+002, +3.22093233968E+003
+5.16343906511E+007, +9.21924237134E+002, +3.26930119323E+003
+5.18011686144E+007, +9.79109210622E+002, +3.33792466024E+003
+5.19679465776E+007, +9.73862758734E+002, +3.35850109358E+003
+5.21347245409E+007, +1.00886219670E+003, +3.47518319224E+003
+5.23015025042E+007, +1.02371951619E+003, +3.54816009359E+003
+5.24682804674E+007, +1.05519510417E+003, +3.62134926941E+003
+5.26350584307E+007, +1.20269008841E+003, +3.74508799994E+003
+5.28018363940E+007, +1.25401238091E+003, +3.82492409121E+003
+5.29686143573E+007, +1.25621919656E+003, +3.96124855458E+003
+5.31353923205E+007, +1.41018181817E+003, +4.05429339252E+003
+5.33021702838E+007, +1.45905060110E+003, +4.23977469125E+003
+5.34689482471E+007, +1.50426286766E+003, +4.43545901536E+003
