"# Channel 1"
"# Trace 1"
Frequency, Formatted Data, Formatted Data
+1.00000000000E+005, +7.23689194258E-001, +2.37434566105E+000
+2.25031289111E+005, +6.73966293669E-001, +5.26085900795E+000
+3.50062578223E+005, +7.31099429178E-001, +8.24872237825E+000
+4.75093867334E+005, +7.65855792890E-001, +1.11276860245E+001
+6.00125156446E+005, +7.51184415270E-001, +1.40564216020E+001
+7.25156445557E+005, +7.65877248689E-001, +1.69872932983E+001
+8.50187734668E+005, +7.87885973460E-001, +1.98900873643E+001
+9.75219023780E+005, +8.47593932112E-001, +2.27624448302E+001
+1.10025031289E+006, +8.83595612886E-001, +2.56269906645E+001
+1.22528160200E+006, +8.93914430160E-001, +2.85568816578E+001
+1.35031289111E+006, +9.28316670729E-001, +3.14710928312E+001
+1.47534418023E+006, +9.23979256792E-001, +3.43152337834E+001
+1.60037546934E+006, +9.90230196861E-001, +3.71980425795E+001
+1.72540675845E+006, +9.50046504821E-001, +4.00648317197E+001
+1.85043804756E+006, +1.06343674808E+000, +4.29657914386E+001
+1.97546933667E+006, +1.05904382874E+000, +4.58731594145E+001
+2.10050062578E+006, +1.06449506535E+000, +4.86448308880E+001
+2.22553191489E+006, +1.08856578629E+000, +5.15149013324E+001
+2.35056320401E+006, +1.13351467012E+000, +5.44281827485E+001
+2.47559449312E+006, +1.10385068102E+000, +5.72649528047E+001
+2.60062578223E+006, +1.04438646641E+000, +6.01165050295E+001
+2.72565707134E+006, +1.08087004359E+000, +6.30143538738E+001
+2.85068836045E+006, +1.07683013727E+000, +6.59351843462E+001
+2.97571964956E+006, +1.16728528326E+000, +6.88067696683E+001
+3.10075093867E+006, +9.87746629521E-001, +7.16644607711E+001
+3.22578222778E+006, +1.05522785461E+000, +7.45748511592E+001
+3.35081351690E+006, +1.21641452469E+000, +7.74021588861E+001
+3.47584480601E+006, +1.20853637235E+000, +8.03408931979E+001
+3.60087609512E+006, +1.15630146327E+000, +8.32965159639E+001
+3.72590738423E+006, +1.14867427032E+000, +8.61259889337E+001
+3.85093867334E+006, +1.23753051110E+000, +8.91026689202E+001
+3.97596996245E+006, +1.25812438345E+000, +9.18144678002E+001
+4.10100125156E+006, +1.25953185987E+000, +9.47779316561E+001
+4.22603254068E+006, +1.06051587908E+000, +9.76477709927E+001
+4.35106382979E+006, +1.01763446482E+000, +1.00471835823E+002
+4.47609511890E+006, +9.91237742819E-001, +1.03404433303E+002
+4.60112640801E+006, +1.06396962682E+000, +1.06371326642E+002
+4.72615769712E+006, +1.24323896627E+000, +1.09155194873E+002
+4.85118898623E+006, +1.23455866019E+000, +1.11985541396E+002
+4.97622027534E+006, +1.25682049537E+000, +1.15086559641E+002
+5.10125156446E+006, +1.32687493649E+000, +1.17984807648E+002
+5.22628285357E+006, +1.16168794335E+000, +1.20776781062E+002
+5.35131414268E+006, +1.11719145327E+000, +1.23552577118E+002
+5.47634543179E+006, +1.11271003247E+000, +1.26501115343E+002
+5.60137672090E+006, +1.32053820853E+000, +1.29702525190E+002
+5.72640801001E+006, +1.34946198564E+000, +1.32402579342E+002
+5.85143929912E+006, +1.51744764557E+000, +1.35429669249E+002
+5.97647058824E+006, +1.43231485195E+000, +1.38417149493E+002
+6.10150187735E+006, +1.33081240176E+000, +1.41057458405E+002
+6.22653316646E+006, +1.48360050773E+000, +1.44029681030E+002
+6.35156445557E+006, +1.38348280560E+000, +1.46951285344E+002
+6.47659574468E+006, +1.43309784970E+000, +1.49853203601E+002
+6.60162703379E+006, +1.50989434081E+000, +1.52763887389E+002
+6.72665832290E+006, +1.37102467485E+000, +1.55717636998E+002
+6.85168961202E+006, +1.53417455716E+000, +1.58574846906E+002
+6.97672090113E+006, +1.49797440643E+000, +1.61506661584E+002
+7.10175219024E+006, +1.61435977196E+000, +1.64445058079E+002
+7.22678347935E+006, +1.51741203465E+000, +1.67287415583E+002
+7.35181476846E+006, +1.59990840779E+000, +1.70351267685E+002
+7.47684605757E+006, +1.55091869356E+000, +1.73236653991E+002
+7.60187734668E+006, +1.60781464310E+000, +1.76267060271E+002
+7.72690863579E+006, +1.75291163618E+000, +1.78961747029E+002
+7.85193992491E+006, +1.50694713773E+000, +1.81892482581E+002
+7.97697121402E+006, +1.49260616295E+000, +1.85082506646E+002
+8.10200250313E+006, +1.62121644528E+000, +1.87742755603E+002
+8.22703379224E+006, +1.78064347778E+000, +1.90928216892E+002
+8.35206508135E+006, +1.82408288658E+000, +1.93776628051E+002
+8.47709637046E+006, +1.59363999854E+000, +1.96801509494E+002
+8.60212765957E+006, +1.60606692502E+000, +1.99687940677E+002
+8.72715894869E+006, +1.69889030720E+000, +2.02366597091E+002
+8.85219023780E+006, +1.75923977018E+000, +2.05234573521E+002
+8.97722152691E+006, +1.65155271033E+000, +2.08444904377E+002
+9.10225281602E+006, +1.66062850431E+000, +2.11368444611E+002
+9.22728410513E+006, +1.47119785501E+000, +2.14246009490E+002
+9.35231539424E+006, +1.58359324793E+000, +2.16964743568E+002
+9.47734668335E+006, +1.66711454969E+000, +2.20438854157E+002
+9.60237797247E+006, +1.65332812473E+000, +2.23388931977E+002
+9.72740926158E+006, +1.77797439436E+000, +2.26110317852E+002
+9.85244055069E+006, +1.71519793283E+000, +2.28967382433E+002
+9.97747183980E+006, +1.77135795401E+000, +2.32052515618E+002
+1.01025031289E+007, +1.32282236997E+000, +2.34786803852E+002
+1.02275344180E+007, +1.61137477293E+000, +2.38286763837E+002
+1.03525657071E+007, +1.44329901569E+000, +2.40524901795E+002
+1.04775969962E+007, +1.55999714983E+000, +2.43983655265E+002
+1.06026282854E+007, +1.70996895022E+000, +2.47075762156E+002
+1.07276595745E+007, +1.71795134556E+000, +2.50245808216E+002
+1.08526908636E+007, +1.50847253628E+000, +2.53018590678E+002
+1.09777221527E+007, +1.70922002882E+000, +2.55622362696E+002
+1.11027534418E+007, +1.63899971267E+000, +2.58654148270E+002
+1.12277847309E+007, +1.87399021742E+000, +2.61986997430E+002
+1.13528160200E+007, +1.49856842757E+000, +2.64764256050E+002
+1.14778473091E+007, +1.75309085389E+000, +2.67734462340E+002
+1.16028785982E+007, +1.51002933999E+000, +2.70243825948E+002
+1.17279098874E+007, +1.14914446474E+000, +2.73815111342E+002
+1.18529411765E+007, +1.54683765807E+000, +2.76173908707E+002
+1.19779724656E+007, +1.35329827452E+000, +2.79397040879E+002
+1.21030037547E+007, +1.15958599883E+000, +2.82563207449E+002
+1.22280350438E+007, +1.51292736935E+000, +2.86168782501E+002
+1.23530663329E+007, +1.70023439736E+000, +2.89062339793E+002
+1.24780976220E+007, +1.78564165558E+000, +2.91539429536E+002
+1.26031289111E+007, +1.78148491037E+000, +2.94618153408E+002
+1.27281602003E+007, +1.44059282902E+000, +2.97648529606E+002
+1.28531914894E+007, +1.59038651631E+000, +3.00417547999E+002
+1.29782227785E+007, +1.48326648006E+000, +3.03981666919E+002
+1.31032540676E+007, +1.63487442261E+000, +3.07203591025E+002
+1.32282853567E+007, +1.26034797125E+000, +3.09789693552E+002
+1.33533166458E+007, +1.37040422869E+000, +3.12958354888E+002
+1.34783479349E+007, +1.08722108006E+000, +3.15974319062E+002
+1.36033792240E+007, +1.15357147525E+000, +3.18890272965E+002
+1.37284105131E+007, +1.01589278353E+000, +3.22240076485E+002
+1.38534418023E+007, +1.86618449250E+000, +3.25568115982E+002
+1.39784730914E+007, +1.99408828058E+000, +3.28060512514E+002
+1.41035043805E+007, +1.21392870963E+000, +3.31304329707E+002
+1.42285356696E+007, +1.50384518379E+000, +3.35066457093E+002
+1.43535669587E+007, +1.98789826002E+000, +3.37182289630E+002
+1.44785982478E+007, +1.80088116779E+000, +3.41215562990E+002
+1.46036295369E+007, +1.78547246585E+000, +3.43831607566E+002
+1.47286608260E+007, +1.26201935154E+000, +3.45895964830E+002
+1.48536921151E+007, +1.55461569525E+000, +3.49428254899E+002
+1.49787234043E+007, +1.78676142818E+000, +3.53194331761E+002
+1.51037546934E+007, +1.61140590215E+000, +3.56010395008E+002
+1.52287859825E+007, +1.36112614198E+000, +3.59427132700E+002
+1.53538172716E+007, +1.24488304128E+000, +3.62073109911E+002
+1.54788485607E+007, +1.43963591157E+000, +3.65049734789E+002
+1.56038798498E+007, +1.32751657510E+000, +3.69043229122E+002
+1.57289111389E+007, +1.03437114918E+000, +3.71431412427E+002
+1.58539424280E+007, +1.68271337363E+000, +3.74988261103E+002
+1.59789737171E+007, +1.46038552588E+000, +3.77277856548E+002
+1.61040050063E+007, +1.81511055597E+000, +3.80604199375E+002
+1.62290362954E+007, +7.29030913900E-001, +3.84209174439E+002
+1.63540675845E+007, +1.42141176084E+000, +3.87090715696E+002
+1.64790988736E+007, +2.32671207802E+000, +3.90244664650E+002
+1.66041301627E+007, +2.51791294973E+000, +3.93562903905E+002
+1.67291614518E+007, +1.31820502124E+000, +3.96204526823E+002
+1.68541927409E+007, +1.31226262715E+000, +3.99672073529E+002
+1.69792240300E+007, +1.53132673706E+000, +4.03039275739E+002
+1.71042553191E+007, -3.33916332597E-001, +4.05993225424E+002
+1.72292866083E+007, +7.70154159185E-001, +4.09369986785E+002
+1.73543178974E+007, +1.33517625914E+000, +4.12689217800E+002
+1.74793491865E+007, +4.05433405088E-001, +4.15397285211E+002
+1.76043804756E+007, +9.26482403846E-001, +4.18351361738E+002
+1.77294117647E+007, +5.31702280252E-001, +4.22640640474E+002
+1.78544430538E+007, +2.07504742738E-002, +4.25327490965E+002
+1.79794743429E+007, +4.75582504484E-001, +4.28348395215E+002
+1.81045056320E+007, +5.85860373623E-001, +4.32850647613E+002
+1.82295369212E+007, +6.88111541300E-001, +4.34609973551E+002
+1.83545682103E+007, +4.71016296576E-001, +4.38751379403E+002
+1.84795994994E+007, +1.50645353830E+000, +4.42645941702E+002
+1.86046307885E+007, +2.74098406500E-001, +4.44744269799E+002
+1.87296620776E+007, +8.27512950167E-001, +4.47507375291E+002
+1.88546933667E+007, +1.13400160405E+000, +4.51467818282E+002
+1.89797246558E+007, +9.28995270604E-001, +4.54735008895E+002
+1.91047559449E+007, +1.43215932507E+000, +4.55925641208E+002
+1.92297872340E+007, +5.23540042570E-001, +4.61210066942E+002
+1.93548185232E+007, +1.26928179742E+000, +4.63746773966E+002
+1.94798498123E+007, +4.74735890855E-001, +4.68226038212E+002
+1.96048811014E+007, +1.86769706347E+000, +4.71011304375E+002
+1.97299123905E+007, +1.04030587990E+000, +4.75505669537E+002
+1.98549436796E+007, +1.77105843651E+000, +4.77396378767E+002
+1.99799749687E+007, +7.54779507702E-001, +4.81775262248E+002
+2.01050062578E+007, +1.87258405694E+000, +4.84868251496E+002
+2.02300375469E+007, +2.69677004046E-001, +4.87569776380E+002
+2.03550688360E+007, +8.15065712607E-001, +4.90151084857E+002
+2.04801001252E+007, +6.21497268200E-001, +4.94220579048E+002
+2.06051314143E+007, +1.53100313358E+000, +4.98102326171E+002
+2.07301627034E+007, +1.17603532106E+000, +5.01839512699E+002
+2.08551939925E+007, +2.44439007746E+000, +5.03818258510E+002
+2.09802252816E+007, +4.27665232656E-001, +5.07248461539E+002
+2.11052565707E+007, +1.61865062302E+000, +5.12239892587E+002
+2.12302878598E+007, +4.91886119769E-001, +5.15108796151E+002
+2.13553191489E+007, +1.05059944546E-001, +5.19201919809E+002
+2.14803504380E+007, +9.17458974384E-001, +5.22585452901E+002
+2.16053817272E+007, +1.23700545736E+000, +5.26412298424E+002
+2.17304130163E+007, +2.06121937544E+000, +5.29368808343E+002
+2.18554443054E+007, +1.87581585658E+000, +5.31484322811E+002
+2.19804755945E+007, +2.55903094242E+000, +5.35463038371E+002
+2.21055068836E+007, +1.28149830720E+000, +5.39045083568E+002
+2.22305381727E+007, +5.50596787622E-001, +5.43178153494E+002
+2.23555694618E+007, +1.49860419094E+000, +5.46211828535E+002
+2.24806007509E+007, +1.93307617011E+000, +5.51071823984E+002
+2.26056320401E+007, +2.43208952742E+000, +5.54711975085E+002
+2.27306633292E+007, +2.56412351391E+000, +5.58118246093E+002
+2.28556946183E+007, +4.64213125653E+000, +5.63632078427E+002
+2.29807259074E+007, +4.79092530030E+000, +5.64858556040E+002
+2.31057571965E+007, +4.02227733939E+000, +5.67413677700E+002
+2.32307884856E+007, +5.09271512236E+000, +5.70086389919E+002
+2.33558197747E+007, +3.03246270801E+000, +5.75733558044E+002
+2.34808510638E+007, +4.67524437770E+000, +5.77357439230E+002
+2.36058823529E+007, +4.43341867422E+000, +5.81845844909E+002
+2.37309136421E+007, +4.67022206696E+000, +5.84770218266E+002
+2.38559449312E+007, +6.03180744055E+000, +5.88143755572E+002
+2.39809762203E+007, +4.94552667768E+000, +5.91971775386E+002
+2.41060075094E+007, +3.35225573308E+000, +5.95368224415E+002
+2.42310387985E+007, +4.75966327094E+000, +5.99273092461E+002
+2.43560700876E+007, +5.10402387596E+000, +6.01222884075E+002
+2.44811013767E+007, +4.30338722854E+000, +6.07237539345E+002
+2.46061326658E+007, +5.28495106464E+000, +6.09804788046E+002
+2.47311639549E+007, +4.40028536964E+000, +6.11807053791E+002
+2.48561952441E+007, +4.07369492449E+000, +6.16720363941E+002
+2.49812265332E+007, +5.26471531938E+000, +6.19543903619E+002
+2.51062578223E+007, +4.75842049143E+000, +6.24980265807E+002
+2.52312891114E+007, +6.94917948864E+000, +6.26339640386E+002
+2.53563204005E+007, +4.73586549221E+000, +6.30672727526E+002
+2.54813516896E+007, +3.43025094714E+000, +6.33870880246E+002
+2.56063829787E+007, +4.10114157639E+000, +6.36093794377E+002
+2.57314142678E+007, +5.68466220222E+000, +6.44103648410E+002
+2.58564455569E+007, +3.51224316822E+000, +6.44395348375E+002
+2.59814768461E+007, +4.06803889201E+000, +6.49285595063E+002
+2.61065081352E+007, +3.36090505232E+000, +6.51465393935E+002
+2.62315394243E+007, +5.08535375690E+000, +6.57019736431E+002
+2.63565707134E+007, +4.28933333293E+000, +6.61268004011E+002
+2.64816020025E+007, +3.94336953775E+000, +6.61965260268E+002
+2.66066332916E+007, +2.93710214571E+000, +6.68122187343E+002
+2.67316645807E+007, +4.31832710141E+000, +6.68591682180E+002
+2.68566958698E+007, +4.94141444339E+000, +6.75725368270E+002
+2.69817271589E+007, +4.38114306826E+000, +6.82348873742E+002
+2.71067584481E+007, +4.83930487110E+000, +6.81795062120E+002
+2.72317897372E+007, +3.90907713839E+000, +6.87697299915E+002
+2.73568210263E+007, +7.36269511405E+000, +6.90435786521E+002
+2.74818523154E+007, +3.50177964960E+000, +6.95074663443E+002
+2.76068836045E+007, +5.88940915913E+000, +6.97989532914E+002
+2.77319148936E+007, +3.68659692201E+000, +7.01140880694E+002
+2.78569461827E+007, +4.20153848710E+000, +7.08616684846E+002
+2.79819774718E+007, +3.51964315003E+000, +7.12310955751E+002
+2.81070087610E+007, +4.68528850420E+000, +7.15428688775E+002
+2.82320400501E+007, +4.28475970486E+000, +7.20892269706E+002
+2.83570713392E+007, +3.54357921873E+000, +7.24788372835E+002
+2.84821026283E+007, +6.27647628956E+000, +7.27176349280E+002
+2.86071339174E+007, +2.56125909920E+000, +7.35018960487E+002
+2.87321652065E+007, +4.23850993764E+000, +7.38014514060E+002
+2.88571964956E+007, +2.84581723378E+000, +7.38459609965E+002
+2.89822277847E+007, +3.65810268633E+000, +7.44124114386E+002
+2.91072590738E+007, +4.77199259548E+000, +7.45321871082E+002
+2.92322903630E+007, +1.72874835138E-001, +7.53914697555E+002
+2.93573216521E+007, +5.89410239504E+000, +7.54942471863E+002
+2.94823529412E+007, +4.81252480812E+000, +7.61824945006E+002
+2.96073842303E+007, +4.49004151184E+000, +7.66906879877E+002
+2.97324155194E+007, +3.97504505717E+000, +7.67496452881E+002
+2.98574468085E+007, +3.63498235734E+000, +7.75092549398E+002
+2.99824780976E+007, +4.13532806322E+000, +7.74424769311E+002
+3.01075093867E+007, +5.88110656933E+000, +7.82157796965E+002
+3.02325406758E+007, +4.94627157789E+000, +7.84387286082E+002
+3.03575719650E+007, +2.55480987404E+000, +7.90361832725E+002
+3.04826032541E+007, +4.04455286040E+000, +7.98616242114E+002
+3.06076345432E+007, +3.41482007630E+000, +7.99696244991E+002
+3.07326658323E+007, +6.63343792142E+000, +8.06115361152E+002
+3.08576971214E+007, +4.34897986222E+000, +8.08432399271E+002
+3.09827284105E+007, +2.66086640790E+000, +8.14883855711E+002
+3.11077596996E+007, +1.21201542861E+000, +8.19145525791E+002
+3.12327909887E+007, +1.71429940180E+000, +8.21436185352E+002
+3.13578222778E+007, +2.74295426648E+000, +8.27566984120E+002
+3.14828535670E+007, +1.64673811390E+000, +8.30871093896E+002
+3.16078848561E+007, +8.28638938148E+000, +8.37671746888E+002
+3.17329161452E+007, +6.60232642045E+000, +8.37260025226E+002
+3.18579474343E+007, +2.69633731942E+000, +8.45210494460E+002
+3.19829787234E+007, +1.31354224232E+000, +8.52484168099E+002
+3.21080100125E+007, +4.89283306410E+000, +8.56725002530E+002
+3.22330413016E+007, +6.57282370530E+000, +8.59016216440E+002
+3.23580725907E+007, +1.00815261421E+000, +8.64976249071E+002
+3.24831038798E+007, +4.97715742330E+000, +8.73224025770E+002
+3.26081351690E+007, +5.56484732549E+000, +8.73697095183E+002
+3.27331664581E+007, +5.85498127236E+000, +8.76874752221E+002
+3.28581977472E+007, +4.16740280592E+000, +8.84590217748E+002
+3.29832290363E+007, +4.25619678228E-002, +8.93086526114E+002
+3.31082603254E+007, +6.51229028678E+000, +8.94458954830E+002
+3.32332916145E+007, +1.47980908919E+000, +9.00535401440E+002
+3.33583229036E+007, +4.72478934484E-001, +9.05414700201E+002
+3.34833541927E+007, +3.83253830267E+000, +9.06790526080E+002
+3.36083854819E+007, +1.07537265334E+000, +9.16668892478E+002
+3.37334167710E+007, +4.41611312013E+000, +9.17264225381E+002
+3.38584480601E+007, +2.71400037893E+000, +9.26288529639E+002
+3.39834793492E+007, +2.90088473120E+000, +9.33456084709E+002
+3.41085106383E+007, +6.26118718502E+000, +9.33751669513E+002
+3.42335419274E+007, +7.38046958222E+000, +9.42535886185E+002
+3.43585732165E+007, +2.27561793942E+000, +9.47438238214E+002
+3.44836045056E+007, +5.49897925979E+000, +9.50901311968E+002
+3.46086357947E+007, +6.95140095356E+000, +9.60232029500E+002
+3.47336670839E+007, +1.54308659595E+000, +9.61801835597E+002
+3.48586983730E+007, +6.21556282983E+000, +9.64590996377E+002
+3.49837296621E+007, +7.20056963885E+000, +9.70067333878E+002
+3.51087609512E+007, -9.74873194598E-001, +9.80318666181E+002
+3.52337922403E+007, +7.94222365853E+000, +9.86741825832E+002
+3.53588235294E+007, +8.50158605167E+000, +9.91281253438E+002
+3.54838548185E+007, +5.80971102773E+000, +9.96071655605E+002
+3.56088861076E+007, +5.82809908753E+000, +1.00395039672E+003
+3.57339173967E+007, +5.92864604896E+000, +1.01032800174E+003
+3.58589486859E+007, +1.04611932991E+001, +1.01449759304E+003
+3.59839799750E+007, +5.85838160580E+000, +1.02465719385E+003
+3.61090112641E+007, +1.53527583436E+000, +1.02480395013E+003
+3.62340425532E+007, +5.70859883784E+000, +1.02987440133E+003
+3.63590738423E+007, +1.27945723464E+001, +1.03723330360E+003
+3.64841051314E+007, +4.16509129430E+000, +1.04483257133E+003
+3.66091364205E+007, +8.04432641912E+000, +1.04733437238E+003
+3.67341677096E+007, +3.48161212780E+000, +1.05909200989E+003
+3.68591989987E+007, +1.17057393764E+001, +1.06415970650E+003
+3.69842302879E+007, +4.68630827584E+000, +1.07665914915E+003
+3.71092615770E+007, +8.19729844383E+000, +1.07341454871E+003
+3.72342928661E+007, +9.11427265333E+000, +1.08026461892E+003
+3.73593241552E+007, +3.78145012251E+000, +1.08275435976E+003
+3.74843554443E+007, +9.43871785390E+000, +1.09611492668E+003
+3.76093867334E+007, +2.17591237546E+000, +1.09804896682E+003
+3.77344180225E+007, +6.86244869806E+000, +1.10823369409E+003
+3.78594493116E+007, +7.97529147460E+000, +1.11528693605E+003
+3.79844806008E+007, +2.47389221632E+000, +1.12201960566E+003
+3.81095118899E+007, +7.52497548119E+000, +1.12952384188E+003
+3.82345431790E+007, +8.94756040158E+000, +1.13962050384E+003
+3.83595744681E+007, +7.88549084067E+000, +1.14367106655E+003
+3.84846057572E+007, +1.12614664347E+001, +1.15245471479E+003
+3.86096370463E+007, +4.20240125721E+000, +1.16001967180E+003
+3.87346683354E+007, +5.95500466398E+000, +1.16295705496E+003
+3.88596996245E+007, +1.51563837433E+001, +1.17342668126E+003
+3.89847309136E+007, +1.06393652941E+001, +1.18479175842E+003
+3.91097622028E+007, +1.19636158294E+001, +1.18760605881E+003
+3.92347934919E+007, +1.36188642495E+001, +1.20148568302E+003
+3.93598247810E+007, +1.26925786897E+001, +1.20361927812E+003
+3.94848560701E+007, +1.68243766200E+001, +1.20690880755E+003
+3.96098873592E+007, +1.13449682804E+001, +1.22411279376E+003
+3.97349186483E+007, +1.46773423601E+001, +1.22072240878E+003
+3.98599499374E+007, +1.43655923108E+001, +1.23254058821E+003
+3.99849812265E+007, +1.32144177062E+001, +1.24395073858E+003
+4.01100125156E+007, +1.22026747083E+001, +1.24755450686E+003
