"# Channel 1"
"# Trace 1"
Frequency, Formatted Data, Formatted Data
+1.00000000000E+005, +2.56805638891E+001, +2.09985455459E+000
+2.87609511890E+005, +2.56339322848E+001, +6.13358468397E+000
+4.75219023780E+005, +2.56449195701E+001, +1.01345364618E+001
+6.62828535670E+005, +2.56470083416E+001, +1.41409601471E+001
+8.50438047559E+005, +2.56516037191E+001, +1.81493006196E+001
+1.03804755945E+006, +2.56392178263E+001, +2.21342690363E+001
+1.22565707134E+006, +2.55826241163E+001, +2.61185445892E+001
+1.41326658323E+006, +2.56143630257E+001, +3.00984704005E+001
+1.60087609512E+006, +2.55681785285E+001, +3.41464718443E+001
+1.78848560701E+006, +2.55843686175E+001, +3.81189456426E+001
+1.97609511890E+006, +2.56157559332E+001, +4.21234807896E+001
+2.16370463079E+006, +2.55217481883E+001, +4.61809340673E+001
+2.35131414268E+006, +2.55111998293E+001, +5.01234770956E+001
+2.53892365457E+006, +2.55374691783E+001, +5.41952155266E+001
+2.72653316646E+006, +2.55700205620E+001, +5.81866702112E+001
+2.91414267835E+006, +2.55726878582E+001, +6.22010677073E+001
+3.10175219024E+006, +2.56647434791E+001, +6.62791956382E+001
+3.28936170213E+006, +2.57273171537E+001, +7.02864599735E+001
+3.47697121402E+006, +2.55428752846E+001, +7.44591752366E+001
+3.66458072591E+006, +2.57189686195E+001, +7.83159279741E+001
+3.85219023780E+006, +2.55879112492E+001, +8.23670179021E+001
+4.03979974969E+006, +2.56393961348E+001, +8.65575523637E+001
+4.22740926158E+006, +2.57993645473E+001, +9.04593896298E+001
+4.41501877347E+006, +2.55676334088E+001, +9.43217926401E+001
+4.60262828536E+006, +2.55787586063E+001, +9.85992069229E+001
+4.79023779725E+006, +2.54886940963E+001, +1.02696459978E+002
+4.97784730914E+006, +2.57733092563E+001, +1.06942272004E+002
+5.16545682103E+006, +2.58284280542E+001, +1.10803211061E+002
+5.35306633292E+006, +2.58972427481E+001, +1.14941501521E+002
+5.54067584481E+006, +2.58773689760E+001, +1.19111494275E+002
+5.72828535670E+006, +2.55167054901E+001, +1.23316248070E+002
+5.91589486859E+006, +2.56871614031E+001, +1.27437985585E+002
+6.10350438048E+006, +2.56087638463E+001, +1.31764245218E+002
+6.29111389237E+006, +2.60022349454E+001, +1.35737837562E+002
+6.47872340426E+006, +2.60174054871E+001, +1.40074474443E+002
+6.66633291615E+006, +2.61974688371E+001, +1.44047386945E+002
+6.85394242804E+006, +2.63323853065E+001, +1.48422515556E+002
+7.04155193992E+006, +2.63179462569E+001, +1.52316375687E+002
+7.22916145181E+006, +2.63116836485E+001, +1.56493487688E+002
+7.41677096370E+006, +2.64647399876E+001, +1.60865271720E+002
+7.60438047559E+006, +2.64597284619E+001, +1.65204236355E+002
+7.79198998748E+006, +2.66639697442E+001, +1.69427365206E+002
+7.97959949937E+006, +2.65221766988E+001, +1.73730872146E+002
+8.16720901126E+006, +2.66705730746E+001, +1.78210882791E+002
+8.35481852315E+006, +2.66691838129E+001, +1.82332969348E+002
+8.54242803504E+006, +2.67599844310E+001, +1.86304773978E+002
+8.73003754693E+006, +2.68540067181E+001, +1.90976406489E+002
+8.91764705882E+006, +2.68738862106E+001, +1.95065313775E+002
+9.10525657071E+006, +2.68556543454E+001, +1.99492726017E+002
+9.29286608260E+006, +2.71342502719E+001, +2.03999724680E+002
+9.48047559449E+006, +2.69246063396E+001, +2.08198898240E+002
+9.66808510638E+006, +2.69747987441E+001, +2.12767941086E+002
+9.85569461827E+006, +2.72265688437E+001, +2.16802636880E+002
+1.00433041302E+007, +2.71827769290E+001, +2.21311683974E+002
+1.02309136421E+007, +2.72333699559E+001, +2.25855534079E+002
+1.04185231539E+007, +2.75969165150E+001, +2.30391452559E+002
+1.06061326658E+007, +2.74701278998E+001, +2.34885119274E+002
+1.07937421777E+007, +2.74640533907E+001, +2.39253534568E+002
+1.09813516896E+007, +2.77712362687E+001, +2.43769331092E+002
+1.11689612015E+007, +2.75783583489E+001, +2.48276126756E+002
+1.13565707134E+007, +2.74072737120E+001, +2.52805894467E+002
+1.15441802253E+007, +2.80073184843E+001, +2.57326173351E+002
+1.17317897372E+007, +2.76822581489E+001, +2.62042334506E+002
+1.19193992491E+007, +2.80700137741E+001, +2.66928413287E+002
+1.21070087610E+007, +2.82880318994E+001, +2.71185802570E+002
+1.22946182728E+007, +2.82260427734E+001, +2.75842017549E+002
+1.24822277847E+007, +2.78738728638E+001, +2.81158000837E+002
+1.26698372966E+007, +2.79762311877E+001, +2.85467312911E+002
+1.28574468085E+007, +2.78885955547E+001, +2.89785592625E+002
+1.30450563204E+007, +2.85870987494E+001, +2.94955420382E+002
+1.32326658323E+007, +2.86387261833E+001, +2.99652642214E+002
+1.34202753442E+007, +2.79048678323E+001, +3.04299793764E+002
+1.36078848561E+007, +2.84785873774E+001, +3.09330584853E+002
+1.37954943680E+007, +2.86196379957E+001, +3.14245463808E+002
+1.39831038798E+007, +2.87107080676E+001, +3.19393815488E+002
+1.41707133917E+007, +2.89952353174E+001, +3.24030229437E+002
+1.43583229036E+007, +2.91600139191E+001, +3.29510505041E+002
+1.45459324155E+007, +2.91948987262E+001, +3.33897274161E+002
+1.47335419274E+007, +2.96467593551E+001, +3.38629066943E+002
+1.49211514393E+007, +2.88685584897E+001, +3.43351794938E+002
+1.51087609512E+007, +2.93413652372E+001, +3.49101977651E+002
+1.52963704631E+007, +2.95064879592E+001, +3.54483076248E+002
+1.54839799750E+007, +3.00896595019E+001, +3.59625990398E+002
+1.56715894869E+007, +2.99107364723E+001, +3.64448466079E+002
+1.58591989987E+007, +3.09195596978E+001, +3.69040546955E+002
+1.60468085106E+007, +2.98777570459E+001, +3.74571023250E+002
+1.62344180225E+007, +3.02397113119E+001, +3.80610167741E+002
+1.64220275344E+007, +3.00063997427E+001, +3.85983021792E+002
+1.66096370463E+007, +3.05507223463E+001, +3.91031370200E+002
+1.67972465582E+007, +2.99363583448E+001, +3.96769825837E+002
+1.69848560701E+007, +3.03314645209E+001, +4.01440024323E+002
+1.71724655820E+007, +2.92294664167E+001, +4.07479214319E+002
+1.73600750939E+007, +2.99763511908E+001, +4.12706287723E+002
+1.75476846058E+007, +2.99043807614E+001, +4.18268412938E+002
+1.77352941176E+007, +3.11575365099E+001, +4.22997252833E+002
+1.79229036295E+007, +3.11644938317E+001, +4.29703412985E+002
+1.81105131414E+007, +3.18508410610E+001, +4.34720636653E+002
+1.82981226533E+007, +3.17230146802E+001, +4.41230187035E+002
+1.84857321652E+007, +3.24989339508E+001, +4.47946905991E+002
+1.86733416771E+007, +3.13992795816E+001, +4.51639847284E+002
+1.88609511890E+007, +3.15897900579E+001, +4.58230276582E+002
+1.90485607009E+007, +3.24387923295E+001, +4.63825840861E+002
+1.92361702128E+007, +3.24397378445E+001, +4.69924466636E+002
+1.94237797247E+007, +3.25409039735E+001, +4.75938940087E+002
+1.96113892365E+007, +3.30931911724E+001, +4.81896046291E+002
+1.97989987484E+007, +3.22048905281E+001, +4.89252283056E+002
+1.99866082603E+007, +3.19291664301E+001, +4.94340148217E+002
+2.01742177722E+007, +3.25846564174E+001, +4.99925947805E+002
+2.03618272841E+007, +3.34042362714E+001, +5.06108624054E+002
+2.05494367960E+007, +3.36588958230E+001, +5.14518992234E+002
+2.07370463079E+007, +3.48749978181E+001, +5.19560399137E+002
+2.09246558198E+007, +3.44931463330E+001, +5.26992269555E+002
+2.11122653317E+007, +3.61919272047E+001, +5.31417361308E+002
+2.12998748436E+007, +3.54006521231E+001, +5.40303915565E+002
+2.14874843554E+007, +3.45639827873E+001, +5.45342821167E+002
+2.16750938673E+007, +3.59268334696E+001, +5.53088747356E+002
+2.18627033792E+007, +3.66528749017E+001, +5.58606286311E+002
+2.20503128911E+007, +3.48064090356E+001, +5.65377960376E+002
+2.22379224030E+007, +3.57985411173E+001, +5.72773465019E+002
+2.24255319149E+007, +3.66640933878E+001, +5.78466169593E+002
+2.26131414268E+007, +3.79137619108E+001, +5.85135737914E+002
+2.28007509387E+007, +3.95008227209E+001, +5.92514570049E+002
+2.29883604506E+007, +4.03456708182E+001, +6.01682496774E+002
+2.31759699625E+007, +3.91210548990E+001, +6.08314304972E+002
+2.33635794743E+007, +4.16482052406E+001, +6.14222477728E+002
+2.35511889862E+007, +4.06300893259E+001, +6.26353605049E+002
+2.37387984981E+007, +3.95603739376E+001, +6.30871490532E+002
+2.39264080100E+007, +4.17337469179E+001, +6.39792063378E+002
+2.41140175219E+007, +4.11869408771E+001, +6.45512050281E+002
+2.43016270338E+007, +4.21666697571E+001, +6.53785165570E+002
+2.44892365457E+007, +4.32690983088E+001, +6.61072150994E+002
+2.46768460576E+007, +4.33827271503E+001, +6.67529931086E+002
+2.48644555695E+007, +4.29236888295E+001, +6.76318898742E+002
+2.50520650814E+007, +4.24263545377E+001, +6.83415622638E+002
+2.52396745932E+007, +4.44305093749E+001, +6.91648854003E+002
+2.54272841051E+007, +4.72501083661E+001, +7.01000714932E+002
+2.56148936170E+007, +4.61324288575E+001, +7.07703685061E+002
+2.58025031289E+007, +4.67318837327E+001, +7.17030793623E+002
+2.59901126408E+007, +4.45752794086E+001, +7.26497405884E+002
+2.61777221527E+007, +4.46207403968E+001, +7.36204798420E+002
+2.63653316646E+007, +4.40741075979E+001, +7.41236853514E+002
+2.65529411765E+007, +4.68063784992E+001, +7.46844330561E+002
+2.67405506884E+007, +4.46344197303E+001, +7.61544852434E+002
+2.69281602003E+007, +4.96531227301E+001, +7.71597788218E+002
+2.71157697121E+007, +5.05666527756E+001, +7.79625303091E+002
+2.73033792240E+007, +4.82509598134E+001, +7.89100640030E+002
+2.74909887359E+007, +5.22325320709E+001, +8.02251867634E+002
+2.76785982478E+007, +5.41251489129E+001, +8.06768760671E+002
+2.78662077597E+007, +5.45393723946E+001, +8.10927558605E+002
+2.80538172716E+007, +5.46025366234E+001, +8.24005807168E+002
+2.82414267835E+007, +5.15734964406E+001, +8.32364236634E+002
+2.84290362954E+007, +4.96161972842E+001, +8.44806976200E+002
+2.86166458073E+007, +5.40931924414E+001, +8.54501772752E+002
+2.88042553191E+007, +4.81031601001E+001, +8.62113268388E+002
+2.89918648310E+007, +4.99431886588E+001, +8.75594182559E+002
+2.91794743429E+007, +5.00762465281E+001, +8.88263141103E+002
+2.93670838548E+007, +5.69062715812E+001, +8.98925574213E+002
+2.95546933667E+007, +5.51578166174E+001, +9.05984072553E+002
+2.97423028786E+007, +5.39826868098E+001, +9.23284145004E+002
+2.99299123905E+007, +5.54861276084E+001, +9.33428888576E+002
+3.01175219024E+007, +6.20860055486E+001, +9.45496599138E+002
+3.03051314143E+007, +5.33785957425E+001, +9.57297183469E+002
+3.04927409262E+007, +5.93337613526E+001, +9.66697870791E+002
+3.06803504380E+007, +5.69801012731E+001, +9.81284962600E+002
+3.08679599499E+007, +6.00973232645E+001, +9.94549562955E+002
+3.10555694618E+007, +5.40492022408E+001, +1.01194963051E+003
+3.12431789737E+007, +5.65810690226E+001, +1.02363987518E+003
+3.14307884856E+007, +6.18360993114E+001, +1.03766685332E+003
+3.16183979975E+007, +6.32621107617E+001, +1.04436537398E+003
+3.18060075094E+007, +6.04758897589E+001, +1.06340809513E+003
+3.19936170213E+007, +6.07850994348E+001, +1.07795900049E+003
+3.21812265332E+007, +5.32746193899E+001, +1.08718590238E+003
+3.23688360451E+007, +6.17629407840E+001, +1.10121594954E+003
+3.25564455569E+007, +6.55153567782E+001, +1.11842445600E+003
+3.27440550688E+007, +6.00332534175E+001, +1.13779140616E+003
+3.29316645807E+007, +6.17891983577E+001, +1.13982979209E+003
+3.31192740926E+007, +6.91789186381E+001, +1.16634298713E+003
+3.33068836045E+007, +6.88861768705E+001, +1.17736303396E+003
+3.34944931164E+007, +6.96605343353E+001, +1.19684085608E+003
+3.36821026283E+007, +7.02624022499E+001, +1.21520113821E+003
+3.38697121402E+007, +7.29834432572E+001, +1.23194020774E+003
+3.40573216521E+007, +7.17541190233E+001, +1.25096190987E+003
+3.42449311640E+007, +7.43720469529E+001, +1.26588724746E+003
+3.44325406758E+007, +7.56736295906E+001, +1.29336999831E+003
+3.46201501877E+007, +7.51754898604E+001, +1.30697164905E+003
+3.48077596996E+007, +8.46137300101E+001, +1.31983804194E+003
+3.49953692115E+007, +7.67344879169E+001, +1.34886402503E+003
+3.51829787234E+007, +7.79848392160E+001, +1.36484193281E+003
+3.53705882353E+007, +9.22909190995E+001, +1.39008141769E+003
+3.55581977472E+007, +8.93430131340E+001, +1.39899390647E+003
+3.57458072591E+007, +7.45700944735E+001, +1.42530203809E+003
+3.59334167710E+007, +8.08681095572E+001, +1.44172359469E+003
+3.61210262829E+007, +1.00154755027E+002, +1.46449740968E+003
+3.63086357947E+007, +9.60904987765E+001, +1.49548078305E+003
+3.64962453066E+007, +9.64610893446E+001, +1.52763261661E+003
+3.66838548185E+007, +8.77104763576E+001, +1.53662489556E+003
+3.68714643304E+007, +9.64078782080E+001, +1.57051243742E+003
+3.70590738423E+007, +1.06315730077E+002, +1.58823793193E+003
+3.72466833542E+007, +1.07309759460E+002, +1.62228876249E+003
+3.74342928661E+007, +1.15298624020E+002, +1.64319793787E+003
+3.76219023780E+007, +1.03127943653E+002, +1.67917369748E+003
+3.78095118899E+007, +1.01476611834E+002, +1.70495478856E+003
+3.79971214018E+007, +1.13935768657E+002, +1.71480628859E+003
+3.81847309136E+007, +1.13621709762E+002, +1.75415877946E+003
+3.83723404255E+007, +1.12385708407E+002, +1.79271305319E+003
+3.85599499374E+007, +1.28650795082E+002, +1.82570381779E+003
+3.87475594493E+007, +1.30897924261E+002, +1.85909868776E+003
+3.89351689612E+007, +1.08450096727E+002, +1.91415370785E+003
+3.91227784731E+007, +1.23543581003E+002, +1.95570530716E+003
+3.93103879850E+007, +1.33762318417E+002, +1.99169771093E+003
+3.94979974969E+007, +1.30753144490E+002, +2.01868166632E+003
+3.96856070088E+007, +1.46382184477E+002, +2.06617819007E+003
+3.98732165207E+007, +1.36785436342E+002, +2.12788258089E+003
+4.00608260325E+007, +1.65202373745E+002, +2.12197566413E+003
+4.02484355444E+007, +1.24468656077E+002, +2.20045566562E+003
+4.04360450563E+007, +1.48759637695E+002, +2.24491210362E+003
+4.06236545682E+007, +1.64413449729E+002, +2.27363570496E+003
+4.08112640801E+007, +1.94139890570E+002, +2.32653967331E+003
+4.09988735920E+007, +2.06784073911E+002, +2.40312043792E+003
+4.11864831039E+007, +2.29762145911E+002, +2.42313518832E+003
+4.13740926158E+007, +2.06295950774E+002, +2.50680665098E+003
+4.15617021277E+007, +2.20252336026E+002, +2.58679567704E+003
+4.17493116395E+007, +2.74616085267E+002, +2.62198045567E+003
+4.19369211514E+007, +2.72585343428E+002, +2.68038391284E+003
+4.21245306633E+007, +2.74071045648E+002, +2.73692043882E+003
+4.23121401752E+007, +2.29390478034E+002, +2.81688120909E+003
+4.24997496871E+007, +3.23347817779E+002, +2.90423213080E+003
+4.26873591990E+007, +3.14414868011E+002, +2.93520545506E+003
+4.28749687109E+007, +3.32286846646E+002, +3.04245737287E+003
+4.30625782228E+007, +3.75859134637E+002, +3.10281411447E+003
+4.32501877347E+007, +4.12761777023E+002, +3.21123816225E+003
+4.34377972466E+007, +3.65455301061E+002, +3.29149676696E+003
+4.36254067584E+007, +4.45396241477E+002, +3.47661503593E+003
+4.38130162703E+007, +4.31550684899E+002, +3.50821604705E+003
+4.40006257822E+007, +4.39028912516E+002, +3.64165645508E+003
+4.41882352941E+007, +5.33245187802E+002, +3.80724961923E+003
+4.43758448060E+007, +5.83159749405E+002, +3.87837910014E+003
+4.45634543179E+007, +6.07036210520E+002, +4.05537193576E+003
+4.47510638298E+007, +5.62717432536E+002, +4.18392952386E+003
+4.49386733417E+007, +5.71710487257E+002, +4.34306515434E+003
+4.51262828536E+007, +6.22998437726E+002, +4.55850149701E+003
+4.53138923655E+007, +7.79076477348E+002, +4.66780823776E+003
+4.55015018773E+007, +7.79058483133E+002, +4.90768430755E+003
+4.56891113892E+007, +9.68730184603E+002, +5.18435288345E+003
+4.58767209011E+007, +9.78604115799E+002, +5.26786426159E+003
+4.60643304130E+007, +9.63400119193E+002, +5.63652177678E+003
+4.62519399249E+007, +1.20451851541E+003, +5.97275531445E+003
+4.64395494368E+007, +1.41645450520E+003, +6.17046634258E+003
+4.66271589487E+007, +1.49322386955E+003, +6.60274404175E+003
+4.68147684606E+007, +1.65052135480E+003, +6.92818635331E+003
+4.70023779725E+007, +2.25408603621E+003, +7.39602693039E+003
+4.71899874844E+007, +1.96392260940E+003, +7.84457437828E+003
+4.73775969962E+007, +2.56791990063E+003, +8.30031773264E+003
+4.75652065081E+007, +3.01386488059E+003, +8.99878526656E+003
+4.77528160200E+007, +3.74728577163E+003, +9.52259825707E+003
+4.79404255319E+007, +4.49299993812E+003, +1.07576437736E+004
+4.81280350438E+007, +4.95258019046E+003, +1.13742120136E+004
+4.83156445557E+007, +7.31437283621E+003, +1.19067331256E+004
+4.85032540676E+007, +8.91071995075E+003, +1.32748560733E+004
+4.86908635795E+007, +1.02726705841E+004, +1.27099709341E+004
+4.88784730914E+007, +1.47735938338E+004, +1.35267930088E+004
+4.90660826033E+007, +1.98313576648E+004, +1.29997378676E+004
+4.92536921151E+007, +1.96364569794E+004, +9.16744497428E+003
+4.94413016270E+007, +2.44989185298E+004, +5.59351981752E+003
+4.96289111389E+007, +2.41506844813E+004, +3.05824467334E+002
+4.98165206508E+007, +2.40845474419E+004, -3.03525898241E+003
+5.00041301627E+007, +2.04589902604E+004, -6.02842446834E+003
+5.01917396746E+007, +1.75015211821E+004, -9.27205407418E+003
+5.03793491865E+007, +1.60367229169E+004, -9.01692363787E+003
+5.05669586984E+007, +1.34732997732E+004, -1.15237196045E+004
+5.07545682103E+007, +1.17694803421E+004, -1.14968758539E+004
+5.09421777222E+007, +9.58234970924E+003, -1.02431395975E+004
+5.11297872340E+007, +7.76133312896E+003, -1.00721713370E+004
+5.13173967459E+007, +6.51472371556E+003, -1.01982728298E+004
+5.15050062578E+007, +6.22528165818E+003, -9.82398928080E+003
+5.16926157697E+007, +4.86343246321E+003, -9.09558238793E+003
+5.18802252816E+007, +4.23004207496E+003, -8.69637413804E+003
+5.20678347935E+007, +3.77957296716E+003, -8.44803106609E+003
+5.22554443054E+007, +3.08357162494E+003, -7.67136683180E+003
+5.24430538173E+007, +2.52088778922E+003, -7.29463245767E+003
+5.26306633292E+007, +2.41407295417E+003, -7.06482357041E+003
+5.28182728411E+007, +2.29130625143E+003, -6.69663984866E+003
+5.30058823529E+007, +2.03914671858E+003, -6.33701483693E+003
+5.31934918648E+007, +1.67734321871E+003, -6.01806356568E+003
+5.33811013767E+007, +1.61573871674E+003, -5.69197881971E+003
+5.35687108886E+007, +1.31410608253E+003, -5.52350369423E+003
+5.37563204005E+007, +1.37637306519E+003, -5.24813333192E+003
+5.39439299124E+007, +1.12475478473E+003, -4.90852435305E+003
+5.41315394243E+007, +1.03547862186E+003, -4.84925114603E+003
+5.43191489362E+007, +9.60062786024E+002, -4.71784339244E+003
+5.45067584481E+007, +9.92448217222E+002, -4.49822549049E+003
+5.46943679599E+007, +9.53295685370E+002, -4.25352145833E+003
+5.48819774718E+007, +8.89705164333E+002, -4.09047676777E+003
+5.50695869837E+007, +7.96967094913E+002, -3.95622045257E+003
+5.52571964956E+007, +7.54124070728E+002, -3.86184563009E+003
+5.54448060075E+007, +6.90130350079E+002, -3.76368548874E+003
+5.56324155194E+007, +6.45387786391E+002, -3.59099904652E+003
+5.58200250313E+007, +6.36111720640E+002, -3.44949647053E+003
+5.60076345432E+007, +5.68154750361E+002, -3.41891401246E+003
+5.61952440551E+007, +4.99408473872E+002, -3.29984226719E+003
+5.63828535670E+007, +5.07037864006E+002, -3.17888388918E+003
+5.65704630788E+007, +4.86831230922E+002, -3.13211358948E+003
+5.67580725907E+007, +4.32641403681E+002, -3.03025953153E+003
+5.69456821026E+007, +3.69187938783E+002, -2.89647119456E+003
+5.71332916145E+007, +4.24920074505E+002, -2.84764222668E+003
+5.73209011264E+007, +3.62487188671E+002, -2.77360888471E+003
+5.75085106383E+007, +3.14429206587E+002, -2.64772765212E+003
+5.76961201502E+007, +3.29803321780E+002, -2.62254816669E+003
+5.78837296621E+007, +3.51136598423E+002, -2.50899451376E+003
+5.80713391740E+007, +3.15148828606E+002, -2.42357072782E+003
+5.82589486859E+007, +3.16440627611E+002, -2.39198915905E+003
+5.84465581977E+007, +3.20179560193E+002, -2.30819671742E+003
+5.86341677096E+007, +3.00283004891E+002, -2.25290872432E+003
+5.88217772215E+007, +2.74041124009E+002, -2.21797725329E+003
+5.90093867334E+007, +3.13084269351E+002, -2.15979524775E+003
+5.91969962453E+007, +3.26156913387E+002, -2.11271975113E+003
+5.93846057572E+007, +3.26099380743E+002, -2.07163578988E+003
+5.95722152691E+007, +2.89773361602E+002, -2.02969651610E+003
+5.97598247810E+007, +3.08969805673E+002, -1.99259566734E+003
+5.99474342929E+007, +3.12878878772E+002, -1.97103390766E+003
+6.01350438048E+007, +3.11509177325E+002, -1.92637148757E+003
