"# Channel 1"
"# Trace 1"
Frequency, Formatted Data, Formatted Data
+1.00000000000E+006, +4.78491011789E+001, +2.41186086178E+001
+1.16527545910E+006, +4.78227326605E+001, +2.81208116315E+001
+1.33055091820E+006, +4.79050078013E+001, +3.21049042145E+001
+1.49582637730E+006, +4.79131501606E+001, +3.60934981614E+001
+1.66110183639E+006, +4.79372111868E+001, +4.01184408723E+001
+1.82637729549E+006, +4.80436776016E+001, +4.40935744905E+001
+1.99165275459E+006, +4.80969148115E+001, +4.80477298839E+001
+2.15692821369E+006, +4.80739603865E+001, +5.21255913198E+001
+2.32220367279E+006, +4.81420784181E+001, +5.61735959409E+001
+2.48747913189E+006, +4.82129892518E+001, +6.01925839339E+001
+2.65275459098E+006, +4.82487045669E+001, +6.42859424153E+001
+2.81803005008E+006, +4.82572102250E+001, +6.82635034011E+001
+2.98330550918E+006, +4.83936374888E+001, +7.23696960040E+001
+3.14858096828E+006, +4.85001739313E+001, +7.64329726170E+001
+3.31385642738E+006, +4.85682984915E+001, +8.05156454728E+001
+3.47913188648E+006, +4.85757169466E+001, +8.46083020993E+001
+3.64440734558E+006, +4.86376606749E+001, +8.87723021120E+001
+3.80968280467E+006, +4.88211727764E+001, +9.28502155323E+001
+3.97495826377E+006, +4.89830762326E+001, +9.72658276189E+001
+4.14023372287E+006, +4.86580844791E+001, +9.91334951701E+001
+4.30550918197E+006, +4.88186667436E+001, +1.05667839223E+002
+4.47078464107E+006, +4.91260472664E+001, +1.09609923068E+002
+4.63606010017E+006, +4.93270288770E+001, +1.13730608215E+002
+4.80133555927E+006, +4.94296176965E+001, +1.18113924378E+002
+4.96661101836E+006, +4.95493370137E+001, +1.22312613810E+002
+5.13188647746E+006, +4.94750933382E+001, +1.26430279208E+002
+5.29716193656E+006, +4.97366198464E+001, +1.30712833685E+002
+5.46243739566E+006, +4.98167473489E+001, +1.35254772261E+002
+5.62771285476E+006, +5.01624788607E+001, +1.39363121164E+002
+5.79298831386E+006, +5.02036694067E+001, +1.43815543649E+002
+5.95826377295E+006, +5.02366981781E+001, +1.48049021216E+002
+6.12353923205E+006, +5.04271575274E+001, +1.52612675748E+002
+6.28881469115E+006, +5.04298670622E+001, +1.56882519930E+002
+6.45409015025E+006, +5.06431590878E+001, +1.61428527667E+002
+6.61936560935E+006, +5.08983477354E+001, +1.65897881431E+002
+6.78464106845E+006, +5.11689277627E+001, +1.70508123390E+002
+6.94991652755E+006, +5.12172650671E+001, +1.74878642193E+002
+7.11519198664E+006, +5.14738813593E+001, +1.79465244992E+002
+7.28046744574E+006, +5.17104408959E+001, +1.84056466359E+002
+7.44574290484E+006, +5.17355742891E+001, +1.88603634847E+002
+7.61101836394E+006, +5.18961388431E+001, +1.93076098506E+002
+7.77629382304E+006, +5.20390444174E+001, +1.97959463509E+002
+7.94156928214E+006, +5.20993866860E+001, +2.02525639693E+002
+8.10684474124E+006, +5.24496225061E+001, +2.07248198186E+002
+8.27212020033E+006, +5.24682070136E+001, +2.12000660879E+002
+8.43739565943E+006, +5.25429957020E+001, +2.17005794309E+002
+8.60267111853E+006, +5.27652005174E+001, +2.21559253090E+002
+8.76794657763E+006, +5.31716237785E+001, +2.26171478959E+002
+8.93322203673E+006, +5.34655021418E+001, +2.31129353839E+002
+9.09849749583E+006, +5.34088890124E+001, +2.36369160477E+002
+9.26377295492E+006, +5.35017506972E+001, +2.41570681228E+002
+9.42904841402E+006, +5.34590921228E+001, +2.46842215913E+002
+9.59432387312E+006, +5.37166464889E+001, +2.51162667061E+002
+9.75959933222E+006, +5.42091267567E+001, +2.55521045638E+002
+9.92487479132E+006, +5.45027800030E+001, +2.60355583995E+002
+1.00901502504E+007, +5.45351851161E+001, +2.64898585373E+002
+1.02554257095E+007, +5.43909941227E+001, +2.69954893879E+002
+1.04207011686E+007, +5.46071698750E+001, +2.75370652187E+002
+1.05859766277E+007, +5.51820710344E+001, +2.80826635506E+002
+1.07512520868E+007, +5.50400445008E+001, +2.86487198217E+002
+1.09165275459E+007, +5.49891023826E+001, +2.92542715725E+002
+1.10818030050E+007, +5.52475057725E+001, +2.98791521321E+002
+1.12470784641E+007, +5.57323991356E+001, +3.05741400169E+002
+1.14123539232E+007, +5.62041194327E+001, +3.12429240838E+002
+1.15776293823E+007, +5.60540656684E+001, +3.18844553393E+002
+1.17429048414E+007, +5.66571921909E+001, +3.24839109573E+002
+1.19081803005E+007, +5.67919980607E+001, +3.29990883216E+002
+1.20734557596E+007, +5.69547501486E+001, +3.36732231497E+002
+1.22387312187E+007, +5.76211749038E+001, +3.42970231525E+002
+1.24040066778E+007, +5.80690915584E+001, +3.49533700048E+002
+1.25692821369E+007, +5.80084773886E+001, +3.55581654017E+002
+1.27345575960E+007, +5.87284379941E+001, +3.61918442324E+002
+1.28998330551E+007, +5.87167991763E+001, +3.68427538994E+002
+1.30651085142E+007, +5.87277628969E+001, +3.75104246076E+002
+1.32303839733E+007, +5.89733667532E+001, +3.81203466291E+002
+1.33956594324E+007, +5.94117567297E+001, +3.88205775394E+002
+1.35609348915E+007, +6.05065145324E+001, +3.95528510927E+002
+1.37262103506E+007, +6.02519216548E+001, +4.02915433429E+002
+1.38914858097E+007, +6.18345367858E+001, +4.09530298851E+002
+1.40567612688E+007, +6.13068258503E+001, +4.17094834371E+002
+1.42220367279E+007, +6.12810983572E+001, +4.24963293186E+002
+1.43873121870E+007, +6.19007102086E+001, +4.31527459021E+002
+1.45525876461E+007, +6.29065185816E+001, +4.38569840951E+002
+1.47178631052E+007, +6.35660858119E+001, +4.46470871837E+002
+1.48831385643E+007, +6.30571689594E+001, +4.55179344371E+002
+1.50484140234E+007, +6.34513847868E+001, +4.62664283761E+002
+1.52136894825E+007, +6.54963938807E+001, +4.71336361673E+002
+1.53789649416E+007, +6.52018552997E+001, +4.79352169828E+002
+1.55442404007E+007, +6.67295085367E+001, +4.87746555601E+002
+1.57095158598E+007, +6.65477556633E+001, +4.96460231748E+002
+1.58747913189E+007, +6.65868660548E+001, +5.05111841094E+002
+1.60400667780E+007, +6.79815755464E+001, +5.13426477002E+002
+1.62053422371E+007, +6.89274864227E+001, +5.22109735143E+002
+1.63706176962E+007, +7.01674106071E+001, +5.31718179807E+002
+1.65358931553E+007, +7.00747724227E+001, +5.40904169137E+002
+1.67011686144E+007, +7.05536182160E+001, +5.50928299685E+002
+1.68664440735E+007, +7.09597348162E+001, +5.60350085340E+002
+1.70317195326E+007, +7.08369747493E+001, +5.71341530138E+002
+1.71969949917E+007, +7.20246617875E+001, +5.79550604914E+002
+1.73622704508E+007, +7.27315764558E+001, +5.89852684900E+002
+1.75275459098E+007, +7.33958470795E+001, +6.01779088492E+002
+1.76928213689E+007, +7.40881978285E+001, +6.12193812860E+002
+1.78580968280E+007, +7.48682231919E+001, +6.22601510776E+002
+1.80233722871E+007, +7.51913088687E+001, +6.33311613064E+002
+1.81886477462E+007, +7.88102167417E+001, +6.45574512713E+002
+1.83539232053E+007, +7.75074612060E+001, +6.56544968277E+002
+1.85191986644E+007, +7.92439010085E+001, +6.69090229829E+002
+1.86844741235E+007, +7.90993805933E+001, +6.82422230868E+002
+1.88497495826E+007, +8.22729368933E+001, +6.94103556488E+002
+1.90150250417E+007, +8.33782344410E+001, +7.06734083809E+002
+1.91803005008E+007, +8.38112468248E+001, +7.21632524384E+002
+1.93455759599E+007, +8.53733099327E+001, +7.32279018746E+002
+1.95108514190E+007, +8.76687619150E+001, +7.45939634823E+002
+1.96761268781E+007, +8.80141166603E+001, +7.62710793981E+002
+1.98414023372E+007, +8.89156816863E+001, +7.77254189931E+002
+2.00066777963E+007, +9.29803814716E+001, +7.91708260618E+002
+2.01719532554E+007, +9.21977457273E+001, +8.08288659311E+002
+2.03372287145E+007, +9.37383879249E+001, +8.22741045634E+002
+2.05025041736E+007, +9.56645439521E+001, +8.39326771247E+002
+2.06677796327E+007, +9.59979627927E+001, +8.55616811145E+002
+2.08330550918E+007, +1.00327212385E+002, +8.71049398108E+002
+2.09983305509E+007, +1.01717542730E+002, +8.89312331688E+002
+2.11636060100E+007, +1.05297896293E+002, +9.07128553956E+002
+2.13288814691E+007, +1.08507005325E+002, +9.29270462765E+002
+2.14941569282E+007, +1.09913887864E+002, +9.45233703192E+002
+2.16594323873E+007, +1.10731581226E+002, +9.65468042569E+002
+2.18247078464E+007, +1.12117550162E+002, +9.85808932964E+002
+2.19899833055E+007, +1.16397510798E+002, +1.00983047925E+003
+2.21552587646E+007, +1.17814295934E+002, +1.02973073562E+003
+2.23205342237E+007, +1.26889530793E+002, +1.05412906817E+003
+2.24858096828E+007, +1.22840192191E+002, +1.07783146189E+003
+2.26510851419E+007, +1.29762806229E+002, +1.10637111203E+003
+2.28163606010E+007, +1.31032203499E+002, +1.13136593929E+003
+2.29816360601E+007, +1.33927390832E+002, +1.15422186068E+003
+2.31469115192E+007, +1.41355369767E+002, +1.18410218542E+003
+2.33121869783E+007, +1.40801719222E+002, +1.21458703681E+003
+2.34774624374E+007, +1.48623536713E+002, +1.24023631860E+003
+2.36427378965E+007, +1.52392250922E+002, +1.26395143226E+003
+2.38080133556E+007, +1.57345788820E+002, +1.30629842949E+003
+2.39732888147E+007, +1.63746042621E+002, +1.33268847367E+003
+2.41385642738E+007, +1.60026106407E+002, +1.36632733831E+003
+2.43038397329E+007, +1.73159837981E+002, +1.39810114665E+003
+2.44691151920E+007, +1.83544157005E+002, +1.44614240839E+003
+2.46343906511E+007, +1.84047197145E+002, +1.47721423249E+003
+2.47996661102E+007, +2.03202921560E+002, +1.52247488440E+003
+2.49649415693E+007, +1.97107779359E+002, +1.55848486967E+003
+2.51302170284E+007, +2.01165960447E+002, +1.60880205974E+003
+2.52954924875E+007, +2.16714114640E+002, +1.65788166070E+003
+2.54607679466E+007, +2.27674762901E+002, +1.70164950740E+003
+2.56260434057E+007, +2.42568474991E+002, +1.75297082009E+003
+2.57913188648E+007, +2.48552906643E+002, +1.80114729734E+003
+2.59565943239E+007, +2.64553828273E+002, +1.87139318890E+003
+2.61218697830E+007, +2.73661749604E+002, +1.92913001419E+003
+2.62871452421E+007, +2.87336741072E+002, +1.99855101429E+003
+2.64524207012E+007, +2.98318473673E+002, +2.06070606164E+003
+2.66176961603E+007, +3.11267738584E+002, +2.13841455897E+003
+2.67829716194E+007, +3.45154585868E+002, +2.19936836255E+003
+2.69482470785E+007, +3.67932703124E+002, +2.30355705846E+003
+2.71135225376E+007, +3.97186551263E+002, +2.40731716162E+003
+2.72787979967E+007, +4.15251246393E+002, +2.50506842913E+003
+2.74440734558E+007, +4.61679693920E+002, +2.61545722014E+003
+2.76093489149E+007, +5.16292217370E+002, +2.71388142501E+003
+2.77746243740E+007, +5.66420495454E+002, +2.82010701888E+003
+2.79398998331E+007, +5.72694476739E+002, +2.99116642919E+003
+2.81051752922E+007, +6.43140612973E+002, +3.13117948726E+003
+2.82704507513E+007, +7.39360148019E+002, +3.28680594819E+003
+2.84357262104E+007, +7.77812166411E+002, +3.42439762437E+003
+2.86010016694E+007, +8.33062491595E+002, +3.64063051029E+003
+2.87662771285E+007, +1.01686449825E+003, +3.81682976074E+003
+2.89315525876E+007, +1.12778248392E+003, +4.05695165934E+003
+2.90968280467E+007, +1.26509644260E+003, +4.27697914016E+003
+2.92621035058E+007, +1.36130464471E+003, +4.50159651092E+003
+2.94273789649E+007, +1.71521167908E+003, +4.89724252634E+003
+2.95926544240E+007, +1.90274718861E+003, +5.14241818662E+003
+2.97579298831E+007, +2.11926569696E+003, +5.56564634651E+003
+2.99232053422E+007, +2.60203917992E+003, +5.80828493102E+003
+3.00884808013E+007, +3.07048718593E+003, +6.51448655927E+003
+3.02537562604E+007, +3.54672858172E+003, +6.67671841392E+003
+3.04190317195E+007, +4.25203134969E+003, +7.29466447932E+003
+3.05843071786E+007, +5.25482041287E+003, +7.71489772238E+003
+3.07495826377E+007, +6.39004992128E+003, +8.26270163812E+003
+3.09148580968E+007, +8.17908189415E+003, +8.33919889520E+003
+3.10801335559E+007, +1.03040635864E+004, +8.70073276281E+003
+3.12454090150E+007, +1.22784652233E+004, +7.95278792748E+003
+3.14106844741E+007, +1.50011816054E+004, +5.06515640488E+003
+3.15759599332E+007, +1.71682795383E+004, +7.27667505777E+002
+3.17412353923E+007, +1.64412166527E+004, -1.72080498796E+003
+3.19065108514E+007, +1.51468712976E+004, -5.36107910274E+003
+3.20717863105E+007, +1.34872453415E+004, -8.25325100358E+003
+3.22370617696E+007, +9.84591909234E+003, -9.16295641423E+003
+3.24023372287E+007, +8.06547814408E+003, -8.80927552872E+003
+3.25676126878E+007, +5.92881253714E+003, -8.42461378161E+003
+3.27328881469E+007, +4.46005331767E+003, -8.13063503784E+003
+3.28981636060E+007, +4.16778126787E+003, -7.57852373622E+003
+3.30634390651E+007, +3.27762141886E+003, -6.96417162831E+003
+3.32287145242E+007, +2.94989482433E+003, -6.49943015618E+003
+3.33939899833E+007, +2.27647932917E+003, -6.18270521713E+003
+3.35592654424E+007, +2.07048864737E+003, -5.65902380731E+003
+3.37245409015E+007, +1.62355259563E+003, -5.37760520691E+003
+3.38898163606E+007, +1.53583458689E+003, -4.97668290013E+003
+3.40550918197E+007, +1.33200525937E+003, -4.77335059614E+003
+3.42203672788E+007, +1.10362920076E+003, -4.54794966155E+003
+3.43856427379E+007, +1.01661679959E+003, -4.22923186137E+003
+3.45509181970E+007, +9.29431536158E+002, -4.07422439160E+003
+3.47161936561E+007, +8.38189388508E+002, -3.88168099860E+003
+3.48814691152E+007, +7.44040541034E+002, -3.71670553952E+003
+3.50467445743E+007, +6.85220863697E+002, -3.57090098900E+003
+3.52120200334E+007, +6.33519814578E+002, -3.38895243614E+003
+3.53772954925E+007, +6.00588658512E+002, -3.29679647935E+003
+3.55425709516E+007, +5.45008786219E+002, -3.10501750873E+003
+3.57078464107E+007, +4.98935299470E+002, -3.02349388578E+003
+3.58731218698E+007, +4.47422370806E+002, -2.92525068813E+003
+3.60383973289E+007, +4.24638759863E+002, -2.81361905898E+003
+3.62036727880E+007, +4.13125465418E+002, -2.71423191263E+003
+3.63689482471E+007, +3.78233999592E+002, -2.65784296749E+003
+3.65342237062E+007, +3.68184448475E+002, -2.56162539384E+003
+3.66994991653E+007, +3.19102220016E+002, -2.48879074185E+003
+3.68647746244E+007, +3.19592340820E+002, -2.41019165853E+003
+3.70300500835E+007, +2.89867624106E+002, -2.35297867561E+003
+3.71953255426E+007, +2.94652181368E+002, -2.28400761238E+003
+3.73606010017E+007, +2.87106504613E+002, -2.19714413952E+003
+3.75258764608E+007, +2.59010793510E+002, -2.16901865372E+003
+3.76911519199E+007, +2.51921008170E+002, -2.11021915526E+003
+3.78564273790E+007, +2.43960422457E+002, -2.06357746324E+003
+3.80217028381E+007, +2.23441531146E+002, -2.00438497464E+003
+3.81869782972E+007, +2.13515632306E+002, -1.95163743759E+003
+3.83522537563E+007, +2.02391234226E+002, -1.92032956692E+003
+3.85175292154E+007, +1.88749522180E+002, -1.87686559416E+003
+3.86828046745E+007, +1.89129914793E+002, -1.83291654831E+003
+3.88480801336E+007, +1.68760360039E+002, -1.80285096674E+003
+3.90133555927E+007, +1.72643773291E+002, -1.76966455957E+003
+3.91786310518E+007, +1.55162892052E+002, -1.72377979166E+003
+3.93439065109E+007, +1.53132351183E+002, -1.70165885467E+003
+3.95091819699E+007, +1.51693649064E+002, -1.66021382082E+003
+3.96744574290E+007, +1.47308075703E+002, -1.62794692948E+003
+3.98397328881E+007, +1.34553630806E+002, -1.59493019687E+003
+4.00050083472E+007, +1.37595919009E+002, -1.56945916865E+003
+4.01702838063E+007, +1.24164125730E+002, -1.53830880756E+003
+4.03355592654E+007, +1.20784627968E+002, -1.50775383819E+003
+4.05008347245E+007, +1.25852174712E+002, -1.48997918612E+003
+4.06661101836E+007, +1.11958844966E+002, -1.46804841252E+003
+4.08313856427E+007, +1.10433870622E+002, -1.43243415693E+003
+4.09966611018E+007, +1.01043415285E+002, -1.41372766965E+003
+4.11619365609E+007, +1.07259028939E+002, -1.39221379897E+003
+4.13272120200E+007, +1.02543227037E+002, -1.36977658364E+003
+4.14924874791E+007, +9.67857796194E+001, -1.34579958209E+003
+4.16577629382E+007, +9.75275823012E+001, -1.32921359602E+003
+4.18230383973E+007, +9.53790511580E+001, -1.30381348443E+003
+4.19883138564E+007, +8.93470891972E+001, -1.29064002182E+003
+4.21535893155E+007, +9.43981084044E+001, -1.27070676236E+003
+4.23188647746E+007, +8.77938907913E+001, -1.25287728400E+003
+4.24841402337E+007, +8.39228331503E+001, -1.23430642298E+003
+4.26494156928E+007, +8.82809288668E+001, -1.21418294631E+003
+4.28146911519E+007, +8.03406704250E+001, -1.20436334782E+003
+4.29799666110E+007, +7.89234770414E+001, -1.18794652055E+003
+4.31452420701E+007, +7.74707114801E+001, -1.16554262138E+003
+4.33105175292E+007, +7.22356956969E+001, -1.15320449713E+003
+4.34757929883E+007, +7.41136374659E+001, -1.13872661228E+003
+4.36410684474E+007, +6.60310213154E+001, -1.12548750211E+003
+4.38063439065E+007, +5.99408168384E+001, -1.10886903453E+003
+4.39716193656E+007, +6.32482289323E+001, -1.09651160343E+003
+4.41368948247E+007, +5.96028761856E+001, -1.07839210458E+003
+4.43021702838E+007, +5.83485571101E+001, -1.06630400255E+003
+4.44674457429E+007, +5.83669739206E+001, -1.04995274836E+003
+4.46327212020E+007, +5.56974435605E+001, -1.03939658360E+003
+4.47979966611E+007, +5.63749259816E+001, -1.02340521012E+003
+4.49632721202E+007, +5.50217620362E+001, -1.01460778196E+003
+4.51285475793E+007, +5.19076007437E+001, -1.00338661135E+003
+4.52938230384E+007, +5.02054463577E+001, -9.92330731010E+002
+4.54590984975E+007, +5.12816795620E+001, -9.76252040618E+002
+4.56243739566E+007, +4.72933329049E+001, -9.65085191024E+002
+4.57896494157E+007, +4.53704212128E+001, -9.57384559189E+002
+4.59549248748E+007, +4.20881987465E+001, -9.47576422604E+002
+4.61202003339E+007, +4.32232750498E+001, -9.30424807648E+002
+4.62854757930E+007, +4.34341271385E+001, -9.22140762319E+002
+4.64507512521E+007, +4.26883108630E+001, -9.12218300489E+002
+4.66160267112E+007, +4.20833401933E+001, -9.02865581585E+002
+4.67813021703E+007, +3.99217893083E+001, -8.94182427581E+002
+4.69465776294E+007, +3.71682940926E+001, -8.84703857122E+002
+4.71118530885E+007, +3.79390801080E+001, -8.70641726208E+002
+4.72771285476E+007, +3.78767487572E+001, -8.62841569292E+002
+4.74424040067E+007, +3.74411068703E+001, -8.53945033169E+002
+4.76076794658E+007, +3.42365784921E+001, -8.45345185127E+002
+4.77729549249E+007, +3.57676436094E+001, -8.37711768283E+002
+4.79382303840E+007, +3.40788535528E+001, -8.29285663961E+002
+4.81035058431E+007, +3.25923031477E+001, -8.20210178961E+002
+4.82687813022E+007, +3.13302098634E+001, -8.10320912915E+002
+4.84340567613E+007, +3.33832281664E+001, -8.03563642045E+002
+4.85993322204E+007, +3.11974973291E+001, -7.94215107239E+002
+4.87646076795E+007, +3.13491456836E+001, -7.87346974695E+002
+4.89298831386E+007, +3.20445140008E+001, -7.79996861366E+002
+4.90951585977E+007, +3.10117770832E+001, -7.70571085156E+002
+4.92604340568E+007, +3.15224320316E+001, -7.63649352566E+002
+4.94257095159E+007, +3.27616186485E+001, -7.56130622302E+002
+4.95909849750E+007, +3.19484881644E+001, -7.50918198665E+002
+4.97562604341E+007, +3.44205030943E+001, -7.40854228198E+002
+4.99215358932E+007, +3.51244652650E+001, -7.36481661706E+002
+5.00868113523E+007, +3.46897599921E+001, -7.30129793567E+002
+5.02520868114E+007, +3.30818015888E+001, -7.23851686045E+002
+5.04173622705E+007, +3.39905454450E+001, -7.16594277342E+002
+5.05826377295E+007, +3.40825710400E+001, -7.11220623082E+002
+5.07479131886E+007, +3.58472927330E+001, -7.05103942389E+002
+5.09131886477E+007, +3.49430753548E+001, -7.00595933294E+002
+5.10784641068E+007, +3.58542860508E+001, -6.94011642168E+002
+5.12437395659E+007, +3.49524526143E+001, -6.87050868384E+002
+5.14090150250E+007, +3.43249278380E+001, -6.83527220888E+002
+5.15742904841E+007, +3.43258268531E+001, -6.77948033864E+002
+5.17395659432E+007, +3.52708848255E+001, -6.72894283532E+002
+5.19048414023E+007, +3.25397265517E+001, -6.69182384491E+002
+5.20701168614E+007, +3.41327375488E+001, -6.63169165720E+002
+5.22353923205E+007, +3.32048862539E+001, -6.58926401362E+002
+5.24006677796E+007, +3.20758921167E+001, -6.53427547679E+002
+5.25659432387E+007, +3.25215817193E+001, -6.48668798855E+002
+5.27312186978E+007, +3.09440815485E+001, -6.43646105942E+002
+5.28964941569E+007, +3.05710075837E+001, -6.39173880917E+002
+5.30617696160E+007, +2.91623439955E+001, -6.35307856573E+002
+5.32270450751E+007, +2.91153453392E+001, -6.29531692284E+002
+5.33923205342E+007, +2.91005475417E+001, -6.23299695712E+002
+5.35575959933E+007, +2.79192859745E+001, -6.20615115286E+002
+5.37228714524E+007, +2.70364423555E+001, -6.15180355763E+002
+5.38881469115E+007, +2.38950695171E+001, -6.09811756392E+002
