"# Channel 1"
"# Trace 1"
Frequency, Formatted Data, Formatted Data
+1.00000000000E+005, +8.65984567887E-001, +2.35682921474E+000
+2.66777963272E+005, +8.59429861722E-001, +6.27612807217E+000
+4.33555926544E+005, +8.79181078058E-001, +1.01947193397E+001
+6.00333889816E+005, +9.49943165906E-001, +1.40552992503E+001
+7.67111853088E+005, +1.00199227562E+000, +1.79995529482E+001
+9.33889816361E+005, +1.06337853003E+000, +2.18268810680E+001
+1.10066777963E+006, +1.02738762270E+000, +2.57338070961E+001
+1.26744574290E+006, +1.13787807226E+000, +2.95562958942E+001
+1.43422370618E+006, +1.10841734502E+000, +3.34744888601E+001
+1.60100166945E+006, +1.23897431908E+000, +3.72303628684E+001
+1.76777963272E+006, +1.22734377073E+000, +4.11024265702E+001
+1.93455759599E+006, +1.26695868327E+000, +4.48367685077E+001
+2.10133555927E+006, +1.30798591631E+000, +4.86643021058E+001
+2.26811352254E+006, +1.34717275318E+000, +5.25594859790E+001
+2.43489148581E+006, +1.33992159476E+000, +5.64650203018E+001
+2.60166944908E+006, +1.42093869601E+000, +6.02060893351E+001
+2.76844741235E+006, +1.38588002410E+000, +6.41281973193E+001
+2.93522537563E+006, +1.37093297022E+000, +6.79456737027E+001
+3.10200333890E+006, +1.52661912060E+000, +7.16876980194E+001
+3.26878130217E+006, +1.31770165891E+000, +7.56671420289E+001
+3.43555926544E+006, +1.47987194687E+000, +7.95255959712E+001
+3.60233722871E+006, +1.46330380292E+000, +8.34818075913E+001
+3.76911519199E+006, +1.52941662804E+000, +8.74260320133E+001
+3.93589315526E+006, +1.31969156398E+000, +9.10579787251E+001
+4.10267111853E+006, +1.49574357491E+000, +9.51360333353E+001
+4.26944908180E+006, +1.40491939433E+000, +9.91501450301E+001
+4.43622704508E+006, +1.49066539121E+000, +1.02740734267E+002
+4.60300500835E+006, +1.46266370030E+000, +1.06891781363E+002
+4.76978297162E+006, +1.52186843266E+000, +1.10657582856E+002
+4.93656093489E+006, +1.70770602957E+000, +1.14632426285E+002
+5.10333889816E+006, +1.65792551038E+000, +1.18433680238E+002
+5.27011686144E+006, +1.85908677654E+000, +1.22667033822E+002
+5.43689482471E+006, +1.70045162018E+000, +1.26424907466E+002
+5.60367278798E+006, +1.83468044352E+000, +1.30596196844E+002
+5.77045075125E+006, +1.64059388746E+000, +1.34253572320E+002
+5.93722871452E+006, +1.88371583315E+000, +1.38183244151E+002
+6.10400667780E+006, +1.75403070939E+000, +1.42261863577E+002
+6.27078464107E+006, +2.10783949242E+000, +1.46155590484E+002
+6.43756260434E+006, +2.09016407063E+000, +1.50203918640E+002
+6.60434056761E+006, +2.24678481656E+000, +1.54197117180E+002
+6.77111853088E+006, +2.43065916929E+000, +1.58105673858E+002
+6.93789649416E+006, +2.40669401658E+000, +1.62192829227E+002
+7.10467445743E+006, +2.26655618861E+000, +1.66020565481E+002
+7.27145242070E+006, +2.39926334459E+000, +1.69990175020E+002
+7.43823038397E+006, +2.43183976270E+000, +1.73873348245E+002
+7.60500834725E+006, +2.24801953225E+000, +1.78103034193E+002
+7.77178631052E+006, +2.54752383588E+000, +1.82109666413E+002
+7.93856427379E+006, +2.54089218789E+000, +1.85934449302E+002
+8.10534223706E+006, +2.45089550898E+000, +1.90110486535E+002
+8.27212020033E+006, +2.45802162357E+000, +1.94169855413E+002
+8.43889816361E+006, +2.17489607761E+000, +1.98460873873E+002
+8.60567612688E+006, +2.29391026083E+000, +2.02513534689E+002
+8.77245409015E+006, +2.12740808636E+000, +2.06445084404E+002
+8.93923205342E+006, +2.36630837655E+000, +2.10499042807E+002
+9.10601001669E+006, +2.30022671678E+000, +2.14794654780E+002
+9.27278797997E+006, +2.32831724755E+000, +2.18916961272E+002
+9.43956594324E+006, +2.10044348382E+000, +2.23048682551E+002
+9.60634390651E+006, +2.19670878329E+000, +2.27247671675E+002
+9.77312186978E+006, +2.05660442402E+000, +2.31336350329E+002
+9.93989983306E+006, +2.44263940198E+000, +2.35963217674E+002
+1.01066777963E+007, +2.01400896298E+000, +2.39870025345E+002
+1.02734557596E+007, +2.09213409603E+000, +2.44467369822E+002
+1.04402337229E+007, +1.99776549545E+000, +2.48331292726E+002
+1.06070116861E+007, +1.97501970138E+000, +2.52794800444E+002
+1.07737896494E+007, +2.07149819341E+000, +2.56924995436E+002
+1.09405676127E+007, +2.38959450419E+000, +2.61277491584E+002
+1.11073455760E+007, +1.81804635683E+000, +2.65672251102E+002
+1.12741235392E+007, +1.83215504733E+000, +2.70120298996E+002
+1.14409015025E+007, +2.05186724032E+000, +2.74564702853E+002
+1.16076794658E+007, +2.19674697167E+000, +2.78929840801E+002
+1.17744574290E+007, +2.17772058364E+000, +2.83676599363E+002
+1.19412353923E+007, +2.26212363382E+000, +2.87863739542E+002
+1.21080133556E+007, +1.52191586584E+000, +2.92108552591E+002
+1.22747913189E+007, +2.02809865741E+000, +2.96942432021E+002
+1.24415692821E+007, +1.45049015515E+000, +3.00963033591E+002
+1.26083472454E+007, +1.47877266031E+000, +3.05665162726E+002
+1.27751252087E+007, +1.61041043141E+000, +3.10001060085E+002
+1.29419031720E+007, +1.25151798158E+000, +3.14617578524E+002
+1.31086811352E+007, +1.74998847837E+000, +3.19410406737E+002
+1.32754590985E+007, +2.02811665938E+000, +3.23691228877E+002
+1.34422370618E+007, +1.83393828713E+000, +3.28444146603E+002
+1.36090150250E+007, +2.23842598206E+000, +3.32786551854E+002
+1.37757929883E+007, +1.68433023254E+000, +3.37879731341E+002
+1.39425709516E+007, +2.64920762364E+000, +3.42529565538E+002
+1.41093489149E+007, +2.03394714597E+000, +3.46934217017E+002
+1.42761268781E+007, +2.21495952447E+000, +3.51855655622E+002
+1.44429048414E+007, +2.16449197073E+000, +3.56407089758E+002
+1.46096828047E+007, +2.17580186521E+000, +3.61507511866E+002
+1.47764607679E+007, +2.50305168439E+000, +3.64935273641E+002
+1.49432387312E+007, +1.62126817078E+000, +3.70605665126E+002
+1.51100166945E+007, +1.73277150350E+000, +3.75399897975E+002
+1.52767946578E+007, +2.59764290478E+000, +3.80010511314E+002
+1.54435726210E+007, +1.68497750404E+000, +3.85090090424E+002
+1.56103505843E+007, +2.59833732963E+000, +3.90389663899E+002
+1.57771285476E+007, +1.09798805057E+000, +3.94869836341E+002
+1.59439065109E+007, +2.21309375993E+000, +3.99869986000E+002
+1.61106844741E+007, +2.14142517032E+000, +4.05128353454E+002
+1.62774624374E+007, +2.16040733158E+000, +4.09797687107E+002
+1.64442404007E+007, +1.95353002395E+000, +4.14910418230E+002
+1.66110183639E+007, +1.96716891164E+000, +4.20341103199E+002
+1.67777963272E+007, +1.75994566471E+000, +4.26482607449E+002
+1.69445742905E+007, +2.36243023170E+000, +4.30522328334E+002
+1.71113522538E+007, -2.43932297134E-001, +4.35982272107E+002
+1.72781302170E+007, +1.66294930201E+000, +4.41898512105E+002
+1.74449081803E+007, +1.49634696779E+000, +4.45978453598E+002
+1.76116861436E+007, +1.88605716637E+000, +4.52708281105E+002
+1.77784641068E+007, +9.69774679861E-001, +4.56894896317E+002
+1.79452420701E+007, +1.34606552111E+000, +4.62583999690E+002
+1.81120200334E+007, +2.54190581544E+000, +4.66772543995E+002
+1.82787979967E+007, +2.47849657872E+000, +4.72573994491E+002
+1.84455759599E+007, +1.94481955434E+000, +4.79017854684E+002
+1.86123539232E+007, +3.01219373425E+000, +4.84519867460E+002
+1.87791318865E+007, +2.41894413092E+000, +4.90495589739E+002
+1.89459098497E+007, +1.72592822700E+000, +4.95702842648E+002
+1.91126878130E+007, +2.02354437359E+000, +4.99852114254E+002
+1.92794657763E+007, +3.12895798227E+000, +5.06341526294E+002
+1.94462437396E+007, +2.17106082355E+000, +5.13139197696E+002
+1.96130217028E+007, +2.97560557921E+000, +5.19148768601E+002
+1.97797996661E+007, +3.09234719143E+000, +5.23248742194E+002
+1.99465776294E+007, +2.02479923660E+000, +5.29464599749E+002
+2.01133555927E+007, +2.50613012986E+000, +5.36230581630E+002
+2.02801335559E+007, +2.82333706979E+000, +5.41822853923E+002
+2.04469115192E+007, +3.90391760629E+000, +5.47128321524E+002
+2.06136894825E+007, +3.16920474027E+000, +5.54192862431E+002
+2.07804674457E+007, +5.33835275327E+000, +5.59364676013E+002
+2.09472454090E+007, +3.01318973743E+000, +5.66783671535E+002
+2.11140233723E+007, +3.13798314762E+000, +5.72287504446E+002
+2.12808013356E+007, +4.13095264635E+000, +5.77396515025E+002
+2.14475792988E+007, +4.92969685764E+000, +5.86143458151E+002
+2.16143572621E+007, +5.82374410438E+000, +5.90829571028E+002
+2.17811352254E+007, +5.13278593480E+000, +5.98386468452E+002
+2.19479131886E+007, +6.94413610814E+000, +6.03924256012E+002
+2.21146911519E+007, +6.57821882300E+000, +6.08240130969E+002
+2.22814691152E+007, +4.99964215627E+000, +6.17117487927E+002
+2.24482470785E+007, +6.76695226834E+000, +6.23943191494E+002
+2.26150250417E+007, +7.91771940013E+000, +6.30093133418E+002
+2.27818030050E+007, +7.66737750240E+000, +6.36728243042E+002
+2.29485809683E+007, +1.17060446241E+001, +6.42979249654E+002
+2.31153589316E+007, +6.85164124356E+000, +6.50790929810E+002
+2.32821368948E+007, +9.05856825481E+000, +6.58991868376E+002
+2.34489148581E+007, +9.66696043028E+000, +6.63569251260E+002
+2.36156928214E+007, +1.09935686787E+001, +6.72641442927E+002
+2.37824707846E+007, +1.04894458846E+001, +6.79590852532E+002
+2.39492487479E+007, +8.83319199610E+000, +6.84133804863E+002
+2.41160267112E+007, +1.14461027531E+001, +6.91508171514E+002
+2.42828046745E+007, +1.21886711917E+001, +7.00282622854E+002
+2.44495826377E+007, +1.42443838967E+001, +7.10184773208E+002
+2.46163606010E+007, +1.22946463761E+001, +7.13746173157E+002
+2.47831385643E+007, +1.10457247162E+001, +7.21616885936E+002
+2.49499165275E+007, +1.55638135816E+001, +7.31635911367E+002
+2.51166944908E+007, +1.71563965326E+001, +7.36521993849E+002
+2.52834724541E+007, +1.56060812394E+001, +7.45883420936E+002
+2.54502504174E+007, +1.62512246031E+001, +7.51833604048E+002
+2.56170283806E+007, +1.47075806575E+001, +7.58177739352E+002
+2.57838063439E+007, +1.53776008432E+001, +7.67688421474E+002
+2.59505843072E+007, +2.01660460493E+001, +7.78101159456E+002
+2.61173622705E+007, +1.87560715590E+001, +7.83844138389E+002
+2.62841402337E+007, +2.05611862861E+001, +7.91748093928E+002
+2.64509181970E+007, +1.79902239754E+001, +8.00280226632E+002
+2.66176961603E+007, +1.93709776021E+001, +8.08806083687E+002
+2.67844741235E+007, +2.08851995133E+001, +8.16526354387E+002
+2.69512520868E+007, +2.27532158756E+001, +8.24016814443E+002
+2.71180300501E+007, +2.21280026122E+001, +8.31201612646E+002
+2.72848080134E+007, +2.09100796328E+001, +8.44211132786E+002
+2.74515859766E+007, +2.57742573333E+001, +8.49288518974E+002
+2.76183639399E+007, +2.17056952537E+001, +8.56327931957E+002
+2.77851419032E+007, +2.15208784188E+001, +8.61134777766E+002
+2.79519198664E+007, +2.79378366900E+001, +8.73976182120E+002
+2.81186978297E+007, +2.64134946203E+001, +8.80440744069E+002
+2.82854757930E+007, +2.71016211608E+001, +8.90874655585E+002
+2.84522537563E+007, +2.54558162793E+001, +9.01698180808E+002
+2.86190317195E+007, +2.65393925328E+001, +9.07546321010E+002
+2.87858096828E+007, +3.19156857380E+001, +9.17898541339E+002
+2.89525876461E+007, +2.87105798854E+001, +9.29123436795E+002
+2.91193656093E+007, +2.51355090714E+001, +9.33308500077E+002
+2.92861435726E+007, +2.63545925687E+001, +9.45747379595E+002
+2.94529215359E+007, +2.89424517068E+001, +9.53031097602E+002
+2.96196994992E+007, +2.99756013131E+001, +9.68333144200E+002
+2.97864774624E+007, +3.21344506418E+001, +9.76321007347E+002
+2.99532554257E+007, +3.39603828950E+001, +9.87494265942E+002
+3.01200333890E+007, +3.01438189531E+001, +9.97394142755E+002
+3.02868113523E+007, +2.72445066261E+001, +1.00919629184E+003
+3.04535893155E+007, +2.87542258838E+001, +1.01884938953E+003
+3.06203672788E+007, +2.93691533070E+001, +1.03268699107E+003
+3.07871452421E+007, +2.85619776134E+001, +1.04137329969E+003
+3.09539232053E+007, +2.75691526446E+001, +1.05376668167E+003
+3.11207011686E+007, +3.20602963231E+001, +1.06797567437E+003
+3.12874791319E+007, +3.05696860004E+001, +1.07594653677E+003
+3.14542570952E+007, +3.13726589723E+001, +1.08407705138E+003
+3.16210350584E+007, +3.02115903304E+001, +1.10416204309E+003
+3.17878130217E+007, +2.64041654628E+001, +1.11372347996E+003
+3.19545909850E+007, +3.03425228382E+001, +1.12975598680E+003
+3.21213689482E+007, +2.39982153960E+001, +1.14297389706E+003
+3.22881469115E+007, +2.82070848827E+001, +1.15745937177E+003
+3.24549248748E+007, +3.19539825913E+001, +1.16835943884E+003
+3.26217028381E+007, +3.31027542959E+001, +1.18236373009E+003
+3.27884808013E+007, +2.86583314601E+001, +1.19669755120E+003
+3.29552587646E+007, +3.14946481691E+001, +1.20808420759E+003
+3.31220367279E+007, +3.46402332205E+001, +1.22326218471E+003
+3.32888146912E+007, +3.36364835783E+001, +1.24262301277E+003
+3.34555926544E+007, +2.98795196981E+001, +1.25434056868E+003
+3.36223706177E+007, +3.01447335682E+001, +1.26819336982E+003
+3.37891485810E+007, +3.07337534381E+001, +1.27463409722E+003
+3.39559265442E+007, +3.53066823194E+001, +1.30689882390E+003
+3.41227045075E+007, +3.19878804620E+001, +1.31400679875E+003
+3.42894824708E+007, +3.51515053902E+001, +1.33701808787E+003
+3.44562604341E+007, +3.04812619630E+001, +1.34953538414E+003
+3.46230383973E+007, +3.17547245032E+001, +1.37238283009E+003
+3.47898163606E+007, +4.35440151201E+001, +1.37781842646E+003
+3.49565943239E+007, +4.78198753830E+001, +1.40347787513E+003
+3.51233722871E+007, +4.02649308933E+001, +1.41860890255E+003
+3.52901502504E+007, +4.59224414794E+001, +1.42842514988E+003
+3.54569282137E+007, +3.87158202175E+001, +1.46027339435E+003
+3.56237061770E+007, +3.60713731584E+001, +1.48348053717E+003
+3.57904841402E+007, +3.04769650768E+001, +1.49534499671E+003
+3.59572621035E+007, +4.67469853972E+001, +1.52880208841E+003
+3.61240400668E+007, +4.37749020455E+001, +1.54538251241E+003
+3.62908180301E+007, +4.82847120705E+001, +1.56488790462E+003
+3.64575959933E+007, +3.61513136554E+001, +1.59905230432E+003
+3.66243739566E+007, +5.62069459873E+001, +1.60105856552E+003
+3.67911519199E+007, +5.82319055876E+001, +1.64405200633E+003
+3.69579298831E+007, +4.40024696057E+001, +1.66153357612E+003
+3.71247078464E+007, +4.67644309743E+001, +1.68467763604E+003
+3.72914858097E+007, +5.36963894270E+001, +1.71878888884E+003
+3.74582637730E+007, +7.37503301789E+001, +1.75826863318E+003
+3.76250417362E+007, +6.32230228239E+001, +1.76631951537E+003
+3.77918196995E+007, +5.54162894743E+001, +1.78964747170E+003
+3.79585976628E+007, +6.59207715731E+001, +1.83323281625E+003
+3.81253756260E+007, +7.08241931656E+001, +1.85392658769E+003
+3.82921535893E+007, +7.41999299677E+001, +1.89255839968E+003
+3.84589315526E+007, +7.75353631342E+001, +1.91552479805E+003
+3.86257095159E+007, +8.43254817667E+001, +1.94301554746E+003
+3.87924874791E+007, +8.02732979640E+001, +1.96512421070E+003
+3.89592654424E+007, +1.08442069712E+002, +2.00875231161E+003
+3.91260434057E+007, +9.93468020032E+001, +2.06657826195E+003
+3.92928213689E+007, +8.74314804299E+001, +2.08680447054E+003
+3.94595993322E+007, +8.84705715997E+001, +2.14179933499E+003
+3.96263772955E+007, +1.02716128231E+002, +2.16183570244E+003
+3.97931552588E+007, +9.47310425470E+001, +2.20696454185E+003
+3.99599332220E+007, +1.09255408063E+002, +2.24142821799E+003
+4.01267111853E+007, +1.18603422933E+002, +2.30056070322E+003
+4.02934891486E+007, +1.18831489896E+002, +2.35594731609E+003
+4.04602671119E+007, +1.45431242378E+002, +2.35546675574E+003
+4.06270450751E+007, +1.57361912682E+002, +2.44119014844E+003
+4.07938230384E+007, +1.60490823847E+002, +2.47882145747E+003
+4.09606010017E+007, +1.70952371334E+002, +2.52708850515E+003
+4.11273789649E+007, +1.63893456701E+002, +2.58377501900E+003
+4.12941569282E+007, +1.78346666731E+002, +2.64014384104E+003
+4.14609348915E+007, +1.82110215540E+002, +2.73260060038E+003
+4.16277128548E+007, +1.96787212075E+002, +2.77582030481E+003
+4.17944908180E+007, +2.30565368047E+002, +2.83131048917E+003
+4.19612687813E+007, +2.19797432298E+002, +2.89890596529E+003
+4.21280467446E+007, +2.52816878995E+002, +2.98271250910E+003
+4.22948247078E+007, +2.34516855930E+002, +3.07004165394E+003
+4.24616026711E+007, +2.88155643599E+002, +3.09623744164E+003
+4.26283806344E+007, +2.92013736296E+002, +3.19035758383E+003
+4.27951585977E+007, +2.72972548876E+002, +3.34421346235E+003
+4.29619365609E+007, +3.60864256657E+002, +3.37420697121E+003
+4.31287145242E+007, +3.85870552852E+002, +3.51756770324E+003
+4.32954924875E+007, +3.92979166416E+002, +3.56392686471E+003
+4.34622704508E+007, +3.60417994857E+002, +3.72014690691E+003
+4.36290484140E+007, +4.64465952123E+002, +3.84160832476E+003
+4.37958263773E+007, +4.75732723893E+002, +3.99676166244E+003
+4.39626043406E+007, +5.52101123798E+002, +4.02840253996E+003
+4.41293823038E+007, +6.11915016858E+002, +4.23977144661E+003
+4.42961602671E+007, +6.60215366217E+002, +4.40249807553E+003
+4.44629382304E+007, +6.52324990305E+002, +4.50734202443E+003
+4.46297161937E+007, +7.97045645761E+002, +4.59937962754E+003
+4.47964941569E+007, +7.88745190209E+002, +4.93588286519E+003
+4.49632721202E+007, +8.47997856925E+002, +5.11506928018E+003
+4.51300500835E+007, +1.06256566340E+003, +5.14972082903E+003
+4.52968280467E+007, +1.16544753489E+003, +5.40195493542E+003
+4.54636060100E+007, +1.26933651201E+003, +5.80167274747E+003
+4.56303839733E+007, +1.54375385831E+003, +6.12970638156E+003
+4.57971619366E+007, +1.76712768235E+003, +6.46421892503E+003
+4.59639398998E+007, +2.13871530351E+003, +7.10786645838E+003
+4.61307178631E+007, +2.34585597642E+003, +7.15944316949E+003
+4.62974958264E+007, +2.69124670661E+003, +7.54079909155E+003
+4.64642737896E+007, +2.87857792762E+003, +7.82699754169E+003
+4.66310517529E+007, +3.44961791506E+003, +8.60492877605E+003
+4.67978297162E+007, +4.21672209834E+003, +8.29357788044E+003
+4.69646076795E+007, +5.46077540609E+003, +9.31472914417E+003
+4.71313856427E+007, +5.66977475698E+003, +9.25372126996E+003
+4.72981636060E+007, +7.38357247255E+003, +9.60809423846E+003
+4.74649415693E+007, +7.92088970082E+003, +9.88946802255E+003
+4.76317195326E+007, +9.95619035811E+003, +8.38535737597E+003
+4.77984974958E+007, +1.13110895510E+004, +7.69342766103E+003
+4.79652754591E+007, +1.31547126736E+004, +7.19426417227E+003
+4.81320534224E+007, +1.29786664862E+004, +5.24889976814E+003
+4.82988313856E+007, +1.45899742236E+004, +4.05155208653E+003
+4.84656093489E+007, +1.45512340849E+004, +2.00733901960E+003
+4.86323873122E+007, +1.40044037256E+004, +7.97880344695E+002
+4.87991652755E+007, +1.38478595442E+004, -5.32271633381E+002
+4.89659432387E+007, +1.39140712466E+004, -1.54246812049E+003
+4.91327212020E+007, +1.21836748706E+004, -3.17993845196E+003
+4.92994991653E+007, +1.17416504139E+004, -3.42346695340E+003
+4.94662771285E+007, +1.01156135102E+004, -4.11719638053E+003
+4.96330550918E+007, +9.68946413778E+003, -4.76953797765E+003
+4.97998330551E+007, +9.36724646242E+003, -4.58905252367E+003
+4.99666110184E+007, +8.52724912153E+003, -4.84709833218E+003
+5.01333889816E+007, +8.18291207840E+003, -4.86601086349E+003
+5.03001669449E+007, +7.71141556443E+003, -5.68435976113E+003
+5.04669449082E+007, +6.72302985262E+003, -5.76269035902E+003
+5.06337228715E+007, +6.43290045944E+003, -5.36478971442E+003
+5.08005008347E+007, +6.30558571551E+003, -5.53834873738E+003
+5.09672787980E+007, +5.71176723601E+003, -5.30798256164E+003
+5.11340567613E+007, +5.13264942087E+003, -5.42938918555E+003
+5.13008347245E+007, +4.93566764840E+003, -5.63679160480E+003
+5.14676126878E+007, +4.40145677503E+003, -5.50399417883E+003
+5.16343906511E+007, +4.10002149644E+003, -5.43384236823E+003
+5.18011686144E+007, +3.72896022501E+003, -5.52539337008E+003
+5.19679465776E+007, +3.61504084441E+003, -5.32039379457E+003
+5.21347245409E+007, +3.10570917703E+003, -5.19208051859E+003
+5.23015025042E+007, +2.72639290067E+003, -4.91067500047E+003
+5.24682804674E+007, +2.41618987338E+003, -4.80667137172E+003
+5.26350584307E+007, +2.39602488849E+003, -4.76960951579E+003
+5.28018363940E+007, +2.01245154574E+003, -4.69135902458E+003
+5.29686143573E+007, +1.83446003895E+003, -4.53936253670E+003
+5.31353923205E+007, +1.86373342771E+003, -4.42673999608E+003
+5.33021702838E+007, +1.55971706692E+003, -4.19048231866E+003
+5.34689482471E+007, +1.51207325921E+003, -4.03678508014E+003
