"# Channel 1"
"# Trace 1"
Frequency, Formatted Data, Formatted Data
+1.00000000000E+005, +2.56564990284E+001, +2.09355655231E+000
+2.87609511890E+005, +2.56502613313E+001, +6.13495692881E+000
+4.75219023780E+005, +2.56213355501E+001, +1.01808724659E+001
+6.62828535670E+005, +2.56696791987E+001, +1.41896842239E+001
+8.50438047559E+005, +2.56595745548E+001, +1.81490492737E+001
+1.03804755945E+006, +2.56467919400E+001, +2.21584690518E+001
+1.22565707134E+006, +2.56141934164E+001, +2.61322390162E+001
+1.41326658323E+006, +2.55908288604E+001, +3.01749188222E+001
+1.60087609512E+006, +2.56111128428E+001, +3.41890667865E+001
+1.78848560701E+006, +2.55915872125E+001, +3.81749817177E+001
+1.97609511890E+006, +2.55901318188E+001, +4.21617468134E+001
+2.16370463079E+006, +2.55330452916E+001, +4.61835785771E+001
+2.35131414268E+006, +2.55129637496E+001, +5.01824165076E+001
+2.53892365457E+006, +2.56189308670E+001, +5.42149336442E+001
+2.72653316646E+006, +2.54464323048E+001, +5.83436108594E+001
+2.91414267835E+006, +2.55497846516E+001, +6.22436036411E+001
+3.10175219024E+006, +2.56326669199E+001, +6.62987281345E+001
+3.28936170213E+006, +2.55750056045E+001, +7.04177729906E+001
+3.47697121402E+006, +2.55276221689E+001, +7.43672342326E+001
+3.66458072591E+006, +2.55999739875E+001, +7.84833511487E+001
+3.85219023780E+006, +2.56266094676E+001, +8.24586333990E+001
+4.03979974969E+006, +2.57041554293E+001, +8.66124520453E+001
+4.22740926158E+006, +2.58145259899E+001, +9.05101499601E+001
+4.41501877347E+006, +2.54380724459E+001, +9.43790714745E+001
+4.60262828536E+006, +2.56815444846E+001, +9.87418985907E+001
+4.79023779725E+006, +2.55510345519E+001, +1.02682142751E+002
+4.97784730914E+006, +2.56869874687E+001, +1.06908281339E+002
+5.16545682103E+006, +2.57052479528E+001, +1.10985272694E+002
+5.35306633292E+006, +2.58070557228E+001, +1.15061065649E+002
+5.54067584481E+006, +2.57042379110E+001, +1.19289494984E+002
+5.72828535670E+006, +2.55544553031E+001, +1.23575215381E+002
+5.91589486859E+006, +2.59229961122E+001, +1.27540314188E+002
+6.10350438048E+006, +2.57230605978E+001, +1.31914900308E+002
+6.29111389237E+006, +2.60730331385E+001, +1.35860119806E+002
+6.47872340426E+006, +2.60052899180E+001, +1.40101441485E+002
+6.66633291615E+006, +2.61821429377E+001, +1.44171572395E+002
+6.85394242804E+006, +2.62274714195E+001, +1.48594189424E+002
+7.04155193992E+006, +2.62103475219E+001, +1.52473011067E+002
+7.22916145181E+006, +2.63804330042E+001, +1.56798383527E+002
+7.41677096370E+006, +2.63955319451E+001, +1.61116729034E+002
+7.60438047559E+006, +2.64931122261E+001, +1.65348209412E+002
+7.79198998748E+006, +2.66624435949E+001, +1.69480728366E+002
+7.97959949937E+006, +2.65458488544E+001, +1.73899538484E+002
+8.16720901126E+006, +2.67230654689E+001, +1.78207929837E+002
+8.35481852315E+006, +2.67348727834E+001, +1.82261157676E+002
+8.54242803504E+006, +2.67063117557E+001, +1.86665730428E+002
+8.73003754693E+006, +2.67948240602E+001, +1.91033759011E+002
+8.91764705882E+006, +2.68361161684E+001, +1.95429314951E+002
+9.10525657071E+006, +2.68202028209E+001, +1.99642616299E+002
+9.29286608260E+006, +2.68042333090E+001, +2.03921126529E+002
+9.48047559449E+006, +2.71525873071E+001, +2.08364247512E+002
+9.66808510638E+006, +2.70477567222E+001, +2.13017407436E+002
+9.85569461827E+006, +2.69874823252E+001, +2.17070787302E+002
+1.00433041302E+007, +2.72922758338E+001, +2.21534704724E+002
+1.02309136421E+007, +2.72532153960E+001, +2.26037710794E+002
+1.04185231539E+007, +2.74240193300E+001, +2.30270362845E+002
+1.06061326658E+007, +2.73324761380E+001, +2.34837353386E+002
+1.07937421777E+007, +2.75918139159E+001, +2.39536315304E+002
+1.09813516896E+007, +2.78176206930E+001, +2.43949047793E+002
+1.11689612015E+007, +2.75552965620E+001, +2.48661843819E+002
+1.13565707134E+007, +2.76726076173E+001, +2.53085257581E+002
+1.15441802253E+007, +2.80214569331E+001, +2.57400221148E+002
+1.17317897372E+007, +2.77333396327E+001, +2.62452624986E+002
+1.19193992491E+007, +2.80109757000E+001, +2.66763981866E+002
+1.21070087610E+007, +2.80101024396E+001, +2.71275442863E+002
+1.22946182728E+007, +2.83195225411E+001, +2.76187984069E+002
+1.24822277847E+007, +2.78898164471E+001, +2.80837790912E+002
+1.26698372966E+007, +2.77618217191E+001, +2.85185321684E+002
+1.28574468085E+007, +2.80927000451E+001, +2.89827942150E+002
+1.30450563204E+007, +2.84757722887E+001, +2.95172922602E+002
+1.32326658323E+007, +2.83792009779E+001, +2.99445599205E+002
+1.34202753442E+007, +2.83181182014E+001, +3.04050128620E+002
+1.36078848561E+007, +2.80450653944E+001, +3.09171718994E+002
+1.37954943680E+007, +2.84772906150E+001, +3.14394076389E+002
+1.39831038798E+007, +2.83121410603E+001, +3.19101525111E+002
+1.41707133917E+007, +2.89885215823E+001, +3.23985461182E+002
+1.43583229036E+007, +2.88152226076E+001, +3.29431014569E+002
+1.45459324155E+007, +2.88997918168E+001, +3.34257995773E+002
+1.47335419274E+007, +2.96382313803E+001, +3.38417323634E+002
+1.49211514393E+007, +2.87165845437E+001, +3.43409765670E+002
+1.51087609512E+007, +2.95014366596E+001, +3.48583995834E+002
+1.52963704631E+007, +2.99219947320E+001, +3.54071049844E+002
+1.54839799750E+007, +2.97654207301E+001, +3.59237644173E+002
+1.56715894869E+007, +2.94739733342E+001, +3.64452282095E+002
+1.58591989987E+007, +3.02609843494E+001, +3.69234858198E+002
+1.60468085106E+007, +2.93534835941E+001, +3.74527433999E+002
+1.62344180225E+007, +2.96488594396E+001, +3.80032342709E+002
+1.64220275344E+007, +2.95731983762E+001, +3.85158316399E+002
+1.66096370463E+007, +3.01528665435E+001, +3.90816900784E+002
+1.67972465582E+007, +2.95733570934E+001, +3.95351669506E+002
+1.69848560701E+007, +3.05997704622E+001, +4.00991803940E+002
+1.71724655820E+007, +2.90799804263E+001, +4.07075953604E+002
+1.73600750939E+007, +2.98119591139E+001, +4.12248475983E+002
+1.75476846058E+007, +2.92727022712E+001, +4.18031454799E+002
+1.77352941176E+007, +3.00987620085E+001, +4.22208550212E+002
+1.79229036295E+007, +3.10763334574E+001, +4.30073492171E+002
+1.81105131414E+007, +3.14967622312E+001, +4.35072052881E+002
+1.82981226533E+007, +3.15274364964E+001, +4.40646227252E+002
+1.84857321652E+007, +3.16732915672E+001, +4.46973612056E+002
+1.86733416771E+007, +3.19213200232E+001, +4.50927302733E+002
+1.88609511890E+007, +3.17094261887E+001, +4.57621746886E+002
+1.90485607009E+007, +3.21612615391E+001, +4.63252044851E+002
+1.92361702128E+007, +3.31303494356E+001, +4.69250275868E+002
+1.94237797247E+007, +3.19751097505E+001, +4.75300799214E+002
+1.96113892365E+007, +3.26891792904E+001, +4.81921172733E+002
+1.97989987484E+007, +3.18948028755E+001, +4.88353350676E+002
+1.99866082603E+007, +3.19518245040E+001, +4.93903005505E+002
+2.01742177722E+007, +3.25431743028E+001, +4.99160947206E+002
+2.03618272841E+007, +3.23316065034E+001, +5.06072811250E+002
+2.05494367960E+007, +3.45081007036E+001, +5.13168962157E+002
+2.07370463079E+007, +3.40147609946E+001, +5.19342377727E+002
+2.09246558198E+007, +3.39125923687E+001, +5.26491863862E+002
+2.11122653317E+007, +3.57322567102E+001, +5.31435324802E+002
+2.12998748436E+007, +3.51288560984E+001, +5.36704772188E+002
+2.14874843554E+007, +3.53051950678E+001, +5.44832225465E+002
+2.16750938673E+007, +3.56053981571E+001, +5.52155829640E+002
+2.18627033792E+007, +3.70280305692E+001, +5.58388460972E+002
+2.20503128911E+007, +3.59145339404E+001, +5.63336092002E+002
+2.22379224030E+007, +3.50187357680E+001, +5.70647050265E+002
+2.24255319149E+007, +3.67775675069E+001, +5.77565304253E+002
+2.26131414268E+007, +3.69247035640E+001, +5.85537797942E+002
+2.28007509387E+007, +3.88248996011E+001, +5.91563347888E+002
+2.29883604506E+007, +3.95760818599E+001, +5.99498781249E+002
+2.31759699625E+007, +3.74509867954E+001, +6.06780092596E+002
+2.33635794743E+007, +4.18746131372E+001, +6.14851640115E+002
+2.35511889862E+007, +3.97215772698E+001, +6.21768524779E+002
+2.37387984981E+007, +3.88614377589E+001, +6.29170264665E+002
+2.39264080100E+007, +4.01121015721E+001, +6.37396403364E+002
+2.41140175219E+007, +4.13331404838E+001, +6.44127857190E+002
+2.43016270338E+007, +4.17541596713E+001, +6.51092147971E+002
+2.44892365457E+007, +4.23976461849E+001, +6.59362080455E+002
+2.46768460576E+007, +4.36062249187E+001, +6.66792705150E+002
+2.48644555695E+007, +4.36990097569E+001, +6.73471035653E+002
+2.50520650814E+007, +4.27518544826E+001, +6.83136111006E+002
+2.52396745932E+007, +4.56346022032E+001, +6.89887485671E+002
+2.54272841051E+007, +4.59921827626E+001, +6.96756239377E+002
+2.56148936170E+007, +4.58551209034E+001, +7.06032489745E+002
+2.58025031289E+007, +4.64836676636E+001, +7.16587381732E+002
+2.59901126408E+007, +4.53976297378E+001, +7.21889104125E+002
+2.61777221527E+007, +4.64694684851E+001, +7.31013147060E+002
+2.63653316646E+007, +4.78573705031E+001, +7.40390349530E+002
+2.65529411765E+007, +4.87588088343E+001, +7.44129904661E+002
+2.67405506884E+007, +4.79248630696E+001, +7.54334252908E+002
+2.69281602003E+007, +5.03258450111E+001, +7.65945643646E+002
+2.71157697121E+007, +5.09354594398E+001, +7.72796322077E+002
+2.73033792240E+007, +4.79765497889E+001, +7.84282298158E+002
+2.74909887359E+007, +5.23180002157E+001, +7.95883021592E+002
+2.76785982478E+007, +5.47133720136E+001, +8.02099340592E+002
+2.78662077597E+007, +5.34381623953E+001, +8.08317823825E+002
+2.80538172716E+007, +5.51526395992E+001, +8.16865851564E+002
+2.82414267835E+007, +5.28886119723E+001, +8.22903683006E+002
+2.84290362954E+007, +5.02640118694E+001, +8.37023311425E+002
+2.86166458073E+007, +5.44487129798E+001, +8.49796480968E+002
+2.88042553191E+007, +4.98939066246E+001, +8.56294228860E+002
+2.89918648310E+007, +5.26371612405E+001, +8.64606811175E+002
+2.91794743429E+007, +5.09732302248E+001, +8.77863834627E+002
+2.93670838548E+007, +5.33136356689E+001, +8.90666796176E+002
+2.95546933667E+007, +5.77694532303E+001, +8.98625966095E+002
+2.97423028786E+007, +5.24832266860E+001, +9.11743942779E+002
+2.99299123905E+007, +5.57549765612E+001, +9.26412368828E+002
+3.01175219024E+007, +5.98211536637E+001, +9.36586632946E+002
+3.03051314143E+007, +5.13646952409E+001, +9.51668429725E+002
+3.04927409262E+007, +5.76257838845E+001, +9.59301793989E+002
+3.06803504380E+007, +5.88872506689E+001, +9.72636296462E+002
+3.08679599499E+007, +5.48990698434E+001, +9.83375078368E+002
+3.10555694618E+007, +5.45962478017E+001, +9.97518381733E+002
+3.12431789737E+007, +6.06232626042E+001, +1.00715839773E+003
+3.14307884856E+007, +5.92918421124E+001, +1.02364324606E+003
+3.16183979975E+007, +6.01860726125E+001, +1.03795460447E+003
+3.18060075094E+007, +6.27785513136E+001, +1.05354449729E+003
+3.19936170213E+007, +5.86555072169E+001, +1.06346826629E+003
+3.21812265332E+007, +5.61288213765E+001, +1.07322758976E+003
+3.23688360451E+007, +6.24267761684E+001, +1.09583343779E+003
+3.25564455569E+007, +6.06357749336E+001, +1.10805244896E+003
+3.27440550688E+007, +6.31951986969E+001, +1.12301705491E+003
+3.29316645807E+007, +6.18187218317E+001, +1.13041393602E+003
+3.31192740926E+007, +7.03792137843E+001, +1.14889890262E+003
+3.33068836045E+007, +6.54946157938E+001, +1.16411300309E+003
+3.34944931164E+007, +6.98607319678E+001, +1.18540422155E+003
+3.36821026283E+007, +6.98321032126E+001, +1.19892865741E+003
+3.38697121402E+007, +6.82741220566E+001, +1.21089117925E+003
+3.40573216521E+007, +7.04608664299E+001, +1.22592220809E+003
+3.42449311640E+007, +6.98445357939E+001, +1.24831905713E+003
+3.44325406758E+007, +6.99018681123E+001, +1.27358920728E+003
+3.46201501877E+007, +7.82682173774E+001, +1.28200551803E+003
+3.48077596996E+007, +7.73184091083E+001, +1.30366685155E+003
+3.49953692115E+007, +7.94914792717E+001, +1.32096928065E+003
+3.51829787234E+007, +8.12575563510E+001, +1.33648498172E+003
+3.53705882353E+007, +8.32303766100E+001, +1.36841565465E+003
+3.55581977472E+007, +8.02159471701E+001, +1.37986862261E+003
+3.57458072591E+007, +7.59261391467E+001, +1.40680324955E+003
+3.59334167710E+007, +7.74747752194E+001, +1.41939692091E+003
+3.61210262829E+007, +8.90183470806E+001, +1.44207729636E+003
+3.63086357947E+007, +9.48274425526E+001, +1.46811901682E+003
+3.64962453066E+007, +9.88281229308E+001, +1.49603189526E+003
+3.66838548185E+007, +8.26729943735E+001, +1.50228074927E+003
+3.68714643304E+007, +8.34836132339E+001, +1.53510937680E+003
+3.70590738423E+007, +9.53375858783E+001, +1.56230659716E+003
+3.72466833542E+007, +1.01161034575E+002, +1.57700552581E+003
+3.74342928661E+007, +1.06489039165E+002, +1.60541758313E+003
+3.76219023780E+007, +9.22826519938E+001, +1.62597789309E+003
+3.78095118899E+007, +1.06596576882E+002, +1.65569672387E+003
+3.79971214018E+007, +1.09388372042E+002, +1.68387206371E+003
+3.81847309136E+007, +1.12152961808E+002, +1.71401265834E+003
+3.83723404255E+007, +1.05988313856E+002, +1.74141196824E+003
+3.85599499374E+007, +1.02764168915E+002, +1.77334442595E+003
+3.87475594493E+007, +1.20541819611E+002, +1.82276168469E+003
+3.89351689612E+007, +1.18654856643E+002, +1.84161933475E+003
+3.91227784731E+007, +1.04324109483E+002, +1.88737037998E+003
+3.93103879850E+007, +1.11167625956E+002, +1.93834287165E+003
+3.94979974969E+007, +1.31646256021E+002, +1.95613324600E+003
+3.96856070088E+007, +1.32295880808E+002, +2.00226516507E+003
+3.98732165207E+007, +1.23309506408E+002, +2.04082276562E+003
+4.00608260325E+007, +1.52842629124E+002, +2.06532841173E+003
+4.02484355444E+007, +1.43889202151E+002, +2.12754141162E+003
+4.04360450563E+007, +1.43326001500E+002, +2.16632270668E+003
+4.06236545682E+007, +1.44315018368E+002, +2.19970444667E+003
+4.08112640801E+007, +1.86582316022E+002, +2.22910668291E+003
+4.09988735920E+007, +1.68973971605E+002, +2.30484434071E+003
+4.11864831039E+007, +1.96771211755E+002, +2.33267697734E+003
+4.13740926158E+007, +1.96017176579E+002, +2.39980252446E+003
+4.15617021277E+007, +1.99647790979E+002, +2.48089815132E+003
+4.17493116395E+007, +2.47845453823E+002, +2.51114757141E+003
+4.19369211514E+007, +2.46589320739E+002, +2.58078049872E+003
+4.21245306633E+007, +2.27764757041E+002, +2.64628426246E+003
+4.23121401752E+007, +2.07049452569E+002, +2.67659201609E+003
+4.24997496871E+007, +2.59359640678E+002, +2.81505410937E+003
+4.26873591990E+007, +3.10076208303E+002, +2.82299933937E+003
+4.28749687109E+007, +3.22727923873E+002, +2.90246474385E+003
+4.30625782228E+007, +3.20873024091E+002, +2.96535888428E+003
+4.32501877347E+007, +3.76529299033E+002, +3.06817676409E+003
+4.34377972466E+007, +2.76465540746E+002, +3.13808765374E+003
+4.36254067584E+007, +3.38233673327E+002, +3.27377501095E+003
+4.38130162703E+007, +3.55520475677E+002, +3.33390945299E+003
+4.40006257822E+007, +4.07457134933E+002, +3.41077080897E+003
+4.41882352941E+007, +4.46319282312E+002, +3.47312010730E+003
+4.43758448060E+007, +5.07920827920E+002, +3.64425811712E+003
+4.45634543179E+007, +5.59731647207E+002, +3.81338417224E+003
+4.47510638298E+007, +4.71172683851E+002, +3.88405187768E+003
+4.49386733417E+007, +4.72397690689E+002, +3.97325618419E+003
+4.51262828536E+007, +5.58980155456E+002, +4.21823158310E+003
+4.53138923655E+007, +5.96880824871E+002, +4.35906369990E+003
+4.55015018773E+007, +6.49094154105E+002, +4.55079622042E+003
+4.56891113892E+007, +8.37240151083E+002, +4.71793537903E+003
+4.58767209011E+007, +7.81154278109E+002, +4.80407736123E+003
+4.60643304130E+007, +8.40884794888E+002, +5.08842998647E+003
+4.62519399249E+007, +9.43583715031E+002, +5.34143269511E+003
+4.64395494368E+007, +1.15562515350E+003, +5.58745078808E+003
+4.66271589487E+007, +1.31165812505E+003, +5.92583887588E+003
+4.68147684606E+007, +1.29143052327E+003, +6.12237450113E+003
+4.70023779725E+007, +1.73817066267E+003, +6.36268264551E+003
+4.71899874844E+007, +1.73211050016E+003, +6.83486095068E+003
+4.73775969962E+007, +1.96944159415E+003, +7.27778022117E+003
+4.75652065081E+007, +2.32326011419E+003, +7.62304794678E+003
+4.77528160200E+007, +2.77251719223E+003, +7.67268025256E+003
+4.79404255319E+007, +3.21788722615E+003, +8.48539074451E+003
+4.81280350438E+007, +3.86330115850E+003, +9.05275839725E+003
+4.83156445557E+007, +4.78795253604E+003, +9.61470556374E+003
+4.85032540676E+007, +5.44208672304E+003, +1.05425865758E+004
+4.86908635795E+007, +6.06980859909E+003, +1.04001831318E+004
+4.88784730914E+007, +8.12771616479E+003, +1.10946732628E+004
+4.90660826033E+007, +1.01646802123E+004, +1.10690257290E+004
+4.92536921151E+007, +1.03357439062E+004, +1.03582556077E+004
+4.94413016270E+007, +1.38851109217E+004, +1.05945115032E+004
+4.96289111389E+007, +1.76347729415E+004, +1.05063475419E+004
+4.98165206508E+007, +2.07487995754E+004, +7.71194379762E+003
+5.00041301627E+007, +2.14595190294E+004, +5.14217258176E+003
+5.01917396746E+007, +2.08232746746E+004, +1.08408039725E+003
+5.03793491865E+007, +2.04208088647E+004, -2.56947603348E+002
+5.05669586984E+007, +2.03917886110E+004, -5.26594342707E+003
+5.07545682103E+007, +1.96079776855E+004, -7.27949322138E+003
+5.09421777222E+007, +1.55985594667E+004, -7.72116877508E+003
+5.11297872340E+007, +1.35571028537E+004, -9.53047209515E+003
+5.13173967459E+007, +1.09013264542E+004, -1.08841237394E+004
+5.15050062578E+007, +1.11007454552E+004, -1.04390468570E+004
+5.16926157697E+007, +9.35013975043E+003, -1.09159854461E+004
+5.18802252816E+007, +7.59554634541E+003, -1.01462985933E+004
+5.20678347935E+007, +5.96781440205E+003, -1.04348696422E+004
+5.22554443054E+007, +5.07787182813E+003, -9.40253527330E+003
+5.24430538173E+007, +4.82719370233E+003, -8.79444018736E+003
+5.26306633292E+007, +4.01381865444E+003, -8.57968497855E+003
+5.28182728411E+007, +3.75616887631E+003, -7.91527609867E+003
+5.30058823529E+007, +3.21176591364E+003, -7.55642948811E+003
+5.31934918648E+007, +2.69317264320E+003, -7.16374882496E+003
+5.33811013767E+007, +2.33466337760E+003, -6.66451586311E+003
+5.35687108886E+007, +1.92801744660E+003, -6.60608116161E+003
+5.37563204005E+007, +1.83727744404E+003, -6.20740202880E+003
+5.39439299124E+007, +1.57515584938E+003, -5.68596011103E+003
+5.41315394243E+007, +1.41626023125E+003, -5.76569724392E+003
+5.43191489362E+007, +1.31004479388E+003, -5.54830110835E+003
+5.45067584481E+007, +1.31273251154E+003, -5.10295737320E+003
+5.46943679599E+007, +1.15534897025E+003, -4.90239439354E+003
+5.48819774718E+007, +1.07324356904E+003, -4.70060707705E+003
+5.50695869837E+007, +1.01918534261E+003, -4.52383362638E+003
+5.52571964956E+007, +7.95542771317E+002, -4.38877446861E+003
+5.54448060075E+007, +8.57738491382E+002, -4.19310809209E+003
+5.56324155194E+007, +7.75637048452E+002, -4.09756669178E+003
+5.58200250313E+007, +7.56284238733E+002, -3.91815484816E+003
+5.60076345432E+007, +7.17810197732E+002, -3.88789912484E+003
+5.61952440551E+007, +6.43282279528E+002, -3.68305228906E+003
+5.63828535670E+007, +6.23573364106E+002, -3.56085069372E+003
+5.65704630788E+007, +5.90066888686E+002, -3.51723876400E+003
+5.67580725907E+007, +4.57787129400E+002, -3.34447485036E+003
+5.69456821026E+007, +4.82037691550E+002, -3.22116772665E+003
+5.71332916145E+007, +5.01493200210E+002, -3.17274806806E+003
+5.73209011264E+007, +4.83341430656E+002, -3.01940313284E+003
+5.75085106383E+007, +3.92337035604E+002, -2.92655505466E+003
+5.76961201502E+007, +4.06229909457E+002, -2.86853345723E+003
+5.78837296621E+007, +3.95404414289E+002, -2.75423128470E+003
+5.80713391740E+007, +3.78537081837E+002, -2.68798726298E+003
+5.82589486859E+007, +3.76520719727E+002, -2.59264259491E+003
+5.84465581977E+007, +3.91171510628E+002, -2.54788505550E+003
+5.86341677096E+007, +3.64878265539E+002, -2.48105756613E+003
+5.88217772215E+007, +3.33342115121E+002, -2.42892568026E+003
+5.90093867334E+007, +3.50114557174E+002, -2.33388137491E+003
+5.91969962453E+007, +3.54267855493E+002, -2.29864597670E+003
+5.93846057572E+007, +3.54419147743E+002, -2.24916191749E+003
+5.95722152691E+007, +3.42544537962E+002, -2.19850865256E+003
+5.97598247810E+007, +3.50753506709E+002, -2.14728771514E+003
+5.99474342929E+007, +3.65307230851E+002, -2.12993097107E+003
+6.01350438048E+007, +3.64689496218E+002, -2.08478551868E+003
