"# Channel 1"
"# Trace 1"
Frequency, Formatted Data, Formatted Data
+1.00000000000E+005, +7.62735332646E-001, +2.25703986016E+000
+2.25031289111E+005, +7.87521182344E-001, +5.08614780771E+000
+3.50062578223E+005, +7.89771272474E-001, +7.90254552234E+000
+4.75093867334E+005, +7.93016872922E-001, +1.07535631953E+001
+6.00125156446E+005, +8.09648790014E-001, +1.35732510770E+001
+7.25156445557E+005, +8.53222286417E-001, +1.63701717121E+001
+8.50187734668E+005, +9.43851983280E-001, +1.91543558650E+001
+9.75219023780E+005, +9.12179937935E-001, +2.19418944508E+001
+1.10025031289E+006, +9.99313588538E-001, +2.47440886039E+001
+1.22528160200E+006, +1.03812037710E+000, +2.75551356398E+001
+1.35031289111E+006, +1.02331339175E+000, +3.03838184346E+001
+1.47534418023E+006, +1.09212864031E+000, +3.31226210770E+001
+1.60037546934E+006, +1.06532611782E+000, +3.58480726743E+001
+1.72540675845E+006, +1.13322140944E+000, +3.86609542890E+001
+1.85043804756E+006, +1.17923996916E+000, +4.13816213978E+001
+1.97546933667E+006, +1.16948220238E+000, +4.41855876615E+001
+2.10050062578E+006, +1.17038949954E+000, +4.69441718140E+001
+2.22553191489E+006, +1.14361203048E+000, +4.97913753368E+001
+2.35056320401E+006, +1.15671741194E+000, +5.25094257467E+001
+2.47559449312E+006, +1.21904270567E+000, +5.52473325619E+001
+2.60062578223E+006, +1.22057251538E+000, +5.80340659908E+001
+2.72565707134E+006, +1.32485470540E+000, +6.07820390405E+001
+2.85068836045E+006, +1.26568926505E+000, +6.35995687852E+001
+2.97571964956E+006, +1.31511360362E+000, +6.63699789276E+001
+3.10075093867E+006, +1.22702381688E+000, +6.93318091968E+001
+3.22578222778E+006, +1.30075479826E+000, +7.19709082874E+001
+3.35081351690E+006, +1.40166912909E+000, +7.47891895837E+001
+3.47584480601E+006, +1.42154722316E+000, +7.75170796137E+001
+3.60087609512E+006, +1.48093064653E+000, +8.02608663764E+001
+3.72590738423E+006, +1.39422196405E+000, +8.31831025853E+001
+3.85093867334E+006, +1.53523051728E+000, +8.59484530911E+001
+3.97596996245E+006, +1.46500329280E+000, +8.87090126906E+001
+4.10100125156E+006, +1.40955821451E+000, +9.16375903825E+001
+4.22603254068E+006, +1.50886231404E+000, +9.42230519911E+001
+4.35106382979E+006, +1.46160444655E+000, +9.71284473565E+001
+4.47609511890E+006, +1.56478221410E+000, +9.98647144694E+001
+4.60112640801E+006, +1.36454565264E+000, +1.02784509115E+002
+4.72615769712E+006, +1.44727030228E+000, +1.05428249748E+002
+4.85118898623E+006, +1.48892401376E+000, +1.08349876293E+002
+4.97622027534E+006, +1.51197303551E+000, +1.11189451754E+002
+5.10125156446E+006, +1.28919393248E+000, +1.13809846341E+002
+5.22628285357E+006, +1.53675977229E+000, +1.16745674168E+002
+5.35131414268E+006, +1.38184891636E+000, +1.19670730570E+002
+5.47634543179E+006, +1.56756707299E+000, +1.22514270226E+002
+5.60137672090E+006, +1.52028415497E+000, +1.25582534063E+002
+5.72640801001E+006, +1.52923882045E+000, +1.28111179425E+002
+5.85143929912E+006, +1.72048885473E+000, +1.31104032646E+002
+5.97647058824E+006, +1.49020021380E+000, +1.33906010081E+002
+6.10150187735E+006, +1.57147822873E+000, +1.36822314347E+002
+6.22653316646E+006, +1.86751202645E+000, +1.39561013431E+002
+6.35156445557E+006, +1.76264008073E+000, +1.42482161198E+002
+6.47659574468E+006, +1.90869692614E+000, +1.45475814776E+002
+6.60162703379E+006, +1.73757401764E+000, +1.48377658592E+002
+6.72665832290E+006, +1.77464962561E+000, +1.51086855903E+002
+6.85168961202E+006, +1.82199907375E+000, +1.54135212202E+002
+6.97672090113E+006, +1.89964467771E+000, +1.56878404852E+002
+7.10175219024E+006, +1.95784104382E+000, +1.59746010651E+002
+7.22678347935E+006, +1.86120825495E+000, +1.62584468306E+002
+7.35181476846E+006, +1.80898790350E+000, +1.65484946448E+002
+7.47684605757E+006, +1.82019673246E+000, +1.68447229694E+002
+7.60187734668E+006, +1.91972917402E+000, +1.71239641036E+002
+7.72690863579E+006, +2.02631985410E+000, +1.73996963788E+002
+7.85193992491E+006, +2.04041809740E+000, +1.77130975450E+002
+7.97697121402E+006, +2.10377266878E+000, +1.80104667728E+002
+8.10200250313E+006, +2.06893650872E+000, +1.83032626680E+002
+8.22703379224E+006, +1.91887520289E+000, +1.86040407430E+002
+8.35206508135E+006, +1.95735146017E+000, +1.88915739560E+002
+8.47709637046E+006, +1.95415741012E+000, +1.91667593503E+002
+8.60212765957E+006, +1.96411036168E+000, +1.94770946118E+002
+8.72715894869E+006, +2.09297909863E+000, +1.97842128715E+002
+8.85219023780E+006, +2.23035748470E+000, +2.00922816970E+002
+8.97722152691E+006, +2.15264564032E+000, +2.03876179373E+002
+9.10225281602E+006, +2.11901159353E+000, +2.06678817669E+002
+9.22728410513E+006, +2.19511702490E+000, +2.09569031323E+002
+9.35231539424E+006, +2.03697836952E+000, +2.12775143608E+002
+9.47734668335E+006, +2.14177106419E+000, +2.15542380699E+002
+9.60237797247E+006, +2.17753839580E+000, +2.18528784815E+002
+9.72740926158E+006, +2.21297910218E+000, +2.21733082966E+002
+9.85244055069E+006, +2.44103453661E+000, +2.24476135507E+002
+9.97747183980E+006, +2.03033005999E+000, +2.27515540711E+002
+1.01025031289E+007, +1.97361719092E+000, +2.30415280340E+002
+1.02275344180E+007, +2.38323820941E+000, +2.33682994241E+002
+1.03525657071E+007, +2.31312049474E+000, +2.36495545867E+002
+1.04775969962E+007, +2.13098757021E+000, +2.39879582049E+002
+1.06026282854E+007, +1.84297073749E+000, +2.42627163968E+002
+1.07276595745E+007, +2.36233914222E+000, +2.46017428152E+002
+1.08526908636E+007, +2.45278998194E+000, +2.49021849860E+002
+1.09777221527E+007, +2.05772480317E+000, +2.52008158189E+002
+1.11027534418E+007, +2.58146460141E+000, +2.55141554570E+002
+1.12277847309E+007, +1.92662469624E+000, +2.58104489936E+002
+1.13528160200E+007, +1.96569299347E+000, +2.61543035429E+002
+1.14778473091E+007, +2.25123288672E+000, +2.64145938202E+002
+1.16028785982E+007, +1.77001746509E+000, +2.67729802138E+002
+1.17279098874E+007, +2.32583893102E+000, +2.70701400863E+002
+1.18529411765E+007, +2.06488215903E+000, +2.73442524923E+002
+1.19779724656E+007, +2.03416482868E+000, +2.76382105854E+002
+1.21030037547E+007, +2.22254378112E+000, +2.79908565075E+002
+1.22280350438E+007, +2.44044443041E+000, +2.82951736679E+002
+1.23530663329E+007, +2.33916514443E+000, +2.86701858931E+002
+1.24780976220E+007, +2.12621443823E+000, +2.89492391674E+002
+1.26031289111E+007, +2.07916142609E+000, +2.92767325273E+002
+1.27281602003E+007, +2.06520231725E+000, +2.95879009943E+002
+1.28531914894E+007, +2.67870577254E+000, +2.99304419127E+002
+1.29782227785E+007, +1.88788658624E+000, +3.02298011869E+002
+1.31032540676E+007, +2.64710377622E+000, +3.05663790894E+002
+1.32282853567E+007, +2.25077290054E+000, +3.08642981124E+002
+1.33533166458E+007, +1.92549802794E+000, +3.11695001999E+002
+1.34783479349E+007, +1.63914699029E+000, +3.16033574040E+002
+1.36033792240E+007, +1.99780321553E+000, +3.18861434595E+002
+1.37284105131E+007, +1.19443918439E+000, +3.21734227998E+002
+1.38534418023E+007, +2.12379269483E+000, +3.25064734014E+002
+1.39784730914E+007, +2.00167577520E+000, +3.28543841163E+002
+1.41035043805E+007, +2.14557401464E+000, +3.31907775223E+002
+1.42285356696E+007, +2.11299072461E+000, +3.35044425018E+002
+1.43535669587E+007, +2.42625484733E+000, +3.38402341928E+002
+1.44785982478E+007, +1.67502927231E+000, +3.41858444945E+002
+1.46036295369E+007, +1.20678589141E+000, +3.44793684367E+002
+1.47286608260E+007, +1.47973372270E+000, +3.49556426538E+002
+1.48536921151E+007, +1.97123596026E+000, +3.52273662517E+002
+1.49787234043E+007, +2.13004920660E+000, +3.55823297120E+002
+1.51037546934E+007, +1.72762939589E+000, +3.57902801769E+002
+1.52287859825E+007, +1.87525220637E+000, +3.61498154071E+002
+1.53538172716E+007, +1.81483852871E+000, +3.65443366336E+002
+1.54788485607E+007, +1.34710548058E+000, +3.69431131234E+002
+1.56038798498E+007, +2.54752210569E+000, +3.72138512540E+002
+1.57289111389E+007, +1.25254714828E+000, +3.75871473269E+002
+1.58539424280E+007, +1.55954210732E+000, +3.79283103394E+002
+1.59789737171E+007, +2.50761285374E+000, +3.82515944267E+002
+1.61040050063E+007, +2.12063833236E+000, +3.85987695589E+002
+1.62290362954E+007, +2.16031019820E+000, +3.90030640089E+002
+1.63540675845E+007, +1.73442053965E+000, +3.93734653405E+002
+1.64790988736E+007, +2.24615558987E+000, +3.97128110222E+002
+1.66041301627E+007, +1.05403675126E+000, +4.00587560432E+002
+1.67291614518E+007, +1.35573443158E+000, +4.05115069924E+002
+1.68541927409E+007, +1.99995899447E+000, +4.08426622203E+002
+1.69792240300E+007, +1.03985361750E+000, +4.11541167773E+002
+1.71042553191E+007, +3.59329510076E-001, +4.15148086973E+002
+1.72292866083E+007, +1.25321038913E+000, +4.18631169260E+002
+1.73543178974E+007, +1.11360707118E+000, +4.22887669182E+002
+1.74793491865E+007, +7.29861922044E-001, +4.26042217289E+002
+1.76043804756E+007, +7.76081593890E-001, +4.30843173436E+002
+1.77294117647E+007, +1.19940568555E+000, +4.33495086367E+002
+1.78544430538E+007, +1.57376674079E+000, +4.38249867766E+002
+1.79794743429E+007, +1.32186923562E+000, +4.40841586453E+002
+1.81045056320E+007, +1.08301186304E+000, +4.45464476032E+002
+1.82295369212E+007, +1.01447740651E+000, +4.49283879160E+002
+1.83545682103E+007, +1.48221091352E+000, +4.53196785232E+002
+1.84795994994E+007, +2.29394242583E+000, +4.56996519912E+002
+1.86046307885E+007, +1.64034151081E+000, +4.60716494874E+002
+1.87296620776E+007, +1.45798423416E+000, +4.64817751288E+002
+1.88546933667E+007, +9.38851338395E-001, +4.67805759320E+002
+1.89797246558E+007, +1.53295296258E+000, +4.71911502820E+002
+1.91047559449E+007, +1.56568976496E+000, +4.75125940197E+002
+1.92297872340E+007, +1.38891780876E+000, +4.81860408619E+002
+1.93548185232E+007, +1.52843576987E+000, +4.84097286001E+002
+1.94798498123E+007, +1.12405907304E+000, +4.87151632709E+002
+1.96048811014E+007, +1.50720516770E+000, +4.91031892929E+002
+1.97299123905E+007, +8.83807403492E-001, +4.94866989424E+002
+1.98549436796E+007, +1.20670464766E+000, +5.01654320763E+002
+1.99799749687E+007, +1.45063754842E+000, +5.04466049895E+002
+2.01050062578E+007, +1.41966863750E+000, +5.08147469397E+002
+2.02300375469E+007, +1.59557436558E+000, +5.12285082732E+002
+2.03550688360E+007, +1.13531443757E-001, +5.16749069784E+002
+2.04801001252E+007, +1.45877615161E+000, +5.21322792694E+002
+2.06051314143E+007, +2.60965284488E+000, +5.26158005273E+002
+2.07301627034E+007, +1.97337694560E+000, +5.28835202243E+002
+2.08551939925E+007, +2.08926606035E+000, +5.34902588702E+002
+2.09802252816E+007, +1.40138351240E+000, +5.36696251061E+002
+2.11052565707E+007, +1.53798203510E+000, +5.41915339006E+002
+2.12302878598E+007, +4.39880150610E-001, +5.47019287274E+002
+2.13553191489E+007, +1.92211343051E+000, +5.49207717394E+002
+2.14803504380E+007, +2.97709447498E+000, +5.53537236502E+002
+2.16053817272E+007, +1.26191785423E+000, +5.60798775597E+002
+2.17304130163E+007, +1.78207270775E+000, +5.64900066162E+002
+2.18554443054E+007, +3.63427220446E+000, +5.67120991718E+002
+2.19804755945E+007, +2.14716589272E+000, +5.74244607656E+002
+2.21055068836E+007, +6.13081215485E-001, +5.78299116955E+002
+2.22305381727E+007, +2.45255365149E+000, +5.81598670359E+002
+2.23555694618E+007, +3.02212033083E+000, +5.87640334817E+002
+2.24806007509E+007, +3.23253917146E+000, +5.92191239821E+002
+2.26056320401E+007, +4.30892653994E+000, +5.95831053129E+002
+2.27306633292E+007, +4.63339974922E+000, +5.98229718719E+002
+2.28556946183E+007, +3.09833398544E+000, +6.05501116228E+002
+2.29807259074E+007, +3.60365360863E+000, +6.10820221612E+002
+2.31057571965E+007, +4.94061676034E+000, +6.12851602301E+002
+2.32307884856E+007, +5.64437999721E+000, +6.20753577461E+002
+2.33558197747E+007, +4.67310260645E+000, +6.22871921209E+002
+2.34808510638E+007, +4.43811579185E+000, +6.28515117358E+002
+2.36058823529E+007, +5.01227726972E+000, +6.33318575192E+002
+2.37309136421E+007, +4.95338855761E+000, +6.38339957157E+002
+2.38559449312E+007, +6.73230708788E+000, +6.45323809845E+002
+2.39809762203E+007, +6.70198126078E+000, +6.45538343704E+002
+2.41060075094E+007, +4.72918195155E+000, +6.50230393422E+002
+2.42310387985E+007, +6.43011100847E+000, +6.56437641091E+002
+2.43560700876E+007, +7.60543688116E+000, +6.59079093786E+002
+2.44811013767E+007, +6.38581716857E+000, +6.64977046528E+002
+2.46061326658E+007, +5.56023489940E+000, +6.69775014378E+002
+2.47311639549E+007, +6.77637940004E+000, +6.71313907554E+002
+2.48561952441E+007, +8.45749861622E+000, +6.79825449626E+002
+2.49812265332E+007, +5.33025205916E+000, +6.85694449515E+002
+2.51062578223E+007, +7.94939247121E+000, +6.87579050476E+002
+2.52312891114E+007, +6.66219504078E+000, +6.92944952123E+002
+2.53563204005E+007, +5.30038594558E+000, +7.01936081879E+002
+2.54813516896E+007, +2.54460271458E+000, +7.04198006327E+002
+2.56063829787E+007, +3.71167906063E+000, +7.08817064400E+002
+2.57314142678E+007, +5.15837116653E+000, +7.15095855725E+002
+2.58564455569E+007, +4.61630000152E+000, +7.19098828009E+002
+2.59814768461E+007, +6.39438425982E+000, +7.23566279982E+002
+2.61065081352E+007, +3.13432048413E+000, +7.30628603535E+002
+2.62315394243E+007, +3.03492325872E+000, +7.37902668253E+002
+2.63565707134E+007, +4.54692980408E+000, +7.42589361618E+002
+2.64816020025E+007, +5.50418564612E+000, +7.49098538719E+002
+2.66066332916E+007, +5.63158471817E+000, +7.52843196531E+002
+2.67316645807E+007, +4.52549082159E+000, +7.58478889093E+002
+2.68566958698E+007, +7.38147503286E+000, +7.64950445423E+002
+2.69817271589E+007, +3.07130178916E+000, +7.72323566187E+002
+2.71067584481E+007, +4.72210510338E+000, +7.80958195504E+002
+2.72317897372E+007, +4.99925732031E+000, +7.82917706238E+002
+2.73568210263E+007, +1.07758860462E+001, +7.85723256096E+002
+2.74818523154E+007, +9.01197425101E+000, +7.91636114399E+002
+2.76068836045E+007, +7.12303824339E+000, +7.98642488888E+002
+2.77319148936E+007, +4.97526513467E+000, +8.05491865862E+002
+2.78569461827E+007, +6.55210047194E+000, +8.11070148238E+002
+2.79819774718E+007, +4.79142999752E+000, +8.18408426106E+002
+2.81070087610E+007, +8.00946104819E+000, +8.20761275116E+002
+2.82320400501E+007, +4.79044684322E+000, +8.32843989344E+002
+2.83570713392E+007, +3.53560124443E+000, +8.34382378301E+002
+2.84821026283E+007, +7.56459504563E+000, +8.41435674400E+002
+2.86071339174E+007, +3.76450175721E+000, +8.47710570929E+002
+2.87321652065E+007, +2.05913386935E+000, +8.53006399024E+002
+2.88571964956E+007, +5.81237588304E+000, +8.61251779256E+002
+2.89822277847E+007, +4.43017811755E+000, +8.71865978094E+002
+2.91072590738E+007, +3.12914074317E+000, +8.79392283144E+002
+2.92322903630E+007, +7.75720953017E-001, +8.85973534396E+002
+2.93573216521E+007, +3.94122416626E+000, +8.93201203107E+002
+2.94823529412E+007, +4.13201206033E+000, +8.96458758107E+002
+2.96073842303E+007, +2.95481466185E+000, +9.02501538643E+002
+2.97324155194E+007, +2.88105108703E+000, +9.14702643793E+002
+2.98574468085E+007, +1.03922102990E-001, +9.17300665188E+002
+2.99824780976E+007, +1.54209800778E+000, +9.28815117737E+002
+3.01075093867E+007, +6.84398541532E+000, +9.30675503708E+002
+3.02325406758E+007, +6.72589494854E+000, +9.39821198770E+002
+3.03575719650E+007, +4.24407495737E+000, +9.49344065837E+002
+3.04826032541E+007, -2.32161213274E+000, +9.57306078894E+002
+3.06076345432E+007, +3.79414001202E+000, +9.58195081909E+002
+3.07326658323E+007, +4.82565219695E+000, +9.66667843872E+002
+3.08576971214E+007, -4.97207468206E-001, +9.77946258123E+002
+3.09827284105E+007, +4.48785123805E+000, +9.88433568355E+002
+3.11077596996E+007, -3.00436538333E+000, +9.93367067942E+002
+3.12327909887E+007, +1.32877811822E+000, +1.00267912341E+003
+3.13578222778E+007, +6.00782258316E+000, +1.00853196718E+003
+3.14828535670E+007, +5.91023146961E+000, +1.01811934164E+003
+3.16078848561E+007, +2.30364931884E+000, +1.02259108914E+003
+3.17329161452E+007, +1.83751025439E+000, +1.03070024641E+003
+3.18579474343E+007, -2.98765867559E+000, +1.05152404424E+003
+3.19829787234E+007, -1.51406631278E+000, +1.05320211113E+003
+3.21080100125E+007, -1.31481330210E-001, +1.05988976652E+003
+3.22330413016E+007, +1.91548814805E-001, +1.06575988186E+003
+3.23580725907E+007, -6.30282987375E-001, +1.07668400290E+003
+3.24831038798E+007, +2.10992301852E+000, +1.08342148060E+003
+3.26081351690E+007, +1.70639878814E+000, +1.09622408077E+003
+3.27331664581E+007, -1.07079370665E+000, +1.09987739274E+003
+3.28581977472E+007, -2.40459522483E+000, +1.11932571641E+003
+3.29832290363E+007, -2.28045867361E+000, +1.12683608689E+003
+3.31082603254E+007, -4.34227761469E-001, +1.12871452862E+003
+3.32332916145E+007, +1.37970503693E+000, +1.14317171834E+003
+3.33583229036E+007, +3.21598155067E+000, +1.15259170477E+003
+3.34833541927E+007, +1.03109390151E+000, +1.15757269646E+003
+3.36083854819E+007, -7.52905822180E-001, +1.16488646321E+003
+3.37334167710E+007, +4.53852529197E+000, +1.17877597219E+003
+3.38584480601E+007, -1.58485076941E+000, +1.18691769549E+003
+3.39834793492E+007, +2.11396044812E+000, +1.20427162747E+003
+3.41085106383E+007, +2.63795235138E+000, +1.21310598265E+003
+3.42335419274E+007, +1.09808827784E+001, +1.21716948759E+003
+3.43585732165E+007, +5.55220763544E+000, +1.23224021909E+003
+3.44836045056E+007, +6.58171938580E+000, +1.24483394500E+003
+3.46086357947E+007, -1.87753989270E-001, +1.25095072174E+003
+3.47336670839E+007, +6.64373499366E+000, +1.26277901561E+003
+3.48586983730E+007, +7.08401613888E+000, +1.27903010019E+003
+3.49837296621E+007, +1.69518291748E+000, +1.29280095739E+003
+3.51087609512E+007, +6.73025204955E+000, +1.30341358060E+003
+3.52337922403E+007, +6.95565479110E+000, +1.30314976101E+003
+3.53588235294E+007, -2.35478629729E+000, +1.31990659581E+003
+3.54838548185E+007, +1.02514224738E+001, +1.33689468818E+003
+3.56088861076E+007, +4.45698157689E+000, +1.35027559793E+003
+3.57339173967E+007, +7.23556488952E+000, +1.35957830913E+003
+3.58589486859E+007, -3.25269926418E-001, +1.37148943777E+003
+3.59839799750E+007, +4.28207116895E+000, +1.38067905355E+003
+3.61090112641E+007, +6.18106151333E+000, +1.39611097032E+003
+3.62340425532E+007, +2.20246110321E+000, +1.40762589841E+003
+3.63590738423E+007, +1.13705387117E+001, +1.41610152704E+003
+3.64841051314E+007, +9.15905876915E+000, +1.42874677970E+003
+3.66091364205E+007, -5.70332545064E+000, +1.44452043165E+003
+3.67341677096E+007, +1.25786856977E+001, +1.46604057788E+003
+3.68591989987E+007, +8.09680639553E+000, +1.47828061347E+003
+3.69842302879E+007, +6.84706730304E+000, +1.48701971771E+003
+3.71092615770E+007, +1.38633064590E+001, +1.50379505708E+003
+3.72342928661E+007, +4.99574019450E+000, +1.51290427464E+003
+3.73593241552E+007, -2.82697417028E+000, +1.54647993305E+003
+3.74843554443E+007, +1.46880698768E+000, +1.55524894487E+003
+3.76093867334E+007, +4.88349406380E+000, +1.55476338307E+003
+3.77344180225E+007, +9.12163600469E+000, +1.58365741637E+003
+3.78594493116E+007, +6.83487328913E+000, +1.59779785765E+003
+3.79844806008E+007, +3.81204973879E+000, +1.61869455123E+003
+3.81095118899E+007, +1.14070969705E+001, +1.63367493956E+003
+3.82345431790E+007, +8.71918652091E+000, +1.65075705735E+003
+3.83595744681E+007, +8.02697478547E+000, +1.66065115758E+003
+3.84846057572E+007, -9.10878661431E-001, +1.66949256538E+003
+3.86096370463E+007, -3.08207369329E+000, +1.69805540540E+003
+3.87346683354E+007, +6.98543917778E+000, +1.70467978450E+003
+3.88596996245E+007, +1.18558176794E+001, +1.73888582236E+003
+3.89847309136E+007, +2.00178759643E+001, +1.75310454561E+003
+3.91097622028E+007, +1.17971782482E+001, +1.78147712510E+003
+3.92347934919E+007, +9.17439492663E+000, +1.78691970112E+003
+3.93598247810E+007, +2.09743946468E+001, +1.80554998358E+003
+3.94848560701E+007, +1.12961707254E+001, +1.82294477231E+003
+3.96098873592E+007, +1.75678417610E+001, +1.85202364332E+003
+3.97349186483E+007, +3.56419745323E+001, +1.88420465224E+003
+3.98599499374E+007, +2.63502364464E+001, +1.89911978550E+003
+3.99849812265E+007, +2.11883766905E+001, +1.92283024133E+003
+4.01100125156E+007, +1.98704844249E+001, +1.93969678983E+003
