"# Channel 1"
"# Trace 1"
Frequency, Formatted Data, Formatted Data
+1.00000000000E+005, +8.37778504448E-001, +2.31020837999E+000
+2.25031289111E+005, +8.51475259307E-001, +5.15333900831E+000
+3.50062578223E+005, +8.90147655849E-001, +8.00091377761E+000
+4.75093867334E+005, +9.39451740317E-001, +1.08236525167E+001
+6.00125156446E+005, +9.69137482413E-001, +1.36481079754E+001
+7.25156445557E+005, +1.01244129376E+000, +1.64666606846E+001
+8.50187734668E+005, +1.04819801333E+000, +1.92739184409E+001
+9.75219023780E+005, +1.09240529194E+000, +2.20768455102E+001
+1.10025031289E+006, +1.13712329485E+000, +2.49035911969E+001
+1.22528160200E+006, +1.19742328237E+000, +2.76904130184E+001
+1.35031289111E+006, +1.21148257896E+000, +3.04842934075E+001
+1.47534418023E+006, +1.26109961905E+000, +3.32598037653E+001
+1.60037546934E+006, +1.29051296649E+000, +3.60395951424E+001
+1.72540675845E+006, +1.34858757117E+000, +3.88275109820E+001
+1.85043804756E+006, +1.37147237951E+000, +4.16285225881E+001
+1.97546933667E+006, +1.42035749549E+000, +4.43984006401E+001
+2.10050062578E+006, +1.45961737523E+000, +4.71671175939E+001
+2.22553191489E+006, +1.48105217638E+000, +4.99525692131E+001
+2.35056320401E+006, +1.50008537969E+000, +5.27498359505E+001
+2.47559449312E+006, +1.55110900132E+000, +5.55133317776E+001
+2.60062578223E+006, +1.58418902126E+000, +5.82980136611E+001
+2.72565707134E+006, +1.58107893744E+000, +6.10824816393E+001
+2.85068836045E+006, +1.62029934534E+000, +6.38540197499E+001
+2.97571964956E+006, +1.64928368427E+000, +6.66690615470E+001
+3.10075093867E+006, +1.67837660035E+000, +6.94312006876E+001
+3.22578222778E+006, +1.69640181586E+000, +7.22134582144E+001
+3.35081351690E+006, +1.68942719230E+000, +7.50228859797E+001
+3.47584480601E+006, +1.79759273328E+000, +7.78030362280E+001
+3.60087609512E+006, +1.72089265172E+000, +8.05414295733E+001
+3.72590738423E+006, +1.72171404147E+000, +8.33887211740E+001
+3.85093867334E+006, +1.53653435934E+000, +8.61951466016E+001
+3.97596996245E+006, +1.43467936511E+000, +8.92002693495E+001
+4.10100125156E+006, +3.94754427522E+000, +9.16130915391E+001
+4.22603254068E+006, +1.96445811121E+000, +9.42671935905E+001
+4.35106382979E+006, +2.00910328778E+000, +9.70965685748E+001
+4.47609511890E+006, +1.90850785048E+000, +1.00029315194E+002
+4.60112640801E+006, +1.83815939755E+000, +1.02885936337E+002
+4.72615769712E+006, +1.92216538607E+000, +1.05676115688E+002
+4.85118898623E+006, +1.91899094838E+000, +1.08465277278E+002
+4.97622027534E+006, +1.91403656613E+000, +1.11388650461E+002
+5.10125156446E+006, +2.09789011731E+000, +1.14117885810E+002
+5.22628285357E+006, +1.96351217410E+000, +1.16965099515E+002
+5.35131414268E+006, +1.95929551656E+000, +1.19757466399E+002
+5.47634543179E+006, +2.05760940332E+000, +1.22443602768E+002
+5.60137672090E+006, +1.97844050203E+000, +1.25361328751E+002
+5.72640801001E+006, +2.01891733610E+000, +1.28355107721E+002
+5.85143929912E+006, +1.88047094757E+000, +1.31148137929E+002
+5.97647058824E+006, +1.93593484717E+000, +1.34039760060E+002
+6.10150187735E+006, +2.00109873231E+000, +1.36835225546E+002
+6.22653316646E+006, +2.06711893935E+000, +1.39553099204E+002
+6.35156445557E+006, +1.98058213672E+000, +1.42584458179E+002
+6.47659574468E+006, +2.06896377006E+000, +1.45326796645E+002
+6.60162703379E+006, +2.05925718061E+000, +1.48323443674E+002
+6.72665832290E+006, +2.14201062782E+000, +1.51194048483E+002
+6.85168961202E+006, +2.22785270081E+000, +1.53991232067E+002
+6.97672090113E+006, +2.02751042691E+000, +1.56876899984E+002
+7.10175219024E+006, +2.21289848038E+000, +1.59784229581E+002
+7.22678347935E+006, +2.25707620159E+000, +1.62768053496E+002
+7.35181476846E+006, +2.31447814956E+000, +1.65612981894E+002
+7.47684605757E+006, +2.08064830040E+000, +1.68486994016E+002
+7.60187734668E+006, +2.43948948804E+000, +1.71239874694E+002
+7.72690863579E+006, +2.49283830848E+000, +1.74170067015E+002
+7.85193992491E+006, +2.37187704916E+000, +1.77214813471E+002
+7.97697121402E+006, +2.34254326839E+000, +1.79934942429E+002
+8.10200250313E+006, +2.53241623513E+000, +1.82776040361E+002
+8.22703379224E+006, +2.43044403979E+000, +1.85787907745E+002
+8.35206508135E+006, +2.55430896863E+000, +1.88769945187E+002
+8.47709637046E+006, +2.35835292263E+000, +1.91584734641E+002
+8.60212765957E+006, +2.56166140534E+000, +1.94419410740E+002
+8.72715894869E+006, +2.82010891197E+000, +1.97019951991E+002
+8.85219023780E+006, +2.89008870896E+000, +2.00040751159E+002
+8.97722152691E+006, +2.90611340014E+000, +2.02859058673E+002
+9.10225281602E+006, +2.92227378339E+000, +2.05924968295E+002
+9.22728410513E+006, +2.66822590997E+000, +2.08881457864E+002
+9.35231539424E+006, +2.58284549748E+000, +2.11788855014E+002
+9.47734668335E+006, +2.66916704951E+000, +2.14580947968E+002
+9.60237797247E+006, +3.05389201362E+000, +2.17008880043E+002
+9.72740926158E+006, +2.96682371532E+000, +2.19277217841E+002
+9.85244055069E+006, +3.28430695495E+000, +2.22103303014E+002
+9.97747183980E+006, +3.39123431839E+000, +2.24698444054E+002
+1.01025031289E+007, +3.60777828901E+000, +2.27414398164E+002
+1.02275344180E+007, +3.58969119855E+000, +2.30344650915E+002
+1.03525657071E+007, +3.53657427309E+000, +2.33212142439E+002
+1.04775969962E+007, +3.54907244415E+000, +2.36109626277E+002
+1.06026282854E+007, +3.36785279381E+000, +2.39159860300E+002
+1.07276595745E+007, +3.34179049726E+000, +2.42353587028E+002
+1.08526908636E+007, +3.46061976422E+000, +2.45511007869E+002
+1.09777221527E+007, +3.34510095093E+000, +2.48764398986E+002
+1.11027534418E+007, +3.12971330297E+000, +2.52199133630E+002
+1.12277847309E+007, +2.99089877476E+000, +2.55606616602E+002
+1.13528160200E+007, +2.70446311455E+000, +2.59156389324E+002
+1.14778473091E+007, +2.74405367715E+000, +2.62612163729E+002
+1.16028785982E+007, +2.46834547446E+000, +2.65522521103E+002
+1.17279098874E+007, +2.42374272093E+000, +2.68623762400E+002
+1.18529411765E+007, +2.46461258295E+000, +2.71540384305E+002
+1.19779724656E+007, +2.41322966970E+000, +2.74934195224E+002
+1.21030037547E+007, +2.45164608264E+000, +2.78008066019E+002
+1.22280350438E+007, +2.43620367488E+000, +2.81115425766E+002
+1.23530663329E+007, +2.18612079707E+000, +2.84154977760E+002
+1.24780976220E+007, +2.19323792923E+000, +2.87649356478E+002
+1.26031289111E+007, +2.40469019962E+000, +2.90476199453E+002
+1.27281602003E+007, +2.68890726459E+000, +2.93239855464E+002
+1.28531914894E+007, +2.32380663596E+000, +2.96401653636E+002
+1.29782227785E+007, +2.31738870943E+000, +2.99386383689E+002
+1.31032540676E+007, +2.29376597013E+000, +3.02979387152E+002
+1.32282853567E+007, +1.86996865948E+000, +3.05624671924E+002
+1.33533166458E+007, +2.61110304631E+000, +3.08421998009E+002
+1.34783479349E+007, +2.32419780719E+000, +3.11937285447E+002
+1.36033792240E+007, +2.25207768138E+000, +3.15312576779E+002
+1.37284105131E+007, +2.29491330456E+000, +3.18856381923E+002
+1.38534418023E+007, +2.54256981250E+000, +3.22181270958E+002
+1.39784730914E+007, +2.49103793335E+000, +3.25712583471E+002
+1.41035043805E+007, +1.76894654439E+000, +3.28732757543E+002
+1.42285356696E+007, +2.58957554829E+000, +3.32246387122E+002
+1.43535669587E+007, +2.22134143778E+000, +3.34772173795E+002
+1.44785982478E+007, +1.60080524177E+000, +3.37960887195E+002
+1.46036295369E+007, +1.86798393339E+000, +3.41035522666E+002
+1.47286608260E+007, +1.83106267648E+000, +3.45159150286E+002
+1.48536921151E+007, +1.94384885469E+000, +3.47426250729E+002
+1.49787234043E+007, +1.81222187128E+000, +3.50765133184E+002
+1.51037546934E+007, +2.06635587891E+000, +3.54970747480E+002
+1.52287859825E+007, +1.98306706371E+000, +3.58185841839E+002
+1.53538172716E+007, +1.92912526717E+000, +3.61968906196E+002
+1.54788485607E+007, +2.19665454169E+000, +3.65147638647E+002
+1.56038798498E+007, +2.23034996804E+000, +3.68475758792E+002
+1.57289111389E+007, +1.57367003033E+000, +3.72175464626E+002
+1.58539424280E+007, +2.15340740433E+000, +3.75017238969E+002
+1.59789737171E+007, +2.20801018456E+000, +3.78962175112E+002
+1.61040050063E+007, +1.61785943109E+000, +3.82067544066E+002
+1.62290362954E+007, +2.20516906435E+000, +3.86360419804E+002
+1.63540675845E+007, +1.67516652764E+000, +3.88958847233E+002
+1.64790988736E+007, +2.79849042106E+000, +3.92272530228E+002
+1.66041301627E+007, +2.26822346645E+000, +3.96164664704E+002
+1.67291614518E+007, +1.32351720767E+000, +3.99435751998E+002
+1.68541927409E+007, +2.23798039509E+000, +4.02589285531E+002
+1.69792240300E+007, +2.11404334934E+000, +4.06715702112E+002
+1.71042553191E+007, +2.08045090472E+000, +4.09355013191E+002
+1.72292866083E+007, +1.64355078701E+000, +4.12661259838E+002
+1.73543178974E+007, +1.40035169434E+000, +4.16920632630E+002
+1.74793491865E+007, +1.75520524164E+000, +4.20563341143E+002
+1.76043804756E+007, +2.27873478005E+000, +4.23688689495E+002
+1.77294117647E+007, +1.45732685072E+000, +4.28366119642E+002
+1.78544430538E+007, +1.56109085240E+000, +4.31145507500E+002
+1.79794743429E+007, +1.90491349720E+000, +4.35209943317E+002
+1.81045056320E+007, +1.69179697321E+000, +4.38814481672E+002
+1.82295369212E+007, +1.72223443459E+000, +4.42016935282E+002
+1.83545682103E+007, +1.62580166887E+000, +4.46332880468E+002
+1.84795994994E+007, +2.56793536723E+000, +4.49578660418E+002
+1.86046307885E+007, +1.77973172897E+000, +4.53897817258E+002
+1.87296620776E+007, +1.58654907705E+000, +4.57104071000E+002
+1.88546933667E+007, +2.08548760340E+000, +4.60516203497E+002
+1.89797246558E+007, +2.26121826761E+000, +4.64701943632E+002
+1.91047559449E+007, +2.35291548705E+000, +4.69280222312E+002
+1.92297872340E+007, +1.54460888281E+000, +4.71737803582E+002
+1.93548185232E+007, +1.77909257505E+000, +4.75727143992E+002
+1.94798498123E+007, +2.17202683759E+000, +4.79973004923E+002
+1.96048811014E+007, +3.06801900470E+000, +4.83497875598E+002
+1.97299123905E+007, +2.79363670471E+000, +4.87547932872E+002
+1.98549436796E+007, +1.83105086102E+000, +4.91393550187E+002
+1.99799749687E+007, +2.49834201740E+000, +4.95815707568E+002
+2.01050062578E+007, +2.08751743522E+000, +4.99996113583E+002
+2.02300375469E+007, +1.65858439919E+000, +5.03468712958E+002
+2.03550688360E+007, +2.25869155856E+000, +5.07649376355E+002
+2.04801001252E+007, +1.74475203027E+000, +5.10669130021E+002
+2.06051314143E+007, +2.19128980680E+000, +5.15354380810E+002
+2.07301627034E+007, +2.41530578354E+000, +5.18603442743E+002
+2.08551939925E+007, +1.09358615860E+000, +5.23342312055E+002
+2.09802252816E+007, +2.46027388494E+000, +5.26851414942E+002
+2.11052565707E+007, +1.62550461063E+000, +5.31276708326E+002
+2.12302878598E+007, +2.91066776425E+000, +5.36096252753E+002
+2.13553191489E+007, +2.55629135454E+000, +5.39194926721E+002
+2.14803504380E+007, +3.28004091066E+000, +5.44569664610E+002
+2.16053817272E+007, +3.21012506229E+000, +5.47720911012E+002
+2.17304130163E+007, +4.07196031726E+000, +5.52953868215E+002
+2.18554443054E+007, +2.52414597095E+000, +5.56100057455E+002
+2.19804755945E+007, +2.87501075017E+000, +5.62029612224E+002
+2.21055068836E+007, +3.41392870947E+000, +5.66111398178E+002
+2.22305381727E+007, +2.85679374590E+000, +5.69029089240E+002
+2.23555694618E+007, +3.24664479840E+000, +5.74497971199E+002
+2.24806007509E+007, +3.08742702306E+000, +5.78780373932E+002
+2.26056320401E+007, +3.04137994544E+000, +5.83237267003E+002
+2.27306633292E+007, +4.13717284332E+000, +5.87845774981E+002
+2.28556946183E+007, +3.73440692395E+000, +5.92089660825E+002
+2.29807259074E+007, +4.49228834530E+000, +5.96420444462E+002
+2.31057571965E+007, +4.55115676805E+000, +6.01713304884E+002
+2.32307884856E+007, +3.54474911439E+000, +6.04967058264E+002
+2.33558197747E+007, +5.70764282582E+000, +6.09717368870E+002
+2.34808510638E+007, +4.37202819299E+000, +6.16369008553E+002
+2.36058823529E+007, +5.26242066296E+000, +6.19419499728E+002
+2.37309136421E+007, +5.15673899456E+000, +6.24238337050E+002
+2.38559449312E+007, +6.34674359097E+000, +6.28076731384E+002
+2.39809762203E+007, +7.89396038361E+000, +6.32340731388E+002
+2.41060075094E+007, +5.20252137978E+000, +6.36363093665E+002
+2.42310387985E+007, +6.23578820036E+000, +6.41975214829E+002
+2.43560700876E+007, +6.53055418146E+000, +6.45371947985E+002
+2.44811013767E+007, +6.38144259015E+000, +6.49969685981E+002
+2.46061326658E+007, +6.68344445428E+000, +6.53551937953E+002
+2.47311639549E+007, +6.89599274283E+000, +6.57850922440E+002
+2.48561952441E+007, +6.00615542491E+000, +6.62375460001E+002
+2.49812265332E+007, +6.23220309714E+000, +6.65671788536E+002
+2.51062578223E+007, +6.10915276152E+000, +6.70737599867E+002
+2.52312891114E+007, +5.31241239595E+000, +6.77550313179E+002
+2.53563204005E+007, +5.01961087058E+000, +6.81555662943E+002
+2.54813516896E+007, +5.06254567337E+000, +6.85111972980E+002
+2.56063829787E+007, +5.76643034889E+000, +6.91117660883E+002
+2.57314142678E+007, +4.54852722580E+000, +6.96085569071E+002
+2.58564455569E+007, +4.77992413839E+000, +7.00113285892E+002
+2.59814768461E+007, +4.89449622391E+000, +7.06029191808E+002
+2.61065081352E+007, +3.89935905808E+000, +7.13151595607E+002
+2.62315394243E+007, +3.01520660953E+000, +7.15753769565E+002
+2.63565707134E+007, +4.08750659263E+000, +7.20885903452E+002
+2.64816020025E+007, +4.90355918235E+000, +7.26491464475E+002
+2.66066332916E+007, +4.83733291248E+000, +7.32791290403E+002
+2.67316645807E+007, +2.87441139033E+000, +7.37783812326E+002
+2.68566958698E+007, +4.57424556097E+000, +7.42690044227E+002
+2.69817271589E+007, +2.79693175552E+000, +7.49692646401E+002
+2.71067584481E+007, +1.56092880373E+000, +7.56717345954E+002
+2.72317897372E+007, +2.32625898473E+000, +7.60241833833E+002
+2.73568210263E+007, +4.56916268793E+000, +7.66468583403E+002
+2.74818523154E+007, +5.02386326369E+000, +7.72047980982E+002
+2.76068836045E+007, +5.13516214235E+000, +7.75771615526E+002
+2.77319148936E+007, +4.69706264329E+000, +7.83106242284E+002
+2.78569461827E+007, +7.53336518404E+000, +7.89713731008E+002
+2.79819774718E+007, +8.14015397775E+000, +7.93079834789E+002
+2.81070087610E+007, +5.21217981831E+000, +8.00157369814E+002
+2.82320400501E+007, +4.79376070009E+000, +8.06266422757E+002
+2.83570713392E+007, +5.44931213327E+000, +8.11321857256E+002
+2.84821026283E+007, +6.53991351191E+000, +8.18246973213E+002
+2.86071339174E+007, +4.99636109065E+000, +8.24341136922E+002
+2.87321652065E+007, +4.40764138332E+000, +8.28147736645E+002
+2.88571964956E+007, +4.94602094703E+000, +8.32903198136E+002
+2.89822277847E+007, +3.96265148690E+000, +8.40013813180E+002
+2.91072590738E+007, +6.93560523789E+000, +8.46841623235E+002
+2.92322903630E+007, +5.68389839749E+000, +8.55198730020E+002
+2.93573216521E+007, +4.53458284456E+000, +8.59944172573E+002
+2.94823529412E+007, +5.61211555514E+000, +8.69661145238E+002
+2.96073842303E+007, +3.20991036913E+000, +8.75789126118E+002
+2.97324155194E+007, +2.20399650740E+000, +8.79639508352E+002
+2.98574468085E+007, +4.64298091806E+000, +8.87030725927E+002
+2.99824780976E+007, +7.54385609823E+000, +8.92411513526E+002
+3.01075093867E+007, +5.65329191642E+000, +9.00971663057E+002
+3.02325406758E+007, +7.51943096014E+000, +9.06211304200E+002
+3.03575719650E+007, +6.16943415994E+000, +9.12957572166E+002
+3.04826032541E+007, +4.67961796505E+000, +9.21566370624E+002
+3.06076345432E+007, +8.15323920757E+000, +9.27375262235E+002
+3.07326658323E+007, +8.85230511109E+000, +9.35308258795E+002
+3.08576971214E+007, +8.56455663318E+000, +9.41227742762E+002
+3.09827284105E+007, +8.90514030016E+000, +9.47340330448E+002
+3.11077596996E+007, +1.01874246938E+001, +9.57436893980E+002
+3.12327909887E+007, +9.13970583660E+000, +9.61863505323E+002
+3.13578222778E+007, +8.91909340686E+000, +9.70077237597E+002
+3.14828535670E+007, +9.03803440975E+000, +9.75509801059E+002
+3.16078848561E+007, +1.01258898509E+001, +9.82862699337E+002
+3.17329161452E+007, +1.33713976984E+001, +9.92928096390E+002
+3.18579474343E+007, +9.56386738014E+000, +1.00056358807E+003
+3.19829787234E+007, +1.21386757046E+001, +1.00881683076E+003
+3.21080100125E+007, +1.58127382207E+001, +1.01702836321E+003
+3.22330413016E+007, +8.49999162171E+000, +1.02081781901E+003
+3.23580725907E+007, +1.61060490871E+001, +1.03094597587E+003
+3.24831038798E+007, +1.39242338119E+001, +1.03508495622E+003
+3.26081351690E+007, +1.22953735750E+001, +1.04554664579E+003
+3.27331664581E+007, +1.36257895565E+001, +1.05115876177E+003
+3.28581977472E+007, +1.50001277019E+001, +1.05977779469E+003
+3.29832290363E+007, +1.24007137278E+001, +1.07035862758E+003
+3.31082603254E+007, +1.50396925773E+001, +1.07772198729E+003
+3.32332916145E+007, +1.34871343442E+001, +1.09060811263E+003
+3.33583229036E+007, +1.58255436860E+001, +1.09749306518E+003
+3.34833541927E+007, +1.80153618790E+001, +1.10646469691E+003
+3.36083854819E+007, +1.34861717894E+001, +1.11457636341E+003
+3.37334167710E+007, +1.59241351680E+001, +1.12128588787E+003
+3.38584480601E+007, +1.84954639784E+001, +1.13208308249E+003
+3.39834793492E+007, +1.69839871489E+001, +1.14046770208E+003
+3.41085106383E+007, +1.71586972360E+001, +1.14757818870E+003
+3.42335419274E+007, +2.10457445284E+001, +1.15935017468E+003
+3.43585732165E+007, +2.32769908364E+001, +1.16472086886E+003
+3.44836045056E+007, +2.00510097348E+001, +1.17221854875E+003
+3.46086357947E+007, +1.92508266639E+001, +1.18675255663E+003
+3.47336670839E+007, +2.40207067441E+001, +1.19471513991E+003
+3.48586983730E+007, +2.47157172744E+001, +1.20772691294E+003
+3.49837296621E+007, +2.11686751562E+001, +1.21668938993E+003
+3.51087609512E+007, +2.16333036251E+001, +1.23126561621E+003
+3.52337922403E+007, +2.60202755317E+001, +1.23653828856E+003
+3.53588235294E+007, +2.66801994313E+001, +1.24576105763E+003
+3.54838548185E+007, +3.01812829820E+001, +1.25754655350E+003
+3.56088861076E+007, +1.94369298907E+001, +1.26746357063E+003
+3.57339173967E+007, +2.48971198441E+001, +1.28247553775E+003
+3.58589486859E+007, +3.33268906637E+001, +1.28895430275E+003
+3.59839799750E+007, +2.13691561534E+001, +1.30064063094E+003
+3.61090112641E+007, +2.82481949293E+001, +1.30779764642E+003
+3.62340425532E+007, +2.99698671124E+001, +1.32331410457E+003
+3.63590738423E+007, +3.19766013794E+001, +1.33549161387E+003
+3.64841051314E+007, +3.35459932255E+001, +1.34431507277E+003
+3.66091364205E+007, +2.64890105814E+001, +1.36274297932E+003
+3.67341677096E+007, +2.95973292041E+001, +1.36799712680E+003
+3.68591989987E+007, +3.93512065166E+001, +1.38456119792E+003
+3.69842302879E+007, +3.70571573234E+001, +1.39513970329E+003
+3.71092615770E+007, +2.98006595741E+001, +1.40421473591E+003
+3.72342928661E+007, +3.36307458417E+001, +1.42200244827E+003
+3.73593241552E+007, +4.76759188853E+001, +1.43043337825E+003
+3.74843554443E+007, +4.12938978769E+001, +1.44137176140E+003
+3.76093867334E+007, +3.72309722717E+001, +1.45958731315E+003
+3.77344180225E+007, +4.46188382849E+001, +1.46824233002E+003
+3.78594493116E+007, +4.33974881894E+001, +1.48848725857E+003
+3.79844806008E+007, +4.63734287425E+001, +1.50413767681E+003
+3.81095118899E+007, +4.46738995576E+001, +1.51310312542E+003
+3.82345431790E+007, +4.31579513095E+001, +1.52768069144E+003
+3.83595744681E+007, +5.08989488580E+001, +1.54118374804E+003
+3.84846057572E+007, +5.60774235924E+001, +1.56295437647E+003
+3.86096370463E+007, +5.22539792893E+001, +1.57433825123E+003
+3.87346683354E+007, +5.14474550097E+001, +1.59071002110E+003
+3.88596996245E+007, +5.63245724826E+001, +1.60676071630E+003
+3.89847309136E+007, +6.25348051090E+001, +1.62838224551E+003
+3.91097622028E+007, +5.94769555411E+001, +1.63490631574E+003
+3.92347934919E+007, +6.50222438711E+001, +1.65110807769E+003
+3.93598247810E+007, +6.29819874211E+001, +1.67195777570E+003
+3.94848560701E+007, +6.81794735745E+001, +1.68595665815E+003
+3.96098873592E+007, +6.74395288813E+001, +1.69444964784E+003
+3.97349186483E+007, +5.84279529366E+001, +1.72861910537E+003
+3.98599499374E+007, +6.99206337540E+001, +1.74368425001E+003
+3.99849812265E+007, +8.16791381111E+001, +1.77003431560E+003
+4.01100125156E+007, +8.21135914966E+001, +1.77373300532E+003
