"# Channel 1"
"# Trace 1"
Frequency, Formatted Data, Formatted Data
+1.00000000000E+005, +5.18516715254E+001, +2.05266649483E+000
+2.66777963272E+005, +5.17779342825E+001, +6.33884364441E+000
+4.33555926544E+005, +5.17887615655E+001, +1.02853011649E+001
+6.00333889816E+005, +5.17774797823E+001, +1.42358154443E+001
+7.67111853088E+005, +5.18390923714E+001, +1.81477614402E+001
+9.33889816361E+005, +5.17871892372E+001, +2.21251608547E+001
+1.10066777963E+006, +5.17749723745E+001, +2.61958567419E+001
+1.26744574290E+006, +5.17895570409E+001, +3.01396362483E+001
+1.43422370618E+006, +5.18156558276E+001, +3.42188977443E+001
+1.60100166945E+006, +5.18465550725E+001, +3.80790587354E+001
+1.76777963272E+006, +5.18273311989E+001, +4.20051856622E+001
+1.93455759599E+006, +5.17644477727E+001, +4.60536452816E+001
+2.10133555927E+006, +5.18410230079E+001, +4.99422916436E+001
+2.26811352254E+006, +5.18329470852E+001, +5.39932102436E+001
+2.43489148581E+006, +5.19304671048E+001, +5.79747386085E+001
+2.60166944908E+006, +5.18710858906E+001, +6.19200381505E+001
+2.76844741235E+006, +5.19236321348E+001, +6.60797574485E+001
+2.93522537563E+006, +5.19333220815E+001, +6.99300606645E+001
+3.10200333890E+006, +5.19275704596E+001, +7.38329208337E+001
+3.26878130217E+006, +5.19876225690E+001, +7.80579260485E+001
+3.43555926544E+006, +5.20303276279E+001, +8.18978335080E+001
+3.60233722871E+006, +5.20974766052E+001, +8.58801907090E+001
+3.76911519199E+006, +5.22245506316E+001, +9.01327513919E+001
+3.93589315526E+006, +5.19672097398E+001, +9.40914505981E+001
+4.10267111853E+006, +5.20737890260E+001, +9.81303093685E+001
+4.26944908180E+006, +5.23123535316E+001, +1.02428982311E+002
+4.43622704508E+006, +5.22461376297E+001, +1.06176701281E+002
+4.60300500835E+006, +5.23900466954E+001, +1.10214252236E+002
+4.76978297162E+006, +5.23704203230E+001, +1.14250684613E+002
+4.93656093489E+006, +5.24576291913E+001, +1.18210713280E+002
+5.10333889816E+006, +5.24089460708E+001, +1.22246864601E+002
+5.27011686144E+006, +5.29109335679E+001, +1.26464532341E+002
+5.43689482471E+006, +5.26285450416E+001, +1.30431158937E+002
+5.60367278798E+006, +5.28277776659E+001, +1.34727649511E+002
+5.77045075125E+006, +5.25259754382E+001, +1.38435747531E+002
+5.93722871452E+006, +5.31613876718E+001, +1.42724825130E+002
+6.10400667780E+006, +5.30259427711E+001, +1.46724457095E+002
+6.27078464107E+006, +5.31578457254E+001, +1.50811918114E+002
+6.43756260434E+006, +5.31853562161E+001, +1.54950492732E+002
+6.60434056761E+006, +5.33753422158E+001, +1.58933822683E+002
+6.77111853088E+006, +5.36804514758E+001, +1.62971808253E+002
+6.93789649416E+006, +5.35595052302E+001, +1.67047232665E+002
+7.10467445743E+006, +5.37319790223E+001, +1.71312314830E+002
+7.27145242070E+006, +5.37654915156E+001, +1.75372733310E+002
+7.43823038397E+006, +5.37790919717E+001, +1.79533344564E+002
+7.60500834725E+006, +5.39556894499E+001, +1.83714267863E+002
+7.77178631052E+006, +5.40928870149E+001, +1.88002844275E+002
+7.93856427379E+006, +5.39883874822E+001, +1.92081557652E+002
+8.10534223706E+006, +5.39122625344E+001, +1.96017535113E+002
+8.27212020033E+006, +5.40867927794E+001, +2.00439704953E+002
+8.43889816361E+006, +5.42763114178E+001, +2.04897363209E+002
+8.60567612688E+006, +5.42271762524E+001, +2.09428764666E+002
+8.77245409015E+006, +5.42830644379E+001, +2.13305830086E+002
+8.93923205342E+006, +5.46354927870E+001, +2.17746410722E+002
+9.10601001669E+006, +5.44789313638E+001, +2.22344132976E+002
+9.27278797997E+006, +5.47817380312E+001, +2.26204718893E+002
+9.43956594324E+006, +5.45573761514E+001, +2.30820457227E+002
+9.60634390651E+006, +5.46527765625E+001, +2.35214314323E+002
+9.77312186978E+006, +5.47690598226E+001, +2.39363497749E+002
+9.93989983306E+006, +5.51330001019E+001, +2.43874373351E+002
+1.01066777963E+007, +5.48888394239E+001, +2.48590328581E+002
+1.02734557596E+007, +5.50610928822E+001, +2.52900980802E+002
+1.04402337229E+007, +5.51197324218E+001, +2.57064318487E+002
+1.06070116861E+007, +5.51451570676E+001, +2.61738720235E+002
+1.07737896494E+007, +5.55609639495E+001, +2.66217036269E+002
+1.09405676127E+007, +5.58915037642E+001, +2.70609680078E+002
+1.11073455760E+007, +5.58464912676E+001, +2.75389790230E+002
+1.12741235392E+007, +5.57477522874E+001, +2.79667982383E+002
+1.14409015025E+007, +5.60643258630E+001, +2.84316318412E+002
+1.16076794658E+007, +5.64152040679E+001, +2.88901561782E+002
+1.17744574290E+007, +5.65388592775E+001, +2.93621304261E+002
+1.19412353923E+007, +5.63125769386E+001, +2.98268021513E+002
+1.21080133556E+007, +5.60645829619E+001, +3.02982172496E+002
+1.22747913189E+007, +5.64979397647E+001, +3.07627635751E+002
+1.24415692821E+007, +5.66743651747E+001, +3.12169193735E+002
+1.26083472454E+007, +5.68728018630E+001, +3.17294348532E+002
+1.27751252087E+007, +5.69215442341E+001, +3.21845301405E+002
+1.29419031720E+007, +5.64809961387E+001, +3.26415378877E+002
+1.31086811352E+007, +5.74261153720E+001, +3.31680618738E+002
+1.32754590985E+007, +5.76835356322E+001, +3.35857660283E+002
+1.34422370618E+007, +5.77215894168E+001, +3.40619322089E+002
+1.36090150250E+007, +5.80239081111E+001, +3.45674140445E+002
+1.37757929883E+007, +5.77034048318E+001, +3.50181857503E+002
+1.39425709516E+007, +5.80521208918E+001, +3.55284526267E+002
+1.41093489149E+007, +5.80493161079E+001, +3.60335721082E+002
+1.42761268781E+007, +5.89200944301E+001, +3.65480418468E+002
+1.44429048414E+007, +5.90814202891E+001, +3.70212008387E+002
+1.46096828047E+007, +5.94839642102E+001, +3.75078810946E+002
+1.47764607679E+007, +5.94828385825E+001, +3.80062735872E+002
+1.49432387312E+007, +6.04587489545E+001, +3.85176700474E+002
+1.51100166945E+007, +5.98523715738E+001, +3.90919012750E+002
+1.52767946578E+007, +6.07455371559E+001, +3.94851069964E+002
+1.54435726210E+007, +6.07571285742E+001, +4.00824502714E+002
+1.56103505843E+007, +6.05230990405E+001, +4.05974926656E+002
+1.57771285476E+007, +6.11692379907E+001, +4.10750298446E+002
+1.59439065109E+007, +6.11390629675E+001, +4.15555626148E+002
+1.61106844741E+007, +6.12934107273E+001, +4.20443633661E+002
+1.62774624374E+007, +6.24691479698E+001, +4.25860511492E+002
+1.64442404007E+007, +6.14927516174E+001, +4.31517359835E+002
+1.66110183639E+007, +6.23331034132E+001, +4.36931641339E+002
+1.67777963272E+007, +6.33140117258E+001, +4.42257223806E+002
+1.69445742905E+007, +6.35624060523E+001, +4.47590956933E+002
+1.71113522538E+007, +6.20329086026E+001, +4.52981249107E+002
+1.72781302170E+007, +6.23845517864E+001, +4.58053086001E+002
+1.74449081803E+007, +6.28067810271E+001, +4.64849898048E+002
+1.76116861436E+007, +6.44676390615E+001, +4.69257129239E+002
+1.77784641068E+007, +6.36996425156E+001, +4.74200418471E+002
+1.79452420701E+007, +6.47191542350E+001, +4.80783213324E+002
+1.81120200334E+007, +6.43969434552E+001, +4.84548968975E+002
+1.82787979967E+007, +6.61299004935E+001, +4.91163435084E+002
+1.84455759599E+007, +6.64213618572E+001, +4.97220476254E+002
+1.86123539232E+007, +6.63220917260E+001, +5.02003427723E+002
+1.87791318865E+007, +6.65343680917E+001, +5.08851237107E+002
+1.89459098497E+007, +6.66405520347E+001, +5.15310180936E+002
+1.91126878130E+007, +6.82053231881E+001, +5.21547160939E+002
+1.92794657763E+007, +6.74570931863E+001, +5.26071837070E+002
+1.94462437396E+007, +6.88437258769E+001, +5.31901895895E+002
+1.96130217028E+007, +6.78259325619E+001, +5.38951899216E+002
+1.97797996661E+007, +6.88942709781E+001, +5.43619827208E+002
+1.99465776294E+007, +6.79747497050E+001, +5.50855343594E+002
+2.01133555927E+007, +6.94200004739E+001, +5.58123672366E+002
+2.02801335559E+007, +7.00636923604E+001, +5.64683643173E+002
+2.04469115192E+007, +7.12789226293E+001, +5.69307128555E+002
+2.06136894825E+007, +6.97881159556E+001, +5.77150558029E+002
+2.07804674457E+007, +7.31881159694E+001, +5.82998798028E+002
+2.09472454090E+007, +7.06557507792E+001, +5.90847612403E+002
+2.11140233723E+007, +7.14709201722E+001, +5.93039674015E+002
+2.12808013356E+007, +7.36982093095E+001, +6.01506387263E+002
+2.14475792988E+007, +7.45046466373E+001, +6.09538087507E+002
+2.16143572621E+007, +7.50486054150E+001, +6.14279588459E+002
+2.17811352254E+007, +7.49980514585E+001, +6.20951155631E+002
+2.19479131886E+007, +7.80347448676E+001, +6.28253315041E+002
+2.21146911519E+007, +7.80665701700E+001, +6.33775830955E+002
+2.22814691152E+007, +7.89254058535E+001, +6.42268079159E+002
+2.24482470785E+007, +7.91694852101E+001, +6.50312577858E+002
+2.26150250417E+007, +8.18192616626E+001, +6.56959816092E+002
+2.27818030050E+007, +8.18611340254E+001, +6.63507359483E+002
+2.29485809683E+007, +8.39257961737E+001, +6.68180468979E+002
+2.31153589316E+007, +8.08495776085E+001, +6.78419060801E+002
+2.32821368948E+007, +8.68434924476E+001, +6.85104696289E+002
+2.34489148581E+007, +8.68313183600E+001, +6.90712350383E+002
+2.36156928214E+007, +8.73571548654E+001, +6.99797354079E+002
+2.37824707846E+007, +8.74221949578E+001, +7.04191606849E+002
+2.39492487479E+007, +8.79667556799E+001, +7.12292510895E+002
+2.41160267112E+007, +8.99756956919E+001, +7.21757100434E+002
+2.42828046745E+007, +8.85476840393E+001, +7.28770545128E+002
+2.44495826377E+007, +9.39425920286E+001, +7.36653677961E+002
+2.46163606010E+007, +9.22754281635E+001, +7.44967819577E+002
+2.47831385643E+007, +9.37942385679E+001, +7.52867327280E+002
+2.49499165275E+007, +9.89744039171E+001, +7.59158000573E+002
+2.51166944908E+007, +1.00342699114E+002, +7.66460330630E+002
+2.52834724541E+007, +9.86028353756E+001, +7.76215648356E+002
+2.54502504174E+007, +1.01027962873E+002, +7.82004074753E+002
+2.56170283806E+007, +9.93677659280E+001, +7.91465237065E+002
+2.57838063439E+007, +1.02487604969E+002, +7.99509568118E+002
+2.59505843072E+007, +1.04053906440E+002, +8.08367819567E+002
+2.61173622705E+007, +1.05201553907E+002, +8.15041470762E+002
+2.62841402337E+007, +1.07656320624E+002, +8.23027422639E+002
+2.64509181970E+007, +1.07387152176E+002, +8.31420794097E+002
+2.66176961603E+007, +1.07604207653E+002, +8.43209585811E+002
+2.67844741235E+007, +1.09045810025E+002, +8.49899342064E+002
+2.69512520868E+007, +1.13102897123E+002, +8.58696070531E+002
+2.71180300501E+007, +1.15327034775E+002, +8.62833892765E+002
+2.72848080134E+007, +1.14129429664E+002, +8.76525204060E+002
+2.74515859766E+007, +1.18355987529E+002, +8.81024839414E+002
+2.76183639399E+007, +1.14913569295E+002, +8.86885670807E+002
+2.77851419032E+007, +1.17045829107E+002, +9.00399077847E+002
+2.79519198664E+007, +1.21797793029E+002, +9.08287194440E+002
+2.81186978297E+007, +1.23968726644E+002, +9.13548469458E+002
+2.82854757930E+007, +1.23719417440E+002, +9.25838612935E+002
+2.84522537563E+007, +1.19710330403E+002, +9.37946770022E+002
+2.86190317195E+007, +1.21391690032E+002, +9.44623603360E+002
+2.87858096828E+007, +1.29029885800E+002, +9.57648276742E+002
+2.89525876461E+007, +1.25412729155E+002, +9.67991457042E+002
+2.91193656093E+007, +1.27017065013E+002, +9.75884671479E+002
+2.92861435726E+007, +1.30003059390E+002, +9.87084461340E+002
+2.94529215359E+007, +1.30260507940E+002, +9.97280193637E+002
+2.96196994992E+007, +1.33032806938E+002, +1.00435894751E+003
+2.97864774624E+007, +1.37030751538E+002, +1.01856823079E+003
+2.99532554257E+007, +1.40781374035E+002, +1.03140521492E+003
+3.01200333890E+007, +1.39497338581E+002, +1.04600213138E+003
+3.02868113523E+007, +1.38445600083E+002, +1.05318253167E+003
+3.04535893155E+007, +1.41447302225E+002, +1.06509856029E+003
+3.06203672788E+007, +1.43235942977E+002, +1.07880093068E+003
+3.07871452421E+007, +1.43512554538E+002, +1.09009532119E+003
+3.09539232053E+007, +1.44633268666E+002, +1.09871060184E+003
+3.11207011686E+007, +1.46243812776E+002, +1.11914602696E+003
+3.12874791319E+007, +1.45850638746E+002, +1.12377444653E+003
+3.14542570952E+007, +1.52857560408E+002, +1.13469884554E+003
+3.16210350584E+007, +1.52948824848E+002, +1.15487085974E+003
+3.17878130217E+007, +1.49659706811E+002, +1.17011182805E+003
+3.19545909850E+007, +1.62601941671E+002, +1.17287820097E+003
+3.21213689482E+007, +1.59132361153E+002, +1.20079566920E+003
+3.22881469115E+007, +1.56436537374E+002, +1.19930347417E+003
+3.24549248748E+007, +1.62779191591E+002, +1.22036945305E+003
+3.26217028381E+007, +1.61294052572E+002, +1.23672323653E+003
+3.27884808013E+007, +1.67543846008E+002, +1.25357667542E+003
+3.29552587646E+007, +1.69151301784E+002, +1.26025962605E+003
+3.31220367279E+007, +1.75840355390E+002, +1.27676531014E+003
+3.32888146912E+007, +1.79249445269E+002, +1.29862774666E+003
+3.34555926544E+007, +1.67608489428E+002, +1.31472481658E+003
+3.36223706177E+007, +1.88101809195E+002, +1.32071852665E+003
+3.37891485810E+007, +1.83706959594E+002, +1.33660287719E+003
+3.39559265442E+007, +1.89202987543E+002, +1.36066324463E+003
+3.41227045075E+007, +1.87638024194E+002, +1.37219076806E+003
+3.42894824708E+007, +1.90057759690E+002, +1.39990729500E+003
+3.44562604341E+007, +1.92359105678E+002, +1.41546878872E+003
+3.46230383973E+007, +1.99414079019E+002, +1.43041335089E+003
+3.47898163606E+007, +2.10827103683E+002, +1.44393813602E+003
+3.49565943239E+007, +2.18163239960E+002, +1.47279820357E+003
+3.51233722871E+007, +2.10657885177E+002, +1.48504602981E+003
+3.52901502504E+007, +2.26845927409E+002, +1.50077318862E+003
+3.54569282137E+007, +2.16654768773E+002, +1.52591558962E+003
+3.56237061770E+007, +2.20984024554E+002, +1.54592367437E+003
+3.57904841402E+007, +2.21225487277E+002, +1.57843692888E+003
+3.59572621035E+007, +2.40057639429E+002, +1.59818457821E+003
+3.61240400668E+007, +2.42218105996E+002, +1.60640932101E+003
+3.62908180301E+007, +2.55600950456E+002, +1.64409089351E+003
+3.64575959933E+007, +2.41585337735E+002, +1.67259413344E+003
+3.66243739566E+007, +2.63927738237E+002, +1.67151192787E+003
+3.67911519199E+007, +2.62389559691E+002, +1.71886604564E+003
+3.69579298831E+007, +2.63734613303E+002, +1.73209173443E+003
+3.71247078464E+007, +2.74767476586E+002, +1.76516004639E+003
+3.72914858097E+007, +2.81026304135E+002, +1.79493001911E+003
+3.74582637730E+007, +2.99200102878E+002, +1.83386373134E+003
+3.76250417362E+007, +2.94110454748E+002, +1.83952187003E+003
+3.77918196995E+007, +3.07678824264E+002, +1.88405564415E+003
+3.79585976628E+007, +3.18156319935E+002, +1.91139572034E+003
+3.81253756260E+007, +3.31726688915E+002, +1.94598570348E+003
+3.82921535893E+007, +3.44064181892E+002, +1.97649014378E+003
+3.84589315526E+007, +3.63953547023E+002, +2.00953143002E+003
+3.86257095159E+007, +3.56882492308E+002, +2.03176277361E+003
+3.87924874791E+007, +3.61032655100E+002, +2.04750410888E+003
+3.89592654424E+007, +3.91551401130E+002, +2.11417685915E+003
+3.91260434057E+007, +3.95859705994E+002, +2.16948950974E+003
+3.92928213689E+007, +4.22685948260E+002, +2.16260123236E+003
+3.94595993322E+007, +4.17159835974E+002, +2.22728476420E+003
+3.96263772955E+007, +4.00198269377E+002, +2.26019880363E+003
+3.97931552588E+007, +4.36275688858E+002, +2.29108950023E+003
+3.99599332220E+007, +4.74316242470E+002, +2.35496457179E+003
+4.01267111853E+007, +4.83816248504E+002, +2.39769650982E+003
+4.02934891486E+007, +4.78004247640E+002, +2.42009193498E+003
+4.04602671119E+007, +4.98468427413E+002, +2.46673967821E+003
+4.06270450751E+007, +5.55899287134E+002, +2.50907290708E+003
+4.07938230384E+007, +5.39761833685E+002, +2.56754001490E+003
+4.09606010017E+007, +6.04886021598E+002, +2.64217440243E+003
+4.11273789649E+007, +6.00067973185E+002, +2.69378319341E+003
+4.12941569282E+007, +6.24050105173E+002, +2.76592412737E+003
+4.14609348915E+007, +6.71206060534E+002, +2.84715493404E+003
+4.16277128548E+007, +7.40093857577E+002, +2.86655747439E+003
+4.17944908180E+007, +7.08210407691E+002, +2.92233173160E+003
+4.19612687813E+007, +7.53657452481E+002, +3.01480924322E+003
+4.21280467446E+007, +7.60785372451E+002, +3.10734464807E+003
+4.22948247078E+007, +8.37516520187E+002, +3.14389862773E+003
+4.24616026711E+007, +8.76643085267E+002, +3.19800116072E+003
+4.26283806344E+007, +9.57146302725E+002, +3.28319173083E+003
+4.27951585977E+007, +9.33765854903E+002, +3.45439274197E+003
+4.29619365609E+007, +1.03303692384E+003, +3.44740948308E+003
+4.31287145242E+007, +1.07776377078E+003, +3.62479567811E+003
+4.32954924875E+007, +1.17260005150E+003, +3.66063535587E+003
+4.34622704508E+007, +1.17673278790E+003, +3.82782431804E+003
+4.36290484140E+007, +1.25020543057E+003, +3.91193405971E+003
+4.37958263773E+007, +1.40604603002E+003, +4.09690743994E+003
+4.39626043406E+007, +1.48054183355E+003, +4.11961216058E+003
+4.41293823038E+007, +1.59370087653E+003, +4.20258281797E+003
+4.42961602671E+007, +1.72159268973E+003, +4.30057727586E+003
+4.44629382304E+007, +1.85986647658E+003, +4.50390639767E+003
+4.46297161937E+007, +2.04358519552E+003, +4.45606337296E+003
+4.47964941569E+007, +2.13038706801E+003, +4.70690098298E+003
+4.49632721202E+007, +2.34215217483E+003, +4.91452923023E+003
+4.51300500835E+007, +2.44406718785E+003, +4.92173069318E+003
+4.52968280467E+007, +2.82912626367E+003, +5.10238022586E+003
+4.54636060100E+007, +3.25205864818E+003, +5.37337483775E+003
+4.56303839733E+007, +3.60584051170E+003, +5.59925338226E+003
+4.57971619366E+007, +3.84313232845E+003, +5.65446174113E+003
+4.59639398998E+007, +4.34553113299E+003, +5.99444368911E+003
+4.61307178631E+007, +4.74913330162E+003, +5.79665674099E+003
+4.62974958264E+007, +5.36320348579E+003, +5.83522595569E+003
+4.64642737896E+007, +5.60558569427E+003, +6.01442747656E+003
+4.66310517529E+007, +6.60950407708E+003, +5.84281739075E+003
+4.67978297162E+007, +6.57100427115E+003, +5.18792505926E+003
+4.69646076795E+007, +7.61236081261E+003, +5.42645913681E+003
+4.71313856427E+007, +8.25035807737E+003, +4.51901321600E+003
+4.72981636060E+007, +9.58540875568E+003, +4.02365963285E+003
+4.74649415693E+007, +9.35279326515E+003, +4.06656145546E+003
+4.76317195326E+007, +9.63167304033E+003, +2.79900704237E+003
+4.77984974958E+007, +9.92729037055E+003, +1.94996674273E+003
+4.79652754591E+007, +1.02709255793E+004, +1.00751177928E+003
+4.81320534224E+007, +1.00261528756E+004, +5.77974550728E+002
+4.82988313856E+007, +9.80156804722E+003, -5.57202332603E+002
+4.84656093489E+007, +9.50016428650E+003, -1.29352204150E+003
+4.86323873122E+007, +9.02323208365E+003, -1.16769528328E+003
+4.87991652755E+007, +8.56433352826E+003, -2.02896135256E+003
+4.89659432387E+007, +8.26928212812E+003, -2.44554276966E+003
+4.91327212020E+007, +7.58640827006E+003, -2.93631998869E+003
+4.92994991653E+007, +7.25831766330E+003, -2.94176235309E+003
+4.94662771285E+007, +6.76098691321E+003, -3.21437837606E+003
+4.96330550918E+007, +6.34936129994E+003, -3.28059669258E+003
+4.97998330551E+007, +6.06819409963E+003, -3.30403745110E+003
+4.99666110184E+007, +5.92879888347E+003, -3.40834479680E+003
+5.01333889816E+007, +5.53454814369E+003, -3.48860677355E+003
+5.03001669449E+007, +5.45150583783E+003, -3.63333596699E+003
+5.04669449082E+007, +5.07154642180E+003, -3.58615257128E+003
+5.06337228715E+007, +4.85940876456E+003, -3.58864448703E+003
+5.08005008347E+007, +4.82985566330E+003, -3.67947972235E+003
+5.09672787980E+007, +4.66235410505E+003, -3.57344973228E+003
+5.11340567613E+007, +4.38849126013E+003, -3.69148985213E+003
+5.13008347245E+007, +4.17640901509E+003, -3.87102068096E+003
+5.14676126878E+007, +4.03153087236E+003, -3.89261836618E+003
+5.16343906511E+007, +3.67239364762E+003, -3.82966204843E+003
+5.18011686144E+007, +3.61887257653E+003, -3.92091227018E+003
+5.19679465776E+007, +3.39833205980E+003, -3.95616699088E+003
+5.21347245409E+007, +3.08691214557E+003, -3.80811673019E+003
+5.23015025042E+007, +2.80562597055E+003, -3.85971230007E+003
+5.24682804674E+007, +2.63559617902E+003, -3.87959032383E+003
+5.26350584307E+007, +2.54391442226E+003, -3.78338759794E+003
+5.28018363940E+007, +2.28389034676E+003, -3.73658752949E+003
+5.29686143573E+007, +2.16749775457E+003, -3.61450269044E+003
+5.31353923205E+007, +2.08697715881E+003, -3.61977208371E+003
+5.33021702838E+007, +1.94321720277E+003, -3.54455135205E+003
+5.34689482471E+007, +1.75690123084E+003, -3.38196220795E+003
