"# Channel 1"
"# Trace 1"
Frequency, Formatted Data, Formatted Data
+1.00000000000E+005, +7.50471240748E+000, +2.52135197665E+000
+2.25031289111E+005, +7.60394073117E+000, +5.53233983113E+000
+3.50062578223E+005, +7.73087641146E+000, +8.47572647256E+000
+4.75093867334E+005, +7.79387291146E+000, +1.14473471931E+001
+6.00125156446E+005, +7.86080425075E+000, +1.43188920566E+001
+7.25156445557E+005, +7.94255688881E+000, +1.72598671548E+001
+8.50187734668E+005, +7.99021672697E+000, +2.01577714471E+001
+9.75219023780E+005, +8.01354747389E+000, +2.30622979597E+001
+1.10025031289E+006, +8.08681073213E+000, +2.59490977755E+001
+1.22528160200E+006, +8.10756789388E+000, +2.88610261649E+001
+1.35031289111E+006, +8.20554359574E+000, +3.17762001385E+001
+1.47534418023E+006, +8.23190468659E+000, +3.46569890357E+001
+1.60037546934E+006, +8.27000539017E+000, +3.75911166430E+001
+1.72540675845E+006, +8.24971190730E+000, +4.04285775572E+001
+1.85043804756E+006, +8.25423760119E+000, +4.33211488064E+001
+1.97546933667E+006, +8.32154696014E+000, +4.61875413249E+001
+2.10050062578E+006, +8.33425760307E+000, +4.92525856505E+001
+2.22553191489E+006, +8.35708990981E+000, +5.19951978231E+001
+2.35056320401E+006, +8.36133982256E+000, +5.49571822420E+001
+2.47559449312E+006, +8.48894229173E+000, +5.78962762749E+001
+2.60062578223E+006, +8.46803071450E+000, +6.06700199269E+001
+2.72565707134E+006, +8.50221350341E+000, +6.36524296134E+001
+2.85068836045E+006, +8.56069882862E+000, +6.66059016517E+001
+2.97571964956E+006, +8.53062526599E+000, +6.95508557413E+001
+3.10075093867E+006, +8.63544033903E+000, +7.24180178314E+001
+3.22578222778E+006, +8.69295068959E+000, +7.53385162064E+001
+3.35081351690E+006, +8.74332252350E+000, +7.81563870467E+001
+3.47584480601E+006, +8.75791626037E+000, +8.11091081350E+001
+3.60087609512E+006, +8.82936884976E+000, +8.42348134740E+001
+3.72590738423E+006, +8.81843384592E+000, +8.69920221360E+001
+3.85093867334E+006, +8.80220088092E+000, +9.00421406917E+001
+3.97596996245E+006, +8.97937018931E+000, +9.30077087135E+001
+4.10100125156E+006, +8.87793220333E+000, +9.56710321787E+001
+4.22603254068E+006, +8.83445394337E+000, +9.85767522198E+001
+4.35106382979E+006, +8.90164939174E+000, +1.01896733077E+002
+4.47609511890E+006, +9.09096041798E+000, +1.04606304785E+002
+4.60112640801E+006, +9.09363520492E+000, +1.07776219292E+002
+4.72615769712E+006, +8.92049453399E+000, +1.10487228926E+002
+4.85118898623E+006, +9.05009452014E+000, +1.13606613639E+002
+4.97622027534E+006, +9.27200813364E+000, +1.16415218885E+002
+5.10125156446E+006, +9.15879936293E+000, +1.19299171876E+002
+5.22628285357E+006, +9.19538780187E+000, +1.22616978227E+002
+5.35131414268E+006, +9.14670759590E+000, +1.25464267916E+002
+5.47634543179E+006, +9.47932919335E+000, +1.28419645694E+002
+5.60137672090E+006, +9.18943097016E+000, +1.31380457727E+002
+5.72640801001E+006, +9.07249161065E+000, +1.34240248864E+002
+5.85143929912E+006, +9.54407650192E+000, +1.37155927055E+002
+5.97647058824E+006, +9.56083164771E+000, +1.40387099253E+002
+6.10150187735E+006, +9.50908643157E+000, +1.43405595673E+002
+6.22653316646E+006, +9.43813719250E+000, +1.46608439523E+002
+6.35156445557E+006, +9.70000395684E+000, +1.49216027840E+002
+6.47659574468E+006, +9.77635919614E+000, +1.52248205979E+002
+6.60162703379E+006, +9.68025484966E+000, +1.55538312018E+002
+6.72665832290E+006, +9.94314122626E+000, +1.58311394446E+002
+6.85168961202E+006, +9.94143139287E+000, +1.61474961236E+002
+6.97672090113E+006, +9.99586317538E+000, +1.64541573982E+002
+7.10175219024E+006, +9.90979291952E+000, +1.67775496195E+002
+7.22678347935E+006, +1.01792174191E+001, +1.70644664840E+002
+7.35181476846E+006, +1.01044742129E+001, +1.73782596421E+002
+7.47684605757E+006, +1.02161351779E+001, +1.76688948776E+002
+7.60187734668E+006, +1.01757161302E+001, +1.79787937781E+002
+7.72690863579E+006, +1.04617467895E+001, +1.82771281477E+002
+7.85193992491E+006, +1.05730771596E+001, +1.85925032335E+002
+7.97697121402E+006, +1.05900617037E+001, +1.89033313844E+002
+8.10200250313E+006, +1.05063278952E+001, +1.92259417603E+002
+8.22703379224E+006, +1.03169020235E+001, +1.95305377744E+002
+8.35206508135E+006, +1.05329052471E+001, +1.98125228104E+002
+8.47709637046E+006, +1.07789310492E+001, +2.01329106000E+002
+8.60212765957E+006, +1.06613453786E+001, +2.04551334298E+002
+8.72715894869E+006, +1.06786967850E+001, +2.07589585753E+002
+8.85219023780E+006, +1.06292540608E+001, +2.11068345227E+002
+8.97722152691E+006, +1.11011257627E+001, +2.14006471576E+002
+9.10225281602E+006, +1.09063499487E+001, +2.17128731930E+002
+9.22728410513E+006, +1.11179574154E+001, +2.20132454390E+002
+9.35231539424E+006, +1.07474039166E+001, +2.23188621909E+002
+9.47734668335E+006, +1.08641385454E+001, +2.26485836942E+002
+9.60237797247E+006, +1.11501459465E+001, +2.29499312303E+002
+9.72740926158E+006, +1.12314265798E+001, +2.32744757735E+002
+9.85244055069E+006, +1.07076697515E+001, +2.36047083141E+002
+9.97747183980E+006, +1.14971640678E+001, +2.39125353706E+002
+1.01025031289E+007, +1.11530421029E+001, +2.42193224507E+002
+1.02275344180E+007, +1.13317571291E+001, +2.45514733957E+002
+1.03525657071E+007, +1.17317576769E+001, +2.48705865240E+002
+1.04775969962E+007, +1.12289074275E+001, +2.52028893523E+002
+1.06026282854E+007, +1.14967999059E+001, +2.55025365644E+002
+1.07276595745E+007, +1.16042956257E+001, +2.58786446877E+002
+1.08526908636E+007, +1.14018330451E+001, +2.61486688483E+002
+1.09777221527E+007, +1.19403260795E+001, +2.65179703164E+002
+1.11027534418E+007, +1.19020255895E+001, +2.68496124750E+002
+1.12277847309E+007, +1.17273051404E+001, +2.71584951822E+002
+1.13528160200E+007, +1.17477221992E+001, +2.74867353095E+002
+1.14778473091E+007, +1.17155067529E+001, +2.78537871862E+002
+1.16028785982E+007, +1.19412429756E+001, +2.81652455808E+002
+1.17279098874E+007, +1.16533340519E+001, +2.84705757940E+002
+1.18529411765E+007, +1.20779361185E+001, +2.87779322448E+002
+1.19779724656E+007, +1.18463157554E+001, +2.91373564505E+002
+1.21030037547E+007, +1.22532265523E+001, +2.94644376869E+002
+1.22280350438E+007, +1.23292878821E+001, +2.98143295705E+002
+1.23530663329E+007, +1.19741459733E+001, +3.01623340560E+002
+1.24780976220E+007, +1.25955459645E+001, +3.04806907908E+002
+1.26031289111E+007, +1.20850909067E+001, +3.08181718301E+002
+1.27281602003E+007, +1.25122856984E+001, +3.12274651562E+002
+1.28531914894E+007, +1.20175965702E+001, +3.15347288230E+002
+1.29782227785E+007, +1.20493067323E+001, +3.18731588159E+002
+1.31032540676E+007, +1.29808637961E+001, +3.22312596126E+002
+1.32282853567E+007, +1.29150270772E+001, +3.25383847751E+002
+1.33533166458E+007, +1.30754821899E+001, +3.28788715056E+002
+1.34783479349E+007, +1.18597335765E+001, +3.32932062621E+002
+1.36033792240E+007, +1.29588400311E+001, +3.36105876627E+002
+1.37284105131E+007, +1.28066386192E+001, +3.39595440357E+002
+1.38534418023E+007, +1.29895055763E+001, +3.42839206635E+002
+1.39784730914E+007, +1.25948814176E+001, +3.46515866225E+002
+1.41035043805E+007, +1.34562094219E+001, +3.49603476595E+002
+1.42285356696E+007, +1.34457701151E+001, +3.53977338806E+002
+1.43535669587E+007, +1.28630257507E+001, +3.58137971296E+002
+1.44785982478E+007, +1.30434353673E+001, +3.60956518021E+002
+1.46036295369E+007, +1.32677751224E+001, +3.65654742258E+002
+1.47286608260E+007, +1.27703558071E+001, +3.68164370521E+002
+1.48536921151E+007, +1.36949077554E+001, +3.71750682333E+002
+1.49787234043E+007, +1.35923246123E+001, +3.76062405301E+002
+1.51037546934E+007, +1.31137582776E+001, +3.78803857711E+002
+1.52287859825E+007, +1.31230072814E+001, +3.83418865056E+002
+1.53538172716E+007, +1.37769607788E+001, +3.86795324358E+002
+1.54788485607E+007, +1.33154559511E+001, +3.90574023163E+002
+1.56038798498E+007, +1.35650667862E+001, +3.94080068214E+002
+1.57289111389E+007, +1.45437111606E+001, +3.97699192446E+002
+1.58539424280E+007, +1.38545622992E+001, +4.01497773661E+002
+1.59789737171E+007, +1.29761368956E+001, +4.04814595198E+002
+1.61040050063E+007, +1.33130455101E+001, +4.10219579240E+002
+1.62290362954E+007, +1.30720746956E+001, +4.13171565247E+002
+1.63540675845E+007, +1.51704343131E+001, +4.17159418613E+002
+1.64790988736E+007, +1.38854892301E+001, +4.21730376468E+002
+1.66041301627E+007, +1.31419840388E+001, +4.24947601113E+002
+1.67291614518E+007, +1.43716128709E+001, +4.29082082517E+002
+1.68541927409E+007, +1.35842364265E+001, +4.32256120214E+002
+1.69792240300E+007, +1.40756562835E+001, +4.37442661143E+002
+1.71042553191E+007, +1.23457752676E+001, +4.39498970357E+002
+1.72292866083E+007, +1.37058134228E+001, +4.44339392065E+002
+1.73543178974E+007, +1.30290202063E+001, +4.48632216047E+002
+1.74793491865E+007, +1.41131580810E+001, +4.52264085633E+002
+1.76043804756E+007, +1.29739996178E+001, +4.55542890920E+002
+1.77294117647E+007, +1.32389207973E+001, +4.61201076723E+002
+1.78544430538E+007, +1.38795208964E+001, +4.64107114651E+002
+1.79794743429E+007, +1.43303947982E+001, +4.68917401645E+002
+1.81045056320E+007, +1.30190764169E+001, +4.73008654887E+002
+1.82295369212E+007, +1.51263191365E+001, +4.77099753682E+002
+1.83545682103E+007, +1.52076541222E+001, +4.81240705244E+002
+1.84795994994E+007, +1.42668463481E+001, +4.86445696340E+002
+1.86046307885E+007, +1.45131901109E+001, +4.89927754605E+002
+1.87296620776E+007, +1.46851827729E+001, +4.93619450441E+002
+1.88546933667E+007, +1.40557279935E+001, +4.99873401800E+002
+1.89797246558E+007, +1.65167385884E+001, +5.03276695889E+002
+1.91047559449E+007, +1.51010261242E+001, +5.06607747866E+002
+1.92297872340E+007, +1.57928879792E+001, +5.10172141029E+002
+1.93548185232E+007, +1.61083988414E+001, +5.16206834539E+002
+1.94798498123E+007, +1.53602240195E+001, +5.20466818098E+002
+1.96048811014E+007, +1.60138556235E+001, +5.24618360362E+002
+1.97299123905E+007, +1.60947328188E+001, +5.29591091876E+002
+1.98549436796E+007, +1.54832228794E+001, +5.35397315962E+002
+1.99799749687E+007, +1.67389058017E+001, +5.38468678543E+002
+2.01050062578E+007, +1.65433747643E+001, +5.43552038497E+002
+2.02300375469E+007, +1.52949388918E+001, +5.47792746184E+002
+2.03550688360E+007, +1.66752948201E+001, +5.52737102327E+002
+2.04801001252E+007, +1.85834551307E+001, +5.58322344768E+002
+2.06051314143E+007, +1.63669048561E+001, +5.60597580016E+002
+2.07301627034E+007, +1.76529065067E+001, +5.65941790296E+002
+2.08551939925E+007, +1.72140723944E+001, +5.70451814693E+002
+2.09802252816E+007, +1.95062487150E+001, +5.76834403590E+002
+2.11052565707E+007, +1.79439332567E+001, +5.79360457629E+002
+2.12302878598E+007, +1.88618687613E+001, +5.86301799866E+002
+2.13553191489E+007, +1.78716926975E+001, +5.91691731655E+002
+2.14803504380E+007, +1.81294952500E+001, +5.96171417147E+002
+2.16053817272E+007, +1.94902592545E+001, +6.01323481311E+002
+2.17304130163E+007, +1.91496491686E+001, +6.06779655154E+002
+2.18554443054E+007, +1.94133103955E+001, +6.09544624696E+002
+2.19804755945E+007, +1.90675669767E+001, +6.14588636901E+002
+2.21055068836E+007, +2.05740346761E+001, +6.20605478371E+002
+2.22305381727E+007, +2.31103261823E+001, +6.26079989293E+002
+2.23555694618E+007, +2.00543668821E+001, +6.31171316007E+002
+2.24806007509E+007, +2.03800886616E+001, +6.35338874864E+002
+2.26056320401E+007, +2.19756869890E+001, +6.40863901355E+002
+2.27306633292E+007, +2.33464976028E+001, +6.46439514175E+002
+2.28556946183E+007, +2.55345113629E+001, +6.50173239652E+002
+2.29807259074E+007, +2.40177718410E+001, +6.56494980183E+002
+2.31057571965E+007, +2.58475442677E+001, +6.59966832441E+002
+2.32307884856E+007, +2.56257302119E+001, +6.63586602593E+002
+2.33558197747E+007, +2.19064260400E+001, +6.68549037518E+002
+2.34808510638E+007, +2.28100080451E+001, +6.77168241062E+002
+2.36058823529E+007, +2.47256177309E+001, +6.79238056782E+002
+2.37309136421E+007, +2.51992820241E+001, +6.86256343276E+002
+2.38559449312E+007, +2.68268161237E+001, +6.93648029667E+002
+2.39809762203E+007, +2.76160625779E+001, +6.96136655964E+002
+2.41060075094E+007, +2.73131838017E+001, +7.01119185864E+002
+2.42310387985E+007, +2.63558949832E+001, +7.05898028818E+002
+2.43560700876E+007, +2.55250321997E+001, +7.10830757546E+002
+2.44811013767E+007, +2.87265983017E+001, +7.14126296069E+002
+2.46061326658E+007, +2.55427628180E+001, +7.22353661553E+002
+2.47311639549E+007, +2.74874077496E+001, +7.27238914849E+002
+2.48561952441E+007, +2.68376971052E+001, +7.33234113978E+002
+2.49812265332E+007, +2.74076183211E+001, +7.40179902034E+002
+2.51062578223E+007, +2.62505111316E+001, +7.47918100861E+002
+2.52312891114E+007, +2.79905875062E+001, +7.49234128009E+002
+2.53563204005E+007, +2.62418253003E+001, +7.57833096738E+002
+2.54813516896E+007, +2.39507269394E+001, +7.61777597179E+002
+2.56063829787E+007, +2.70044222538E+001, +7.69530499913E+002
+2.57314142678E+007, +2.75047729235E+001, +7.75768626810E+002
+2.58564455569E+007, +2.82194536300E+001, +7.80838723782E+002
+2.59814768461E+007, +2.91807388305E+001, +7.87370632101E+002
+2.61065081352E+007, +2.68239266465E+001, +7.93421793709E+002
+2.62315394243E+007, +2.64351170894E+001, +7.98947297105E+002
+2.63565707134E+007, +2.66193478715E+001, +8.11167479139E+002
+2.64816020025E+007, +2.65335387724E+001, +8.16567707872E+002
+2.66066332916E+007, +2.95419493493E+001, +8.22533234519E+002
+2.67316645807E+007, +2.54511515813E+001, +8.26889055358E+002
+2.68566958698E+007, +2.67202580404E+001, +8.35103699624E+002
+2.69817271589E+007, +2.53256413785E+001, +8.42284881174E+002
+2.71067584481E+007, +2.56573331759E+001, +8.46545366992E+002
+2.72317897372E+007, +3.02896174136E+001, +8.57963054977E+002
+2.73568210263E+007, +2.93287738127E+001, +8.61458662680E+002
+2.74818523154E+007, +2.67562292606E+001, +8.68671473406E+002
+2.76068836045E+007, +2.87640921144E+001, +8.79599561717E+002
+2.77319148936E+007, +2.58610071221E+001, +8.85624774300E+002
+2.78569461827E+007, +3.09973468760E+001, +8.87700701440E+002
+2.79819774718E+007, +2.77692636371E+001, +8.98904286041E+002
+2.81070087610E+007, +3.32443034533E+001, +9.08703184646E+002
+2.82320400501E+007, +2.58473313959E+001, +9.11809336274E+002
+2.83570713392E+007, +3.04655319212E+001, +9.20566116524E+002
+2.84821026283E+007, +3.10970249892E+001, +9.29928399396E+002
+2.86071339174E+007, +2.73441702883E+001, +9.37563169176E+002
+2.87321652065E+007, +3.22020298208E+001, +9.46328085689E+002
+2.88571964956E+007, +3.13745891994E+001, +9.47467449313E+002
+2.89822277847E+007, +3.28614231955E+001, +9.62284403888E+002
+2.91072590738E+007, +3.40424130500E+001, +9.65991729605E+002
+2.92322903630E+007, +3.34570762109E+001, +9.78068555602E+002
+2.93573216521E+007, +3.47671531199E+001, +9.83732264500E+002
+2.94823529412E+007, +2.88437843029E+001, +9.94760104286E+002
+2.96073842303E+007, +3.18467251276E+001, +9.99437705026E+002
+2.97324155194E+007, +3.48297983668E+001, +1.01307578712E+003
+2.98574468085E+007, +3.21315918065E+001, +1.01825047511E+003
+2.99824780976E+007, +3.53918496944E+001, +1.02678066844E+003
+3.01075093867E+007, +3.64000842462E+001, +1.03936322149E+003
+3.02325406758E+007, +3.42177974328E+001, +1.04673434748E+003
+3.03575719650E+007, +3.37786568504E+001, +1.05423293480E+003
+3.04826032541E+007, +3.42001596939E+001, +1.06831227568E+003
+3.06076345432E+007, +3.44942066288E+001, +1.07502165009E+003
+3.07326658323E+007, +4.15069318603E+001, +1.08726115333E+003
+3.08576971214E+007, +4.29186228845E+001, +1.09318694587E+003
+3.09827284105E+007, +4.04930009903E+001, +1.10231753262E+003
+3.11077596996E+007, +2.75625943875E+001, +1.11019952523E+003
+3.12327909887E+007, +3.89945151764E+001, +1.12496356289E+003
+3.13578222778E+007, +4.01857790008E+001, +1.13264213179E+003
+3.14828535670E+007, +3.97260403926E+001, +1.14402111414E+003
+3.16078848561E+007, +3.80457797064E+001, +1.15192788955E+003
+3.17329161452E+007, +4.56734450844E+001, +1.16185655263E+003
+3.18579474343E+007, +4.04988265331E+001, +1.17228536631E+003
+3.19829787234E+007, +4.25637970574E+001, +1.18047926699E+003
+3.21080100125E+007, +4.43892791326E+001, +1.19743000786E+003
+3.22330413016E+007, +4.65704399172E+001, +1.20722417744E+003
+3.23580725907E+007, +4.04509336230E+001, +1.20855024382E+003
+3.24831038798E+007, +4.65837829487E+001, +1.22861956231E+003
+3.26081351690E+007, +4.43683182076E+001, +1.22918199163E+003
+3.27331664581E+007, +4.57546491584E+001, +1.25077467849E+003
+3.28581977472E+007, +4.21899239548E+001, +1.25980010951E+003
+3.29832290363E+007, +4.18114485227E+001, +1.27109498070E+003
+3.31082603254E+007, +4.19575521036E+001, +1.28216623663E+003
+3.32332916145E+007, +4.60600226650E+001, +1.30103619744E+003
+3.33583229036E+007, +4.24458519765E+001, +1.31259093232E+003
+3.34833541927E+007, +4.65197025303E+001, +1.33363926188E+003
+3.36083854819E+007, +4.77742328947E+001, +1.33629580954E+003
+3.37334167710E+007, +5.20330913978E+001, +1.35836122859E+003
+3.38584480601E+007, +4.54633496296E+001, +1.36069058422E+003
+3.39834793492E+007, +4.82815938020E+001, +1.37598127564E+003
+3.41085106383E+007, +5.48627452156E+001, +1.39330400878E+003
+3.42335419274E+007, +4.80801744606E+001, +1.39816037219E+003
+3.43585732165E+007, +5.96626642086E+001, +1.42354419149E+003
+3.44836045056E+007, +6.07645237834E+001, +1.44203400033E+003
+3.46086357947E+007, +6.40958074236E+001, +1.44690202180E+003
+3.47336670839E+007, +6.11728373214E+001, +1.45824650833E+003
+3.48586983730E+007, +6.82267396681E+001, +1.47921334571E+003
+3.49837296621E+007, +6.90734279533E+001, +1.49320899435E+003
+3.51087609512E+007, +6.59400493891E+001, +1.50858006342E+003
+3.52337922403E+007, +6.58768187826E+001, +1.52514140551E+003
+3.53588235294E+007, +6.06883529371E+001, +1.55355822401E+003
+3.54838548185E+007, +6.14118842017E+001, +1.55362857042E+003
+3.56088861076E+007, +7.27262126404E+001, +1.57173904663E+003
+3.57339173967E+007, +7.83337563396E+001, +1.59096406688E+003
+3.58589486859E+007, +7.86223374081E+001, +1.62422255869E+003
+3.59839799750E+007, +6.15230668220E+001, +1.63489057054E+003
+3.61090112641E+007, +7.83898151199E+001, +1.64615484333E+003
+3.62340425532E+007, +7.21341604852E+001, +1.66077050860E+003
+3.63590738423E+007, +8.47806491366E+001, +1.69174235856E+003
+3.64841051314E+007, +1.01280339884E+002, +1.70169782219E+003
+3.66091364205E+007, +6.76727301715E+001, +1.73310170853E+003
+3.67341677096E+007, +9.56973152595E+001, +1.73159869184E+003
+3.68591989987E+007, +9.06918849874E+001, +1.75637923716E+003
+3.69842302879E+007, +9.14422619851E+001, +1.79169673614E+003
+3.71092615770E+007, +9.02620186743E+001, +1.80651816852E+003
+3.72342928661E+007, +9.21864202377E+001, +1.83752047101E+003
+3.73593241552E+007, +1.00338143432E+002, +1.85307984052E+003
+3.74843554443E+007, +1.06081008819E+002, +1.86629048551E+003
+3.76093867334E+007, +1.19398268652E+002, +1.89490797314E+003
+3.77344180225E+007, +1.22949782960E+002, +1.90897783930E+003
+3.78594493116E+007, +1.22263815238E+002, +1.93993990669E+003
+3.79844806008E+007, +1.14032820569E+002, +1.97693045772E+003
+3.81095118899E+007, +1.29142102265E+002, +1.96967450911E+003
+3.82345431790E+007, +1.38733209773E+002, +2.00695133875E+003
+3.83595744681E+007, +1.55783725262E+002, +2.02432115937E+003
+3.84846057572E+007, +1.39421787220E+002, +2.03803863886E+003
+3.86096370463E+007, +1.54893491270E+002, +2.07627991469E+003
+3.87346683354E+007, +1.63397778688E+002, +2.11409049565E+003
+3.88596996245E+007, +1.70840886058E+002, +2.13010020568E+003
+3.89847309136E+007, +1.63400517844E+002, +2.18090955933E+003
+3.91097622028E+007, +1.52763786776E+002, +2.19195862334E+003
+3.92347934919E+007, +1.75683351306E+002, +2.21777271152E+003
+3.93598247810E+007, +1.88839960210E+002, +2.25356571107E+003
+3.94848560701E+007, +1.84427624675E+002, +2.28612723406E+003
+3.96098873592E+007, +1.79581030514E+002, +2.34337507315E+003
+3.97349186483E+007, +1.79650142458E+002, +2.32951021733E+003
+3.98599499374E+007, +1.99991006795E+002, +2.36049434806E+003
+3.99849812265E+007, +2.24433250424E+002, +2.40632252363E+003
+4.01100125156E+007, +2.09299628665E+002, +2.46344527770E+003
