"# Channel 1"
"# Trace 1"
Frequency, Formatted Data, Formatted Data
+1.00000000000E+005, +1.00993424133E+001, +2.17812293601E+000
+2.66777963272E+005, +1.00890453293E+001, +5.80413586068E+000
+4.33555926544E+005, +1.00904487443E+001, +9.47428786654E+000
+6.00333889816E+005, +1.01213397213E+001, +1.31023201614E+001
+7.67111853088E+005, +1.01587527716E+001, +1.67370159435E+001
+9.33889816361E+005, +1.01480340512E+001, +2.03638141102E+001
+1.10066777963E+006, +1.00874609277E+001, +2.40075135316E+001
+1.26744574290E+006, +1.01461489409E+001, +2.76169635946E+001
+1.43422370618E+006, +1.00928325493E+001, +3.13470263460E+001
+1.60100166945E+006, +1.01560502025E+001, +3.48456655324E+001
+1.76777963272E+006, +1.01639360829E+001, +3.85142713840E+001
+1.93455759599E+006, +1.01719288926E+001, +4.20885764218E+001
+2.10133555927E+006, +1.01760208344E+001, +4.57247213771E+001
+2.26811352254E+006, +1.02291755516E+001, +4.93812989149E+001
+2.43489148581E+006, +1.01674512374E+001, +5.30808092076E+001
+2.60166944908E+006, +1.02160660141E+001, +5.66217709482E+001
+2.76844741235E+006, +1.02118340294E+001, +6.03796091727E+001
+2.93522537563E+006, +1.01794774612E+001, +6.39751747921E+001
+3.10200333890E+006, +1.03804114144E+001, +6.75465240913E+001
+3.26878130217E+006, +1.01728590870E+001, +7.13286789869E+001
+3.43555926544E+006, +1.03567657827E+001, +7.49135340168E+001
+3.60233722871E+006, +1.03467608651E+001, +7.86769721185E+001
+3.76911519199E+006, +1.03476926460E+001, +8.24217866928E+001
+3.93589315526E+006, +1.04038033373E+001, +8.59169428252E+001
+4.10267111853E+006, +9.99674728743E+000, +8.93038403945E+001
+4.26944908180E+006, +1.02250832145E+001, +9.37385768874E+001
+4.43622704508E+006, +1.04725057065E+001, +9.70998958457E+001
+4.60300500835E+006, +1.03992655914E+001, +1.00857437232E+002
+4.76978297162E+006, +1.04088208267E+001, +1.04460171906E+002
+4.93656093489E+006, +1.06792809245E+001, +1.08299734329E+002
+5.10333889816E+006, +1.06543410209E+001, +1.11830559412E+002
+5.27011686144E+006, +1.09077593165E+001, +1.15872479131E+002
+5.43689482471E+006, +1.06754547602E+001, +1.19436161107E+002
+5.60367278798E+006, +1.08836014108E+001, +1.23397665445E+002
+5.77045075125E+006, +1.08199697733E+001, +1.26829408842E+002
+5.93722871452E+006, +1.11258620893E+001, +1.30566768945E+002
+6.10400667780E+006, +1.11497007948E+001, +1.34387215512E+002
+6.27078464107E+006, +1.12710636763E+001, +1.38127346812E+002
+6.43756260434E+006, +1.13732528662E+001, +1.41863032239E+002
+6.60434056761E+006, +1.14893070720E+001, +1.45583820176E+002
+6.77111853088E+006, +1.17300936746E+001, +1.49234024622E+002
+6.93789649416E+006, +1.17046157441E+001, +1.53052577074E+002
+7.10467445743E+006, +1.15418468748E+001, +1.56885328838E+002
+7.27145242070E+006, +1.17588830585E+001, +1.60542603322E+002
+7.43823038397E+006, +1.17958658875E+001, +1.64255629428E+002
+7.60500834725E+006, +1.17448734515E+001, +1.68195526055E+002
+7.77178631052E+006, +1.19877708706E+001, +1.72058399724E+002
+7.93856427379E+006, +1.19277748141E+001, +1.75606947785E+002
+8.10534223706E+006, +1.19172669626E+001, +1.79523042408E+002
+8.27212020033E+006, +1.20245540205E+001, +1.83391708402E+002
+8.43889816361E+006, +1.19509681775E+001, +1.87400960588E+002
+8.60567612688E+006, +1.17754001065E+001, +1.91361885136E+002
+8.77245409015E+006, +1.18005290503E+001, +1.94879758052E+002
+8.93923205342E+006, +1.19778137749E+001, +1.98910682258E+002
+9.10601001669E+006, +1.20014849066E+001, +2.03018775952E+002
+9.27278797997E+006, +1.19616236805E+001, +2.06882382265E+002
+9.43956594324E+006, +1.19749144672E+001, +2.10815249612E+002
+9.60634390651E+006, +1.18829177693E+001, +2.14691001964E+002
+9.77312186978E+006, +1.19197314195E+001, +2.18642622924E+002
+9.93989983306E+006, +1.23251818840E+001, +2.22813748081E+002
+1.01066777963E+007, +1.21552244137E+001, +2.26669202038E+002
+1.02734557596E+007, +1.20887629012E+001, +2.30955227927E+002
+1.04402337229E+007, +1.19977904026E+001, +2.35008047337E+002
+1.06070116861E+007, +1.21110364087E+001, +2.38843154513E+002
+1.07737896494E+007, +1.23805241207E+001, +2.43371065647E+002
+1.09405676127E+007, +1.25290881635E+001, +2.47234774940E+002
+1.11073455760E+007, +1.24250391367E+001, +2.51235303259E+002
+1.12741235392E+007, +1.24570353234E+001, +2.55351014743E+002
+1.14409015025E+007, +1.26359321159E+001, +2.59464978798E+002
+1.16076794658E+007, +1.27520143222E+001, +2.63432518806E+002
+1.17744574290E+007, +1.26990862015E+001, +2.68224509587E+002
+1.19412353923E+007, +1.25113600689E+001, +2.72572099534E+002
+1.21080133556E+007, +1.25164971778E+001, +2.76454862840E+002
+1.22747913189E+007, +1.31027058579E+001, +2.80764781942E+002
+1.24415692821E+007, +1.24584166079E+001, +2.85278383312E+002
+1.26083472454E+007, +1.26593205888E+001, +2.89505703949E+002
+1.27751252087E+007, +1.30306080283E+001, +2.93456643301E+002
+1.29419031720E+007, +1.29312548858E+001, +2.97758343725E+002
+1.31086811352E+007, +1.32554942215E+001, +3.02056689144E+002
+1.32754590985E+007, +1.33603138061E+001, +3.06753282764E+002
+1.34422370618E+007, +1.30892167822E+001, +3.10807394090E+002
+1.36090150250E+007, +1.40547124712E+001, +3.15364660365E+002
+1.37757929883E+007, +1.38451992735E+001, +3.19519667253E+002
+1.39425709516E+007, +1.39058291706E+001, +3.24106710209E+002
+1.41093489149E+007, +1.41638796590E+001, +3.28571284746E+002
+1.42761268781E+007, +1.40884331459E+001, +3.32804781782E+002
+1.44429048414E+007, +1.39368276104E+001, +3.36845643134E+002
+1.46096828047E+007, +1.39170911661E+001, +3.42077330164E+002
+1.47764607679E+007, +1.45051310860E+001, +3.45887901468E+002
+1.49432387312E+007, +1.39996949325E+001, +3.50492740063E+002
+1.51100166945E+007, +1.38077141977E+001, +3.55470726715E+002
+1.52767946578E+007, +1.43130993481E+001, +3.59211526341E+002
+1.54435726210E+007, +1.43246346081E+001, +3.64231232825E+002
+1.56103505843E+007, +1.48117247824E+001, +3.68946246612E+002
+1.57771285476E+007, +1.47587003629E+001, +3.74233317901E+002
+1.59439065109E+007, +1.48558112803E+001, +3.79107030540E+002
+1.61106844741E+007, +1.53659149548E+001, +3.83324087563E+002
+1.62774624374E+007, +1.51144940346E+001, +3.88659364560E+002
+1.64442404007E+007, +1.48378223528E+001, +3.93811865636E+002
+1.66110183639E+007, +1.59224852376E+001, +3.97415642052E+002
+1.67777963272E+007, +1.49075719528E+001, +4.03586470039E+002
+1.69445742905E+007, +1.61850935121E+001, +4.08159758598E+002
+1.71113522538E+007, +1.27020592811E+001, +4.12558198097E+002
+1.72781302170E+007, +1.51303002825E+001, +4.18139681482E+002
+1.74449081803E+007, +1.41650798998E+001, +4.22614704995E+002
+1.76116861436E+007, +1.61498087243E+001, +4.28465880457E+002
+1.77784641068E+007, +1.57758659326E+001, +4.32515765771E+002
+1.79452420701E+007, +1.67892848023E+001, +4.37549776932E+002
+1.81120200334E+007, +1.66209568256E+001, +4.41492267818E+002
+1.82787979967E+007, +1.75303222128E+001, +4.48440889081E+002
+1.84455759599E+007, +1.75211533147E+001, +4.53207458154E+002
+1.86123539232E+007, +1.79628362335E+001, +4.58489203239E+002
+1.87791318865E+007, +1.77665013040E+001, +4.64181774099E+002
+1.89459098497E+007, +1.78861851437E+001, +4.69306938022E+002
+1.91126878130E+007, +1.79471953456E+001, +4.74386751083E+002
+1.92794657763E+007, +1.82295281414E+001, +4.79594740298E+002
+1.94462437396E+007, +1.81560573312E+001, +4.86450395420E+002
+1.96130217028E+007, +1.88450767360E+001, +4.91660628970E+002
+1.97797996661E+007, +1.95704954083E+001, +4.96094559545E+002
+1.99465776294E+007, +1.79110633283E+001, +5.01833720109E+002
+2.01133555927E+007, +1.93347253689E+001, +5.07208041975E+002
+2.02801335559E+007, +1.96525343675E+001, +5.12924247734E+002
+2.04469115192E+007, +2.00494067555E+001, +5.19288371122E+002
+2.06136894825E+007, +2.14485934986E+001, +5.24335048444E+002
+2.07804674457E+007, +2.12271317452E+001, +5.31187889497E+002
+2.09472454090E+007, +1.98083422771E+001, +5.37334157410E+002
+2.11140233723E+007, +2.04474962178E+001, +5.41611377495E+002
+2.12808013356E+007, +2.16077317261E+001, +5.47386572079E+002
+2.14475792988E+007, +2.24972327529E+001, +5.54510742338E+002
+2.16143572621E+007, +2.31780217943E+001, +5.60091496213E+002
+2.17811352254E+007, +2.18862280318E+001, +5.65128606302E+002
+2.19479131886E+007, +2.53436111140E+001, +5.72502370600E+002
+2.21146911519E+007, +2.47778480804E+001, +5.76297547935E+002
+2.22814691152E+007, +2.32787656118E+001, +5.83123911738E+002
+2.24482470785E+007, +2.46095731035E+001, +5.92513398721E+002
+2.26150250417E+007, +2.72165271577E+001, +5.97772230342E+002
+2.27818030050E+007, +2.54104103251E+001, +6.03122570114E+002
+2.29485809683E+007, +2.85264757702E+001, +6.08162874664E+002
+2.31153589316E+007, +2.55222164877E+001, +6.16908539994E+002
+2.32821368948E+007, +3.06421933402E+001, +6.23318250717E+002
+2.34489148581E+007, +2.97030728500E+001, +6.29062578751E+002
+2.36156928214E+007, +3.02583066599E+001, +6.36610622527E+002
+2.37824707846E+007, +2.93366895258E+001, +6.41013822691E+002
+2.39492487479E+007, +2.89774425415E+001, +6.49033783136E+002
+2.41160267112E+007, +3.06386444904E+001, +6.53735808111E+002
+2.42828046745E+007, +3.14186095591E+001, +6.61759083019E+002
+2.44495826377E+007, +3.33466330496E+001, +6.69367277092E+002
+2.46163606010E+007, +3.02987376890E+001, +6.76782221015E+002
+2.47831385643E+007, +3.22188373999E+001, +6.82915797242E+002
+2.49499165275E+007, +3.65450139163E+001, +6.93189486661E+002
+2.51166944908E+007, +3.67339280820E+001, +6.97296273809E+002
+2.52834724541E+007, +3.70839822012E+001, +7.05165946153E+002
+2.54502504174E+007, +3.78542104372E+001, +7.12294732365E+002
+2.56170283806E+007, +3.71860504584E+001, +7.17580014478E+002
+2.57838063439E+007, +3.87351101874E+001, +7.26272866071E+002
+2.59505843072E+007, +3.97733637539E+001, +7.35445364673E+002
+2.61173622705E+007, +4.01980425297E+001, +7.42324294326E+002
+2.62841402337E+007, +3.99067454922E+001, +7.46431531979E+002
+2.64509181970E+007, +4.02299656104E+001, +7.56093723868E+002
+2.66176961603E+007, +4.12329440053E+001, +7.66557544419E+002
+2.67844741235E+007, +4.34759733727E+001, +7.73384531267E+002
+2.69512520868E+007, +4.17017321975E+001, +7.79717701307E+002
+2.71180300501E+007, +4.51800908012E+001, +7.84065756230E+002
+2.72848080134E+007, +4.53784912296E+001, +7.96140484647E+002
+2.74515859766E+007, +4.80105291889E+001, +8.01595714819E+002
+2.76183639399E+007, +4.74384489140E+001, +8.08110305780E+002
+2.77851419032E+007, +4.29493391209E+001, +8.18125347961E+002
+2.79519198664E+007, +4.72820747631E+001, +8.25675428629E+002
+2.81186978297E+007, +4.83763514472E+001, +8.34876756232E+002
+2.82854757930E+007, +4.95284063813E+001, +8.42568535110E+002
+2.84522537563E+007, +4.61324054884E+001, +8.54403732889E+002
+2.86190317195E+007, +4.67774961874E+001, +8.60326897281E+002
+2.87858096828E+007, +5.55002334640E+001, +8.72714766688E+002
+2.89525876461E+007, +5.16406506779E+001, +8.81428367465E+002
+2.91193656093E+007, +4.79012469115E+001, +8.87074208652E+002
+2.92861435726E+007, +4.95203977917E+001, +8.97774970674E+002
+2.94529215359E+007, +4.92551883221E+001, +9.08969715219E+002
+2.96196994992E+007, +5.43295186957E+001, +9.16849003631E+002
+2.97864774624E+007, +5.37441037924E+001, +9.26361454633E+002
+2.99532554257E+007, +5.46838216244E+001, +9.38913224307E+002
+3.01200333890E+007, +5.46764397210E+001, +9.48427506007E+002
+3.02868113523E+007, +5.26580255503E+001, +9.60911801929E+002
+3.04535893155E+007, +5.30630192037E+001, +9.75462294084E+002
+3.06203672788E+007, +5.61831728004E+001, +9.82659283651E+002
+3.07871452421E+007, +5.55317379633E+001, +9.92116498368E+002
+3.09539232053E+007, +5.65508406649E+001, +1.00507421713E+003
+3.11207011686E+007, +5.65171632362E+001, +1.01696504609E+003
+3.12874791319E+007, +5.72768098505E+001, +1.02247182818E+003
+3.14542570952E+007, +5.91843316647E+001, +1.03502143848E+003
+3.16210350584E+007, +5.54058303200E+001, +1.05181570915E+003
+3.17878130217E+007, +5.82207318043E+001, +1.05991168617E+003
+3.19545909850E+007, +6.65781170300E+001, +1.07163347457E+003
+3.21213689482E+007, +5.54459887146E+001, +1.08363086102E+003
+3.22881469115E+007, +5.85163579915E+001, +1.09991348769E+003
+3.24549248748E+007, +6.38227397494E+001, +1.11288123580E+003
+3.26217028381E+007, +5.80135152249E+001, +1.12572009996E+003
+3.27884808013E+007, +6.21846062845E+001, +1.13970323388E+003
+3.29552587646E+007, +7.03294173370E+001, +1.15012912256E+003
+3.31220367279E+007, +6.95218942197E+001, +1.16285698236E+003
+3.32888146912E+007, +6.48759713943E+001, +1.18686673122E+003
+3.34555926544E+007, +6.69384361961E+001, +1.19853237401E+003
+3.36223706177E+007, +6.96840763756E+001, +1.21276061545E+003
+3.37891485810E+007, +7.01286992596E+001, +1.22272536538E+003
+3.39559265442E+007, +7.17353678805E+001, +1.24881566188E+003
+3.41227045075E+007, +7.05992786955E+001, +1.25805665247E+003
+3.42894824708E+007, +7.34090893743E+001, +1.27409444780E+003
+3.44562604341E+007, +7.89169000025E+001, +1.29072307945E+003
+3.46230383973E+007, +8.02337016162E+001, +1.31174128069E+003
+3.47898163606E+007, +8.24775080991E+001, +1.32132613028E+003
+3.49565943239E+007, +9.24638233678E+001, +1.34741197342E+003
+3.51233722871E+007, +8.53528305519E+001, +1.36478533531E+003
+3.52901502504E+007, +9.32549349285E+001, +1.37769156813E+003
+3.54569282137E+007, +8.91680175778E+001, +1.39740594716E+003
+3.56237061770E+007, +8.80214850327E+001, +1.41591132100E+003
+3.57904841402E+007, +9.61556247651E+001, +1.43716038904E+003
+3.59572621035E+007, +9.45725042724E+001, +1.45664143107E+003
+3.61240400668E+007, +1.00491603172E+002, +1.47938663742E+003
+3.62908180301E+007, +1.03827421432E+002, +1.50933290482E+003
+3.64575959933E+007, +9.46080957123E+001, +1.53347078645E+003
+3.66243739566E+007, +1.12201378300E+002, +1.54125432313E+003
+3.67911519199E+007, +1.10042340603E+002, +1.57494904757E+003
+3.69579298831E+007, +1.07059271220E+002, +1.57764245607E+003
+3.71247078464E+007, +1.11741536231E+002, +1.62441642473E+003
+3.72914858097E+007, +1.10005027214E+002, +1.64779982276E+003
+3.74582637730E+007, +1.23393148909E+002, +1.67208550831E+003
+3.76250417362E+007, +1.34415022942E+002, +1.68741362153E+003
+3.77918196995E+007, +1.25302570378E+002, +1.71084893167E+003
+3.79585976628E+007, +1.16427852568E+002, +1.74886380461E+003
+3.81253756260E+007, +1.50503271563E+002, +1.76677643087E+003
+3.82921535893E+007, +1.51542717562E+002, +1.79738808605E+003
+3.84589315526E+007, +1.48783374141E+002, +1.83746580948E+003
+3.86257095159E+007, +1.38392995177E+002, +1.86151922560E+003
+3.87924874791E+007, +1.54493171363E+002, +1.90387270606E+003
+3.89592654424E+007, +1.58319345056E+002, +1.93377677543E+003
+3.91260434057E+007, +1.67306416240E+002, +1.97685227543E+003
+3.92928213689E+007, +1.69065140193E+002, +2.01299381037E+003
+3.94595993322E+007, +1.70025568198E+002, +2.04752241680E+003
+3.96263772955E+007, +1.72831489988E+002, +2.07895950748E+003
+3.97931552588E+007, +1.83467191717E+002, +2.11174506351E+003
+3.99599332220E+007, +1.90167852791E+002, +2.16056726252E+003
+4.01267111853E+007, +2.14165130474E+002, +2.21613251534E+003
+4.02934891486E+007, +1.92280487267E+002, +2.24685044876E+003
+4.04602671119E+007, +2.20490068434E+002, +2.30761864104E+003
+4.06270450751E+007, +2.53721292603E+002, +2.34086198231E+003
+4.07938230384E+007, +2.55522345127E+002, +2.39038384929E+003
+4.09606010017E+007, +2.60394970426E+002, +2.46085489320E+003
+4.11273789649E+007, +2.82738588668E+002, +2.47073753269E+003
+4.12941569282E+007, +2.96909420546E+002, +2.58076681416E+003
+4.14609348915E+007, +3.21114045396E+002, +2.62849115235E+003
+4.16277128548E+007, +3.22384555106E+002, +2.68082517528E+003
+4.17944908180E+007, +3.32094718148E+002, +2.70611272287E+003
+4.19612687813E+007, +3.50333924522E+002, +2.78410434515E+003
+4.21280467446E+007, +3.57269394827E+002, +2.86098935857E+003
+4.22948247078E+007, +3.97709605669E+002, +2.98923953085E+003
+4.24616026711E+007, +4.27899154408E+002, +3.00448958000E+003
+4.26283806344E+007, +4.75043255754E+002, +3.09001032380E+003
+4.27951585977E+007, +4.45979869099E+002, +3.21251346233E+003
+4.29619365609E+007, +5.24592027200E+002, +3.27283121737E+003
+4.31287145242E+007, +5.84183253868E+002, +3.39531834892E+003
+4.32954924875E+007, +5.55464226129E+002, +3.47082643098E+003
+4.34622704508E+007, +5.85098495318E+002, +3.63273617886E+003
+4.36290484140E+007, +6.81206915374E+002, +3.66610506421E+003
+4.37958263773E+007, +7.13246387558E+002, +3.86442066526E+003
+4.39626043406E+007, +7.89085588934E+002, +3.94083412252E+003
+4.41293823038E+007, +8.76181361554E+002, +4.04423973960E+003
+4.42961602671E+007, +8.58915743104E+002, +4.16428948106E+003
+4.44629382304E+007, +9.01481012491E+002, +4.44113967363E+003
+4.46297161937E+007, +1.05230913426E+003, +4.45981621806E+003
+4.47964941569E+007, +1.07633467418E+003, +4.75572129470E+003
+4.49632721202E+007, +1.11560880525E+003, +4.90913331178E+003
+4.51300500835E+007, +1.23681592263E+003, +4.92951060098E+003
+4.52968280467E+007, +1.45779496740E+003, +5.25801741451E+003
+4.54636060100E+007, +1.71309823592E+003, +5.66194019671E+003
+4.56303839733E+007, +1.76171363550E+003, +5.85895607791E+003
+4.57971619366E+007, +2.22802982598E+003, +6.04843934984E+003
+4.59639398998E+007, +2.27497078498E+003, +6.58068046670E+003
+4.61307178631E+007, +2.79615152633E+003, +6.76922825290E+003
+4.62974958264E+007, +3.11616400040E+003, +7.02902137944E+003
+4.64642737896E+007, +3.28472071649E+003, +7.57413421052E+003
+4.66310517529E+007, +3.91081386251E+003, +8.04527302472E+003
+4.67978297162E+007, +4.85650454633E+003, +7.86955759273E+003
+4.69646076795E+007, +5.92786304932E+003, +9.16510235232E+003
+4.71313856427E+007, +6.80026206928E+003, +9.09499329824E+003
+4.72981636060E+007, +7.96814774994E+003, +9.51597994655E+003
+4.74649415693E+007, +9.41447286834E+003, +9.55407319852E+003
+4.76317195326E+007, +1.13714988444E+004, +8.66488659047E+003
+4.77984974958E+007, +1.30932642643E+004, +8.11429312190E+003
+4.79652754591E+007, +1.43220329635E+004, +6.18192646091E+003
+4.81320534224E+007, +1.56567189168E+004, +4.48222257254E+003
+4.82988313856E+007, +1.65163792226E+004, +3.16775826620E+003
+4.84656093489E+007, +1.59778247855E+004, -2.09858490321E+002
+4.86323873122E+007, +1.52319023956E+004, -1.38086370372E+003
+4.87991652755E+007, +1.43800694312E+004, -4.28235818031E+003
+4.89659432387E+007, +1.37732826175E+004, -4.75261337621E+003
+4.91327212020E+007, +1.16674382514E+004, -6.02622798644E+003
+4.92994991653E+007, +1.06521329718E+004, -6.15226441326E+003
+4.94662771285E+007, +8.71148017982E+003, -6.72886956257E+003
+4.96330550918E+007, +8.31563279435E+003, -6.70739180302E+003
+4.97998330551E+007, +7.56347521380E+003, -6.62213191360E+003
+4.99666110184E+007, +6.68624448057E+003, -6.44109279781E+003
+5.01333889816E+007, +6.07724910252E+003, -6.61331223094E+003
+5.03001669449E+007, +5.26213058697E+003, -6.79908001076E+003
+5.04669449082E+007, +4.56949649554E+003, -6.48138815104E+003
+5.06337228715E+007, +4.30624964192E+003, -5.99078564366E+003
+5.08005008347E+007, +3.92361465554E+003, -6.03713656284E+003
+5.09672787980E+007, +3.58824328429E+003, -5.75482946303E+003
+5.11340567613E+007, +3.07931293550E+003, -5.62913429446E+003
+5.13008347245E+007, +2.73884387334E+003, -5.46406343073E+003
+5.14676126878E+007, +2.57577653728E+003, -5.24441828612E+003
+5.16343906511E+007, +2.34364958745E+003, -4.96505175019E+003
+5.18011686144E+007, +2.15668517707E+003, -4.87173375778E+003
+5.19679465776E+007, +1.90270155489E+003, -4.67254067193E+003
+5.21347245409E+007, +1.79524394969E+003, -4.47294077270E+003
+5.23015025042E+007, +1.55786794886E+003, -4.19287351078E+003
+5.24682804674E+007, +1.42050585812E+003, -4.17330979746E+003
+5.26350584307E+007, +1.37643478647E+003, -3.99486475062E+003
+5.28018363940E+007, +1.23488970704E+003, -3.86804819363E+003
+5.29686143573E+007, +1.14649696307E+003, -3.71335221988E+003
+5.31353923205E+007, +1.04413448914E+003, -3.60567911134E+003
+5.33021702838E+007, +9.91164551264E+002, -3.47140307255E+003
+5.34689482471E+007, +9.03788406044E+002, -3.32316906634E+003
