"# Channel 1"
"# Trace 1"
Frequency, Formatted Data, Formatted Data
+1.00000000000E+006, +9.21507029415E+000, +2.21485437275E+001
+1.16527545910E+006, +9.23034420246E+000, +2.58054965678E+001
+1.33055091820E+006, +9.30328701944E+000, +2.93569247955E+001
+1.49582637730E+006, +9.21983601968E+000, +3.30313931649E+001
+1.66110183639E+006, +9.25599869125E+000, +3.66529854366E+001
+1.82637729549E+006, +9.25558035684E+000, +4.02431773333E+001
+1.99165275459E+006, +9.26068317376E+000, +4.39019382238E+001
+2.15692821369E+006, +9.28880998605E+000, +4.75366491738E+001
+2.32220367279E+006, +9.22580989900E+000, +5.11739227623E+001
+2.48747913189E+006, +9.22658332950E+000, +5.48482308038E+001
+2.65275459098E+006, +9.20298668235E+000, +5.85274933280E+001
+2.81803005008E+006, +9.15235703719E+000, +6.21213627181E+001
+2.98330550918E+006, +9.11998601695E+000, +6.57081336706E+001
+3.14858096828E+006, +9.25095525173E+000, +6.92995297414E+001
+3.31385642738E+006, +9.38641846986E+000, +7.30456311539E+001
+3.47913188648E+006, +9.17150705110E+000, +7.68188563639E+001
+3.64440734558E+006, +9.26411045449E+000, +8.03146745659E+001
+3.80968280467E+006, +9.42890624369E+000, +8.40175274663E+001
+3.97495826377E+006, +9.49697920239E+000, +8.75958273474E+001
+4.14023372287E+006, +9.25507157650E+000, +9.15551704556E+001
+4.30550918197E+006, +9.42310651479E+000, +9.47744572176E+001
+4.47078464107E+006, +9.36924187222E+000, +9.87175793411E+001
+4.63606010017E+006, +9.26164072529E+000, +1.02253843072E+002
+4.80133555927E+006, +9.30556530966E+000, +1.05993812120E+002
+4.96661101836E+006, +9.43308876778E+000, +1.09581438941E+002
+5.13188647746E+006, +9.51350796838E+000, +1.13463605886E+002
+5.29716193656E+006, +9.56058643426E+000, +1.16759574951E+002
+5.46243739566E+006, +9.60186207212E+000, +1.20688222528E+002
+5.62771285476E+006, +9.68430145795E+000, +1.24274845082E+002
+5.79298831386E+006, +9.88450300647E+000, +1.28217583561E+002
+5.95826377295E+006, +9.80490429601E+000, +1.31908287623E+002
+6.12353923205E+006, +1.02776310999E+001, +1.35342748601E+002
+6.28881469115E+006, +9.95104282511E+000, +1.38958427561E+002
+6.45409015025E+006, +1.01939171947E+001, +1.42635962537E+002
+6.61936560935E+006, +1.00191379267E+001, +1.46398825721E+002
+6.78464106845E+006, +1.01442480001E+001, +1.50028717886E+002
+6.94991652755E+006, +1.03518370719E+001, +1.53749148920E+002
+7.11519198664E+006, +1.03744605890E+001, +1.57343650258E+002
+7.28046744574E+006, +1.03473366914E+001, +1.61086575949E+002
+7.44574290484E+006, +1.05271912092E+001, +1.64669603058E+002
+7.61101836394E+006, +1.05056497120E+001, +1.68320281472E+002
+7.77629382304E+006, +1.05254330578E+001, +1.72077682555E+002
+7.94156928214E+006, +1.04493997134E+001, +1.75788383666E+002
+8.10684474124E+006, +1.04880500308E+001, +1.79170382617E+002
+8.27212020033E+006, +1.05499789886E+001, +1.83090054755E+002
+8.43739565943E+006, +1.04643117077E+001, +1.86812673922E+002
+8.60267111853E+006, +1.03978378635E+001, +1.90219354315E+002
+8.76794657763E+006, +1.06239511780E+001, +1.94217824452E+002
+8.93322203673E+006, +1.05389614788E+001, +1.98180776056E+002
+9.09849749583E+006, +1.07326729161E+001, +2.01598231076E+002
+9.26377295492E+006, +1.04211620854E+001, +2.05609421622E+002
+9.42904841402E+006, +1.06529414392E+001, +2.08977944654E+002
+9.59432387312E+006, +1.07033455490E+001, +2.12937059954E+002
+9.75959933222E+006, +1.05140186235E+001, +2.16354541983E+002
+9.92487479132E+006, +1.07288733530E+001, +2.20317534890E+002
+1.00901502504E+007, +1.07035870323E+001, +2.24130108764E+002
+1.02554257095E+007, +1.05608977676E+001, +2.27713132696E+002
+1.04207011686E+007, +1.06128492825E+001, +2.31558930728E+002
+1.05859766277E+007, +1.08357411272E+001, +2.35646583903E+002
+1.07512520868E+007, +1.04328477137E+001, +2.39161006400E+002
+1.09165275459E+007, +1.08148508556E+001, +2.43058673310E+002
+1.10818030050E+007, +1.09731010392E+001, +2.46930735703E+002
+1.12470784641E+007, +1.10786946223E+001, +2.50198808374E+002
+1.14123539232E+007, +1.07009126892E+001, +2.54063906691E+002
+1.15776293823E+007, +1.10227407653E+001, +2.57899740862E+002
+1.17429048414E+007, +1.05990652770E+001, +2.61967854032E+002
+1.19081803005E+007, +1.10567547458E+001, +2.65881688302E+002
+1.20734557596E+007, +1.08395568852E+001, +2.69897323924E+002
+1.22387312187E+007, +1.07434149837E+001, +2.73485287585E+002
+1.24040066778E+007, +1.11904798988E+001, +2.77022229260E+002
+1.25692821369E+007, +1.11179227535E+001, +2.80854958638E+002
+1.27345575960E+007, +1.12758487253E+001, +2.84796112928E+002
+1.28998330551E+007, +1.11557526627E+001, +2.88892403199E+002
+1.30651085142E+007, +1.08537033125E+001, +2.92600936525E+002
+1.32303839733E+007, +1.12981210327E+001, +2.96691674919E+002
+1.33956594324E+007, +1.11803658076E+001, +3.00566736686E+002
+1.35609348915E+007, +1.13463553330E+001, +3.04127666985E+002
+1.37262103506E+007, +1.12891359699E+001, +3.07404892050E+002
+1.38914858097E+007, +1.14199115889E+001, +3.11839185316E+002
+1.40567612688E+007, +1.14629107713E+001, +3.15548487781E+002
+1.42220367279E+007, +1.07485243774E+001, +3.19648571806E+002
+1.43873121870E+007, +1.12445664855E+001, +3.25009584243E+002
+1.45525876461E+007, +1.12799874834E+001, +3.27814828273E+002
+1.47178631052E+007, +1.13117918165E+001, +3.32058717564E+002
+1.48831385643E+007, +1.14479052708E+001, +3.35742473539E+002
+1.50484140234E+007, +1.19019036851E+001, +3.39505029622E+002
+1.52136894825E+007, +1.14633421558E+001, +3.43971561844E+002
+1.53789649416E+007, +1.14467461749E+001, +3.47404559917E+002
+1.55442404007E+007, +1.15404487814E+001, +3.51940012462E+002
+1.57095158598E+007, +1.13416052865E+001, +3.54836386595E+002
+1.58747913189E+007, +1.24427677388E+001, +3.59165691341E+002
+1.60400667780E+007, +1.20508345843E+001, +3.62937557587E+002
+1.62053422371E+007, +1.21582165245E+001, +3.67267431108E+002
+1.63706176962E+007, +1.20945608715E+001, +3.71091506041E+002
+1.65358931553E+007, +1.25974547464E+001, +3.74584580493E+002
+1.67011686144E+007, +1.32522663066E+001, +3.78751959363E+002
+1.68664440735E+007, +1.23998653570E+001, +3.82379577704E+002
+1.70317195326E+007, +1.12337540042E+001, +3.87303767826E+002
+1.71969949917E+007, +1.22442465625E+001, +3.91448183284E+002
+1.73622704508E+007, +1.19992935960E+001, +3.95122349558E+002
+1.75275459098E+007, +1.16725901899E+001, +3.99298941130E+002
+1.76928213689E+007, +1.17626839185E+001, +4.03682091265E+002
+1.78580968280E+007, +1.21043573400E+001, +4.08185884188E+002
+1.80233722871E+007, +1.23029836254E+001, +4.11298497974E+002
+1.81886477462E+007, +1.29075726009E+001, +4.15317627318E+002
+1.83539232053E+007, +1.34761649356E+001, +4.19036786003E+002
+1.85191986644E+007, +1.29717791097E+001, +4.23983407104E+002
+1.86844741235E+007, +1.27524102763E+001, +4.26238921069E+002
+1.88497495826E+007, +1.24699152679E+001, +4.31689371762E+002
+1.90150250417E+007, +1.24719205193E+001, +4.37152133197E+002
+1.91803005008E+007, +1.23443366634E+001, +4.39729767496E+002
+1.93455759599E+007, +1.32873662396E+001, +4.44124489306E+002
+1.95108514190E+007, +1.40088785051E+001, +4.48569040403E+002
+1.96761268781E+007, +1.41509070626E+001, +4.52643970532E+002
+1.98414023372E+007, +1.36759876885E+001, +4.57027663100E+002
+2.00066777963E+007, +1.32711087977E+001, +4.61030030903E+002
+2.01719532554E+007, +1.34968464703E+001, +4.65727329658E+002
+2.03372287145E+007, +1.45023764416E+001, +4.70555209709E+002
+2.05025041736E+007, +1.34177915149E+001, +4.73046185591E+002
+2.06677796327E+007, +1.47521910997E+001, +4.78412749832E+002
+2.08330550918E+007, +1.33470749979E+001, +4.82822023305E+002
+2.09983305509E+007, +1.42590895678E+001, +4.86511483786E+002
+2.11636060100E+007, +1.45003579827E+001, +4.91851554246E+002
+2.13288814691E+007, +1.53950091741E+001, +4.96125825398E+002
+2.14941569282E+007, +1.51970713304E+001, +4.99978381974E+002
+2.16594323873E+007, +1.49535127265E+001, +5.04109494432E+002
+2.18247078464E+007, +1.48094079868E+001, +5.08477170196E+002
+2.19899833055E+007, +1.39120769068E+001, +5.13641023592E+002
+2.21552587646E+007, +1.43653034373E+001, +5.16819649758E+002
+2.23205342237E+007, +1.52206137527E+001, +5.22434517409E+002
+2.24858096828E+007, +1.53552219410E+001, +5.25903840629E+002
+2.26510851419E+007, +1.53338716424E+001, +5.31145770555E+002
+2.28163606010E+007, +1.52733204429E+001, +5.35801612124E+002
+2.29816360601E+007, +1.43510808711E+001, +5.38558556737E+002
+2.31469115192E+007, +1.68386794556E+001, +5.42841923701E+002
+2.33121869783E+007, +1.72247169604E+001, +5.48995095053E+002
+2.34774624374E+007, +1.79456559300E+001, +5.53691323118E+002
+2.36427378965E+007, +1.65451543347E+001, +5.60037066762E+002
+2.38080133556E+007, +1.77569800062E+001, +5.62371495533E+002
+2.39732888147E+007, +1.83777083675E+001, +5.68390352036E+002
+2.41385642738E+007, +1.68977086764E+001, +5.71280465110E+002
+2.43038397329E+007, +1.82193750677E+001, +5.77361472021E+002
+2.44691151920E+007, +1.74410199968E+001, +5.80774893986E+002
+2.46343906511E+007, +1.82992491798E+001, +5.85431654888E+002
+2.47996661102E+007, +1.72721683663E+001, +5.89492058692E+002
+2.49649415693E+007, +1.74287644019E+001, +5.96347688575E+002
+2.51302170284E+007, +1.80529117599E+001, +5.99978226181E+002
+2.52954924875E+007, +2.01583806236E+001, +6.03994667164E+002
+2.54607679466E+007, +1.98950922412E+001, +6.08772769879E+002
+2.56260434057E+007, +2.09490914762E+001, +6.11714115382E+002
+2.57913188648E+007, +2.06703880681E+001, +6.17745895821E+002
+2.59565943239E+007, +2.08018704948E+001, +6.21899424101E+002
+2.61218697830E+007, +2.00558721737E+001, +6.28627437430E+002
+2.62871452421E+007, +2.02582539971E+001, +6.31149531894E+002
+2.64524207012E+007, +2.10649438698E+001, +6.37121687627E+002
+2.66176961603E+007, +2.20041828662E+001, +6.40752042690E+002
+2.67829716194E+007, +1.93172540662E+001, +6.44870879020E+002
+2.69482470785E+007, +2.17012130395E+001, +6.51783166328E+002
+2.71135225376E+007, +2.11285422391E+001, +6.56410252138E+002
+2.72787979967E+007, +2.14679562237E+001, +6.62023580506E+002
+2.74440734558E+007, +1.95019427972E+001, +6.65374536735E+002
+2.76093489149E+007, +2.17834716041E+001, +6.69151248901E+002
+2.77746243740E+007, +2.23953515113E+001, +6.74075879969E+002
+2.79398998331E+007, +2.03829136354E+001, +6.81067502350E+002
+2.81051752922E+007, +2.42674178479E+001, +6.83421047966E+002
+2.82704507513E+007, +2.22842233097E+001, +6.91373194762E+002
+2.84357262104E+007, +2.17415166003E+001, +6.94206131172E+002
+2.86010016694E+007, +2.04246785471E+001, +7.04086343425E+002
+2.87662771285E+007, +2.16060028144E+001, +7.07196825406E+002
+2.89315525876E+007, +2.08715229752E+001, +7.12680992898E+002
+2.90968280467E+007, +2.28382416890E+001, +7.20152803762E+002
+2.92621035058E+007, +2.29070466136E+001, +7.23118341964E+002
+2.94273789649E+007, +2.18142084554E+001, +7.26161278618E+002
+2.95926544240E+007, +2.08237961114E+001, +7.34187418204E+002
+2.97579298831E+007, +2.20784379993E+001, +7.40017698035E+002
+2.99232053422E+007, +2.24940705785E+001, +7.44519671603E+002
+3.00884808013E+007, +2.50403310981E+001, +7.49876531055E+002
+3.02537562604E+007, +2.13319766519E+001, +7.52706198138E+002
+3.04190317195E+007, +2.63035575733E+001, +7.58354868243E+002
+3.05843071786E+007, +2.39644048433E+001, +7.62803470435E+002
+3.07495826377E+007, +2.13882796911E+001, +7.69402355431E+002
+3.09148580968E+007, +2.45332063778E+001, +7.77148279765E+002
+3.10801335559E+007, +2.36803689477E+001, +7.83336496464E+002
+3.12454090150E+007, +2.22654206335E+001, +7.85762577437E+002
+3.14106844741E+007, +2.35042798662E+001, +7.89703053890E+002
+3.15759599332E+007, +2.36049853956E+001, +7.99373289504E+002
+3.17412353923E+007, +2.45050901958E+001, +8.01812163738E+002
+3.19065108514E+007, +2.56949881197E+001, +8.08986447512E+002
+3.20717863105E+007, +1.99711197920E+001, +8.17352708420E+002
+3.22370617696E+007, +2.45799994690E+001, +8.20434441549E+002
+3.24023372287E+007, +2.26917716329E+001, +8.28921381173E+002
+3.25676126878E+007, +2.70918984148E+001, +8.33561937511E+002
+3.27328881469E+007, +2.49084279936E+001, +8.39263302476E+002
+3.28981636060E+007, +2.25002103135E+001, +8.43190876661E+002
+3.30634390651E+007, +2.64929371664E+001, +8.53696141161E+002
+3.32287145242E+007, +2.26599970015E+001, +8.64654039867E+002
+3.33939899833E+007, +2.54585561175E+001, +8.67964335161E+002
+3.35592654424E+007, +2.20884763054E+001, +8.71431916224E+002
+3.37245409015E+007, +2.76869564452E+001, +8.76212872538E+002
+3.38898163606E+007, +2.32156438540E+001, +8.86205510110E+002
+3.40550918197E+007, +2.60501749192E+001, +8.91502436657E+002
+3.42203672788E+007, +2.81498956910E+001, +9.00682905385E+002
+3.43856427379E+007, +2.52658781395E+001, +9.04203034748E+002
+3.45509181970E+007, +2.40763169872E+001, +9.11201661739E+002
+3.47161936561E+007, +2.53103757483E+001, +9.19004677281E+002
+3.48814691152E+007, +2.76002534559E+001, +9.21063590643E+002
+3.50467445743E+007, +2.91837628482E+001, +9.30946396097E+002
+3.52120200334E+007, +3.27354858346E+001, +9.38778147549E+002
+3.53772954925E+007, +2.80001308589E+001, +9.46624632150E+002
+3.55425709516E+007, +2.77444201811E+001, +9.55548129240E+002
+3.57078464107E+007, +2.96171436323E+001, +9.60852710628E+002
+3.58731218698E+007, +2.97518198223E+001, +9.68894424466E+002
+3.60383973289E+007, +2.68913216045E+001, +9.73390195992E+002
+3.62036727880E+007, +3.02527839931E+001, +9.82395758589E+002
+3.63689482471E+007, +3.02864041349E+001, +9.89627982937E+002
+3.65342237062E+007, +3.11380257194E+001, +9.93978284705E+002
+3.66994991653E+007, +3.05129035945E+001, +1.00524749376E+003
+3.68647746244E+007, +3.74563947657E+001, +1.00828510210E+003
+3.70300500835E+007, +3.23362032353E+001, +1.02474159934E+003
+3.71953255426E+007, +3.64471160715E+001, +1.03018787198E+003
+3.73606010017E+007, +3.92022917626E+001, +1.03941436200E+003
+3.75258764608E+007, +3.14925133137E+001, +1.04624544329E+003
+3.76911519199E+007, +3.58321693587E+001, +1.05116835178E+003
+3.78564273790E+007, +3.17868236787E+001, +1.06278349668E+003
+3.80217028381E+007, +3.43629856290E+001, +1.06292057116E+003
+3.81869782972E+007, +4.05093644389E+001, +1.07500470705E+003
+3.83522537563E+007, +3.39556167129E+001, +1.08190848478E+003
+3.85175292154E+007, +3.65509351369E+001, +1.08583768747E+003
+3.86828046745E+007, +3.22668129900E+001, +1.09956398861E+003
+3.88480801336E+007, +3.98325348242E+001, +1.11245596694E+003
+3.90133555927E+007, +4.04675172070E+001, +1.12118985049E+003
+3.91786310518E+007, +3.66218312862E+001, +1.13339609296E+003
+3.93439065109E+007, +3.74324821072E+001, +1.13983994247E+003
+3.95091819699E+007, +3.90939398058E+001, +1.14705513215E+003
+3.96744574290E+007, +4.14201985663E+001, +1.15088422176E+003
+3.98397328881E+007, +3.63426584542E+001, +1.16597586572E+003
+4.00050083472E+007, +3.82706531855E+001, +1.17669457620E+003
+4.01702838063E+007, +3.83833465547E+001, +1.18362290680E+003
+4.03355592654E+007, +3.66078352096E+001, +1.18667816582E+003
+4.05008347245E+007, +4.22761749146E+001, +1.20544609983E+003
+4.06661101836E+007, +3.84847351053E+001, +1.20836938029E+003
+4.08313856427E+007, +3.62224843069E+001, +1.23233877979E+003
+4.09966611018E+007, +3.94909801511E+001, +1.23655207795E+003
+4.11619365609E+007, +4.50887439611E+001, +1.24392932583E+003
+4.13272120200E+007, +4.81438128933E+001, +1.25606647369E+003
+4.14924874791E+007, +4.77980336338E+001, +1.26349806794E+003
+4.16577629382E+007, +4.40596263149E+001, +1.27896759518E+003
+4.18230383973E+007, +5.33753659437E+001, +1.29676454894E+003
+4.19883138564E+007, +4.61815313961E+001, +1.30355123284E+003
+4.21535893155E+007, +5.15424165803E+001, +1.30812010232E+003
+4.23188647746E+007, +5.10860391143E+001, +1.32329382744E+003
+4.24841402337E+007, +4.90157135590E+001, +1.34114137766E+003
+4.26494156928E+007, +4.95083426736E+001, +1.34454428623E+003
+4.28146911519E+007, +6.44707521048E+001, +1.35807569302E+003
+4.29799666110E+007, +5.11846601223E+001, +1.37454077478E+003
+4.31452420701E+007, +5.43022195248E+001, +1.39243928295E+003
+4.33105175292E+007, +6.17164046100E+001, +1.40177478210E+003
+4.34757929883E+007, +5.31480906160E+001, +1.41682508858E+003
+4.36410684474E+007, +5.71434484910E+001, +1.42892505671E+003
+4.38063439065E+007, +5.12940785557E+001, +1.43454764829E+003
+4.39716193656E+007, +6.09892488082E+001, +1.45426893787E+003
+4.41368948247E+007, +6.33942670672E+001, +1.46883701836E+003
+4.43021702838E+007, +6.16391512652E+001, +1.48657440229E+003
+4.44674457429E+007, +6.07588765806E+001, +1.50499938161E+003
+4.46327212020E+007, +6.53133268094E+001, +1.50337229664E+003
+4.47979966611E+007, +5.64515851735E+001, +1.52378135261E+003
+4.49632721202E+007, +6.93193246080E+001, +1.55062901864E+003
+4.51285475793E+007, +6.38177664518E+001, +1.55689325413E+003
+4.52938230384E+007, +7.25875296250E+001, +1.57458110189E+003
+4.54590984975E+007, +5.77376431799E+001, +1.58704750966E+003
+4.56243739566E+007, +7.63062845307E+001, +1.61179345575E+003
+4.57896494157E+007, +7.62270570027E+001, +1.62365676714E+003
+4.59549248748E+007, +7.54609688063E+001, +1.65260588311E+003
+4.61202003339E+007, +6.76736802350E+001, +1.66483197971E+003
+4.62854757930E+007, +8.41892094369E+001, +1.68829947121E+003
+4.64507512521E+007, +9.18881467910E+001, +1.70902134029E+003
+4.66160267112E+007, +8.38335181580E+001, +1.72995415449E+003
+4.67813021703E+007, +9.49505177424E+001, +1.75487184586E+003
+4.69465776294E+007, +9.02505673937E+001, +1.77365179999E+003
+4.71118530885E+007, +1.00859783966E+002, +1.80232846781E+003
+4.72771285476E+007, +1.04820044306E+002, +1.82295221611E+003
+4.74424040067E+007, +1.19514360655E+002, +1.85079039473E+003
+4.76076794658E+007, +1.13690532275E+002, +1.84871240964E+003
+4.77729549249E+007, +1.17968634944E+002, +1.89291378804E+003
+4.79382303840E+007, +1.25773002608E+002, +1.90302226662E+003
+4.81035058431E+007, +1.33616237195E+002, +1.94757644305E+003
+4.82687813022E+007, +1.32537459810E+002, +1.96126890870E+003
+4.84340567613E+007, +1.55698386230E+002, +1.98759497214E+003
+4.85993322204E+007, +1.54852995016E+002, +2.02583546361E+003
+4.87646076795E+007, +1.69875144697E+002, +2.05027741793E+003
+4.89298831386E+007, +1.68953697236E+002, +2.07034797940E+003
+4.90951585977E+007, +1.79720710922E+002, +2.09532806967E+003
+4.92604340568E+007, +2.00570090971E+002, +2.14801314093E+003
+4.94257095159E+007, +2.23764901820E+002, +2.17715292545E+003
+4.95909849750E+007, +2.19819484865E+002, +2.19747294593E+003
+4.97562604341E+007, +2.38601658440E+002, +2.20043433538E+003
+4.99215358932E+007, +2.27779795521E+002, +2.26351428221E+003
+5.00868113523E+007, +2.49506907105E+002, +2.31625950737E+003
+5.02520868114E+007, +2.98972505344E+002, +2.32218211574E+003
+5.04173622705E+007, +3.06216357107E+002, +2.35801517860E+003
+5.05826377295E+007, +3.04575598706E+002, +2.37609493946E+003
+5.07479131886E+007, +3.37121308591E+002, +2.40500551611E+003
+5.09131886477E+007, +3.04974534811E+002, +2.44203350513E+003
+5.10784641068E+007, +3.72779154683E+002, +2.46660320046E+003
+5.12437395659E+007, +3.63044461881E+002, +2.52977140510E+003
+5.14090150250E+007, +4.07291045775E+002, +2.51154955371E+003
+5.15742904841E+007, +4.20360515311E+002, +2.59894728767E+003
+5.17395659432E+007, +4.46806019850E+002, +2.60189285431E+003
+5.19048414023E+007, +4.69430630546E+002, +2.67790091853E+003
+5.20701168614E+007, +4.71797219290E+002, +2.70222165873E+003
+5.22353923205E+007, +4.98026629020E+002, +2.75735143572E+003
+5.24006677796E+007, +4.86070046495E+002, +2.76324954211E+003
+5.25659432387E+007, +5.55422351840E+002, +2.78170373896E+003
+5.27312186978E+007, +5.60483341161E+002, +2.84676506823E+003
+5.28964941569E+007, +5.57820567339E+002, +2.95093951489E+003
+5.30617696160E+007, +5.78677469296E+002, +2.96851020398E+003
+5.32270450751E+007, +5.93004610554E+002, +3.00186870930E+003
+5.33923205342E+007, +5.60325542661E+002, +3.10843657552E+003
+5.35575959933E+007, +5.73774049935E+002, +3.13554950919E+003
+5.37228714524E+007, +5.82591712339E+002, +3.22175220460E+003
+5.38881469115E+007, +5.84536611003E+002, +3.27500651812E+003
