"# Channel 1"
"# Trace 1"
Frequency, Formatted Data, Formatted Data
+1.00000000000E+005, +4.63882390241E+001, +2.16418455688E+000
+2.25031289111E+005, +4.64132276515E+001, +5.16121355040E+000
+3.50062578223E+005, +4.63986412085E+001, +8.13651639182E+000
+4.75093867334E+005, +4.64552450551E+001, +1.10196302992E+001
+6.00125156446E+005, +4.64857772871E+001, +1.38729337039E+001
+7.25156445557E+005, +4.63825261978E+001, +1.67178409954E+001
+8.50187734668E+005, +4.64607712815E+001, +1.96162445478E+001
+9.75219023780E+005, +4.64747301986E+001, +2.24557529284E+001
+1.10025031289E+006, +4.64693860236E+001, +2.53390693355E+001
+1.22528160200E+006, +4.65599584823E+001, +2.81187200895E+001
+1.35031289111E+006, +4.65531138749E+001, +3.10542968566E+001
+1.47534418023E+006, +4.65638819157E+001, +3.39333444476E+001
+1.60037546934E+006, +4.65457450194E+001, +3.68343725614E+001
+1.72540675845E+006, +4.66441290576E+001, +3.96501462234E+001
+1.85043804756E+006, +4.66100444128E+001, +4.24762219090E+001
+1.97546933667E+006, +4.66341449282E+001, +4.54505606582E+001
+2.10050062578E+006, +4.66592001125E+001, +4.82629008855E+001
+2.22553191489E+006, +4.67121974410E+001, +5.11428597086E+001
+2.35056320401E+006, +4.65472362278E+001, +5.40418121333E+001
+2.47559449312E+006, +4.67108132933E+001, +5.68144918570E+001
+2.60062578223E+006, +4.67022277504E+001, +5.97244242374E+001
+2.72565707134E+006, +4.67606719580E+001, +6.25323969261E+001
+2.85068836045E+006, +4.67285416916E+001, +6.54558915232E+001
+2.97571964956E+006, +4.67233167817E+001, +6.82524436008E+001
+3.10075093867E+006, +4.67936119380E+001, +7.11659089309E+001
+3.22578222778E+006, +4.67711926156E+001, +7.41501153716E+001
+3.35081351690E+006, +4.68195957121E+001, +7.69676972059E+001
+3.47584480601E+006, +4.68184289377E+001, +7.98285631713E+001
+3.60087609512E+006, +4.67721924049E+001, +8.27074947945E+001
+3.72590738423E+006, +4.67659945473E+001, +8.57749993509E+001
+3.85093867334E+006, +4.68101776450E+001, +8.88279703337E+001
+3.97596996245E+006, +4.69968961853E+001, +9.19301019344E+001
+4.10100125156E+006, +4.84720393665E+001, +9.20878958102E+001
+4.22603254068E+006, +4.68187783300E+001, +9.68181917675E+001
+4.35106382979E+006, +4.68171006347E+001, +9.97660748401E+001
+4.47609511890E+006, +4.68929273267E+001, +1.02873748875E+002
+4.60112640801E+006, +4.70695219462E+001, +1.05844633535E+002
+4.72615769712E+006, +4.71011191219E+001, +1.08718724415E+002
+4.85118898623E+006, +4.70670312507E+001, +1.11776308487E+002
+4.97622027534E+006, +4.72277003787E+001, +1.14588280969E+002
+5.10125156446E+006, +4.72647007218E+001, +1.17439714765E+002
+5.22628285357E+006, +4.72164499531E+001, +1.20358009885E+002
+5.35131414268E+006, +4.73786310990E+001, +1.23347099538E+002
+5.47634543179E+006, +4.71423302698E+001, +1.26323520396E+002
+5.60137672090E+006, +4.73986171669E+001, +1.29157523936E+002
+5.72640801001E+006, +4.73731604729E+001, +1.32135243265E+002
+5.85143929912E+006, +4.73580507006E+001, +1.35331163928E+002
+5.97647058824E+006, +4.71039358476E+001, +1.38050835883E+002
+6.10150187735E+006, +4.74841161505E+001, +1.40928064354E+002
+6.22653316646E+006, +4.74721363603E+001, +1.43707079997E+002
+6.35156445557E+006, +4.73794388881E+001, +1.47029435823E+002
+6.47659574468E+006, +4.75647187571E+001, +1.49829015878E+002
+6.60162703379E+006, +4.78515764632E+001, +1.52826423927E+002
+6.72665832290E+006, +4.78175202199E+001, +1.55969737101E+002
+6.85168961202E+006, +4.77801918094E+001, +1.58932459374E+002
+6.97672090113E+006, +4.77443134963E+001, +1.61750535410E+002
+7.10175219024E+006, +4.79852943342E+001, +1.64655855705E+002
+7.22678347935E+006, +4.80551871767E+001, +1.67821991953E+002
+7.35181476846E+006, +4.79589415619E+001, +1.70865264355E+002
+7.47684605757E+006, +4.79684247429E+001, +1.73568198883E+002
+7.60187734668E+006, +4.82536637383E+001, +1.76620712289E+002
+7.72690863579E+006, +4.83439902532E+001, +1.79516985794E+002
+7.85193992491E+006, +4.83646164964E+001, +1.82680969856E+002
+7.97697121402E+006, +4.83858106696E+001, +1.85723973522E+002
+8.10200250313E+006, +4.84810380951E+001, +1.88397798843E+002
+8.22703379224E+006, +4.86038955841E+001, +1.91555580921E+002
+8.35206508135E+006, +4.87855881935E+001, +1.94632969898E+002
+8.47709637046E+006, +4.87081800880E+001, +1.97651596572E+002
+8.60212765957E+006, +4.87298466340E+001, +2.00355212104E+002
+8.72715894869E+006, +4.89757806868E+001, +2.03090692915E+002
+8.85219023780E+006, +4.90848549932E+001, +2.06226019578E+002
+8.97722152691E+006, +4.93349403664E+001, +2.09105044824E+002
+9.10225281602E+006, +4.91172031661E+001, +2.12357622394E+002
+9.22728410513E+006, +4.92966087314E+001, +2.15509442157E+002
+9.35231539424E+006, +4.91477441574E+001, +2.19027600665E+002
+9.47734668335E+006, +4.91138949730E+001, +2.21403790500E+002
+9.60237797247E+006, +4.91750494989E+001, +2.23687276441E+002
+9.72740926158E+006, +4.93851891756E+001, +2.26490173211E+002
+9.85244055069E+006, +4.95412183793E+001, +2.29090500274E+002
+9.97747183980E+006, +4.94671715616E+001, +2.31825669230E+002
+1.01025031289E+007, +4.96384122856E+001, +2.34537668172E+002
+1.02275344180E+007, +4.95023992199E+001, +2.37595391836E+002
+1.03525657071E+007, +4.95663344102E+001, +2.40374262871E+002
+1.04775969962E+007, +4.96277894896E+001, +2.43597127692E+002
+1.06026282854E+007, +4.96152465694E+001, +2.46756497851E+002
+1.07276595745E+007, +4.94076699645E+001, +2.49793551319E+002
+1.08526908636E+007, +4.97160780331E+001, +2.53281286100E+002
+1.09777221527E+007, +5.00430535610E+001, +2.56844212045E+002
+1.11027534418E+007, +4.97184961691E+001, +2.60516464620E+002
+1.12277847309E+007, +4.96805724627E+001, +2.64064530656E+002
+1.13528160200E+007, +5.00046821742E+001, +2.67793896915E+002
+1.14778473091E+007, +4.99835325345E+001, +2.71659960186E+002
+1.16028785982E+007, +5.00775840032E+001, +2.74769727752E+002
+1.17279098874E+007, +5.00634251045E+001, +2.77615105957E+002
+1.18529411765E+007, +5.03839367448E+001, +2.81068187343E+002
+1.19779724656E+007, +5.00725581846E+001, +2.84139285824E+002
+1.21030037547E+007, +5.01314780707E+001, +2.87684717437E+002
+1.22280350438E+007, +5.04439961364E+001, +2.90696731316E+002
+1.23530663329E+007, +5.09400597797E+001, +2.93750587755E+002
+1.24780976220E+007, +5.02888096528E+001, +2.97490687520E+002
+1.26031289111E+007, +5.06247146438E+001, +3.00784717816E+002
+1.27281602003E+007, +5.05636016605E+001, +3.03724356753E+002
+1.28531914894E+007, +5.07016107717E+001, +3.06638036057E+002
+1.29782227785E+007, +5.06527215136E+001, +3.09971864103E+002
+1.31032540676E+007, +5.06168961205E+001, +3.13028907151E+002
+1.32282853567E+007, +5.08396862858E+001, +3.16472857284E+002
+1.33533166458E+007, +5.06907926130E+001, +3.19935900254E+002
+1.34783479349E+007, +5.14871710322E+001, +3.23619054692E+002
+1.36033792240E+007, +5.08841967547E+001, +3.26689507216E+002
+1.37284105131E+007, +5.13239051083E+001, +3.29715168814E+002
+1.38534418023E+007, +5.17756655277E+001, +3.33022552167E+002
+1.39784730914E+007, +5.16570753749E+001, +3.36758690672E+002
+1.41035043805E+007, +5.14918993115E+001, +3.40232750193E+002
+1.42285356696E+007, +5.17733599344E+001, +3.43627238450E+002
+1.43535669587E+007, +5.18109681376E+001, +3.47006977122E+002
+1.44785982478E+007, +5.17817550356E+001, +3.50520576443E+002
+1.46036295369E+007, +5.11364113673E+001, +3.53415410539E+002
+1.47286608260E+007, +5.15873948359E+001, +3.56474144031E+002
+1.48536921151E+007, +5.22637409330E+001, +3.60545281191E+002
+1.49787234043E+007, +5.19255896786E+001, +3.64245939575E+002
+1.51037546934E+007, +5.20987162368E+001, +3.66859360996E+002
+1.52287859825E+007, +5.22401398390E+001, +3.71561774271E+002
+1.53538172716E+007, +5.20861340068E+001, +3.74057974915E+002
+1.54788485607E+007, +5.29404709690E+001, +3.78486388263E+002
+1.56038798498E+007, +5.31558937746E+001, +3.81592098103E+002
+1.57289111389E+007, +5.26495886260E+001, +3.85410259767E+002
+1.58539424280E+007, +5.30373780525E+001, +3.88870766810E+002
+1.59789737171E+007, +5.33681221908E+001, +3.92478774610E+002
+1.61040050063E+007, +5.30429697922E+001, +3.96268246339E+002
+1.62290362954E+007, +5.35060298358E+001, +4.00100129405E+002
+1.63540675845E+007, +5.34609919689E+001, +4.03530230948E+002
+1.64790988736E+007, +5.39895560949E+001, +4.06852648690E+002
+1.66041301627E+007, +5.39824182109E+001, +4.10405993192E+002
+1.67291614518E+007, +5.42405029833E+001, +4.14118273354E+002
+1.68541927409E+007, +5.38580641149E+001, +4.17498313010E+002
+1.69792240300E+007, +5.46820551183E+001, +4.20701704485E+002
+1.71042553191E+007, +5.43037332633E+001, +4.25697871433E+002
+1.72292866083E+007, +5.41842100435E+001, +4.28558732470E+002
+1.73543178974E+007, +5.39610464491E+001, +4.32458655840E+002
+1.74793491865E+007, +5.41385723084E+001, +4.35942524573E+002
+1.76043804756E+007, +5.45670131496E+001, +4.39762671543E+002
+1.77294117647E+007, +5.43924140195E+001, +4.43968561988E+002
+1.78544430538E+007, +5.51302093360E+001, +4.48373957839E+002
+1.79794743429E+007, +5.45649234802E+001, +4.51643165230E+002
+1.81045056320E+007, +5.45744449443E+001, +4.55844005161E+002
+1.82295369212E+007, +5.56764090309E+001, +4.58822389766E+002
+1.83545682103E+007, +5.60049311233E+001, +4.62925225498E+002
+1.84795994994E+007, +5.62395584344E+001, +4.66622424413E+002
+1.86046307885E+007, +5.65066741413E+001, +4.70868682376E+002
+1.87296620776E+007, +5.65110870850E+001, +4.74583042104E+002
+1.88546933667E+007, +5.65082289894E+001, +4.78418910386E+002
+1.89797246558E+007, +5.76242069294E+001, +4.82885947379E+002
+1.91047559449E+007, +5.77314683396E+001, +4.86947474191E+002
+1.92297872340E+007, +5.76623185718E+001, +4.90571487528E+002
+1.93548185232E+007, +5.78973571951E+001, +4.94955178377E+002
+1.94798498123E+007, +5.81726102725E+001, +4.98260093634E+002
+1.96048811014E+007, +5.81630039284E+001, +5.02761485900E+002
+1.97299123905E+007, +5.79477130989E+001, +5.07321525344E+002
+1.98549436796E+007, +5.88173417045E+001, +5.10201944818E+002
+1.99799749687E+007, +5.91068958585E+001, +5.14632903402E+002
+2.01050062578E+007, +5.79442556723E+001, +5.18916600288E+002
+2.02300375469E+007, +5.89416907474E+001, +5.23196808092E+002
+2.03550688360E+007, +5.96083236843E+001, +5.27629451727E+002
+2.04801001252E+007, +6.06962484922E+001, +5.31675478115E+002
+2.06051314143E+007, +6.08394504307E+001, +5.36513600838E+002
+2.07301627034E+007, +5.93271696417E+001, +5.40297820046E+002
+2.08551939925E+007, +5.98762710900E+001, +5.43264881418E+002
+2.09802252816E+007, +6.03151984608E+001, +5.49031687054E+002
+2.11052565707E+007, +6.03506000454E+001, +5.53154479379E+002
+2.12302878598E+007, +6.07970274054E+001, +5.57160105801E+002
+2.13553191489E+007, +6.19685165464E+001, +5.61804583578E+002
+2.14803504380E+007, +6.19537400227E+001, +5.65314838024E+002
+2.16053817272E+007, +6.34758794418E+001, +5.71090259840E+002
+2.17304130163E+007, +6.27449688470E+001, +5.74010035485E+002
+2.18554443054E+007, +6.25173376223E+001, +5.80257332098E+002
+2.19804755945E+007, +6.37741884684E+001, +5.85337826125E+002
+2.21055068836E+007, +6.47221948486E+001, +5.88830950598E+002
+2.22305381727E+007, +6.45573092569E+001, +5.94718371103E+002
+2.23555694618E+007, +6.56404128053E+001, +5.97738422843E+002
+2.24806007509E+007, +6.63175746060E+001, +6.02823114759E+002
+2.26056320401E+007, +6.50827972839E+001, +6.08471805593E+002
+2.27306633292E+007, +6.62614261406E+001, +6.13144198353E+002
+2.28556946183E+007, +6.70338430814E+001, +6.16345343062E+002
+2.29807259074E+007, +6.75055599319E+001, +6.21893978541E+002
+2.31057571965E+007, +6.77575822753E+001, +6.25744638896E+002
+2.32307884856E+007, +6.86731012961E+001, +6.30535490378E+002
+2.33558197747E+007, +6.92720986307E+001, +6.33500804128E+002
+2.34808510638E+007, +6.86996664574E+001, +6.40532562200E+002
+2.36058823529E+007, +6.97185461844E+001, +6.45727127814E+002
+2.37309136421E+007, +7.07667569436E+001, +6.48692797754E+002
+2.38559449312E+007, +7.07250244004E+001, +6.53108396460E+002
+2.39809762203E+007, +7.10763629825E+001, +6.58160573281E+002
+2.41060075094E+007, +7.15785032171E+001, +6.61723625605E+002
+2.42310387985E+007, +7.12106457909E+001, +6.67173762448E+002
+2.43560700876E+007, +7.20613662500E+001, +6.71542534836E+002
+2.44811013767E+007, +7.15994870935E+001, +6.76021694064E+002
+2.46061326658E+007, +7.18892164455E+001, +6.80305617944E+002
+2.47311639549E+007, +7.27272978882E+001, +6.84553342667E+002
+2.48561952441E+007, +7.34657100057E+001, +6.90965146623E+002
+2.49812265332E+007, +7.37908094324E+001, +6.93737129983E+002
+2.51062578223E+007, +7.23237065325E+001, +7.01803001908E+002
+2.52312891114E+007, +7.22028064626E+001, +7.05385141909E+002
+2.53563204005E+007, +7.33247310079E+001, +7.10117737627E+002
+2.54813516896E+007, +7.17932358948E+001, +7.15981199722E+002
+2.56063829787E+007, +7.40733792518E+001, +7.22403986439E+002
+2.57314142678E+007, +7.36724073639E+001, +7.27288372217E+002
+2.58564455569E+007, +7.31383678426E+001, +7.32325887034E+002
+2.59814768461E+007, +7.68449756127E+001, +7.38088625615E+002
+2.61065081352E+007, +7.53687213364E+001, +7.43884901826E+002
+2.62315394243E+007, +7.22413692055E+001, +7.50170907477E+002
+2.63565707134E+007, +7.41481017856E+001, +7.54240772481E+002
+2.64816020025E+007, +7.72249231534E+001, +7.60699895088E+002
+2.66066332916E+007, +7.64095655044E+001, +7.65941174527E+002
+2.67316645807E+007, +7.45745287644E+001, +7.74642320868E+002
+2.68566958698E+007, +7.67855586242E+001, +7.75094407608E+002
+2.69817271589E+007, +7.65593413849E+001, +7.84652227463E+002
+2.71067584481E+007, +7.80649881207E+001, +7.91421023384E+002
+2.72317897372E+007, +7.84473258287E+001, +7.95425431945E+002
+2.73568210263E+007, +7.89341601662E+001, +8.02083951770E+002
+2.74818523154E+007, +7.79143570066E+001, +8.08504381054E+002
+2.76068836045E+007, +8.02002952662E+001, +8.14843872795E+002
+2.77319148936E+007, +8.13438357835E+001, +8.17145732290E+002
+2.78569461827E+007, +8.25294297068E+001, +8.27721185938E+002
+2.79819774718E+007, +8.32864652060E+001, +8.32056925329E+002
+2.81070087610E+007, +8.42627935839E+001, +8.34936222822E+002
+2.82320400501E+007, +8.24535206259E+001, +8.43850013940E+002
+2.83570713392E+007, +8.71264045769E+001, +8.49036216108E+002
+2.84821026283E+007, +8.39115804732E+001, +8.56614922081E+002
+2.86071339174E+007, +8.59673048210E+001, +8.61797313253E+002
+2.87321652065E+007, +8.75851718050E+001, +8.69933731978E+002
+2.88571964956E+007, +8.43650290372E+001, +8.74592308843E+002
+2.89822277847E+007, +8.43523913355E+001, +8.83841443774E+002
+2.91072590738E+007, +8.71966793756E+001, +8.87924154807E+002
+2.92322903630E+007, +9.05282915326E+001, +8.97147568169E+002
+2.93573216521E+007, +9.04579032790E+001, +9.01469482878E+002
+2.94823529412E+007, +8.72399090366E+001, +9.09439334857E+002
+2.96073842303E+007, +8.87762401862E+001, +9.17600620308E+002
+2.97324155194E+007, +9.31257417120E+001, +9.22517772673E+002
+2.98574468085E+007, +9.37768803655E+001, +9.31824241716E+002
+2.99824780976E+007, +9.03605117532E+001, +9.37637474852E+002
+3.01075093867E+007, +9.25247827574E+001, +9.47660015422E+002
+3.02325406758E+007, +9.50425355224E+001, +9.53328060721E+002
+3.03575719650E+007, +9.46046181162E+001, +9.62893260232E+002
+3.04826032541E+007, +9.62153014304E+001, +9.65708161087E+002
+3.06076345432E+007, +9.95739837171E+001, +9.75715243950E+002
+3.07326658323E+007, +1.00040531773E+002, +9.80028311723E+002
+3.08576971214E+007, +9.80638744991E+001, +9.92732046859E+002
+3.09827284105E+007, +1.02426361272E+002, +9.98474244815E+002
+3.11077596996E+007, +1.04267670228E+002, +1.00416311751E+003
+3.12327909887E+007, +1.02503502140E+002, +1.01205243242E+003
+3.13578222778E+007, +1.02811805062E+002, +1.02207654190E+003
+3.14828535670E+007, +1.02064271159E+002, +1.02918493138E+003
+3.16078848561E+007, +1.02940275546E+002, +1.03591823668E+003
+3.17329161452E+007, +1.05722248370E+002, +1.04277379753E+003
+3.18579474343E+007, +1.07061937255E+002, +1.04674709945E+003
+3.19829787234E+007, +1.09445999765E+002, +1.05892788070E+003
+3.21080100125E+007, +1.11767074815E+002, +1.06836422965E+003
+3.22330413016E+007, +1.11166138896E+002, +1.07452008416E+003
+3.23580725907E+007, +1.12791375132E+002, +1.08436306023E+003
+3.24831038798E+007, +1.17594958773E+002, +1.09774405251E+003
+3.26081351690E+007, +1.20440989813E+002, +1.10655305654E+003
+3.27331664581E+007, +1.18608741557E+002, +1.11005654593E+003
+3.28581977472E+007, +1.13860276127E+002, +1.12394472464E+003
+3.29832290363E+007, +1.22367678461E+002, +1.12758287187E+003
+3.31082603254E+007, +1.19752168191E+002, +1.14026097983E+003
+3.32332916145E+007, +1.22227110292E+002, +1.15043481004E+003
+3.33583229036E+007, +1.21908278556E+002, +1.15822947926E+003
+3.34833541927E+007, +1.25956834921E+002, +1.16898879808E+003
+3.36083854819E+007, +1.24103675273E+002, +1.17362670661E+003
+3.37334167710E+007, +1.25928430994E+002, +1.18163494190E+003
+3.38584480601E+007, +1.33124764398E+002, +1.19559782389E+003
+3.39834793492E+007, +1.29522963559E+002, +1.21165639121E+003
+3.41085106383E+007, +1.30214191140E+002, +1.21798583108E+003
+3.42335419274E+007, +1.30725280013E+002, +1.22564782308E+003
+3.43585732165E+007, +1.42554701556E+002, +1.23455981554E+003
+3.44836045056E+007, +1.36679198281E+002, +1.24762868071E+003
+3.46086357947E+007, +1.37373145740E+002, +1.24876204886E+003
+3.47336670839E+007, +1.46217126774E+002, +1.26323668854E+003
+3.48586983730E+007, +1.43299963873E+002, +1.27621970764E+003
+3.49837296621E+007, +1.50116792664E+002, +1.28406239394E+003
+3.51087609512E+007, +1.52117460218E+002, +1.30535997926E+003
+3.52337922403E+007, +1.48152516705E+002, +1.31238034323E+003
+3.53588235294E+007, +1.53177053001E+002, +1.32031002763E+003
+3.54838548185E+007, +1.51838285442E+002, +1.33804198739E+003
+3.56088861076E+007, +1.59414438465E+002, +1.33897007600E+003
+3.57339173967E+007, +1.55251494073E+002, +1.36084496209E+003
+3.58589486859E+007, +1.60252830607E+002, +1.36653935866E+003
+3.59839799750E+007, +1.67970677927E+002, +1.37751681740E+003
+3.61090112641E+007, +1.68035599007E+002, +1.39934352845E+003
+3.62340425532E+007, +1.63919302698E+002, +1.41226878712E+003
+3.63590738423E+007, +1.76161308887E+002, +1.41451990325E+003
+3.64841051314E+007, +1.77026725402E+002, +1.43110452396E+003
+3.66091364205E+007, +1.81538133623E+002, +1.44450169086E+003
+3.67341677096E+007, +1.82230636952E+002, +1.45436254251E+003
+3.68591989987E+007, +1.86948109028E+002, +1.47082058328E+003
+3.69842302879E+007, +1.78325075961E+002, +1.47736027530E+003
+3.71092615770E+007, +1.95120150936E+002, +1.49902386595E+003
+3.72342928661E+007, +1.86057255359E+002, +1.50827446772E+003
+3.73593241552E+007, +1.93801627054E+002, +1.52715790754E+003
+3.74843554443E+007, +2.00547516827E+002, +1.54057996461E+003
+3.76093867334E+007, +2.11309898001E+002, +1.55431071265E+003
+3.77344180225E+007, +2.13436318090E+002, +1.56807216995E+003
+3.78594493116E+007, +2.14134070834E+002, +1.58691319026E+003
+3.79844806008E+007, +2.19147418003E+002, +1.60052453730E+003
+3.81095118899E+007, +2.22066062310E+002, +1.62149741811E+003
+3.82345431790E+007, +2.28425447956E+002, +1.63298868172E+003
+3.83595744681E+007, +2.37405977794E+002, +1.65322067856E+003
+3.84846057572E+007, +2.36985930301E+002, +1.66870119644E+003
+3.86096370463E+007, +2.41200824500E+002, +1.68106270945E+003
+3.87346683354E+007, +2.39984632189E+002, +1.69974316362E+003
+3.88596996245E+007, +2.48317235165E+002, +1.71604068505E+003
+3.89847309136E+007, +2.57342366070E+002, +1.73384451000E+003
+3.91097622028E+007, +2.60291497709E+002, +1.75188698644E+003
+3.92347934919E+007, +2.60177532379E+002, +1.76423574151E+003
+3.93598247810E+007, +2.72114084794E+002, +1.78506276839E+003
+3.94848560701E+007, +2.74274532768E+002, +1.81043960442E+003
+3.96098873592E+007, +2.77298076567E+002, +1.82807274412E+003
+3.97349186483E+007, +2.90945173206E+002, +1.84093085855E+003
+3.98599499374E+007, +3.05897310579E+002, +1.86172765762E+003
+3.99849812265E+007, +2.99411981626E+002, +1.88893147001E+003
+4.01100125156E+007, +3.06836350388E+002, +1.91787448009E+003
