"# Channel 1"
"# Trace 1"
Frequency, Formatted Data, Formatted Data
+1.00000000000E+006, +5.31443788975E-001, +2.26644292696E+001
+1.16527545910E+006, +5.81394901311E-001, +2.63970134660E+001
+1.33055091820E+006, +6.34212467947E-001, +2.99713892711E+001
+1.49582637730E+006, +6.26001537492E-001, +3.37289661459E+001
+1.66110183639E+006, +6.71841002206E-001, +3.74054401788E+001
+1.82637729549E+006, +6.71965464893E-001, +4.10595360986E+001
+1.99165275459E+006, +7.15686284428E-001, +4.47977906245E+001
+2.15692821369E+006, +7.21864157467E-001, +4.84781589468E+001
+2.32220367279E+006, +6.82393517022E-001, +5.21710848520E+001
+2.48747913189E+006, +6.59475596350E-001, +5.58522834593E+001
+2.65275459098E+006, +6.41014293237E-001, +5.95763368189E+001
+2.81803005008E+006, +6.65725140033E-001, +6.32974246747E+001
+2.98330550918E+006, +5.94303234995E-001, +6.68433081733E+001
+3.14858096828E+006, +7.00459616397E-001, +7.05691028857E+001
+3.31385642738E+006, +8.19980013340E-001, +7.42951327408E+001
+3.47913188648E+006, +5.49718269174E-001, +7.81597396517E+001
+3.64440734558E+006, +6.39053775998E-001, +8.16706701949E+001
+3.80968280467E+006, +8.58286428582E-001, +8.53698119748E+001
+3.97495826377E+006, +8.67074045126E-001, +8.90215266528E+001
+4.14023372287E+006, +7.91031106106E-001, +9.31464759797E+001
+4.30550918197E+006, +8.52952190131E-001, +9.63069618554E+001
+4.47078464107E+006, +7.12668301074E-001, +1.00326837573E+002
+4.63606010017E+006, +6.51247032890E-001, +1.04032184398E+002
+4.80133555927E+006, +7.08527638970E-001, +1.07758669937E+002
+4.96661101836E+006, +6.90649161508E-001, +1.11342862794E+002
+5.13188647746E+006, +8.05830247954E-001, +1.15098971527E+002
+5.29716193656E+006, +6.93826790417E-001, +1.18676962225E+002
+5.46243739566E+006, +7.73646121294E-001, +1.22617324391E+002
+5.62771285476E+006, +9.66813442171E-001, +1.26293516906E+002
+5.79298831386E+006, +1.00546323615E+000, +1.30327560863E+002
+5.95826377295E+006, +9.88070699824E-001, +1.33959162595E+002
+6.12353923205E+006, +1.43836021465E+000, +1.37492657819E+002
+6.28881469115E+006, +1.11325457892E+000, +1.41292514203E+002
+6.45409015025E+006, +1.34540353078E+000, +1.45075580511E+002
+6.61936560935E+006, +1.20729289394E+000, +1.48911936695E+002
+6.78464106845E+006, +1.38181394474E+000, +1.52579435260E+002
+6.94991652755E+006, +1.35144807920E+000, +1.56379718954E+002
+7.11519198664E+006, +1.44144356198E+000, +1.60046950398E+002
+7.28046744574E+006, +1.43746487786E+000, +1.63917569213E+002
+7.44574290484E+006, +1.54748230647E+000, +1.67595969376E+002
+7.61101836394E+006, +1.51414357927E+000, +1.71215520827E+002
+7.77629382304E+006, +1.79151478385E+000, +1.75091320481E+002
+7.94156928214E+006, +1.37392223323E+000, +1.78750241774E+002
+8.10684474124E+006, +1.42557657115E+000, +1.82286596791E+002
+8.27212020033E+006, +1.48621314091E+000, +1.86301272714E+002
+8.43739565943E+006, +1.44520508642E+000, +1.90193440815E+002
+8.60267111853E+006, +1.30624012472E+000, +1.93717254674E+002
+8.76794657763E+006, +1.61509514399E+000, +1.97564032492E+002
+8.93322203673E+006, +1.32453810789E+000, +2.01362801384E+002
+9.09849749583E+006, +1.40516792678E+000, +2.05297076058E+002
+9.26377295492E+006, +1.32717702532E+000, +2.09307359343E+002
+9.42904841402E+006, +1.32882374457E+000, +2.12749532963E+002
+9.59432387312E+006, +1.35719212552E+000, +2.16578597140E+002
+9.75959933222E+006, +9.88269755733E-001, +2.20460866923E+002
+9.92487479132E+006, +1.11775802242E+000, +2.24217042089E+002
+1.00901502504E+007, +1.26012167674E+000, +2.27958508415E+002
+1.02554257095E+007, +1.08087392725E+000, +2.31708480650E+002
+1.04207011686E+007, +1.18141217546E+000, +2.35600832513E+002
+1.05859766277E+007, +1.00454105181E+000, +2.40125807793E+002
+1.07512520868E+007, +9.28680678195E-001, +2.43427994888E+002
+1.09165275459E+007, +1.02660046380E+000, +2.47519725357E+002
+1.10818030050E+007, +9.67677547501E-001, +2.51509833180E+002
+1.12470784641E+007, +1.00875201941E+000, +2.55078897765E+002
+1.14123539232E+007, +8.96246382753E-001, +2.58877136287E+002
+1.15776293823E+007, +1.19225529432E+000, +2.63389320766E+002
+1.17429048414E+007, +6.84102612096E-001, +2.66573047595E+002
+1.19081803005E+007, +1.09098912802E+000, +2.70928664250E+002
+1.20734557596E+007, +8.63620475284E-001, +2.74746443927E+002
+1.22387312187E+007, +5.50611393863E-001, +2.78227854237E+002
+1.24040066778E+007, +1.00223610244E+000, +2.82732348178E+002
+1.25692821369E+007, +8.30592520955E-001, +2.86088692974E+002
+1.27345575960E+007, +1.12436055459E+000, +2.90149259119E+002
+1.28998330551E+007, +7.88235478926E-001, +2.94403578131E+002
+1.30651085142E+007, +7.56022940933E-001, +2.97935029826E+002
+1.32303839733E+007, +1.39872552658E+000, +3.02593130772E+002
+1.33956594324E+007, +7.49846796683E-001, +3.06721816671E+002
+1.35609348915E+007, +7.43227752122E-001, +3.10167986215E+002
+1.37262103506E+007, +8.74027532540E-001, +3.13477623113E+002
+1.38914858097E+007, +1.00521135179E+000, +3.17721432715E+002
+1.40567612688E+007, +1.10119491403E+000, +3.22188852938E+002
+1.42220367279E+007, +6.64458090144E-001, +3.26065022749E+002
+1.43873121870E+007, +8.59912221094E-001, +3.30930147716E+002
+1.45525876461E+007, +5.53786280478E-001, +3.33976473620E+002
+1.47178631052E+007, +8.88050792895E-001, +3.38179290635E+002
+1.48831385643E+007, +9.77612044034E-001, +3.42094647089E+002
+1.50484140234E+007, +6.73593663458E-001, +3.46994708990E+002
+1.52136894825E+007, +2.36790252635E-001, +3.50658196055E+002
+1.53789649416E+007, +4.02179746824E-001, +3.55364287656E+002
+1.55442404007E+007, +7.16133994938E-001, +3.58705210060E+002
+1.57095158598E+007, +6.24192362880E-001, +3.63094735769E+002
+1.58747913189E+007, +1.52357417998E+000, +3.67008211758E+002
+1.60400667780E+007, +3.81478103986E-001, +3.70550736879E+002
+1.62053422371E+007, +5.69260884495E-001, +3.74695611896E+002
+1.63706176962E+007, +6.97844781796E-001, +3.78496502549E+002
+1.65358931553E+007, +7.49629877820E-001, +3.82423630531E+002
+1.67011686144E+007, +1.30493086854E+000, +3.87313911512E+002
+1.68664440735E+007, +9.68390385504E-001, +3.91356615792E+002
+1.70317195326E+007, -1.73659729825E-001, +3.95898846109E+002
+1.71969949917E+007, +5.87980365985E-002, +4.00168866361E+002
+1.73622704508E+007, +6.42548100570E-001, +4.04831202372E+002
+1.75275459098E+007, -5.67552445701E-002, +4.07893560284E+002
+1.76928213689E+007, +6.35996190713E-001, +4.12394107810E+002
+1.78580968280E+007, +9.72800701691E-001, +4.17493675549E+002
+1.80233722871E+007, +1.63196572333E+000, +4.21095457483E+002
+1.81886477462E+007, +9.14826390688E-001, +4.25905962165E+002
+1.83539232053E+007, +1.21777090458E+000, +4.29539516060E+002
+1.85191986644E+007, +1.22401938152E+000, +4.33863226211E+002
+1.86844741235E+007, +1.07187838493E+000, +4.37268076791E+002
+1.88497495826E+007, +5.80417770180E-001, +4.42328277290E+002
+1.90150250417E+007, -4.08596633660E-001, +4.46807876380E+002
+1.91803005008E+007, -5.58515493482E-001, +4.51350918387E+002
+1.93455759599E+007, +1.56329638821E+000, +4.53938343968E+002
+1.95108514190E+007, +1.90160993963E+000, +4.59772994915E+002
+1.96761268781E+007, +1.17210375190E+000, +4.64576541024E+002
+1.98414023372E+007, +1.15582312158E+000, +4.68011312165E+002
+2.00066777963E+007, +1.07596280528E+000, +4.71754885389E+002
+2.01719532554E+007, +4.30204758765E-001, +4.76443489393E+002
+2.03372287145E+007, +1.04891126163E+000, +4.81958627764E+002
+2.05025041736E+007, +8.87933053735E-001, +4.87230226572E+002
+2.06677796327E+007, +1.52241850744E+000, +4.91184724438E+002
+2.08330550918E+007, +9.28872823191E-001, +4.95237984702E+002
+2.09983305509E+007, +1.62661970247E+000, +4.98817115377E+002
+2.11636060100E+007, +1.68558172724E+000, +5.02957251079E+002
+2.13288814691E+007, +1.91997997340E+000, +5.08755871703E+002
+2.14941569282E+007, +1.37582742616E+000, +5.12331521980E+002
+2.16594323873E+007, +4.84152451854E-001, +5.17361395754E+002
+2.18247078464E+007, +1.69987319904E+000, +5.22890633522E+002
+2.19899833055E+007, +1.33264373591E+000, +5.26839476711E+002
+2.21552587646E+007, +8.51046515862E-001, +5.30785553541E+002
+2.23205342237E+007, +2.50999842354E+000, +5.35109675551E+002
+2.24858096828E+007, +1.42929537278E+000, +5.41109470535E+002
+2.26510851419E+007, +2.50699390484E+000, +5.45000607029E+002
+2.28163606010E+007, +1.95906569440E+000, +5.49636729710E+002
+2.29816360601E+007, +2.28880000184E+000, +5.54952441960E+002
+2.31469115192E+007, +3.58318534051E+000, +5.59172543773E+002
+2.33121869783E+007, +3.58108890304E+000, +5.64693682567E+002
+2.34774624374E+007, +5.26552547389E+000, +5.69009923641E+002
+2.36427378965E+007, +2.66874878987E+000, +5.73875368271E+002
+2.38080133556E+007, +4.42846005767E+000, +5.79243348873E+002
+2.39732888147E+007, +4.51803685061E+000, +5.84601000824E+002
+2.41385642738E+007, +3.79535289559E+000, +5.89469976297E+002
+2.43038397329E+007, +4.98856132568E+000, +5.94088186958E+002
+2.44691151920E+007, +3.28897204535E+000, +5.98704031484E+002
+2.46343906511E+007, +3.38697232471E+000, +6.04528152024E+002
+2.47996661102E+007, +3.08719291035E+000, +6.07042636558E+002
+2.49649415693E+007, +5.32620184939E+000, +6.12233115151E+002
+2.51302170284E+007, +3.88606431491E+000, +6.18663625558E+002
+2.52954924875E+007, +6.12675881079E+000, +6.22702311367E+002
+2.54607679466E+007, +5.78119735828E+000, +6.27560024380E+002
+2.56260434057E+007, +5.11023804514E+000, +6.32299337795E+002
+2.57913188648E+007, +6.17464951786E+000, +6.35728514358E+002
+2.59565943239E+007, +6.82534623697E+000, +6.42016760491E+002
+2.61218697830E+007, +5.34279937454E+000, +6.45589210823E+002
+2.62871452421E+007, +7.97427176049E+000, +6.51628439603E+002
+2.64524207012E+007, +3.83583832502E+000, +6.57731896262E+002
+2.66176961603E+007, +6.81210483376E+000, +6.61639405360E+002
+2.67829716194E+007, +6.06596753641E+000, +6.64874736521E+002
+2.69482470785E+007, +7.18180999098E+000, +6.74130897029E+002
+2.71135225376E+007, +6.48892441271E+000, +6.80080134717E+002
+2.72787979967E+007, +8.63651808299E+000, +6.84495310413E+002
+2.74440734558E+007, +8.83904207528E+000, +6.87167646982E+002
+2.76093489149E+007, +9.34908447617E+000, +6.92291287333E+002
+2.77746243740E+007, +8.50028695698E+000, +6.97851672733E+002
+2.79398998331E+007, +7.07124258961E+000, +7.04527292079E+002
+2.81051752922E+007, +1.03999102259E+001, +7.07989495143E+002
+2.82704507513E+007, +7.35617849103E+000, +7.15373410586E+002
+2.84357262104E+007, +5.32104561837E+000, +7.20776859237E+002
+2.86010016694E+007, +8.83452772705E+000, +7.26691805695E+002
+2.87662771285E+007, +8.50171802772E+000, +7.32124329488E+002
+2.89315525876E+007, +8.87625450053E+000, +7.36659037474E+002
+2.90968280467E+007, +8.72064489756E+000, +7.42971843161E+002
+2.92621035058E+007, +8.67076844726E+000, +7.45394372180E+002
+2.94273789649E+007, +1.00276733207E+001, +7.52435411222E+002
+2.95926544240E+007, +9.56232201130E+000, +7.57610757230E+002
+2.97579298831E+007, +9.61502891589E+000, +7.63998931089E+002
+2.99232053422E+007, +1.06882968184E+001, +7.70471952954E+002
+3.00884808013E+007, +1.22668380148E+001, +7.75272538841E+002
+3.02537562604E+007, +1.19034702734E+001, +7.79158083860E+002
+3.04190317195E+007, +1.20834675687E+001, +7.85667109870E+002
+3.05843071786E+007, +1.08040701912E+001, +7.92863581331E+002
+3.07495826377E+007, +8.32899581892E+000, +7.95903046799E+002
+3.09148580968E+007, +1.21350661523E+001, +8.02455151203E+002
+3.10801335559E+007, +1.07964516413E+001, +8.09502831903E+002
+3.12454090150E+007, +9.44369502208E+000, +8.16568300406E+002
+3.14106844741E+007, +9.14052694958E+000, +8.21933653852E+002
+3.15759599332E+007, +6.55795640516E+000, +8.27989108035E+002
+3.17412353923E+007, +1.01932158161E+001, +8.33438053465E+002
+3.19065108514E+007, +1.20025594974E+001, +8.42830203085E+002
+3.20717863105E+007, +6.23658873494E+000, +8.42597476640E+002
+3.22370617696E+007, +1.13424937133E+001, +8.49407630618E+002
+3.24023372287E+007, +8.16981191422E+000, +8.57695380025E+002
+3.25676126878E+007, +1.08273105609E+001, +8.65836127667E+002
+3.27328881469E+007, +8.82197729214E+000, +8.68829463047E+002
+3.28981636060E+007, +5.70062496856E+000, +8.75991030438E+002
+3.30634390651E+007, +1.11827822303E+001, +8.84895065716E+002
+3.32287145242E+007, +7.13328612083E+000, +8.94401206347E+002
+3.33939899833E+007, +8.37800459764E+000, +9.01572823294E+002
+3.35592654424E+007, +1.11303953850E+001, +9.05168819845E+002
+3.37245409015E+007, +1.03010082266E+001, +9.12952601073E+002
+3.38898163606E+007, +8.81124746943E+000, +9.20988209143E+002
+3.40550918197E+007, +5.82901168983E+000, +9.28339237068E+002
+3.42203672788E+007, +9.48182227868E+000, +9.31725942434E+002
+3.43856427379E+007, +7.19600174293E+000, +9.36574927573E+002
+3.45509181970E+007, +4.84362925967E+000, +9.50640197179E+002
+3.47161936561E+007, +7.73087411920E+000, +9.55781163144E+002
+3.48814691152E+007, +9.54374812701E+000, +9.57196789211E+002
+3.50467445743E+007, +1.25759578557E+001, +9.69246517699E+002
+3.52120200334E+007, +9.58199835264E+000, +9.75665547411E+002
+3.53772954925E+007, +8.84378197867E+000, +9.84474508104E+002
+3.55425709516E+007, +1.29709725049E+001, +9.92357677364E+002
+3.57078464107E+007, +1.02183874272E+001, +9.96909439028E+002
+3.58731218698E+007, +1.08727183356E+001, +1.00909099338E+003
+3.60383973289E+007, +8.67148953833E+000, +1.01300320922E+003
+3.62036727880E+007, +1.06262020998E+001, +1.02207420112E+003
+3.63689482471E+007, +1.36664959819E+001, +1.02779986126E+003
+3.65342237062E+007, +1.25885624401E+001, +1.03745947571E+003
+3.66994991653E+007, +6.63885134095E+000, +1.05004828900E+003
+3.68647746244E+007, +1.18008517820E+001, +1.05298891206E+003
+3.70300500835E+007, +9.91603091762E+000, +1.05967439108E+003
+3.71953255426E+007, +1.73288907835E+001, +1.07403668042E+003
+3.73606010017E+007, +1.53230221892E+001, +1.08269755484E+003
+3.75258764608E+007, +1.26273147843E+001, +1.09107669567E+003
+3.76911519199E+007, +1.62936200492E+001, +1.09730476673E+003
+3.78564273790E+007, +1.04682791322E+001, +1.10374131978E+003
+3.80217028381E+007, +1.71079281827E+001, +1.10886684443E+003
+3.81869782972E+007, +1.37395986019E+001, +1.12441225555E+003
+3.83522537563E+007, +1.12421120768E+001, +1.13319245595E+003
+3.85175292154E+007, +1.58523928155E+001, +1.14024461557E+003
+3.86828046745E+007, +9.43093545327E+000, +1.14841659059E+003
+3.88480801336E+007, +1.55843039512E+001, +1.15937883091E+003
+3.90133555927E+007, +1.71704516028E+001, +1.16930578973E+003
+3.91786310518E+007, +1.02762765533E+001, +1.18425773728E+003
+3.93439065109E+007, +1.27488031352E+001, +1.19355663967E+003
+3.95091819699E+007, +2.25001089441E+001, +1.20054462992E+003
+3.96744574290E+007, +2.05266760656E+001, +1.21047624863E+003
+3.98397328881E+007, +1.46688968407E+001, +1.21932269407E+003
+4.00050083472E+007, +1.64966080330E+001, +1.23586745141E+003
+4.01702838063E+007, +1.05014822512E+001, +1.23639649828E+003
+4.03355592654E+007, +2.25417632241E+001, +1.25137669066E+003
+4.05008347245E+007, +1.64076777721E+001, +1.26889831554E+003
+4.06661101836E+007, +1.23899208348E+001, +1.26931142332E+003
+4.08313856427E+007, +9.12245023305E+000, +1.29546704306E+003
+4.09966611018E+007, +2.42109721552E+001, +1.29204857378E+003
+4.11619365609E+007, +2.07222296563E+001, +1.30715107777E+003
+4.13272120200E+007, +2.51197941341E+001, +1.32409476403E+003
+4.14924874791E+007, +2.36817352220E+001, +1.32737452270E+003
+4.16577629382E+007, +2.28689967080E+001, +1.34488378551E+003
+4.18230383973E+007, +2.45430830089E+001, +1.35879916169E+003
+4.19883138564E+007, +1.25958759377E+001, +1.36959970558E+003
+4.21535893155E+007, +2.04442816744E+001, +1.38282155933E+003
+4.23188647746E+007, +3.25069103849E+001, +1.39532670631E+003
+4.24841402337E+007, +2.63599105412E+001, +1.42058623243E+003
+4.26494156928E+007, +2.04509673148E+001, +1.42494978602E+003
+4.28146911519E+007, +3.74004217455E+001, +1.43614500383E+003
+4.29799666110E+007, +2.95354466696E+001, +1.45615750831E+003
+4.31452420701E+007, +3.42288029277E+001, +1.47356998010E+003
+4.33105175292E+007, +3.23659812203E+001, +1.48138492997E+003
+4.34757929883E+007, +2.71138460227E+001, +1.49577736760E+003
+4.36410684474E+007, +2.43501641038E+001, +1.50575078047E+003
+4.38063439065E+007, +3.03660072156E+001, +1.52715453494E+003
+4.39716193656E+007, +4.02085611362E+001, +1.52438806136E+003
+4.41368948247E+007, +2.45218191361E+001, +1.55580078261E+003
+4.43021702838E+007, +4.51126534175E+001, +1.57685933541E+003
+4.44674457429E+007, +2.85898017380E+001, +1.58780361709E+003
+4.46327212020E+007, +4.25344172710E+001, +1.60443660313E+003
+4.47979966611E+007, +3.66815883736E+001, +1.63639825208E+003
+4.49632721202E+007, +4.78891793254E+001, +1.64445373946E+003
+4.51285475793E+007, +3.71213584501E+001, +1.66142507383E+003
+4.52938230384E+007, +4.86082486581E+001, +1.68222817528E+003
+4.54590984975E+007, +2.65309551021E+001, +1.68954990012E+003
+4.56243739566E+007, +4.69638509270E+001, +1.71236646424E+003
+4.57896494157E+007, +5.63559732272E+001, +1.72723270760E+003
+4.59549248748E+007, +4.63138487984E+001, +1.77337384501E+003
+4.61202003339E+007, +3.43850927433E+001, +1.78272185020E+003
+4.62854757930E+007, +5.48770060450E+001, +1.81076465748E+003
+4.64507512521E+007, +5.95677380066E+001, +1.83082355939E+003
+4.66160267112E+007, +6.11215921175E+001, +1.86073287398E+003
+4.67813021703E+007, +6.36269716625E+001, +1.86964010542E+003
+4.69465776294E+007, +6.68583841809E+001, +1.89440028753E+003
+4.71118530885E+007, +6.87451122957E+001, +1.92431340367E+003
+4.72771285476E+007, +7.44168008430E+001, +1.94694003951E+003
+4.74424040067E+007, +8.62242017287E+001, +1.98198159280E+003
+4.76076794658E+007, +9.31584192160E+001, +2.00690572806E+003
+4.77729549249E+007, +8.96168102819E+001, +2.03574772689E+003
+4.79382303840E+007, +9.65740849637E+001, +2.05688334559E+003
+4.81035058431E+007, +1.00446026214E+002, +2.10074401273E+003
+4.82687813022E+007, +1.20623168002E+002, +2.12711037247E+003
+4.84340567613E+007, +1.06083125719E+002, +2.16355539123E+003
+4.85993322204E+007, +1.35772369428E+002, +2.20951559060E+003
+4.87646076795E+007, +1.54074945465E+002, +2.21890655492E+003
+4.89298831386E+007, +1.50968250589E+002, +2.24790109043E+003
+4.90951585977E+007, +1.63794903341E+002, +2.26988935907E+003
+4.92604340568E+007, +1.80855548750E+002, +2.31643803403E+003
+4.94257095159E+007, +1.82175410278E+002, +2.36731884195E+003
+4.95909849750E+007, +2.01035707157E+002, +2.38801944463E+003
+4.97562604341E+007, +2.12886554680E+002, +2.39669724284E+003
+4.99215358932E+007, +2.30482111761E+002, +2.48232210721E+003
+5.00868113523E+007, +2.45933804698E+002, +2.53407185853E+003
+5.02520868114E+007, +2.75580447240E+002, +2.55131976236E+003
+5.04173622705E+007, +2.55347362028E+002, +2.59693489779E+003
+5.05826377295E+007, +2.65309769046E+002, +2.61508946687E+003
+5.07479131886E+007, +3.02815043082E+002, +2.65519675212E+003
+5.09131886477E+007, +2.64852591920E+002, +2.70147256285E+003
+5.10784641068E+007, +3.55095368579E+002, +2.76795423235E+003
+5.12437395659E+007, +3.54857458925E+002, +2.82069737229E+003
+5.14090150250E+007, +3.94123861847E+002, +2.81645480756E+003
+5.15742904841E+007, +3.85626162113E+002, +2.87418289795E+003
+5.17395659432E+007, +4.43252593356E+002, +2.92955695600E+003
+5.19048414023E+007, +4.37120807361E+002, +3.00077998482E+003
+5.20701168614E+007, +4.72953294533E+002, +3.08212657496E+003
+5.22353923205E+007, +4.82343377599E+002, +3.12207984703E+003
+5.24006677796E+007, +4.95904457996E+002, +3.11253426697E+003
+5.25659432387E+007, +5.45488141784E+002, +3.18728254789E+003
+5.27312186978E+007, +6.19229208247E+002, +3.24048198482E+003
+5.28964941569E+007, +6.00477129081E+002, +3.32215273935E+003
+5.30617696160E+007, +5.98328968985E+002, +3.37378715451E+003
+5.32270450751E+007, +6.61346334407E+002, +3.41892151055E+003
+5.33923205342E+007, +6.16428805020E+002, +3.57055918132E+003
+5.35575959933E+007, +6.52400376749E+002, +3.58023231177E+003
+5.37228714524E+007, +6.79373432522E+002, +3.74085989136E+003
+5.38881469115E+007, +6.83149678966E+002, +3.75671788386E+003
