"# Channel 1"
"# Trace 1"
Frequency, Formatted Data, Formatted Data
+1.00000000000E+005, +2.93038132924E+001, +2.22166159339E+000
+2.66777963272E+005, +2.92669269805E+001, +6.14649165208E+000
+4.33555926544E+005, +2.93036573613E+001, +1.00170612243E+001
+6.00333889816E+005, +2.92597354393E+001, +1.38781485461E+001
+7.67111853088E+005, +2.93187452834E+001, +1.77293564310E+001
+9.33889816361E+005, +2.93154985834E+001, +2.15628548233E+001
+1.10066777963E+006, +2.92780842325E+001, +2.55265478637E+001
+1.26744574290E+006, +2.93120714828E+001, +2.93128466776E+001
+1.43422370618E+006, +2.93329320759E+001, +3.32584022022E+001
+1.60100166945E+006, +2.93663901424E+001, +3.70409746548E+001
+1.76777963272E+006, +2.93431113740E+001, +4.08664179899E+001
+1.93455759599E+006, +2.93039099778E+001, +4.46900278245E+001
+2.10133555927E+006, +2.92655630826E+001, +4.85128265134E+001
+2.26811352254E+006, +2.93790585335E+001, +5.24428436509E+001
+2.43489148581E+006, +2.94171054266E+001, +5.64096800085E+001
+2.60166944908E+006, +2.93919499782E+001, +6.01855623061E+001
+2.76844741235E+006, +2.93864726234E+001, +6.41197688525E+001
+2.93522537563E+006, +2.92889628058E+001, +6.79888489019E+001
+3.10200333890E+006, +2.93554382989E+001, +7.16994990745E+001
+3.26878130217E+006, +2.92577018579E+001, +7.57702536511E+001
+3.43555926544E+006, +2.93899028753E+001, +7.95161631422E+001
+3.60233722871E+006, +2.94614772164E+001, +8.35142238063E+001
+3.76911519199E+006, +2.95168361676E+001, +8.75692259077E+001
+3.93589315526E+006, +2.93221341701E+001, +9.12380551059E+001
+4.10267111853E+006, +2.95782465182E+001, +9.54060786093E+001
+4.26944908180E+006, +2.95920638780E+001, +9.94382648527E+001
+4.43622704508E+006, +2.94968669155E+001, +1.02977874774E+002
+4.60300500835E+006, +2.95803276635E+001, +1.07052989229E+002
+4.76978297162E+006, +2.93887973007E+001, +1.10909681685E+002
+4.93656093489E+006, +2.97210874477E+001, +1.15049833030E+002
+5.10333889816E+006, +2.97709514451E+001, +1.18899655398E+002
+5.27011686144E+006, +2.99440606535E+001, +1.22937543425E+002
+5.43689482471E+006, +2.98290424320E+001, +1.26932271695E+002
+5.60367278798E+006, +3.00376324194E+001, +1.31147647227E+002
+5.77045075125E+006, +2.99101770828E+001, +1.34702699336E+002
+5.93722871452E+006, +3.00738378998E+001, +1.38795480138E+002
+6.10400667780E+006, +2.99899312855E+001, +1.42881358884E+002
+6.27078464107E+006, +3.02670395609E+001, +1.46728442101E+002
+6.43756260434E+006, +3.03952697981E+001, +1.50959950470E+002
+6.60434056761E+006, +3.04173710784E+001, +1.54741315477E+002
+6.77111853088E+006, +3.06933776755E+001, +1.58585036779E+002
+6.93789649416E+006, +3.07350656528E+001, +1.62813721489E+002
+7.10467445743E+006, +3.07165043552E+001, +1.66774263807E+002
+7.27145242070E+006, +3.06455676877E+001, +1.70738903654E+002
+7.43823038397E+006, +3.08601433695E+001, +1.74625844624E+002
+7.60500834725E+006, +3.07956218907E+001, +1.78897254369E+002
+7.77178631052E+006, +3.10058930626E+001, +1.83038237538E+002
+7.93856427379E+006, +3.09689194816E+001, +1.86953388592E+002
+8.10534223706E+006, +3.09037693495E+001, +1.90995246003E+002
+8.27212020033E+006, +3.11065689192E+001, +1.95266924919E+002
+8.43889816361E+006, +3.08605558028E+001, +1.99426543794E+002
+8.60567612688E+006, +3.10715776738E+001, +2.03569672409E+002
+8.77245409015E+006, +3.09214042563E+001, +2.07694376368E+002
+8.93923205342E+006, +3.11577010407E+001, +2.11860123448E+002
+9.10601001669E+006, +3.11967717122E+001, +2.16298900203E+002
+9.27278797997E+006, +3.12871372026E+001, +2.20356706005E+002
+9.43956594324E+006, +3.11998785522E+001, +2.24577877837E+002
+9.60634390651E+006, +3.13176403080E+001, +2.28892790978E+002
+9.77312186978E+006, +3.12395410300E+001, +2.33076483656E+002
+9.93989983306E+006, +3.16075465593E+001, +2.37533134994E+002
+1.01066777963E+007, +3.13842450628E+001, +2.41602948408E+002
+1.02734557596E+007, +3.16155678055E+001, +2.46126851014E+002
+1.04402337229E+007, +3.13949316577E+001, +2.50443987481E+002
+1.06070116861E+007, +3.15392737608E+001, +2.54681354553E+002
+1.07737896494E+007, +3.14752204666E+001, +2.59324930565E+002
+1.09405676127E+007, +3.18010891543E+001, +2.63430671125E+002
+1.11073455760E+007, +3.19389428909E+001, +2.67923383550E+002
+1.12741235392E+007, +3.22224911626E+001, +2.72243166980E+002
+1.14409015025E+007, +3.19676088653E+001, +2.76445231088E+002
+1.16076794658E+007, +3.24710710191E+001, +2.81428594186E+002
+1.17744574290E+007, +3.24967685387E+001, +2.85798994034E+002
+1.19412353923E+007, +3.26448176044E+001, +2.90331164460E+002
+1.21080133556E+007, +3.17187055330E+001, +2.95073882642E+002
+1.22747913189E+007, +3.26823113431E+001, +2.99621616737E+002
+1.24415692821E+007, +3.24657785456E+001, +3.04087458442E+002
+1.26083472454E+007, +3.22778447197E+001, +3.08877212106E+002
+1.27751252087E+007, +3.26963921797E+001, +3.13076758590E+002
+1.29419031720E+007, +3.23121054973E+001, +3.18005462725E+002
+1.31086811352E+007, +3.31029155558E+001, +3.22827187514E+002
+1.32754590985E+007, +3.29866086559E+001, +3.27068270692E+002
+1.34422370618E+007, +3.27467759975E+001, +3.32082648869E+002
+1.36090150250E+007, +3.40346781203E+001, +3.36708874139E+002
+1.37757929883E+007, +3.34067854610E+001, +3.40932978327E+002
+1.39425709516E+007, +3.36461497088E+001, +3.46189224658E+002
+1.41093489149E+007, +3.37846670980E+001, +3.51087551732E+002
+1.42761268781E+007, +3.44292254320E+001, +3.55697827863E+002
+1.44429048414E+007, +3.43740369123E+001, +3.60734495147E+002
+1.46096828047E+007, +3.40736518390E+001, +3.65728031864E+002
+1.47764607679E+007, +3.45914383572E+001, +3.69369940670E+002
+1.49432387312E+007, +3.47142102886E+001, +3.75354756406E+002
+1.51100166945E+007, +3.40923384359E+001, +3.79387048141E+002
+1.52767946578E+007, +3.46050266448E+001, +3.84534125714E+002
+1.54435726210E+007, +3.49404957272E+001, +3.89567701557E+002
+1.56103505843E+007, +3.61164224217E+001, +3.95066753783E+002
+1.57771285476E+007, +3.53991651504E+001, +3.99614760105E+002
+1.59439065109E+007, +3.55889484674E+001, +4.04727733421E+002
+1.61106844741E+007, +3.57662625840E+001, +4.10189255999E+002
+1.62774624374E+007, +3.57439396716E+001, +4.15168591505E+002
+1.64442404007E+007, +3.56519859937E+001, +4.21165187142E+002
+1.66110183639E+007, +3.66624875799E+001, +4.26078371936E+002
+1.67777963272E+007, +3.61282843933E+001, +4.31313094171E+002
+1.69445742905E+007, +3.73030875658E+001, +4.36163399572E+002
+1.71113522538E+007, +3.43845135355E+001, +4.41945683906E+002
+1.72781302170E+007, +3.59676750564E+001, +4.47623713682E+002
+1.74449081803E+007, +3.48909121033E+001, +4.51750863916E+002
+1.76116861436E+007, +3.72158353329E+001, +4.57993839320E+002
+1.77784641068E+007, +3.69397767130E+001, +4.62542558941E+002
+1.79452420701E+007, +3.77117955242E+001, +4.68165728084E+002
+1.81120200334E+007, +3.82803881407E+001, +4.73612377705E+002
+1.82787979967E+007, +3.82116593237E+001, +4.79340821483E+002
+1.84455759599E+007, +3.92819182144E+001, +4.84442264408E+002
+1.86123539232E+007, +3.96880372717E+001, +4.92022377989E+002
+1.87791318865E+007, +3.88249540687E+001, +4.97751161066E+002
+1.89459098497E+007, +3.86268203552E+001, +5.02969305817E+002
+1.91126878130E+007, +3.92187794318E+001, +5.07423709877E+002
+1.92794657763E+007, +4.02550008078E+001, +5.15773760372E+002
+1.94462437396E+007, +4.04886189593E+001, +5.20554728045E+002
+1.96130217028E+007, +4.12248383906E+001, +5.26373330876E+002
+1.97797996661E+007, +4.14550835193E+001, +5.32040354707E+002
+1.99465776294E+007, +3.97223349642E+001, +5.37576286248E+002
+2.01133555927E+007, +4.13416867737E+001, +5.44364625405E+002
+2.02801335559E+007, +4.21489633256E+001, +5.51140838851E+002
+2.04469115192E+007, +4.34798392249E+001, +5.56416249061E+002
+2.06136894825E+007, +4.26116519904E+001, +5.62683598765E+002
+2.07804674457E+007, +4.28925725656E+001, +5.70524318096E+002
+2.09472454090E+007, +4.26276771550E+001, +5.76534905994E+002
+2.11140233723E+007, +4.32165402742E+001, +5.81824753475E+002
+2.12808013356E+007, +4.54180266902E+001, +5.86895595564E+002
+2.14475792988E+007, +4.47693209985E+001, +5.95477154537E+002
+2.16143572621E+007, +4.52211239196E+001, +6.02078630708E+002
+2.17811352254E+007, +4.56493188449E+001, +6.07439810873E+002
+2.19479131886E+007, +4.72185905178E+001, +6.15341863574E+002
+2.21146911519E+007, +4.98655625738E+001, +6.19706319105E+002
+2.22814691152E+007, +4.68016492902E+001, +6.26788518233E+002
+2.24482470785E+007, +4.73184262074E+001, +6.34846679484E+002
+2.26150250417E+007, +4.97934537030E+001, +6.41417473074E+002
+2.27818030050E+007, +4.95462619134E+001, +6.47872975929E+002
+2.29485809683E+007, +5.55354708326E+001, +6.55201387010E+002
+2.31153589316E+007, +5.31693437895E+001, +6.65779922600E+002
+2.32821368948E+007, +5.50631969654E+001, +6.69744578647E+002
+2.34489148581E+007, +5.32997567073E+001, +6.74370857530E+002
+2.36156928214E+007, +5.64441380731E+001, +6.84783924195E+002
+2.37824707846E+007, +5.67282357615E+001, +6.90370784194E+002
+2.39492487479E+007, +5.40927718035E+001, +6.97980601378E+002
+2.41160267112E+007, +5.67633069692E+001, +7.05536190943E+002
+2.42828046745E+007, +5.65426528668E+001, +7.13695806812E+002
+2.44495826377E+007, +6.01667498061E+001, +7.21441391120E+002
+2.46163606010E+007, +5.84118515193E+001, +7.28268490544E+002
+2.47831385643E+007, +6.00523818988E+001, +7.36232386197E+002
+2.49499165275E+007, +6.44600655427E+001, +7.41869944016E+002
+2.51166944908E+007, +6.36805707858E+001, +7.48348396466E+002
+2.52834724541E+007, +6.41513383578E+001, +7.58626251604E+002
+2.54502504174E+007, +6.55938076919E+001, +7.67985438461E+002
+2.56170283806E+007, +6.46746976719E+001, +7.74237216999E+002
+2.57838063439E+007, +6.55279135175E+001, +7.86749693446E+002
+2.59505843072E+007, +6.62926343452E+001, +7.94902583528E+002
+2.61173622705E+007, +6.86888080268E+001, +8.02933463352E+002
+2.62841402337E+007, +6.76250057609E+001, +8.08416094595E+002
+2.64509181970E+007, +6.83569180334E+001, +8.18982757034E+002
+2.66176961603E+007, +7.00793759333E+001, +8.28423729218E+002
+2.67844741235E+007, +7.47750471377E+001, +8.35357663790E+002
+2.69512520868E+007, +7.45081440698E+001, +8.41721118495E+002
+2.71180300501E+007, +7.38266334132E+001, +8.49296147022E+002
+2.72848080134E+007, +7.62947469054E+001, +8.60490761205E+002
+2.74515859766E+007, +7.54252862674E+001, +8.70040645928E+002
+2.76183639399E+007, +7.62109259759E+001, +8.76159920534E+002
+2.77851419032E+007, +7.66769882602E+001, +8.86119001294E+002
+2.79519198664E+007, +8.08180086243E+001, +8.97929868304E+002
+2.81186978297E+007, +8.24336792578E+001, +9.06194643998E+002
+2.82854757930E+007, +8.47109854894E+001, +9.17361579160E+002
+2.84522537563E+007, +7.97483456719E+001, +9.30895275431E+002
+2.86190317195E+007, +8.17828856061E+001, +9.33821211354E+002
+2.87858096828E+007, +8.93947970123E+001, +9.49971099329E+002
+2.89525876461E+007, +9.21129727258E+001, +9.59490886370E+002
+2.91193656093E+007, +8.63197039733E+001, +9.62843339888E+002
+2.92861435726E+007, +8.34060263956E+001, +9.77785162053E+002
+2.94529215359E+007, +9.18264513663E+001, +9.89264572301E+002
+2.96196994992E+007, +9.62923435300E+001, +9.99838292712E+002
+2.97864774624E+007, +9.84136536459E+001, +1.00893366899E+003
+2.99532554257E+007, +1.01819425761E+002, +1.02446826033E+003
+3.01200333890E+007, +9.49194020117E+001, +1.03094937382E+003
+3.02868113523E+007, +9.86277663757E+001, +1.04161799666E+003
+3.04535893155E+007, +9.87540149041E+001, +1.05449384621E+003
+3.06203672788E+007, +1.06373999852E+002, +1.06559898351E+003
+3.07871452421E+007, +1.04522928076E+002, +1.08104550178E+003
+3.09539232053E+007, +1.05955211418E+002, +1.08936767259E+003
+3.11207011686E+007, +1.00128213637E+002, +1.10194999515E+003
+3.12874791319E+007, +1.05478559140E+002, +1.11221631664E+003
+3.14542570952E+007, +1.09066461129E+002, +1.12568594662E+003
+3.16210350584E+007, +1.06739142173E+002, +1.14065451156E+003
+3.17878130217E+007, +1.04284777794E+002, +1.15665937373E+003
+3.19545909850E+007, +1.15648363949E+002, +1.17008260647E+003
+3.21213689482E+007, +1.11004611640E+002, +1.18257031725E+003
+3.22881469115E+007, +1.11717482540E+002, +1.19340210017E+003
+3.24549248748E+007, +1.14317577007E+002, +1.21004183186E+003
+3.26217028381E+007, +1.15212601575E+002, +1.22336492856E+003
+3.27884808013E+007, +1.22620635616E+002, +1.23701559409E+003
+3.29552587646E+007, +1.28339982847E+002, +1.25129134630E+003
+3.31220367279E+007, +1.28107400759E+002, +1.26405843764E+003
+3.32888146912E+007, +1.25267391031E+002, +1.28777046486E+003
+3.34555926544E+007, +1.27629918335E+002, +1.29919395540E+003
+3.36223706177E+007, +1.29528620703E+002, +1.31093087557E+003
+3.37891485810E+007, +1.29553588335E+002, +1.32514355601E+003
+3.39559265442E+007, +1.37541823541E+002, +1.35205649077E+003
+3.41227045075E+007, +1.34309732298E+002, +1.36092588155E+003
+3.42894824708E+007, +1.38792871646E+002, +1.38939712593E+003
+3.44562604341E+007, +1.40943907100E+002, +1.39338711500E+003
+3.46230383973E+007, +1.47895614091E+002, +1.43086922055E+003
+3.47898163606E+007, +1.47317931028E+002, +1.43712475444E+003
+3.49565943239E+007, +1.59676919833E+002, +1.45229558266E+003
+3.51233722871E+007, +1.57185320805E+002, +1.48156941952E+003
+3.52901502504E+007, +1.58078695723E+002, +1.49784884766E+003
+3.54569282137E+007, +1.64379867755E+002, +1.52613143199E+003
+3.56237061770E+007, +1.52909510522E+002, +1.53839203258E+003
+3.57904841402E+007, +1.56586573420E+002, +1.56389396464E+003
+3.59572621035E+007, +1.70938682291E+002, +1.59282721013E+003
+3.61240400668E+007, +1.74242633401E+002, +1.61161465023E+003
+3.62908180301E+007, +1.78276348065E+002, +1.63636232736E+003
+3.64575959933E+007, +1.80164728905E+002, +1.66837691138E+003
+3.66243739566E+007, +1.89130778285E+002, +1.67079091034E+003
+3.67911519199E+007, +2.03957214102E+002, +1.70979766138E+003
+3.69579298831E+007, +1.86073221214E+002, +1.72641104905E+003
+3.71247078464E+007, +1.95333111003E+002, +1.76640332436E+003
+3.72914858097E+007, +2.03899193259E+002, +1.79685288722E+003
+3.74582637730E+007, +2.21150873916E+002, +1.84574770753E+003
+3.76250417362E+007, +2.18244740634E+002, +1.85947926923E+003
+3.77918196995E+007, +2.20142488870E+002, +1.88121447961E+003
+3.79585976628E+007, +2.24221978970E+002, +1.92105300546E+003
+3.81253756260E+007, +2.46973104209E+002, +1.95278456213E+003
+3.82921535893E+007, +2.45944835395E+002, +1.97808858047E+003
+3.84589315526E+007, +2.58204150747E+002, +2.01974286576E+003
+3.86257095159E+007, +2.45325687526E+002, +2.05432207721E+003
+3.87924874791E+007, +2.73896330773E+002, +2.08226062953E+003
+3.89592654424E+007, +3.03280000028E+002, +2.12600348706E+003
+3.91260434057E+007, +3.18794289935E+002, +2.17050442485E+003
+3.92928213689E+007, +3.02896196112E+002, +2.18088316057E+003
+3.94595993322E+007, +2.97577642649E+002, +2.25054984579E+003
+3.96263772955E+007, +3.03675063499E+002, +2.29569682158E+003
+3.97931552588E+007, +3.27907614654E+002, +2.30513468252E+003
+3.99599332220E+007, +3.48145188992E+002, +2.37403117338E+003
+4.01267111853E+007, +3.89288537810E+002, +2.42503900560E+003
+4.02934891486E+007, +3.64294521520E+002, +2.45833781410E+003
+4.04602671119E+007, +3.82607568307E+002, +2.50396610271E+003
+4.06270450751E+007, +3.98401067482E+002, +2.58164722229E+003
+4.07938230384E+007, +4.09430006187E+002, +2.64893086469E+003
+4.09606010017E+007, +4.66622391243E+002, +2.69839063523E+003
+4.11273789649E+007, +4.62594598707E+002, +2.71927054804E+003
+4.12941569282E+007, +4.78100971276E+002, +2.82721382937E+003
+4.14609348915E+007, +5.30192647767E+002, +2.88860888951E+003
+4.16277128548E+007, +5.45589146317E+002, +2.92290706334E+003
+4.17944908180E+007, +5.39266751609E+002, +3.00198892986E+003
+4.19612687813E+007, +5.73311741068E+002, +3.12594609917E+003
+4.21280467446E+007, +5.99080670076E+002, +3.18829240983E+003
+4.22948247078E+007, +6.41244926464E+002, +3.28631770959E+003
+4.24616026711E+007, +7.31035875037E+002, +3.31242776805E+003
+4.26283806344E+007, +7.38999907280E+002, +3.44158412559E+003
+4.27951585977E+007, +7.21975430485E+002, +3.54583490965E+003
+4.29619365609E+007, +8.19418632293E+002, +3.59018499174E+003
+4.31287145242E+007, +8.99084918187E+002, +3.75164319132E+003
+4.32954924875E+007, +9.18876582502E+002, +3.83167115543E+003
+4.34622704508E+007, +9.82599509638E+002, +3.96629857776E+003
+4.36290484140E+007, +1.12866527467E+003, +4.11098573085E+003
+4.37958263773E+007, +1.11551643053E+003, +4.34216389298E+003
+4.39626043406E+007, +1.23180801244E+003, +4.36886600003E+003
+4.41293823038E+007, +1.43660581419E+003, +4.56313509088E+003
+4.42961602671E+007, +1.43246325019E+003, +4.74683758627E+003
+4.44629382304E+007, +1.59156975095E+003, +4.87721111981E+003
+4.46297161937E+007, +1.72450514049E+003, +5.09956474521E+003
+4.47964941569E+007, +1.80350430980E+003, +5.24609999793E+003
+4.49632721202E+007, +1.98858823850E+003, +5.56623235716E+003
+4.51300500835E+007, +2.16016543908E+003, +5.67038620693E+003
+4.52968280467E+007, +2.55712708214E+003, +5.92095532813E+003
+4.54636060100E+007, +2.99359411134E+003, +6.24212145219E+003
+4.56303839733E+007, +3.23607518007E+003, +6.46623085366E+003
+4.57971619366E+007, +3.67137355562E+003, +6.98297800943E+003
+4.59639398998E+007, +4.24853726336E+003, +7.31106780034E+003
+4.61307178631E+007, +4.67850126184E+003, +7.51385534199E+003
+4.62974958264E+007, +5.39472396513E+003, +7.45727678276E+003
+4.64642737896E+007, +5.77133945034E+003, +7.94853074005E+003
+4.66310517529E+007, +7.43183318742E+003, +8.20088607514E+003
+4.67978297162E+007, +7.79487204215E+003, +7.37385498021E+003
+4.69646076795E+007, +9.15663808967E+003, +7.19902031447E+003
+4.71313856427E+007, +1.04701329677E+004, +6.45382347270E+003
+4.72981636060E+007, +1.19660473445E+004, +5.88204232809E+003
+4.74649415693E+007, +1.29170720768E+004, +5.39993990232E+003
+4.76317195326E+007, +1.29854804959E+004, +3.34752692191E+003
+4.77984974958E+007, +1.36458317115E+004, +1.73819453731E+003
+4.79652754591E+007, +1.34185855012E+004, +7.59561363621E+001
+4.81320534224E+007, +1.30648548502E+004, -5.90034997749E+002
+4.82988313856E+007, +1.27464661902E+004, -2.47746467355E+003
+4.84656093489E+007, +1.15874822799E+004, -3.43487440108E+003
+4.86323873122E+007, +1.05803252858E+004, -4.53079923352E+003
+4.87991652755E+007, +9.91574878730E+003, -4.82495263152E+003
+4.89659432387E+007, +9.47627450680E+003, -5.08776262283E+003
+4.91327212020E+007, +8.24893416060E+003, -5.47126760429E+003
+4.92994991653E+007, +7.28114619734E+003, -5.30999317503E+003
+4.94662771285E+007, +6.69313680053E+003, -5.44045337863E+003
+4.96330550918E+007, +6.11518948442E+003, -5.43841399593E+003
+4.97998330551E+007, +5.89244899865E+003, -5.17667686634E+003
+4.99666110184E+007, +5.32601789641E+003, -5.08288995328E+003
+5.01333889816E+007, +4.97726071816E+003, -5.11558979406E+003
+5.03001669449E+007, +4.54430468684E+003, -5.28115757631E+003
+5.04669449082E+007, +4.40210516210E+003, -4.98282261245E+003
+5.06337228715E+007, +4.04961283336E+003, -4.77943139889E+003
+5.08005008347E+007, +3.86582471554E+003, -4.69293770310E+003
+5.09672787980E+007, +3.67937652729E+003, -4.63732925415E+003
+5.11340567613E+007, +3.32466352236E+003, -4.57741402213E+003
+5.13008347245E+007, +3.13480392828E+003, -4.55322378350E+003
+5.14676126878E+007, +3.00278292549E+003, -4.54226592942E+003
+5.16343906511E+007, +2.82667506116E+003, -4.44466808717E+003
+5.18011686144E+007, +2.61308592003E+003, -4.38888394943E+003
+5.19679465776E+007, +2.45328724058E+003, -4.30334240240E+003
+5.21347245409E+007, +2.32375044505E+003, -4.14187951718E+003
+5.23015025042E+007, +2.12690240970E+003, -3.98108761456E+003
+5.24682804674E+007, +1.86819568177E+003, -4.10005512616E+003
+5.26350584307E+007, +1.83817750325E+003, -3.94251789883E+003
+5.28018363940E+007, +1.55840512434E+003, -3.83899612970E+003
+5.29686143573E+007, +1.51648816391E+003, -3.73699631919E+003
+5.31353923205E+007, +1.39671018842E+003, -3.72335703383E+003
+5.33021702838E+007, +1.31914062827E+003, -3.61411261645E+003
+5.34689482471E+007, +1.22273248123E+003, -3.42641472739E+003
