"# Channel 1"
"# Trace 1"
Frequency, Formatted Data, Formatted Data
+1.00000000000E+005, +9.62358113061E+001, +2.36707735775E+000
+3.18898623279E+005, +9.62859399774E+001, +7.92130219343E+000
+5.37797246558E+005, +9.62483478402E+001, +1.34813791048E+001
+7.56695869837E+005, +9.62338963961E+001, +1.87707697840E+001
+9.75594493116E+005, +9.62308191152E+001, +2.42528937751E+001
+1.19449311640E+006, +9.62105382507E+001, +2.96145565879E+001
+1.41339173967E+006, +9.61009602373E+001, +3.51862117841E+001
+1.63229036295E+006, +9.60120743046E+001, +4.06563736063E+001
+1.85118898623E+006, +9.61938956129E+001, +4.60008686598E+001
+2.07008760951E+006, +9.61808139318E+001, +5.14203516786E+001
+2.28898623279E+006, +9.64484904099E+001, +5.71438983721E+001
+2.50788485607E+006, +9.63628325983E+001, +6.23886535340E+001
+2.72678347935E+006, +9.64142811446E+001, +6.80448143235E+001
+2.94568210263E+006, +9.66093877762E+001, +7.33083058015E+001
+3.16458072591E+006, +9.62499562205E+001, +7.88852327740E+001
+3.38347934919E+006, +9.66246882407E+001, +8.43501420801E+001
+3.60237797247E+006, +9.67010362082E+001, +8.95484293947E+001
+3.82127659574E+006, +9.64567032127E+001, +9.50870051945E+001
+4.04017521902E+006, +9.70386948327E+001, +1.00537906579E+002
+4.25907384230E+006, +9.66934721780E+001, +1.06328987391E+002
+4.47797246558E+006, +9.70778023603E+001, +1.11569211255E+002
+4.69687108886E+006, +9.69965962781E+001, +1.17303934671E+002
+4.91576971214E+006, +9.71714230819E+001, +1.22725953277E+002
+5.13466833542E+006, +9.73468151473E+001, +1.28367442314E+002
+5.35356695870E+006, +9.72534940812E+001, +1.33829399761E+002
+5.57246558198E+006, +9.71213886411E+001, +1.39012914056E+002
+5.79136420526E+006, +9.80845897922E+001, +1.45009356422E+002
+6.01026282854E+006, +9.79157843510E+001, +1.50010240255E+002
+6.22916145181E+006, +9.79890931027E+001, +1.56261792882E+002
+6.44806007509E+006, +9.82521721342E+001, +1.61377315478E+002
+6.66695869837E+006, +9.86311699237E+001, +1.66939764272E+002
+6.88585732165E+006, +9.87752306749E+001, +1.72924843449E+002
+7.10475594493E+006, +9.89636719364E+001, +1.78169128992E+002
+7.32365456821E+006, +9.91533460293E+001, +1.83971432229E+002
+7.54255319149E+006, +9.95525764764E+001, +1.89181121049E+002
+7.76145181477E+006, +9.99686380998E+001, +1.95261055456E+002
+7.98035043805E+006, +1.00057540663E+002, +2.00873304366E+002
+8.19924906133E+006, +1.00026380891E+002, +2.06458491924E+002
+8.41814768461E+006, +1.00564204820E+002, +2.12391505706E+002
+8.63704630788E+006, +1.00760021258E+002, +2.18043552120E+002
+8.85594493116E+006, +1.00834178832E+002, +2.23865706792E+002
+9.07484355444E+006, +1.01078145675E+002, +2.29646679407E+002
+9.29374217772E+006, +1.01234033182E+002, +2.35622423561E+002
+9.51264080100E+006, +1.01692162307E+002, +2.41241959760E+002
+9.73153942428E+006, +1.02263198673E+002, +2.47701547754E+002
+9.95043804756E+006, +1.02041414250E+002, +2.53102499286E+002
+1.01693366708E+007, +1.02958797663E+002, +2.58892227673E+002
+1.03882352941E+007, +1.02781406850E+002, +2.64601173040E+002
+1.06071339174E+007, +1.02795562131E+002, +2.70420598262E+002
+1.08260325407E+007, +1.03192756473E+002, +2.76789028517E+002
+1.10449311640E+007, +1.03373341828E+002, +2.82550104098E+002
+1.12638297872E+007, +1.04051872917E+002, +2.89487050123E+002
+1.14827284105E+007, +1.04607438779E+002, +2.94793490352E+002
+1.17016270338E+007, +1.05179239381E+002, +3.00798039982E+002
+1.19205256571E+007, +1.04917728201E+002, +3.07058663718E+002
+1.21394242804E+007, +1.05183170452E+002, +3.12645199307E+002
+1.23583229036E+007, +1.06174557794E+002, +3.19207859365E+002
+1.25772215269E+007, +1.06142545798E+002, +3.25776169187E+002
+1.27961201502E+007, +1.06192713703E+002, +3.31575652301E+002
+1.30150187735E+007, +1.06885386481E+002, +3.38052606165E+002
+1.32339173967E+007, +1.07071063538E+002, +3.44313707719E+002
+1.34528160200E+007, +1.07332346062E+002, +3.50614699105E+002
+1.36717146433E+007, +1.07380490494E+002, +3.56897810559E+002
+1.38906132666E+007, +1.09406300621E+002, +3.63387568937E+002
+1.41095118899E+007, +1.09359939674E+002, +3.70911563041E+002
+1.43284105131E+007, +1.08757850217E+002, +3.76639269063E+002
+1.45473091364E+007, +1.10310569283E+002, +3.83510624037E+002
+1.47662077597E+007, +1.10380764768E+002, +3.89078539462E+002
+1.49851063830E+007, +1.11002888779E+002, +3.96224671628E+002
+1.52040050063E+007, +1.12192755138E+002, +4.03048022136E+002
+1.54229036295E+007, +1.12798637769E+002, +4.09662021036E+002
+1.56418022528E+007, +1.12043461736E+002, +4.16413761248E+002
+1.58607008761E+007, +1.13010453567E+002, +4.22837323805E+002
+1.60795994994E+007, +1.13723614056E+002, +4.31307300767E+002
+1.62984981227E+007, +1.14972143902E+002, +4.37226106362E+002
+1.65173967459E+007, +1.15215371709E+002, +4.45382715674E+002
+1.67362953692E+007, +1.15265383433E+002, +4.51726067357E+002
+1.69551939925E+007, +1.15660575738E+002, +4.57086795216E+002
+1.71740926158E+007, +1.14515475722E+002, +4.66833749636E+002
+1.73929912390E+007, +1.15433155699E+002, +4.72591325365E+002
+1.76118898623E+007, +1.16256659808E+002, +4.78758332848E+002
+1.78307884856E+007, +1.18327508898E+002, +4.85444597992E+002
+1.80496871089E+007, +1.17715947063E+002, +4.92873568088E+002
+1.82685857322E+007, +1.19830814370E+002, +5.02736952768E+002
+1.84874843554E+007, +1.20815746148E+002, +5.09346230673E+002
+1.87063829787E+007, +1.20116577622E+002, +5.16140757521E+002
+1.89252816020E+007, +1.22085407447E+002, +5.24191517586E+002
+1.91441802253E+007, +1.21407544148E+002, +5.29021183212E+002
+1.93630788486E+007, +1.21556107706E+002, +5.38537211154E+002
+1.95819774718E+007, +1.25256295128E+002, +5.46906980015E+002
+1.98008760951E+007, +1.25994200083E+002, +5.55047877219E+002
+2.00197747184E+007, +1.24626081679E+002, +5.62201658155E+002
+2.02386733417E+007, +1.26339516546E+002, +5.68746143271E+002
+2.04575719650E+007, +1.25727508565E+002, +5.76515167320E+002
+2.06764705882E+007, +1.27920133199E+002, +5.87913924858E+002
+2.08953692115E+007, +1.29620535287E+002, +5.95045355372E+002
+2.11142678348E+007, +1.31145717815E+002, +6.01532890553E+002
+2.13331664581E+007, +1.33545332633E+002, +6.10817305976E+002
+2.15520650814E+007, +1.32411598155E+002, +6.17938869957E+002
+2.17709637046E+007, +1.33554427529E+002, +6.26990170854E+002
+2.19898623279E+007, +1.36036562817E+002, +6.33924770033E+002
+2.22087609512E+007, +1.33876034355E+002, +6.42381802381E+002
+2.24276595745E+007, +1.41608189304E+002, +6.53691407390E+002
+2.26465581977E+007, +1.40703695215E+002, +6.59429766007E+002
+2.28654568210E+007, +1.41033584028E+002, +6.70062369910E+002
+2.30843554443E+007, +1.40677179097E+002, +6.79205036094E+002
+2.33032540676E+007, +1.45081972356E+002, +6.87963151680E+002
+2.35221526909E+007, +1.45736145257E+002, +6.95530091152E+002
+2.37410513141E+007, +1.45321457660E+002, +7.04431182035E+002
+2.39599499374E+007, +1.47442493401E+002, +7.16174409127E+002
+2.41788485607E+007, +1.49158732160E+002, +7.20515332274E+002
+2.43977471840E+007, +1.50071606887E+002, +7.30654933960E+002
+2.46166458073E+007, +1.52263268956E+002, +7.41759878544E+002
+2.48355444305E+007, +1.54762674061E+002, +7.51804791203E+002
+2.50544430538E+007, +1.56016047871E+002, +7.59751028843E+002
+2.52733416771E+007, +1.62077088762E+002, +7.69157815278E+002
+2.54922403004E+007, +1.57389810960E+002, +7.81924595990E+002
+2.57111389237E+007, +1.62547126423E+002, +7.92094275388E+002
+2.59300375469E+007, +1.58381608799E+002, +7.98615315940E+002
+2.61489361702E+007, +1.62752465854E+002, +8.09662667918E+002
+2.63678347935E+007, +1.62755066122E+002, +8.22001087420E+002
+2.65867334168E+007, +1.67697418699E+002, +8.30639120613E+002
+2.68056320401E+007, +1.67337045617E+002, +8.39949731935E+002
+2.70245306633E+007, +1.68092549015E+002, +8.51591985081E+002
+2.72434292866E+007, +1.69835577641E+002, +8.58971233357E+002
+2.74623279099E+007, +1.69804005351E+002, +8.74559769596E+002
+2.76812265332E+007, +1.70377620781E+002, +8.85949213398E+002
+2.79001251564E+007, +1.74871020654E+002, +8.95613290773E+002
+2.81190237797E+007, +1.78466081931E+002, +9.07365971625E+002
+2.83379224030E+007, +1.80200763226E+002, +9.16942715279E+002
+2.85568210263E+007, +1.77274217088E+002, +9.27002029357E+002
+2.87757196496E+007, +1.77937140330E+002, +9.48111110792E+002
+2.89946182728E+007, +1.81161109910E+002, +9.57880193907E+002
+2.92135168961E+007, +1.83217770741E+002, +9.73893847233E+002
+2.94324155194E+007, +1.85438416544E+002, +9.86649138142E+002
+2.96513141427E+007, +1.89243409074E+002, +1.00082638696E+003
+2.98702127660E+007, +1.87516509038E+002, +1.01220348547E+003
+3.00891113892E+007, +1.86573931581E+002, +1.02311277875E+003
+3.03080100125E+007, +1.96489762861E+002, +1.03533825273E+003
+3.05269086358E+007, +2.03447037300E+002, +1.04701657901E+003
+3.07458072591E+007, +2.05261874022E+002, +1.05882009754E+003
+3.09647058824E+007, +2.03372526689E+002, +1.07380571568E+003
+3.11836045056E+007, +2.07402544319E+002, +1.08987435726E+003
+3.14025031289E+007, +2.06342569165E+002, +1.10426427467E+003
+3.16214017522E+007, +2.13641937555E+002, +1.12382806163E+003
+3.18403003755E+007, +2.14148876420E+002, +1.13660228963E+003
+3.20591989987E+007, +2.17349625729E+002, +1.15387087630E+003
+3.22780976220E+007, +2.21110468860E+002, +1.16657701729E+003
+3.24969962453E+007, +2.26652155439E+002, +1.19246306363E+003
+3.27158948686E+007, +2.23536022168E+002, +1.19586593115E+003
+3.29347934919E+007, +2.23050033899E+002, +1.21706291513E+003
+3.31536921151E+007, +2.25372566551E+002, +1.22713516761E+003
+3.33725907384E+007, +2.35401251045E+002, +1.24987674572E+003
+3.35914893617E+007, +2.37571034295E+002, +1.27276110858E+003
+3.38103879850E+007, +2.42764527337E+002, +1.28531746890E+003
+3.40292866083E+007, +2.44253438724E+002, +1.30757016697E+003
+3.42481852315E+007, +2.58251458209E+002, +1.32261315608E+003
+3.44670838548E+007, +2.54251728984E+002, +1.34818694980E+003
+3.46859824781E+007, +2.64681706575E+002, +1.36220436791E+003
+3.49048811014E+007, +2.78825011265E+002, +1.38312723656E+003
+3.51237797247E+007, +2.70828605371E+002, +1.39634279411E+003
+3.53426783479E+007, +2.82586665395E+002, +1.42100059000E+003
+3.55615769712E+007, +2.91312260092E+002, +1.44441364537E+003
+3.57804755945E+007, +2.98037225239E+002, +1.45892709044E+003
+3.59993742178E+007, +2.88450768911E+002, +1.49949094024E+003
+3.62182728411E+007, +2.99819428743E+002, +1.50058217945E+003
+3.64371714643E+007, +2.99154076403E+002, +1.52132582467E+003
+3.66560700876E+007, +3.15241187147E+002, +1.55255301734E+003
+3.68749687109E+007, +3.16163408752E+002, +1.58985220197E+003
+3.70938673342E+007, +3.31664677681E+002, +1.60743760893E+003
+3.73127659574E+007, +3.29226676966E+002, +1.63523458571E+003
+3.75316645807E+007, +3.26496232792E+002, +1.65303320765E+003
+3.77505632040E+007, +3.48506673490E+002, +1.69040094917E+003
+3.79694618273E+007, +3.64855192541E+002, +1.70553257938E+003
+3.81883604506E+007, +3.53726369942E+002, +1.73728141858E+003
+3.84072590738E+007, +3.68460234067E+002, +1.76498557988E+003
+3.86261576971E+007, +3.76438393648E+002, +1.79640721357E+003
+3.88450563204E+007, +3.83669679178E+002, +1.83030614400E+003
+3.90639549437E+007, +4.04096805013E+002, +1.83581645572E+003
+3.92828535670E+007, +3.97247481480E+002, +1.90525660751E+003
+3.95017521902E+007, +4.27981634078E+002, +1.91317225249E+003
+3.97206508135E+007, +4.44008387525E+002, +1.97513786224E+003
+3.99395494368E+007, +4.49955086457E+002, +1.98929587470E+003
+4.01584480601E+007, +4.85668073194E+002, +2.03135672321E+003
+4.03773466834E+007, +4.95576395702E+002, +2.08140488772E+003
+4.05962453066E+007, +5.00733812495E+002, +2.12586650782E+003
+4.08151439299E+007, +5.23227165957E+002, +2.12696854278E+003
+4.10340425532E+007, +5.02173805952E+002, +2.17693651770E+003
+4.12529411765E+007, +5.19152871849E+002, +2.20513013045E+003
+4.14718397997E+007, +5.47504284580E+002, +2.26467831744E+003
+4.16907384230E+007, +5.52184357326E+002, +2.31649429965E+003
+4.19096370463E+007, +5.84783345049E+002, +2.37592019044E+003
+4.21285356696E+007, +6.28453230482E+002, +2.41211390018E+003
+4.23474342929E+007, +6.14034386926E+002, +2.46756532382E+003
+4.25663329161E+007, +6.52387155271E+002, +2.48248363526E+003
+4.27852315394E+007, +6.71090582799E+002, +2.57457389281E+003
+4.30041301627E+007, +7.17993703116E+002, +2.62978414055E+003
+4.32230287860E+007, +7.72428533866E+002, +2.68049157238E+003
+4.34419274093E+007, +7.61914232640E+002, +2.75945839030E+003
+4.36608260325E+007, +8.06054380819E+002, +2.78493194261E+003
+4.38797246558E+007, +8.22033487247E+002, +2.85203429269E+003
+4.40986232791E+007, +8.78680348180E+002, +2.93003987447E+003
+4.43175219024E+007, +8.95022594657E+002, +3.00404736321E+003
+4.45364205257E+007, +9.81338839807E+002, +3.09381899822E+003
+4.47553191489E+007, +1.05858058719E+003, +3.14837814282E+003
+4.49742177722E+007, +1.00899036588E+003, +3.23631876530E+003
+4.51931163955E+007, +1.13783921502E+003, +3.28558293309E+003
+4.54120150188E+007, +1.11220130285E+003, +3.32510720452E+003
+4.56309136421E+007, +1.23586166710E+003, +3.46603889482E+003
+4.58498122653E+007, +1.27669064847E+003, +3.50657548876E+003
+4.60687108886E+007, +1.30923107882E+003, +3.65175291264E+003
+4.62876095119E+007, +1.43694205105E+003, +3.76092028407E+003
+4.65065081352E+007, +1.60860265114E+003, +3.81195884897E+003
+4.67254067584E+007, +1.58350715443E+003, +3.87283207600E+003
+4.69443053817E+007, +1.66226736947E+003, +3.97676054268E+003
+4.71632040050E+007, +1.76260017968E+003, +4.16899534026E+003
+4.73821026283E+007, +1.81177084170E+003, +4.22849967956E+003
+4.76010012516E+007, +2.09247723997E+003, +4.36618419454E+003
+4.78198998748E+007, +2.22741652740E+003, +4.60536960806E+003
+4.80387984981E+007, +2.44046633339E+003, +4.61860435287E+003
+4.82576971214E+007, +2.57467910764E+003, +4.78941914640E+003
+4.84765957447E+007, +2.66342913438E+003, +4.90598945422E+003
+4.86954943680E+007, +2.89286411718E+003, +5.14669553775E+003
+4.89143929912E+007, +3.30601646158E+003, +5.28906998492E+003
+4.91332916145E+007, +3.57256540945E+003, +5.47103705521E+003
+4.93521902378E+007, +3.72532665732E+003, +5.41816208006E+003
+4.95710888611E+007, +4.14461344358E+003, +5.33596531414E+003
+4.97899874844E+007, +4.39356291095E+003, +5.45840197091E+003
+5.00088861076E+007, +4.72058391929E+003, +5.73865397812E+003
+5.02277847309E+007, +5.15301424933E+003, +5.77157704606E+003
+5.04466833542E+007, +6.01259631147E+003, +5.60072000526E+003
+5.06655819775E+007, +6.37077624072E+003, +5.78738825982E+003
+5.08844806008E+007, +6.89737151758E+003, +5.64278880799E+003
+5.11033792240E+007, +8.01882758002E+003, +5.60483207780E+003
+5.13222778473E+007, +8.54778262707E+003, +5.31023932846E+003
+5.15411764706E+007, +8.90320593823E+003, +5.17609793263E+003
+5.17600750939E+007, +9.76011413292E+003, +4.45314932884E+003
+5.19789737171E+007, +1.02851277220E+004, +3.77459935186E+003
+5.21978723404E+007, +1.11655938967E+004, +3.21406261084E+003
+5.24167709637E+007, +1.20638753661E+004, +2.55006132131E+003
+5.26356695870E+007, +1.12442534986E+004, +1.53900278900E+003
+5.28545682103E+007, +1.15600452141E+004, -3.57280189463E+002
+5.30734668335E+007, +1.20495581824E+004, -9.71453559054E+002
+5.32923654568E+007, +1.14882705484E+004, -2.04846555714E+003
+5.35112640801E+007, +1.10444137235E+004, -2.84127947383E+003
+5.37301627034E+007, +1.06657577859E+004, -4.79682930136E+003
+5.39490613267E+007, +9.40583468184E+003, -4.89611192711E+003
+5.41679599499E+007, +9.12793924294E+003, -5.13162445221E+003
+5.43868585732E+007, +8.03263111118E+003, -5.42998051323E+003
+5.46057571965E+007, +7.73023237592E+003, -5.62219250503E+003
+5.48246558198E+007, +6.98804595248E+003, -5.72607001582E+003
+5.50435544431E+007, +6.10613628980E+003, -5.65995820624E+003
+5.52624530663E+007, +5.53825708322E+003, -6.04926914348E+003
+5.54813516896E+007, +5.45471244375E+003, -5.68347885659E+003
+5.57002503129E+007, +4.89242497345E+003, -5.29530569510E+003
+5.59191489362E+007, +4.67431114837E+003, -5.45062390415E+003
+5.61380475594E+007, +4.06580025476E+003, -5.23461949997E+003
+5.63569461827E+007, +3.69882525639E+003, -5.21945264526E+003
+5.65758448060E+007, +3.53378329211E+003, -5.14528229568E+003
+5.67947434293E+007, +3.27012604238E+003, -4.91882720657E+003
+5.70136420526E+007, +2.97559222811E+003, -4.75578988048E+003
+5.72325406758E+007, +2.78130513324E+003, -4.81889191666E+003
+5.74514392991E+007, +2.54274950747E+003, -4.57357755260E+003
+5.76703379224E+007, +2.49214456493E+003, -4.41426074422E+003
+5.78892365457E+007, +2.17234079115E+003, -4.42197232067E+003
+5.81081351690E+007, +2.13441334202E+003, -4.16116399112E+003
+5.83270337922E+007, +2.03432617672E+003, -4.19458786179E+003
+5.85459324155E+007, +1.96138097984E+003, -3.99719805134E+003
+5.87648310388E+007, +1.80971457194E+003, -3.93937747263E+003
+5.89837296621E+007, +1.69669116853E+003, -3.78474362472E+003
+5.92026282854E+007, +1.67682790304E+003, -3.69831837679E+003
+5.94215269086E+007, +1.57107407816E+003, -3.54616570699E+003
+5.96404255319E+007, +1.42493499944E+003, -3.52576570235E+003
+5.98593241552E+007, +1.40077573677E+003, -3.42822018316E+003
+6.00782227785E+007, +1.31712310016E+003, -3.31058861651E+003
+6.02971214018E+007, +1.29035970943E+003, -3.27716453678E+003
+6.05160200250E+007, +1.24012861692E+003, -3.19745428742E+003
+6.07349186483E+007, +1.20540003014E+003, -3.13752905410E+003
+6.09538172716E+007, +1.06527143918E+003, -3.04890520201E+003
+6.11727158949E+007, +1.06996421377E+003, -2.93594780563E+003
+6.13916145181E+007, +1.03294105564E+003, -2.90193192132E+003
+6.16105131414E+007, +9.61870419797E+002, -2.85279033125E+003
+6.18294117647E+007, +9.89863926270E+002, -2.80908600960E+003
+6.20483103880E+007, +9.13219742371E+002, -2.76048541263E+003
+6.22672090113E+007, +8.77814184706E+002, -2.67926542455E+003
+6.24861076345E+007, +8.40380884335E+002, -2.62911028615E+003
+6.27050062578E+007, +8.49464744862E+002, -2.55031339590E+003
+6.29239048811E+007, +7.64258007591E+002, -2.54646286752E+003
+6.31428035044E+007, +7.30338441735E+002, -2.49343237220E+003
+6.33617021277E+007, +7.18593540704E+002, -2.42584966919E+003
+6.35806007509E+007, +6.99715193716E+002, -2.39313444889E+003
+6.37994993742E+007, +6.81167567920E+002, -2.33365435688E+003
+6.40183979975E+007, +6.64504214894E+002, -2.28673808909E+003
+6.42372966208E+007, +6.40730432419E+002, -2.24645337255E+003
+6.44561952441E+007, +6.20449206462E+002, -2.19878331377E+003
+6.46750938673E+007, +5.91358700840E+002, -2.14139974114E+003
+6.48939924906E+007, +5.90499927666E+002, -2.10522806721E+003
+6.51128911139E+007, +5.57549615359E+002, -2.05219850605E+003
+6.53317897372E+007, +5.64399775911E+002, -2.01972551667E+003
+6.55506883605E+007, +5.42140808413E+002, -1.99199836584E+003
+6.57695869837E+007, +5.25824553984E+002, -1.95558019480E+003
+6.59884856070E+007, +5.15291953323E+002, -1.91888929302E+003
+6.62073842303E+007, +5.00715294641E+002, -1.87836397373E+003
+6.64262828536E+007, +4.96425658026E+002, -1.85517909464E+003
+6.66451814768E+007, +4.85129482459E+002, -1.82987934570E+003
+6.68640801001E+007, +4.62928233224E+002, -1.79062664948E+003
+6.70829787234E+007, +4.56240612661E+002, -1.74833927932E+003
+6.73018773467E+007, +4.67979993682E+002, -1.73471913699E+003
+6.75207759700E+007, +4.58043238566E+002, -1.68677749377E+003
+6.77396745932E+007, +4.47940106674E+002, -1.67618758136E+003
+6.79585732165E+007, +4.36462096590E+002, -1.64393988194E+003
+6.81774718398E+007, +4.23418140694E+002, -1.62050865207E+003
+6.83963704631E+007, +4.24058676280E+002, -1.59544328682E+003
+6.86152690864E+007, +4.33169159839E+002, -1.56812381113E+003
+6.88341677096E+007, +4.12555957203E+002, -1.54736892505E+003
+6.90530663329E+007, +4.07464381598E+002, -1.52822533011E+003
+6.92719649562E+007, +4.03786035867E+002, -1.49247899649E+003
+6.94908635795E+007, +3.94674730774E+002, -1.46829107555E+003
+6.97097622028E+007, +3.89983284720E+002, -1.45627383778E+003
+6.99286608260E+007, +3.84490776306E+002, -1.42834076665E+003
+7.01475594493E+007, +3.78483426125E+002, -1.41050608716E+003
