"# Channel 1"
"# Trace 1"
Frequency, Formatted Data, Formatted Data
+1.00000000000E+005, +2.93365247993E+001, +2.20264814708E+000
+2.66777963272E+005, +2.93046251532E+001, +6.16585076083E+000
+4.33555926544E+005, +2.92798313955E+001, +1.00383113298E+001
+6.00333889816E+005, +2.92974027884E+001, +1.38592828903E+001
+7.67111853088E+005, +2.93195228255E+001, +1.77190347849E+001
+9.33889816361E+005, +2.93047771803E+001, +2.15348009869E+001
+1.10066777963E+006, +2.93112634703E+001, +2.55208333145E+001
+1.26744574290E+006, +2.93229758270E+001, +2.92743298236E+001
+1.43422370618E+006, +2.92824966745E+001, +3.32607128858E+001
+1.60100166945E+006, +2.93251526056E+001, +3.70146923744E+001
+1.76777963272E+006, +2.93437401318E+001, +4.08907769875E+001
+1.93455759599E+006, +2.92864473173E+001, +4.46828337658E+001
+2.10133555927E+006, +2.93020030357E+001, +4.85349516839E+001
+2.26811352254E+006, +2.93465900019E+001, +5.23817772726E+001
+2.43489148581E+006, +2.93758767442E+001, +5.63891926416E+001
+2.60166944908E+006, +2.93576055776E+001, +6.01318573057E+001
+2.76844741235E+006, +2.93644746231E+001, +6.40710043848E+001
+2.93522537563E+006, +2.93520007853E+001, +6.79941276898E+001
+3.10200333890E+006, +2.94390840167E+001, +7.16899725428E+001
+3.26878130217E+006, +2.93162339292E+001, +7.57861718173E+001
+3.43555926544E+006, +2.93863407072E+001, +7.96472692232E+001
+3.60233722871E+006, +2.94724033500E+001, +8.34462746226E+001
+3.76911519199E+006, +2.94615804040E+001, +8.75779811313E+001
+3.93589315526E+006, +2.93705677047E+001, +9.13077457091E+001
+4.10267111853E+006, +2.94235864217E+001, +9.54031989856E+001
+4.26944908180E+006, +2.95248321140E+001, +9.93504464921E+001
+4.43622704508E+006, +2.94956289504E+001, +1.03033354368E+002
+4.60300500835E+006, +2.95927723525E+001, +1.07150427876E+002
+4.76978297162E+006, +2.94808303628E+001, +1.10894671763E+002
+4.93656093489E+006, +2.97804318155E+001, +1.14959033004E+002
+5.10333889816E+006, +2.97232254016E+001, +1.18846970939E+002
+5.27011686144E+006, +2.99663693273E+001, +1.22993094891E+002
+5.43689482471E+006, +2.98048793363E+001, +1.26868722896E+002
+5.60367278798E+006, +3.00700674520E+001, +1.31108319666E+002
+5.77045075125E+006, +2.99423981669E+001, +1.34801995048E+002
+5.93722871452E+006, +3.00586234901E+001, +1.38632644112E+002
+6.10400667780E+006, +3.00468932880E+001, +1.43041502564E+002
+6.27078464107E+006, +3.03192798910E+001, +1.46773773776E+002
+6.43756260434E+006, +3.04132832224E+001, +1.50824579194E+002
+6.60434056761E+006, +3.04016773579E+001, +1.54730329135E+002
+6.77111853088E+006, +3.07309332083E+001, +1.58694421272E+002
+6.93789649416E+006, +3.06452053443E+001, +1.62744142552E+002
+7.10467445743E+006, +3.06245788177E+001, +1.66794424974E+002
+7.27145242070E+006, +3.08070091129E+001, +1.70788203174E+002
+7.43823038397E+006, +3.07912847977E+001, +1.74581677038E+002
+7.60500834725E+006, +3.07534961026E+001, +1.78869284917E+002
+7.77178631052E+006, +3.09295492036E+001, +1.82999760201E+002
+7.93856427379E+006, +3.09802497941E+001, +1.86924611364E+002
+8.10534223706E+006, +3.09996711634E+001, +1.91054299395E+002
+8.27212020033E+006, +3.09914716673E+001, +1.95276222784E+002
+8.43889816361E+006, +3.09420708767E+001, +1.99471007683E+002
+8.60567612688E+006, +3.08463282972E+001, +2.03626119486E+002
+8.77245409015E+006, +3.10031113595E+001, +2.07393176222E+002
+8.93923205342E+006, +3.10990144426E+001, +2.11877507457E+002
+9.10601001669E+006, +3.11589846226E+001, +2.16265443660E+002
+9.27278797997E+006, +3.14461791533E+001, +2.20459305052E+002
+9.43956594324E+006, +3.12750667676E+001, +2.24783446474E+002
+9.60634390651E+006, +3.11470162491E+001, +2.28886706335E+002
+9.77312186978E+006, +3.11857638144E+001, +2.33189970688E+002
+9.93989983306E+006, +3.14845726998E+001, +2.37418629550E+002
+1.01066777963E+007, +3.12182663974E+001, +2.41748479609E+002
+1.02734557596E+007, +3.12082949226E+001, +2.46300364459E+002
+1.04402337229E+007, +3.15400042976E+001, +2.50356012872E+002
+1.06070116861E+007, +3.11979111251E+001, +2.54829983064E+002
+1.07737896494E+007, +3.14666134776E+001, +2.59267313081E+002
+1.09405676127E+007, +3.17996922367E+001, +2.63411617429E+002
+1.11073455760E+007, +3.18516968110E+001, +2.68101738938E+002
+1.12741235392E+007, +3.17011293206E+001, +2.72560055942E+002
+1.14409015025E+007, +3.20806473584E+001, +2.77004425877E+002
+1.16076794658E+007, +3.22895883665E+001, +2.81072635072E+002
+1.17744574290E+007, +3.23067246449E+001, +2.85968186102E+002
+1.19412353923E+007, +3.23317468696E+001, +2.90138906128E+002
+1.21080133556E+007, +3.19072021703E+001, +2.95242056647E+002
+1.22747913189E+007, +3.28179947202E+001, +2.99408650322E+002
+1.24415692821E+007, +3.22442423592E+001, +3.04040942430E+002
+1.26083472454E+007, +3.26453348074E+001, +3.08840279828E+002
+1.27751252087E+007, +3.26326735487E+001, +3.13501922951E+002
+1.29419031720E+007, +3.23334843399E+001, +3.18005889245E+002
+1.31086811352E+007, +3.30293199781E+001, +3.22747526734E+002
+1.32754590985E+007, +3.28747321344E+001, +3.27282231500E+002
+1.34422370618E+007, +3.31091758203E+001, +3.32103930593E+002
+1.36090150250E+007, +3.34866996873E+001, +3.37104998842E+002
+1.37757929883E+007, +3.33627651142E+001, +3.41551214670E+002
+1.39425709516E+007, +3.42368723865E+001, +3.46240806193E+002
+1.41093489149E+007, +3.40093259713E+001, +3.50620498890E+002
+1.42761268781E+007, +3.38132996059E+001, +3.56067342914E+002
+1.44429048414E+007, +3.42146097235E+001, +3.59937002292E+002
+1.46096828047E+007, +3.37382309098E+001, +3.65192354153E+002
+1.47764607679E+007, +3.40765424006E+001, +3.69866824784E+002
+1.49432387312E+007, +3.41746057425E+001, +3.75431828023E+002
+1.51100166945E+007, +3.42615382189E+001, +3.80183791025E+002
+1.52767946578E+007, +3.50822688014E+001, +3.84884496889E+002
+1.54435726210E+007, +3.46950454882E+001, +3.89741298127E+002
+1.56103505843E+007, +3.51385151927E+001, +3.94726112988E+002
+1.57771285476E+007, +3.53690334979E+001, +3.99670745675E+002
+1.59439065109E+007, +3.54492410671E+001, +4.05294632739E+002
+1.61106844741E+007, +3.58733135596E+001, +4.10863103366E+002
+1.62774624374E+007, +3.63507659355E+001, +4.15496585007E+002
+1.64442404007E+007, +3.54608419499E+001, +4.20472210721E+002
+1.66110183639E+007, +3.61934120357E+001, +4.25964826007E+002
+1.67777963272E+007, +3.73785436213E+001, +4.31692498815E+002
+1.69445742905E+007, +3.70917751877E+001, +4.36308306996E+002
+1.71113522538E+007, +3.50796494345E+001, +4.40943493674E+002
+1.72781302170E+007, +3.64675509453E+001, +4.47621104455E+002
+1.74449081803E+007, +3.57112038614E+001, +4.52454392502E+002
+1.76116861436E+007, +3.64714096200E+001, +4.59231625790E+002
+1.77784641068E+007, +3.67936867804E+001, +4.62946753332E+002
+1.79452420701E+007, +3.70951967642E+001, +4.68957697755E+002
+1.81120200334E+007, +3.78318627926E+001, +4.72642981509E+002
+1.82787979967E+007, +3.88559689784E+001, +4.80282809046E+002
+1.84455759599E+007, +3.78994810127E+001, +4.85369823401E+002
+1.86123539232E+007, +3.92581936070E+001, +4.91561877021E+002
+1.87791318865E+007, +3.92363216618E+001, +4.97791138610E+002
+1.89459098497E+007, +3.91121115821E+001, +5.03344930642E+002
+1.91126878130E+007, +4.12249291084E+001, +5.08780531505E+002
+1.92794657763E+007, +4.05838091430E+001, +5.13848542449E+002
+1.94462437396E+007, +4.12690443900E+001, +5.21293649486E+002
+1.96130217028E+007, +4.10963978238E+001, +5.26784964800E+002
+1.97797996661E+007, +4.07934972842E+001, +5.30565751595E+002
+1.99465776294E+007, +4.00875452916E+001, +5.37356613691E+002
+2.01133555927E+007, +4.06068067849E+001, +5.43931388219E+002
+2.02801335559E+007, +4.12262103165E+001, +5.50978633088E+002
+2.04469115192E+007, +4.28000726038E+001, +5.56757796957E+002
+2.06136894825E+007, +4.36059882963E+001, +5.63225338961E+002
+2.07804674457E+007, +4.31862339332E+001, +5.69811229234E+002
+2.09472454090E+007, +4.31510982751E+001, +5.77633487664E+002
+2.11140233723E+007, +4.44144180568E+001, +5.82483184210E+002
+2.12808013356E+007, +4.45494779645E+001, +5.88042222397E+002
+2.14475792988E+007, +4.52450647284E+001, +5.96283045892E+002
+2.16143572621E+007, +4.59578740487E+001, +6.01251237915E+002
+2.17811352254E+007, +4.58695216056E+001, +6.07449997206E+002
+2.19479131886E+007, +4.81784003786E+001, +6.14834864237E+002
+2.21146911519E+007, +4.72462994474E+001, +6.19450134527E+002
+2.22814691152E+007, +4.83617933264E+001, +6.27744441901E+002
+2.24482470785E+007, +4.92213011382E+001, +6.35312500116E+002
+2.26150250417E+007, +5.13763709357E+001, +6.42772899651E+002
+2.27818030050E+007, +5.08420004784E+001, +6.49522368166E+002
+2.29485809683E+007, +5.35703808978E+001, +6.56529412078E+002
+2.31153589316E+007, +5.19852413791E+001, +6.62627690333E+002
+2.32821368948E+007, +5.60715055172E+001, +6.70598202027E+002
+2.34489148581E+007, +5.42428994339E+001, +6.77119766164E+002
+2.36156928214E+007, +5.58375123751E+001, +6.84181934071E+002
+2.37824707846E+007, +5.32659290510E+001, +6.92641153423E+002
+2.39492487479E+007, +5.43957091255E+001, +6.96467480608E+002
+2.41160267112E+007, +5.76577305265E+001, +7.04957273765E+002
+2.42828046745E+007, +5.71768441730E+001, +7.14016903469E+002
+2.44495826377E+007, +6.09330400274E+001, +7.22245534293E+002
+2.46163606010E+007, +5.89939314020E+001, +7.29692668154E+002
+2.47831385643E+007, +5.86797433082E+001, +7.35765528330E+002
+2.49499165275E+007, +6.43409712232E+001, +7.41979545128E+002
+2.51166944908E+007, +6.56096201663E+001, +7.49963443574E+002
+2.52834724541E+007, +6.27962031588E+001, +7.57913230310E+002
+2.54502504174E+007, +6.48483908369E+001, +7.67194848579E+002
+2.56170283806E+007, +6.38056380278E+001, +7.72667887883E+002
+2.57838063439E+007, +6.73950403333E+001, +7.83714766253E+002
+2.59505843072E+007, +6.86855224944E+001, +7.95669665413E+002
+2.61173622705E+007, +6.88775596178E+001, +8.03004896627E+002
+2.62841402337E+007, +7.00112588667E+001, +8.09422752464E+002
+2.64509181970E+007, +6.78302072796E+001, +8.16110263576E+002
+2.66176961603E+007, +7.05193288416E+001, +8.28109169600E+002
+2.67844741235E+007, +7.17044832696E+001, +8.35670372224E+002
+2.69512520868E+007, +7.16672568873E+001, +8.47437925789E+002
+2.71180300501E+007, +7.23428699207E+001, +8.48726685336E+002
+2.72848080134E+007, +7.57694173943E+001, +8.60981445427E+002
+2.74515859766E+007, +7.59311079808E+001, +8.70514495935E+002
+2.76183639399E+007, +7.50178595040E+001, +8.77454470765E+002
+2.77851419032E+007, +7.72295744789E+001, +8.89934916440E+002
+2.79519198664E+007, +8.24558682679E+001, +8.98715329699E+002
+2.81186978297E+007, +8.08634327928E+001, +9.05063364994E+002
+2.82854757930E+007, +8.41619060807E+001, +9.14433000563E+002
+2.84522537563E+007, +8.00937438544E+001, +9.25386205022E+002
+2.86190317195E+007, +7.91835801752E+001, +9.30602111023E+002
+2.87858096828E+007, +8.95471095849E+001, +9.46184198379E+002
+2.89525876461E+007, +8.76895377425E+001, +9.55000988301E+002
+2.91193656093E+007, +8.78747240050E+001, +9.63299586448E+002
+2.92861435726E+007, +8.61603340512E+001, +9.74081915921E+002
+2.94529215359E+007, +9.18863503462E+001, +9.86568344888E+002
+2.96196994992E+007, +9.52171455981E+001, +9.96164187013E+002
+2.97864774624E+007, +9.55914479428E+001, +1.00892483583E+003
+2.99532554257E+007, +9.61577876279E+001, +1.02137012733E+003
+3.01200333890E+007, +9.25822876101E+001, +1.03372382541E+003
+3.02868113523E+007, +9.55079935715E+001, +1.04337071589E+003
+3.04535893155E+007, +1.00851907708E+002, +1.06007837588E+003
+3.06203672788E+007, +1.01721645223E+002, +1.06890601912E+003
+3.07871452421E+007, +1.04983591082E+002, +1.08335350622E+003
+3.09539232053E+007, +1.03421048484E+002, +1.08963112030E+003
+3.11207011686E+007, +1.01310792341E+002, +1.10586791206E+003
+3.12874791319E+007, +1.06829550443E+002, +1.11389518605E+003
+3.14542570952E+007, +1.08186987733E+002, +1.12523854336E+003
+3.16210350584E+007, +1.02046165851E+002, +1.13899805700E+003
+3.17878130217E+007, +1.09775358457E+002, +1.15612210645E+003
+3.19545909850E+007, +1.11186038865E+002, +1.16777346836E+003
+3.21213689482E+007, +1.08054753373E+002, +1.18378382657E+003
+3.22881469115E+007, +1.07867992993E+002, +1.19494607926E+003
+3.24549248748E+007, +1.13096805136E+002, +1.21482521743E+003
+3.26217028381E+007, +1.16585065014E+002, +1.22807277134E+003
+3.27884808013E+007, +1.21205523765E+002, +1.23305095264E+003
+3.29552587646E+007, +1.25809873580E+002, +1.25198767132E+003
+3.31220367279E+007, +1.24425341404E+002, +1.26406172065E+003
+3.32888146912E+007, +1.23712872466E+002, +1.29082505980E+003
+3.34555926544E+007, +1.16545051435E+002, +1.30298711762E+003
+3.36223706177E+007, +1.30350619509E+002, +1.31872287893E+003
+3.37891485810E+007, +1.25459310060E+002, +1.32629567883E+003
+3.39559265442E+007, +1.32074065749E+002, +1.35921048190E+003
+3.41227045075E+007, +1.27985149852E+002, +1.36193718107E+003
+3.42894824708E+007, +1.27813855093E+002, +1.38896942221E+003
+3.44562604341E+007, +1.37751682107E+002, +1.40744319212E+003
+3.46230383973E+007, +1.38798485889E+002, +1.43087299934E+003
+3.47898163606E+007, +1.43801003992E+002, +1.44272657866E+003
+3.49565943239E+007, +1.49541486288E+002, +1.46185538661E+003
+3.51233722871E+007, +1.42816336592E+002, +1.48048789779E+003
+3.52901502504E+007, +1.55851169194E+002, +1.49266627009E+003
+3.54569282137E+007, +1.57968347113E+002, +1.53074318927E+003
+3.56237061770E+007, +1.59261255690E+002, +1.55040663722E+003
+3.57904841402E+007, +1.45832575058E+002, +1.56900678428E+003
+3.59572621035E+007, +1.69112241644E+002, +1.58261081839E+003
+3.61240400668E+007, +1.70157654671E+002, +1.61464357914E+003
+3.62908180301E+007, +1.87961522069E+002, +1.63716589243E+003
+3.64575959933E+007, +1.74876945594E+002, +1.65994563773E+003
+3.66243739566E+007, +1.89495015062E+002, +1.68168321238E+003
+3.67911519199E+007, +1.98455718493E+002, +1.71853507630E+003
+3.69579298831E+007, +1.88536967330E+002, +1.73081991053E+003
+3.71247078464E+007, +1.95014340808E+002, +1.75655541405E+003
+3.72914858097E+007, +2.03214643263E+002, +1.80583885351E+003
+3.74582637730E+007, +2.08604869054E+002, +1.83570878874E+003
+3.76250417362E+007, +2.20163177445E+002, +1.86194229474E+003
+3.77918196995E+007, +2.15819015710E+002, +1.88926164928E+003
+3.79585976628E+007, +2.20264367607E+002, +1.91241035655E+003
+3.81253756260E+007, +2.47310547763E+002, +1.95311556058E+003
+3.82921535893E+007, +2.48009714691E+002, +1.97881759968E+003
+3.84589315526E+007, +2.61424171773E+002, +2.02852987622E+003
+3.86257095159E+007, +2.59191867645E+002, +2.05625492541E+003
+3.87924874791E+007, +2.63735042842E+002, +2.10035617755E+003
+3.89592654424E+007, +2.65704259866E+002, +2.11907157410E+003
+3.91260434057E+007, +3.00327542170E+002, +2.17327783700E+003
+3.92928213689E+007, +3.15093758461E+002, +2.19393788336E+003
+3.94595993322E+007, +3.01828156046E+002, +2.25243049758E+003
+3.96263772955E+007, +3.17726722672E+002, +2.29480457288E+003
+3.97931552588E+007, +3.14039174681E+002, +2.34745791398E+003
+3.99599332220E+007, +3.44952539334E+002, +2.35886225356E+003
+4.01267111853E+007, +3.60862450117E+002, +2.42482461983E+003
+4.02934891486E+007, +3.42272796938E+002, +2.47809882589E+003
+4.04602671119E+007, +3.71206854149E+002, +2.53837708706E+003
+4.06270450751E+007, +3.96478339612E+002, +2.59353482841E+003
+4.07938230384E+007, +3.92540898365E+002, +2.63079971520E+003
+4.09606010017E+007, +4.72423452334E+002, +2.67344003118E+003
+4.11273789649E+007, +4.68429953084E+002, +2.74651549671E+003
+4.12941569282E+007, +4.75092002112E+002, +2.82952905813E+003
+4.14609348915E+007, +5.01765417948E+002, +2.93909322124E+003
+4.16277128548E+007, +5.43168408874E+002, +2.94227962471E+003
+4.17944908180E+007, +5.34816511015E+002, +2.98958243475E+003
+4.19612687813E+007, +5.62832129790E+002, +3.11042686736E+003
+4.21280467446E+007, +5.95514792972E+002, +3.19532708033E+003
+4.22948247078E+007, +6.25566515775E+002, +3.27881764358E+003
+4.24616026711E+007, +7.00135175591E+002, +3.34259403010E+003
+4.26283806344E+007, +7.51810885925E+002, +3.39987514601E+003
+4.27951585977E+007, +7.02885568956E+002, +3.56978871300E+003
+4.29619365609E+007, +8.42248932018E+002, +3.61381387536E+003
+4.31287145242E+007, +8.81071125825E+002, +3.75463173137E+003
+4.32954924875E+007, +9.19696973187E+002, +3.85080916916E+003
+4.34622704508E+007, +9.42037384914E+002, +4.01770519431E+003
+4.36290484140E+007, +1.08159309449E+003, +4.03901591300E+003
+4.37958263773E+007, +1.15769744688E+003, +4.34594344249E+003
+4.39626043406E+007, +1.20554496754E+003, +4.40378117574E+003
+4.41293823038E+007, +1.38184821429E+003, +4.59438278966E+003
+4.42961602671E+007, +1.46527922543E+003, +4.75235785797E+003
+4.44629382304E+007, +1.58924931650E+003, +4.86217244440E+003
+4.46297161937E+007, +1.71534739585E+003, +5.13095047745E+003
+4.47964941569E+007, +1.90099909064E+003, +5.29115776871E+003
+4.49632721202E+007, +2.03151460747E+003, +5.55805459521E+003
+4.51300500835E+007, +2.08194062606E+003, +5.65206544592E+003
+4.52968280467E+007, +2.55848131340E+003, +5.96050144436E+003
+4.54636060100E+007, +2.85989498365E+003, +6.37923472376E+003
+4.56303839733E+007, +3.08189355895E+003, +6.83866510737E+003
+4.57971619366E+007, +3.59578281863E+003, +6.89873207766E+003
+4.59639398998E+007, +4.32570330564E+003, +7.48935683534E+003
+4.61307178631E+007, +4.56353622872E+003, +7.46302994554E+003
+4.62974958264E+007, +5.61215236232E+003, +7.44627157694E+003
+4.64642737896E+007, +5.93899890327E+003, +7.60404706323E+003
+4.66310517529E+007, +7.16514261429E+003, +7.81403820932E+003
+4.67978297162E+007, +7.78491458332E+003, +7.39580708060E+003
+4.69646076795E+007, +9.16577457877E+003, +7.18931224706E+003
+4.71313856427E+007, +1.01780053859E+004, +6.95167509286E+003
+4.72981636060E+007, +1.17668081296E+004, +5.82952467138E+003
+4.74649415693E+007, +1.25386183542E+004, +5.20203819628E+003
+4.76317195326E+007, +1.25993316646E+004, +3.71415112150E+003
+4.77984974958E+007, +1.38782803979E+004, +1.99779426820E+003
+4.79652754591E+007, +1.38796730821E+004, +4.45891441115E+002
+4.81320534224E+007, +1.33924021578E+004, -7.40206116066E+002
+4.82988313856E+007, +1.34492024355E+004, -2.14558368413E+003
+4.84656093489E+007, +1.17452556036E+004, -3.78098779825E+003
+4.86323873122E+007, +1.12580680533E+004, -4.34526157533E+003
+4.87991652755E+007, +9.79261582717E+003, -4.34899823938E+003
+4.89659432387E+007, +8.96878431348E+003, -5.04388010912E+003
+4.91327212020E+007, +8.37506724898E+003, -5.50516239285E+003
+4.92994991653E+007, +7.53899123239E+003, -5.29447765955E+003
+4.94662771285E+007, +6.83971262899E+003, -5.31100521923E+003
+4.96330550918E+007, +6.16102929737E+003, -5.47358293742E+003
+4.97998330551E+007, +5.82007315944E+003, -5.21422977843E+003
+4.99666110184E+007, +5.39453942631E+003, -5.09499206276E+003
+5.01333889816E+007, +4.96831634223E+003, -5.29213701123E+003
+5.03001669449E+007, +4.65082970111E+003, -5.42581328505E+003
+5.04669449082E+007, +4.23272489632E+003, -4.90086708075E+003
+5.06337228715E+007, +3.98580045838E+003, -4.78295406878E+003
+5.08005008347E+007, +3.95504236402E+003, -4.90865538591E+003
+5.09672787980E+007, +3.63794022084E+003, -4.75194515508E+003
+5.11340567613E+007, +3.35323241423E+003, -4.66073211735E+003
+5.13008347245E+007, +3.15334523884E+003, -4.54997959436E+003
+5.14676126878E+007, +2.93742847185E+003, -4.57538779395E+003
+5.16343906511E+007, +2.75939371719E+003, -4.44763426711E+003
+5.18011686144E+007, +2.64838675576E+003, -4.45230557331E+003
+5.19679465776E+007, +2.44734395730E+003, -4.39318322470E+003
+5.21347245409E+007, +2.30329635604E+003, -4.26815885408E+003
+5.23015025042E+007, +2.06746734350E+003, -4.12403433118E+003
+5.24682804674E+007, +1.81664845658E+003, -4.10115058906E+003
+5.26350584307E+007, +1.84186018412E+003, -3.99941695012E+003
+5.28018363940E+007, +1.63040642501E+003, -3.90616926774E+003
+5.29686143573E+007, +1.48637486412E+003, -3.81247338370E+003
+5.31353923205E+007, +1.37248340070E+003, -3.71837443523E+003
+5.33021702838E+007, +1.27503218574E+003, -3.64790419232E+003
+5.34689482471E+007, +1.24801858494E+003, -3.51873158658E+003
