"# Channel 1"
"# Trace 1"
Frequency, Formatted Data, Formatted Data
+1.00000000000E+006, +2.65802417362E+001, +2.36135491194E+001
+1.16527545910E+006, +2.66179968901E+001, +2.75057919006E+001
+1.33055091820E+006, +2.66250974701E+001, +3.13513113546E+001
+1.49582637730E+006, +2.66238265461E+001, +3.52315270419E+001
+1.66110183639E+006, +2.65826664205E+001, +3.91037221334E+001
+1.82637729549E+006, +2.65777544095E+001, +4.29993913715E+001
+1.99165275459E+006, +2.65848489058E+001, +4.68814523913E+001
+2.15692821369E+006, +2.65536506690E+001, +5.07835192002E+001
+2.32220367279E+006, +2.65212026004E+001, +5.46715430317E+001
+2.48747913189E+006, +2.66057144006E+001, +5.86155794995E+001
+2.65275459098E+006, +2.64848983268E+001, +6.25381976470E+001
+2.81803005008E+006, +2.64550339986E+001, +6.63876647047E+001
+2.98330550918E+006, +2.63863214124E+001, +7.02225064892E+001
+3.14858096828E+006, +2.65148009174E+001, +7.40758841602E+001
+3.31385642738E+006, +2.66112394587E+001, +7.79964522623E+001
+3.47913188648E+006, +2.65259106258E+001, +8.19824593156E+001
+3.64440734558E+006, +2.64279328697E+001, +8.57509537984E+001
+3.80968280467E+006, +2.66575524914E+001, +8.96477410760E+001
+3.97495826377E+006, +2.66342231502E+001, +9.34740050210E+001
+4.14023372287E+006, +2.67616241950E+001, +9.77192998546E+001
+4.30550918197E+006, +2.65895947883E+001, +1.01121915871E+002
+4.47078464107E+006, +2.65538451761E+001, +1.05445251858E+002
+4.63606010017E+006, +2.64738058860E+001, +1.09330371449E+002
+4.80133555927E+006, +2.65280041727E+001, +1.13220937860E+002
+4.96661101836E+006, +2.65614080923E+001, +1.17171210216E+002
+5.13188647746E+006, +2.65974435591E+001, +1.21097650749E+002
+5.29716193656E+006, +2.64539633035E+001, +1.24696025356E+002
+5.46243739566E+006, +2.67129487012E+001, +1.28835126832E+002
+5.62771285476E+006, +2.69386272218E+001, +1.32767254131E+002
+5.79298831386E+006, +2.69132856154E+001, +1.36810227925E+002
+5.95826377295E+006, +2.70421237147E+001, +1.40810361802E+002
+6.12353923205E+006, +2.72158944253E+001, +1.44185982629E+002
+6.28881469115E+006, +2.69904608492E+001, +1.48396762000E+002
+6.45409015025E+006, +2.72960017233E+001, +1.52190403839E+002
+6.61936560935E+006, +2.71384873870E+001, +1.56267559739E+002
+6.78464106845E+006, +2.71700837403E+001, +1.60264113398E+002
+6.94991652755E+006, +2.73640836734E+001, +1.64110310743E+002
+7.11519198664E+006, +2.74343137451E+001, +1.68037686343E+002
+7.28046744574E+006, +2.73795693248E+001, +1.72099447926E+002
+7.44574290484E+006, +2.75257232347E+001, +1.75888815311E+002
+7.61101836394E+006, +2.73143602145E+001, +1.79895338561E+002
+7.77629382304E+006, +2.75191306687E+001, +1.83680959378E+002
+7.94156928214E+006, +2.73400576152E+001, +1.87668004892E+002
+8.10684474124E+006, +2.74270714552E+001, +1.91425359482E+002
+8.27212020033E+006, +2.74384431914E+001, +1.95570208341E+002
+8.43739565943E+006, +2.76099277602E+001, +1.99848217698E+002
+8.60267111853E+006, +2.72535573491E+001, +2.03538903491E+002
+8.76794657763E+006, +2.75607770171E+001, +2.07529227546E+002
+8.93322203673E+006, +2.73594334297E+001, +2.12054640308E+002
+9.09849749583E+006, +2.74151887257E+001, +2.15621150083E+002
+9.26377295492E+006, +2.76936795967E+001, +2.20088642278E+002
+9.42904841402E+006, +2.78193151575E+001, +2.23744185292E+002
+9.59432387312E+006, +2.74737649731E+001, +2.27533345170E+002
+9.75959933222E+006, +2.72115254050E+001, +2.31564493081E+002
+9.92487479132E+006, +2.73105559106E+001, +2.35672692345E+002
+1.00901502504E+007, +2.74372082934E+001, +2.39545398144E+002
+1.02554257095E+007, +2.72546209689E+001, +2.43624930784E+002
+1.04207011686E+007, +2.76796192328E+001, +2.47864831977E+002
+1.05859766277E+007, +2.75597760759E+001, +2.52347904368E+002
+1.07512520868E+007, +2.75720908620E+001, +2.56196462582E+002
+1.09165275459E+007, +2.71111487914E+001, +2.60138892609E+002
+1.10818030050E+007, +2.77395958986E+001, +2.64815501433E+002
+1.12470784641E+007, +2.76440167407E+001, +2.68186128718E+002
+1.14123539232E+007, +2.74059246116E+001, +2.72464216248E+002
+1.15776293823E+007, +2.78393234748E+001, +2.76724276518E+002
+1.17429048414E+007, +2.76756602589E+001, +2.80663634207E+002
+1.19081803005E+007, +2.77664594948E+001, +2.85258170320E+002
+1.20734557596E+007, +2.76765261492E+001, +2.89268120076E+002
+1.22387312187E+007, +2.75340778715E+001, +2.93082723253E+002
+1.24040066778E+007, +2.79415781292E+001, +2.96929418586E+002
+1.25692821369E+007, +2.77239873560E+001, +3.01390895408E+002
+1.27345575960E+007, +2.79681218130E+001, +3.05477325978E+002
+1.28998330551E+007, +2.79495790468E+001, +3.09622202351E+002
+1.30651085142E+007, +2.71412279097E+001, +3.13869972626E+002
+1.32303839733E+007, +2.76820168728E+001, +3.18369796908E+002
+1.33956594324E+007, +2.79173466741E+001, +3.22536163357E+002
+1.35609348915E+007, +2.81647908061E+001, +3.26603577017E+002
+1.37262103506E+007, +2.75423941708E+001, +3.29742897300E+002
+1.38914858097E+007, +2.84971557940E+001, +3.34611667283E+002
+1.40567612688E+007, +2.84661380566E+001, +3.38583273674E+002
+1.42220367279E+007, +2.85403971814E+001, +3.42871403691E+002
+1.43873121870E+007, +2.83158455590E+001, +3.48153644844E+002
+1.45525876461E+007, +2.77145856965E+001, +3.51917558637E+002
+1.47178631052E+007, +2.85905505762E+001, +3.56076529504E+002
+1.48831385643E+007, +2.85379963962E+001, +3.59605384922E+002
+1.50484140234E+007, +2.84665769873E+001, +3.64972984601E+002
+1.52136894825E+007, +2.82288313807E+001, +3.68821699766E+002
+1.53789649416E+007, +2.82114677739E+001, +3.73019279784E+002
+1.55442404007E+007, +2.85819528639E+001, +3.77361205111E+002
+1.57095158598E+007, +2.91041695266E+001, +3.81226514911E+002
+1.58747913189E+007, +2.85022721914E+001, +3.86162548465E+002
+1.60400667780E+007, +2.85228229299E+001, +3.90040401012E+002
+1.62053422371E+007, +2.82689760612E+001, +3.94339093227E+002
+1.63706176962E+007, +2.86963581743E+001, +3.98860324300E+002
+1.65358931553E+007, +2.88058798002E+001, +4.03479946360E+002
+1.67011686144E+007, +3.00570770936E+001, +4.06617153888E+002
+1.68664440735E+007, +2.92687025550E+001, +4.11364378858E+002
+1.70317195326E+007, +2.75034928429E+001, +4.17444882243E+002
+1.71969949917E+007, +2.82555283665E+001, +4.21438400237E+002
+1.73622704508E+007, +2.92926754564E+001, +4.25884827692E+002
+1.75275459098E+007, +2.85614805543E+001, +4.30459836989E+002
+1.76928213689E+007, +2.90719119833E+001, +4.35165755122E+002
+1.78580968280E+007, +2.87099617774E+001, +4.39128706401E+002
+1.80233722871E+007, +3.01231309376E+001, +4.43635959323E+002
+1.81886477462E+007, +2.90298262626E+001, +4.48128663781E+002
+1.83539232053E+007, +3.01157159194E+001, +4.51933349898E+002
+1.85191986644E+007, +2.96640679178E+001, +4.57117332424E+002
+1.86844741235E+007, +2.91119849111E+001, +4.59779397276E+002
+1.88497495826E+007, +3.02761900251E+001, +4.65577845920E+002
+1.90150250417E+007, +2.93010250965E+001, +4.71242119628E+002
+1.91803005008E+007, +3.05908606717E+001, +4.74792175900E+002
+1.93455759599E+007, +3.07094755299E+001, +4.78931229647E+002
+1.95108514190E+007, +3.21313278167E+001, +4.84263598486E+002
+1.96761268781E+007, +3.10032837577E+001, +4.89056885173E+002
+1.98414023372E+007, +3.13800796506E+001, +4.92817515365E+002
+2.00066777963E+007, +3.01033183751E+001, +4.96364014042E+002
+2.01719532554E+007, +3.15902020882E+001, +5.02043732336E+002
+2.03372287145E+007, +3.25074023778E+001, +5.07675995924E+002
+2.05025041736E+007, +3.22260225416E+001, +5.11878940343E+002
+2.06677796327E+007, +3.25382966151E+001, +5.17474675018E+002
+2.08330550918E+007, +3.13365988694E+001, +5.21599111865E+002
+2.09983305509E+007, +3.19614038128E+001, +5.24911803965E+002
+2.11636060100E+007, +3.24911843343E+001, +5.30407891119E+002
+2.13288814691E+007, +3.28252090558E+001, +5.35232256247E+002
+2.14941569282E+007, +3.26355463120E+001, +5.39821617118E+002
+2.16594323873E+007, +3.29325442760E+001, +5.45357403835E+002
+2.18247078464E+007, +3.34522089084E+001, +5.48920633758E+002
+2.19899833055E+007, +3.25887583016E+001, +5.55133590649E+002
+2.21552587646E+007, +3.21102061570E+001, +5.56588064415E+002
+2.23205342237E+007, +3.36671562226E+001, +5.63471645963E+002
+2.24858096828E+007, +3.27885599200E+001, +5.68827174709E+002
+2.26510851419E+007, +3.38546249310E+001, +5.74149452156E+002
+2.28163606010E+007, +3.39845917133E+001, +5.77155777991E+002
+2.29816360601E+007, +3.29283545184E+001, +5.82492719697E+002
+2.31469115192E+007, +3.61294012941E+001, +5.87742967533E+002
+2.33121869783E+007, +3.59872568810E+001, +5.92908823631E+002
+2.34774624374E+007, +3.71520819471E+001, +5.98925852254E+002
+2.36427378965E+007, +3.57855473590E+001, +6.04232985368E+002
+2.38080133556E+007, +3.60869608399E+001, +6.08508120907E+002
+2.39732888147E+007, +3.87977720922E+001, +6.16882376485E+002
+2.41385642738E+007, +3.81248000039E+001, +6.20513372063E+002
+2.43038397329E+007, +3.71239729068E+001, +6.25715625217E+002
+2.44691151920E+007, +3.70449097469E+001, +6.30453283908E+002
+2.46343906511E+007, +3.54226021419E+001, +6.34990926083E+002
+2.47996661102E+007, +3.70491942843E+001, +6.41314109501E+002
+2.49649415693E+007, +3.69254771538E+001, +6.44435117501E+002
+2.51302170284E+007, +3.83272287573E+001, +6.50008097034E+002
+2.52954924875E+007, +4.09258223239E+001, +6.54633239780E+002
+2.54607679466E+007, +3.83166347424E+001, +6.60892041015E+002
+2.56260434057E+007, +3.90725894011E+001, +6.63965373966E+002
+2.57913188648E+007, +4.05686895428E+001, +6.71475663634E+002
+2.59565943239E+007, +4.19318877528E+001, +6.73592295015E+002
+2.61218697830E+007, +4.12350285006E+001, +6.79043879552E+002
+2.62871452421E+007, +4.29998452972E+001, +6.84960480264E+002
+2.64524207012E+007, +4.12541019358E+001, +6.91241075788E+002
+2.66176961603E+007, +4.06085435509E+001, +6.95844893838E+002
+2.67829716194E+007, +4.05601212510E+001, +7.02136192522E+002
+2.69482470785E+007, +4.20482486187E+001, +7.08467796280E+002
+2.71135225376E+007, +4.36840790359E+001, +7.15316001993E+002
+2.72787979967E+007, +4.31829230561E+001, +7.19169458316E+002
+2.74440734558E+007, +4.42061663881E+001, +7.26126812893E+002
+2.76093489149E+007, +4.35533594289E+001, +7.26419742270E+002
+2.77746243740E+007, +4.24500314697E+001, +7.34004991184E+002
+2.79398998331E+007, +4.13059625251E+001, +7.40705042785E+002
+2.81051752922E+007, +4.48534905255E+001, +7.44444026934E+002
+2.82704507513E+007, +4.43943975701E+001, +7.51459559676E+002
+2.84357262104E+007, +4.37870617943E+001, +7.57761849528E+002
+2.86010016694E+007, +4.12413408958E+001, +7.65851865125E+002
+2.87662771285E+007, +4.46273634242E+001, +7.72299617101E+002
+2.89315525876E+007, +4.58316977963E+001, +7.75570862563E+002
+2.90968280467E+007, +4.58425808914E+001, +7.81245961937E+002
+2.92621035058E+007, +4.60872186924E+001, +7.89240513027E+002
+2.94273789649E+007, +4.89096681390E+001, +7.93124883841E+002
+2.95926544240E+007, +4.50936410480E+001, +7.96361074601E+002
+2.97579298831E+007, +4.96349235634E+001, +8.07190049955E+002
+2.99232053422E+007, +4.84760101221E+001, +8.12309031922E+002
+3.00884808013E+007, +4.75735507897E+001, +8.18477955537E+002
+3.02537562604E+007, +4.90782400603E+001, +8.22223680154E+002
+3.04190317195E+007, +5.10825663478E+001, +8.29604727683E+002
+3.05843071786E+007, +4.87716614833E+001, +8.33025681227E+002
+3.07495826377E+007, +4.65543609550E+001, +8.42208064900E+002
+3.09148580968E+007, +4.84019083434E+001, +8.47618793735E+002
+3.10801335559E+007, +4.98545198959E+001, +8.53248621021E+002
+3.12454090150E+007, +5.02208671797E+001, +8.59753667755E+002
+3.14106844741E+007, +5.11485505322E+001, +8.64447456343E+002
+3.15759599332E+007, +5.05167554518E+001, +8.74400134819E+002
+3.17412353923E+007, +5.21607897749E+001, +8.78500453575E+002
+3.19065108514E+007, +5.19236940060E+001, +8.86995451615E+002
+3.20717863105E+007, +4.66852246875E+001, +8.91718509749E+002
+3.22370617696E+007, +5.06572018960E+001, +8.98786265879E+002
+3.24023372287E+007, +4.79296686137E+001, +9.07274607065E+002
+3.25676126878E+007, +5.05294537700E+001, +9.13314239048E+002
+3.27328881469E+007, +4.92166492297E+001, +9.17738531031E+002
+3.28981636060E+007, +4.74746288372E+001, +9.26349033293E+002
+3.30634390651E+007, +5.08772305173E+001, +9.32385283630E+002
+3.32287145242E+007, +5.07655335387E+001, +9.48035859877E+002
+3.33939899833E+007, +5.45622715943E+001, +9.51353759530E+002
+3.35592654424E+007, +5.31829660630E+001, +9.55360154134E+002
+3.37245409015E+007, +5.68357601150E+001, +9.59153544326E+002
+3.38898163606E+007, +5.03799698953E+001, +9.72591242899E+002
+3.40550918197E+007, +5.54174060328E+001, +9.80657935563E+002
+3.42203672788E+007, +5.27742967222E+001, +9.82355381628E+002
+3.43856427379E+007, +5.74673205062E+001, +9.93293190060E+002
+3.45509181970E+007, +5.36723291854E+001, +1.00095111859E+003
+3.47161936561E+007, +5.42619778828E+001, +1.00912857816E+003
+3.48814691152E+007, +5.92677912154E+001, +1.01311009665E+003
+3.50467445743E+007, +5.93747456369E+001, +1.02793275695E+003
+3.52120200334E+007, +5.77213415938E+001, +1.03075439849E+003
+3.53772954925E+007, +6.18031748324E+001, +1.03938315820E+003
+3.55425709516E+007, +6.01544013945E+001, +1.05116503149E+003
+3.57078464107E+007, +5.80875299784E+001, +1.05449055535E+003
+3.58731218698E+007, +5.56079456106E+001, +1.06274672683E+003
+3.60383973289E+007, +6.16826768005E+001, +1.07163298637E+003
+3.62036727880E+007, +6.35725274207E+001, +1.08128118714E+003
+3.63689482471E+007, +6.68785597226E+001, +1.08782028481E+003
+3.65342237062E+007, +6.82395771367E+001, +1.09728398571E+003
+3.66994991653E+007, +6.59995467435E+001, +1.11184207079E+003
+3.68647746244E+007, +7.09126634422E+001, +1.11222817880E+003
+3.70300500835E+007, +5.81942035877E+001, +1.12709392267E+003
+3.71953255426E+007, +6.51807581094E+001, +1.13665659230E+003
+3.73606010017E+007, +7.13822852696E+001, +1.14788533909E+003
+3.75258764608E+007, +6.64501013198E+001, +1.16159054625E+003
+3.76911519199E+007, +7.05867952467E+001, +1.16118750306E+003
+3.78564273790E+007, +6.97217422630E+001, +1.16971997813E+003
+3.80217028381E+007, +6.94366546951E+001, +1.17945976651E+003
+3.81869782972E+007, +7.71074795536E+001, +1.18894502160E+003
+3.83522537563E+007, +7.21745127193E+001, +1.20252426962E+003
+3.85175292154E+007, +7.66998703253E+001, +1.20451065774E+003
+3.86828046745E+007, +6.93365982650E+001, +1.21967407892E+003
+3.88480801336E+007, +7.92650413491E+001, +1.23149248604E+003
+3.90133555927E+007, +7.72721696211E+001, +1.23908636411E+003
+3.91786310518E+007, +8.42065158373E+001, +1.25338896812E+003
+3.93439065109E+007, +7.55435446915E+001, +1.26396788635E+003
+3.95091819699E+007, +8.93948241886E+001, +1.27281859804E+003
+3.96744574290E+007, +7.70464161856E+001, +1.28204690720E+003
+3.98397328881E+007, +7.80768409308E+001, +1.29414881495E+003
+4.00050083472E+007, +8.26703067568E+001, +1.31261948651E+003
+4.01702838063E+007, +7.40165318185E+001, +1.31715007124E+003
+4.03355592654E+007, +8.83835205611E+001, +1.33115892928E+003
+4.05008347245E+007, +9.20931722822E+001, +1.34771108059E+003
+4.06661101836E+007, +8.32526403211E+001, +1.34897190050E+003
+4.08313856427E+007, +8.17123989812E+001, +1.37851742542E+003
+4.09966611018E+007, +8.33082792370E+001, +1.38171320610E+003
+4.11619365609E+007, +9.68533937745E+001, +1.38886949285E+003
+4.13272120200E+007, +9.87197206676E+001, +1.40750809625E+003
+4.14924874791E+007, +9.63574283217E+001, +1.41126280895E+003
+4.16577629382E+007, +8.94265577655E+001, +1.43374223847E+003
+4.18230383973E+007, +9.76288520875E+001, +1.44362585450E+003
+4.19883138564E+007, +1.00815158507E+002, +1.46269778905E+003
+4.21535893155E+007, +1.06770566584E+002, +1.46695361079E+003
+4.23188647746E+007, +1.16172064608E+002, +1.48228765664E+003
+4.24841402337E+007, +1.00060553911E+002, +1.50901197566E+003
+4.26494156928E+007, +1.01824639190E+002, +1.51232858230E+003
+4.28146911519E+007, +1.15313173826E+002, +1.52502379398E+003
+4.29799666110E+007, +1.20050968689E+002, +1.53790950681E+003
+4.31452420701E+007, +1.13289193464E+002, +1.57539084138E+003
+4.33105175292E+007, +1.19125520078E+002, +1.57742658765E+003
+4.34757929883E+007, +1.06086116636E+002, +1.59179444106E+003
+4.36410684474E+007, +1.12795950876E+002, +1.61228770614E+003
+4.38063439065E+007, +1.20564622964E+002, +1.63234286939E+003
+4.39716193656E+007, +1.31354800860E+002, +1.63386086023E+003
+4.41368948247E+007, +1.17597733315E+002, +1.66569192397E+003
+4.43021702838E+007, +1.30430709749E+002, +1.68430451049E+003
+4.44674457429E+007, +1.35897695688E+002, +1.69140762728E+003
+4.46327212020E+007, +1.39602496792E+002, +1.70648322179E+003
+4.47979966611E+007, +1.38875777356E+002, +1.73216283225E+003
+4.49632721202E+007, +1.47554488014E+002, +1.75728943535E+003
+4.51285475793E+007, +1.38712199497E+002, +1.77371268187E+003
+4.52938230384E+007, +1.52255779805E+002, +1.80634964798E+003
+4.54590984975E+007, +1.43988806348E+002, +1.81140304524E+003
+4.56243739566E+007, +1.65512137943E+002, +1.84750712726E+003
+4.57896494157E+007, +1.57401322046E+002, +1.86217564412E+003
+4.59549248748E+007, +1.60883359354E+002, +1.89153189213E+003
+4.61202003339E+007, +1.49730422333E+002, +1.91798209385E+003
+4.62854757930E+007, +1.77287730967E+002, +1.95227476037E+003
+4.64507512521E+007, +1.74835508036E+002, +1.96745880746E+003
+4.66160267112E+007, +2.01000828843E+002, +2.00344534779E+003
+4.67813021703E+007, +2.08263885988E+002, +2.02461202420E+003
+4.69465776294E+007, +2.04330735805E+002, +2.04922664769E+003
+4.71118530885E+007, +2.10128463302E+002, +2.08050947667E+003
+4.72771285476E+007, +2.24270227008E+002, +2.11229058946E+003
+4.74424040067E+007, +2.32766209493E+002, +2.13773709694E+003
+4.76076794658E+007, +2.39334384810E+002, +2.17072785663E+003
+4.77729549249E+007, +2.47955590017E+002, +2.20587116029E+003
+4.79382303840E+007, +2.74817162431E+002, +2.23765256265E+003
+4.81035058431E+007, +2.82522854766E+002, +2.26988110020E+003
+4.82687813022E+007, +2.89054760587E+002, +2.30872455751E+003
+4.84340567613E+007, +2.97406136700E+002, +2.33025289791E+003
+4.85993322204E+007, +3.38767372782E+002, +2.37290582474E+003
+4.87646076795E+007, +3.42403025862E+002, +2.41206963329E+003
+4.89298831386E+007, +3.50201770721E+002, +2.45082674201E+003
+4.90951585977E+007, +3.64046961268E+002, +2.46857401340E+003
+4.92604340568E+007, +3.87002905439E+002, +2.50787084877E+003
+4.94257095159E+007, +4.33988103837E+002, +2.56350200932E+003
+4.95909849750E+007, +4.34517313654E+002, +2.61459337302E+003
+4.97562604341E+007, +4.96949547426E+002, +2.61684259221E+003
+4.99215358932E+007, +4.89049101617E+002, +2.68255369928E+003
+5.00868113523E+007, +5.11905370650E+002, +2.74734288939E+003
+5.02520868114E+007, +5.95131548550E+002, +2.78196239828E+003
+5.04173622705E+007, +6.14734908787E+002, +2.84799016643E+003
+5.05826377295E+007, +5.84830040232E+002, +2.81927704008E+003
+5.07479131886E+007, +6.31032698362E+002, +2.86063379605E+003
+5.09131886477E+007, +6.35913669677E+002, +2.90673782269E+003
+5.10784641068E+007, +7.44576727533E+002, +2.94159446709E+003
+5.12437395659E+007, +7.12041091097E+002, +3.01385066756E+003
+5.14090150250E+007, +7.73506055243E+002, +3.01892472661E+003
+5.15742904841E+007, +7.98498366638E+002, +3.11022743435E+003
+5.17395659432E+007, +8.21460491616E+002, +3.12584446770E+003
+5.19048414023E+007, +8.73691106969E+002, +3.17367986512E+003
+5.20701168614E+007, +9.00920724808E+002, +3.25827274290E+003
+5.22353923205E+007, +9.35497323066E+002, +3.34995681473E+003
+5.24006677796E+007, +9.78519108131E+002, +3.32419745667E+003
+5.25659432387E+007, +1.02629649643E+003, +3.42247468870E+003
+5.27312186978E+007, +1.10129926714E+003, +3.43906052460E+003
+5.28964941569E+007, +1.16455078874E+003, +3.54905331129E+003
+5.30617696160E+007, +1.15520651861E+003, +3.62888149156E+003
+5.32270450751E+007, +1.12866975440E+003, +3.63074915914E+003
+5.33923205342E+007, +1.24183997728E+003, +3.83477731025E+003
+5.35575959933E+007, +1.23479924441E+003, +3.85109863488E+003
+5.37228714524E+007, +1.35344545332E+003, +3.98944027877E+003
+5.38881469115E+007, +1.35911321955E+003, +4.07602278663E+003
