"# Channel 1"
"# Trace 1"
Frequency, Formatted Data, Formatted Data
+1.00000000000E+005, +7.00174962572E+000, +2.34299478449E+000
+2.25031289111E+005, +6.94697676286E+000, +5.24283323561E+000
+3.50062578223E+005, +6.97704816064E+000, +8.18984668138E+000
+4.75093867334E+005, +6.99551731119E+000, +1.10589995879E+001
+6.00125156446E+005, +6.96209352950E+000, +1.39658219917E+001
+7.25156445557E+005, +6.96416437454E+000, +1.69113363524E+001
+8.50187734668E+005, +6.96989332408E+000, +1.97904875759E+001
+9.75219023780E+005, +6.98506687700E+000, +2.26775882900E+001
+1.10025031289E+006, +6.99328745413E+000, +2.55523165533E+001
+1.22528160200E+006, +6.97105701379E+000, +2.84779439918E+001
+1.35031289111E+006, +7.00939592320E+000, +3.13878722204E+001
+1.47534418023E+006, +6.99511604325E+000, +3.42807007762E+001
+1.60037546934E+006, +6.98708294761E+000, +3.71670289847E+001
+1.72540675845E+006, +6.96597323476E+000, +4.00429138662E+001
+1.85043804756E+006, +7.01605012108E+000, +4.29366402823E+001
+1.97546933667E+006, +7.02153320318E+000, +4.58878403874E+001
+2.10050062578E+006, +6.97918596170E+000, +4.87159107547E+001
+2.22553191489E+006, +6.96743459873E+000, +5.15851195225E+001
+2.35056320401E+006, +7.05273900793E+000, +5.45271539322E+001
+2.47559449312E+006, +7.03052742464E+000, +5.73568241616E+001
+2.60062578223E+006, +6.93911038854E+000, +6.02952875009E+001
+2.72565707134E+006, +6.91845919629E+000, +6.31789262491E+001
+2.85068836045E+006, +6.96347187459E+000, +6.60678432636E+001
+2.97571964956E+006, +7.09118813825E+000, +6.90408858248E+001
+3.10075093867E+006, +6.90700921836E+000, +7.19843513391E+001
+3.22578222778E+006, +6.97946994830E+000, +7.49118829194E+001
+3.35081351690E+006, +7.12827055969E+000, +7.77484463342E+001
+3.47584480601E+006, +7.17345367130E+000, +8.06507188567E+001
+3.60087609512E+006, +7.06399175033E+000, +8.36389444683E+001
+3.72590738423E+006, +6.93957996605E+000, +8.65628669965E+001
+3.85093867334E+006, +7.16820146356E+000, +8.95446813689E+001
+3.97596996245E+006, +7.13573369187E+000, +9.22529258908E+001
+4.10100125156E+006, +7.09805697577E+000, +9.53083503797E+001
+4.22603254068E+006, +6.97051978015E+000, +9.81737409638E+001
+4.35106382979E+006, +7.04529525084E+000, +1.00939135612E+002
+4.47609511890E+006, +6.89264134017E+000, +1.03879703225E+002
+4.60112640801E+006, +6.92153051103E+000, +1.06900150583E+002
+4.72615769712E+006, +7.13243231362E+000, +1.09613840242E+002
+4.85118898623E+006, +7.22460403468E+000, +1.12523856476E+002
+4.97622027534E+006, +7.12337961194E+000, +1.15622535209E+002
+5.10125156446E+006, +7.46488315051E+000, +1.18608066503E+002
+5.22628285357E+006, +7.26606824725E+000, +1.21478857242E+002
+5.35131414268E+006, +7.15572046714E+000, +1.24376298508E+002
+5.47634543179E+006, +7.28977308588E+000, +1.27200868254E+002
+5.60137672090E+006, +7.28552745304E+000, +1.30309232815E+002
+5.72640801001E+006, +7.34942734502E+000, +1.33185469424E+002
+5.85143929912E+006, +7.60597857014E+000, +1.36252844492E+002
+5.97647058824E+006, +7.54499233482E+000, +1.39237823216E+002
+6.10150187735E+006, +7.41259343942E+000, +1.41724231283E+002
+6.22653316646E+006, +7.39711482149E+000, +1.45013739067E+002
+6.35156445557E+006, +7.41202493780E+000, +1.47808349702E+002
+6.47659574468E+006, +7.50994412692E+000, +1.50963581438E+002
+6.60162703379E+006, +7.56612516526E+000, +1.53743250425E+002
+6.72665832290E+006, +7.50162982051E+000, +1.56834295282E+002
+6.85168961202E+006, +7.67438448959E+000, +1.59724498984E+002
+6.97672090113E+006, +7.61577452744E+000, +1.62656608830E+002
+7.10175219024E+006, +7.92220168970E+000, +1.65553239880E+002
+7.22678347935E+006, +7.72856496707E+000, +1.68469887032E+002
+7.35181476846E+006, +7.85627736226E+000, +1.71559787711E+002
+7.47684605757E+006, +7.72771243954E+000, +1.74403700433E+002
+7.60187734668E+006, +7.87095341616E+000, +1.77372990167E+002
+7.72690863579E+006, +8.01918432777E+000, +1.80278976161E+002
+7.85193992491E+006, +7.73700503542E+000, +1.83313414099E+002
+7.97697121402E+006, +7.87184791347E+000, +1.86383157654E+002
+8.10200250313E+006, +8.04213566620E+000, +1.89068642419E+002
+8.22703379224E+006, +8.21017914796E+000, +1.92378901986E+002
+8.35206508135E+006, +8.40258272664E+000, +1.95161296584E+002
+8.47709637046E+006, +8.13608854238E+000, +1.98257772160E+002
+8.60212765957E+006, +8.16773534070E+000, +2.01051279577E+002
+8.72715894869E+006, +8.24744839183E+000, +2.03819770719E+002
+8.85219023780E+006, +8.33148553914E+000, +2.06800540635E+002
+8.97722152691E+006, +8.43781452227E+000, +2.09977901376E+002
+9.10225281602E+006, +8.26326453391E+000, +2.12845252505E+002
+9.22728410513E+006, +8.19502759824E+000, +2.15831157257E+002
+9.35231539424E+006, +8.29154142725E+000, +2.18957540276E+002
+9.47734668335E+006, +8.32742888397E+000, +2.21993919562E+002
+9.60237797247E+006, +8.34506357901E+000, +2.25007581820E+002
+9.72740926158E+006, +8.62258754822E+000, +2.27735011935E+002
+9.85244055069E+006, +8.42775979953E+000, +2.30690385577E+002
+9.97747183980E+006, +8.34910009014E+000, +2.33860987116E+002
+1.01025031289E+007, +8.41126911911E+000, +2.36688028613E+002
+1.02275344180E+007, +8.46629533769E+000, +2.39989984602E+002
+1.03525657071E+007, +8.44848968254E+000, +2.42643046971E+002
+1.04775969962E+007, +8.38548735377E+000, +2.45860686543E+002
+1.06026282854E+007, +8.80528296141E+000, +2.48693600289E+002
+1.07276595745E+007, +8.87857442766E+000, +2.52170927003E+002
+1.08526908636E+007, +8.59763974818E+000, +2.54769791486E+002
+1.09777221527E+007, +8.67291432635E+000, +2.57510671469E+002
+1.11027534418E+007, +8.35178024826E+000, +2.60854374814E+002
+1.12277847309E+007, +8.79046071861E+000, +2.63996715376E+002
+1.13528160200E+007, +8.57064267507E+000, +2.66741732991E+002
+1.14778473091E+007, +8.93256068482E+000, +2.69980207952E+002
+1.16028785982E+007, +8.91084209374E+000, +2.72603452156E+002
+1.17279098874E+007, +8.76286617738E+000, +2.76122927395E+002
+1.18529411765E+007, +8.68651247417E+000, +2.78950729195E+002
+1.19779724656E+007, +8.41653320853E+000, +2.81871835245E+002
+1.21030037547E+007, +8.24270225953E+000, +2.84663842797E+002
+1.22280350438E+007, +8.85364587813E+000, +2.88350550470E+002
+1.23530663329E+007, +9.20035815853E+000, +2.91232622925E+002
+1.24780976220E+007, +9.11020249954E+000, +2.94189645988E+002
+1.26031289111E+007, +9.32889469597E+000, +2.97028235141E+002
+1.27281602003E+007, +9.00835667195E+000, +2.99817258088E+002
+1.28531914894E+007, +8.93820413705E+000, +3.02405036439E+002
+1.29782227785E+007, +8.84501508222E+000, +3.06412345877E+002
+1.31032540676E+007, +8.92359920805E+000, +3.09673879029E+002
+1.32282853567E+007, +9.41385223395E+000, +3.12278556740E+002
+1.33533166458E+007, +8.94709981576E+000, +3.16003751586E+002
+1.34783479349E+007, +8.78826771729E+000, +3.18404237658E+002
+1.36033792240E+007, +9.30896868988E+000, +3.21675874436E+002
+1.37284105131E+007, +8.69293080779E+000, +3.25146087337E+002
+1.38534418023E+007, +9.41189154096E+000, +3.28083014182E+002
+1.39784730914E+007, +9.71065896132E+000, +3.31204743375E+002
+1.41035043805E+007, +9.35962790171E+000, +3.35047383829E+002
+1.42285356696E+007, +9.42548074012E+000, +3.37811235020E+002
+1.43535669587E+007, +1.01152252568E+001, +3.40646356931E+002
+1.44785982478E+007, +9.68768011839E+000, +3.43823264970E+002
+1.46036295369E+007, +9.86803570926E+000, +3.46871640672E+002
+1.47286608260E+007, +9.21648908224E+000, +3.49333182421E+002
+1.48536921151E+007, +9.92001468974E+000, +3.53100460180E+002
+1.49787234043E+007, +1.00283757315E+001, +3.56305381834E+002
+1.51037546934E+007, +9.77143692680E+000, +3.59071309618E+002
+1.52287859825E+007, +9.85231472425E+000, +3.63113367633E+002
+1.53538172716E+007, +9.76052368234E+000, +3.65517263005E+002
+1.54788485607E+007, +9.37664276589E+000, +3.68542875847E+002
+1.56038798498E+007, +8.98832758878E+000, +3.72133214959E+002
+1.57289111389E+007, +1.01678498379E+001, +3.74549620118E+002
+1.58539424280E+007, +1.02817479270E+001, +3.78482451968E+002
+1.59789737171E+007, +1.02431294999E+001, +3.81523006660E+002
+1.61040050063E+007, +1.03262503727E+001, +3.84635693161E+002
+1.62290362954E+007, +9.52564204461E+000, +3.87187173181E+002
+1.63540675845E+007, +1.02307801454E+001, +3.90469091196E+002
+1.64790988736E+007, +1.12189532200E+001, +3.94393408147E+002
+1.66041301627E+007, +1.11230925619E+001, +3.97229608724E+002
+1.67291614518E+007, +1.05351073017E+001, +4.00066859882E+002
+1.68541927409E+007, +1.01150584763E+001, +4.03386461677E+002
+1.69792240300E+007, +9.84077725535E+000, +4.06909717771E+002
+1.71042553191E+007, +8.47392160894E+000, +4.10193773553E+002
+1.72292866083E+007, +9.43078848684E+000, +4.13771198747E+002
+1.73543178974E+007, +1.04906396248E+001, +4.16906493573E+002
+1.74793491865E+007, +1.00071680709E+001, +4.19520302941E+002
+1.76043804756E+007, +9.94157934439E+000, +4.23506728549E+002
+1.77294117647E+007, +9.87537516272E+000, +4.26920164215E+002
+1.78544430538E+007, +9.66280428211E+000, +4.28924895721E+002
+1.79794743429E+007, +1.00267051658E+001, +4.32362670323E+002
+1.81045056320E+007, +9.27625947432E+000, +4.37350234835E+002
+1.82295369212E+007, +1.02331506277E+001, +4.39089333083E+002
+1.83545682103E+007, +9.40215842628E+000, +4.42804089271E+002
+1.84795994994E+007, +1.11896892015E+001, +4.46450852799E+002
+1.86046307885E+007, +8.87013553625E+000, +4.49374720447E+002
+1.87296620776E+007, +1.01618988686E+001, +4.52634978255E+002
+1.88546933667E+007, +1.04346197689E+001, +4.56370060541E+002
+1.89797246558E+007, +1.01110560575E+001, +4.59661873817E+002
+1.91047559449E+007, +1.10396474800E+001, +4.61643497424E+002
+1.92297872340E+007, +9.71646651860E+000, +4.66440791559E+002
+1.93548185232E+007, +1.10250168474E+001, +4.69399403967E+002
+1.94798498123E+007, +1.00874889664E+001, +4.73548503493E+002
+1.96048811014E+007, +1.06698460300E+001, +4.76865917637E+002
+1.97299123905E+007, +1.04839913681E+001, +4.80299918898E+002
+1.98549436796E+007, +1.18250401612E+001, +4.82163071396E+002
+1.99799749687E+007, +1.09180592921E+001, +4.86446461644E+002
+2.01050062578E+007, +1.09743073258E+001, +4.90647660165E+002
+2.02300375469E+007, +9.91008389174E+000, +4.93700369249E+002
+2.03550688360E+007, +1.12563383974E+001, +4.96302201202E+002
+2.04801001252E+007, +1.04846162671E+001, +5.00126512282E+002
+2.06051314143E+007, +1.12611800697E+001, +5.03199268889E+002
+2.07301627034E+007, +1.19102617410E+001, +5.06917385141E+002
+2.08551939925E+007, +1.07429092649E+001, +5.10157804891E+002
+2.09802252816E+007, +1.18259662224E+001, +5.14276276466E+002
+2.11052565707E+007, +1.14573982993E+001, +5.18646400132E+002
+2.12302878598E+007, +1.14025708332E+001, +5.21130224827E+002
+2.13553191489E+007, +1.09047135259E+001, +5.25221453781E+002
+2.14803504380E+007, +1.08437332466E+001, +5.29011328331E+002
+2.16053817272E+007, +1.17188026430E+001, +5.31767663794E+002
+2.17304130163E+007, +1.16949679198E+001, +5.36730303151E+002
+2.18554443054E+007, +1.20591771591E+001, +5.40488724732E+002
+2.19804755945E+007, +1.10216286344E+001, +5.43376611417E+002
+2.21055068836E+007, +1.31355928042E+001, +5.45225443158E+002
+2.22305381727E+007, +1.22548456192E+001, +5.50751092139E+002
+2.23555694618E+007, +1.29768575842E+001, +5.54123142388E+002
+2.24806007509E+007, +1.33495595644E+001, +5.57672779250E+002
+2.26056320401E+007, +1.40384321481E+001, +5.61518018291E+002
+2.27306633292E+007, +1.20614363934E+001, +5.65537291947E+002
+2.28556946183E+007, +1.52541655111E+001, +5.69751734641E+002
+2.29807259074E+007, +1.34732161215E+001, +5.71481208887E+002
+2.31057571965E+007, +1.60540069221E+001, +5.74995267357E+002
+2.32307884856E+007, +1.45833644965E+001, +5.78654102709E+002
+2.33558197747E+007, +1.36509239727E+001, +5.84780903269E+002
+2.34808510638E+007, +1.55340496503E+001, +5.85656204421E+002
+2.36058823529E+007, +1.51087310397E+001, +5.90937009368E+002
+2.37309136421E+007, +1.46974276338E+001, +5.94339592072E+002
+2.38559449312E+007, +1.58935202234E+001, +5.96747106445E+002
+2.39809762203E+007, +1.60224387601E+001, +6.00986500443E+002
+2.41060075094E+007, +1.48638220248E+001, +6.05549814743E+002
+2.42310387985E+007, +1.65135268040E+001, +6.07474687970E+002
+2.43560700876E+007, +1.59703404075E+001, +6.12155909063E+002
+2.44811013767E+007, +1.63894177440E+001, +6.16109771980E+002
+2.46061326658E+007, +1.73953449948E+001, +6.17907270862E+002
+2.47311639549E+007, +1.58684301961E+001, +6.22280128028E+002
+2.48561952441E+007, +1.56208962340E+001, +6.28830425777E+002
+2.49812265332E+007, +1.71121952524E+001, +6.30742160345E+002
+2.51062578223E+007, +1.86266305577E+001, +6.34867646603E+002
+2.52312891114E+007, +1.97174049377E+001, +6.36559128532E+002
+2.53563204005E+007, +1.72145247413E+001, +6.43285836612E+002
+2.54813516896E+007, +1.82978039063E+001, +6.47547783884E+002
+2.56063829787E+007, +1.88455361258E+001, +6.48558905467E+002
+2.57314142678E+007, +1.89826146542E+001, +6.55355226804E+002
+2.58564455569E+007, +1.77919707788E+001, +6.56104640892E+002
+2.59814768461E+007, +1.85725215270E+001, +6.61879681273E+002
+2.61065081352E+007, +1.94312189905E+001, +6.62847136819E+002
+2.62315394243E+007, +2.07632284272E+001, +6.72223504483E+002
+2.63565707134E+007, +2.00405608821E+001, +6.74940585240E+002
+2.64816020025E+007, +1.63551488701E+001, +6.76198562190E+002
+2.66066332916E+007, +2.08825513232E+001, +6.80169365524E+002
+2.67316645807E+007, +2.17194748059E+001, +6.84139136158E+002
+2.68566958698E+007, +2.08293400781E+001, +6.89770627055E+002
+2.69817271589E+007, +2.06477779903E+001, +6.94961023672E+002
+2.71067584481E+007, +2.24380953163E+001, +6.95734016689E+002
+2.72317897372E+007, +2.22942394075E+001, +7.01188796934E+002
+2.73568210263E+007, +2.17583170033E+001, +7.03214274867E+002
+2.74818523154E+007, +2.15595992889E+001, +7.08883047390E+002
+2.76068836045E+007, +2.42185942856E+001, +7.11292038316E+002
+2.77319148936E+007, +2.10785807343E+001, +7.12300481566E+002
+2.78569461827E+007, +2.10478011767E+001, +7.20043345073E+002
+2.79819774718E+007, +2.33704026872E+001, +7.22924913157E+002
+2.81070087610E+007, +2.17879955418E+001, +7.28758221283E+002
+2.82320400501E+007, +2.38361107937E+001, +7.35168556717E+002
+2.83570713392E+007, +2.11171541017E+001, +7.36089221159E+002
+2.84821026283E+007, +2.42466418646E+001, +7.39700040275E+002
+2.86071339174E+007, +2.23662706371E+001, +7.46238705834E+002
+2.87321652065E+007, +2.23233597006E+001, +7.51468205641E+002
+2.88571964956E+007, +2.03892118588E+001, +7.51695168178E+002
+2.89822277847E+007, +2.28506999678E+001, +7.59187058586E+002
+2.91072590738E+007, +2.40180703943E+001, +7.57768342243E+002
+2.92322903630E+007, +2.09534069210E+001, +7.67242170944E+002
+2.93573216521E+007, +2.78561300281E+001, +7.66524866540E+002
+2.94823529412E+007, +2.16261336706E+001, +7.75417831223E+002
+2.96073842303E+007, +2.52323704684E+001, +7.76774944181E+002
+2.97324155194E+007, +2.48655784820E+001, +7.80196017147E+002
+2.98574468085E+007, +2.56707686487E+001, +7.87998897182E+002
+2.99824780976E+007, +2.74780926938E+001, +7.91535000540E+002
+3.01075093867E+007, +2.93904768576E+001, +7.95329422709E+002
+3.02325406758E+007, +2.65324715252E+001, +7.99524540637E+002
+3.03575719650E+007, +2.19626285492E+001, +8.01820770029E+002
+3.04826032541E+007, +2.69607083102E+001, +8.07611713317E+002
+3.06076345432E+007, +2.86043570141E+001, +8.10830349805E+002
+3.07326658323E+007, +2.45729266945E+001, +8.17171118911E+002
+3.08576971214E+007, +2.55551710071E+001, +8.21288640131E+002
+3.09827284105E+007, +2.70536057270E+001, +8.24126527528E+002
+3.11077596996E+007, +2.47811867848E+001, +8.31177714651E+002
+3.12327909887E+007, +2.70173143606E+001, +8.34089282659E+002
+3.13578222778E+007, +2.41418330262E+001, +8.41638477711E+002
+3.14828535670E+007, +2.35061235685E+001, +8.42712269164E+002
+3.16078848561E+007, +2.82113226242E+001, +8.48522299633E+002
+3.17329161452E+007, +2.80094986388E+001, +8.52073148989E+002
+3.18579474343E+007, +2.79721371089E+001, +8.56639038922E+002
+3.19829787234E+007, +2.26332501063E+001, +8.67047363887E+002
+3.21080100125E+007, +2.86265016480E+001, +8.66593494863E+002
+3.22330413016E+007, +2.75995012761E+001, +8.71707268178E+002
+3.23580725907E+007, +2.59951453915E+001, +8.74736209762E+002
+3.24831038798E+007, +2.83391109793E+001, +8.81788015282E+002
+3.26081351690E+007, +2.82289408352E+001, +8.86212077868E+002
+3.27331664581E+007, +2.70578686075E+001, +8.91834671072E+002
+3.28581977472E+007, +2.71484860235E+001, +8.93888355410E+002
+3.29832290363E+007, +2.57121281595E+001, +9.02024863844E+002
+3.31082603254E+007, +2.94866946350E+001, +9.05454263921E+002
+3.32332916145E+007, +2.85985162715E+001, +9.13274748226E+002
+3.33583229036E+007, +2.68340244998E+001, +9.19031922643E+002
+3.34833541927E+007, +2.76788275098E+001, +9.20043527665E+002
+3.36083854819E+007, +2.91598486760E+001, +9.24862439173E+002
+3.37334167710E+007, +2.93187351315E+001, +9.25023010039E+002
+3.38584480601E+007, +2.41418564432E+001, +9.34487343205E+002
+3.39834793492E+007, +2.56342693151E+001, +9.40709118992E+002
+3.41085106383E+007, +3.18485443205E+001, +9.49834620423E+002
+3.42335419274E+007, +3.26214131885E+001, +9.52459678734E+002
+3.43585732165E+007, +2.92503906167E+001, +9.58951899694E+002
+3.44836045056E+007, +2.88663176105E+001, +9.60088577796E+002
+3.46086357947E+007, +3.08904761934E+001, +9.72278794785E+002
+3.47336670839E+007, +2.95037987824E+001, +9.77528712739E+002
+3.48586983730E+007, +2.95594070872E+001, +9.79930660598E+002
+3.49837296621E+007, +2.89881380667E+001, +9.82535010437E+002
+3.51087609512E+007, +2.31218612440E+001, +9.90990150714E+002
+3.52337922403E+007, +2.90727069971E+001, +9.97516279060E+002
+3.53588235294E+007, +3.28142094389E+001, +1.00403564938E+003
+3.54838548185E+007, +2.97851065818E+001, +1.00715313544E+003
+3.56088861076E+007, +3.34379631401E+001, +1.01591596445E+003
+3.57339173967E+007, +2.90778889068E+001, +1.02171098349E+003
+3.58589486859E+007, +2.62312796872E+001, +1.02476473337E+003
+3.59839799750E+007, +2.74149828853E+001, +1.03226342908E+003
+3.61090112641E+007, +2.59710720690E+001, +1.03642154488E+003
+3.62340425532E+007, +3.08088988218E+001, +1.03955817334E+003
+3.63590738423E+007, +3.72913229312E+001, +1.04814028488E+003
+3.64841051314E+007, +2.76949331542E+001, +1.05152502214E+003
+3.66091364205E+007, +3.17704602939E+001, +1.06202548839E+003
+3.67341677096E+007, +2.98230992529E+001, +1.06866917440E+003
+3.68591989987E+007, +2.96491446826E+001, +1.07778160164E+003
+3.69842302879E+007, +3.00494625664E+001, +1.08732397879E+003
+3.71092615770E+007, +2.88604731049E+001, +1.08739005654E+003
+3.72342928661E+007, +2.90456039421E+001, +1.09468157883E+003
+3.73593241552E+007, +2.48626084182E+001, +1.09095075961E+003
+3.74843554443E+007, +3.14884029116E+001, +1.11074406019E+003
+3.76093867334E+007, +2.41451514392E+001, +1.11517305335E+003
+3.77344180225E+007, +3.31639424363E+001, +1.12286545711E+003
+3.78594493116E+007, +3.13508203015E+001, +1.12409645554E+003
+3.79844806008E+007, +2.95949633477E+001, +1.13409387162E+003
+3.81095118899E+007, +2.51144076059E+001, +1.14436320955E+003
+3.82345431790E+007, +3.22738838835E+001, +1.15028227981E+003
+3.83595744681E+007, +3.26096022012E+001, +1.15387357017E+003
+3.84846057572E+007, +3.38010620356E+001, +1.16340340345E+003
+3.86096370463E+007, +2.11068647573E+001, +1.17559016629E+003
+3.87346683354E+007, +3.11723267895E+001, +1.17546532816E+003
+3.88596996245E+007, +3.42878958868E+001, +1.18552480307E+003
+3.89847309136E+007, +3.69074856286E+001, +1.19465762283E+003
+3.91097622028E+007, +2.47154361570E+001, +1.20556954429E+003
+3.92347934919E+007, +4.08911205477E+001, +1.20753281628E+003
+3.93598247810E+007, +3.57975357712E+001, +1.22495022582E+003
+3.94848560701E+007, +3.45143882070E+001, +1.22020676764E+003
+3.96098873592E+007, +3.53395073209E+001, +1.23746074844E+003
+3.97349186483E+007, +3.67889954631E+001, +1.24211824193E+003
+3.98599499374E+007, +3.62870946893E+001, +1.25341771311E+003
+3.99849812265E+007, +3.97016943501E+001, +1.25308554349E+003
+4.01100125156E+007, +3.64862304614E+001, +1.26357170102E+003
