"# Channel 1"
"# Trace 1"
Frequency, Formatted Data, Formatted Data
+1.00000000000E+005, +1.06815625536E+000, +2.68424203386E+000
+2.66777963272E+005, +1.06508994203E+000, +7.16272942837E+000
+4.33555926544E+005, +1.10253678650E+000, +1.16421684841E+001
+6.00333889816E+005, +1.15964154095E+000, +1.60424929732E+001
+7.67111853088E+005, +1.23771776548E+000, +2.05271927539E+001
+9.33889816361E+005, +1.28283455109E+000, +2.49128297370E+001
+1.10066777963E+006, +1.25532918817E+000, +2.93883460114E+001
+1.26744574290E+006, +1.34889591813E+000, +3.37480172811E+001
+1.43422370618E+006, +1.32337628987E+000, +3.82327792433E+001
+1.60100166945E+006, +1.46282524616E+000, +4.25288987633E+001
+1.76777963272E+006, +1.48456386539E+000, +4.69402874273E+001
+1.93455759599E+006, +1.50874044963E+000, +5.12252300710E+001
+2.10133555927E+006, +1.56010562276E+000, +5.55638397697E+001
+2.26811352254E+006, +1.64626865749E+000, +6.00113978605E+001
+2.43489148581E+006, +1.58648343502E+000, +6.45625681596E+001
+2.60166944908E+006, +1.65456015260E+000, +6.87656922688E+001
+2.76844741235E+006, +1.61034962836E+000, +7.33124538778E+001
+2.93522537563E+006, +1.62173312435E+000, +7.76855402038E+001
+3.10200333890E+006, +1.80368131296E+000, +8.18974365562E+001
+3.26878130217E+006, +1.54295199650E+000, +8.65935050335E+001
+3.43555926544E+006, +1.66453017660E+000, +9.08576196419E+001
+3.60233722871E+006, +1.69298384791E+000, +9.54002246809E+001
+3.76911519199E+006, +1.66479085323E+000, +9.99517325132E+001
+3.93589315526E+006, +1.55842415274E+000, +1.04188926462E+002
+4.10267111853E+006, +1.76248444151E+000, +1.08794806195E+002
+4.26944908180E+006, +1.72917422110E+000, +1.13344081839E+002
+4.43622704508E+006, +1.66916899435E+000, +1.17474282162E+002
+4.60300500835E+006, +1.66853402960E+000, +1.22131642847E+002
+4.76978297162E+006, +1.70702513733E+000, +1.26446876686E+002
+4.93656093489E+006, +1.96187765743E+000, +1.31168523806E+002
+5.10333889816E+006, +1.84203267875E+000, +1.35533710836E+002
+5.27011686144E+006, +2.21830804952E+000, +1.40159439684E+002
+5.43689482471E+006, +1.94586750362E+000, +1.44688431639E+002
+5.60367278798E+006, +2.03659365123E+000, +1.49451300486E+002
+5.77045075125E+006, +1.91845567208E+000, +1.53809742075E+002
+5.93722871452E+006, +1.94916199156E+000, +1.58295725306E+002
+6.10400667780E+006, +2.08627183985E+000, +1.63000101426E+002
+6.27078464107E+006, +2.44954706398E+000, +1.67532335638E+002
+6.43756260434E+006, +2.38959876312E+000, +1.72116803703E+002
+6.60434056761E+006, +2.58969243668E+000, +1.76518835821E+002
+6.77111853088E+006, +2.84552013126E+000, +1.81081935907E+002
+6.93789649416E+006, +2.64823521307E+000, +1.85804279718E+002
+7.10467445743E+006, +2.74074827004E+000, +1.90320819824E+002
+7.27145242070E+006, +2.85949517403E+000, +1.94800369565E+002
+7.43823038397E+006, +2.83298816618E+000, +1.99353622415E+002
+7.60500834725E+006, +2.74863654624E+000, +2.04108737448E+002
+7.77178631052E+006, +2.99722542355E+000, +2.08902962004E+002
+7.93856427379E+006, +2.69420398603E+000, +2.13251470159E+002
+8.10534223706E+006, +2.81061861091E+000, +2.18024645782E+002
+8.27212020033E+006, +2.72293406587E+000, +2.22641018582E+002
+8.43889816361E+006, +2.66561098053E+000, +2.27411691089E+002
+8.60567612688E+006, +2.38323369100E+000, +2.32486601578E+002
+8.77245409015E+006, +2.56825772745E+000, +2.36940532070E+002
+8.93923205342E+006, +2.63254701413E+000, +2.41499585809E+002
+9.10601001669E+006, +2.59019844535E+000, +2.46675573367E+002
+9.27278797997E+006, +2.67723743853E+000, +2.51368553437E+002
+9.43956594324E+006, +2.34888125422E+000, +2.56205835783E+002
+9.60634390651E+006, +2.22452777608E+000, +2.61251221792E+002
+9.77312186978E+006, +2.30996889102E+000, +2.65785868324E+002
+9.93989983306E+006, +2.70499408774E+000, +2.71227214641E+002
+1.01066777963E+007, +2.14152556977E+000, +2.75447984775E+002
+1.02734557596E+007, +2.15799485729E+000, +2.81191951721E+002
+1.04402337229E+007, +2.13550615180E+000, +2.85493516419E+002
+1.06070116861E+007, +2.08329594810E+000, +2.90646140989E+002
+1.07737896494E+007, +2.13195010902E+000, +2.95916655646E+002
+1.09405676127E+007, +2.44863703075E+000, +3.00914229164E+002
+1.11073455760E+007, +2.24473399467E+000, +3.06252915673E+002
+1.12741235392E+007, +2.10357146123E+000, +3.10698409899E+002
+1.14409015025E+007, +2.14109405348E+000, +3.16193465215E+002
+1.16076794658E+007, +2.12468614587E+000, +3.21107597600E+002
+1.17744574290E+007, +2.50845594381E+000, +3.26921167353E+002
+1.19412353923E+007, +1.78863681023E+000, +3.31492621826E+002
+1.21080133556E+007, +1.66267506678E+000, +3.37176352119E+002
+1.22747913189E+007, +2.22410682088E+000, +3.42261634265E+002
+1.24415692821E+007, +1.55547038213E+000, +3.47323503534E+002
+1.26083472454E+007, +1.94583594050E+000, +3.53194612889E+002
+1.27751252087E+007, +1.68643120632E+000, +3.58278612371E+002
+1.29419031720E+007, +1.39748275012E+000, +3.62871112460E+002
+1.31086811352E+007, +2.13373718836E+000, +3.69302215003E+002
+1.32754590985E+007, +1.88678080928E+000, +3.74017256916E+002
+1.34422370618E+007, +1.56622347980E+000, +3.80100187631E+002
+1.36090150250E+007, +2.73889381827E+000, +3.84890156952E+002
+1.37757929883E+007, +1.25341284463E+000, +3.90787281439E+002
+1.39425709516E+007, +2.18198482016E+000, +3.96201771726E+002
+1.41093489149E+007, +1.93652687132E+000, +4.02258557111E+002
+1.42761268781E+007, +2.35315493631E+000, +4.07281782106E+002
+1.44429048414E+007, +2.54099645287E+000, +4.12668182563E+002
+1.46096828047E+007, +1.99713037864E+000, +4.18596924045E+002
+1.47764607679E+007, +2.73446291470E+000, +4.23207231087E+002
+1.49432387312E+007, +2.01500902305E+000, +4.30411435716E+002
+1.51100166945E+007, +1.67791714922E+000, +4.35634610602E+002
+1.52767946578E+007, +2.08775840263E+000, +4.41400621881E+002
+1.54435726210E+007, +1.34576260275E+000, +4.47718174127E+002
+1.56103505843E+007, +1.91971809045E+000, +4.53660767069E+002
+1.57771285476E+007, +2.07093881795E+000, +4.59063394838E+002
+1.59439065109E+007, +1.45671165503E+000, +4.64582720252E+002
+1.61106844741E+007, +1.12246986184E+000, +4.71022615875E+002
+1.62774624374E+007, +2.13420761914E+000, +4.77580965072E+002
+1.64442404007E+007, +1.45879384549E+000, +4.83181670476E+002
+1.66110183639E+007, +2.32909777919E+000, +4.90140331934E+002
+1.67777963272E+007, +2.50726983117E+000, +4.96424233081E+002
+1.69445742905E+007, +2.68243213734E+000, +5.01383091661E+002
+1.71113522538E+007, -3.34547191977E-001, +5.07763270594E+002
+1.72781302170E+007, +1.39954975884E+000, +5.16178898017E+002
+1.74449081803E+007, -1.20949762308E-001, +5.21622599330E+002
+1.76116861436E+007, +2.60988116350E+000, +5.28256509835E+002
+1.77784641068E+007, +8.67930830725E-001, +5.33085989994E+002
+1.79452420701E+007, +1.69441158261E+000, +5.40444537141E+002
+1.81120200334E+007, +1.72358936565E+000, +5.46423938775E+002
+1.82787979967E+007, +2.19172006760E+000, +5.53720464967E+002
+1.84455759599E+007, +2.47588933334E+000, +5.61972795174E+002
+1.86123539232E+007, +2.51490234632E+000, +5.67149849962E+002
+1.87791318865E+007, +1.58554236030E+000, +5.74763468207E+002
+1.89459098497E+007, +2.62203248142E+000, +5.81726062513E+002
+1.91126878130E+007, +2.94097384154E+000, +5.87106590575E+002
+1.92794657763E+007, +1.93973399971E+000, +5.95814438346E+002
+1.94462437396E+007, +3.70388336501E+000, +6.02610522941E+002
+1.96130217028E+007, +3.58226326592E+000, +6.11150988535E+002
+1.97797996661E+007, +2.83107121320E+000, +6.16301075377E+002
+1.99465776294E+007, +1.20700160697E+000, +6.23044174223E+002
+2.01133555927E+007, +1.81192470246E+000, +6.31739461162E+002
+2.02801335559E+007, +2.29704234633E+000, +6.40720930563E+002
+2.04469115192E+007, +3.74816237776E+000, +6.47030283522E+002
+2.06136894825E+007, +2.99423682934E+000, +6.54585232898E+002
+2.07804674457E+007, +5.52452252840E+000, +6.61315636547E+002
+2.09472454090E+007, +3.85845341406E+000, +6.71581253254E+002
+2.11140233723E+007, +4.73281347920E+000, +6.76327061972E+002
+2.12808013356E+007, +4.75557156035E+000, +6.84659462673E+002
+2.14475792988E+007, +4.29689250251E+000, +6.91527192132E+002
+2.16143572621E+007, +6.02688862753E+000, +6.99463173943E+002
+2.17811352254E+007, +6.40972728037E+000, +7.07776331520E+002
+2.19479131886E+007, +7.79570684073E+000, +7.16214128424E+002
+2.21146911519E+007, +9.27669981441E+000, +7.21417535014E+002
+2.22814691152E+007, +8.51444964356E+000, +7.34738057044E+002
+2.24482470785E+007, +8.34340229524E+000, +7.42777921276E+002
+2.26150250417E+007, +1.23178281762E+001, +7.50178334709E+002
+2.27818030050E+007, +8.49705502104E+000, +7.59205763054E+002
+2.29485809683E+007, +1.05996774222E+001, +7.68232881327E+002
+2.31153589316E+007, +9.54795912755E+000, +7.77567102600E+002
+2.32821368948E+007, +8.88601582694E+000, +7.86194208114E+002
+2.34489148581E+007, +1.18523095125E+001, +7.93521860156E+002
+2.36156928214E+007, +1.30911249200E+001, +8.05353400487E+002
+2.37824707846E+007, +1.25939662203E+001, +8.10861028389E+002
+2.39492487479E+007, +1.16199666010E+001, +8.17213749663E+002
+2.41160267112E+007, +1.31123797582E+001, +8.30264745886E+002
+2.42828046745E+007, +1.28011949738E+001, +8.37447400859E+002
+2.44495826377E+007, +1.76603971469E+001, +8.51090381422E+002
+2.46163606010E+007, +1.52691569629E+001, +8.58804251219E+002
+2.47831385643E+007, +1.73108577244E+001, +8.67631253075E+002
+2.49499165275E+007, +2.06605890287E+001, +8.78019774555E+002
+2.51166944908E+007, +1.91856823580E+001, +8.86873300976E+002
+2.52834724541E+007, +1.85786537087E+001, +8.95847005470E+002
+2.54502504174E+007, +2.24084539548E+001, +9.09359044152E+002
+2.56170283806E+007, +1.69989013608E+001, +9.19963487889E+002
+2.57838063439E+007, +2.30336566522E+001, +9.31313245136E+002
+2.59505843072E+007, +2.13242994706E+001, +9.41950392588E+002
+2.61173622705E+007, +2.39146666915E+001, +9.48964041638E+002
+2.62841402337E+007, +2.54688358302E+001, +9.58789645627E+002
+2.64509181970E+007, +2.45860569185E+001, +9.72097197817E+002
+2.66176961603E+007, +2.56873038718E+001, +9.86698591559E+002
+2.67844741235E+007, +2.50703070947E+001, +9.93455157223E+002
+2.69512520868E+007, +2.71509779157E+001, +1.00618895680E+003
+2.71180300501E+007, +3.15011825025E+001, +1.01742905084E+003
+2.72848080134E+007, +2.47985683574E+001, +1.03220650516E+003
+2.74515859766E+007, +3.51512993034E+001, +1.03932591486E+003
+2.76183639399E+007, +2.50873626142E+001, +1.05351367026E+003
+2.77851419032E+007, +2.64174374788E+001, +1.05762726311E+003
+2.79519198664E+007, +3.27486337817E+001, +1.07926512102E+003
+2.81186978297E+007, +3.18323736590E+001, +1.08506677591E+003
+2.82854757930E+007, +3.55443999971E+001, +1.10304410317E+003
+2.84522537563E+007, +2.91160827693E+001, +1.11829386235E+003
+2.86190317195E+007, +3.00966536118E+001, +1.12802937795E+003
+2.87858096828E+007, +3.95711550426E+001, +1.14532068476E+003
+2.89525876461E+007, +3.70591726437E+001, +1.15275732130E+003
+2.91193656093E+007, +3.30349722374E+001, +1.16843657993E+003
+2.92861435726E+007, +3.30704102683E+001, +1.18879769400E+003
+2.94529215359E+007, +3.93584811602E+001, +1.19318768761E+003
+2.96196994992E+007, +4.45350516872E+001, +1.21080279108E+003
+2.97864774624E+007, +4.82352846317E+001, +1.22105222266E+003
+2.99532554257E+007, +5.12608445612E+001, +1.24391419589E+003
+3.01200333890E+007, +4.33701666688E+001, +1.26115770195E+003
+3.02868113523E+007, +4.97820048153E+001, +1.27296385745E+003
+3.04535893155E+007, +4.04118114986E+001, +1.29341192397E+003
+3.06203672788E+007, +5.48967391449E+001, +1.30047487174E+003
+3.07871452421E+007, +4.94808670924E+001, +1.32404617039E+003
+3.09539232053E+007, +5.55451213971E+001, +1.33279615854E+003
+3.11207011686E+007, +5.06235543976E+001, +1.36311774466E+003
+3.12874791319E+007, +5.66102940590E+001, +1.36496384153E+003
+3.14542570952E+007, +5.10892559671E+001, +1.38954383771E+003
+3.16210350584E+007, +5.70178806948E+001, +1.41188945996E+003
+3.17878130217E+007, +5.44436005663E+001, +1.42417376435E+003
+3.19545909850E+007, +5.36308417467E+001, +1.44926968024E+003
+3.21213689482E+007, +4.89911695474E+001, +1.46670960692E+003
+3.22881469115E+007, +6.58354411538E+001, +1.47639770966E+003
+3.24549248748E+007, +5.18594177001E+001, +1.50724459629E+003
+3.26217028381E+007, +5.62850159590E+001, +1.52893671988E+003
+3.27884808013E+007, +6.55971122702E+001, +1.54398742857E+003
+3.29552587646E+007, +7.43912515799E+001, +1.55154904993E+003
+3.31220367279E+007, +6.98838572200E+001, +1.59002852285E+003
+3.32888146912E+007, +7.27306483580E+001, +1.62006961054E+003
+3.34555926544E+007, +6.82603587215E+001, +1.64085485274E+003
+3.36223706177E+007, +8.56155231112E+001, +1.65058298594E+003
+3.37891485810E+007, +7.08174592130E+001, +1.66653149839E+003
+3.39559265442E+007, +6.51632513317E+001, +1.71075030348E+003
+3.41227045075E+007, +6.89752049637E+001, +1.72615564359E+003
+3.42894824708E+007, +8.13487810492E+001, +1.75429673291E+003
+3.44562604341E+007, +8.56795013241E+001, +1.78722626973E+003
+3.46230383973E+007, +9.87053222894E+001, +1.81858490593E+003
+3.47898163606E+007, +8.16361799165E+001, +1.83652508739E+003
+3.49565943239E+007, +1.02455453921E+002, +1.87080058208E+003
+3.51233722871E+007, +9.41112759080E+001, +1.90896442436E+003
+3.52901502504E+007, +9.60675776359E+001, +1.90982222168E+003
+3.54569282137E+007, +9.23477075185E+001, +1.96434693595E+003
+3.56237061770E+007, +8.86328886092E+001, +2.00522955677E+003
+3.57904841402E+007, +9.25815131558E+001, +2.03820431746E+003
+3.59572621035E+007, +1.00926611120E+002, +2.06999342867E+003
+3.61240400668E+007, +1.01091330175E+002, +2.10153030923E+003
+3.62908180301E+007, +1.24916759852E+002, +2.15173785891E+003
+3.64575959933E+007, +1.17693442010E+002, +2.21571454444E+003
+3.66243739566E+007, +1.43658053399E+002, +2.20791862006E+003
+3.67911519199E+007, +1.12213590080E+002, +2.27527169915E+003
+3.69579298831E+007, +1.01482149467E+002, +2.29755855963E+003
+3.71247078464E+007, +1.25488978299E+002, +2.37075452564E+003
+3.72914858097E+007, +1.19485603598E+002, +2.41467196383E+003
+3.74582637730E+007, +1.60201346760E+002, +2.49541714851E+003
+3.76250417362E+007, +1.56802583464E+002, +2.51967603203E+003
+3.77918196995E+007, +1.35422119979E+002, +2.58492052406E+003
+3.79585976628E+007, +1.48505228399E+002, +2.65150785640E+003
+3.81253756260E+007, +1.62952773281E+002, +2.70337497943E+003
+3.82921535893E+007, +1.97422584714E+002, +2.74855764076E+003
+3.84589315526E+007, +2.05553278447E+002, +2.84084488064E+003
+3.86257095159E+007, +1.83272751992E+002, +2.90556830769E+003
+3.87924874791E+007, +1.71873542783E+002, +2.95526875880E+003
+3.89592654424E+007, +2.39831116695E+002, +3.04294584998E+003
+3.91260434057E+007, +2.71152086079E+002, +3.17568040335E+003
+3.92928213689E+007, +2.30247881216E+002, +3.18730086563E+003
+3.94595993322E+007, +2.52770249519E+002, +3.28958308776E+003
+3.96263772955E+007, +2.76070806986E+002, +3.39184983989E+003
+3.97931552588E+007, +2.29789583056E+002, +3.51170757993E+003
+3.99599332220E+007, +3.10473152512E+002, +3.58337730748E+003
+4.01267111853E+007, +3.60677907376E+002, +3.70303620078E+003
+4.02934891486E+007, +3.30585385129E+002, +3.73607073091E+003
+4.04602671119E+007, +3.21167669706E+002, +3.84814909520E+003
+4.06270450751E+007, +4.86263150341E+002, +3.99944728976E+003
+4.07938230384E+007, +4.30952820497E+002, +4.17700602943E+003
+4.09606010017E+007, +5.59992815516E+002, +4.38747065321E+003
+4.11273789649E+007, +5.69473260617E+002, +4.49255751667E+003
+4.12941569282E+007, +5.73343142445E+002, +4.60479738332E+003
+4.14609348915E+007, +6.99586650004E+002, +4.84237871451E+003
+4.16277128548E+007, +7.16331163027E+002, +4.95514237481E+003
+4.17944908180E+007, +7.88143467143E+002, +5.26724427516E+003
+4.19612687813E+007, +8.47539386513E+002, +5.39298613286E+003
+4.21280467446E+007, +8.56073326115E+002, +5.63862412616E+003
+4.22948247078E+007, +1.14243022471E+003, +5.84706445603E+003
+4.24616026711E+007, +1.28794073632E+003, +5.98191483180E+003
+4.26283806344E+007, +1.38931155575E+003, +6.42164183046E+003
+4.27951585977E+007, +1.28588005614E+003, +6.96020956719E+003
+4.29619365609E+007, +1.64607346234E+003, +7.28562262074E+003
+4.31287145242E+007, +1.99995970628E+003, +7.67520567364E+003
+4.32954924875E+007, +2.23821736075E+003, +7.91985239204E+003
+4.34622704508E+007, +2.54159453632E+003, +8.58220076149E+003
+4.36290484140E+007, +3.20271844634E+003, +8.87556493008E+003
+4.37958263773E+007, +3.47221146871E+003, +1.00474922849E+004
+4.39626043406E+007, +4.40076763454E+003, +1.03179623178E+004
+4.41293823038E+007, +6.06342643332E+003, +1.07801367359E+004
+4.42961602671E+007, +5.90602788517E+003, +1.30872313445E+004
+4.44629382304E+007, +8.15458530021E+003, +1.38111324819E+004
+4.46297161937E+007, +1.09619087943E+004, +1.31725890986E+004
+4.47964941569E+007, +1.47420792053E+004, +1.49298243092E+004
+4.49632721202E+007, +1.74395770153E+004, +1.52303059623E+004
+4.51300500835E+007, +2.05386761730E+004, +1.31576972712E+004
+4.52968280467E+007, +2.35903902525E+004, +6.67319036002E+003
+4.54636060100E+007, +2.62793572370E+004, +5.24567426086E+002
+4.56303839733E+007, +2.42390325273E+004, -6.99291141318E+003
+4.57971619366E+007, +2.21011852175E+004, -1.02268115585E+004
+4.59639398998E+007, +1.48106274569E+004, -1.29368408715E+004
+4.61307178631E+007, +1.30607695163E+004, -1.15921047724E+004
+4.62974958264E+007, +9.99962706544E+003, -1.13628178048E+004
+4.64642737896E+007, +9.23610172093E+003, -1.12674353373E+004
+4.66310517529E+007, +7.04305988609E+003, -1.08393322650E+004
+4.67978297162E+007, +6.87440597327E+003, -9.13287501045E+003
+4.69646076795E+007, +5.07371451203E+003, -8.92165210217E+003
+4.71313856427E+007, +4.74564978919E+003, -8.14824202038E+003
+4.72981636060E+007, +4.09156855618E+003, -7.82049995241E+003
+4.74649415693E+007, +3.75601984256E+003, -7.67582681427E+003
+4.76317195326E+007, +3.58902984303E+003, -6.71738890665E+003
+4.77984974958E+007, +3.10269712672E+003, -6.42161873143E+003
+4.79652754591E+007, +2.75641154145E+003, -6.07792330490E+003
+4.81320534224E+007, +2.72085770156E+003, -5.72382303586E+003
+4.82988313856E+007, +2.51221836750E+003, -5.49774799794E+003
+4.84656093489E+007, +2.42351497519E+003, -5.35604573636E+003
+4.86323873122E+007, +2.31896989378E+003, -5.09369349759E+003
+4.87991652755E+007, +2.16110761793E+003, -4.83949406193E+003
+4.89659432387E+007, +2.15246559830E+003, -4.56895935053E+003
+4.91327212020E+007, +1.90026957110E+003, -4.36778231178E+003
+4.92994991653E+007, +1.90314432911E+003, -4.30563503449E+003
+4.94662771285E+007, +1.80202349984E+003, -4.14434657236E+003
+4.96330550918E+007, +1.78149282496E+003, -3.98545889471E+003
+4.97998330551E+007, +1.68428803712E+003, -3.84698667716E+003
+4.99666110184E+007, +1.64956831477E+003, -3.72535165051E+003
+5.01333889816E+007, +1.52620786484E+003, -3.72290477813E+003
+5.03001669449E+007, +1.51742543536E+003, -3.66227875254E+003
+5.04669449082E+007, +1.45591065795E+003, -3.53149533566E+003
+5.06337228715E+007, +1.39585233473E+003, -3.42410273554E+003
+5.08005008347E+007, +1.38798921198E+003, -3.43052765904E+003
+5.09672787980E+007, +1.32963025401E+003, -3.35187601423E+003
+5.11340567613E+007, +1.26405455801E+003, -3.27864996041E+003
+5.13008347245E+007, +1.12243692560E+003, -3.19881114208E+003
+5.14676126878E+007, +1.11883074921E+003, -3.16790477578E+003
+5.16343906511E+007, +1.05942458005E+003, -3.08359961029E+003
+5.18011686144E+007, +1.00400249826E+003, -3.05169193375E+003
+5.19679465776E+007, +9.21407016519E+002, -3.03307126500E+003
+5.21347245409E+007, +8.94946769368E+002, -2.91110966433E+003
+5.23015025042E+007, +8.28570549352E+002, -2.81075746036E+003
+5.24682804674E+007, +7.44470141851E+002, -2.74890159371E+003
+5.26350584307E+007, +7.67489810114E+002, -2.71594198854E+003
+5.28018363940E+007, +6.74925470524E+002, -2.65434883609E+003
+5.29686143573E+007, +6.31683722556E+002, -2.56902161825E+003
+5.31353923205E+007, +6.32825013132E+002, -2.54364647813E+003
+5.33021702838E+007, +5.79311894291E+002, -2.47174960162E+003
+5.34689482471E+007, +5.46149237001E+002, -2.38898680864E+003
