"# Channel 1"
"# Trace 1"
Frequency, Formatted Data, Formatted Data
+1.00000000000E+005, +5.24637369365E+001, +2.49595512072E+000
+2.25031289111E+005, +5.24884863334E+001, +5.96769015058E+000
+3.50062578223E+005, +5.24955545057E+001, +9.26871432439E+000
+4.75093867334E+005, +5.25256872261E+001, +1.25486082974E+001
+6.00125156446E+005, +5.25128890475E+001, +1.58233000683E+001
+7.25156445557E+005, +5.24512947645E+001, +1.90222069243E+001
+8.50187734668E+005, +5.25076805045E+001, +2.22800241294E+001
+9.75219023780E+005, +5.25139236619E+001, +2.55493106443E+001
+1.10025031289E+006, +5.25055544928E+001, +2.88437183437E+001
+1.22528160200E+006, +5.25000663022E+001, +3.21385656360E+001
+1.35031289111E+006, +5.25352475935E+001, +3.53996253892E+001
+1.47534418023E+006, +5.25130347263E+001, +3.86231519535E+001
+1.60037546934E+006, +5.25216366918E+001, +4.18591032246E+001
+1.72540675845E+006, +5.24495100300E+001, +4.52274311707E+001
+1.85043804756E+006, +5.24827119410E+001, +4.84648806881E+001
+1.97546933667E+006, +5.25437397990E+001, +5.17450566190E+001
+2.10050062578E+006, +5.24739958131E+001, +5.48969668995E+001
+2.22553191489E+006, +5.25333750810E+001, +5.81690848915E+001
+2.35056320401E+006, +5.25525917366E+001, +6.16759821546E+001
+2.47559449312E+006, +5.25307997090E+001, +6.48033715983E+001
+2.60062578223E+006, +5.26323680958E+001, +6.80483049004E+001
+2.72565707134E+006, +5.26372773472E+001, +7.14399158594E+001
+2.85068836045E+006, +5.23921576627E+001, +7.46674015114E+001
+2.97571964956E+006, +5.25617214270E+001, +7.79146029781E+001
+3.10075093867E+006, +5.24899513050E+001, +8.12531549511E+001
+3.22578222778E+006, +5.26253977457E+001, +8.45040014527E+001
+3.35081351690E+006, +5.26238218320E+001, +8.78076013655E+001
+3.47584480601E+006, +5.27760004816E+001, +9.11387391266E+001
+3.60087609512E+006, +5.26156156933E+001, +9.44780099905E+001
+3.72590738423E+006, +5.26014571979E+001, +9.76483956188E+001
+3.85093867334E+006, +5.28975692367E+001, +1.01173946971E+002
+3.97596996245E+006, +5.27438301898E+001, +1.03997312589E+002
+4.10100125156E+006, +5.27655300971E+001, +1.07722399273E+002
+4.22603254068E+006, +5.27924902086E+001, +1.11090333116E+002
+4.35106382979E+006, +5.27743970933E+001, +1.14164556756E+002
+4.47609511890E+006, +5.29671679797E+001, +1.17699554411E+002
+4.60112640801E+006, +5.27779837460E+001, +1.20895529965E+002
+4.72615769712E+006, +5.28422272404E+001, +1.24028216344E+002
+4.85118898623E+006, +5.27580288562E+001, +1.27591119858E+002
+4.97622027534E+006, +5.28921168686E+001, +1.30923436523E+002
+5.10125156446E+006, +5.30539598748E+001, +1.34318073932E+002
+5.22628285357E+006, +5.31566968433E+001, +1.37666024942E+002
+5.35131414268E+006, +5.31510117301E+001, +1.41125604329E+002
+5.47634543179E+006, +5.27095365614E+001, +1.44683079417E+002
+5.60137672090E+006, +5.30367143013E+001, +1.47662573356E+002
+5.72640801001E+006, +5.35486509306E+001, +1.51315776636E+002
+5.85143929912E+006, +5.32491363753E+001, +1.54550490126E+002
+5.97647058824E+006, +5.32491511877E+001, +1.57764443273E+002
+6.10150187735E+006, +5.34663147186E+001, +1.61119151611E+002
+6.22653316646E+006, +5.36725898622E+001, +1.64820076624E+002
+6.35156445557E+006, +5.37898058658E+001, +1.68016368639E+002
+6.47659574468E+006, +5.38707416443E+001, +1.71579964447E+002
+6.60162703379E+006, +5.37050075227E+001, +1.74772803888E+002
+6.72665832290E+006, +5.39069963527E+001, +1.78135374223E+002
+6.85168961202E+006, +5.40829443653E+001, +1.81531748750E+002
+6.97672090113E+006, +5.41686459713E+001, +1.84871135317E+002
+7.10175219024E+006, +5.42013950660E+001, +1.88467722450E+002
+7.22678347935E+006, +5.43617131945E+001, +1.91715977872E+002
+7.35181476846E+006, +5.44054828173E+001, +1.95605023016E+002
+7.47684605757E+006, +5.42450672911E+001, +1.98809103439E+002
+7.60187734668E+006, +5.46556730448E+001, +2.02278785330E+002
+7.72690863579E+006, +5.44704645697E+001, +2.05822569204E+002
+7.85193992491E+006, +5.45370510571E+001, +2.09521394865E+002
+7.97697121402E+006, +5.47518434922E+001, +2.12939468710E+002
+8.10200250313E+006, +5.50220183752E+001, +2.16105167446E+002
+8.22703379224E+006, +5.50287629586E+001, +2.19798603089E+002
+8.35206508135E+006, +5.49570259919E+001, +2.23729534769E+002
+8.47709637046E+006, +5.51273589308E+001, +2.26922890757E+002
+8.60212765957E+006, +5.51852966336E+001, +2.30446268692E+002
+8.72715894869E+006, +5.51602032974E+001, +2.34411123534E+002
+8.85219023780E+006, +5.52951035373E+001, +2.37410461034E+002
+8.97722152691E+006, +5.54757986921E+001, +2.41063603419E+002
+9.10225281602E+006, +5.52954253510E+001, +2.44759856423E+002
+9.22728410513E+006, +5.57442804718E+001, +2.48232130662E+002
+9.35231539424E+006, +5.57850879321E+001, +2.51941736376E+002
+9.47734668335E+006, +5.58781948235E+001, +2.55620342156E+002
+9.60237797247E+006, +5.60290504067E+001, +2.59110777417E+002
+9.72740926158E+006, +5.58249120474E+001, +2.62943375042E+002
+9.85244055069E+006, +5.60684374047E+001, +2.66466132312E+002
+9.97747183980E+006, +5.63473484062E+001, +2.69948914292E+002
+1.01025031289E+007, +5.62066662309E+001, +2.73131194606E+002
+1.02275344180E+007, +5.63482098301E+001, +2.77204027488E+002
+1.03525657071E+007, +5.62530135437E+001, +2.80981096538E+002
+1.04775969962E+007, +5.60176572316E+001, +2.85234448553E+002
+1.06026282854E+007, +5.62813596334E+001, +2.88236620906E+002
+1.07276595745E+007, +5.65052501800E+001, +2.92376217088E+002
+1.08526908636E+007, +5.69301992774E+001, +2.95821693729E+002
+1.09777221527E+007, +5.71422998861E+001, +2.99577742535E+002
+1.11027534418E+007, +5.69001233540E+001, +3.03200961137E+002
+1.12277847309E+007, +5.72371457762E+001, +3.07745911642E+002
+1.13528160200E+007, +5.69231492156E+001, +3.10775552333E+002
+1.14778473091E+007, +5.63593051289E+001, +3.15119508724E+002
+1.16028785982E+007, +5.70569352941E+001, +3.18900045855E+002
+1.17279098874E+007, +5.70364261377E+001, +3.22721640386E+002
+1.18529411765E+007, +5.75111487721E+001, +3.26392237211E+002
+1.19779724656E+007, +5.74879009901E+001, +3.30700036129E+002
+1.21030037547E+007, +5.78989076060E+001, +3.33936419162E+002
+1.22280350438E+007, +5.75835640849E+001, +3.37624899863E+002
+1.23530663329E+007, +5.80425959029E+001, +3.41964367512E+002
+1.24780976220E+007, +5.74880180852E+001, +3.45893036539E+002
+1.26031289111E+007, +5.83907347999E+001, +3.49721064572E+002
+1.27281602003E+007, +5.81769705293E+001, +3.54032383059E+002
+1.28531914894E+007, +5.86218072350E+001, +3.57596485425E+002
+1.29782227785E+007, +5.85654489798E+001, +3.61370643641E+002
+1.31032540676E+007, +5.87471629149E+001, +3.65772104939E+002
+1.32282853567E+007, +5.88195823776E+001, +3.69788291049E+002
+1.33533166458E+007, +5.86608875615E+001, +3.72877035995E+002
+1.34783479349E+007, +5.94708331806E+001, +3.77353194428E+002
+1.36033792240E+007, +5.92153659053E+001, +3.83069799283E+002
+1.37284105131E+007, +5.96617388968E+001, +3.85836007431E+002
+1.38534418023E+007, +5.92564978507E+001, +3.89248175754E+002
+1.39784730914E+007, +5.93646747108E+001, +3.94088041190E+002
+1.41035043805E+007, +5.96019202087E+001, +3.98476906602E+002
+1.42285356696E+007, +5.97605310762E+001, +4.02264085038E+002
+1.43535669587E+007, +6.00189996905E+001, +4.06877022409E+002
+1.44785982478E+007, +6.03684864041E+001, +4.10418331836E+002
+1.46036295369E+007, +6.03021899811E+001, +4.14474081898E+002
+1.47286608260E+007, +6.10179449409E+001, +4.19527175589E+002
+1.48536921151E+007, +6.04822899716E+001, +4.23022145356E+002
+1.49787234043E+007, +6.12223047618E+001, +4.28225003959E+002
+1.51037546934E+007, +6.11714758687E+001, +4.31877252934E+002
+1.52287859825E+007, +6.12053358670E+001, +4.36826804129E+002
+1.53538172716E+007, +6.21379368759E+001, +4.39677852196E+002
+1.54788485607E+007, +6.17699307776E+001, +4.44377200263E+002
+1.56038798498E+007, +6.15036597207E+001, +4.49374022258E+002
+1.57289111389E+007, +6.10308166346E+001, +4.53062302338E+002
+1.58539424280E+007, +6.11014585094E+001, +4.57965671548E+002
+1.59789737171E+007, +6.11253517201E+001, +4.62150441857E+002
+1.61040050063E+007, +6.35862841780E+001, +4.66499036825E+002
+1.62290362954E+007, +6.27178760668E+001, +4.69875849340E+002
+1.63540675845E+007, +6.29183757313E+001, +4.75494480863E+002
+1.64790988736E+007, +6.36599890844E+001, +4.80031750016E+002
+1.66041301627E+007, +6.35596197831E+001, +4.83706044260E+002
+1.67291614518E+007, +6.27756904339E+001, +4.89502929641E+002
+1.68541927409E+007, +6.43022356638E+001, +4.93889201862E+002
+1.69792240300E+007, +6.30025429580E+001, +4.98597674850E+002
+1.71042553191E+007, +6.19526145692E+001, +5.05228517479E+002
+1.72292866083E+007, +6.28224733416E+001, +5.09047991584E+002
+1.73543178974E+007, +6.27253790818E+001, +5.14027212748E+002
+1.74793491865E+007, +6.40174797775E+001, +5.18801658411E+002
+1.76043804756E+007, +6.35485198797E+001, +5.21750318279E+002
+1.77294117647E+007, +6.53547724617E+001, +5.26101714815E+002
+1.78544430538E+007, +6.48970415350E+001, +5.31669992948E+002
+1.79794743429E+007, +6.58739521569E+001, +5.37988560856E+002
+1.81045056320E+007, +6.34611461861E+001, +5.43795941246E+002
+1.82295369212E+007, +6.63529927381E+001, +5.48247922132E+002
+1.83545682103E+007, +6.56066962101E+001, +5.50956662462E+002
+1.84795994994E+007, +6.61982370941E+001, +5.57302301928E+002
+1.86046307885E+007, +6.70171567273E+001, +5.62310283423E+002
+1.87296620776E+007, +6.52360395345E+001, +5.66094221979E+002
+1.88546933667E+007, +6.84853286229E+001, +5.70958569483E+002
+1.89797246558E+007, +6.88905952220E+001, +5.76806998997E+002
+1.91047559449E+007, +6.87697293272E+001, +5.83055255637E+002
+1.92297872340E+007, +6.77378355709E+001, +5.87342114307E+002
+1.93548185232E+007, +6.86935143202E+001, +5.92914266042E+002
+1.94798498123E+007, +6.99326108868E+001, +5.98887167768E+002
+1.96048811014E+007, +7.00026205957E+001, +6.02765129876E+002
+1.97299123905E+007, +6.98165188321E+001, +6.07598462108E+002
+1.98549436796E+007, +6.88404690670E+001, +6.14746266609E+002
+1.99799749687E+007, +6.95665475378E+001, +6.18713047707E+002
+2.01050062578E+007, +7.12643948167E+001, +6.25073216471E+002
+2.02300375469E+007, +7.16470015485E+001, +6.29162605603E+002
+2.03550688360E+007, +7.34105194657E+001, +6.35203398951E+002
+2.04801001252E+007, +7.27406870523E+001, +6.40783633463E+002
+2.06051314143E+007, +7.29523380407E+001, +6.47081719779E+002
+2.07301627034E+007, +7.08238492033E+001, +6.52827883150E+002
+2.08551939925E+007, +7.29782478029E+001, +6.60373930565E+002
+2.09802252816E+007, +7.14842088001E+001, +6.63244357052E+002
+2.11052565707E+007, +7.36747323926E+001, +6.69433912220E+002
+2.12302878598E+007, +7.42665873487E+001, +6.73971395855E+002
+2.13553191489E+007, +7.57558587614E+001, +6.82546763787E+002
+2.14803504380E+007, +7.64532686881E+001, +6.91457885355E+002
+2.16053817272E+007, +7.71346982978E+001, +6.96262260427E+002
+2.17304130163E+007, +7.62112237500E+001, +7.01310803717E+002
+2.18554443054E+007, +7.78116184375E+001, +7.08051655903E+002
+2.19804755945E+007, +7.63649755146E+001, +7.11635088024E+002
+2.21055068836E+007, +7.98384580418E+001, +7.19679999992E+002
+2.22305381727E+007, +8.08470885159E+001, +7.25571142922E+002
+2.23555694618E+007, +7.88810747764E+001, +7.31011712168E+002
+2.24806007509E+007, +8.14997753843E+001, +7.37930397016E+002
+2.26056320401E+007, +8.44715147899E+001, +7.44691964343E+002
+2.27306633292E+007, +8.30094166170E+001, +7.49590801431E+002
+2.28556946183E+007, +8.50593501646E+001, +7.56459351974E+002
+2.29807259074E+007, +8.50377864622E+001, +7.63797115300E+002
+2.31057571965E+007, +8.35863510682E+001, +7.66227543626E+002
+2.32307884856E+007, +8.71482147712E+001, +7.69589850196E+002
+2.33558197747E+007, +8.75324014487E+001, +7.81353785589E+002
+2.34808510638E+007, +9.24580355504E+001, +7.85958917597E+002
+2.36058823529E+007, +9.31332713293E+001, +7.91639785782E+002
+2.37309136421E+007, +9.17423993649E+001, +7.99708444696E+002
+2.38559449312E+007, +9.60655508143E+001, +8.06756934082E+002
+2.39809762203E+007, +9.56626144288E+001, +8.08105649315E+002
+2.41060075094E+007, +9.41666368521E+001, +8.15980003802E+002
+2.42310387985E+007, +9.00423356741E+001, +8.23942767394E+002
+2.43560700876E+007, +9.57035743595E+001, +8.30446453526E+002
+2.44811013767E+007, +9.67509168033E+001, +8.38022145534E+002
+2.46061326658E+007, +9.69057648934E+001, +8.39194260459E+002
+2.47311639549E+007, +9.96023933755E+001, +8.48305939231E+002
+2.48561952441E+007, +9.70831695754E+001, +8.56650904165E+002
+2.49812265332E+007, +1.00598552997E+002, +8.60050373864E+002
+2.51062578223E+007, +1.03122144085E+002, +8.70109673711E+002
+2.52312891114E+007, +9.87720358850E+001, +8.77368863276E+002
+2.53563204005E+007, +9.88162116798E+001, +8.83897617467E+002
+2.54813516896E+007, +1.00495424241E+002, +8.89146998585E+002
+2.56063829787E+007, +9.69597570460E+001, +8.99115315696E+002
+2.57314142678E+007, +9.74732824768E+001, +9.04511313748E+002
+2.58564455569E+007, +9.88891792424E+001, +9.14967733526E+002
+2.59814768461E+007, +1.01671624942E+002, +9.24736482441E+002
+2.61065081352E+007, +1.03511708847E+002, +9.29719872965E+002
+2.62315394243E+007, +9.94665557058E+001, +9.35535831628E+002
+2.63565707134E+007, +9.59645472144E+001, +9.40970598802E+002
+2.64816020025E+007, +1.00741604533E+002, +9.49654404267E+002
+2.66066332916E+007, +9.97556459505E+001, +9.65502342324E+002
+2.67316645807E+007, +1.04001134613E+002, +9.74410651987E+002
+2.68566958698E+007, +1.06207410013E+002, +9.85905412399E+002
+2.69817271589E+007, +1.07919819027E+002, +9.94986955713E+002
+2.71067584481E+007, +1.05581857932E+002, +1.00099623762E+003
+2.72317897372E+007, +1.07484785061E+002, +1.00863132530E+003
+2.73568210263E+007, +1.08835184655E+002, +1.01039111494E+003
+2.74818523154E+007, +1.06549823995E+002, +1.02972544345E+003
+2.76068836045E+007, +1.08115075376E+002, +1.03511721743E+003
+2.77319148936E+007, +1.14139620445E+002, +1.04316555862E+003
+2.78569461827E+007, +1.12597002070E+002, +1.05099864525E+003
+2.79819774718E+007, +1.15512445108E+002, +1.05716858136E+003
+2.81070087610E+007, +1.11084790118E+002, +1.06755183541E+003
+2.82320400501E+007, +1.13103024120E+002, +1.07858193987E+003
+2.83570713392E+007, +1.12963206716E+002, +1.08450931675E+003
+2.84821026283E+007, +1.11556606752E+002, +1.09782363681E+003
+2.86071339174E+007, +1.15801029543E+002, +1.10526857264E+003
+2.87321652065E+007, +1.12637446700E+002, +1.11455736104E+003
+2.88571964956E+007, +1.12633273675E+002, +1.13505710667E+003
+2.89822277847E+007, +1.17098533601E+002, +1.13949870912E+003
+2.91072590738E+007, +1.13725937203E+002, +1.14869527400E+003
+2.92322903630E+007, +1.15844542636E+002, +1.16304601311E+003
+2.93573216521E+007, +1.17942455549E+002, +1.17163894053E+003
+2.94823529412E+007, +1.19315542928E+002, +1.18064048844E+003
+2.96073842303E+007, +1.22914337911E+002, +1.20121368687E+003
+2.97324155194E+007, +1.17797897916E+002, +1.20049892712E+003
+2.98574468085E+007, +1.21383858870E+002, +1.21786736665E+003
+2.99824780976E+007, +1.21746607974E+002, +1.23140159153E+003
+3.01075093867E+007, +1.31190848386E+002, +1.23905104293E+003
+3.02325406758E+007, +1.23661582343E+002, +1.25902242000E+003
+3.03575719650E+007, +1.25156109009E+002, +1.26601889298E+003
+3.04826032541E+007, +1.33080224313E+002, +1.27393542918E+003
+3.06076345432E+007, +1.28819836735E+002, +1.28779858391E+003
+3.07326658323E+007, +1.40888558443E+002, +1.29242718810E+003
+3.08576971214E+007, +1.39014927485E+002, +1.31180126805E+003
+3.09827284105E+007, +1.26291661383E+002, +1.32543680872E+003
+3.11077596996E+007, +1.36110887088E+002, +1.33783264782E+003
+3.12327909887E+007, +1.32890322906E+002, +1.35357246007E+003
+3.13578222778E+007, +1.32766306729E+002, +1.36864927602E+003
+3.14828535670E+007, +1.49390429663E+002, +1.38170078082E+003
+3.16078848561E+007, +1.40855557128E+002, +1.38535126942E+003
+3.17329161452E+007, +1.44426906540E+002, +1.41689156485E+003
+3.18579474343E+007, +1.52271972203E+002, +1.42297077001E+003
+3.19829787234E+007, +1.41969518754E+002, +1.43897284136E+003
+3.21080100125E+007, +1.31971189051E+002, +1.45514143962E+003
+3.22330413016E+007, +1.51747867849E+002, +1.46639800927E+003
+3.23580725907E+007, +1.52980039015E+002, +1.49404473979E+003
+3.24831038798E+007, +1.51555006331E+002, +1.50267909430E+003
+3.26081351690E+007, +1.51043695762E+002, +1.52147752134E+003
+3.27331664581E+007, +1.57434907300E+002, +1.53886198173E+003
+3.28581977472E+007, +1.59014770377E+002, +1.53544178922E+003
+3.29832290363E+007, +1.63035700423E+002, +1.55901067742E+003
+3.31082603254E+007, +1.68495199255E+002, +1.59384672158E+003
+3.32332916145E+007, +1.73152611660E+002, +1.59870831419E+003
+3.33583229036E+007, +1.72439478366E+002, +1.61080800602E+003
+3.34833541927E+007, +1.69459431969E+002, +1.63536219505E+003
+3.36083854819E+007, +1.79993592829E+002, +1.66251885009E+003
+3.37334167710E+007, +1.73307826708E+002, +1.66869887325E+003
+3.38584480601E+007, +1.73639387347E+002, +1.68201967014E+003
+3.39834793492E+007, +1.77703009434E+002, +1.69263275940E+003
+3.41085106383E+007, +1.79260705601E+002, +1.72794803781E+003
+3.42335419274E+007, +1.94627865360E+002, +1.74263067155E+003
+3.43585732165E+007, +1.79697178208E+002, +1.76665913480E+003
+3.44836045056E+007, +2.03214002106E+002, +1.78343896747E+003
+3.46086357947E+007, +1.93803893657E+002, +1.79876217232E+003
+3.47336670839E+007, +2.01176710683E+002, +1.82792962576E+003
+3.48586983730E+007, +2.11845544625E+002, +1.85574057779E+003
+3.49837296621E+007, +2.17413308073E+002, +1.87673438279E+003
+3.51087609512E+007, +1.90501663912E+002, +1.88038440842E+003
+3.52337922403E+007, +2.13441427101E+002, +1.89716320019E+003
+3.53588235294E+007, +2.25816718750E+002, +1.92303837728E+003
+3.54838548185E+007, +2.04400498581E+002, +1.97977719723E+003
+3.56088861076E+007, +2.23772366727E+002, +1.98261319495E+003
+3.57339173967E+007, +2.26473606400E+002, +2.01499154447E+003
+3.58589486859E+007, +2.54404826549E+002, +2.04907733374E+003
+3.59839799750E+007, +2.39003695539E+002, +2.07499491154E+003
+3.61090112641E+007, +2.56780599643E+002, +2.08813448654E+003
+3.62340425532E+007, +2.53435405041E+002, +2.13043943612E+003
+3.63590738423E+007, +2.51019418028E+002, +2.15014160423E+003
+3.64841051314E+007, +2.54762511159E+002, +2.17138407247E+003
+3.66091364205E+007, +2.56171482730E+002, +2.18055161250E+003
+3.67341677096E+007, +2.72559746008E+002, +2.24720644160E+003
+3.68591989987E+007, +2.72085528312E+002, +2.24850630517E+003
+3.69842302879E+007, +2.93452450283E+002, +2.27203687935E+003
+3.71092615770E+007, +2.97715825308E+002, +2.31863463961E+003
+3.72342928661E+007, +2.85329668647E+002, +2.35461368391E+003
+3.73593241552E+007, +3.01059639470E+002, +2.42113577609E+003
+3.74843554443E+007, +3.16060152526E+002, +2.43793711178E+003
+3.76093867334E+007, +3.17509658932E+002, +2.46194060740E+003
+3.77344180225E+007, +3.22386952068E+002, +2.48082582520E+003
+3.78594493116E+007, +3.28690002971E+002, +2.56697029860E+003
+3.79844806008E+007, +3.70137539226E+002, +2.59835221215E+003
+3.81095118899E+007, +3.48723935267E+002, +2.66222843501E+003
+3.82345431790E+007, +3.78967209883E+002, +2.66410360124E+003
+3.83595744681E+007, +3.87940780554E+002, +2.70177254503E+003
+3.84846057572E+007, +3.17448062077E+002, +2.76427717245E+003
+3.86096370463E+007, +3.69767123445E+002, +2.80070371105E+003
+3.87346683354E+007, +4.00460212218E+002, +2.87489263598E+003
+3.88596996245E+007, +4.19366198039E+002, +2.92520457625E+003
+3.89847309136E+007, +4.04197064389E+002, +2.94349686985E+003
+3.91097622028E+007, +4.38647930098E+002, +3.03852151084E+003
+3.92347934919E+007, +4.91176718266E+002, +3.05068870819E+003
+3.93598247810E+007, +4.05516012986E+002, +3.12932490152E+003
+3.94848560701E+007, +4.70599881794E+002, +3.22093954528E+003
+3.96098873592E+007, +4.60181496714E+002, +3.26915597287E+003
+3.97349186483E+007, +5.96136265323E+002, +3.33557456080E+003
+3.98599499374E+007, +5.62732995738E+002, +3.37464398145E+003
+3.99849812265E+007, +5.48281339339E+002, +3.42429798346E+003
+4.01100125156E+007, +5.39099498511E+002, +3.50636794938E+003
