"# Channel 1"
"# Trace 1"
Frequency, Formatted Data, Formatted Data
+1.00000000000E+005, +5.32008627154E-001, +2.55132989382E+000
+2.25031289111E+005, +5.47016521295E-001, +5.65417795141E+000
+3.50062578223E+005, +5.89371036714E-001, +8.75364854706E+000
+4.75093867334E+005, +6.47032597141E-001, +1.18757730243E+001
+6.00125156446E+005, +6.98438564832E-001, +1.49115760782E+001
+7.25156445557E+005, +7.44826487840E-001, +1.80232502060E+001
+8.50187734668E+005, +7.17046161291E-001, +2.10012454836E+001
+9.75219023780E+005, +7.31731500747E-001, +2.41280096773E+001
+1.10025031289E+006, +8.40316649549E-001, +2.71588145024E+001
+1.22528160200E+006, +7.92125661791E-001, +3.01932650339E+001
+1.35031289111E+006, +8.06191799567E-001, +3.31869152120E+001
+1.47534418023E+006, +8.64587858231E-001, +3.63020959734E+001
+1.60037546934E+006, +9.06760337699E-001, +3.93529932286E+001
+1.72540675845E+006, +9.13756932219E-001, +4.23357462006E+001
+1.85043804756E+006, +9.45218859539E-001, +4.54312153164E+001
+1.97546933667E+006, +9.83959645034E-001, +4.84635027797E+001
+2.10050062578E+006, +9.15592656550E-001, +5.15274200209E+001
+2.22553191489E+006, +8.55392533881E-001, +5.46023348853E+001
+2.35056320401E+006, +9.16919737777E-001, +5.75226074367E+001
+2.47559449312E+006, +9.85566243646E-001, +6.06982606475E+001
+2.60062578223E+006, +8.85617602723E-001, +6.37878540093E+001
+2.72565707134E+006, +9.12998034322E-001, +6.68321910351E+001
+2.85068836045E+006, +1.08257492330E+000, +6.99896301104E+001
+2.97571964956E+006, +9.23184700969E-001, +7.28824979211E+001
+3.10075093867E+006, +1.04580973844E+000, +7.60640053351E+001
+3.22578222778E+006, +9.30493517399E-001, +7.90598050788E+001
+3.35081351690E+006, +8.23161088089E-001, +8.22671247757E+001
+3.47584480601E+006, +1.03317842913E+000, +8.52631881901E+001
+3.60087609512E+006, +1.00845450909E+000, +8.85618678244E+001
+3.72590738423E+006, +1.10952566025E+000, +9.15541555254E+001
+3.85093867334E+006, +1.10419969705E+000, +9.43486368783E+001
+3.97596996245E+006, +9.54090485993E-001, +9.77709450521E+001
+4.10100125156E+006, +1.06793073415E+000, +1.00863725219E+002
+4.22603254068E+006, +9.10114846279E-001, +1.03780108320E+002
+4.35106382979E+006, +8.54568394787E-001, +1.06817651566E+002
+4.47609511890E+006, +9.42928070139E-001, +1.10010469944E+002
+4.60112640801E+006, +9.38189817969E-001, +1.13060911699E+002
+4.72615769712E+006, +8.68744495526E-001, +1.16281446917E+002
+4.85118898623E+006, +1.02084345246E+000, +1.19312404953E+002
+4.97622027534E+006, +1.21975160774E+000, +1.22558173849E+002
+5.10125156446E+006, +8.09512246978E-001, +1.25624891060E+002
+5.22628285357E+006, +8.96021396214E-001, +1.28671715410E+002
+5.35131414268E+006, +8.11943196749E-001, +1.31948061723E+002
+5.47634543179E+006, +9.69074585348E-001, +1.35214975620E+002
+5.60137672090E+006, +9.11048204338E-001, +1.38396502671E+002
+5.72640801001E+006, +1.16169831711E+000, +1.41725247016E+002
+5.85143929912E+006, +1.20353993248E+000, +1.44529027089E+002
+5.97647058824E+006, +1.33606922493E+000, +1.48059775618E+002
+6.10150187735E+006, +1.10284270800E+000, +1.51037341976E+002
+6.22653316646E+006, +1.15733238475E+000, +1.54180853111E+002
+6.35156445557E+006, +1.11897984695E+000, +1.57480757112E+002
+6.47659574468E+006, +1.18956313177E+000, +1.60633259117E+002
+6.60162703379E+006, +1.19217185002E+000, +1.63802971240E+002
+6.72665832290E+006, +1.23615901888E+000, +1.67119274133E+002
+6.85168961202E+006, +1.23895512235E+000, +1.70158997972E+002
+6.97672090113E+006, +1.16901993069E+000, +1.73509898656E+002
+7.10175219024E+006, +1.27326306887E+000, +1.76667475918E+002
+7.22678347935E+006, +1.42173413276E+000, +1.80066550816E+002
+7.35181476846E+006, +1.28847915878E+000, +1.83332756532E+002
+7.47684605757E+006, +1.29695662192E+000, +1.86741698349E+002
+7.60187734668E+006, +1.16062729578E+000, +1.89649818524E+002
+7.72690863579E+006, +1.28514324910E+000, +1.92981314964E+002
+7.85193992491E+006, +1.24411923682E+000, +1.96229637365E+002
+7.97697121402E+006, +1.61149749049E+000, +1.99467168437E+002
+8.10200250313E+006, +1.14814030718E+000, +2.02831774838E+002
+8.22703379224E+006, +1.19165781303E+000, +2.05903050358E+002
+8.35206508135E+006, +1.29988174386E+000, +2.09528799339E+002
+8.47709637046E+006, +1.58453084441E+000, +2.12564467790E+002
+8.60212765957E+006, +1.33601534664E+000, +2.16182031426E+002
+8.72715894869E+006, +1.28737455168E+000, +2.19456363258E+002
+8.85219023780E+006, +1.23956167845E+000, +2.22816036855E+002
+8.97722152691E+006, +1.37206992692E+000, +2.25859383153E+002
+9.10225281602E+006, +1.34050812662E+000, +2.29162996836E+002
+9.22728410513E+006, +1.25379012507E+000, +2.32869662742E+002
+9.35231539424E+006, +1.48028749468E+000, +2.36439419410E+002
+9.47734668335E+006, +1.42972006345E+000, +2.39063531801E+002
+9.60237797247E+006, +1.08316992717E+000, +2.42926743921E+002
+9.72740926158E+006, +8.78021772962E-001, +2.46131805511E+002
+9.85244055069E+006, +1.16091739390E+000, +2.49535034714E+002
+9.97747183980E+006, +1.23770977219E+000, +2.53037400836E+002
+1.01025031289E+007, +1.08416241821E+000, +2.56489708464E+002
+1.02275344180E+007, +1.17966879693E+000, +2.60317811241E+002
+1.03525657071E+007, +9.87446626014E-001, +2.63041973373E+002
+1.04775969962E+007, +9.50183246028E-001, +2.66843201400E+002
+1.06026282854E+007, +9.46665915765E-001, +2.70318942645E+002
+1.07276595745E+007, +8.77658627239E-001, +2.73300510757E+002
+1.08526908636E+007, +1.00928721601E+000, +2.76817026041E+002
+1.09777221527E+007, +6.04817235859E-001, +2.80868398562E+002
+1.11027534418E+007, +7.48807519717E-001, +2.84296329715E+002
+1.12277847309E+007, +8.43491019269E-001, +2.87448448793E+002
+1.13528160200E+007, +7.48200932750E-001, +2.91414838012E+002
+1.14778473091E+007, +8.94779320341E-001, +2.94499749410E+002
+1.16028785982E+007, +5.65430155559E-001, +2.97962165474E+002
+1.17279098874E+007, +1.08419049402E+000, +3.01805764616E+002
+1.18529411765E+007, +9.64407826326E-001, +3.05459673635E+002
+1.19779724656E+007, +9.52701064272E-001, +3.09584825157E+002
+1.21030037547E+007, +6.97943506162E-001, +3.12063863214E+002
+1.22280350438E+007, +8.95808526480E-001, +3.16433072561E+002
+1.23530663329E+007, +2.63315056988E-001, +3.19873074963E+002
+1.24780976220E+007, +3.24697359153E-001, +3.24233886593E+002
+1.26031289111E+007, +2.91443288453E-001, +3.26891191851E+002
+1.27281602003E+007, +8.69134808101E-001, +3.30650537570E+002
+1.28531914894E+007, +9.42569354021E-001, +3.34595735452E+002
+1.29782227785E+007, +1.06375255979E+000, +3.38173220107E+002
+1.31032540676E+007, +1.17364169512E+000, +3.42172970961E+002
+1.32282853567E+007, +9.62948797825E-001, +3.45824919396E+002
+1.33533166458E+007, +7.03398607232E-001, +3.49648538353E+002
+1.34783479349E+007, +5.26478979434E-001, +3.52952630429E+002
+1.36033792240E+007, -1.08906638945E-001, +3.56794472958E+002
+1.37284105131E+007, +4.08684094784E-001, +3.61076962004E+002
+1.38534418023E+007, +9.21107258739E-001, +3.65229264038E+002
+1.39784730914E+007, +6.41398802690E-001, +3.68845908570E+002
+1.41035043805E+007, -6.49764720685E-003, +3.71586886148E+002
+1.42285356696E+007, -3.82942255662E-001, +3.76438994081E+002
+1.43535669587E+007, -5.92817279874E-001, +3.79994747516E+002
+1.44785982478E+007, +9.59978195730E-001, +3.83857801426E+002
+1.46036295369E+007, +1.16833249484E-001, +3.87983737670E+002
+1.47286608260E+007, -9.79351772872E-002, +3.92044422172E+002
+1.48536921151E+007, -9.44330954276E-002, +3.94995834689E+002
+1.49787234043E+007, -5.09035774523E-001, +3.99856337345E+002
+1.51037546934E+007, +1.07737642919E+000, +4.03587121702E+002
+1.52287859825E+007, +6.55439066382E-001, +4.08122058634E+002
+1.53538172716E+007, -4.43510814898E-001, +4.12424503472E+002
+1.54788485607E+007, -5.84921631964E-001, +4.15940690888E+002
+1.56038798498E+007, -1.11306948232E+000, +4.19949666146E+002
+1.57289111389E+007, +4.87428549479E-001, +4.23531610192E+002
+1.58539424280E+007, -2.93691552203E-001, +4.28346574720E+002
+1.59789737171E+007, +1.66562122790E-001, +4.32493415191E+002
+1.61040050063E+007, +1.87720044460E-001, +4.36600993864E+002
+1.62290362954E+007, +2.05801377366E-001, +4.39922087764E+002
+1.63540675845E+007, -5.40721743790E-001, +4.43129573480E+002
+1.64790988736E+007, -8.30085202885E-001, +4.48426247127E+002
+1.66041301627E+007, +6.95565333824E-001, +4.53279062465E+002
+1.67291614518E+007, -1.48238691400E-002, +4.56888316632E+002
+1.68541927409E+007, +5.48364903738E-001, +4.61392636869E+002
+1.69792240300E+007, -9.85316518103E-001, +4.65475606952E+002
+1.71042553191E+007, -2.00727981659E+000, +4.68547707240E+002
+1.72292866083E+007, -1.76814812633E+000, +4.74330707876E+002
+1.73543178974E+007, -2.11790750037E+000, +4.78359021953E+002
+1.74793491865E+007, -1.86336247537E+000, +4.83408656284E+002
+1.76043804756E+007, -1.42701911098E+000, +4.89271529316E+002
+1.77294117647E+007, -2.07769428361E+000, +4.91755788843E+002
+1.78544430538E+007, -9.82846103025E-001, +4.96302148599E+002
+1.79794743429E+007, -8.68865565670E-001, +5.00581801602E+002
+1.81045056320E+007, -1.08828547457E+000, +5.06691607049E+002
+1.82295369212E+007, -1.94850623436E+000, +5.10258015291E+002
+1.83545682103E+007, +2.16891165018E+000, +5.15687060489E+002
+1.84795994994E+007, -1.22923336257E+000, +5.18817304172E+002
+1.86046307885E+007, +3.71357731360E-001, +5.24095911228E+002
+1.87296620776E+007, -4.94913559668E-001, +5.30880447048E+002
+1.88546933667E+007, -2.52256569486E+000, +5.35485667946E+002
+1.89797246558E+007, -1.84570518779E+000, +5.38947657181E+002
+1.91047559449E+007, -2.31988395121E-001, +5.43871842480E+002
+1.92297872340E+007, -5.36402117253E-001, +5.46790897089E+002
+1.93548185232E+007, -2.05562635799E+000, +5.52887831905E+002
+1.94798498123E+007, -6.97455159549E-001, +5.57509068927E+002
+1.96048811014E+007, -1.88711480826E+000, +5.62643210465E+002
+1.97299123905E+007, -7.35101128098E-001, +5.68455336380E+002
+1.98549436796E+007, -4.09191132690E-001, +5.70471311194E+002
+1.99799749687E+007, -9.27696016388E-001, +5.76858793872E+002
+2.01050062578E+007, -1.29575467087E+000, +5.82736154813E+002
+2.02300375469E+007, -1.93794340745E+000, +5.87879165040E+002
+2.03550688360E+007, -1.38228395233E+000, +5.92860072044E+002
+2.04801001252E+007, -1.37302393876E+000, +5.96641687888E+002
+2.06051314143E+007, +1.24888059576E-001, +6.03689528810E+002
+2.07301627034E+007, -1.55719813003E+000, +6.06866550373E+002
+2.08551939925E+007, +4.35135778595E-002, +6.10445526014E+002
+2.09802252816E+007, -7.54464907949E-001, +6.19856539885E+002
+2.11052565707E+007, -1.17180778195E+000, +6.24246224170E+002
+2.12302878598E+007, +1.98058135449E-002, +6.30287693605E+002
+2.13553191489E+007, -1.81078214182E+000, +6.34753648976E+002
+2.14803504380E+007, +1.36455588524E+000, +6.41623577047E+002
+2.16053817272E+007, -3.43665445650E+000, +6.45887254228E+002
+2.17304130163E+007, +2.49583440487E+000, +6.50577861802E+002
+2.18554443054E+007, -1.73018730681E-001, +6.53762231488E+002
+2.19804755945E+007, -1.90729616201E+000, +6.62948213838E+002
+2.21055068836E+007, -1.17031632917E+000, +6.69164286307E+002
+2.22305381727E+007, -3.11143378048E-001, +6.73483158672E+002
+2.23555694618E+007, +4.97382316429E-001, +6.78038939954E+002
+2.24806007509E+007, -7.78836017407E-001, +6.84857942141E+002
+2.26056320401E+007, +1.24641463179E+000, +6.88316462887E+002
+2.27306633292E+007, +3.36160889236E+000, +6.95376391221E+002
+2.28556946183E+007, +1.58427843744E+000, +7.02141649527E+002
+2.29807259074E+007, +2.16242614442E+000, +7.10366514837E+002
+2.31057571965E+007, +5.46740121408E-001, +7.13178089942E+002
+2.32307884856E+007, +2.45535547535E+000, +7.18459047913E+002
+2.33558197747E+007, +3.00889166366E+000, +7.25984426912E+002
+2.34808510638E+007, +3.69910052163E+000, +7.32547559516E+002
+2.36058823529E+007, +4.29009666176E+000, +7.38931286938E+002
+2.37309136421E+007, +4.78789743466E+000, +7.42306983164E+002
+2.38559449312E+007, +1.56420069360E+000, +7.49928224989E+002
+2.39809762203E+007, +5.63577116935E+000, +7.55956952070E+002
+2.41060075094E+007, +4.40973588406E+000, +7.59063029278E+002
+2.42310387985E+007, +4.12588759746E+000, +7.64648376046E+002
+2.43560700876E+007, +4.86534206320E+000, +7.71456303471E+002
+2.44811013767E+007, +2.17465183443E+000, +7.77684721826E+002
+2.46061326658E+007, +4.40220889082E+000, +7.85327328125E+002
+2.47311639549E+007, +3.70579215313E+000, +7.92107217302E+002
+2.48561952441E+007, +6.11415406867E+000, +7.93905754267E+002
+2.49812265332E+007, +3.72844704771E+000, +8.05702017062E+002
+2.51062578223E+007, +5.32123424719E+000, +8.09944309095E+002
+2.52312891114E+007, +2.39875061136E+000, +8.18816186800E+002
+2.53563204005E+007, +3.59213926234E+000, +8.24251032858E+002
+2.54813516896E+007, +9.92351846863E-001, +8.30361367392E+002
+2.56063829787E+007, +5.58256224296E+000, +8.37906301048E+002
+2.57314142678E+007, +2.80294678132E+000, +8.44046108567E+002
+2.58564455569E+007, +3.83162086558E+000, +8.48562157802E+002
+2.59814768461E+007, +8.16180890333E-001, +8.57791474550E+002
+2.61065081352E+007, +1.45076635225E+000, +8.65501592412E+002
+2.62315394243E+007, +4.42176123620E+000, +8.74605766797E+002
+2.63565707134E+007, +3.75171400663E+000, +8.78669011384E+002
+2.64816020025E+007, +1.81270416298E+000, +8.87083640383E+002
+2.66066332916E+007, +3.38439610367E+000, +8.93948918531E+002
+2.67316645807E+007, +5.04482543772E+000, +9.05041055551E+002
+2.68566958698E+007, +3.53172461657E+000, +9.13626168507E+002
+2.69817271589E+007, +2.78384467079E+000, +9.18783943629E+002
+2.71067584481E+007, +7.08133455120E+000, +9.27584897597E+002
+2.72317897372E+007, +3.55212860802E+000, +9.34509893724E+002
+2.73568210263E+007, +6.17157654801E-001, +9.45030366175E+002
+2.74818523154E+007, -2.28908310180E-001, +9.51381510145E+002
+2.76068836045E+007, +5.04915137134E+000, +9.55683467839E+002
+2.77319148936E+007, +4.58980664814E-001, +9.61390144052E+002
+2.78569461827E+007, +3.56726134293E+000, +9.70959912008E+002
+2.79819774718E+007, +5.03017710322E+000, +9.79413249139E+002
+2.81070087610E+007, +1.87783575308E+000, +9.87622546703E+002
+2.82320400501E+007, +2.94218344169E+000, +9.96872332820E+002
+2.83570713392E+007, +2.63086599010E+000, +1.00978870023E+003
+2.84821026283E+007, +3.00730082538E+000, +1.01353297938E+003
+2.86071339174E+007, -2.54888821086E+000, +1.02278901336E+003
+2.87321652065E+007, +4.32639513920E+000, +1.03452215548E+003
+2.88571964956E+007, +1.38245218517E+000, +1.05046648612E+003
+2.89822277847E+007, +4.96859114160E+000, +1.05379294887E+003
+2.91072590738E+007, -9.13085027093E-001, +1.06004072099E+003
+2.92322903630E+007, -2.32749490623E+000, +1.07377192211E+003
+2.93573216521E+007, +1.39256249631E+000, +1.08365423442E+003
+2.94823529412E+007, +1.03996453900E+000, +1.09220865718E+003
+2.96073842303E+007, -4.34204085530E-001, +1.10407217335E+003
+2.97324155194E+007, -2.58462115202E+000, +1.11148100785E+003
+2.98574468085E+007, -5.08919414181E+000, +1.12585346866E+003
+2.99824780976E+007, -6.14071868509E+000, +1.13759881674E+003
+3.01075093867E+007, -7.14162858140E-001, +1.14540002938E+003
+3.02325406758E+007, -7.22912421935E-001, +1.15138796385E+003
+3.03575719650E+007, -8.03597422888E+000, +1.16832185781E+003
+3.04826032541E+007, -2.99495040960E+000, +1.16952798629E+003
+3.06076345432E+007, -3.54052559808E+000, +1.18673934730E+003
+3.07326658323E+007, -3.33948301735E+000, +1.19883596026E+003
+3.08576971214E+007, -6.70882865392E+000, +1.20213089150E+003
+3.09827284105E+007, +4.64391809311E+000, +1.21462499929E+003
+3.11077596996E+007, -8.39657879657E+000, +1.22735400889E+003
+3.12327909887E+007, -1.45280022832E+000, +1.24460635862E+003
+3.13578222778E+007, +1.25710409309E+000, +1.25357368215E+003
+3.14828535670E+007, +1.62706279480E+000, +1.26324509361E+003
+3.16078848561E+007, +1.07356904338E+000, +1.27308843317E+003
+3.17329161452E+007, -4.92372235108E+000, +1.29289846452E+003
+3.18579474343E+007, -1.04777443269E+001, +1.30710619448E+003
+3.19829787234E+007, -1.59081705186E+000, +1.31849927080E+003
+3.21080100125E+007, -5.03097351118E+000, +1.33036804014E+003
+3.22330413016E+007, -4.61272743356E+000, +1.34720001614E+003
+3.23580725907E+007, -8.72895811498E+000, +1.34875226486E+003
+3.24831038798E+007, -6.66565247119E-001, +1.37914004040E+003
+3.26081351690E+007, -2.85232568475E-001, +1.38816955317E+003
+3.27331664581E+007, +2.09470483828E-001, +1.39491605838E+003
+3.28581977472E+007, -4.27817079549E+000, +1.41647231509E+003
+3.29832290363E+007, -6.53331454060E+000, +1.43626965383E+003
+3.31082603254E+007, -3.88516580225E+000, +1.45189204966E+003
+3.32332916145E+007, -9.59888417697E+000, +1.45838278351E+003
+3.33583229036E+007, +6.30405274857E+000, +1.47644747294E+003
+3.34833541927E+007, +4.10073521468E+000, +1.48463391548E+003
+3.36083854819E+007, -1.22363018362E+000, +1.50449929398E+003
+3.37334167710E+007, -8.31201329846E+000, +1.51625081100E+003
+3.38584480601E+007, +3.04796452673E+000, +1.54243923627E+003
+3.39834793492E+007, +3.41465643759E+000, +1.55747949369E+003
+3.41085106383E+007, -1.10527936333E+000, +1.57693160245E+003
+3.42335419274E+007, +2.08853909556E-001, +1.58677749741E+003
+3.43585732165E+007, -9.97885090836E+000, +1.60833807771E+003
+3.44836045056E+007, -1.24710539894E+001, +1.62059717572E+003
+3.46086357947E+007, +4.70678715687E+000, +1.63996291281E+003
+3.47336670839E+007, +1.77946334712E+001, +1.65595011614E+003
+3.48586983730E+007, +4.92838077326E+000, +1.67755651418E+003
+3.49837296621E+007, +2.86516169622E+000, +1.68822314594E+003
+3.51087609512E+007, +8.71830944463E+000, +1.72069647021E+003
+3.52337922403E+007, -3.04212525326E+000, +1.73823793702E+003
+3.53588235294E+007, +8.19354587313E+000, +1.75216569626E+003
+3.54838548185E+007, +7.52675772205E+000, +1.78086825803E+003
+3.56088861076E+007, +1.31494732600E+001, +1.80303349162E+003
+3.57339173967E+007, -1.14329008730E+001, +1.82740739569E+003
+3.58589486859E+007, +5.75309568586E+000, +1.83694491650E+003
+3.59839799750E+007, -1.28682016858E+001, +1.86573198535E+003
+3.61090112641E+007, +4.32920992239E+000, +1.87757582107E+003
+3.62340425532E+007, -1.49033958548E+001, +1.90725979629E+003
+3.63590738423E+007, +7.66647781636E+000, +1.92319594983E+003
+3.64841051314E+007, +1.53141076173E+001, +1.97624675272E+003
+3.66091364205E+007, +1.67027345872E+001, +1.98266097263E+003
+3.67341677096E+007, -3.26799202502E+000, +2.01803299094E+003
+3.68591989987E+007, +4.19249386256E+000, +2.03347420310E+003
+3.69842302879E+007, +4.05842512919E+000, +2.05791407120E+003
+3.71092615770E+007, +9.86011689376E+000, +2.09655478171E+003
+3.72342928661E+007, +2.19723826541E+001, +2.12875944758E+003
+3.73593241552E+007, -2.51091236645E+000, +2.15915306056E+003
+3.74843554443E+007, -6.36806309823E+000, +2.17982482681E+003
+3.76093867334E+007, +2.29747135157E+001, +2.19441000046E+003
+3.77344180225E+007, +2.19956815598E+001, +2.24119254366E+003
+3.78594493116E+007, +2.38099582398E+001, +2.26475864489E+003
+3.79844806008E+007, +1.04397565921E+001, +2.30063657538E+003
+3.81095118899E+007, +3.41474047530E+000, +2.32441314933E+003
+3.82345431790E+007, +1.25575439997E+001, +2.37029317948E+003
+3.83595744681E+007, +1.82427416368E+001, +2.42167248640E+003
+3.84846057572E+007, +4.44349568961E+001, +2.46758280444E+003
+3.86096370463E+007, +2.25954103239E+001, +2.49850833243E+003
+3.87346683354E+007, +4.59995141214E+001, +2.50850045299E+003
+3.88596996245E+007, +2.01722568330E+001, +2.57837429300E+003
+3.89847309136E+007, +1.17534592044E+001, +2.60004346047E+003
+3.91097622028E+007, +2.88845243313E+001, +2.63304902911E+003
+3.92347934919E+007, +1.01366740659E+001, +2.70256500840E+003
+3.93598247810E+007, +6.33528104652E+001, +2.74107143643E+003
+3.94848560701E+007, +6.02214241389E+001, +2.77088076043E+003
+3.96098873592E+007, +6.93209873033E+001, +2.85114936061E+003
+3.97349186483E+007, +5.26786937071E+001, +2.83719250638E+003
+3.98599499374E+007, +7.15945461205E+001, +2.94826398240E+003
+3.99849812265E+007, +8.33875816691E+001, +3.02050404167E+003
+4.01100125156E+007, +8.96124762485E+001, +3.03239342186E+003
