"# Channel 1"
"# Trace 1"
Frequency, Formatted Data, Formatted Data
+1.00000000000E+005, +5.39729864934E+002, -3.14882004539E+003
+2.87609511890E+005, +1.22121999869E+002, -1.21266421505E+003
+4.75219023780E+005, +7.87071472313E+001, -7.38467273395E+002
+6.62828535670E+005, +6.68405557783E+001, -5.33965138159E+002
+8.50438047559E+005, +6.21819679879E+001, -4.16196573507E+002
+1.03804755945E+006, +5.80654363515E+001, -3.41190031088E+002
+1.22565707134E+006, +5.67991954628E+001, -2.90440238416E+002
+1.41326658323E+006, +5.53271689367E+001, -2.51769025309E+002
+1.60087609512E+006, +5.48420852841E+001, -2.22737746659E+002
+1.78848560701E+006, +5.33575391958E+001, -1.99778288964E+002
+1.97609511890E+006, +5.28872925846E+001, -1.80280113686E+002
+2.16370463079E+006, +5.27850338380E+001, -1.65210941544E+002
+2.35131414268E+006, +5.24870154569E+001, -1.52026063014E+002
+2.53892365457E+006, +5.16721434113E+001, -1.40996955907E+002
+2.72653316646E+006, +5.18125655037E+001, -1.31646465191E+002
+2.91414267835E+006, +5.16697846696E+001, -1.22892730049E+002
+3.10175219024E+006, +5.12086222121E+001, -1.15777339831E+002
+3.28936170213E+006, +5.11576422066E+001, -1.09117001098E+002
+3.47697121402E+006, +5.10721613634E+001, -1.03397482626E+002
+3.66458072591E+006, +5.09163522447E+001, -9.79967805081E+001
+3.85219023780E+006, +5.07300029637E+001, -9.33236777603E+001
+4.03979974969E+006, +5.05114290146E+001, -8.90880587250E+001
+4.22740926158E+006, +5.05774465439E+001, -8.52129676671E+001
+4.41501877347E+006, +5.04876213458E+001, -8.14925790548E+001
+4.60262828536E+006, +5.03987595345E+001, -7.84268803609E+001
+4.79023779725E+006, +5.03492330241E+001, -7.51431231100E+001
+4.97784730914E+006, +5.04878947971E+001, -7.23305286124E+001
+5.16545682103E+006, +5.03492355707E+001, -6.97439034828E+001
+5.35306633292E+006, +5.02619372539E+001, -6.74175222265E+001
+5.54067584481E+006, +5.00512172761E+001, -6.52220758651E+001
+5.72828535670E+006, +5.01699515348E+001, -6.30038139127E+001
+5.91589486859E+006, +5.02105175384E+001, -6.10646039640E+001
+6.10350438048E+006, +5.00968997723E+001, -5.90887582968E+001
+6.29111389237E+006, +5.00231421099E+001, -5.74287039700E+001
+6.47872340426E+006, +5.00260398756E+001, -5.58149388429E+001
+6.66633291615E+006, +5.00181442986E+001, -5.42214246010E+001
+6.85394242804E+006, +5.00327325898E+001, -5.27440728497E+001
+7.04155193992E+006, +4.99266072865E+001, -5.13386219121E+001
+7.22916145181E+006, +4.99673996789E+001, -5.00218312373E+001
+7.41677096370E+006, +4.99828406179E+001, -4.88246834152E+001
+7.60438047559E+006, +4.99115005979E+001, -4.76604259716E+001
+7.79198998748E+006, +4.99404761955E+001, -4.65614697299E+001
+7.97959949937E+006, +4.98837408719E+001, -4.54518725065E+001
+8.16720901126E+006, +4.98557195417E+001, -4.43856882499E+001
+8.35481852315E+006, +4.98649235423E+001, -4.34482769461E+001
+8.54242803504E+006, +4.98977421970E+001, -4.24647047971E+001
+8.73003754693E+006, +4.98109100366E+001, -4.16411097130E+001
+8.91764705882E+006, +4.97510159831E+001, -4.06759063935E+001
+9.10525657071E+006, +4.97346841703E+001, -3.98931406580E+001
+9.29286608260E+006, +4.97913547536E+001, -3.91870170681E+001
+9.48047559449E+006, +4.98065811014E+001, -3.83742340041E+001
+9.66808510638E+006, +4.97222142890E+001, -3.76305315994E+001
+9.85569461827E+006, +4.97547339322E+001, -3.69591339695E+001
+1.00433041302E+007, +4.97371915276E+001, -3.62651890986E+001
+1.02309136421E+007, +4.97384156417E+001, -3.56194368969E+001
+1.04185231539E+007, +4.97677108001E+001, -3.49862862622E+001
+1.06061326658E+007, +4.97115172030E+001, -3.43908560901E+001
+1.07937421777E+007, +4.96946442815E+001, -3.37844963998E+001
+1.09813516896E+007, +4.96876248214E+001, -3.32299663405E+001
+1.11689612015E+007, +4.97028812008E+001, -3.26810972030E+001
+1.13565707134E+007, +4.96768327267E+001, -3.21635198660E+001
+1.15441802253E+007, +4.96788317472E+001, -3.16292604304E+001
+1.17317897372E+007, +4.96644504161E+001, -3.11827015963E+001
+1.19193992491E+007, +4.96590255351E+001, -3.07096634381E+001
+1.21070087610E+007, +4.96256849378E+001, -3.02261272518E+001
+1.22946182728E+007, +4.96414102078E+001, -2.97942989081E+001
+1.24822277847E+007, +4.96280328896E+001, -2.93557410019E+001
+1.26698372966E+007, +4.96367493312E+001, -2.89525913986E+001
+1.28574468085E+007, +4.96351435487E+001, -2.85248518077E+001
+1.30450563204E+007, +4.96280893472E+001, -2.81481903064E+001
+1.32326658323E+007, +4.96014253407E+001, -2.77365722663E+001
+1.34202753442E+007, +4.96195536841E+001, -2.73600395557E+001
+1.36078848561E+007, +4.96043822253E+001, -2.70205851731E+001
+1.37954943680E+007, +4.95928610814E+001, -2.66636305032E+001
+1.39831038798E+007, +4.96026038242E+001, -2.63194847335E+001
+1.41707133917E+007, +4.95949798076E+001, -2.59823500282E+001
+1.43583229036E+007, +4.95798239181E+001, -2.56650900682E+001
+1.45459324155E+007, +4.95864302261E+001, -2.53423780564E+001
+1.47335419274E+007, +4.95961798223E+001, -2.50512948946E+001
+1.49211514393E+007, +4.95729475895E+001, -2.47470988501E+001
+1.51087609512E+007, +4.95675612717E+001, -2.44357254942E+001
+1.52963704631E+007, +4.95699649794E+001, -2.41634454104E+001
+1.54839799750E+007, +4.95426203975E+001, -2.38796788471E+001
+1.56715894869E+007, +4.95348169354E+001, -2.36185597075E+001
+1.58591989987E+007, +4.95593789935E+001, -2.33542512558E+001
+1.60468085106E+007, +4.95464625186E+001, -2.30987207143E+001
+1.62344180225E+007, +4.95375612784E+001, -2.28543025049E+001
+1.64220275344E+007, +4.95657391281E+001, -2.25790231181E+001
+1.66096370463E+007, +4.95361625479E+001, -2.23719135899E+001
+1.67972465582E+007, +4.95449850813E+001, -2.21130708460E+001
+1.69848560701E+007, +4.95386592168E+001, -2.19049072125E+001
+1.71724655820E+007, +4.95324539133E+001, -2.17049266258E+001
+1.73600750939E+007, +4.95232024211E+001, -2.14693319794E+001
+1.75476846058E+007, +4.95085989195E+001, -2.12323651600E+001
+1.77352941176E+007, +4.95298954827E+001, -2.10211730239E+001
+1.79229036295E+007, +4.95269429203E+001, -2.08335535473E+001
+1.81105131414E+007, +4.95105005335E+001, -2.06136828442E+001
+1.82981226533E+007, +4.95125462524E+001, -2.04189239414E+001
+1.84857321652E+007, +4.95068590005E+001, -2.02390654386E+001
+1.86733416771E+007, +4.95028501783E+001, -2.00627193743E+001
+1.88609511890E+007, +4.95036612390E+001, -1.98731494936E+001
+1.90485607009E+007, +4.94857462114E+001, -1.96864342681E+001
+1.92361702128E+007, +4.94954131372E+001, -1.95156642729E+001
+1.94237797247E+007, +4.94962344054E+001, -1.93404417324E+001
+1.96113892365E+007, +4.94916607037E+001, -1.91783570958E+001
+1.97989987484E+007, +4.94786322306E+001, -1.90133982517E+001
+1.99866082603E+007, +4.94701447006E+001, -1.88425813308E+001
+2.01742177722E+007, +4.94673219735E+001, -1.86837050443E+001
+2.03618272841E+007, +4.94528001323E+001, -1.85435176284E+001
+2.05494367960E+007, +4.94627752617E+001, -1.83802124826E+001
+2.07370463079E+007, +4.94633810430E+001, -1.82498518817E+001
+2.09246558198E+007, +4.94622026005E+001, -1.80762986074E+001
+2.11122653317E+007, +4.94459015287E+001, -1.79316194940E+001
+2.12998748436E+007, +4.94607666048E+001, -1.77979389160E+001
+2.14874843554E+007, +4.94372767399E+001, -1.76552791179E+001
+2.16750938673E+007, +4.94225169008E+001, -1.75041630710E+001
+2.18627033792E+007, +4.94236545436E+001, -1.73684382209E+001
+2.20503128911E+007, +4.94177202731E+001, -1.72695448592E+001
+2.22379224030E+007, +4.94162687332E+001, -1.71164195080E+001
+2.24255319149E+007, +4.94110570297E+001, -1.69912511720E+001
+2.26131414268E+007, +4.94124251244E+001, -1.68594883462E+001
+2.28007509387E+007, +4.93796365922E+001, -1.67362192710E+001
+2.29883604506E+007, +4.93740591796E+001, -1.66161880260E+001
+2.31759699625E+007, +4.93708541359E+001, -1.64879768347E+001
+2.33635794743E+007, +4.93643373650E+001, -1.63926808870E+001
+2.35511889862E+007, +4.93604288781E+001, -1.62714956129E+001
+2.37387984981E+007, +4.93434135057E+001, -1.61372151852E+001
+2.39264080100E+007, +4.93364152860E+001, -1.60334429159E+001
+2.41140175219E+007, +4.93198715671E+001, -1.59204416316E+001
+2.43016270338E+007, +4.93064428563E+001, -1.58106724384E+001
+2.44892365457E+007, +4.93103735537E+001, -1.56858714146E+001
+2.46768460576E+007, +4.92993330061E+001, -1.55712558927E+001
+2.48644555695E+007, +4.92885003481E+001, -1.54486571075E+001
+2.50520650814E+007, +4.92808346467E+001, -1.53386398148E+001
+2.52396745932E+007, +4.92909052576E+001, -1.52085356543E+001
+2.54272841051E+007, +4.93237609115E+001, -1.51135527211E+001
+2.56148936170E+007, +4.93148550123E+001, -1.50047086866E+001
+2.58025031289E+007, +4.93100620749E+001, -1.48939888115E+001
+2.59901126408E+007, +4.93206908840E+001, -1.47958460330E+001
+2.61777221527E+007, +4.93439873084E+001, -1.47127396118E+001
+2.63653316646E+007, +4.93312755478E+001, -1.46231879773E+001
+2.65529411765E+007, +4.93400010636E+001, -1.45238156190E+001
+2.67405506884E+007, +4.93520448591E+001, -1.44424522744E+001
+2.69281602003E+007, +4.93488404831E+001, -1.43713180509E+001
+2.71157697121E+007, +4.93625754161E+001, -1.42789420234E+001
+2.73033792240E+007, +4.93602835642E+001, -1.41986014048E+001
+2.74909887359E+007, +4.93706466801E+001, -1.41118778808E+001
+2.76785982478E+007, +4.93728910115E+001, -1.40402749241E+001
+2.78662077597E+007, +4.93684563514E+001, -1.39801509671E+001
+2.80538172716E+007, +4.93716122188E+001, -1.38948218557E+001
+2.82414267835E+007, +4.93818864419E+001, -1.38206233402E+001
+2.84290362954E+007, +4.93812865919E+001, -1.37418760554E+001
+2.86166458073E+007, +4.93733302560E+001, -1.36767709796E+001
+2.88042553191E+007, +4.93702228053E+001, -1.36030749343E+001
+2.89918648310E+007, +4.93792525208E+001, -1.35322747164E+001
+2.91794743429E+007, +4.93732962103E+001, -1.34748136637E+001
+2.93670838548E+007, +4.93686454941E+001, -1.34082327580E+001
+2.95546933667E+007, +4.93788670569E+001, -1.33320158514E+001
+2.97423028786E+007, +4.93581767135E+001, -1.32825399615E+001
+2.99299123905E+007, +4.93708990621E+001, -1.32133767250E+001
+3.01175219024E+007, +4.93720712534E+001, -1.31645756560E+001
+3.03051314143E+007, +4.93643064363E+001, -1.30816842154E+001
+3.04927409262E+007, +4.93601515789E+001, -1.30135408991E+001
+3.06803504380E+007, +4.93484256797E+001, -1.29518969278E+001
+3.08679599499E+007, +4.93597873672E+001, -1.29132406166E+001
+3.10555694618E+007, +4.93527115604E+001, -1.28419765425E+001
+3.12431789737E+007, +4.93553852365E+001, -1.27876472899E+001
+3.14307884856E+007, +4.93616352712E+001, -1.27289149856E+001
+3.16183979975E+007, +4.93418921278E+001, -1.26744591372E+001
+3.18060075094E+007, +4.93378612765E+001, -1.26230554553E+001
+3.19936170213E+007, +4.93467478320E+001, -1.25699358114E+001
+3.21812265332E+007, +4.93429872436E+001, -1.25088574584E+001
+3.23688360451E+007, +4.93302816525E+001, -1.24446836248E+001
+3.25564455569E+007, +4.93272660318E+001, -1.24070410421E+001
+3.27440550688E+007, +4.93456226279E+001, -1.23704829674E+001
+3.29316645807E+007, +4.93198885017E+001, -1.23045598002E+001
+3.31192740926E+007, +4.93071708409E+001, -1.22554712104E+001
+3.33068836045E+007, +4.93175893956E+001, -1.22133579031E+001
+3.34944931164E+007, +4.93093663454E+001, -1.21534207685E+001
+3.36821026283E+007, +4.93107950824E+001, -1.21047072994E+001
+3.38697121402E+007, +4.93121885368E+001, -1.20586019317E+001
+3.40573216521E+007, +4.92952666141E+001, -1.20073086839E+001
+3.42449311640E+007, +4.93034427265E+001, -1.19561625093E+001
+3.44325406758E+007, +4.92909504935E+001, -1.19169217931E+001
+3.46201501877E+007, +4.93009931734E+001, -1.18645484156E+001
+3.48077596996E+007, +4.92910057676E+001, -1.18303523729E+001
+3.49953692115E+007, +4.92839701699E+001, -1.17993190625E+001
+3.51829787234E+007, +4.92735352314E+001, -1.17283064451E+001
+3.53705882353E+007, +4.92710095095E+001, -1.16814128815E+001
+3.55581977472E+007, +4.92713014444E+001, -1.16411590580E+001
+3.57458072591E+007, +4.92633002873E+001, -1.16052106691E+001
+3.59334167710E+007, +4.92546286954E+001, -1.15614243328E+001
+3.61210262829E+007, +4.92599942085E+001, -1.15290356582E+001
+3.63086357947E+007, +4.92631549987E+001, -1.14871953052E+001
+3.64962453066E+007, +4.92612395793E+001, -1.14454301259E+001
+3.66838548185E+007, +4.92503213512E+001, -1.13990908349E+001
+3.68714643304E+007, +4.92500030475E+001, -1.13760427527E+001
+3.70590738423E+007, +4.92462970506E+001, -1.13321812207E+001
+3.72466833542E+007, +4.92392633880E+001, -1.12955695223E+001
+3.74342928661E+007, +4.92335346257E+001, -1.12589141411E+001
+3.76219023780E+007, +4.92354883718E+001, -1.12362839331E+001
+3.78095118899E+007, +4.92265580335E+001, -1.12005740203E+001
+3.79971214018E+007, +4.92146058780E+001, -1.11533070000E+001
+3.81847309136E+007, +4.92218219479E+001, -1.11286326662E+001
+3.83723404255E+007, +4.92207418369E+001, -1.10917816915E+001
+3.85599499374E+007, +4.92071346906E+001, -1.10644059407E+001
+3.87475594493E+007, +4.91939594149E+001, -1.10426960951E+001
+3.89351689612E+007, +4.91964697379E+001, -1.09981946266E+001
+3.91227784731E+007, +4.91926690942E+001, -1.09632176350E+001
+3.93103879850E+007, +4.91942470487E+001, -1.09465707597E+001
+3.94979974969E+007, +4.91817311674E+001, -1.09135144581E+001
+3.96856070088E+007, +4.91706749868E+001, -1.08914684305E+001
+3.98732165207E+007, +4.91717848008E+001, -1.08615954414E+001
+4.00608260325E+007, +4.91644806437E+001, -1.08344616646E+001
+4.02484355444E+007, +4.91507701360E+001, -1.08099112931E+001
+4.04360450563E+007, +4.91419493469E+001, -1.07790514553E+001
+4.06236545682E+007, +4.91275214580E+001, -1.07553848466E+001
+4.08112640801E+007, +4.91063781248E+001, -1.07268629220E+001
+4.09988735920E+007, +4.91130186429E+001, -1.06922214962E+001
+4.11864831039E+007, +4.90992190956E+001, -1.06702169957E+001
+4.13740926158E+007, +4.90902786125E+001, -1.06398713006E+001
+4.15617021277E+007, +4.90863730231E+001, -1.06117012965E+001
+4.17493116395E+007, +4.90673310217E+001, -1.05878408728E+001
+4.19369211514E+007, +4.90667335540E+001, -1.05519103604E+001
+4.21245306633E+007, +4.90518002981E+001, -1.05273688817E+001
+4.23121401752E+007, +4.90457529171E+001, -1.04882927567E+001
+4.24997496871E+007, +4.90497418671E+001, -1.04786431532E+001
+4.26873591990E+007, +4.90282707221E+001, -1.04368847623E+001
+4.28749687109E+007, +4.90260424597E+001, -1.04255799386E+001
+4.30625782228E+007, +4.90278875630E+001, -1.03976501038E+001
+4.32501877347E+007, +4.90273030416E+001, -1.03656375541E+001
+4.34377972466E+007, +4.90108992687E+001, -1.03415503248E+001
+4.36254067584E+007, +4.90125215273E+001, -1.03177598708E+001
+4.38130162703E+007, +4.90059765190E+001, -1.02846876471E+001
+4.40006257822E+007, +4.89950586339E+001, -1.02728915932E+001
+4.41882352941E+007, +4.90008825230E+001, -1.02487942992E+001
+4.43758448060E+007, +4.89952676166E+001, -1.02323843583E+001
+4.45634543179E+007, +4.89814662346E+001, -1.02106844239E+001
+4.47510638298E+007, +4.89872790234E+001, -1.01930003693E+001
+4.49386733417E+007, +4.89767363387E+001, -1.01835951906E+001
+4.51262828536E+007, +4.89690051650E+001, -1.01519839917E+001
+4.53138923655E+007, +4.89589089023E+001, -1.01413286622E+001
+4.55015018773E+007, +4.89604396148E+001, -1.01188489473E+001
+4.56891113892E+007, +4.89489983319E+001, -1.00984566105E+001
+4.58767209011E+007, +4.89341862709E+001, -1.00883078145E+001
+4.60643304130E+007, +4.89205895098E+001, -1.00658893905E+001
+4.62519399249E+007, +4.89197195544E+001, -1.00495640233E+001
+4.64395494368E+007, +4.89049025300E+001, -1.00424976642E+001
+4.66271589487E+007, +4.88921733095E+001, -1.00269058461E+001
+4.68147684606E+007, +4.88809644503E+001, -9.99211057543E+000
+4.70023779725E+007, +4.88797473888E+001, -9.97706651794E+000
+4.71899874844E+007, +4.88704641353E+001, -9.95322806706E+000
+4.73775969962E+007, +4.88564015950E+001, -9.94145927388E+000
+4.75652065081E+007, +4.88421539343E+001, -9.92428003121E+000
+4.77528160200E+007, +4.88382189708E+001, -9.90419890067E+000
+4.79404255319E+007, +4.88348344070E+001, -9.89181237402E+000
+4.81280350438E+007, +4.88295540971E+001, -9.86962082744E+000
+4.83156445557E+007, +4.88277847957E+001, -9.85395768435E+000
+4.85032540676E+007, +4.88199520691E+001, -9.84227888619E+000
+4.86908635795E+007, +4.88192884454E+001, -9.81834938149E+000
+4.88784730914E+007, +4.88067193492E+001, -9.81735169504E+000
+4.90660826033E+007, +4.88079027775E+001, -9.80964596236E+000
+4.92536921151E+007, +4.88062256107E+001, -9.79784495941E+000
+4.94413016270E+007, +4.87941872803E+001, -9.78966812049E+000
+4.96289111389E+007, +4.87880801908E+001, -9.77216346583E+000
+4.98165206508E+007, +4.87800609746E+001, -9.76943970889E+000
+5.00041301627E+007, +4.87727142208E+001, -9.76354015659E+000
+5.01917396746E+007, +4.87412669747E+001, -9.74698907346E+000
+5.03793491865E+007, +4.87296145379E+001, -9.74173063226E+000
+5.05669586984E+007, +4.87110486881E+001, -9.72461675686E+000
+5.07545682103E+007, +4.87113155983E+001, -9.71534999782E+000
+5.09421777222E+007, +4.86935022208E+001, -9.70421561316E+000
+5.11297872340E+007, +4.86839568592E+001, -9.67961956858E+000
+5.13173967459E+007, +4.86698167327E+001, -9.66255532552E+000
+5.15050062578E+007, +4.86585078391E+001, -9.65542295379E+000
+5.16926157697E+007, +4.86623953377E+001, -9.64820093259E+000
+5.18802252816E+007, +4.86535600637E+001, -9.61925009151E+000
+5.20678347935E+007, +4.86326360512E+001, -9.61589326646E+000
+5.22554443054E+007, +4.86292582831E+001, -9.60668234024E+000
+5.24430538173E+007, +4.86245772219E+001, -9.59306045546E+000
+5.26306633292E+007, +4.86234890086E+001, -9.59320621134E+000
+5.28182728411E+007, +4.86128763199E+001, -9.58115348444E+000
+5.30058823529E+007, +4.86097016469E+001, -9.56548497766E+000
+5.31934918648E+007, +4.86073377299E+001, -9.55355535899E+000
+5.33811013767E+007, +4.86045895809E+001, -9.55619556892E+000
+5.35687108886E+007, +4.85918858704E+001, -9.54277969572E+000
+5.37563204005E+007, +4.85858128656E+001, -9.54379518942E+000
+5.39439299124E+007, +4.85946374106E+001, -9.53400947133E+000
+5.41315394243E+007, +4.85785122035E+001, -9.54392307216E+000
+5.43191489362E+007, +4.85721048689E+001, -9.54485286586E+000
+5.45067584481E+007, +4.85636852571E+001, -9.53306540621E+000
+5.46943679599E+007, +4.85518090263E+001, -9.53606469734E+000
+5.48819774718E+007, +4.85398757099E+001, -9.53868448859E+000
+5.50695869837E+007, +4.85196515303E+001, -9.53925810977E+000
+5.52571964956E+007, +4.85167084870E+001, -9.53974290082E+000
+5.54448060075E+007, +4.84959107472E+001, -9.51992740378E+000
+5.56324155194E+007, +4.84950803505E+001, -9.52081799345E+000
+5.58200250313E+007, +4.84878469168E+001, -9.50243500992E+000
+5.60076345432E+007, +4.84853804778E+001, -9.50108268867E+000
+5.61952440551E+007, +4.84817530504E+001, -9.50078323405E+000
+5.63828535670E+007, +4.84862572958E+001, -9.49144541311E+000
+5.65704630788E+007, +4.84769874337E+001, -9.48943633076E+000
+5.67580725907E+007, +4.84809152803E+001, -9.49900134427E+000
+5.69456821026E+007, +4.84837975129E+001, -9.49962790579E+000
+5.71332916145E+007, +4.84706849271E+001, -9.50444152075E+000
+5.73209011264E+007, +4.84780379300E+001, -9.51008515209E+000
+5.75085106383E+007, +4.84793511335E+001, -9.51954321713E+000
+5.76961201502E+007, +4.84706942252E+001, -9.54293992712E+000
+5.78837296621E+007, +4.84617035903E+001, -9.55668260296E+000
+5.80713391740E+007, +4.84545249518E+001, -9.57097228851E+000
+5.82589486859E+007, +4.84511583749E+001, -9.58482129326E+000
+5.84465581977E+007, +4.84408010411E+001, -9.60549463078E+000
+5.86341677096E+007, +4.84284775729E+001, -9.61446497968E+000
+5.88217772215E+007, +4.84056782582E+001, -9.63805766600E+000
+5.90093867334E+007, +4.84008498563E+001, -9.64592328115E+000
+5.91969962453E+007, +4.83933363976E+001, -9.65769201450E+000
+5.93846057572E+007, +4.83824875231E+001, -9.67258431501E+000
+5.95722152691E+007, +4.83690503788E+001, -9.70211391164E+000
+5.97598247810E+007, +4.83550213054E+001, -9.72571171276E+000
+5.99474342929E+007, +4.83360359491E+001, -9.73863998458E+000
+6.01350438048E+007, +4.83214632230E+001, -9.75560682507E+000
