"# Channel 1"
"# Trace 1"
Frequency, Formatted Data, Formatted Data
+1.00000000000E+005, +1.01470684559E+002, +2.67574722359E+000
+2.25031289111E+005, +1.01696121182E+002, +6.24601032002E+000
+3.50062578223E+005, +1.01658327581E+002, +9.77386785521E+000
+4.75093867334E+005, +1.01703043452E+002, +1.31912102897E+001
+6.00125156446E+005, +1.01722996959E+002, +1.66044961968E+001
+7.25156445557E+005, +1.01622488207E+002, +2.02418767894E+001
+8.50187734668E+005, +1.01817582308E+002, +2.38216144510E+001
+9.75219023780E+005, +1.01805747448E+002, +2.70906460616E+001
+1.10025031289E+006, +1.02032145106E+002, +3.08931441491E+001
+1.22528160200E+006, +1.01851152640E+002, +3.41404562865E+001
+1.35031289111E+006, +1.02023847022E+002, +3.75518968432E+001
+1.47534418023E+006, +1.02090588870E+002, +4.13120909855E+001
+1.60037546934E+006, +1.02176295407E+002, +4.46835915833E+001
+1.72540675845E+006, +1.02231704004E+002, +4.81262324995E+001
+1.85043804756E+006, +1.02225490311E+002, +5.18075995729E+001
+1.97546933667E+006, +1.02360000868E+002, +5.50632002763E+001
+2.10050062578E+006, +1.02302772828E+002, +5.90128888363E+001
+2.22553191489E+006, +1.02333690209E+002, +6.23064424566E+001
+2.35056320401E+006, +1.02436229746E+002, +6.58032745543E+001
+2.47559449312E+006, +1.02418382776E+002, +6.94066704896E+001
+2.60062578223E+006, +1.02713592083E+002, +7.27560667369E+001
+2.72565707134E+006, +1.02785076588E+002, +7.61739207506E+001
+2.85068836045E+006, +1.02687947469E+002, +7.96017280167E+001
+2.97571964956E+006, +1.02966412998E+002, +8.34696456558E+001
+3.10075093867E+006, +1.02977178442E+002, +8.70000947240E+001
+3.22578222778E+006, +1.02980710351E+002, +9.04951382108E+001
+3.35081351690E+006, +1.03133616832E+002, +9.39339391215E+001
+3.47584480601E+006, +1.03142415972E+002, +9.75411773699E+001
+3.60087609512E+006, +1.03122260548E+002, +1.01201031035E+002
+3.72590738423E+006, +1.04061130331E+002, +1.04423579050E+002
+3.85093867334E+006, +1.03382503368E+002, +1.08004247213E+002
+3.97596996245E+006, +1.03289371373E+002, +1.12243200460E+002
+4.10100125156E+006, +1.03542104824E+002, +1.14866053252E+002
+4.22603254068E+006, +1.03565516164E+002, +1.18788978782E+002
+4.35106382979E+006, +1.03952782737E+002, +1.21905815559E+002
+4.47609511890E+006, +1.04026148133E+002, +1.26166841885E+002
+4.60112640801E+006, +1.04169507142E+002, +1.29544249514E+002
+4.72615769712E+006, +1.04169966801E+002, +1.32667478230E+002
+4.85118898623E+006, +1.04618323440E+002, +1.36475962063E+002
+4.97622027534E+006, +1.04503760371E+002, +1.40151942976E+002
+5.10125156446E+006, +1.04745499940E+002, +1.44036012853E+002
+5.22628285357E+006, +1.05297471108E+002, +1.47354360479E+002
+5.35131414268E+006, +1.05624124779E+002, +1.51132983547E+002
+5.47634543179E+006, +1.05396781641E+002, +1.54493459599E+002
+5.60137672090E+006, +1.05497449856E+002, +1.57799833178E+002
+5.72640801001E+006, +1.05714463693E+002, +1.60778591310E+002
+5.85143929912E+006, +1.05939849172E+002, +1.65182947009E+002
+5.97647058824E+006, +1.06460095547E+002, +1.68793355054E+002
+6.10150187735E+006, +1.06591295509E+002, +1.72430240662E+002
+6.22653316646E+006, +1.06675880829E+002, +1.76828494706E+002
+6.35156445557E+006, +1.06735886251E+002, +1.79579210953E+002
+6.47659574468E+006, +1.06927757928E+002, +1.83157406418E+002
+6.60162703379E+006, +1.06975606799E+002, +1.87083816272E+002
+6.72665832290E+006, +1.07500201013E+002, +1.90707140535E+002
+6.85168961202E+006, +1.07427437837E+002, +1.94211321023E+002
+6.97672090113E+006, +1.07524328735E+002, +1.97716003224E+002
+7.10175219024E+006, +1.08307141277E+002, +2.01507048546E+002
+7.22678347935E+006, +1.08422970504E+002, +2.05206387218E+002
+7.35181476846E+006, +1.08595325770E+002, +2.09086066748E+002
+7.47684605757E+006, +1.08576209240E+002, +2.12627122473E+002
+7.60187734668E+006, +1.08663827353E+002, +2.16268689110E+002
+7.72690863579E+006, +1.09424062265E+002, +2.20216320646E+002
+7.85193992491E+006, +1.09652289960E+002, +2.23630072539E+002
+7.97697121402E+006, +1.09326420036E+002, +2.27120804823E+002
+8.10200250313E+006, +1.09937565584E+002, +2.31026718392E+002
+8.22703379224E+006, +1.10189198295E+002, +2.35281154011E+002
+8.35206508135E+006, +1.10071022744E+002, +2.38318008054E+002
+8.47709637046E+006, +1.10804786222E+002, +2.42179612249E+002
+8.60212765957E+006, +1.10746572342E+002, +2.46146915367E+002
+8.72715894869E+006, +1.11273807626E+002, +2.49986475701E+002
+8.85219023780E+006, +1.11328459665E+002, +2.53654785982E+002
+8.97722152691E+006, +1.12360043098E+002, +2.57516437218E+002
+9.10225281602E+006, +1.12076789262E+002, +2.61441632786E+002
+9.22728410513E+006, +1.12443581481E+002, +2.65380372485E+002
+9.35231539424E+006, +1.12394226147E+002, +2.69385337154E+002
+9.47734668335E+006, +1.12522172775E+002, +2.72929183158E+002
+9.60237797247E+006, +1.12906780229E+002, +2.76566415684E+002
+9.72740926158E+006, +1.13065309632E+002, +2.79960376657E+002
+9.85244055069E+006, +1.12789771827E+002, +2.84620098691E+002
+9.97747183980E+006, +1.13183241890E+002, +2.88737804649E+002
+1.01025031289E+007, +1.13776064024E+002, +2.92485565373E+002
+1.02275344180E+007, +1.13483090112E+002, +2.96355178297E+002
+1.03525657071E+007, +1.14798150916E+002, +3.00280550495E+002
+1.04775969962E+007, +1.14548653639E+002, +3.04215611664E+002
+1.06026282854E+007, +1.14772255153E+002, +3.08526124980E+002
+1.07276595745E+007, +1.14885279466E+002, +3.11895270100E+002
+1.08526908636E+007, +1.16298604290E+002, +3.15700787477E+002
+1.09777221527E+007, +1.16425126317E+002, +3.19479438182E+002
+1.11027534418E+007, +1.16265272417E+002, +3.24038104303E+002
+1.12277847309E+007, +1.16960256740E+002, +3.27677080393E+002
+1.13528160200E+007, +1.16802513596E+002, +3.31638273264E+002
+1.14778473091E+007, +1.17405963145E+002, +3.35296917679E+002
+1.16028785982E+007, +1.17961204135E+002, +3.39785975083E+002
+1.17279098874E+007, +1.18094276584E+002, +3.44009121583E+002
+1.18529411765E+007, +1.18567899423E+002, +3.48103581117E+002
+1.19779724656E+007, +1.18509555687E+002, +3.52894528403E+002
+1.21030037547E+007, +1.18859213873E+002, +3.55084946111E+002
+1.22280350438E+007, +1.19684469202E+002, +3.59910049096E+002
+1.23530663329E+007, +1.20275734973E+002, +3.64795578765E+002
+1.24780976220E+007, +1.20582121389E+002, +3.68328875151E+002
+1.26031289111E+007, +1.21044715667E+002, +3.72126373963E+002
+1.27281602003E+007, +1.20766553754E+002, +3.77002599993E+002
+1.28531914894E+007, +1.21314923372E+002, +3.80114815201E+002
+1.29782227785E+007, +1.21358536858E+002, +3.85235296846E+002
+1.31032540676E+007, +1.22704972377E+002, +3.89245520274E+002
+1.32282853567E+007, +1.22321591938E+002, +3.93474022789E+002
+1.33533166458E+007, +1.23185845772E+002, +3.97358441926E+002
+1.34783479349E+007, +1.23335231975E+002, +4.01360924347E+002
+1.36033792240E+007, +1.23565039020E+002, +4.05985676577E+002
+1.37284105131E+007, +1.23997732908E+002, +4.09621880351E+002
+1.38534418023E+007, +1.25279578246E+002, +4.14325103446E+002
+1.39784730914E+007, +1.24358651422E+002, +4.18855358886E+002
+1.41035043805E+007, +1.25251291346E+002, +4.23506788628E+002
+1.42285356696E+007, +1.26454824272E+002, +4.27086373411E+002
+1.43535669587E+007, +1.26538897015E+002, +4.31762770449E+002
+1.44785982478E+007, +1.26835155936E+002, +4.35797423994E+002
+1.46036295369E+007, +1.27750737802E+002, +4.41514717775E+002
+1.47286608260E+007, +1.27466921823E+002, +4.44163754268E+002
+1.48536921151E+007, +1.28948043784E+002, +4.48588075365E+002
+1.49787234043E+007, +1.27656484497E+002, +4.53256936529E+002
+1.51037546934E+007, +1.30586630018E+002, +4.57932651704E+002
+1.52287859825E+007, +1.29755928848E+002, +4.62339470289E+002
+1.53538172716E+007, +1.30231474120E+002, +4.66234285658E+002
+1.54788485607E+007, +1.31034869181E+002, +4.72030336053E+002
+1.56038798498E+007, +1.32836685872E+002, +4.75031429321E+002
+1.57289111389E+007, +1.30937615952E+002, +4.79200921226E+002
+1.58539424280E+007, +1.31814400930E+002, +4.85454511872E+002
+1.59789737171E+007, +1.32648471498E+002, +4.90669697707E+002
+1.61040050063E+007, +1.34729537188E+002, +4.94297644688E+002
+1.62290362954E+007, +1.33796143703E+002, +4.98549354457E+002
+1.63540675845E+007, +1.34267795035E+002, +5.03803926703E+002
+1.64790988736E+007, +1.34843821893E+002, +5.08550633501E+002
+1.66041301627E+007, +1.34860703674E+002, +5.12503788143E+002
+1.67291614518E+007, +1.35498678000E+002, +5.17598866534E+002
+1.68541927409E+007, +1.35056985406E+002, +5.22615510672E+002
+1.69792240300E+007, +1.36195388139E+002, +5.26962011247E+002
+1.71042553191E+007, +1.37063371965E+002, +5.32527976968E+002
+1.72292866083E+007, +1.38070535958E+002, +5.37486852343E+002
+1.73543178974E+007, +1.38393283727E+002, +5.43214631087E+002
+1.74793491865E+007, +1.40561168540E+002, +5.46126880135E+002
+1.76043804756E+007, +1.38472618402E+002, +5.53665130083E+002
+1.77294117647E+007, +1.41213339418E+002, +5.55872606594E+002
+1.78544430538E+007, +1.41233542687E+002, +5.61478149960E+002
+1.79794743429E+007, +1.41677109903E+002, +5.65387510974E+002
+1.81045056320E+007, +1.41783463570E+002, +5.71320887683E+002
+1.82295369212E+007, +1.44185334101E+002, +5.76631854097E+002
+1.83545682103E+007, +1.44226213830E+002, +5.80549131776E+002
+1.84795994994E+007, +1.44277423660E+002, +5.85446955296E+002
+1.86046307885E+007, +1.48604106849E+002, +5.89626158399E+002
+1.87296620776E+007, +1.47098291621E+002, +5.97507852497E+002
+1.88546933667E+007, +1.46915945497E+002, +5.99615693689E+002
+1.89797246558E+007, +1.47497532309E+002, +6.07332081803E+002
+1.91047559449E+007, +1.48925612008E+002, +6.11547986321E+002
+1.92297872340E+007, +1.49365778568E+002, +6.18129914303E+002
+1.93548185232E+007, +1.49960481491E+002, +6.22180012136E+002
+1.94798498123E+007, +1.50672333473E+002, +6.27227661403E+002
+1.96048811014E+007, +1.51503403773E+002, +6.31703311881E+002
+1.97299123905E+007, +1.52611825881E+002, +6.37983056617E+002
+1.98549436796E+007, +1.52808925176E+002, +6.43632520614E+002
+1.99799749687E+007, +1.56835543781E+002, +6.48689290848E+002
+2.01050062578E+007, +1.56972932721E+002, +6.56601025703E+002
+2.02300375469E+007, +1.58049693210E+002, +6.59873195027E+002
+2.03550688360E+007, +1.57258840899E+002, +6.63840109337E+002
+2.04801001252E+007, +1.57656264430E+002, +6.70809129807E+002
+2.06051314143E+007, +1.59332173312E+002, +6.75378929601E+002
+2.07301627034E+007, +1.60930853042E+002, +6.80049346259E+002
+2.08551939925E+007, +1.59626450362E+002, +6.89159719864E+002
+2.09802252816E+007, +1.63050680738E+002, +6.92519758711E+002
+2.11052565707E+007, +1.64686256257E+002, +6.98131663942E+002
+2.12302878598E+007, +1.65998720639E+002, +7.04092064075E+002
+2.13553191489E+007, +1.64734031497E+002, +7.11059627271E+002
+2.14803504380E+007, +1.65439784280E+002, +7.11281088134E+002
+2.16053817272E+007, +1.65893199398E+002, +7.22369569795E+002
+2.17304130163E+007, +1.69253848437E+002, +7.25760882660E+002
+2.18554443054E+007, +1.69518728074E+002, +7.31647477973E+002
+2.19804755945E+007, +1.70259065612E+002, +7.40475750875E+002
+2.21055068836E+007, +1.72525218438E+002, +7.42827730304E+002
+2.22305381727E+007, +1.75495340604E+002, +7.47654258732E+002
+2.23555694618E+007, +1.74975533545E+002, +7.54264273015E+002
+2.24806007509E+007, +1.74380155518E+002, +7.62733253075E+002
+2.26056320401E+007, +1.78319423683E+002, +7.70135376602E+002
+2.27306633292E+007, +1.80341967313E+002, +7.74641023069E+002
+2.28556946183E+007, +1.82865740897E+002, +7.75665098141E+002
+2.29807259074E+007, +1.81986644207E+002, +7.84942230107E+002
+2.31057571965E+007, +1.84331947076E+002, +7.89920397459E+002
+2.32307884856E+007, +1.81391267977E+002, +7.98535867037E+002
+2.33558197747E+007, +1.84079523689E+002, +8.07507057618E+002
+2.34808510638E+007, +1.85960229928E+002, +8.12655329182E+002
+2.36058823529E+007, +1.87431257863E+002, +8.17478222379E+002
+2.37309136421E+007, +1.88896857180E+002, +8.21436674482E+002
+2.38559449312E+007, +1.91269820632E+002, +8.28736674783E+002
+2.39809762203E+007, +1.94534875558E+002, +8.34224248227E+002
+2.41060075094E+007, +1.97018087836E+002, +8.42552438027E+002
+2.42310387985E+007, +1.95514473534E+002, +8.45961634585E+002
+2.43560700876E+007, +1.99474871579E+002, +8.49201422487E+002
+2.44811013767E+007, +2.00022975775E+002, +8.61128095945E+002
+2.46061326658E+007, +2.03230022699E+002, +8.66434308029E+002
+2.47311639549E+007, +2.05215695222E+002, +8.72284791931E+002
+2.48561952441E+007, +2.01853993456E+002, +8.79230087630E+002
+2.49812265332E+007, +2.03225306756E+002, +8.88782276027E+002
+2.51062578223E+007, +2.02286162300E+002, +8.90144047713E+002
+2.52312891114E+007, +2.08917628743E+002, +8.97109204030E+002
+2.53563204005E+007, +2.08038336463E+002, +9.06452833315E+002
+2.54813516896E+007, +2.11407211696E+002, +9.08850058588E+002
+2.56063829787E+007, +2.13814139166E+002, +9.15848997219E+002
+2.57314142678E+007, +2.09567617022E+002, +9.28754600969E+002
+2.58564455569E+007, +2.14325465395E+002, +9.30367537739E+002
+2.59814768461E+007, +2.15794717163E+002, +9.39789367096E+002
+2.61065081352E+007, +2.19324096529E+002, +9.51344123787E+002
+2.62315394243E+007, +2.19166120610E+002, +9.55955059255E+002
+2.63565707134E+007, +2.16951821581E+002, +9.62626282969E+002
+2.64816020025E+007, +2.20494775618E+002, +9.70482936030E+002
+2.66066332916E+007, +2.25685809991E+002, +9.75412132200E+002
+2.67316645807E+007, +2.26624044977E+002, +9.81908167749E+002
+2.68566958698E+007, +2.27680784530E+002, +9.87761745975E+002
+2.69817271589E+007, +2.29201450860E+002, +1.00203762036E+003
+2.71067584481E+007, +2.28525132956E+002, +1.00804251865E+003
+2.72317897372E+007, +2.33061146015E+002, +1.01472334155E+003
+2.73568210263E+007, +2.35084230344E+002, +1.02274340806E+003
+2.74818523154E+007, +2.36164580256E+002, +1.02851986986E+003
+2.76068836045E+007, +2.37313079284E+002, +1.04141680265E+003
+2.77319148936E+007, +2.38251473775E+002, +1.04517855349E+003
+2.78569461827E+007, +2.41254409912E+002, +1.05717707522E+003
+2.79819774718E+007, +2.41135515247E+002, +1.06404089528E+003
+2.81070087610E+007, +2.37997024287E+002, +1.07152320020E+003
+2.82320400501E+007, +2.48738115516E+002, +1.07604636925E+003
+2.83570713392E+007, +2.52641115389E+002, +1.09329628439E+003
+2.84821026283E+007, +2.59172642226E+002, +1.10045263466E+003
+2.86071339174E+007, +2.49916438223E+002, +1.10291197362E+003
+2.87321652065E+007, +2.54004242592E+002, +1.12380670410E+003
+2.88571964956E+007, +2.53066567748E+002, +1.12499401494E+003
+2.89822277847E+007, +2.59441420906E+002, +1.13393742542E+003
+2.91072590738E+007, +2.59961208594E+002, +1.14539056934E+003
+2.92322903630E+007, +2.58975727461E+002, +1.16327339806E+003
+2.93573216521E+007, +2.72432955847E+002, +1.15968652041E+003
+2.94823529412E+007, +2.63809953760E+002, +1.17906792469E+003
+2.96073842303E+007, +2.69876186342E+002, +1.18761380602E+003
+2.97324155194E+007, +2.68336559093E+002, +1.19662462551E+003
+2.98574468085E+007, +2.74528958419E+002, +1.20378057271E+003
+2.99824780976E+007, +2.76595283335E+002, +1.20917006542E+003
+3.01075093867E+007, +2.87953025198E+002, +1.22655873616E+003
+3.02325406758E+007, +2.81089724498E+002, +1.24663930992E+003
+3.03575719650E+007, +2.89035673964E+002, +1.24366679409E+003
+3.04826032541E+007, +2.93472986953E+002, +1.25404165893E+003
+3.06076345432E+007, +2.92086212401E+002, +1.26998839172E+003
+3.07326658323E+007, +2.92152956477E+002, +1.28182119583E+003
+3.08576971214E+007, +2.94095458815E+002, +1.29876302804E+003
+3.09827284105E+007, +2.99371573163E+002, +1.28988120116E+003
+3.11077596996E+007, +2.95685967315E+002, +1.31997572828E+003
+3.12327909887E+007, +2.96248567933E+002, +1.31793729339E+003
+3.13578222778E+007, +3.06641582550E+002, +1.33762284730E+003
+3.14828535670E+007, +3.15227204166E+002, +1.33198370834E+003
+3.16078848561E+007, +3.20198319160E+002, +1.35155418883E+003
+3.17329161452E+007, +3.21790968706E+002, +1.35485473808E+003
+3.18579474343E+007, +3.12973887879E+002, +1.37997296330E+003
+3.19829787234E+007, +3.30195256712E+002, +1.38392977828E+003
+3.21080100125E+007, +3.28418602244E+002, +1.39910676718E+003
+3.22330413016E+007, +3.35811972997E+002, +1.41063706645E+003
+3.23580725907E+007, +3.41659920519E+002, +1.42366927212E+003
+3.24831038798E+007, +3.42934905083E+002, +1.43446096283E+003
+3.26081351690E+007, +3.42343097954E+002, +1.45340717954E+003
+3.27331664581E+007, +3.48628027966E+002, +1.46604798262E+003
+3.28581977472E+007, +3.40502463977E+002, +1.47678566747E+003
+3.29832290363E+007, +3.53952986408E+002, +1.49295995308E+003
+3.31082603254E+007, +3.63615124379E+002, +1.50008413540E+003
+3.32332916145E+007, +3.65790116349E+002, +1.51033454428E+003
+3.33583229036E+007, +3.64755892005E+002, +1.52654480591E+003
+3.34833541927E+007, +3.73856440276E+002, +1.54565553373E+003
+3.36083854819E+007, +3.79508108639E+002, +1.55573801061E+003
+3.37334167710E+007, +3.80850085504E+002, +1.56861136173E+003
+3.38584480601E+007, +3.90309743313E+002, +1.59262357346E+003
+3.39834793492E+007, +3.98387614417E+002, +1.60312925302E+003
+3.41085106383E+007, +3.97723176961E+002, +1.61320915827E+003
+3.42335419274E+007, +4.04699966293E+002, +1.62719428098E+003
+3.43585732165E+007, +4.12275116183E+002, +1.64904629102E+003
+3.44836045056E+007, +4.06986615698E+002, +1.64943107057E+003
+3.46086357947E+007, +4.13297376759E+002, +1.68060214459E+003
+3.47336670839E+007, +4.48600005947E+002, +1.69637158646E+003
+3.48586983730E+007, +4.36075215420E+002, +1.71155739978E+003
+3.49837296621E+007, +4.45194654163E+002, +1.73737549352E+003
+3.51087609512E+007, +4.51731645414E+002, +1.73900753320E+003
+3.52337922403E+007, +4.41448566560E+002, +1.77357994446E+003
+3.53588235294E+007, +4.78143018035E+002, +1.77018811461E+003
+3.54838548185E+007, +4.71080862646E+002, +1.79218599782E+003
+3.56088861076E+007, +4.71304585776E+002, +1.81536306727E+003
+3.57339173967E+007, +4.64657585836E+002, +1.81537347937E+003
+3.58589486859E+007, +4.90069130974E+002, +1.84300971896E+003
+3.59839799750E+007, +5.12678398436E+002, +1.84318640686E+003
+3.61090112641E+007, +5.03737349632E+002, +1.87894767872E+003
+3.62340425532E+007, +5.12354124883E+002, +1.88360291730E+003
+3.63590738423E+007, +5.22957133988E+002, +1.88914612084E+003
+3.64841051314E+007, +5.10695982210E+002, +1.93149742241E+003
+3.66091364205E+007, +5.38806476536E+002, +1.94229381304E+003
+3.67341677096E+007, +5.56441089076E+002, +1.95885679169E+003
+3.68591989987E+007, +5.34330684747E+002, +1.97960901765E+003
+3.69842302879E+007, +5.74243152659E+002, +2.02023005094E+003
+3.71092615770E+007, +5.80550878731E+002, +2.02076792975E+003
+3.72342928661E+007, +6.02398216321E+002, +2.05753163033E+003
+3.73593241552E+007, +5.85113107969E+002, +2.07110130844E+003
+3.74843554443E+007, +6.12583999310E+002, +2.08687953939E+003
+3.76093867334E+007, +6.35918463529E+002, +2.12934773146E+003
+3.77344180225E+007, +6.31246907792E+002, +2.12208227847E+003
+3.78594493116E+007, +6.69088581599E+002, +2.16040909729E+003
+3.79844806008E+007, +6.46308453520E+002, +2.19688171620E+003
+3.81095118899E+007, +6.47146076685E+002, +2.22815262510E+003
+3.82345431790E+007, +7.00009808344E+002, +2.25333818424E+003
+3.83595744681E+007, +6.90320616086E+002, +2.24474226407E+003
+3.84846057572E+007, +6.79206548899E+002, +2.26381386425E+003
+3.86096370463E+007, +7.31812577076E+002, +2.33620745400E+003
+3.87346683354E+007, +7.45941614929E+002, +2.34039417852E+003
+3.88596996245E+007, +7.71856148221E+002, +2.36312911242E+003
+3.89847309136E+007, +7.45227006289E+002, +2.39903997386E+003
+3.91097622028E+007, +8.35504453245E+002, +2.40293910138E+003
+3.92347934919E+007, +7.97753994011E+002, +2.44512875691E+003
+3.93598247810E+007, +8.57925994304E+002, +2.45827742059E+003
+3.94848560701E+007, +8.38545968544E+002, +2.51693975574E+003
+3.96098873592E+007, +8.56263421887E+002, +2.51216617669E+003
+3.97349186483E+007, +8.82942468181E+002, +2.55485201083E+003
+3.98599499374E+007, +9.14573268916E+002, +2.61355838090E+003
+3.99849812265E+007, +9.03028603634E+002, +2.64127027448E+003
+4.01100125156E+007, +9.76159186243E+002, +2.68293302209E+003
