"# Channel 1"
"# Trace 1"
Frequency, Formatted Data, Formatted Data
+1.00000000000E+005, +5.03067586163E+001, +2.69983529753E+000
+2.25031289111E+005, +5.03680698507E+001, +6.29323173268E+000
+3.50062578223E+005, +5.05041492341E+001, +9.94592711558E+000
+4.75093867334E+005, +5.05218871603E+001, +1.33847893322E+001
+6.00125156446E+005, +5.06577876071E+001, +1.69727607108E+001
+7.25156445557E+005, +5.05671602917E+001, +2.03951749589E+001
+8.50187734668E+005, +5.07248374926E+001, +2.38610267411E+001
+9.75219023780E+005, +5.06288781077E+001, +2.74698435579E+001
+1.10025031289E+006, +5.08084505203E+001, +3.08911946132E+001
+1.22528160200E+006, +5.06983091499E+001, +3.43178492321E+001
+1.35031289111E+006, +5.07684867481E+001, +3.79507998871E+001
+1.47534418023E+006, +5.08991192878E+001, +4.13077213011E+001
+1.60037546934E+006, +5.08606165724E+001, +4.46745998349E+001
+1.72540675845E+006, +5.09305029753E+001, +4.82947053541E+001
+1.85043804756E+006, +5.10037243805E+001, +5.17504143120E+001
+1.97546933667E+006, +5.09072249145E+001, +5.51665970637E+001
+2.10050062578E+006, +5.10635439162E+001, +5.85952577258E+001
+2.22553191489E+006, +5.09724199189E+001, +6.20558813586E+001
+2.35056320401E+006, +5.10788845717E+001, +6.56410617127E+001
+2.47559449312E+006, +5.09081882970E+001, +6.91955847995E+001
+2.60062578223E+006, +5.11930002497E+001, +7.25076034988E+001
+2.72565707134E+006, +5.10245488375E+001, +7.58247632667E+001
+2.85068836045E+006, +5.11674325976E+001, +7.93674495083E+001
+2.97571964956E+006, +5.14692570218E+001, +8.28331245744E+001
+3.10075093867E+006, +5.13288908482E+001, +8.66674667711E+001
+3.22578222778E+006, +5.15380798812E+001, +8.98302565443E+001
+3.35081351690E+006, +5.14055988386E+001, +9.37506131373E+001
+3.47584480601E+006, +5.15429465421E+001, +9.69391631703E+001
+3.60087609512E+006, +5.16176231378E+001, +1.00378234657E+002
+3.72590738423E+006, +5.15355010371E+001, +1.03797212237E+002
+3.85093867334E+006, +5.18262657844E+001, +1.07285855959E+002
+3.97596996245E+006, +5.18417053089E+001, +1.10914369359E+002
+4.10100125156E+006, +5.16837128507E+001, +1.14405756752E+002
+4.22603254068E+006, +5.16692858082E+001, +1.17912337440E+002
+4.35106382979E+006, +5.15855959417E+001, +1.21277223567E+002
+4.47609511890E+006, +5.18335957388E+001, +1.25367551334E+002
+4.60112640801E+006, +5.20967409388E+001, +1.28847545701E+002
+4.72615769712E+006, +5.16649024371E+001, +1.31684152325E+002
+4.85118898623E+006, +5.18322466281E+001, +1.35391671056E+002
+4.97622027534E+006, +5.21454537440E+001, +1.39154777428E+002
+5.10125156446E+006, +5.20549531971E+001, +1.42579169730E+002
+5.22628285357E+006, +5.23877987351E+001, +1.46151577472E+002
+5.35131414268E+006, +5.23410858316E+001, +1.49551672413E+002
+5.47634543179E+006, +5.19919440886E+001, +1.53218722475E+002
+5.60137672090E+006, +5.23812180530E+001, +1.56932698223E+002
+5.72640801001E+006, +5.27076632732E+001, +1.60067732499E+002
+5.85143929912E+006, +5.25161284899E+001, +1.63981252930E+002
+5.97647058824E+006, +5.25538451797E+001, +1.67620247752E+002
+6.10150187735E+006, +5.28155131844E+001, +1.71328235265E+002
+6.22653316646E+006, +5.30924392703E+001, +1.74774256368E+002
+6.35156445557E+006, +5.28196796662E+001, +1.78239410279E+002
+6.47659574468E+006, +5.31277940165E+001, +1.82100367211E+002
+6.60162703379E+006, +5.33222109990E+001, +1.85601816812E+002
+6.72665832290E+006, +5.32627211034E+001, +1.88984377722E+002
+6.85168961202E+006, +5.34914367680E+001, +1.92699719022E+002
+6.97672090113E+006, +5.31696535182E+001, +1.96462294193E+002
+7.10175219024E+006, +5.35999796613E+001, +1.99822163029E+002
+7.22678347935E+006, +5.38078880792E+001, +2.03628879956E+002
+7.35181476846E+006, +5.38239532914E+001, +2.07179683429E+002
+7.47684605757E+006, +5.39351119173E+001, +2.10839813139E+002
+7.60187734668E+006, +5.38880968282E+001, +2.14501003340E+002
+7.72690863579E+006, +5.39872460603E+001, +2.18251655328E+002
+7.85193992491E+006, +5.41158530690E+001, +2.22239291790E+002
+7.97697121402E+006, +5.46065525224E+001, +2.25631146126E+002
+8.10200250313E+006, +5.44282611674E+001, +2.29516013926E+002
+8.22703379224E+006, +5.44823993234E+001, +2.33217751328E+002
+8.35206508135E+006, +5.46141361595E+001, +2.36769293385E+002
+8.47709637046E+006, +5.46426816209E+001, +2.40757467933E+002
+8.60212765957E+006, +5.45555909577E+001, +2.43978740592E+002
+8.72715894869E+006, +5.43771193766E+001, +2.47798999958E+002
+8.85219023780E+006, +5.47799387448E+001, +2.51764994698E+002
+8.97722152691E+006, +5.50529995102E+001, +2.55465283511E+002
+9.10225281602E+006, +5.52030264820E+001, +2.58912289424E+002
+9.22728410513E+006, +5.48226869773E+001, +2.62525675706E+002
+9.35231539424E+006, +5.50922807256E+001, +2.67018812915E+002
+9.47734668335E+006, +5.52574351423E+001, +2.70088524029E+002
+9.60237797247E+006, +5.54958799845E+001, +2.74371631739E+002
+9.72740926158E+006, +5.56056238358E+001, +2.77783595392E+002
+9.85244055069E+006, +5.58115095142E+001, +2.81693039168E+002
+9.97747183980E+006, +5.57486865568E+001, +2.85383307451E+002
+1.01025031289E+007, +5.59712237200E+001, +2.89915005769E+002
+1.02275344180E+007, +5.59960932668E+001, +2.93015497206E+002
+1.03525657071E+007, +5.65937930827E+001, +2.97308231953E+002
+1.04775969962E+007, +5.60258831243E+001, +3.01163962857E+002
+1.06026282854E+007, +5.65185043538E+001, +3.04623576677E+002
+1.07276595745E+007, +5.63328131490E+001, +3.08811644390E+002
+1.08526908636E+007, +5.66409213185E+001, +3.12518031544E+002
+1.09777221527E+007, +5.64041202214E+001, +3.16818249419E+002
+1.11027534418E+007, +5.69177805929E+001, +3.20294729420E+002
+1.12277847309E+007, +5.61382732103E+001, +3.24500895032E+002
+1.13528160200E+007, +5.67275230203E+001, +3.28588144691E+002
+1.14778473091E+007, +5.77078862650E+001, +3.32198843280E+002
+1.16028785982E+007, +5.75461186770E+001, +3.36565708438E+002
+1.17279098874E+007, +5.77100259523E+001, +3.39947849100E+002
+1.18529411765E+007, +5.77373149047E+001, +3.44073250774E+002
+1.19779724656E+007, +5.81519238335E+001, +3.48408330181E+002
+1.21030037547E+007, +5.76125192177E+001, +3.52317966031E+002
+1.22280350438E+007, +5.76305532503E+001, +3.55876494301E+002
+1.23530663329E+007, +5.80316963434E+001, +3.60480455416E+002
+1.24780976220E+007, +5.80203171670E+001, +3.64671548581E+002
+1.26031289111E+007, +5.77344444763E+001, +3.68871079368E+002
+1.27281602003E+007, +5.81743682776E+001, +3.72889729260E+002
+1.28531914894E+007, +5.85572775465E+001, +3.76564798658E+002
+1.29782227785E+007, +5.88148760492E+001, +3.80864717826E+002
+1.31032540676E+007, +5.86822103370E+001, +3.84779374071E+002
+1.32282853567E+007, +5.90276848836E+001, +3.89620765972E+002
+1.33533166458E+007, +5.89408317118E+001, +3.94037000949E+002
+1.34783479349E+007, +5.87602016162E+001, +3.97125875230E+002
+1.36033792240E+007, +5.95953915076E+001, +4.02408552769E+002
+1.37284105131E+007, +5.92114386337E+001, +4.06669200199E+002
+1.38534418023E+007, +5.99074831706E+001, +4.10594693270E+002
+1.39784730914E+007, +6.01718244237E+001, +4.15680836024E+002
+1.41035043805E+007, +6.05088498272E+001, +4.19148030365E+002
+1.42285356696E+007, +5.98347297968E+001, +4.23182277371E+002
+1.43535669587E+007, +6.03587343837E+001, +4.27210539206E+002
+1.44785982478E+007, +6.06679984527E+001, +4.31008571303E+002
+1.46036295369E+007, +6.08883544086E+001, +4.35643743825E+002
+1.47286608260E+007, +6.13655573694E+001, +4.39758338674E+002
+1.48536921151E+007, +6.09594107354E+001, +4.45384346548E+002
+1.49787234043E+007, +6.17224567652E+001, +4.49927133506E+002
+1.51037546934E+007, +6.19787695571E+001, +4.54152740331E+002
+1.52287859825E+007, +6.28883998063E+001, +4.56562575614E+002
+1.53538172716E+007, +6.22207870448E+001, +4.63072391863E+002
+1.54788485607E+007, +6.18787310735E+001, +4.67055145827E+002
+1.56038798498E+007, +6.12121676041E+001, +4.70129890778E+002
+1.57289111389E+007, +6.28610748447E+001, +4.76521089221E+002
+1.58539424280E+007, +6.20771698648E+001, +4.79513008564E+002
+1.59789737171E+007, +6.32257339264E+001, +4.84038190055E+002
+1.61040050063E+007, +6.31138597202E+001, +4.89156674639E+002
+1.62290362954E+007, +6.13505532267E+001, +4.93934436430E+002
+1.63540675845E+007, +6.35642134297E+001, +4.98167681764E+002
+1.64790988736E+007, +6.26783411809E+001, +5.03316895259E+002
+1.66041301627E+007, +6.29513968745E+001, +5.06285169975E+002
+1.67291614518E+007, +6.26293721976E+001, +5.11828426062E+002
+1.68541927409E+007, +6.33217635937E+001, +5.17587367503E+002
+1.69792240300E+007, +6.52044848286E+001, +5.23662589980E+002
+1.71042553191E+007, +6.12859073249E+001, +5.27510396982E+002
+1.72292866083E+007, +6.36259443035E+001, +5.32313051105E+002
+1.73543178974E+007, +6.45147662115E+001, +5.36191573317E+002
+1.74793491865E+007, +6.51538886462E+001, +5.39707747075E+002
+1.76043804756E+007, +6.41705041721E+001, +5.46756427226E+002
+1.77294117647E+007, +6.55154873824E+001, +5.50795285049E+002
+1.78544430538E+007, +6.48887524685E+001, +5.57644374071E+002
+1.79794743429E+007, +6.65160242594E+001, +5.60094374683E+002
+1.81045056320E+007, +6.58953041949E+001, +5.67208658349E+002
+1.82295369212E+007, +6.67495593054E+001, +5.69342205407E+002
+1.83545682103E+007, +6.81660943875E+001, +5.78392382652E+002
+1.84795994994E+007, +6.57179337860E+001, +5.79632712958E+002
+1.86046307885E+007, +6.76244492403E+001, +5.85113544901E+002
+1.87296620776E+007, +6.60780431518E+001, +5.90652342774E+002
+1.88546933667E+007, +6.87336325922E+001, +5.95509258213E+002
+1.89797246558E+007, +6.93042562842E+001, +6.01698971854E+002
+1.91047559449E+007, +6.92943849143E+001, +6.03755876592E+002
+1.92297872340E+007, +6.92763034184E+001, +6.10665333168E+002
+1.93548185232E+007, +7.02936934091E+001, +6.14028519497E+002
+1.94798498123E+007, +6.95846319435E+001, +6.22141581882E+002
+1.96048811014E+007, +6.87082847057E+001, +6.25359418665E+002
+1.97299123905E+007, +6.95423640044E+001, +6.31162121398E+002
+1.98549436796E+007, +7.08393265457E+001, +6.36305190369E+002
+1.99799749687E+007, +6.92144363307E+001, +6.41555214902E+002
+2.01050062578E+007, +7.16933773971E+001, +6.47824311239E+002
+2.02300375469E+007, +7.23351144672E+001, +6.54284164673E+002
+2.03550688360E+007, +7.14939980886E+001, +6.58068378762E+002
+2.04801001252E+007, +7.16026137722E+001, +6.62720794730E+002
+2.06051314143E+007, +7.27467435912E+001, +6.69784359850E+002
+2.07301627034E+007, +7.22782995469E+001, +6.74279265477E+002
+2.08551939925E+007, +7.42193637544E+001, +6.81297597097E+002
+2.09802252816E+007, +7.22062816686E+001, +6.84776012590E+002
+2.11052565707E+007, +7.31065081228E+001, +6.91861159181E+002
+2.12302878598E+007, +7.49007039352E+001, +6.99437831539E+002
+2.13553191489E+007, +7.40907181610E+001, +7.00533577395E+002
+2.14803504380E+007, +7.51459275421E+001, +7.08637466231E+002
+2.16053817272E+007, +7.52949681525E+001, +7.15102006382E+002
+2.17304130163E+007, +7.51760464243E+001, +7.20805871147E+002
+2.18554443054E+007, +7.53739410065E+001, +7.24506150637E+002
+2.19804755945E+007, +7.56350111798E+001, +7.31639246946E+002
+2.21055068836E+007, +8.05698297731E+001, +7.37170416564E+002
+2.22305381727E+007, +8.01170993320E+001, +7.45028444091E+002
+2.23555694618E+007, +7.72053746448E+001, +7.49713765474E+002
+2.24806007509E+007, +8.07114439979E+001, +7.56364848493E+002
+2.26056320401E+007, +8.00592278710E+001, +7.61142146588E+002
+2.27306633292E+007, +8.28956895222E+001, +7.70573664654E+002
+2.28556946183E+007, +8.15949545612E+001, +7.71528241863E+002
+2.29807259074E+007, +8.33697340821E+001, +7.78214415916E+002
+2.31057571965E+007, +8.42983068011E+001, +7.87001232591E+002
+2.32307884856E+007, +8.42353863789E+001, +7.93486472652E+002
+2.33558197747E+007, +8.60854316215E+001, +7.99162472432E+002
+2.34808510638E+007, +8.50578590405E+001, +8.03785530047E+002
+2.36058823529E+007, +8.81593647800E+001, +8.12751053248E+002
+2.37309136421E+007, +8.58278484178E+001, +8.18466893960E+002
+2.38559449312E+007, +8.34417271132E+001, +8.24602300210E+002
+2.39809762203E+007, +8.85209300066E+001, +8.31975678789E+002
+2.41060075094E+007, +9.03139390496E+001, +8.36729864049E+002
+2.42310387985E+007, +9.21028059756E+001, +8.44610893907E+002
+2.43560700876E+007, +8.90836058205E+001, +8.48030442079E+002
+2.44811013767E+007, +9.30157294334E+001, +8.60413651894E+002
+2.46061326658E+007, +9.04595414072E+001, +8.64270958070E+002
+2.47311639549E+007, +9.27574459212E+001, +8.67882109273E+002
+2.48561952441E+007, +9.61370211134E+001, +8.73326151922E+002
+2.49812265332E+007, +9.54463821536E+001, +8.84621265827E+002
+2.51062578223E+007, +9.52221683738E+001, +8.86839514007E+002
+2.52312891114E+007, +9.38380071371E+001, +8.92369063196E+002
+2.53563204005E+007, +1.04396226862E+002, +8.99221874393E+002
+2.54813516896E+007, +9.85097896937E+001, +9.03911419775E+002
+2.56063829787E+007, +9.41748396061E+001, +9.15364268037E+002
+2.57314142678E+007, +9.68526363185E+001, +9.22337246843E+002
+2.58564455569E+007, +9.97687254068E+001, +9.29252784959E+002
+2.59814768461E+007, +9.32968683860E+001, +9.34580498329E+002
+2.61065081352E+007, +9.96829388241E+001, +9.40336286397E+002
+2.62315394243E+007, +9.78955738453E+001, +9.50695797323E+002
+2.63565707134E+007, +9.63891993969E+001, +9.57183926427E+002
+2.64816020025E+007, +1.00104353935E+002, +9.64542005161E+002
+2.66066332916E+007, +9.91949103776E+001, +9.72349924023E+002
+2.67316645807E+007, +9.84150591447E+001, +9.83356607445E+002
+2.68566958698E+007, +1.03224333736E+002, +9.85598333247E+002
+2.69817271589E+007, +1.02475640445E+002, +9.92063206579E+002
+2.71067584481E+007, +1.03085929899E+002, +1.00677638839E+003
+2.72317897372E+007, +1.04062404315E+002, +1.01461048446E+003
+2.73568210263E+007, +1.03834652666E+002, +1.01815445871E+003
+2.74818523154E+007, +9.65655680800E+001, +1.03030812084E+003
+2.76068836045E+007, +1.03619801574E+002, +1.03982288435E+003
+2.77319148936E+007, +1.05079140773E+002, +1.04367672470E+003
+2.78569461827E+007, +1.04468850305E+002, +1.05393950514E+003
+2.79819774718E+007, +1.05145992563E+002, +1.06272578585E+003
+2.81070087610E+007, +1.08893907388E+002, +1.07137405146E+003
+2.82320400501E+007, +1.05960044679E+002, +1.07352022723E+003
+2.83570713392E+007, +1.02891839466E+002, +1.08939856689E+003
+2.84821026283E+007, +1.04949839423E+002, +1.09516962449E+003
+2.86071339174E+007, +1.10673073159E+002, +1.10760371361E+003
+2.87321652065E+007, +1.06826627797E+002, +1.10849129514E+003
+2.88571964956E+007, +1.10810207070E+002, +1.12546958170E+003
+2.89822277847E+007, +1.13654076608E+002, +1.13287613418E+003
+2.91072590738E+007, +1.13113460672E+002, +1.14224495420E+003
+2.92322903630E+007, +1.11333264074E+002, +1.15216288454E+003
+2.93573216521E+007, +1.08129553817E+002, +1.16056441211E+003
+2.94823529412E+007, +1.17349342901E+002, +1.18563670542E+003
+2.96073842303E+007, +1.09760451879E+002, +1.18457486820E+003
+2.97324155194E+007, +1.14097128993E+002, +1.18546846536E+003
+2.98574468085E+007, +1.12469784337E+002, +1.19798375678E+003
+2.99824780976E+007, +1.14626330996E+002, +1.20915565266E+003
+3.01075093867E+007, +1.25501279184E+002, +1.22647629080E+003
+3.02325406758E+007, +1.26966700621E+002, +1.22383590747E+003
+3.03575719650E+007, +1.15924749555E+002, +1.24265506003E+003
+3.04826032541E+007, +1.15594608352E+002, +1.25763922941E+003
+3.06076345432E+007, +1.25436617676E+002, +1.25611951124E+003
+3.07326658323E+007, +1.36285518086E+002, +1.28423051510E+003
+3.08576971214E+007, +1.26025431477E+002, +1.28300785591E+003
+3.09827284105E+007, +1.30161685675E+002, +1.29413378430E+003
+3.11077596996E+007, +1.26038410639E+002, +1.31261003270E+003
+3.12327909887E+007, +1.29883954243E+002, +1.31642202578E+003
+3.13578222778E+007, +1.29182571703E+002, +1.32883077777E+003
+3.14828535670E+007, +1.29940043754E+002, +1.34051994246E+003
+3.16078848561E+007, +1.34188382464E+002, +1.34862637136E+003
+3.17329161452E+007, +1.38698289933E+002, +1.36337402589E+003
+3.18579474343E+007, +1.32146062378E+002, +1.37434492744E+003
+3.19829787234E+007, +1.38518226201E+002, +1.38739230452E+003
+3.21080100125E+007, +1.37256037885E+002, +1.40533125711E+003
+3.22330413016E+007, +1.41572753294E+002, +1.41028091636E+003
+3.23580725907E+007, +1.41320619026E+002, +1.42725694355E+003
+3.24831038798E+007, +1.48615654716E+002, +1.44286635190E+003
+3.26081351690E+007, +1.49261006382E+002, +1.45487957307E+003
+3.27331664581E+007, +1.45936616926E+002, +1.46036502648E+003
+3.28581977472E+007, +1.53394712099E+002, +1.47329040601E+003
+3.29832290363E+007, +1.39017157188E+002, +1.49079713790E+003
+3.31082603254E+007, +1.51621878321E+002, +1.49932290370E+003
+3.32332916145E+007, +1.65336004424E+002, +1.51552431006E+003
+3.33583229036E+007, +1.63678732843E+002, +1.53810617078E+003
+3.34833541927E+007, +1.55745302553E+002, +1.55973804169E+003
+3.36083854819E+007, +1.59189384205E+002, +1.55719068591E+003
+3.37334167710E+007, +1.72715808024E+002, +1.57325831667E+003
+3.38584480601E+007, +1.52482060615E+002, +1.58510792971E+003
+3.39834793492E+007, +1.54424557023E+002, +1.62172324383E+003
+3.41085106383E+007, +1.69260708372E+002, +1.61045422126E+003
+3.42335419274E+007, +1.84592420802E+002, +1.63873139936E+003
+3.43585732165E+007, +1.71577842441E+002, +1.65290828266E+003
+3.44836045056E+007, +1.73779921298E+002, +1.67889640622E+003
+3.46086357947E+007, +1.73968001973E+002, +1.66346334054E+003
+3.47336670839E+007, +1.86152069850E+002, +1.69144991646E+003
+3.48586983730E+007, +1.80906149776E+002, +1.72194892490E+003
+3.49837296621E+007, +1.71741303851E+002, +1.72875844414E+003
+3.51087609512E+007, +1.65326361397E+002, +1.75908293879E+003
+3.52337922403E+007, +2.03800527722E+002, +1.75057718145E+003
+3.53588235294E+007, +2.08931835394E+002, +1.77328135897E+003
+3.54838548185E+007, +2.12179955703E+002, +1.80411838550E+003
+3.56088861076E+007, +2.03480918816E+002, +1.81470420737E+003
+3.57339173967E+007, +2.01173584101E+002, +1.83787588816E+003
+3.58589486859E+007, +2.05219692940E+002, +1.85380619304E+003
+3.59839799750E+007, +1.93860186237E+002, +1.88677203404E+003
+3.61090112641E+007, +2.20466053460E+002, +1.90878089728E+003
+3.62340425532E+007, +2.14256185739E+002, +1.90708162276E+003
+3.63590738423E+007, +2.07721275189E+002, +1.92271736195E+003
+3.64841051314E+007, +2.03734762089E+002, +1.93487425276E+003
+3.66091364205E+007, +2.25877848796E+002, +1.95636998424E+003
+3.67341677096E+007, +2.20459553917E+002, +2.00312517223E+003
+3.68591989987E+007, +2.56083328894E+002, +2.00581763201E+003
+3.69842302879E+007, +2.35962589669E+002, +2.03400382263E+003
+3.71092615770E+007, +2.46791674387E+002, +2.05402492760E+003
+3.72342928661E+007, +2.68565362520E+002, +2.06188575204E+003
+3.73593241552E+007, +2.35153962987E+002, +2.08534258217E+003
+3.74843554443E+007, +2.20924375147E+002, +2.10951395846E+003
+3.76093867334E+007, +2.39645028870E+002, +2.15186196889E+003
+3.77344180225E+007, +2.43064897981E+002, +2.16242598477E+003
+3.78594493116E+007, +2.69834330063E+002, +2.18194029815E+003
+3.79844806008E+007, +2.85020790702E+002, +2.21830127799E+003
+3.81095118899E+007, +2.80197259635E+002, +2.25660897468E+003
+3.82345431790E+007, +2.89971535974E+002, +2.25335624485E+003
+3.83595744681E+007, +2.69826459075E+002, +2.31522347337E+003
+3.84846057572E+007, +2.84247685536E+002, +2.36711574756E+003
+3.86096370463E+007, +3.01064018627E+002, +2.36123732239E+003
+3.87346683354E+007, +3.13273483543E+002, +2.39423270555E+003
+3.88596996245E+007, +3.13717789252E+002, +2.42796562672E+003
+3.89847309136E+007, +2.99591906152E+002, +2.47607930265E+003
+3.91097622028E+007, +3.20830925617E+002, +2.47174348568E+003
+3.92347934919E+007, +3.59538053214E+002, +2.48529590525E+003
+3.93598247810E+007, +3.20257762220E+002, +2.54560709928E+003
+3.94848560701E+007, +3.46895270754E+002, +2.56757343265E+003
+3.96098873592E+007, +3.54418373817E+002, +2.61575346432E+003
+3.97349186483E+007, +3.32072547384E+002, +2.64914282381E+003
+3.98599499374E+007, +3.65194149557E+002, +2.68069216247E+003
+3.99849812265E+007, +4.13395670013E+002, +2.69737936691E+003
+4.01100125156E+007, +4.22457344928E+002, +2.78593019225E+003
