"# Channel 1"
"# Trace 1"
Frequency, Formatted Data, Formatted Data
+1.00000000000E+005, +3.77103430552E-001, +2.57428363936E+000
+2.66777963272E+005, +4.00896967740E-001, +6.83639162500E+000
+4.33555926544E+005, +4.53836895664E-001, +1.11094907339E+001
+6.00333889816E+005, +5.44415531942E-001, +1.52889244760E+001
+7.67111853088E+005, +5.97766854386E-001, +1.95403282081E+001
+9.33889816361E+005, +6.46682653834E-001, +2.36796727734E+001
+1.10066777963E+006, +5.99775704932E-001, +2.79065757377E+001
+1.26744574290E+006, +6.97395877360E-001, +3.20618083378E+001
+1.43422370618E+006, +6.42762882235E-001, +3.63443073510E+001
+1.60100166945E+006, +7.37532822501E-001, +4.04190540449E+001
+1.76777963272E+006, +7.80014478222E-001, +4.45948391234E+001
+1.93455759599E+006, +7.53442483644E-001, +4.87133365244E+001
+2.10133555927E+006, +7.66804426166E-001, +5.28726081902E+001
+2.26811352254E+006, +8.24160905604E-001, +5.70465711271E+001
+2.43489148581E+006, +7.86155352635E-001, +6.13194691108E+001
+2.60166944908E+006, +8.09292488830E-001, +6.54643997806E+001
+2.76844741235E+006, +7.75574599920E-001, +6.97609285581E+001
+2.93522537563E+006, +7.80441825358E-001, +7.39455901909E+001
+3.10200333890E+006, +9.11423949513E-001, +7.80075558032E+001
+3.26878130217E+006, +7.23145513595E-001, +8.22941797500E+001
+3.43555926544E+006, +7.95032321100E-001, +8.65678941697E+001
+3.60233722871E+006, +9.76198321155E-001, +9.08517404192E+001
+3.76911519199E+006, +7.03406742021E-001, +9.51807572250E+001
+3.93589315526E+006, +6.32526776231E-001, +9.91815407603E+001
+4.10267111853E+006, +8.62714898188E-001, +1.03658903995E+002
+4.26944908180E+006, +7.54652326071E-001, +1.07888177883E+002
+4.43622704508E+006, +7.71940436313E-001, +1.11989757250E+002
+4.60300500835E+006, +7.96617447907E-001, +1.16481951300E+002
+4.76978297162E+006, +7.18512548442E-001, +1.20392952915E+002
+4.93656093489E+006, +9.11806461856E-001, +1.24825623148E+002
+5.10333889816E+006, +7.86648606104E-001, +1.29067757032E+002
+5.27011686144E+006, +1.13411080749E+000, +1.33802232408E+002
+5.43689482471E+006, +9.57105577963E-001, +1.37836252180E+002
+5.60367278798E+006, +9.82896925950E-001, +1.42427683801E+002
+5.77045075125E+006, +8.00336330670E-001, +1.46513437049E+002
+5.93722871452E+006, +1.16165182910E+000, +1.50981987377E+002
+6.10400667780E+006, +1.13402606072E+000, +1.55401489099E+002
+6.27078464107E+006, +1.30101568190E+000, +1.59530715763E+002
+6.43756260434E+006, +1.39618905646E+000, +1.64028151322E+002
+6.60434056761E+006, +1.48548577813E+000, +1.68215517233E+002
+6.77111853088E+006, +1.73097626767E+000, +1.72589013146E+002
+6.93789649416E+006, +1.53706474232E+000, +1.77057975259E+002
+7.10467445743E+006, +1.52278714315E+000, +1.81411787920E+002
+7.27145242070E+006, +1.63198157636E+000, +1.85751152312E+002
+7.43823038397E+006, +1.57935425633E+000, +1.90131574194E+002
+7.60500834725E+006, +1.63950626358E+000, +1.94536978208E+002
+7.77178631052E+006, +1.57104590951E+000, +1.99297115659E+002
+7.93856427379E+006, +1.52528169873E+000, +2.03399927629E+002
+8.10534223706E+006, +1.60272044766E+000, +2.07845536970E+002
+8.27212020033E+006, +1.66560039503E+000, +2.12411218193E+002
+8.43889816361E+006, +1.42509240717E+000, +2.17051722699E+002
+8.60567612688E+006, +1.19033043971E+000, +2.21408099164E+002
+8.77245409015E+006, +1.15049142590E+000, +2.25662924446E+002
+8.93923205342E+006, +1.34935060358E+000, +2.30676877194E+002
+9.10601001669E+006, +1.38061232903E+000, +2.35055075605E+002
+9.27278797997E+006, +1.41567573048E+000, +2.39714669542E+002
+9.43956594324E+006, +1.19036899135E+000, +2.44227199144E+002
+9.60634390651E+006, +1.15540188816E+000, +2.48846876457E+002
+9.77312186978E+006, +9.95757669460E-001, +2.53278971789E+002
+9.93989983306E+006, +1.15150427808E+000, +2.58572537778E+002
+1.01066777963E+007, +7.67050288523E-001, +2.62779310274E+002
+1.02734557596E+007, +1.03493136298E+000, +2.67906517579E+002
+1.04402337229E+007, +5.23351004514E-001, +2.72636377482E+002
+1.06070116861E+007, +5.54050985063E-001, +2.77185097352E+002
+1.07737896494E+007, +4.72020503352E-001, +2.82138881671E+002
+1.09405676127E+007, +1.25672311326E+000, +2.86971911244E+002
+1.11073455760E+007, +7.00790221580E-001, +2.91805886314E+002
+1.12741235392E+007, +6.89450097696E-001, +2.96658681310E+002
+1.14409015025E+007, +8.55510463968E-001, +3.01443517358E+002
+1.16076794658E+007, +1.01128719921E+000, +3.06231100334E+002
+1.17744574290E+007, +8.69538304056E-001, +3.11852722171E+002
+1.19412353923E+007, +9.64937302625E-001, +3.16199323914E+002
+1.21080133556E+007, +2.84880358558E-001, +3.21464474417E+002
+1.22747913189E+007, +9.30880157873E-001, +3.26433761069E+002
+1.24415692821E+007, -3.21797639894E-002, +3.31535499526E+002
+1.26083472454E+007, +1.84039787282E-001, +3.36533199303E+002
+1.27751252087E+007, +5.38844584670E-001, +3.41338884914E+002
+1.29419031720E+007, -2.25853769938E-001, +3.46694266657E+002
+1.31086811352E+007, +5.84317090641E-002, +3.51015748752E+002
+1.32754590985E+007, +4.62132217988E-001, +3.56932834708E+002
+1.34422370618E+007, +3.61779630996E-002, +3.61938225594E+002
+1.36090150250E+007, +1.16935718238E+000, +3.66975599537E+002
+1.37757929883E+007, +5.63742983429E-002, +3.72675204648E+002
+1.39425709516E+007, +2.30422193771E-001, +3.77305426685E+002
+1.41093489149E+007, +5.02480253295E-001, +3.83102727233E+002
+1.42761268781E+007, +3.38554005838E-001, +3.88661954627E+002
+1.44429048414E+007, +5.23831768835E-001, +3.93491746138E+002
+1.46096828047E+007, -4.33640145606E-001, +3.99817454732E+002
+1.47764607679E+007, +4.06862947353E-001, +4.04632513854E+002
+1.49432387312E+007, -3.90373095786E-001, +4.10001383533E+002
+1.51100166945E+007, -2.19943424413E-001, +4.15889355994E+002
+1.52767946578E+007, +2.12540997278E-001, +4.21510997865E+002
+1.54435726210E+007, +1.08140706052E+000, +4.26646410383E+002
+1.56103505843E+007, +1.20778449791E+000, +4.33021136713E+002
+1.57771285476E+007, +4.88954385786E-001, +4.37609119301E+002
+1.59439065109E+007, +8.27698525159E-001, +4.44221432536E+002
+1.61106844741E+007, +7.39476956734E-001, +4.49125946363E+002
+1.62774624374E+007, +1.60100315991E+000, +4.54687487028E+002
+1.64442404007E+007, +6.23577919759E-001, +4.60955050534E+002
+1.66110183639E+007, +2.28044025307E+000, +4.65740424913E+002
+1.67777963272E+007, +1.00067050374E+000, +4.72386658489E+002
+1.69445742905E+007, +1.60046568554E+000, +4.76943377688E+002
+1.71113522538E+007, -2.09914488257E+000, +4.83282805326E+002
+1.72781302170E+007, +1.06002938662E+000, +4.91378968019E+002
+1.74449081803E+007, -1.45664084458E+000, +4.95122171486E+002
+1.76116861436E+007, +1.10485262531E+000, +5.02399522535E+002
+1.77784641068E+007, +2.44376470816E-001, +5.07264605343E+002
+1.79452420701E+007, +6.04888997249E-002, +5.14048170871E+002
+1.81120200334E+007, +8.01904197912E-001, +5.19660726823E+002
+1.82787979967E+007, +1.54869193452E+000, +5.26056365752E+002
+1.84455759599E+007, +1.71569339263E+000, +5.32715922999E+002
+1.86123539232E+007, +7.59354602449E-001, +5.38492773589E+002
+1.87791318865E+007, -2.55720123618E-001, +5.45684693928E+002
+1.89459098497E+007, +5.83460796662E-001, +5.52771878252E+002
+1.91126878130E+007, +9.93755045382E-001, +5.58622683834E+002
+1.92794657763E+007, +4.67977907055E-001, +5.66816218186E+002
+1.94462437396E+007, +1.04114471229E+000, +5.73351759782E+002
+1.96130217028E+007, +8.63785731400E-001, +5.79636448825E+002
+1.97797996661E+007, -1.05823863472E-001, +5.85868623489E+002
+1.99465776294E+007, -1.14425981985E+000, +5.91413712019E+002
+2.01133555927E+007, -1.52202941709E+000, +6.01956270083E+002
+2.02801335559E+007, +8.19068034902E-001, +6.08275356407E+002
+2.04469115192E+007, +4.12260452380E+000, +6.15578938136E+002
+2.06136894825E+007, -4.75869070491E-002, +6.20077127955E+002
+2.07804674457E+007, +1.63343566962E+000, +6.29245844092E+002
+2.09472454090E+007, -5.37878334559E-001, +6.38017777965E+002
+2.11140233723E+007, +2.47734630266E-001, +6.41918382143E+002
+2.12808013356E+007, +1.93079526981E+000, +6.49247100319E+002
+2.14475792988E+007, +1.15466743521E+000, +6.60308482605E+002
+2.16143572621E+007, +3.88004742047E+000, +6.67024913082E+002
+2.17811352254E+007, +1.17892773395E+000, +6.71893933858E+002
+2.19479131886E+007, +4.87119210340E+000, +6.82012448103E+002
+2.21146911519E+007, +6.51799719829E+000, +6.87467867451E+002
+2.22814691152E+007, +3.51192272730E+000, +6.98705175813E+002
+2.24482470785E+007, +3.89161617073E+000, +7.08419103937E+002
+2.26150250417E+007, +7.78156746657E+000, +7.15206124994E+002
+2.27818030050E+007, +6.43601349474E+000, +7.23289764066E+002
+2.29485809683E+007, +9.05727270333E+000, +7.30449515153E+002
+2.31153589316E+007, +5.62173832022E+000, +7.37325991334E+002
+2.32821368948E+007, +8.59306039603E+000, +7.47557495979E+002
+2.34489148581E+007, +9.58339495825E+000, +7.52547524742E+002
+2.36156928214E+007, +1.17229044777E+001, +7.63719528163E+002
+2.37824707846E+007, +9.81325766287E+000, +7.70597065206E+002
+2.39492487479E+007, +7.77808022503E+000, +7.76978303668E+002
+2.41160267112E+007, +1.01119121162E+001, +7.86695833018E+002
+2.42828046745E+007, +9.17630007681E+000, +7.97659669197E+002
+2.44495826377E+007, +1.31728769164E+001, +8.08253870891E+002
+2.46163606010E+007, +1.22425016205E+001, +8.13111311748E+002
+2.47831385643E+007, +1.11074776010E+001, +8.25479302209E+002
+2.49499165275E+007, +1.60880204994E+001, +8.33133258181E+002
+2.51166944908E+007, +1.70077301133E+001, +8.43358001779E+002
+2.52834724541E+007, +1.77299835294E+001, +8.52783068025E+002
+2.54502504174E+007, +1.80966645609E+001, +8.64327599971E+002
+2.56170283806E+007, +1.61416094294E+001, +8.68599459985E+002
+2.57838063439E+007, +1.88921260590E+001, +8.79850976276E+002
+2.59505843072E+007, +1.95981309017E+001, +8.97557365954E+002
+2.61173622705E+007, +2.27408859247E+001, +9.04239592119E+002
+2.62841402337E+007, +2.08698294454E+001, +9.12844736884E+002
+2.64509181970E+007, +1.80282870245E+001, +9.25106548395E+002
+2.66176961603E+007, +2.04721242930E+001, +9.33500752999E+002
+2.67844741235E+007, +2.07388243712E+001, +9.43303701984E+002
+2.69512520868E+007, +2.17543350275E+001, +9.52003679939E+002
+2.71180300501E+007, +2.66196559306E+001, +9.62702442227E+002
+2.72848080134E+007, +2.27833290412E+001, +9.75244503424E+002
+2.74515859766E+007, +2.98654210589E+001, +9.87435359841E+002
+2.76183639399E+007, +2.53932169975E+001, +9.95751780142E+002
+2.77851419032E+007, +2.71182673013E+001, +1.00560907899E+003
+2.79519198664E+007, +2.80048851871E+001, +1.01893803603E+003
+2.81186978297E+007, +3.23908849618E+001, +1.02706065411E+003
+2.82854757930E+007, +3.01094435196E+001, +1.03989667545E+003
+2.84522537563E+007, +2.71388659001E+001, +1.05663668972E+003
+2.86190317195E+007, +2.90019746206E+001, +1.06517437295E+003
+2.87858096828E+007, +3.71790850927E+001, +1.08143887675E+003
+2.89525876461E+007, +3.38739536158E+001, +1.08623900547E+003
+2.91193656093E+007, +2.78582389056E+001, +1.09900099360E+003
+2.92861435726E+007, +3.44985858224E+001, +1.11671752882E+003
+2.94529215359E+007, +3.44321350658E+001, +1.12628541394E+003
+2.96196994992E+007, +3.72302542933E+001, +1.14182537390E+003
+2.97864774624E+007, +3.89769123319E+001, +1.15640028821E+003
+2.99532554257E+007, +3.61879419532E+001, +1.16843284248E+003
+3.01200333890E+007, +3.63642766315E+001, +1.18107014652E+003
+3.02868113523E+007, +3.93121743819E+001, +1.20484721237E+003
+3.04535893155E+007, +4.06381972773E+001, +1.21621129275E+003
+3.06203672788E+007, +3.99411292735E+001, +1.22927154674E+003
+3.07871452421E+007, +4.05848716407E+001, +1.24070589569E+003
+3.09539232053E+007, +4.46489904973E+001, +1.25714052828E+003
+3.11207011686E+007, +3.80467926952E+001, +1.27885672907E+003
+3.12874791319E+007, +4.55836113742E+001, +1.28693379593E+003
+3.14542570952E+007, +4.28595520632E+001, +1.30285258303E+003
+3.16210350584E+007, +4.76220319457E+001, +1.32698225086E+003
+3.17878130217E+007, +3.90526851992E+001, +1.33738483595E+003
+3.19545909850E+007, +4.99754734954E+001, +1.36077197311E+003
+3.21213689482E+007, +3.98395373261E+001, +1.38424736256E+003
+3.22881469115E+007, +4.17218453070E+001, +1.39529465440E+003
+3.24549248748E+007, +4.43427314326E+001, +1.42518729606E+003
+3.26217028381E+007, +4.46667350404E+001, +1.43897103378E+003
+3.27884808013E+007, +4.77956933135E+001, +1.45412201544E+003
+3.29552587646E+007, +5.82019169134E+001, +1.47594698004E+003
+3.31220367279E+007, +5.71073242682E+001, +1.49396523086E+003
+3.32888146912E+007, +5.40676843370E+001, +1.52476145639E+003
+3.34555926544E+007, +4.58570918118E+001, +1.54287600251E+003
+3.36223706177E+007, +5.53838104554E+001, +1.55673309827E+003
+3.37891485810E+007, +5.70758499371E+001, +1.57118212179E+003
+3.39559265442E+007, +6.90440155699E+001, +1.60055674819E+003
+3.41227045075E+007, +6.21346932899E+001, +1.61932405974E+003
+3.42894824708E+007, +6.03214518069E+001, +1.64681311465E+003
+3.44562604341E+007, +6.95758659949E+001, +1.67836971509E+003
+3.46230383973E+007, +7.31908751894E+001, +1.71180902312E+003
+3.47898163606E+007, +6.76771177381E+001, +1.73791370101E+003
+3.49565943239E+007, +7.99260794009E+001, +1.76011878599E+003
+3.51233722871E+007, +7.46404296833E+001, +1.78822565075E+003
+3.52901502504E+007, +8.07690206677E+001, +1.81028375829E+003
+3.54569282137E+007, +9.13737821989E+001, +1.84455548765E+003
+3.56237061770E+007, +7.69807743140E+001, +1.88013805045E+003
+3.57904841402E+007, +8.21711945242E+001, +1.91342884938E+003
+3.59572621035E+007, +9.85912019589E+001, +1.96012487760E+003
+3.61240400668E+007, +1.00555802134E+002, +1.97555333933E+003
+3.62908180301E+007, +9.85784370008E+001, +2.03127293965E+003
+3.64575959933E+007, +7.84191545988E+001, +2.04501850468E+003
+3.66243739566E+007, +1.11784401000E+002, +2.08787962288E+003
+3.67911519199E+007, +1.14526649355E+002, +2.13832973257E+003
+3.69579298831E+007, +8.79900549907E+001, +2.15609612781E+003
+3.71247078464E+007, +1.05623552210E+002, +2.21762020712E+003
+3.72914858097E+007, +1.12440372242E+002, +2.26753625624E+003
+3.74582637730E+007, +1.24622178349E+002, +2.32061689251E+003
+3.76250417362E+007, +1.24732205341E+002, +2.34549926727E+003
+3.77918196995E+007, +1.27317591259E+002, +2.39015202292E+003
+3.79585976628E+007, +1.31749694027E+002, +2.46415329722E+003
+3.81253756260E+007, +1.80774484102E+002, +2.50388829346E+003
+3.82921535893E+007, +1.78091860960E+002, +2.54449804336E+003
+3.84589315526E+007, +1.85639300647E+002, +2.64039210662E+003
+3.86257095159E+007, +1.78180735066E+002, +2.70400514059E+003
+3.87924874791E+007, +1.80377430641E+002, +2.71078223536E+003
+3.89592654424E+007, +2.15387685260E+002, +2.81314392257E+003
+3.91260434057E+007, +2.50440951408E+002, +2.89511680128E+003
+3.92928213689E+007, +2.66807141801E+002, +2.93058546198E+003
+3.94595993322E+007, +2.72308099486E+002, +3.05586857609E+003
+3.96263772955E+007, +2.38282144735E+002, +3.09942590425E+003
+3.97931552588E+007, +2.41820271885E+002, +3.16835241459E+003
+3.99599332220E+007, +3.24311968432E+002, +3.29272619906E+003
+4.01267111853E+007, +3.40066002891E+002, +3.33635979163E+003
+4.02934891486E+007, +3.20070202423E+002, +3.46061748068E+003
+4.04602671119E+007, +3.93889308520E+002, +3.53893595627E+003
+4.06270450751E+007, +4.24161246532E+002, +3.61832042237E+003
+4.07938230384E+007, +4.13826501828E+002, +3.74292009243E+003
+4.09606010017E+007, +5.28398466499E+002, +3.88024552347E+003
+4.11273789649E+007, +4.92286254699E+002, +3.97528869034E+003
+4.12941569282E+007, +5.57803196389E+002, +4.12590604007E+003
+4.14609348915E+007, +6.59162243234E+002, +4.32686850591E+003
+4.16277128548E+007, +7.11804320348E+002, +4.38923614966E+003
+4.17944908180E+007, +7.31696203578E+002, +4.49981161875E+003
+4.19612687813E+007, +8.00323844168E+002, +4.66709703711E+003
+4.21280467446E+007, +8.04601554387E+002, +4.89576425399E+003
+4.22948247078E+007, +9.95504159718E+002, +5.09604231961E+003
+4.24616026711E+007, +1.13672009678E+003, +5.37952842366E+003
+4.26283806344E+007, +1.27330447635E+003, +5.50440204884E+003
+4.27951585977E+007, +9.91390741271E+002, +6.05161579861E+003
+4.29619365609E+007, +1.54678670555E+003, +6.08777835224E+003
+4.31287145242E+007, +1.78581111143E+003, +6.32414333352E+003
+4.32954924875E+007, +1.88542678053E+003, +6.79903796986E+003
+4.34622704508E+007, +1.91922607003E+003, +7.51708680005E+003
+4.36290484140E+007, +2.60491550858E+003, +7.48742505689E+003
+4.37958263773E+007, +2.73362267865E+003, +8.29113909422E+003
+4.39626043406E+007, +3.21015709801E+003, +8.60704433468E+003
+4.41293823038E+007, +4.09972381500E+003, +9.31204533680E+003
+4.42961602671E+007, +4.69351273203E+003, +9.86555723467E+003
+4.44629382304E+007, +5.48875348229E+003, +1.05955422577E+004
+4.46297161937E+007, +6.53412295685E+003, +1.07169021923E+004
+4.47964941569E+007, +7.48320950724E+003, +1.22616042983E+004
+4.49632721202E+007, +1.07134774751E+004, +1.27506422398E+004
+4.51300500835E+007, +1.13814969414E+004, +1.17465266452E+004
+4.52968280467E+007, +1.54946947757E+004, +1.12013787483E+004
+4.54636060100E+007, +1.85168083220E+004, +6.79881088007E+003
+4.56303839733E+007, +2.18767628597E+004, +7.44181035881E+003
+4.57971619366E+007, +2.15148949983E+004, +1.82300655469E+003
+4.59639398998E+007, +2.10075286607E+004, -5.96853772925E+003
+4.61307178631E+007, +1.73673037367E+004, -5.86838192148E+003
+4.62974958264E+007, +1.57617864307E+004, -7.37203777788E+003
+4.64642737896E+007, +1.37941985609E+004, -8.67302792220E+003
+4.66310517529E+007, +1.13314674945E+004, -9.45749223667E+003
+4.67978297162E+007, +1.06203882093E+004, -8.45525340724E+003
+4.69646076795E+007, +8.16540117035E+003, -8.12194835975E+003
+4.71313856427E+007, +7.14779142204E+003, -7.88015344302E+003
+4.72981636060E+007, +6.16044745373E+003, -7.69885174468E+003
+4.74649415693E+007, +5.62670772382E+003, -7.14699122933E+003
+4.76317195326E+007, +5.14428134871E+003, -6.55429701011E+003
+4.77984974958E+007, +4.58306716931E+003, -6.44116072221E+003
+4.79652754591E+007, +4.17990239762E+003, -6.15894646794E+003
+4.81320534224E+007, +3.78086236202E+003, -5.64152263198E+003
+4.82988313856E+007, +3.53810329307E+003, -5.64564479936E+003
+4.84656093489E+007, +3.39495848088E+003, -5.51456904354E+003
+4.86323873122E+007, +3.21847251817E+003, -5.24391190823E+003
+4.87991652755E+007, +2.87952146957E+003, -4.90337597748E+003
+4.89659432387E+007, +2.87241933936E+003, -4.82364461598E+003
+4.91327212020E+007, +2.52541264808E+003, -4.68932740350E+003
+4.92994991653E+007, +2.48607720677E+003, -4.53874119415E+003
+4.94662771285E+007, +2.34477258578E+003, -4.31847760269E+003
+4.96330550918E+007, +2.32084798816E+003, -4.18616660470E+003
+4.97998330551E+007, +2.18877686368E+003, -4.10751718447E+003
+4.99666110184E+007, +2.06890529054E+003, -3.95867223132E+003
+5.01333889816E+007, +1.99333676835E+003, -3.92537031618E+003
+5.03001669449E+007, +1.88402455813E+003, -3.82264869280E+003
+5.04669449082E+007, +1.82368367734E+003, -3.73153695293E+003
+5.06337228715E+007, +1.76173288954E+003, -3.56952810312E+003
+5.08005008347E+007, +1.65249539999E+003, -3.53561409741E+003
+5.09672787980E+007, +1.64338863941E+003, -3.52162618578E+003
+5.11340567613E+007, +1.51226749946E+003, -3.46137955594E+003
+5.13008347245E+007, +1.41212614267E+003, -3.44527071119E+003
+5.14676126878E+007, +1.35722843128E+003, -3.35124084047E+003
+5.16343906511E+007, +1.26747262041E+003, -3.21297772775E+003
+5.18011686144E+007, +1.19800651765E+003, -3.18456109526E+003
+5.19679465776E+007, +1.15841391459E+003, -3.14346942711E+003
+5.21347245409E+007, +1.05083182622E+003, -3.05890016845E+003
+5.23015025042E+007, +9.70734411003E+002, -2.94868542139E+003
+5.24682804674E+007, +8.97681378544E+002, -2.94522634873E+003
+5.26350584307E+007, +8.90380175190E+002, -2.84913349765E+003
+5.28018363940E+007, +7.72211481113E+002, -2.77609577339E+003
+5.29686143573E+007, +7.33501595467E+002, -2.70491255737E+003
+5.31353923205E+007, +6.86900939004E+002, -2.68982126243E+003
+5.33021702838E+007, +6.35174102205E+002, -2.59296296326E+003
+5.34689482471E+007, +6.40341268552E+002, -2.48456836638E+003
