"# Channel 1"
"# Trace 1"
Frequency, Formatted Data, Formatted Data
+1.00000000000E+005, +5.82911664112E+001, +2.34711510790E+000
+2.66777963272E+005, +5.81569275887E+001, +7.19642317412E+000
+4.33555926544E+005, +5.81868364573E+001, +1.17173480233E+001
+6.00333889816E+005, +5.80794381835E+001, +1.62551390038E+001
+7.67111853088E+005, +5.82154850738E+001, +2.06747793891E+001
+9.33889816361E+005, +5.81602255400E+001, +2.52438333095E+001
+1.10066777963E+006, +5.81991583413E+001, +2.99351962067E+001
+1.26744574290E+006, +5.82118117005E+001, +3.43507092925E+001
+1.43422370618E+006, +5.83058901380E+001, +3.89104917995E+001
+1.60100166945E+006, +5.82489050400E+001, +4.34711095153E+001
+1.76777963272E+006, +5.83033538205E+001, +4.79507922954E+001
+1.93455759599E+006, +5.81750711233E+001, +5.24918195367E+001
+2.10133555927E+006, +5.82820596624E+001, +5.70574787511E+001
+2.26811352254E+006, +5.83509503976E+001, +6.15602101051E+001
+2.43489148581E+006, +5.84898350770E+001, +6.61995807248E+001
+2.60166944908E+006, +5.83201292500E+001, +7.06486810808E+001
+2.76844741235E+006, +5.83450578034E+001, +7.54327190329E+001
+2.93522537563E+006, +5.84187008986E+001, +7.98980797785E+001
+3.10200333890E+006, +5.84297707811E+001, +8.43105823718E+001
+3.26878130217E+006, +5.83648574502E+001, +8.91773961516E+001
+3.43555926544E+006, +5.85073245325E+001, +9.33431714602E+001
+3.60233722871E+006, +5.86106753493E+001, +9.80831098937E+001
+3.76911519199E+006, +5.88076261304E+001, +1.02970779849E+002
+3.93589315526E+006, +5.84309844746E+001, +1.07095604935E+002
+4.10267111853E+006, +5.85963533713E+001, +1.11901072094E+002
+4.26944908180E+006, +5.88894634812E+001, +1.16803419286E+002
+4.43622704508E+006, +5.85830127229E+001, +1.21106640631E+002
+4.60300500835E+006, +5.89024953375E+001, +1.25930081082E+002
+4.76978297162E+006, +5.87744808311E+001, +1.30617070842E+002
+4.93656093489E+006, +5.91573761306E+001, +1.35196064205E+002
+5.10333889816E+006, +5.91598967553E+001, +1.39724531224E+002
+5.27011686144E+006, +5.95576739123E+001, +1.44397066000E+002
+5.43689482471E+006, +5.93032363063E+001, +1.49000134282E+002
+5.60367278798E+006, +5.96098145211E+001, +1.53845681865E+002
+5.77045075125E+006, +5.93124033252E+001, +1.58495304696E+002
+5.93722871452E+006, +5.94601733331E+001, +1.63009720343E+002
+6.10400667780E+006, +5.95233320162E+001, +1.68178281755E+002
+6.27078464107E+006, +6.01837523627E+001, +1.72513190681E+002
+6.43756260434E+006, +6.01923393551E+001, +1.77234854204E+002
+6.60434056761E+006, +6.04912192832E+001, +1.81916259900E+002
+6.77111853088E+006, +6.06137493117E+001, +1.86284285850E+002
+6.93789649416E+006, +6.08842127044E+001, +1.91316460680E+002
+7.10467445743E+006, +6.06938592026E+001, +1.96084289886E+002
+7.27145242070E+006, +6.08643614063E+001, +2.00749609679E+002
+7.43823038397E+006, +6.09624837116E+001, +2.05333845180E+002
+7.60500834725E+006, +6.10525972139E+001, +2.10491046922E+002
+7.77178631052E+006, +6.12320217611E+001, +2.15310706966E+002
+7.93856427379E+006, +6.11738907772E+001, +2.19828559946E+002
+8.10534223706E+006, +6.12521086498E+001, +2.24708540426E+002
+8.27212020033E+006, +6.15256374157E+001, +2.29475162119E+002
+8.43889816361E+006, +6.12533170727E+001, +2.34517550071E+002
+8.60567612688E+006, +6.11825555489E+001, +2.39676662262E+002
+8.77245409015E+006, +6.14944421941E+001, +2.44375032944E+002
+8.93923205342E+006, +6.18399910227E+001, +2.49326618946E+002
+9.10601001669E+006, +6.19807677346E+001, +2.54571545690E+002
+9.27278797997E+006, +6.17173746245E+001, +2.59801928666E+002
+9.43956594324E+006, +6.17694490402E+001, +2.64830345916E+002
+9.60634390651E+006, +6.23639368419E+001, +2.69835397300E+002
+9.77312186978E+006, +6.17161479576E+001, +2.74868596655E+002
+9.93989983306E+006, +6.24393341573E+001, +2.79907116375E+002
+1.01066777963E+007, +6.21289796519E+001, +2.85173682857E+002
+1.02734557596E+007, +6.27055491126E+001, +2.90429839784E+002
+1.04402337229E+007, +6.23278424689E+001, +2.95467756519E+002
+1.06070116861E+007, +6.25924943181E+001, +3.01012967251E+002
+1.07737896494E+007, +6.35692911250E+001, +3.06158297253E+002
+1.09405676127E+007, +6.34282596056E+001, +3.10849636174E+002
+1.11073455760E+007, +6.36341012979E+001, +3.16602790461E+002
+1.12741235392E+007, +6.32352481405E+001, +3.21985687807E+002
+1.14409015025E+007, +6.37672439042E+001, +3.27187402967E+002
+1.16076794658E+007, +6.40664659267E+001, +3.32487312354E+002
+1.17744574290E+007, +6.46758517560E+001, +3.38611106482E+002
+1.19412353923E+007, +6.43545379624E+001, +3.43334927139E+002
+1.21080133556E+007, +6.43580550033E+001, +3.49811468744E+002
+1.22747913189E+007, +6.48030814528E+001, +3.54907640805E+002
+1.24415692821E+007, +6.39429082614E+001, +3.60590714160E+002
+1.26083472454E+007, +6.47663895419E+001, +3.66252117770E+002
+1.27751252087E+007, +6.49081177247E+001, +3.71295989130E+002
+1.29419031720E+007, +6.47004249539E+001, +3.76977515017E+002
+1.31086811352E+007, +6.62608835074E+001, +3.81740393538E+002
+1.32754590985E+007, +6.59876097720E+001, +3.87834846481E+002
+1.34422370618E+007, +6.54812056336E+001, +3.93205475196E+002
+1.36090150250E+007, +6.73474574612E+001, +3.99347436427E+002
+1.37757929883E+007, +6.64141638160E+001, +4.05428563824E+002
+1.39425709516E+007, +6.69819591949E+001, +4.10926120468E+002
+1.41093489149E+007, +6.78267178706E+001, +4.16724043241E+002
+1.42761268781E+007, +6.74542438232E+001, +4.22827634246E+002
+1.44429048414E+007, +6.80510997234E+001, +4.27455773298E+002
+1.46096828047E+007, +6.81333220535E+001, +4.34672336801E+002
+1.47764607679E+007, +6.92550626353E+001, +4.40094918036E+002
+1.49432387312E+007, +6.83512734798E+001, +4.47108713032E+002
+1.51100166945E+007, +6.97164849024E+001, +4.52510943144E+002
+1.52767946578E+007, +6.96478893660E+001, +4.58608487827E+002
+1.54435726210E+007, +6.93370671026E+001, +4.65077212433E+002
+1.56103505843E+007, +7.14055726482E+001, +4.70751466787E+002
+1.57771285476E+007, +7.04085596017E+001, +4.76723214619E+002
+1.59439065109E+007, +7.14577551006E+001, +4.82989593912E+002
+1.61106844741E+007, +7.20796723086E+001, +4.89075510762E+002
+1.62774624374E+007, +7.27120693456E+001, +4.95484125468E+002
+1.64442404007E+007, +7.16934190772E+001, +5.02637815613E+002
+1.66110183639E+007, +7.32751155788E+001, +5.08508959769E+002
+1.67777963272E+007, +7.40198830536E+001, +5.15692817802E+002
+1.69445742905E+007, +7.42805732434E+001, +5.21211470157E+002
+1.71113522538E+007, +7.23791639204E+001, +5.27348911700E+002
+1.72781302170E+007, +7.42915582769E+001, +5.35974598019E+002
+1.74449081803E+007, +7.20720418998E+001, +5.40954229860E+002
+1.76116861436E+007, +7.58344636650E+001, +5.47592225356E+002
+1.77784641068E+007, +7.40532576163E+001, +5.53852947538E+002
+1.79452420701E+007, +7.54149118121E+001, +5.60776824783E+002
+1.81120200334E+007, +7.64215788660E+001, +5.66410233912E+002
+1.82787979967E+007, +7.80976231975E+001, +5.75367407673E+002
+1.84455759599E+007, +7.67101466366E+001, +5.82145240326E+002
+1.86123539232E+007, +7.91710344954E+001, +5.89472477500E+002
+1.87791318865E+007, +7.71620446434E+001, +5.98551806629E+002
+1.89459098497E+007, +7.87875618076E+001, +6.02617406151E+002
+1.91126878130E+007, +7.86892575445E+001, +6.09978571795E+002
+1.92794657763E+007, +8.06995363701E+001, +6.19240209556E+002
+1.94462437396E+007, +8.09687350538E+001, +6.27075134787E+002
+1.96130217028E+007, +8.16240727055E+001, +6.33937942453E+002
+1.97797996661E+007, +8.25814004275E+001, +6.38255689404E+002
+1.99465776294E+007, +8.04246415345E+001, +6.47955437815E+002
+2.01133555927E+007, +8.17599452849E+001, +6.57247300947E+002
+2.02801335559E+007, +8.48380132093E+001, +6.65320540226E+002
+2.04469115192E+007, +8.47534374208E+001, +6.73192068727E+002
+2.06136894825E+007, +8.53380764357E+001, +6.79795034210E+002
+2.07804674457E+007, +8.74592870603E+001, +6.90246929180E+002
+2.09472454090E+007, +8.76452361387E+001, +7.00313399834E+002
+2.11140233723E+007, +8.64499998968E+001, +7.04772925269E+002
+2.12808013356E+007, +8.99310344914E+001, +7.12081479793E+002
+2.14475792988E+007, +8.87675982938E+001, +7.21937344009E+002
+2.16143572621E+007, +9.14714310556E+001, +7.30628613339E+002
+2.17811352254E+007, +9.09745771077E+001, +7.37488775587E+002
+2.19479131886E+007, +9.58287566858E+001, +7.47164039866E+002
+2.21146911519E+007, +9.76984942161E+001, +7.54182077299E+002
+2.22814691152E+007, +9.32223709279E+001, +7.64683939233E+002
+2.24482470785E+007, +1.00031492901E+002, +7.73908014849E+002
+2.26150250417E+007, +1.00095567486E+002, +7.80274982207E+002
+2.27818030050E+007, +1.01238796789E+002, +7.93161389053E+002
+2.29485809683E+007, +1.05625160627E+002, +7.99656957407E+002
+2.31153589316E+007, +1.00998160564E+002, +8.13703806992E+002
+2.32821368948E+007, +1.08294522656E+002, +8.19904361323E+002
+2.34489148581E+007, +1.06583392707E+002, +8.26402654903E+002
+2.36156928214E+007, +1.09967738501E+002, +8.39763050163E+002
+2.37824707846E+007, +1.08677962615E+002, +8.47484973735E+002
+2.39492487479E+007, +1.09990586886E+002, +8.56684248463E+002
+2.41160267112E+007, +1.11130657644E+002, +8.65503775944E+002
+2.42828046745E+007, +1.10884672496E+002, +8.71840660411E+002
+2.44495826377E+007, +1.21064981790E+002, +8.89802941077E+002
+2.46163606010E+007, +1.20754349312E+002, +8.95827826039E+002
+2.47831385643E+007, +1.18663390706E+002, +9.06273781166E+002
+2.49499165275E+007, +1.26175319177E+002, +9.15273657966E+002
+2.51166944908E+007, +1.26822088076E+002, +9.27005913487E+002
+2.52834724541E+007, +1.25826703970E+002, +9.39963858482E+002
+2.54502504174E+007, +1.33969188940E+002, +9.52322246297E+002
+2.56170283806E+007, +1.32699587331E+002, +9.57970175843E+002
+2.57838063439E+007, +1.31078474461E+002, +9.72191251531E+002
+2.59505843072E+007, +1.36249526008E+002, +9.86982611836E+002
+2.61173622705E+007, +1.38412722359E+002, +9.97150652586E+002
+2.62841402337E+007, +1.40806294886E+002, +1.00599820278E+003
+2.64509181970E+007, +1.39991828310E+002, +1.01704024297E+003
+2.66176961603E+007, +1.45139356886E+002, +1.03213211871E+003
+2.67844741235E+007, +1.45799463885E+002, +1.03844406037E+003
+2.69512520868E+007, +1.52608529331E+002, +1.05248396576E+003
+2.71180300501E+007, +1.48667782737E+002, +1.05926473891E+003
+2.72848080134E+007, +1.52991290401E+002, +1.07689525354E+003
+2.74515859766E+007, +1.56611457881E+002, +1.08390586252E+003
+2.76183639399E+007, +1.54839071109E+002, +1.10001507663E+003
+2.77851419032E+007, +1.57380294585E+002, +1.10948394103E+003
+2.79519198664E+007, +1.62052785643E+002, +1.12190143636E+003
+2.81186978297E+007, +1.61932093489E+002, +1.13297183001E+003
+2.82854757930E+007, +1.69585453440E+002, +1.15218131690E+003
+2.84522537563E+007, +1.66611746530E+002, +1.16240876210E+003
+2.86190317195E+007, +1.67683226298E+002, +1.17572275834E+003
+2.87858096828E+007, +1.82580833123E+002, +1.18787946923E+003
+2.89525876461E+007, +1.82593753514E+002, +1.20357856620E+003
+2.91193656093E+007, +1.73716936807E+002, +1.21307287733E+003
+2.92861435726E+007, +1.75721249602E+002, +1.23146598964E+003
+2.94529215359E+007, +1.85594513423E+002, +1.24934117711E+003
+2.96196994992E+007, +1.92116929651E+002, +1.26097721531E+003
+2.97864774624E+007, +1.93314929768E+002, +1.27997478123E+003
+2.99532554257E+007, +2.02734178341E+002, +1.29528546061E+003
+3.01200333890E+007, +2.01786679941E+002, +1.31320453672E+003
+3.02868113523E+007, +1.97265807122E+002, +1.33586443644E+003
+3.04535893155E+007, +2.03126230736E+002, +1.34525204677E+003
+3.06203672788E+007, +2.12722095686E+002, +1.36366119336E+003
+3.07871452421E+007, +2.13743778284E+002, +1.38226255076E+003
+3.09539232053E+007, +2.18033173391E+002, +1.39108539512E+003
+3.11207011686E+007, +2.11766862134E+002, +1.42222604793E+003
+3.12874791319E+007, +2.20196449071E+002, +1.42818789790E+003
+3.14542570952E+007, +2.38332748729E+002, +1.45260182424E+003
+3.16210350584E+007, +2.32340658619E+002, +1.48560484817E+003
+3.17878130217E+007, +2.27471584230E+002, +1.50428669265E+003
+3.19545909850E+007, +2.47460239072E+002, +1.51612251753E+003
+3.21213689482E+007, +2.37598748632E+002, +1.54592220812E+003
+3.22881469115E+007, +2.42632041724E+002, +1.56659123520E+003
+3.24549248748E+007, +2.55703485635E+002, +1.58748042957E+003
+3.26217028381E+007, +2.57492151711E+002, +1.60781038764E+003
+3.27884808013E+007, +2.61064849980E+002, +1.63340290146E+003
+3.29552587646E+007, +2.67888016191E+002, +1.64835811725E+003
+3.31220367279E+007, +2.74346628905E+002, +1.66801434114E+003
+3.32888146912E+007, +2.85921653367E+002, +1.71140803501E+003
+3.34555926544E+007, +2.70730257186E+002, +1.72443346437E+003
+3.36223706177E+007, +2.83802636837E+002, +1.74854792102E+003
+3.37891485810E+007, +2.87398629117E+002, +1.76878591204E+003
+3.39559265442E+007, +3.08022751555E+002, +1.80083195514E+003
+3.41227045075E+007, +3.09611331702E+002, +1.82482800338E+003
+3.42894824708E+007, +3.16224305781E+002, +1.86830117857E+003
+3.44562604341E+007, +3.26248662212E+002, +1.88845691111E+003
+3.46230383973E+007, +3.51196520131E+002, +1.92962097261E+003
+3.47898163606E+007, +3.41922193412E+002, +1.94105393668E+003
+3.49565943239E+007, +3.66408868991E+002, +1.96376472287E+003
+3.51233722871E+007, +3.68989797417E+002, +2.02462550324E+003
+3.52901502504E+007, +3.73517638035E+002, +2.03968947142E+003
+3.54569282137E+007, +3.68599365552E+002, +2.08145091590E+003
+3.56237061770E+007, +3.73828573237E+002, +2.12440304868E+003
+3.57904841402E+007, +4.03581483698E+002, +2.17214827406E+003
+3.59572621035E+007, +4.18356027503E+002, +2.19246131552E+003
+3.61240400668E+007, +4.38062158670E+002, +2.24143213809E+003
+3.62908180301E+007, +4.65454962809E+002, +2.33925774243E+003
+3.64575959933E+007, +4.51836063578E+002, +2.36334991582E+003
+3.66243739566E+007, +4.81920979342E+002, +2.34496497990E+003
+3.67911519199E+007, +5.01259325970E+002, +2.44026240612E+003
+3.69579298831E+007, +4.93531383238E+002, +2.47051224741E+003
+3.71247078464E+007, +5.23147496193E+002, +2.54732217372E+003
+3.72914858097E+007, +5.56073949777E+002, +2.58905111119E+003
+3.74582637730E+007, +5.94460665400E+002, +2.67097590922E+003
+3.76250417362E+007, +5.94564488249E+002, +2.68644348872E+003
+3.77918196995E+007, +6.09674316626E+002, +2.74784271294E+003
+3.79585976628E+007, +6.30020638960E+002, +2.84381590248E+003
+3.81253756260E+007, +6.82711022705E+002, +2.87195826222E+003
+3.82921535893E+007, +7.06642799606E+002, +2.95047055710E+003
+3.84589315526E+007, +7.69137065509E+002, +3.01613129924E+003
+3.86257095159E+007, +7.80690527635E+002, +3.09457209696E+003
+3.87924874791E+007, +8.25925781535E+002, +3.18889483200E+003
+3.89592654424E+007, +8.43217151231E+002, +3.22528574135E+003
+3.91260434057E+007, +9.59862337724E+002, +3.35449952650E+003
+3.92928213689E+007, +9.57850858450E+002, +3.40545823441E+003
+3.94595993322E+007, +1.00378775520E+003, +3.60191238570E+003
+3.96263772955E+007, +1.05649254663E+003, +3.64070238215E+003
+3.97931552588E+007, +1.07454584091E+003, +3.72239765174E+003
+3.99599332220E+007, +1.23651211802E+003, +3.85270669233E+003
+4.01267111853E+007, +1.31649132722E+003, +3.95216571859E+003
+4.02934891486E+007, +1.27778441836E+003, +4.01228795283E+003
+4.04602671119E+007, +1.38183417849E+003, +4.12089500506E+003
+4.06270450751E+007, +1.57678731718E+003, +4.29788850987E+003
+4.07938230384E+007, +1.66376354477E+003, +4.38418034111E+003
+4.09606010017E+007, +1.84495330534E+003, +4.64209638258E+003
+4.11273789649E+007, +1.85573307419E+003, +4.60302724642E+003
+4.12941569282E+007, +2.04540833485E+003, +4.90027178475E+003
+4.14609348915E+007, +2.40568963869E+003, +5.06622063987E+003
+4.16277128548E+007, +2.51736542901E+003, +5.26445899677E+003
+4.17944908180E+007, +2.59317322985E+003, +5.37562508246E+003
+4.19612687813E+007, +2.78628859213E+003, +5.55723933227E+003
+4.21280467446E+007, +3.12185791702E+003, +5.76121054128E+003
+4.22948247078E+007, +3.41271205852E+003, +5.88415855039E+003
+4.24616026711E+007, +3.76776457300E+003, +5.75831119516E+003
+4.26283806344E+007, +4.10800392945E+003, +6.22345936019E+003
+4.27951585977E+007, +4.68246069044E+003, +6.66293329000E+003
+4.29619365609E+007, +5.14925739400E+003, +6.33305201439E+003
+4.31287145242E+007, +6.14447793305E+003, +6.48433582455E+003
+4.32954924875E+007, +6.46206652052E+003, +6.80975381029E+003
+4.34622704508E+007, +7.33710065435E+003, +7.13738914242E+003
+4.36290484140E+007, +7.75803560573E+003, +6.13871802053E+003
+4.37958263773E+007, +9.16499125206E+003, +6.47023588745E+003
+4.39626043406E+007, +9.63027563867E+003, +6.14669063822E+003
+4.41293823038E+007, +1.07938629593E+004, +4.63021061328E+003
+4.42961602671E+007, +1.15769979209E+004, +4.47413572081E+003
+4.44629382304E+007, +1.28788909569E+004, +2.51977190510E+003
+4.46297161937E+007, +1.23333146371E+004, +1.89898930007E+003
+4.47964941569E+007, +1.32815493354E+004, -2.13871904255E+002
+4.49632721202E+007, +1.31610710379E+004, -1.13768687341E+003
+4.51300500835E+007, +1.19478400263E+004, -2.20513118199E+003
+4.52968280467E+007, +1.16255410754E+004, -3.68221897719E+003
+4.54636060100E+007, +1.00393213810E+004, -4.84571245585E+003
+4.56303839733E+007, +9.20851866072E+003, -5.49217685510E+003
+4.57971619366E+007, +8.74239266286E+003, -6.15637135274E+003
+4.59639398998E+007, +7.20015827532E+003, -6.52322242685E+003
+4.61307178631E+007, +6.56272290786E+003, -6.20946654195E+003
+4.62974958264E+007, +5.91885353621E+003, -5.94220908023E+003
+4.64642737896E+007, +5.67967103404E+003, -5.95253734816E+003
+4.66310517529E+007, +4.93289041712E+003, -6.01177287851E+003
+4.67978297162E+007, +4.75829219267E+003, -5.44331514672E+003
+4.69646076795E+007, +4.09110086147E+003, -5.49968001713E+003
+4.71313856427E+007, +3.79109414231E+003, -5.30196314827E+003
+4.72981636060E+007, +3.27784213427E+003, -5.08809124655E+003
+4.74649415693E+007, +3.14524367835E+003, -4.97902705262E+003
+4.76317195326E+007, +2.92037499331E+003, -4.58402016670E+003
+4.77984974958E+007, +2.75312059855E+003, -4.45141640726E+003
+4.79652754591E+007, +2.58202472290E+003, -4.42462687065E+003
+4.81320534224E+007, +2.45229272351E+003, -4.18495532910E+003
+4.82988313856E+007, +2.28140958843E+003, -4.14721695334E+003
+4.84656093489E+007, +2.17061492662E+003, -3.96090952974E+003
+4.86323873122E+007, +2.02364454858E+003, -3.83234789745E+003
+4.87991652755E+007, +1.98578100021E+003, -3.63820874028E+003
+4.89659432387E+007, +1.88215973643E+003, -3.59499706985E+003
+4.91327212020E+007, +1.78998378204E+003, -3.44211952954E+003
+4.92994991653E+007, +1.75538721496E+003, -3.39791088394E+003
+4.94662771285E+007, +1.66463060820E+003, -3.25626683267E+003
+4.96330550918E+007, +1.61438134235E+003, -3.15794693013E+003
+4.97998330551E+007, +1.61556444459E+003, -3.14052803694E+003
+4.99666110184E+007, +1.52204071230E+003, -2.99940333991E+003
+5.01333889816E+007, +1.47952685526E+003, -3.02001526196E+003
+5.03001669449E+007, +1.41589278039E+003, -2.96062543423E+003
+5.04669449082E+007, +1.36690007046E+003, -2.86025449019E+003
+5.06337228715E+007, +1.37701421701E+003, -2.78787691888E+003
+5.08005008347E+007, +1.33114564142E+003, -2.83736838316E+003
+5.09672787980E+007, +1.30303199672E+003, -2.73766775640E+003
+5.11340567613E+007, +1.24672610756E+003, -2.67973572442E+003
+5.13008347245E+007, +1.19429155545E+003, -2.68862049246E+003
+5.14676126878E+007, +1.16389999944E+003, -2.64697800133E+003
+5.16343906511E+007, +1.10990529204E+003, -2.58669170756E+003
+5.18011686144E+007, +1.04507133798E+003, -2.60436871690E+003
+5.19679465776E+007, +1.02367523648E+003, -2.54695488497E+003
+5.21347245409E+007, +9.51802345470E+002, -2.48157275349E+003
+5.23015025042E+007, +8.94279139149E+002, -2.41857882389E+003
+5.24682804674E+007, +8.30242059122E+002, -2.39896054412E+003
+5.26350584307E+007, +8.18190757988E+002, -2.35864741249E+003
+5.28018363940E+007, +7.64977816312E+002, -2.32656894325E+003
+5.29686143573E+007, +7.30742294630E+002, -2.26154171787E+003
+5.31353923205E+007, +7.01568755729E+002, -2.25164865030E+003
+5.33021702838E+007, +6.63055504774E+002, -2.17751831503E+003
+5.34689482471E+007, +6.19815213426E+002, -2.14091705674E+003
