"# Channel 1"
"# Trace 1"
Frequency, Formatted Data, Formatted Data
+1.00000000000E+005, +2.96373415878E+001, +2.83254400935E+000
+2.87609511890E+005, +2.95833778732E+001, +7.96698335322E+000
+4.75219023780E+005, +2.96530013986E+001, +1.30740795588E+001
+6.62828535670E+005, +2.96022922641E+001, +1.83276899083E+001
+8.50438047559E+005, +2.96377232957E+001, +2.34991688418E+001
+1.03804755945E+006, +2.96598639887E+001, +2.86582202499E+001
+1.22565707134E+006, +2.96676877425E+001, +3.38416046185E+001
+1.41326658323E+006, +2.96016320463E+001, +3.89950926738E+001
+1.60087609512E+006, +2.96797268999E+001, +4.42271024701E+001
+1.78848560701E+006, +2.97554798534E+001, +4.93679255225E+001
+1.97609511890E+006, +2.96738699535E+001, +5.45282406085E+001
+2.16370463079E+006, +2.98068002136E+001, +5.97646035104E+001
+2.35131414268E+006, +2.97011577776E+001, +6.48621157482E+001
+2.53892365457E+006, +2.97539894745E+001, +7.00708213273E+001
+2.72653316646E+006, +2.97508595767E+001, +7.52685299894E+001
+2.91414267835E+006, +2.98060940439E+001, +8.04247844641E+001
+3.10175219024E+006, +2.98747656706E+001, +8.55294705858E+001
+3.28936170213E+006, +2.99091132477E+001, +9.08264163202E+001
+3.47697121402E+006, +3.00491834220E+001, +9.60411496603E+001
+3.66458072591E+006, +2.99118229235E+001, +1.01233995259E+002
+3.85219023780E+006, +3.00739264805E+001, +1.06338434868E+002
+4.03979974969E+006, +2.99921114279E+001, +1.11510705170E+002
+4.22740926158E+006, +3.00416360933E+001, +1.16787554946E+002
+4.41501877347E+006, +3.03398852318E+001, +1.21948480009E+002
+4.60262828536E+006, +3.02520013485E+001, +1.27078265882E+002
+4.79023779725E+006, +3.01868908815E+001, +1.32519953777E+002
+4.97784730914E+006, +3.03838604409E+001, +1.37694985989E+002
+5.16545682103E+006, +3.04433959146E+001, +1.42756381826E+002
+5.35306633292E+006, +3.05489472087E+001, +1.47990387030E+002
+5.54067584481E+006, +3.04601929821E+001, +1.53231928851E+002
+5.72828535670E+006, +3.06639150461E+001, +1.58380900669E+002
+5.91589486859E+006, +3.06862747140E+001, +1.63600491581E+002
+6.10350438048E+006, +3.07469390751E+001, +1.68850135178E+002
+6.29111389237E+006, +3.08459478934E+001, +1.73951009114E+002
+6.47872340426E+006, +3.10833874726E+001, +1.79421509462E+002
+6.66633291615E+006, +3.11162519554E+001, +1.84718976923E+002
+6.85394242804E+006, +3.12873920519E+001, +1.89850577678E+002
+7.04155193992E+006, +3.13820696226E+001, +1.95172846653E+002
+7.22916145181E+006, +3.15067969723E+001, +2.00458413777E+002
+7.41677096370E+006, +3.17148953177E+001, +2.05487950897E+002
+7.60438047559E+006, +3.16810740401E+001, +2.11013037085E+002
+7.79198998748E+006, +3.18681920296E+001, +2.16225485111E+002
+7.97959949937E+006, +3.19478765616E+001, +2.21562307441E+002
+8.16720901126E+006, +3.19811777929E+001, +2.26590766415E+002
+8.35481852315E+006, +3.22950046998E+001, +2.32102307256E+002
+8.54242803504E+006, +3.22042269674E+001, +2.37478211510E+002
+8.73003754693E+006, +3.24311533438E+001, +2.42871021714E+002
+8.91764705882E+006, +3.25014492843E+001, +2.47820719486E+002
+9.10525657071E+006, +3.26979383975E+001, +2.53392629556E+002
+9.29286608260E+006, +3.28572875445E+001, +2.58672259865E+002
+9.48047559449E+006, +3.28176470359E+001, +2.64236840401E+002
+9.66808510638E+006, +3.31366691316E+001, +2.69476067530E+002
+9.85569461827E+006, +3.31237858917E+001, +2.74811227251E+002
+1.00433041302E+007, +3.30731048910E+001, +2.80269377094E+002
+1.02309136421E+007, +3.34187338819E+001, +2.85469481748E+002
+1.04185231539E+007, +3.35290928093E+001, +2.90636891616E+002
+1.06061326658E+007, +3.36730403962E+001, +2.96076504853E+002
+1.07937421777E+007, +3.38910490037E+001, +3.01818571750E+002
+1.09813516896E+007, +3.38165339210E+001, +3.07008263807E+002
+1.11689612015E+007, +3.44652635830E+001, +3.12327083274E+002
+1.13565707134E+007, +3.40339108790E+001, +3.17687863571E+002
+1.15441802253E+007, +3.42296990455E+001, +3.23498387386E+002
+1.17317897372E+007, +3.44407771483E+001, +3.28494114711E+002
+1.19193992491E+007, +3.49398812078E+001, +3.34134607317E+002
+1.21070087610E+007, +3.49402018123E+001, +3.39528818313E+002
+1.22946182728E+007, +3.51374044258E+001, +3.44949196579E+002
+1.24822277847E+007, +3.50227580926E+001, +3.50805507349E+002
+1.26698372966E+007, +3.56577717291E+001, +3.56050654820E+002
+1.28574468085E+007, +3.53671615455E+001, +3.61629759279E+002
+1.30450563204E+007, +3.56434158067E+001, +3.67232910862E+002
+1.32326658323E+007, +3.60047549689E+001, +3.72588301231E+002
+1.34202753442E+007, +3.62416746553E+001, +3.78220057286E+002
+1.36078848561E+007, +3.61962988548E+001, +3.83586586178E+002
+1.37954943680E+007, +3.62393241540E+001, +3.89167409407E+002
+1.39831038798E+007, +3.64308027779E+001, +3.94386266556E+002
+1.41707133917E+007, +3.66287779558E+001, +4.00165430253E+002
+1.43583229036E+007, +3.65259506380E+001, +4.05898775741E+002
+1.45459324155E+007, +3.72961216538E+001, +4.11405946177E+002
+1.47335419274E+007, +3.70594517063E+001, +4.16999334353E+002
+1.49211514393E+007, +3.74954138882E+001, +4.22789362088E+002
+1.51087609512E+007, +3.73544802628E+001, +4.27846509238E+002
+1.52963704631E+007, +3.79978391090E+001, +4.33998493584E+002
+1.54839799750E+007, +3.82854987937E+001, +4.39768858363E+002
+1.56715894869E+007, +3.86813753504E+001, +4.45200852647E+002
+1.58591989987E+007, +3.84704344071E+001, +4.50932424312E+002
+1.60468085106E+007, +3.86927151869E+001, +4.56897079868E+002
+1.62344180225E+007, +3.88835980285E+001, +4.62171826897E+002
+1.64220275344E+007, +3.92713547889E+001, +4.67399820135E+002
+1.66096370463E+007, +3.91583268949E+001, +4.73691597201E+002
+1.67972465582E+007, +4.00918209593E+001, +4.79697790572E+002
+1.69848560701E+007, +3.95919765183E+001, +4.85306760438E+002
+1.71724655820E+007, +3.94357208726E+001, +4.91114722871E+002
+1.73600750939E+007, +3.99847623873E+001, +4.97392090690E+002
+1.75476846058E+007, +4.06945026615E+001, +5.02752001973E+002
+1.77352941176E+007, +4.13814131554E+001, +5.08580685602E+002
+1.79229036295E+007, +4.12072630885E+001, +5.14186661364E+002
+1.81105131414E+007, +4.13215805890E+001, +5.20149740553E+002
+1.82981226533E+007, +4.09967164970E+001, +5.26488676749E+002
+1.84857321652E+007, +4.21972715385E+001, +5.31357231825E+002
+1.86733416771E+007, +4.19809525676E+001, +5.37990702411E+002
+1.88609511890E+007, +4.21022518519E+001, +5.43760536558E+002
+1.90485607009E+007, +4.25680871182E+001, +5.49780889695E+002
+1.92361702128E+007, +4.33693445374E+001, +5.55967674152E+002
+1.94237797247E+007, +4.35402651648E+001, +5.61242954945E+002
+1.96113892365E+007, +4.39867875755E+001, +5.67977163435E+002
+1.97989987484E+007, +4.44482765580E+001, +5.73818518449E+002
+1.99866082603E+007, +4.42197492683E+001, +5.79218974005E+002
+2.01742177722E+007, +4.42297751303E+001, +5.85442555076E+002
+2.03618272841E+007, +4.49572307116E+001, +5.91650468763E+002
+2.05494367960E+007, +4.56607421094E+001, +5.96801015904E+002
+2.07370463079E+007, +4.55162449623E+001, +6.03730798870E+002
+2.09246558198E+007, +4.62431570368E+001, +6.09857016243E+002
+2.11122653317E+007, +4.61599431190E+001, +6.15738392087E+002
+2.12998748436E+007, +4.65139015453E+001, +6.22171210033E+002
+2.14874843554E+007, +4.70592455810E+001, +6.27768757263E+002
+2.16750938673E+007, +4.70227526374E+001, +6.33025317922E+002
+2.18627033792E+007, +4.72317232158E+001, +6.40835310543E+002
+2.20503128911E+007, +4.68696906277E+001, +6.46051287190E+002
+2.22379224030E+007, +4.82188307654E+001, +6.52574347738E+002
+2.24255319149E+007, +4.88999172364E+001, +6.58995316300E+002
+2.26131414268E+007, +4.89385153003E+001, +6.64320086996E+002
+2.28007509387E+007, +4.93705086984E+001, +6.72102009491E+002
+2.29883604506E+007, +5.02464607549E+001, +6.77077264739E+002
+2.31759699625E+007, +5.03041914597E+001, +6.84074924892E+002
+2.33635794743E+007, +5.15245100830E+001, +6.90479508451E+002
+2.35511889862E+007, +5.15147668742E+001, +6.96690106126E+002
+2.37387984981E+007, +5.14299361170E+001, +7.03203762729E+002
+2.39264080100E+007, +5.22164396883E+001, +7.10010602279E+002
+2.41140175219E+007, +5.25251100864E+001, +7.15592700906E+002
+2.43016270338E+007, +5.29056391747E+001, +7.22968855485E+002
+2.44892365457E+007, +5.36165395641E+001, +7.28721758939E+002
+2.46768460576E+007, +5.30246393379E+001, +7.34988603930E+002
+2.48644555695E+007, +5.45474691635E+001, +7.41231372431E+002
+2.50520650814E+007, +5.48681091293E+001, +7.48112312055E+002
+2.52396745932E+007, +5.61603627947E+001, +7.54897110629E+002
+2.54272841051E+007, +5.64382998509E+001, +7.62052351157E+002
+2.56148936170E+007, +5.49378481381E+001, +7.68214403780E+002
+2.58025031289E+007, +5.70688549483E+001, +7.74671016255E+002
+2.59901126408E+007, +5.70932012260E+001, +7.81685028301E+002
+2.61777221527E+007, +5.81748043185E+001, +7.88567115268E+002
+2.63653316646E+007, +5.75574631557E+001, +7.95004108336E+002
+2.65529411765E+007, +5.92492156308E+001, +8.01849661786E+002
+2.67405506884E+007, +5.90239957720E+001, +8.08862122849E+002
+2.69281602003E+007, +5.91691002828E+001, +8.14510145429E+002
+2.71157697121E+007, +6.03202063569E+001, +8.22576903836E+002
+2.73033792240E+007, +6.01815387380E+001, +8.29128736109E+002
+2.74909887359E+007, +6.11570737362E+001, +8.36501218649E+002
+2.76785982478E+007, +6.08010140774E+001, +8.41183584603E+002
+2.78662077597E+007, +6.13553251980E+001, +8.50246398549E+002
+2.80538172716E+007, +6.26531976000E+001, +8.57158508740E+002
+2.82414267835E+007, +6.36805378816E+001, +8.63022586763E+002
+2.84290362954E+007, +6.31457900089E+001, +8.71069287541E+002
+2.86166458073E+007, +6.44986246478E+001, +8.75678174487E+002
+2.88042553191E+007, +6.50762245885E+001, +8.83537432839E+002
+2.89918648310E+007, +6.62528837375E+001, +8.91718162932E+002
+2.91794743429E+007, +6.61841560533E+001, +8.98377926266E+002
+2.93670838548E+007, +6.76429264582E+001, +9.06164831953E+002
+2.95546933667E+007, +6.62307808901E+001, +9.13717251612E+002
+2.97423028786E+007, +6.70699123059E+001, +9.20625993001E+002
+2.99299123905E+007, +6.82479222659E+001, +9.28392751513E+002
+3.01175219024E+007, +6.82107129098E+001, +9.35309660252E+002
+3.03051314143E+007, +6.96093963624E+001, +9.42532808169E+002
+3.04927409262E+007, +6.87528975252E+001, +9.51039999927E+002
+3.06803504380E+007, +6.99980535950E+001, +9.57033498379E+002
+3.08679599499E+007, +6.93110014082E+001, +9.63652184716E+002
+3.10555694618E+007, +7.30539895706E+001, +9.72689745303E+002
+3.12431789737E+007, +6.96499428371E+001, +9.80670160555E+002
+3.14307884856E+007, +7.32629686734E+001, +9.86913593780E+002
+3.16183979975E+007, +7.31022825253E+001, +9.94627483171E+002
+3.18060075094E+007, +7.35984757641E+001, +1.00126272965E+003
+3.19936170213E+007, +7.35115355257E+001, +1.01175767890E+003
+3.21812265332E+007, +7.53248655851E+001, +1.01608189369E+003
+3.23688360451E+007, +7.84976557686E+001, +1.02523617036E+003
+3.25564455569E+007, +7.66380856269E+001, +1.03504362109E+003
+3.27440550688E+007, +7.82830037674E+001, +1.03963914086E+003
+3.29316645807E+007, +7.78013008612E+001, +1.04869296963E+003
+3.31192740926E+007, +7.67804368582E+001, +1.05754149684E+003
+3.33068836045E+007, +7.67907401956E+001, +1.06438635955E+003
+3.34944931164E+007, +7.90036272928E+001, +1.07385074528E+003
+3.36821026283E+007, +8.01550423168E+001, +1.08213323161E+003
+3.38697121402E+007, +7.81516938197E+001, +1.08963596136E+003
+3.40573216521E+007, +8.22566141548E+001, +1.09918779584E+003
+3.42449311640E+007, +8.40275926547E+001, +1.10480650004E+003
+3.44325406758E+007, +8.20062157495E+001, +1.11267762530E+003
+3.46201501877E+007, +8.49563660601E+001, +1.12294967430E+003
+3.48077596996E+007, +8.54829356770E+001, +1.13301098272E+003
+3.49953692115E+007, +8.24946447809E+001, +1.13851985016E+003
+3.51829787234E+007, +8.62684979017E+001, +1.14638944964E+003
+3.53705882353E+007, +8.50337132603E+001, +1.15407245044E+003
+3.55581977472E+007, +8.93735783770E+001, +1.16333798615E+003
+3.57458072591E+007, +8.69722353701E+001, +1.17288752102E+003
+3.59334167710E+007, +8.82414768013E+001, +1.17764945977E+003
+3.61210262829E+007, +9.20211678226E+001, +1.18794516682E+003
+3.63086357947E+007, +9.10519360926E+001, +1.19626357432E+003
+3.64962453066E+007, +9.53566580061E+001, +1.20873263838E+003
+3.66838548185E+007, +9.37285066610E+001, +1.21493728858E+003
+3.68714643304E+007, +9.46987784393E+001, +1.22468053448E+003
+3.70590738423E+007, +9.50764089749E+001, +1.23477394759E+003
+3.72466833542E+007, +9.47589776427E+001, +1.24342067781E+003
+3.74342928661E+007, +9.42181551968E+001, +1.25111315289E+003
+3.76219023780E+007, +9.72144399519E+001, +1.26133633644E+003
+3.78095118899E+007, +1.01209271551E+002, +1.27053382012E+003
+3.79971214018E+007, +9.90589139793E+001, +1.27593772857E+003
+3.81847309136E+007, +1.00435269023E+002, +1.28683007486E+003
+3.83723404255E+007, +1.00473063230E+002, +1.29918199768E+003
+3.85599499374E+007, +1.02556468331E+002, +1.30539102992E+003
+3.87475594493E+007, +1.04136807026E+002, +1.31771975761E+003
+3.89351689612E+007, +1.04633086747E+002, +1.32430781454E+003
+3.91227784731E+007, +1.05812878771E+002, +1.33177765251E+003
+3.93103879850E+007, +1.06581977358E+002, +1.34096502568E+003
+3.94979974969E+007, +1.07375106383E+002, +1.35338637624E+003
+3.96856070088E+007, +1.10581121411E+002, +1.36471339639E+003
+3.98732165207E+007, +1.09751167644E+002, +1.37664077733E+003
+4.00608260325E+007, +1.11313839918E+002, +1.38287492817E+003
+4.02484355444E+007, +1.10723115482E+002, +1.39336132562E+003
+4.04360450563E+007, +1.08525821056E+002, +1.40010998528E+003
+4.06236545682E+007, +1.11783314139E+002, +1.41559265656E+003
+4.08112640801E+007, +1.15888523548E+002, +1.42113745774E+003
+4.09988735920E+007, +1.13220875085E+002, +1.43538518810E+003
+4.11864831039E+007, +1.17564932367E+002, +1.44169526212E+003
+4.13740926158E+007, +1.18323436037E+002, +1.45328480992E+003
+4.15617021277E+007, +1.18117975826E+002, +1.46299621968E+003
+4.17493116395E+007, +1.21401941881E+002, +1.47406117672E+003
+4.19369211514E+007, +1.21206071571E+002, +1.48643365692E+003
+4.21245306633E+007, +1.23796631004E+002, +1.49814559787E+003
+4.23121401752E+007, +1.28140791487E+002, +1.50627287164E+003
+4.24997496871E+007, +1.27095520848E+002, +1.51546845142E+003
+4.26873591990E+007, +1.26449232102E+002, +1.52805693547E+003
+4.28749687109E+007, +1.28919586033E+002, +1.54220827832E+003
+4.30625782228E+007, +1.32064307447E+002, +1.54900031450E+003
+4.32501877347E+007, +1.27761501345E+002, +1.56145542297E+003
+4.34377972466E+007, +1.34887342665E+002, +1.57894275840E+003
+4.36254067584E+007, +1.36162974930E+002, +1.58464314411E+003
+4.38130162703E+007, +1.39145520415E+002, +1.59817259833E+003
+4.40006257822E+007, +1.36625180156E+002, +1.60688757951E+003
+4.41882352941E+007, +1.36042979937E+002, +1.61706131517E+003
+4.43758448060E+007, +1.42090237760E+002, +1.63205562704E+003
+4.45634543179E+007, +1.45168847644E+002, +1.64821602721E+003
+4.47510638298E+007, +1.43447318912E+002, +1.65437653360E+003
+4.49386733417E+007, +1.44098669131E+002, +1.66174398839E+003
+4.51262828536E+007, +1.45004686794E+002, +1.67816474516E+003
+4.53138923655E+007, +1.40959676164E+002, +1.69388157969E+003
+4.55015018773E+007, +1.45018280375E+002, +1.70479145940E+003
+4.56891113892E+007, +1.52899080291E+002, +1.71897384782E+003
+4.58767209011E+007, +1.45017910614E+002, +1.72978045624E+003
+4.60643304130E+007, +1.46381453409E+002, +1.74579599410E+003
+4.62519399249E+007, +1.54794996689E+002, +1.75675992506E+003
+4.64395494368E+007, +1.55383240657E+002, +1.77070869554E+003
+4.66271589487E+007, +1.55165757055E+002, +1.78131312769E+003
+4.68147684606E+007, +1.61872505971E+002, +1.79386611435E+003
+4.70023779725E+007, +1.63729847282E+002, +1.80804403030E+003
+4.71899874844E+007, +1.63142634805E+002, +1.81650720958E+003
+4.73775969962E+007, +1.63965618356E+002, +1.83262658622E+003
+4.75652065081E+007, +1.71166789142E+002, +1.84672821971E+003
+4.77528160200E+007, +1.66161735516E+002, +1.85939640179E+003
+4.79404255319E+007, +1.73514078061E+002, +1.87762687952E+003
+4.81280350438E+007, +1.72903285487E+002, +1.89493883122E+003
+4.83156445557E+007, +1.69523495041E+002, +1.90323317517E+003
+4.85032540676E+007, +1.72818613679E+002, +1.91832390479E+003
+4.86908635795E+007, +1.75664520900E+002, +1.92844701121E+003
+4.88784730914E+007, +1.80887686179E+002, +1.94491360373E+003
+4.90660826033E+007, +1.82489807499E+002, +1.96114051886E+003
+4.92536921151E+007, +1.92070314837E+002, +1.97719635807E+003
+4.94413016270E+007, +1.94646758166E+002, +1.98553870649E+003
+4.96289111389E+007, +1.94501460153E+002, +2.01013750188E+003
+4.98165206508E+007, +1.92030120115E+002, +2.01911722121E+003
+5.00041301627E+007, +2.00622046853E+002, +2.03381714377E+003
+5.01917396746E+007, +2.05797374048E+002, +2.05570459965E+003
+5.03793491865E+007, +2.05453605711E+002, +2.07046236345E+003
+5.05669586984E+007, +2.06279663512E+002, +2.08756699906E+003
+5.07545682103E+007, +2.02768832284E+002, +2.09848348332E+003
+5.09421777222E+007, +2.12951750621E+002, +2.11984185237E+003
+5.11297872340E+007, +2.21260425003E+002, +2.12809725701E+003
+5.13173967459E+007, +2.25104128731E+002, +2.14889753573E+003
+5.15050062578E+007, +2.19860078532E+002, +2.16996899737E+003
+5.16926157697E+007, +2.27002528588E+002, +2.17791367364E+003
+5.18802252816E+007, +2.28250297294E+002, +2.19918054557E+003
+5.20678347935E+007, +2.30914914189E+002, +2.21020980895E+003
+5.22554443054E+007, +2.35630952688E+002, +2.23381471747E+003
+5.24430538173E+007, +2.34951783463E+002, +2.25500364208E+003
+5.26306633292E+007, +2.48825496854E+002, +2.26925028109E+003
+5.28182728411E+007, +2.46664161644E+002, +2.28416342037E+003
+5.30058823529E+007, +2.50226864983E+002, +2.31023265992E+003
+5.31934918648E+007, +2.48485780772E+002, +2.31999583759E+003
+5.33811013767E+007, +2.54840717459E+002, +2.34372330273E+003
+5.35687108886E+007, +2.56504145125E+002, +2.36671115023E+003
+5.37563204005E+007, +2.73955051293E+002, +2.38907801452E+003
+5.39439299124E+007, +2.57227773920E+002, +2.40258325009E+003
+5.41315394243E+007, +2.60727194317E+002, +2.42601493291E+003
+5.43191489362E+007, +2.77467926067E+002, +2.45005369546E+003
+5.45067584481E+007, +2.70153631777E+002, +2.46018974336E+003
+5.46943679599E+007, +2.79973261294E+002, +2.48768112392E+003
+5.48819774718E+007, +2.84022097247E+002, +2.49357208838E+003
+5.50695869837E+007, +2.88321935814E+002, +2.52665295818E+003
+5.52571964956E+007, +2.93656093862E+002, +2.54652114120E+003
+5.54448060075E+007, +2.90193819409E+002, +2.57323252862E+003
+5.56324155194E+007, +2.95573683703E+002, +2.59251932920E+003
+5.58200250313E+007, +3.11749192571E+002, +2.61324649176E+003
+5.60076345432E+007, +3.13562117330E+002, +2.63231788166E+003
+5.61952440551E+007, +3.17924101008E+002, +2.65967406119E+003
+5.63828535670E+007, +3.20080317613E+002, +2.67547561477E+003
+5.65704630788E+007, +3.27073604820E+002, +2.70553762755E+003
+5.67580725907E+007, +3.47261459545E+002, +2.72891425482E+003
+5.69456821026E+007, +3.47328943992E+002, +2.73702679196E+003
+5.71332916145E+007, +3.48964683942E+002, +2.77099786669E+003
+5.73209011264E+007, +3.52543306461E+002, +2.78756295571E+003
+5.75085106383E+007, +3.48549043759E+002, +2.83111933153E+003
+5.76961201502E+007, +3.54718236057E+002, +2.85472092116E+003
+5.78837296621E+007, +3.69079918938E+002, +2.87042595439E+003
+5.80713391740E+007, +3.65004409748E+002, +2.89810554900E+003
+5.82589486859E+007, +3.77392621301E+002, +2.93483618611E+003
+5.84465581977E+007, +3.82512704294E+002, +2.94464133415E+003
+5.86341677096E+007, +3.85455765754E+002, +2.97694445229E+003
+5.88217772215E+007, +4.03287504308E+002, +3.00398928473E+003
+5.90093867334E+007, +4.13865575047E+002, +3.03610992692E+003
+5.91969962453E+007, +4.24591992251E+002, +3.07000391817E+003
+5.93846057572E+007, +4.16812222530E+002, +3.10054019474E+003
+5.95722152691E+007, +4.29144512364E+002, +3.12318015837E+003
+5.97598247810E+007, +4.28916949765E+002, +3.16491470779E+003
+5.99474342929E+007, +4.40822537303E+002, +3.18514600042E+003
+6.01350438048E+007, +4.43408909177E+002, +3.22624225257E+003
