"# Channel 1"
"# Trace 1"
Frequency, Formatted Data, Formatted Data
+1.00000000000E+005, +1.29502702610E+002, +1.28283954206E+000
+2.25031289111E+005, +1.28889096991E+002, +6.05424729031E+000
+3.50062578223E+005, +1.29022308030E+002, +9.54630478202E+000
+4.75093867334E+005, +1.29080318330E+002, +1.27594626928E+001
+6.00125156446E+005, +1.29458529658E+002, +1.62059518162E+001
+7.25156445557E+005, +1.29449822548E+002, +1.91786203602E+001
+8.50187734668E+005, +1.29323438091E+002, +2.29581998838E+001
+9.75219023780E+005, +1.29631439802E+002, +2.59637168107E+001
+1.10025031289E+006, +1.29631325388E+002, +2.90264584907E+001
+1.22528160200E+006, +1.29705638310E+002, +3.24587941049E+001
+1.35031289111E+006, +1.29752123246E+002, +3.59131108542E+001
+1.47534418023E+006, +1.29791734916E+002, +3.89146749913E+001
+1.60037546934E+006, +1.29917904903E+002, +4.22509019168E+001
+1.72540675845E+006, +1.29979920563E+002, +4.55132676173E+001
+1.85043804756E+006, +1.29786413337E+002, +4.90384024380E+001
+1.97546933667E+006, +1.30373013581E+002, +5.21758733820E+001
+2.10050062578E+006, +1.30259931988E+002, +5.55939550147E+001
+2.22553191489E+006, +1.29827541272E+002, +5.87151657716E+001
+2.35056320401E+006, +1.30037522787E+002, +6.23641108541E+001
+2.47559449312E+006, +1.30572979511E+002, +6.54707321991E+001
+2.60062578223E+006, +1.30237895269E+002, +6.84501079492E+001
+2.72565707134E+006, +1.30549706838E+002, +7.19279121540E+001
+2.85068836045E+006, +1.30784605306E+002, +7.52086510954E+001
+2.97571964956E+006, +1.30536967190E+002, +7.80585988724E+001
+3.10075093867E+006, +1.30773206739E+002, +8.16462846326E+001
+3.22578222778E+006, +1.30925117226E+002, +8.49184168126E+001
+3.35081351690E+006, +1.30730842280E+002, +8.83377505059E+001
+3.47584480601E+006, +1.31008707459E+002, +9.12454990865E+001
+3.60087609512E+006, +1.30907815327E+002, +9.46575319069E+001
+3.72590738423E+006, +1.30910802071E+002, +9.76946880388E+001
+3.85093867334E+006, +1.31066992147E+002, +1.01180765870E+002
+3.97596996245E+006, +1.30944957605E+002, +1.04373873822E+002
+4.10100125156E+006, +1.31060341631E+002, +1.07956182108E+002
+4.22603254068E+006, +1.31647718610E+002, +1.11282699764E+002
+4.35106382979E+006, +1.30989243578E+002, +1.14365596599E+002
+4.47609511890E+006, +1.31775625837E+002, +1.17353708140E+002
+4.60112640801E+006, +1.32179669529E+002, +1.21160782188E+002
+4.72615769712E+006, +1.31570108958E+002, +1.24358106485E+002
+4.85118898623E+006, +1.31956959334E+002, +1.27526437069E+002
+4.97622027534E+006, +1.31781304481E+002, +1.31023675834E+002
+5.10125156446E+006, +1.32103585260E+002, +1.34469787215E+002
+5.22628285357E+006, +1.32619859771E+002, +1.37730590281E+002
+5.35131414268E+006, +1.32501732179E+002, +1.40937804674E+002
+5.47634543179E+006, +1.32604060102E+002, +1.44158077418E+002
+5.60137672090E+006, +1.32752244365E+002, +1.47338240390E+002
+5.72640801001E+006, +1.32938756804E+002, +1.50960025501E+002
+5.85143929912E+006, +1.33265934821E+002, +1.53837868793E+002
+5.97647058824E+006, +1.33198180011E+002, +1.57335305758E+002
+6.10150187735E+006, +1.33545173422E+002, +1.61074919075E+002
+6.22653316646E+006, +1.33114890705E+002, +1.63995510520E+002
+6.35156445557E+006, +1.33574910256E+002, +1.67695147493E+002
+6.47659574468E+006, +1.33745417172E+002, +1.70895948650E+002
+6.60162703379E+006, +1.34137534619E+002, +1.74307664929E+002
+6.72665832290E+006, +1.34383597810E+002, +1.77438792731E+002
+6.85168961202E+006, +1.34639337755E+002, +1.80860630901E+002
+6.97672090113E+006, +1.34856623204E+002, +1.84725356463E+002
+7.10175219024E+006, +1.35076898173E+002, +1.88075557433E+002
+7.22678347935E+006, +1.35302785848E+002, +1.91226305722E+002
+7.35181476846E+006, +1.35419771209E+002, +1.94551038213E+002
+7.47684605757E+006, +1.35230018077E+002, +1.98159993144E+002
+7.60187734668E+006, +1.35528400751E+002, +2.02000017914E+002
+7.72690863579E+006, +1.35795944799E+002, +2.05227397122E+002
+7.85193992491E+006, +1.36414078220E+002, +2.08331578818E+002
+7.97697121402E+006, +1.36592857715E+002, +2.11914592445E+002
+8.10200250313E+006, +1.36728066749E+002, +2.15015888347E+002
+8.22703379224E+006, +1.36827802858E+002, +2.18790941243E+002
+8.35206508135E+006, +1.37103237076E+002, +2.22614291412E+002
+8.47709637046E+006, +1.37034178508E+002, +2.26049364711E+002
+8.60212765957E+006, +1.37286756443E+002, +2.29415794959E+002
+8.72715894869E+006, +1.37704992991E+002, +2.33175288181E+002
+8.85219023780E+006, +1.37611899499E+002, +2.36588412882E+002
+8.97722152691E+006, +1.38513224078E+002, +2.40021514971E+002
+9.10225281602E+006, +1.38597159975E+002, +2.44247553824E+002
+9.22728410513E+006, +1.38866803391E+002, +2.46801084520E+002
+9.35231539424E+006, +1.38888170379E+002, +2.50814715847E+002
+9.47734668335E+006, +1.38742547514E+002, +2.54360724237E+002
+9.60237797247E+006, +1.39272318384E+002, +2.57980468572E+002
+9.72740926158E+006, +1.39313553972E+002, +2.61499954791E+002
+9.85244055069E+006, +1.40274257298E+002, +2.65674255219E+002
+9.97747183980E+006, +1.40488580936E+002, +2.68999417733E+002
+1.01025031289E+007, +1.40024853149E+002, +2.72905670669E+002
+1.02275344180E+007, +1.41204179139E+002, +2.75762569149E+002
+1.03525657071E+007, +1.41179759544E+002, +2.80235394076E+002
+1.04775969962E+007, +1.40953707480E+002, +2.83600901280E+002
+1.06026282854E+007, +1.41400892693E+002, +2.87641281563E+002
+1.07276595745E+007, +1.42034608594E+002, +2.91216280757E+002
+1.08526908636E+007, +1.42262231597E+002, +2.94309807220E+002
+1.09777221527E+007, +1.43029573834E+002, +2.98510365909E+002
+1.11027534418E+007, +1.42724574431E+002, +3.02105433577E+002
+1.12277847309E+007, +1.42833481514E+002, +3.05868122470E+002
+1.13528160200E+007, +1.43419826715E+002, +3.09722598450E+002
+1.14778473091E+007, +1.43736147044E+002, +3.13356437569E+002
+1.16028785982E+007, +1.44316047996E+002, +3.17539247925E+002
+1.17279098874E+007, +1.44434447268E+002, +3.21655843852E+002
+1.18529411765E+007, +1.45197164012E+002, +3.25583722144E+002
+1.19779724656E+007, +1.44919145413E+002, +3.29093897257E+002
+1.21030037547E+007, +1.45759172624E+002, +3.32114416465E+002
+1.22280350438E+007, +1.46715562364E+002, +3.37558629728E+002
+1.23530663329E+007, +1.46385090847E+002, +3.40730845167E+002
+1.24780976220E+007, +1.46382485140E+002, +3.44328264033E+002
+1.26031289111E+007, +1.46720616745E+002, +3.49253565493E+002
+1.27281602003E+007, +1.47576991070E+002, +3.52810117803E+002
+1.28531914894E+007, +1.46931250828E+002, +3.56106513716E+002
+1.29782227785E+007, +1.48494585517E+002, +3.60588598661E+002
+1.31032540676E+007, +1.48828571213E+002, +3.63753206112E+002
+1.32282853567E+007, +1.49037287141E+002, +3.69053111944E+002
+1.33533166458E+007, +1.49973681390E+002, +3.71673976175E+002
+1.34783479349E+007, +1.50478701404E+002, +3.75952886718E+002
+1.36033792240E+007, +1.50523944483E+002, +3.80646323791E+002
+1.37284105131E+007, +1.49994719139E+002, +3.84659768707E+002
+1.38534418023E+007, +1.51311100094E+002, +3.88782210471E+002
+1.39784730914E+007, +1.50794042039E+002, +3.93767479660E+002
+1.41035043805E+007, +1.52631774258E+002, +3.96753442686E+002
+1.42285356696E+007, +1.53053464309E+002, +4.01998129565E+002
+1.43535669587E+007, +1.53774575651E+002, +4.04884864289E+002
+1.44785982478E+007, +1.53112968897E+002, +4.08756357946E+002
+1.46036295369E+007, +1.54985995209E+002, +4.13966627170E+002
+1.47286608260E+007, +1.55166692448E+002, +4.18412227675E+002
+1.48536921151E+007, +1.55239468339E+002, +4.22620467220E+002
+1.49787234043E+007, +1.55506074878E+002, +4.25274055394E+002
+1.51037546934E+007, +1.54759352043E+002, +4.30633186980E+002
+1.52287859825E+007, +1.54980012836E+002, +4.33969294600E+002
+1.53538172716E+007, +1.57211481026E+002, +4.39282564583E+002
+1.54788485607E+007, +1.57774091354E+002, +4.43854549851E+002
+1.56038798498E+007, +1.59153598650E+002, +4.47581443367E+002
+1.57289111389E+007, +1.57878229997E+002, +4.52070641469E+002
+1.58539424280E+007, +1.58953025870E+002, +4.55221611529E+002
+1.59789737171E+007, +1.59424268139E+002, +4.60996567616E+002
+1.61040050063E+007, +1.60226273715E+002, +4.66082093056E+002
+1.62290362954E+007, +1.60903713441E+002, +4.71120539202E+002
+1.63540675845E+007, +1.61046112908E+002, +4.75154566971E+002
+1.64790988736E+007, +1.62575569756E+002, +4.80016102900E+002
+1.66041301627E+007, +1.61845437285E+002, +4.83582955250E+002
+1.67291614518E+007, +1.62642569369E+002, +4.88968809063E+002
+1.68541927409E+007, +1.63617338465E+002, +4.93544799792E+002
+1.69792240300E+007, +1.63934569537E+002, +4.97712324122E+002
+1.71042553191E+007, +1.62534439913E+002, +5.04398673607E+002
+1.72292866083E+007, +1.63552772920E+002, +5.07774907851E+002
+1.73543178974E+007, +1.65145076269E+002, +5.14445734101E+002
+1.74793491865E+007, +1.65986025497E+002, +5.16716261278E+002
+1.76043804756E+007, +1.66801028273E+002, +5.23437352498E+002
+1.77294117647E+007, +1.67157551229E+002, +5.28735993252E+002
+1.78544430538E+007, +1.66908954604E+002, +5.31822653502E+002
+1.79794743429E+007, +1.69570998827E+002, +5.36719508678E+002
+1.81045056320E+007, +1.71841644699E+002, +5.41041838076E+002
+1.82295369212E+007, +1.70496323138E+002, +5.45182351969E+002
+1.83545682103E+007, +1.72734754833E+002, +5.51662471454E+002
+1.84795994994E+007, +1.70966147825E+002, +5.55904653046E+002
+1.86046307885E+007, +1.73550335464E+002, +5.60776907051E+002
+1.87296620776E+007, +1.71968915764E+002, +5.64325106998E+002
+1.88546933667E+007, +1.74061841028E+002, +5.70906367895E+002
+1.89797246558E+007, +1.74991177201E+002, +5.77385177166E+002
+1.91047559449E+007, +1.76638957491E+002, +5.82262943943E+002
+1.92297872340E+007, +1.77259404946E+002, +5.86205043951E+002
+1.93548185232E+007, +1.78333749784E+002, +5.90237828337E+002
+1.94798498123E+007, +1.79444355254E+002, +5.96659171089E+002
+1.96048811014E+007, +1.78377839478E+002, +6.02478047649E+002
+1.97299123905E+007, +1.81299073900E+002, +6.07848436755E+002
+1.98549436796E+007, +1.82287677555E+002, +6.15856307877E+002
+1.99799749687E+007, +1.81824102912E+002, +6.19353681982E+002
+2.01050062578E+007, +1.81919506214E+002, +6.21829356146E+002
+2.02300375469E+007, +1.84635825669E+002, +6.29547653447E+002
+2.03550688360E+007, +1.82572675277E+002, +6.35325964489E+002
+2.04801001252E+007, +1.88328796100E+002, +6.42932824695E+002
+2.06051314143E+007, +1.85392830189E+002, +6.45797607349E+002
+2.07301627034E+007, +1.86935153841E+002, +6.52176645873E+002
+2.08551939925E+007, +1.89585282414E+002, +6.57589449307E+002
+2.09802252816E+007, +1.91530259161E+002, +6.59790877265E+002
+2.11052565707E+007, +1.92048572876E+002, +6.65003128415E+002
+2.12302878598E+007, +1.93047990652E+002, +6.74075277436E+002
+2.13553191489E+007, +1.93950374656E+002, +6.78704709140E+002
+2.14803504380E+007, +1.95329484913E+002, +6.88729593772E+002
+2.16053817272E+007, +1.96326263493E+002, +6.89900817803E+002
+2.17304130163E+007, +1.98178047135E+002, +6.98341269457E+002
+2.18554443054E+007, +1.96294953510E+002, +7.02320108232E+002
+2.19804755945E+007, +1.97561302225E+002, +7.11466704168E+002
+2.21055068836E+007, +2.01957799265E+002, +7.19760933766E+002
+2.22305381727E+007, +2.02936887104E+002, +7.22400563298E+002
+2.23555694618E+007, +2.02448573245E+002, +7.25597688926E+002
+2.24806007509E+007, +2.03285652490E+002, +7.30997764376E+002
+2.26056320401E+007, +2.06023243565E+002, +7.42370011946E+002
+2.27306633292E+007, +2.06683348039E+002, +7.48190634914E+002
+2.28556946183E+007, +2.08590577455E+002, +7.54726168715E+002
+2.29807259074E+007, +2.08116357982E+002, +7.64994582623E+002
+2.31057571965E+007, +2.11113925615E+002, +7.67541958943E+002
+2.32307884856E+007, +2.12728984082E+002, +7.74836547057E+002
+2.33558197747E+007, +2.17450375445E+002, +7.79335929159E+002
+2.34808510638E+007, +2.17066651616E+002, +7.85239825223E+002
+2.36058823529E+007, +2.17854847267E+002, +7.94620136088E+002
+2.37309136421E+007, +2.16699009179E+002, +8.03098527933E+002
+2.38559449312E+007, +2.21235737499E+002, +8.08983861511E+002
+2.39809762203E+007, +2.22589330005E+002, +8.13291391625E+002
+2.41060075094E+007, +2.18978565891E+002, +8.23404926691E+002
+2.42310387985E+007, +2.27803885345E+002, +8.27118718786E+002
+2.43560700876E+007, +2.26190843904E+002, +8.38003306682E+002
+2.44811013767E+007, +2.27601193462E+002, +8.38539995337E+002
+2.46061326658E+007, +2.30512888211E+002, +8.52921298952E+002
+2.47311639549E+007, +2.31166948567E+002, +8.54748537878E+002
+2.48561952441E+007, +2.32273710459E+002, +8.63897791806E+002
+2.49812265332E+007, +2.32024065137E+002, +8.72243324290E+002
+2.51062578223E+007, +2.35983574284E+002, +8.80465810564E+002
+2.52312891114E+007, +2.40708066211E+002, +8.86804497510E+002
+2.53563204005E+007, +2.37279381124E+002, +8.93507250517E+002
+2.54813516896E+007, +2.39590676638E+002, +9.06284359700E+002
+2.56063829787E+007, +2.44166741650E+002, +9.18261033641E+002
+2.57314142678E+007, +2.41734583079E+002, +9.21069505534E+002
+2.58564455569E+007, +2.49264584601E+002, +9.26534965691E+002
+2.59814768461E+007, +2.52154945543E+002, +9.40215594354E+002
+2.61065081352E+007, +2.57155346570E+002, +9.41304389551E+002
+2.62315394243E+007, +2.60265584040E+002, +9.56236603645E+002
+2.63565707134E+007, +2.60115368958E+002, +9.61968538115E+002
+2.64816020025E+007, +2.61027179972E+002, +9.70011120459E+002
+2.66066332916E+007, +2.62507212603E+002, +9.75821834060E+002
+2.67316645807E+007, +2.65906093274E+002, +9.80967688950E+002
+2.68566958698E+007, +2.61905928538E+002, +9.98404372971E+002
+2.69817271589E+007, +2.66823667989E+002, +1.00004987535E+003
+2.71067584481E+007, +2.71880701155E+002, +1.01514034863E+003
+2.72317897372E+007, +2.77597330611E+002, +1.02532642895E+003
+2.73568210263E+007, +2.73421830842E+002, +1.03274894182E+003
+2.74818523154E+007, +2.80670403946E+002, +1.04304195391E+003
+2.76068836045E+007, +2.78766530155E+002, +1.04396983329E+003
+2.77319148936E+007, +2.78790534089E+002, +1.06632524134E+003
+2.78569461827E+007, +2.90792712087E+002, +1.06850429520E+003
+2.79819774718E+007, +2.84630125598E+002, +1.07464421672E+003
+2.81070087610E+007, +2.94434232305E+002, +1.09283941313E+003
+2.82320400501E+007, +2.98631989861E+002, +1.10245513046E+003
+2.83570713392E+007, +3.00887105812E+002, +1.10594924817E+003
+2.84821026283E+007, +3.03643922234E+002, +1.11186117675E+003
+2.86071339174E+007, +3.02702216712E+002, +1.12618953898E+003
+2.87321652065E+007, +3.10736214078E+002, +1.13752484811E+003
+2.88571964956E+007, +3.08106024104E+002, +1.14918811728E+003
+2.89822277847E+007, +3.16016784000E+002, +1.16197946967E+003
+2.91072590738E+007, +3.12624084439E+002, +1.17592349114E+003
+2.92322903630E+007, +3.17748476900E+002, +1.18279990431E+003
+2.93573216521E+007, +3.17469062474E+002, +1.20050662302E+003
+2.94823529412E+007, +3.25269179949E+002, +1.20823253733E+003
+2.96073842303E+007, +3.24835658374E+002, +1.21421125604E+003
+2.97324155194E+007, +3.39762557852E+002, +1.22482159875E+003
+2.98574468085E+007, +3.26206280875E+002, +1.24202691244E+003
+2.99824780976E+007, +3.36109252347E+002, +1.25383554456E+003
+3.01075093867E+007, +3.41717188874E+002, +1.26048059885E+003
+3.02325406758E+007, +3.54548417595E+002, +1.27393595913E+003
+3.03575719650E+007, +3.56144138589E+002, +1.28754797197E+003
+3.04826032541E+007, +3.60436527919E+002, +1.30341088047E+003
+3.06076345432E+007, +3.58356214947E+002, +1.32361923660E+003
+3.07326658323E+007, +3.70121703567E+002, +1.33697864616E+003
+3.08576971214E+007, +3.79239945439E+002, +1.34696409987E+003
+3.09827284105E+007, +3.72588242564E+002, +1.35697076363E+003
+3.11077596996E+007, +3.85399132095E+002, +1.37695309233E+003
+3.12327909887E+007, +3.82679902755E+002, +1.38071393950E+003
+3.13578222778E+007, +3.85117199256E+002, +1.38950654570E+003
+3.14828535670E+007, +3.94589865755E+002, +1.40464586691E+003
+3.16078848561E+007, +3.98811595956E+002, +1.42319417007E+003
+3.17329161452E+007, +4.06725365745E+002, +1.43500391958E+003
+3.18579474343E+007, +4.16743805837E+002, +1.45500095759E+003
+3.19829787234E+007, +4.13940024115E+002, +1.47050186691E+003
+3.21080100125E+007, +4.27435656161E+002, +1.48698000282E+003
+3.22330413016E+007, +4.32064485207E+002, +1.51986526837E+003
+3.23580725907E+007, +4.42188529124E+002, +1.50974370259E+003
+3.24831038798E+007, +4.38358392055E+002, +1.54313398827E+003
+3.26081351690E+007, +4.50504023157E+002, +1.56765669802E+003
+3.27331664581E+007, +4.66032011953E+002, +1.57282960680E+003
+3.28581977472E+007, +4.62858197995E+002, +1.58981786360E+003
+3.29832290363E+007, +4.70959087118E+002, +1.61100958241E+003
+3.31082603254E+007, +4.77493272539E+002, +1.61115072958E+003
+3.32332916145E+007, +4.85678327644E+002, +1.63876069003E+003
+3.33583229036E+007, +4.88898936830E+002, +1.65195264730E+003
+3.34833541927E+007, +5.15519982548E+002, +1.68247543529E+003
+3.36083854819E+007, +5.15560068493E+002, +1.69104869288E+003
+3.37334167710E+007, +5.20695072874E+002, +1.71676223109E+003
+3.38584480601E+007, +5.21367109441E+002, +1.72012086657E+003
+3.39834793492E+007, +5.39778371928E+002, +1.76780080698E+003
+3.41085106383E+007, +5.50017327759E+002, +1.77652767145E+003
+3.42335419274E+007, +5.70607151746E+002, +1.80816563666E+003
+3.43585732165E+007, +5.77489254076E+002, +1.81489552510E+003
+3.44836045056E+007, +5.73348948082E+002, +1.82671753992E+003
+3.46086357947E+007, +6.06155366762E+002, +1.86200365899E+003
+3.47336670839E+007, +5.89532625127E+002, +1.89828334456E+003
+3.48586983730E+007, +5.97626069936E+002, +1.90160309660E+003
+3.49837296621E+007, +6.29972679560E+002, +1.92920273269E+003
+3.51087609512E+007, +6.21694548256E+002, +1.95394103484E+003
+3.52337922403E+007, +6.62044259464E+002, +1.98584222704E+003
+3.53588235294E+007, +6.55442822728E+002, +1.98950924755E+003
+3.54838548185E+007, +6.75575981434E+002, +2.04631494303E+003
+3.56088861076E+007, +6.85733784909E+002, +2.03717142047E+003
+3.57339173967E+007, +7.13946789990E+002, +2.07406491815E+003
+3.58589486859E+007, +7.29815744422E+002, +2.09961666970E+003
+3.59839799750E+007, +7.07557440592E+002, +2.13031243663E+003
+3.61090112641E+007, +7.43087498498E+002, +2.15120258420E+003
+3.62340425532E+007, +7.69723988870E+002, +2.18659725140E+003
+3.63590738423E+007, +7.68387782570E+002, +2.22703642122E+003
+3.64841051314E+007, +7.99688326359E+002, +2.23837175997E+003
+3.66091364205E+007, +8.34185969468E+002, +2.26386497589E+003
+3.67341677096E+007, +8.82413947665E+002, +2.30403846099E+003
+3.68591989987E+007, +8.80057474718E+002, +2.36061264620E+003
+3.69842302879E+007, +8.78484853515E+002, +2.36819416826E+003
+3.71092615770E+007, +9.37068849954E+002, +2.42500546809E+003
+3.72342928661E+007, +9.35879949042E+002, +2.44412606263E+003
+3.73593241552E+007, +9.60941504922E+002, +2.47335904030E+003
+3.74843554443E+007, +9.83199265161E+002, +2.51115335279E+003
+3.76093867334E+007, +1.02990964211E+003, +2.52880878333E+003
+3.77344180225E+007, +1.03652309054E+003, +2.56553394356E+003
+3.78594493116E+007, +1.08415226940E+003, +2.63450684742E+003
+3.79844806008E+007, +1.10344358175E+003, +2.67744040677E+003
+3.81095118899E+007, +1.12505220758E+003, +2.69710665407E+003
+3.82345431790E+007, +1.21626162585E+003, +2.74073983654E+003
+3.83595744681E+007, +1.18723552972E+003, +2.78373245017E+003
+3.84846057572E+007, +1.25314816189E+003, +2.81669435672E+003
+3.86096370463E+007, +1.28564412216E+003, +2.87853604382E+003
+3.87346683354E+007, +1.39540539894E+003, +2.86493828947E+003
+3.88596996245E+007, +1.39631961300E+003, +2.97290995104E+003
+3.89847309136E+007, +1.47691363287E+003, +2.98449539187E+003
+3.91097622028E+007, +1.52099369477E+003, +3.01034089976E+003
+3.92347934919E+007, +1.49420922556E+003, +3.05278284948E+003
+3.93598247810E+007, +1.59406595565E+003, +3.11786584226E+003
+3.94848560701E+007, +1.66082177533E+003, +3.20034074285E+003
+3.96098873592E+007, +1.74605184352E+003, +3.18945620957E+003
+3.97349186483E+007, +1.76672899093E+003, +3.23468858309E+003
+3.98599499374E+007, +1.82526069069E+003, +3.29816755962E+003
+3.99849812265E+007, +1.91771735444E+003, +3.38838306375E+003
+4.01100125156E+007, +1.98232693203E+003, +3.39320871067E+003
