"# Channel 1"
"# Trace 1"
Frequency, Formatted Data, Formatted Data
+1.00000000000E+005, +8.69479587730E-001, +2.42858218695E+000
+2.25031289111E+005, +8.77857506906E-001, +5.46954926032E+000
+3.50062578223E+005, +8.55441601459E-001, +8.53635201306E+000
+4.75093867334E+005, +9.33661078299E-001, +1.15131278308E+001
+6.00125156446E+005, +9.22754053042E-001, +1.45452769944E+001
+7.25156445557E+005, +9.05229934729E-001, +1.75702511756E+001
+8.50187734668E+005, +1.02093925158E+000, +2.05961748574E+001
+9.75219023780E+005, +1.01153253353E+000, +2.35792064392E+001
+1.10025031289E+006, +1.02047189258E+000, +2.65757420153E+001
+1.22528160200E+006, +1.12139558503E+000, +2.95344085240E+001
+1.35031289111E+006, +1.13312765214E+000, +3.25476616361E+001
+1.47534418023E+006, +1.13043276675E+000, +3.55278543422E+001
+1.60037546934E+006, +1.20725528603E+000, +3.85307568234E+001
+1.72540675845E+006, +1.28509302076E+000, +4.14677811174E+001
+1.85043804756E+006, +1.27977729182E+000, +4.44147752913E+001
+1.97546933667E+006, +1.25574761795E+000, +4.75074960147E+001
+2.10050062578E+006, +1.28767299354E+000, +5.04243159791E+001
+2.22553191489E+006, +1.35317807169E+000, +5.32954076511E+001
+2.35056320401E+006, +1.34660758483E+000, +5.64330421242E+001
+2.47559449312E+006, +1.26205778933E+000, +5.93037420000E+001
+2.60062578223E+006, +1.26317981279E+000, +6.23415452596E+001
+2.72565707134E+006, +1.27836032124E+000, +6.52161902209E+001
+2.85068836045E+006, +1.43761954062E+000, +6.82438675067E+001
+2.97571964956E+006, +1.44291525995E+000, +7.12416378461E+001
+3.10075093867E+006, +1.28979870943E+000, +7.42733826716E+001
+3.22578222778E+006, +1.39416905872E+000, +7.70606778403E+001
+3.35081351690E+006, +1.42049963644E+000, +8.03000758496E+001
+3.47584480601E+006, +1.54494880817E+000, +8.31492998612E+001
+3.60087609512E+006, +1.43324543510E+000, +8.61196267853E+001
+3.72590738423E+006, +1.51903608528E+000, +8.92516573980E+001
+3.85093867334E+006, +1.43786349611E+000, +9.22075529545E+001
+3.97596996245E+006, +1.38634273917E+000, +9.52257816428E+001
+4.10100125156E+006, +1.59048017461E+000, +9.84547082893E+001
+4.22603254068E+006, +1.50249704982E+000, +1.01224050322E+002
+4.35106382979E+006, +1.43980775126E+000, +1.04230490372E+002
+4.47609511890E+006, +1.52725610931E+000, +1.07376260319E+002
+4.60112640801E+006, +1.53630144300E+000, +1.10478247811E+002
+4.72615769712E+006, +1.31899725365E+000, +1.13406126891E+002
+4.85118898623E+006, +1.60204100303E+000, +1.16223542071E+002
+4.97622027534E+006, +1.58167955076E+000, +1.19156909372E+002
+5.10125156446E+006, +1.70395914223E+000, +1.22515883102E+002
+5.22628285357E+006, +1.47145485417E+000, +1.25489090703E+002
+5.35131414268E+006, +1.76161615638E+000, +1.28570440166E+002
+5.47634543179E+006, +1.52043299359E+000, +1.31400993457E+002
+5.60137672090E+006, +1.62214664766E+000, +1.34512596375E+002
+5.72640801001E+006, +1.50989598514E+000, +1.37970927514E+002
+5.85143929912E+006, +1.83269844684E+000, +1.40554243920E+002
+5.97647058824E+006, +1.76862374848E+000, +1.44240496155E+002
+6.10150187735E+006, +1.44407841986E+000, +1.47237846705E+002
+6.22653316646E+006, +1.57923924585E+000, +1.50046880216E+002
+6.35156445557E+006, +1.95169351554E+000, +1.53119964559E+002
+6.47659574468E+006, +1.90611046256E+000, +1.56247823113E+002
+6.60162703379E+006, +1.77804193194E+000, +1.59353062627E+002
+6.72665832290E+006, +1.82337493273E+000, +1.62552312487E+002
+6.85168961202E+006, +1.92250210019E+000, +1.65442459372E+002
+6.97672090113E+006, +1.95065573895E+000, +1.68495605789E+002
+7.10175219024E+006, +1.98012692056E+000, +1.71728076982E+002
+7.22678347935E+006, +1.87527413339E+000, +1.74829483006E+002
+7.35181476846E+006, +1.81933120848E+000, +1.78078132257E+002
+7.47684605757E+006, +1.89433870910E+000, +1.81196548376E+002
+7.60187734668E+006, +2.23392847611E+000, +1.84297329971E+002
+7.72690863579E+006, +1.93645184603E+000, +1.87541665189E+002
+7.85193992491E+006, +2.03164577352E+000, +1.90663613449E+002
+7.97697121402E+006, +1.96752494517E+000, +1.93598102374E+002
+8.10200250313E+006, +2.09724145813E+000, +1.97093889023E+002
+8.22703379224E+006, +2.11104969338E+000, +2.00164852666E+002
+8.35206508135E+006, +2.32287605019E+000, +2.03373574936E+002
+8.47709637046E+006, +2.19716957757E+000, +2.06540437715E+002
+8.60212765957E+006, +2.10549590737E+000, +2.09599400309E+002
+8.72715894869E+006, +2.01628988774E+000, +2.13001085319E+002
+8.85219023780E+006, +2.36522118070E+000, +2.15908895678E+002
+8.97722152691E+006, +2.22355376474E+000, +2.19203927911E+002
+9.10225281602E+006, +2.09354447741E+000, +2.22508515888E+002
+9.22728410513E+006, +2.29619512489E+000, +2.25603101838E+002
+9.35231539424E+006, +2.07670013542E+000, +2.29271139499E+002
+9.47734668335E+006, +2.03207797104E+000, +2.32234576357E+002
+9.60237797247E+006, +2.05907775127E+000, +2.35236719442E+002
+9.72740926158E+006, +2.22675445315E+000, +2.38830704300E+002
+9.85244055069E+006, +2.29367136847E+000, +2.41884387407E+002
+9.97747183980E+006, +2.22421252693E+000, +2.45446664699E+002
+1.01025031289E+007, +2.31203609737E+000, +2.48221983767E+002
+1.02275344180E+007, +2.12611149201E+000, +2.51830260346E+002
+1.03525657071E+007, +2.20028121430E+000, +2.55264627414E+002
+1.04775969962E+007, +2.30308765541E+000, +2.58150976226E+002
+1.06026282854E+007, +2.01469391959E+000, +2.61479372117E+002
+1.07276595745E+007, +1.91303821817E+000, +2.65026727568E+002
+1.08526908636E+007, +1.96440876321E+000, +2.68173725940E+002
+1.09777221527E+007, +2.21570178836E+000, +2.71287164592E+002
+1.11027534418E+007, +2.22378360043E+000, +2.74810577733E+002
+1.12277847309E+007, +1.93817917686E+000, +2.77939307631E+002
+1.13528160200E+007, +2.09244407158E+000, +2.81720324878E+002
+1.14778473091E+007, +1.71898523506E+000, +2.85158155712E+002
+1.16028785982E+007, +2.48130197638E+000, +2.88312892903E+002
+1.17279098874E+007, +2.41744777601E+000, +2.91990338638E+002
+1.18529411765E+007, +2.38129975606E+000, +2.95515144167E+002
+1.19779724656E+007, +2.19320123629E+000, +2.99259110176E+002
+1.21030037547E+007, +2.45520278684E+000, +3.02139684205E+002
+1.22280350438E+007, +1.95843278507E+000, +3.05508919915E+002
+1.23530663329E+007, +2.31807375782E+000, +3.09132291756E+002
+1.24780976220E+007, +2.61905968403E+000, +3.12031508498E+002
+1.26031289111E+007, +2.30097050795E+000, +3.15779925268E+002
+1.27281602003E+007, +1.64281200853E+000, +3.19836320603E+002
+1.28531914894E+007, +2.11168432304E+000, +3.22937676600E+002
+1.29782227785E+007, +1.86015746422E+000, +3.26393674346E+002
+1.31032540676E+007, +1.83109149762E+000, +3.29758999422E+002
+1.32282853567E+007, +2.38561963488E+000, +3.33855064887E+002
+1.33533166458E+007, +2.23762940577E+000, +3.36842382742E+002
+1.34783479349E+007, +1.75926223687E+000, +3.40067033349E+002
+1.36033792240E+007, +1.80413972550E+000, +3.43915105315E+002
+1.37284105131E+007, +1.88954723333E+000, +3.47540645524E+002
+1.38534418023E+007, +1.36592539944E+000, +3.51129123505E+002
+1.39784730914E+007, +2.07053571476E+000, +3.54711127979E+002
+1.41035043805E+007, +2.41550638429E+000, +3.58459195729E+002
+1.42285356696E+007, +1.86473307309E+000, +3.62134353502E+002
+1.43535669587E+007, +1.79127763529E+000, +3.66527857621E+002
+1.44785982478E+007, +1.56743336841E+000, +3.69441583605E+002
+1.46036295369E+007, +1.38290563887E+000, +3.73738690360E+002
+1.47286608260E+007, +2.25378014721E+000, +3.77169142735E+002
+1.48536921151E+007, +1.91324731055E+000, +3.80580372758E+002
+1.49787234043E+007, +1.54999914491E+000, +3.84143390553E+002
+1.51037546934E+007, +1.78741785497E+000, +3.88420898562E+002
+1.52287859825E+007, +1.34365302929E+000, +3.92243740290E+002
+1.53538172716E+007, +1.86631518915E+000, +3.95223317491E+002
+1.54788485607E+007, +1.97781523629E+000, +3.99797192638E+002
+1.56038798498E+007, +1.56709153014E+000, +4.02701664796E+002
+1.57289111389E+007, +1.87236095329E+000, +4.06884490620E+002
+1.58539424280E+007, +1.53522592216E+000, +4.11075438744E+002
+1.59789737171E+007, +9.25661467030E-001, +4.14435210938E+002
+1.61040050063E+007, +7.65005125297E-001, +4.18903252320E+002
+1.62290362954E+007, +1.76343982334E+000, +4.22959473986E+002
+1.63540675845E+007, +1.92762592814E+000, +4.26227779384E+002
+1.64790988736E+007, +1.01075073706E+000, +4.30423902097E+002
+1.66041301627E+007, +1.48641397959E+000, +4.35867807349E+002
+1.67291614518E+007, +2.14616141322E-001, +4.38575128918E+002
+1.68541927409E+007, +1.60651094832E+000, +4.42880617561E+002
+1.69792240300E+007, +1.05052011119E+000, +4.45453833905E+002
+1.71042553191E+007, +3.56042623375E-001, +4.50960708116E+002
+1.72292866083E+007, +5.81182114650E-001, +4.54211575731E+002
+1.73543178974E+007, +9.01197356832E-001, +4.58352989586E+002
+1.74793491865E+007, +2.01962525319E+000, +4.63202132443E+002
+1.76043804756E+007, +1.68386174759E+000, +4.66024409621E+002
+1.77294117647E+007, +1.73077671259E+000, +4.70593312371E+002
+1.78544430538E+007, +5.72317148041E-001, +4.74600280080E+002
+1.79794743429E+007, +1.34595640474E+000, +4.79289132121E+002
+1.81045056320E+007, +7.53444439199E-001, +4.83604661815E+002
+1.82295369212E+007, +1.04967732100E+000, +4.88729399272E+002
+1.83545682103E+007, +1.33558175052E+000, +4.92544134865E+002
+1.84795994994E+007, +1.51684229641E-001, +4.96745982715E+002
+1.86046307885E+007, +1.11301832268E+000, +5.00599190634E+002
+1.87296620776E+007, +2.05586496439E+000, +5.05500333701E+002
+1.88546933667E+007, +1.68854370581E+000, +5.09131165793E+002
+1.89797246558E+007, +2.32870804118E+000, +5.13867092386E+002
+1.91047559449E+007, +1.39219733630E+000, +5.18721057780E+002
+1.92297872340E+007, +1.18778536867E+000, +5.22593192195E+002
+1.93548185232E+007, +2.39995440110E+000, +5.24972101092E+002
+1.94798498123E+007, +1.37015418673E+000, +5.31487401848E+002
+1.96048811014E+007, +1.47872507569E+000, +5.34981050137E+002
+1.97299123905E+007, +1.77432943086E+000, +5.39025560897E+002
+1.98549436796E+007, +1.31891525253E+000, +5.43209858042E+002
+1.99799749687E+007, +1.52610538306E+000, +5.48429568765E+002
+2.01050062578E+007, +7.43694644657E-002, +5.53785127140E+002
+2.02300375469E+007, +2.22162461958E+000, +5.58043588553E+002
+2.03550688360E+007, +3.56420064704E+000, +5.64501195679E+002
+2.04801001252E+007, +1.36601955039E+000, +5.67812398318E+002
+2.06051314143E+007, +2.24089102634E+000, +5.73350079174E+002
+2.07301627034E+007, +1.37004410134E+000, +5.77993243572E+002
+2.08551939925E+007, +3.87987650528E+000, +5.82220036638E+002
+2.09802252816E+007, +2.68603845460E+000, +5.86915370910E+002
+2.11052565707E+007, +1.17215381055E+000, +5.91692155090E+002
+2.12302878598E+007, +3.48301566477E+000, +5.98173624626E+002
+2.13553191489E+007, +3.93648734242E+000, +6.02179984793E+002
+2.14803504380E+007, +1.42942009758E+000, +6.07265555132E+002
+2.16053817272E+007, +3.47011309842E+000, +6.12777767788E+002
+2.17304130163E+007, +3.84179060650E+000, +6.14175606526E+002
+2.18554443054E+007, +4.99029540771E+000, +6.22564046576E+002
+2.19804755945E+007, +4.92119274106E+000, +6.23993622876E+002
+2.21055068836E+007, +4.52955682765E-001, +6.32190724988E+002
+2.22305381727E+007, +3.32406939259E+000, +6.35097716482E+002
+2.23555694618E+007, +2.69688659124E+000, +6.41056662147E+002
+2.24806007509E+007, +2.67490468922E+000, +6.46515498377E+002
+2.26056320401E+007, +3.37651174897E+000, +6.52630626633E+002
+2.27306633292E+007, +3.65094204953E+000, +6.57976055524E+002
+2.28556946183E+007, +4.63120730019E+000, +6.62308686996E+002
+2.29807259074E+007, +5.46534934318E+000, +6.67503239516E+002
+2.31057571965E+007, +7.46224109405E+000, +6.73289306534E+002
+2.32307884856E+007, +5.93989780808E+000, +6.77591978122E+002
+2.33558197747E+007, +7.61765301496E+000, +6.82184872725E+002
+2.34808510638E+007, +4.51741516276E+000, +6.89995347003E+002
+2.36058823529E+007, +7.86785139771E+000, +6.91807649767E+002
+2.37309136421E+007, +5.93933572740E+000, +6.98899078407E+002
+2.38559449312E+007, +7.41110351727E+000, +7.03942368751E+002
+2.39809762203E+007, +7.47802831307E+000, +7.09109958531E+002
+2.41060075094E+007, +8.24101428562E+000, +7.16297175382E+002
+2.42310387985E+007, +6.70522872102E+000, +7.15767069889E+002
+2.43560700876E+007, +4.70155309136E+000, +7.26928897692E+002
+2.44811013767E+007, +7.04971722591E+000, +7.28838513063E+002
+2.46061326658E+007, +4.61456466461E+000, +7.36421059657E+002
+2.47311639549E+007, +8.14989837387E+000, +7.40001375424E+002
+2.48561952441E+007, +5.15370318325E+000, +7.45858457244E+002
+2.49812265332E+007, +6.98857242930E+000, +7.50548998032E+002
+2.51062578223E+007, +4.32396441784E+000, +7.57927682878E+002
+2.52312891114E+007, +4.72475522201E+000, +7.65492303026E+002
+2.53563204005E+007, +4.66565509883E+000, +7.69631631789E+002
+2.54813516896E+007, +6.00068989576E+000, +7.75069035510E+002
+2.56063829787E+007, +6.17376979970E+000, +7.84143991689E+002
+2.57314142678E+007, +4.47678412404E+000, +7.90259232819E+002
+2.58564455569E+007, +1.49879555452E+000, +7.96121509482E+002
+2.59814768461E+007, +7.19455222490E-001, +8.04916093207E+002
+2.61065081352E+007, +2.19613925977E+000, +8.09255451024E+002
+2.62315394243E+007, +7.60258138249E+000, +8.14992594030E+002
+2.63565707134E+007, +4.03623690738E+000, +8.26048050714E+002
+2.64816020025E+007, +4.13516118106E+000, +8.26871831450E+002
+2.66066332916E+007, +5.13455950928E+000, +8.33420196172E+002
+2.67316645807E+007, +2.73756371029E+000, +8.42504071439E+002
+2.68566958698E+007, +3.88009158353E+000, +8.46924574567E+002
+2.69817271589E+007, +3.51170967292E+000, +8.54708577530E+002
+2.71067584481E+007, +1.99452930216E+000, +8.61686799025E+002
+2.72317897372E+007, +4.76780520845E+000, +8.71042425994E+002
+2.73568210263E+007, +3.43119696962E+000, +8.74189831880E+002
+2.74818523154E+007, +6.16318689609E+000, +8.84416390769E+002
+2.76068836045E+007, +8.02635571219E+000, +8.89719639670E+002
+2.77319148936E+007, +9.22665565963E+000, +8.99694107342E+002
+2.78569461827E+007, +4.10702205278E+000, +9.05061398350E+002
+2.79819774718E+007, +1.22080900688E+000, +9.11550143985E+002
+2.81070087610E+007, +2.85966864242E+000, +9.14996530878E+002
+2.82320400501E+007, +4.23871726986E+000, +9.23095472176E+002
+2.83570713392E+007, +5.58495988782E+000, +9.32088335772E+002
+2.84821026283E+007, +2.23285209787E+000, +9.37311950028E+002
+2.86071339174E+007, -2.87607748727E+000, +9.46321931956E+002
+2.87321652065E+007, +3.34599403256E+000, +9.54865339717E+002
+2.88571964956E+007, -8.61928106617E-001, +9.64703456517E+002
+2.89822277847E+007, +5.57972029326E+000, +9.71604271487E+002
+2.91072590738E+007, +6.34935229757E-001, +9.81039242637E+002
+2.92322903630E+007, -1.59932297159E+000, +9.88911402707E+002
+2.93573216521E+007, +1.65781950298E+000, +9.99083141362E+002
+2.94823529412E+007, +2.87391210707E+000, +1.00223845691E+003
+2.96073842303E+007, +2.71038560868E+000, +1.01065336099E+003
+2.97324155194E+007, +1.89251313191E+000, +1.02088087227E+003
+2.98574468085E+007, +2.90323396647E+000, +1.02807807729E+003
+2.99824780976E+007, +3.14604923343E+000, +1.03857229180E+003
+3.01075093867E+007, +1.25581210097E+000, +1.04673491571E+003
+3.02325406758E+007, +1.73540563419E+000, +1.05930504711E+003
+3.03575719650E+007, +8.83457464988E-002, +1.05974661379E+003
+3.04826032541E+007, +3.53945723387E+000, +1.08144057557E+003
+3.06076345432E+007, +2.60382600522E+000, +1.08911213929E+003
+3.07326658323E+007, +5.72499366629E+000, +1.09121513842E+003
+3.08576971214E+007, -3.83125949586E+000, +1.10786469886E+003
+3.09827284105E+007, -1.59523175132E+000, +1.10988087942E+003
+3.11077596996E+007, +1.56955620997E+000, +1.12151850190E+003
+3.12327909887E+007, +1.34841838831E+000, +1.12820872812E+003
+3.13578222778E+007, +6.38681436047E+000, +1.14239163325E+003
+3.14828535670E+007, +2.57526825992E+000, +1.14863272915E+003
+3.16078848561E+007, +2.45640034332E+000, +1.16124642151E+003
+3.17329161452E+007, +2.55557406074E+000, +1.18088896922E+003
+3.18579474343E+007, +4.79875861068E-001, +1.17972390760E+003
+3.19829787234E+007, +2.19046908288E+000, +1.18691769775E+003
+3.21080100125E+007, +6.43769899005E+000, +1.20194259996E+003
+3.22330413016E+007, -3.68304423232E+000, +1.20845451198E+003
+3.23580725907E+007, +4.72425743855E+000, +1.22228023393E+003
+3.24831038798E+007, +7.15290098995E+000, +1.23249036770E+003
+3.26081351690E+007, -1.85886813660E+000, +1.24673679007E+003
+3.27331664581E+007, +6.11571491423E+000, +1.25467256980E+003
+3.28581977472E+007, -3.32351276192E+000, +1.27107929011E+003
+3.29832290363E+007, +1.00696541611E+000, +1.28628369881E+003
+3.31082603254E+007, +1.62915143512E-001, +1.28833144746E+003
+3.32332916145E+007, -3.26630646549E+000, +1.30656804611E+003
+3.33583229036E+007, -6.31640461388E+000, +1.31738837283E+003
+3.34833541927E+007, -9.60336902223E-002, +1.33154998112E+003
+3.36083854819E+007, -5.20048217608E+000, +1.34973018993E+003
+3.37334167710E+007, +4.48582983285E+000, +1.35005898568E+003
+3.38584480601E+007, -6.10760480890E+000, +1.36257545421E+003
+3.39834793492E+007, +2.51089743470E+000, +1.38181652220E+003
+3.41085106383E+007, +1.89663392211E+000, +1.39637491004E+003
+3.42335419274E+007, +3.32959663360E+000, +1.40991579122E+003
+3.43585732165E+007, +3.23097670363E+000, +1.42636404840E+003
+3.44836045056E+007, +2.25363563486E+000, +1.44328674103E+003
+3.46086357947E+007, -4.82376031874E+000, +1.45474704992E+003
+3.47336670839E+007, +5.50106797579E+000, +1.47107053478E+003
+3.48586983730E+007, +1.00933076432E+001, +1.47608454503E+003
+3.49837296621E+007, +9.70185316399E-001, +1.49139551985E+003
+3.51087609512E+007, -1.47631513366E+000, +1.51040184605E+003
+3.52337922403E+007, +3.28658435656E+000, +1.52098997063E+003
+3.53588235294E+007, +1.44631076317E+000, +1.53541756163E+003
+3.54838548185E+007, +1.55081556805E+001, +1.54589917381E+003
+3.56088861076E+007, +6.06531979745E+000, +1.57355059306E+003
+3.57339173967E+007, -2.07136125336E+000, +1.58466911575E+003
+3.58589486859E+007, +8.63773171548E+000, +1.60356758841E+003
+3.59839799750E+007, -5.76490420084E+000, +1.62684033671E+003
+3.61090112641E+007, +1.11522081782E+001, +1.63558684484E+003
+3.62340425532E+007, +5.96514434578E+000, +1.65050540163E+003
+3.63590738423E+007, +8.26105417613E+000, +1.67704536117E+003
+3.64841051314E+007, +2.52838386415E+000, +1.69025609601E+003
+3.66091364205E+007, +7.18689819447E+000, +1.69434419373E+003
+3.67341677096E+007, -1.11849050953E+000, +1.73082450897E+003
+3.68591989987E+007, -7.84092711803E+000, +1.73811649245E+003
+3.69842302879E+007, +1.05959883633E+001, +1.77309468301E+003
+3.71092615770E+007, -4.29051290427E-001, +1.79771904288E+003
+3.72342928661E+007, +1.83894554908E+000, +1.79415265949E+003
+3.73593241552E+007, -9.87087572214E+000, +1.82463154768E+003
+3.74843554443E+007, -1.14184156821E+001, +1.83846487740E+003
+3.76093867334E+007, +3.84329906477E+000, +1.86525632059E+003
+3.77344180225E+007, -3.77394383005E+000, +1.88358772272E+003
+3.78594493116E+007, -3.64872155427E+000, +1.91803249293E+003
+3.79844806008E+007, +1.49759191370E+000, +1.92296450871E+003
+3.81095118899E+007, -4.69683892092E+000, +1.96969748568E+003
+3.82345431790E+007, +8.46347271984E+000, +1.98308039806E+003
+3.83595744681E+007, -9.93708925912E+000, +1.99873736417E+003
+3.84846057572E+007, +4.40052633576E+000, +2.06010844710E+003
+3.86096370463E+007, +6.15928249833E+000, +2.05190090033E+003
+3.87346683354E+007, +2.49546470782E+000, +2.07262531900E+003
+3.88596996245E+007, -1.94507105272E+000, +2.09953242248E+003
+3.89847309136E+007, +1.10495537832E+001, +2.12815262442E+003
+3.91097622028E+007, +1.02393184503E+001, +2.15890123070E+003
+3.92347934919E+007, -8.93420315603E+000, +2.17682703057E+003
+3.93598247810E+007, +2.65098537537E+001, +2.23484851526E+003
+3.94848560701E+007, +8.37659972078E+000, +2.25839371352E+003
+3.96098873592E+007, +2.30536761005E+001, +2.28777109331E+003
+3.97349186483E+007, +1.52170852549E+001, +2.32620713002E+003
+3.98599499374E+007, +7.32469975333E+000, +2.35041126039E+003
+3.99849812265E+007, +6.44413669233E+000, +2.38433897584E+003
+4.01100125156E+007, +6.88246064193E+000, +2.44283538386E+003
