"# Channel 1"
"# Trace 1"
Frequency, Formatted Data, Formatted Data
+1.00000000000E+005, +8.64751058392E-001, +2.42775749153E+000
+2.25031289111E+005, +8.68738933486E-001, +5.46422466838E+000
+3.50062578223E+005, +8.67235319918E-001, +8.52992921840E+000
+4.75093867334E+005, +9.33438259165E-001, +1.15043062709E+001
+6.00125156446E+005, +9.33273143119E-001, +1.45340401501E+001
+7.25156445557E+005, +9.01404837641E-001, +1.75509016201E+001
+8.50187734668E+005, +1.00861941677E+000, +2.05766382138E+001
+9.75219023780E+005, +1.01444984006E+000, +2.35572922910E+001
+1.10025031289E+006, +1.03799860561E+000, +2.65464116284E+001
+1.22528160200E+006, +1.14093666285E+000, +2.95077019064E+001
+1.35031289111E+006, +1.14287874140E+000, +3.25162257273E+001
+1.47534418023E+006, +1.13185314838E+000, +3.54798782697E+001
+1.60037546934E+006, +1.19640488817E+000, +3.84947209574E+001
+1.72540675845E+006, +1.28767447791E+000, +4.14221645826E+001
+1.85043804756E+006, +1.27056636406E+000, +4.44168629770E+001
+1.97546933667E+006, +1.24265988007E+000, +4.74394074426E+001
+2.10050062578E+006, +1.32823305503E+000, +5.03474577283E+001
+2.22553191489E+006, +1.31515254566E+000, +5.31966311823E+001
+2.35056320401E+006, +1.30934506681E+000, +5.63164143197E+001
+2.47559449312E+006, +1.32131315778E+000, +5.92493904022E+001
+2.60062578223E+006, +1.28314054481E+000, +6.23078167717E+001
+2.72565707134E+006, +1.25879166586E+000, +6.51825021671E+001
+2.85068836045E+006, +1.37044541143E+000, +6.81789564473E+001
+2.97571964956E+006, +1.38445739025E+000, +7.11781386565E+001
+3.10075093867E+006, +1.31859408106E+000, +7.42359598226E+001
+3.22578222778E+006, +1.40806722342E+000, +7.69551434397E+001
+3.35081351690E+006, +1.39093631711E+000, +8.02079985986E+001
+3.47584480601E+006, +1.51761438409E+000, +8.31091273480E+001
+3.60087609512E+006, +1.42327855230E+000, +8.60851628755E+001
+3.72590738423E+006, +1.59518991398E+000, +8.91602725078E+001
+3.85093867334E+006, +1.49699491628E+000, +9.21185162551E+001
+3.97596996245E+006, +1.52976275354E+000, +9.50880354081E+001
+4.10100125156E+006, +1.56202417959E+000, +9.82524641059E+001
+4.22603254068E+006, +1.53458570825E+000, +1.01033088218E+002
+4.35106382979E+006, +1.47866964683E+000, +1.04169957940E+002
+4.47609511890E+006, +1.59184161365E+000, +1.07263708476E+002
+4.60112640801E+006, +1.41082427776E+000, +1.10343768499E+002
+4.72615769712E+006, +1.39783995172E+000, +1.13297952277E+002
+4.85118898623E+006, +1.59043059576E+000, +1.16015614470E+002
+4.97622027534E+006, +1.52711178427E+000, +1.19126952144E+002
+5.10125156446E+006, +1.62245823428E+000, +1.22331305743E+002
+5.22628285357E+006, +1.39930559114E+000, +1.25484745085E+002
+5.35131414268E+006, +1.74702644058E+000, +1.28390822262E+002
+5.47634543179E+006, +1.61193172789E+000, +1.31374767701E+002
+5.60137672090E+006, +1.83970637739E+000, +1.34475167218E+002
+5.72640801001E+006, +1.45758321844E+000, +1.37889964152E+002
+5.85143929912E+006, +1.80100244374E+000, +1.40471730109E+002
+5.97647058824E+006, +1.81022561589E+000, +1.43692180105E+002
+6.10150187735E+006, +1.54643631745E+000, +1.47009286558E+002
+6.22653316646E+006, +1.73138122095E+000, +1.49827742454E+002
+6.35156445557E+006, +1.98411256462E+000, +1.52962201045E+002
+6.47659574468E+006, +1.90759216718E+000, +1.56071987845E+002
+6.60162703379E+006, +1.83696448057E+000, +1.59413858746E+002
+6.72665832290E+006, +1.93468174979E+000, +1.62349371903E+002
+6.85168961202E+006, +1.88189014481E+000, +1.65372351848E+002
+6.97672090113E+006, +2.01874985956E+000, +1.68259893793E+002
+7.10175219024E+006, +2.00147612750E+000, +1.71647855051E+002
+7.22678347935E+006, +2.08836093269E+000, +1.74663473277E+002
+7.35181476846E+006, +1.97315664690E+000, +1.77829894251E+002
+7.47684605757E+006, +2.12331601958E+000, +1.80853511991E+002
+7.60187734668E+006, +2.15815686135E+000, +1.84226835482E+002
+7.72690863579E+006, +1.91411165632E+000, +1.87367052871E+002
+7.85193992491E+006, +2.09126427337E+000, +1.90253704470E+002
+7.97697121402E+006, +2.02129093671E+000, +1.93442207094E+002
+8.10200250313E+006, +2.30128177480E+000, +1.96654029519E+002
+8.22703379224E+006, +2.10577234525E+000, +1.99819470007E+002
+8.35206508135E+006, +2.05529680379E+000, +2.03270590860E+002
+8.47709637046E+006, +2.19776224075E+000, +2.06413664899E+002
+8.60212765957E+006, +2.14367931875E+000, +2.09402716501E+002
+8.72715894869E+006, +2.24577980499E+000, +2.12851192767E+002
+8.85219023780E+006, +2.26548498133E+000, +2.15705836201E+002
+8.97722152691E+006, +2.37953507292E+000, +2.19051587823E+002
+9.10225281602E+006, +2.39170219440E+000, +2.22235788881E+002
+9.22728410513E+006, +2.28573137107E+000, +2.25412241099E+002
+9.35231539424E+006, +2.00346012199E+000, +2.28881141055E+002
+9.47734668335E+006, +2.25790506104E+000, +2.32150640888E+002
+9.60237797247E+006, +2.17668752702E+000, +2.35046169445E+002
+9.72740926158E+006, +2.35058561752E+000, +2.38520166604E+002
+9.85244055069E+006, +2.21113563239E+000, +2.41657956836E+002
+9.97747183980E+006, +2.46224773511E+000, +2.45094615038E+002
+1.01025031289E+007, +2.06608339146E+000, +2.47947922727E+002
+1.02275344180E+007, +1.84751955867E+000, +2.51729277891E+002
+1.03525657071E+007, +2.47439837138E+000, +2.54734925075E+002
+1.04775969962E+007, +2.12540016402E+000, +2.58214144148E+002
+1.06026282854E+007, +2.11879994188E+000, +2.61417780096E+002
+1.07276595745E+007, +1.84316719912E+000, +2.64814581826E+002
+1.08526908636E+007, +1.93608127069E+000, +2.68095436416E+002
+1.09777221527E+007, +2.22464259270E+000, +2.71175141033E+002
+1.11027534418E+007, +2.47615153435E+000, +2.74836181549E+002
+1.12277847309E+007, +1.85617938355E+000, +2.77682608989E+002
+1.13528160200E+007, +2.34868884370E+000, +2.81227452642E+002
+1.14778473091E+007, +1.87096464239E+000, +2.85436631766E+002
+1.16028785982E+007, +2.55601186379E+000, +2.88198376856E+002
+1.17279098874E+007, +2.13180707943E+000, +2.91954207213E+002
+1.18529411765E+007, +2.21905078708E+000, +2.95392760747E+002
+1.19779724656E+007, +2.48524631189E+000, +2.98948953499E+002
+1.21030037547E+007, +2.70779010907E+000, +3.01805086866E+002
+1.22280350438E+007, +1.77728707245E+000, +3.04891691974E+002
+1.23530663329E+007, +2.29053522977E+000, +3.09247954827E+002
+1.24780976220E+007, +2.44145963178E+000, +3.12501965515E+002
+1.26031289111E+007, +2.04367653647E+000, +3.15226561288E+002
+1.27281602003E+007, +1.84730099754E+000, +3.19566313519E+002
+1.28531914894E+007, +2.09452236308E+000, +3.22536613245E+002
+1.29782227785E+007, +2.46443965700E+000, +3.26244422651E+002
+1.31032540676E+007, +2.13184694454E+000, +3.30091714944E+002
+1.32282853567E+007, +2.04673877434E+000, +3.33867417458E+002
+1.33533166458E+007, +1.86512402245E+000, +3.36620366481E+002
+1.34783479349E+007, +2.02643518137E+000, +3.39963126150E+002
+1.36033792240E+007, +1.65521823461E+000, +3.43767280888E+002
+1.37284105131E+007, +1.91836868564E+000, +3.47591467802E+002
+1.38534418023E+007, +1.30955974842E+000, +3.50638861529E+002
+1.39784730914E+007, +1.90647627706E+000, +3.54912480207E+002
+1.41035043805E+007, +2.05259836694E+000, +3.58767066799E+002
+1.42285356696E+007, +1.64154324618E+000, +3.62134902061E+002
+1.43535669587E+007, +1.99733182506E+000, +3.65944196526E+002
+1.44785982478E+007, +1.61133752352E+000, +3.68866819951E+002
+1.46036295369E+007, +1.59254681480E+000, +3.72851405486E+002
+1.47286608260E+007, +1.45534876420E+000, +3.76686980847E+002
+1.48536921151E+007, +1.79856821685E+000, +3.80926081513E+002
+1.49787234043E+007, +1.33452968432E+000, +3.84639820088E+002
+1.51037546934E+007, +1.70764020680E+000, +3.88253003530E+002
+1.52287859825E+007, +1.63263329498E+000, +3.91374737642E+002
+1.53538172716E+007, +2.13161909065E+000, +3.95461860429E+002
+1.54788485607E+007, +1.95258054439E+000, +4.00024597498E+002
+1.56038798498E+007, +1.63552170032E+000, +4.02566142552E+002
+1.57289111389E+007, +8.77008795640E-001, +4.07302590547E+002
+1.58539424280E+007, +1.39329503246E+000, +4.11246972924E+002
+1.59789737171E+007, +1.43320682527E+000, +4.14806444962E+002
+1.61040050063E+007, +1.16980078960E+000, +4.19089132737E+002
+1.62290362954E+007, +1.47557767721E+000, +4.21827835638E+002
+1.63540675845E+007, +1.54690696362E+000, +4.25716166422E+002
+1.64790988736E+007, +1.58538109845E+000, +4.31177384152E+002
+1.66041301627E+007, +5.73935119770E-001, +4.34664980645E+002
+1.67291614518E+007, +3.09635904580E-001, +4.38854635129E+002
+1.68541927409E+007, +1.86018137043E+000, +4.42254046927E+002
+1.69792240300E+007, +2.07578796394E+000, +4.45717075320E+002
+1.71042553191E+007, -5.40910396536E-001, +4.49997527044E+002
+1.72292866083E+007, +1.65675042116E+000, +4.53692741215E+002
+1.73543178974E+007, +6.19231497927E-001, +4.58950371850E+002
+1.74793491865E+007, +1.91187023627E+000, +4.62075298393E+002
+1.76043804756E+007, +1.63206959405E+000, +4.66406405878E+002
+1.77294117647E+007, +1.91586515915E+000, +4.70990975885E+002
+1.78544430538E+007, +5.48373403726E-001, +4.74486002749E+002
+1.79794743429E+007, +1.96850857976E+000, +4.79165153681E+002
+1.81045056320E+007, +8.14706028026E-001, +4.83536384061E+002
+1.82295369212E+007, +1.12903363865E+000, +4.88186172043E+002
+1.83545682103E+007, +2.43664021856E+000, +4.92959895021E+002
+1.84795994994E+007, +9.87905954306E-001, +4.96847136424E+002
+1.86046307885E+007, +1.48603396945E+000, +5.01208427347E+002
+1.87296620776E+007, +2.37275691414E+000, +5.05989665680E+002
+1.88546933667E+007, +1.63508804075E+000, +5.09490431482E+002
+1.89797246558E+007, +9.38247026902E-001, +5.14184589304E+002
+1.91047559449E+007, +3.53715836699E+000, +5.19114418713E+002
+1.92297872340E+007, +1.03087893966E+000, +5.21158367918E+002
+1.93548185232E+007, +1.98433887292E+000, +5.26493386434E+002
+1.94798498123E+007, +4.27518844175E-001, +5.31861737877E+002
+1.96048811014E+007, +1.22472189558E+000, +5.34857252217E+002
+1.97299123905E+007, +1.58567332634E+000, +5.39089738964E+002
+1.98549436796E+007, +2.75341409831E+000, +5.43898486549E+002
+1.99799749687E+007, +2.52163456989E+000, +5.48207053162E+002
+2.01050062578E+007, +1.47424852010E+000, +5.53364097523E+002
+2.02300375469E+007, +1.37150985693E+000, +5.58821976793E+002
+2.03550688360E+007, +1.78917686351E+000, +5.63516826900E+002
+2.04801001252E+007, +2.58131386833E+000, +5.68084626774E+002
+2.06051314143E+007, +3.85016366415E-001, +5.72485774353E+002
+2.07301627034E+007, +4.23564554427E-001, +5.77545139361E+002
+2.08551939925E+007, +1.89449931994E+000, +5.82716941688E+002
+2.09802252816E+007, +8.19966496294E-001, +5.87660565320E+002
+2.11052565707E+007, +2.54224370236E+000, +5.90602446907E+002
+2.12302878598E+007, +2.26013563331E+000, +5.98174292875E+002
+2.13553191489E+007, +1.34756022437E+000, +6.01591599038E+002
+2.14803504380E+007, +1.04090859072E+000, +6.08002526658E+002
+2.16053817272E+007, +1.76293706838E+000, +6.13126778306E+002
+2.17304130163E+007, +3.95150504835E+000, +6.15879513462E+002
+2.18554443054E+007, +2.52664540705E+000, +6.20780218053E+002
+2.19804755945E+007, +3.18185780016E+000, +6.28170992068E+002
+2.21055068836E+007, +8.88126114334E-001, +6.32690258009E+002
+2.22305381727E+007, +2.43173884182E+000, +6.37343918174E+002
+2.23555694618E+007, +2.83360337405E+000, +6.41867682275E+002
+2.24806007509E+007, +5.14397536459E+000, +6.48355482993E+002
+2.26056320401E+007, +3.81278610261E+000, +6.55544136112E+002
+2.27306633292E+007, +4.12443923581E+000, +6.60225731456E+002
+2.28556946183E+007, +5.04781953154E+000, +6.62825433825E+002
+2.29807259074E+007, +6.95071092320E+000, +6.68330291500E+002
+2.31057571965E+007, +6.56432406743E+000, +6.76819267743E+002
+2.32307884856E+007, +6.03173231212E+000, +6.79571142522E+002
+2.33558197747E+007, +7.07123665693E+000, +6.86212573614E+002
+2.34808510638E+007, +6.36003448988E+000, +6.90151612326E+002
+2.36058823529E+007, +7.18048159435E+000, +6.95890601789E+002
+2.37309136421E+007, +5.70338235311E+000, +6.99173439180E+002
+2.38559449312E+007, +7.01800835534E+000, +7.04466722500E+002
+2.39809762203E+007, +8.25786180873E+000, +7.09216706356E+002
+2.41060075094E+007, +8.58109973855E+000, +7.14039740187E+002
+2.42310387985E+007, +5.90805714807E+000, +7.15675026955E+002
+2.43560700876E+007, +3.75396433855E+000, +7.27644886801E+002
+2.44811013767E+007, +6.61638602671E+000, +7.30410742448E+002
+2.46061326658E+007, +4.32575607868E+000, +7.37802541298E+002
+2.47311639549E+007, +6.42585317472E+000, +7.42571704972E+002
+2.48561952441E+007, +4.90402411458E+000, +7.47171100236E+002
+2.49812265332E+007, +6.59698074971E+000, +7.53052434801E+002
+2.51062578223E+007, +4.44746683521E+000, +7.58832309806E+002
+2.52312891114E+007, +7.68527278162E+000, +7.67092341392E+002
+2.53563204005E+007, +4.23987865146E+000, +7.73712233743E+002
+2.54813516896E+007, +6.87273595334E+000, +7.76896556148E+002
+2.56063829787E+007, +6.93886476679E+000, +7.88634396484E+002
+2.57314142678E+007, +6.84291447810E+000, +7.90750923545E+002
+2.58564455569E+007, +3.42299862368E+000, +7.94140894944E+002
+2.59814768461E+007, +1.95777594099E+000, +8.05361512809E+002
+2.61065081352E+007, -6.96992133198E-001, +8.11192054067E+002
+2.62315394243E+007, +3.58278507082E+000, +8.18597222894E+002
+2.63565707134E+007, +6.64321437061E+000, +8.23770019403E+002
+2.64816020025E+007, +4.52848302526E+000, +8.31845689111E+002
+2.66066332916E+007, +6.33386235307E+000, +8.34265244678E+002
+2.67316645807E+007, +2.79002067522E+000, +8.41734508445E+002
+2.68566958698E+007, +4.49737516690E+000, +8.47680244790E+002
+2.69817271589E+007, +5.02640687014E+000, +8.55769147348E+002
+2.71067584481E+007, +3.23900080202E+000, +8.63937994640E+002
+2.72317897372E+007, +6.34335414677E+000, +8.72396986657E+002
+2.73568210263E+007, +5.18467723421E+000, +8.78148613909E+002
+2.74818523154E+007, +6.63308306236E+000, +8.87744997450E+002
+2.76068836045E+007, +6.52765601948E+000, +8.88422638267E+002
+2.77319148936E+007, +5.99246195731E+000, +8.97654274412E+002
+2.78569461827E+007, +5.66604006648E+000, +9.04101595244E+002
+2.79819774718E+007, -1.07873592853E+000, +9.13918674016E+002
+2.81070087610E+007, +4.61390278052E+000, +9.18514461958E+002
+2.82320400501E+007, +5.18844409945E+000, +9.26108514436E+002
+2.83570713392E+007, +6.32072790234E+000, +9.32978693421E+002
+2.84821026283E+007, +1.34705227904E+000, +9.39046341961E+002
+2.86071339174E+007, -3.73047910729E+000, +9.47830486266E+002
+2.87321652065E+007, +7.98279961014E+000, +9.58654276700E+002
+2.88571964956E+007, +5.45551430326E-001, +9.61321312841E+002
+2.89822277847E+007, +4.68343750005E+000, +9.71895136017E+002
+2.91072590738E+007, -3.89916223379E-001, +9.84311900138E+002
+2.92322903630E+007, -2.14533908972E+000, +9.90910682309E+002
+2.93573216521E+007, +4.32321541054E+000, +1.00330857909E+003
+2.94823529412E+007, +7.40725159851E+000, +1.00067551405E+003
+2.96073842303E+007, +7.26116428682E+000, +1.00888600132E+003
+2.97324155194E+007, +2.04129272404E+000, +1.02644889534E+003
+2.98574468085E+007, +2.99359386033E+000, +1.03041425591E+003
+2.99824780976E+007, +4.01943343383E+000, +1.04298968911E+003
+3.01075093867E+007, +1.69490499770E+000, +1.04809342359E+003
+3.02325406758E+007, -3.34774333852E+000, +1.06212947751E+003
+3.03575719650E+007, -1.43051481237E+000, +1.06298449930E+003
+3.04826032541E+007, +8.10628929144E-001, +1.07888467122E+003
+3.06076345432E+007, -4.71102190942E+000, +1.08923794394E+003
+3.07326658323E+007, +9.04131220875E-001, +1.09711564610E+003
+3.08576971214E+007, -7.23855142430E+000, +1.11024111060E+003
+3.09827284105E+007, +6.73352954836E-001, +1.11442908603E+003
+3.11077596996E+007, +2.76513730026E+000, +1.13124600404E+003
+3.12327909887E+007, +2.01019147933E+000, +1.13247889784E+003
+3.13578222778E+007, +5.06805145063E+000, +1.14877484437E+003
+3.14828535670E+007, -1.80436073013E+000, +1.15600468530E+003
+3.16078848561E+007, +2.99675579557E+000, +1.16859752024E+003
+3.17329161452E+007, +3.26210615140E+000, +1.18015302323E+003
+3.18579474343E+007, +2.64698448290E+000, +1.18175665149E+003
+3.19829787234E+007, +4.34732502306E-001, +1.19020556884E+003
+3.21080100125E+007, +9.22871626110E+000, +1.20535881868E+003
+3.22330413016E+007, -3.13301772470E+000, +1.21836955558E+003
+3.23580725907E+007, +3.63723231624E+000, +1.22758618063E+003
+3.24831038798E+007, +5.27830818635E+000, +1.23873851139E+003
+3.26081351690E+007, +4.29871575024E+000, +1.25274514230E+003
+3.27331664581E+007, +6.07097982628E+000, +1.26504051932E+003
+3.28581977472E+007, -9.69915864314E-001, +1.27460770290E+003
+3.29832290363E+007, +3.06308382060E+000, +1.29084769567E+003
+3.31082603254E+007, +2.41479010044E+000, +1.30007660472E+003
+3.32332916145E+007, +5.18757349206E+000, +1.30927297420E+003
+3.33583229036E+007, -1.05318948307E+000, +1.32701506020E+003
+3.34833541927E+007, -4.61480254345E+000, +1.34033943402E+003
+3.36083854819E+007, -6.67681100379E+000, +1.35326028915E+003
+3.37334167710E+007, +6.93010389598E+000, +1.36876090089E+003
+3.38584480601E+007, -2.03791669835E+000, +1.37191645449E+003
+3.39834793492E+007, +4.55655175662E+000, +1.39796650546E+003
+3.41085106383E+007, +9.17928434516E+000, +1.40978840836E+003
+3.42335419274E+007, -4.32527027397E-002, +1.41823803724E+003
+3.43585732165E+007, +5.10702434465E+000, +1.43147969411E+003
+3.44836045056E+007, +1.14241516083E+000, +1.45188294956E+003
+3.46086357947E+007, -4.97743425254E+000, +1.45645350348E+003
+3.47336670839E+007, +4.69042650502E+000, +1.47713840796E+003
+3.48586983730E+007, +1.51191305698E+001, +1.48625133863E+003
+3.49837296621E+007, +3.02659449086E+000, +1.49626782236E+003
+3.51087609512E+007, +5.08484238447E+000, +1.51629544367E+003
+3.52337922403E+007, +7.37332578717E+000, +1.53710087813E+003
+3.53588235294E+007, +1.42393619047E+001, +1.55319881423E+003
+3.54838548185E+007, +1.95298906392E+001, +1.56979662659E+003
+3.56088861076E+007, +2.21414715708E+000, +1.58085921921E+003
+3.57339173967E+007, +7.55239261539E+000, +1.58852015449E+003
+3.58589486859E+007, +9.46914864292E+000, +1.62092729811E+003
+3.59839799750E+007, -2.91704322889E+000, +1.64104712861E+003
+3.61090112641E+007, +1.12047785269E+001, +1.64923424274E+003
+3.62340425532E+007, +5.65299212090E+000, +1.65913458429E+003
+3.63590738423E+007, +1.04200402602E+001, +1.68014780235E+003
+3.64841051314E+007, +7.29647095604E+000, +1.70117956197E+003
+3.66091364205E+007, +8.10471363429E+000, +1.70628230788E+003
+3.67341677096E+007, +1.94284992340E+001, +1.74192066756E+003
+3.68591989987E+007, +6.55655018671E+000, +1.74224403359E+003
+3.69842302879E+007, +1.65790146419E+001, +1.78890930113E+003
+3.71092615770E+007, -1.22986019004E+001, +1.80695112142E+003
+3.72342928661E+007, +2.61324611767E+000, +1.80515080901E+003
+3.73593241552E+007, -1.87982268478E+001, +1.83049504846E+003
+3.74843554443E+007, -1.41873450975E+000, +1.86204928099E+003
+3.76093867334E+007, +3.17004922155E+000, +1.88283577429E+003
+3.77344180225E+007, +1.21380023345E+000, +1.91121388756E+003
+3.78594493116E+007, +7.34968160665E+000, +1.93038136072E+003
+3.79844806008E+007, +8.31528925460E+000, +1.94829841064E+003
+3.81095118899E+007, +6.00755332887E+000, +1.98043980622E+003
+3.82345431790E+007, +5.17399798770E+000, +2.01295093416E+003
+3.83595744681E+007, -1.03825923211E+001, +2.02102100753E+003
+3.84846057572E+007, +7.06946926073E-002, +2.06962428678E+003
+3.86096370463E+007, -8.09121737825E+000, +2.07694149276E+003
+3.87346683354E+007, +1.08602206108E+001, +2.08353739643E+003
+3.88596996245E+007, -1.34576568764E+000, +2.12169488492E+003
+3.89847309136E+007, +2.04639186514E+001, +2.16338367376E+003
+3.91097622028E+007, +1.44758512581E+001, +2.18997950017E+003
+3.92347934919E+007, -1.03851289686E+001, +2.20250378792E+003
+3.93598247810E+007, +1.53486098869E+001, +2.25182444748E+003
+3.94848560701E+007, +7.42389763565E+000, +2.28111319867E+003
+3.96098873592E+007, +1.07675862985E+001, +2.32239959287E+003
+3.97349186483E+007, +1.96004963082E+001, +2.36299260307E+003
+3.98599499374E+007, +1.76059139415E+001, +2.38958904475E+003
+3.99849812265E+007, +6.85664601982E+000, +2.39584184820E+003
+4.01100125156E+007, +1.21642396672E+001, +2.46424640810E+003
