"# Channel 1"
"# Trace 1"
Frequency, Formatted Data, Formatted Data
+1.00000000000E+005, +7.49437954245E-001, +2.67042549699E+000
+2.25031289111E+005, +6.34381502738E-001, +6.31765544785E+000
+3.50062578223E+005, +6.88479822403E-001, +9.85626664396E+000
+4.75093867334E+005, +6.91309850536E-001, +1.33478698731E+001
+6.00125156446E+005, +7.29754409016E-001, +1.68754105959E+001
+7.25156445557E+005, +7.09360665242E-001, +2.03991140528E+001
+8.50187734668E+005, +8.17320578328E-001, +2.38625946493E+001
+9.75219023780E+005, +7.93480046514E-001, +2.74136205081E+001
+1.10025031289E+006, +8.99639732195E-001, +3.08363653458E+001
+1.22528160200E+006, +8.31721571450E-001, +3.42966225046E+001
+1.35031289111E+006, +9.17146909640E-001, +3.78329339245E+001
+1.47534418023E+006, +9.47774770498E-001, +4.12634577829E+001
+1.60037546934E+006, +9.83625504485E-001, +4.47442753922E+001
+1.72540675845E+006, +1.08883049586E+000, +4.82080195485E+001
+1.85043804756E+006, +1.06812355259E+000, +5.16827682103E+001
+1.97546933667E+006, +9.82779234995E-001, +5.51115819214E+001
+2.10050062578E+006, +1.04527961618E+000, +5.85758550212E+001
+2.22553191489E+006, +1.03996609892E+000, +6.20363565700E+001
+2.35056320401E+006, +9.83709037391E-001, +6.55620851454E+001
+2.47559449312E+006, +1.10856691183E+000, +6.90446857336E+001
+2.60062578223E+006, +1.08724837823E+000, +7.25009583593E+001
+2.72565707134E+006, +1.12330344274E+000, +7.58771594108E+001
+2.85068836045E+006, +1.21180076406E+000, +7.93460519693E+001
+2.97571964956E+006, +1.17993472755E+000, +8.27544072218E+001
+3.10075093867E+006, +1.16261509913E+000, +8.63708491215E+001
+3.22578222778E+006, +1.21453147836E+000, +8.97452979161E+001
+3.35081351690E+006, +1.30743097214E+000, +9.34101455691E+001
+3.47584480601E+006, +1.24346241549E+000, +9.67617708327E+001
+3.60087609512E+006, +1.32683584524E+000, +1.00259600390E+002
+3.72590738423E+006, +1.32639989698E+000, +1.03667661220E+002
+3.85093867334E+006, +1.24290695000E+000, +1.07094271759E+002
+3.97596996245E+006, +1.26982868794E+000, +1.10736176747E+002
+4.10100125156E+006, +1.44044309810E+000, +1.14221136794E+002
+4.22603254068E+006, +1.30406806191E+000, +1.17380765091E+002
+4.35106382979E+006, +1.31256042553E+000, +1.20968491023E+002
+4.47609511890E+006, +1.37873083431E+000, +1.24543854519E+002
+4.60112640801E+006, +1.43330372681E+000, +1.27964116981E+002
+4.72615769712E+006, +1.29101574626E+000, +1.31382514977E+002
+4.85118898623E+006, +1.19979423444E+000, +1.34891739128E+002
+4.97622027534E+006, +1.42246718699E+000, +1.38505152008E+002
+5.10125156446E+006, +1.36037511897E+000, +1.41804616374E+002
+5.22628285357E+006, +1.49760358027E+000, +1.45185815769E+002
+5.35131414268E+006, +1.50145132166E+000, +1.48850605924E+002
+5.47634543179E+006, +1.61615569300E+000, +1.52354920344E+002
+5.60137672090E+006, +1.56038528744E+000, +1.55687331249E+002
+5.72640801001E+006, +1.58225115041E+000, +1.59200596754E+002
+5.85143929912E+006, +1.53722978314E+000, +1.62827874539E+002
+5.97647058824E+006, +1.76503597766E+000, +1.66239472963E+002
+6.10150187735E+006, +1.81653315328E+000, +1.69736693575E+002
+6.22653316646E+006, +1.77962250953E+000, +1.73058958570E+002
+6.35156445557E+006, +1.59009487953E+000, +1.76677166400E+002
+6.47659574468E+006, +1.71486767674E+000, +1.80206972095E+002
+6.60162703379E+006, +1.68119859123E+000, +1.83724410483E+002
+6.72665832290E+006, +1.65396268983E+000, +1.87134118197E+002
+6.85168961202E+006, +1.82845799636E+000, +1.90751415181E+002
+6.97672090113E+006, +1.68655756130E+000, +1.94182983185E+002
+7.10175219024E+006, +1.74780946040E+000, +1.97697517574E+002
+7.22678347935E+006, +1.92918863508E+000, +2.01271012531E+002
+7.35181476846E+006, +1.76492652684E+000, +2.04711205263E+002
+7.47684605757E+006, +1.95737405267E+000, +2.08276588606E+002
+7.60187734668E+006, +1.77078698533E+000, +2.11760165409E+002
+7.72690863579E+006, +1.80849117973E+000, +2.15146017235E+002
+7.85193992491E+006, +1.91367239281E+000, +2.18923211297E+002
+7.97697121402E+006, +2.06609454466E+000, +2.22345835137E+002
+8.10200250313E+006, +1.90763720167E+000, +2.25776396796E+002
+8.22703379224E+006, +1.78471282594E+000, +2.29382825413E+002
+8.35206508135E+006, +1.83188429780E+000, +2.33148044693E+002
+8.47709637046E+006, +1.82105958275E+000, +2.36550501249E+002
+8.60212765957E+006, +1.86734206996E+000, +2.39953991021E+002
+8.72715894869E+006, +1.71169276309E+000, +2.43385384532E+002
+8.85219023780E+006, +1.95016357030E+000, +2.47151049655E+002
+8.97722152691E+006, +1.89506987216E+000, +2.50616082939E+002
+9.10225281602E+006, +1.94773024131E+000, +2.54178949434E+002
+9.22728410513E+006, +1.94276218421E+000, +2.57729110169E+002
+9.35231539424E+006, +1.75703273125E+000, +2.61550723668E+002
+9.47734668335E+006, +2.09721957995E+000, +2.64771682966E+002
+9.60237797247E+006, +2.23232065938E+000, +2.68573999574E+002
+9.72740926158E+006, +2.06058439028E+000, +2.71882360788E+002
+9.85244055069E+006, +1.98622314753E+000, +2.75513350655E+002
+9.97747183980E+006, +1.92847029157E+000, +2.79073427501E+002
+1.01025031289E+007, +2.04155084069E+000, +2.82587106498E+002
+1.02275344180E+007, +2.06205219462E+000, +2.86069516258E+002
+1.03525657071E+007, +2.09673498253E+000, +2.89663751833E+002
+1.04775969962E+007, +1.91502208981E+000, +2.93410048408E+002
+1.06026282854E+007, +1.83796967617E+000, +2.97117759181E+002
+1.07276595745E+007, +1.83569018182E+000, +3.00748496108E+002
+1.08526908636E+007, +1.89068012537E+000, +3.04164748715E+002
+1.09777221527E+007, +1.97312011979E+000, +3.07764880921E+002
+1.11027534418E+007, +1.86977762137E+000, +3.11152343905E+002
+1.12277847309E+007, +1.91483066735E+000, +3.14906949334E+002
+1.13528160200E+007, +1.88771254248E+000, +3.18650166053E+002
+1.14778473091E+007, +2.13942266162E+000, +3.22001180185E+002
+1.16028785982E+007, +1.81516448611E+000, +3.25820672262E+002
+1.17279098874E+007, +1.82529788382E+000, +3.29330040653E+002
+1.18529411765E+007, +1.83545163498E+000, +3.32920608675E+002
+1.19779724656E+007, +1.71141892347E+000, +3.36664704836E+002
+1.21030037547E+007, +2.05648021384E+000, +3.40241416662E+002
+1.22280350438E+007, +1.86984115119E+000, +3.43637095515E+002
+1.23530663329E+007, +2.03989121030E+000, +3.47351958459E+002
+1.24780976220E+007, +1.89498231975E+000, +3.51296699152E+002
+1.26031289111E+007, +1.63840441029E+000, +3.54874842653E+002
+1.27281602003E+007, +1.66258103671E+000, +3.58201233529E+002
+1.28531914894E+007, +1.88809699159E+000, +3.62035512847E+002
+1.29782227785E+007, +2.12771626156E+000, +3.65774463177E+002
+1.31032540676E+007, +1.71897130067E+000, +3.69314803555E+002
+1.32282853567E+007, +1.64945972298E+000, +3.73054204246E+002
+1.33533166458E+007, +1.70314386338E+000, +3.77065736723E+002
+1.34783479349E+007, +1.83860951902E+000, +3.80451957449E+002
+1.36033792240E+007, +1.70312374047E+000, +3.83847610322E+002
+1.37284105131E+007, +1.78354577343E+000, +3.87731730740E+002
+1.38534418023E+007, +1.67173021176E+000, +3.91582367228E+002
+1.39784730914E+007, +1.56295326488E+000, +3.95171820852E+002
+1.41035043805E+007, +1.63954320134E+000, +3.98642926042E+002
+1.42285356696E+007, +1.73028214603E+000, +4.02624121788E+002
+1.43535669587E+007, +1.69184586094E+000, +4.06179299108E+002
+1.44785982478E+007, +1.78853622133E+000, +4.09935044623E+002
+1.46036295369E+007, +1.72521471425E+000, +4.13816621107E+002
+1.47286608260E+007, +1.56575033043E+000, +4.17046379391E+002
+1.48536921151E+007, +1.45235552876E+000, +4.21694136861E+002
+1.49787234043E+007, +1.81535332224E+000, +4.24606258000E+002
+1.51037546934E+007, +1.58658850034E+000, +4.28861251219E+002
+1.52287859825E+007, +1.90985587103E+000, +4.32332746759E+002
+1.53538172716E+007, +1.67991175653E+000, +4.35938107414E+002
+1.54788485607E+007, +1.49964767024E+000, +4.39646317538E+002
+1.56038798498E+007, +1.69585017349E+000, +4.43496987882E+002
+1.57289111389E+007, +1.16802171418E+000, +4.47456974402E+002
+1.58539424280E+007, +1.88752031452E+000, +4.50823551069E+002
+1.59789737171E+007, +1.66591368044E+000, +4.54796260556E+002
+1.61040050063E+007, +1.70547720375E+000, +4.58478434320E+002
+1.62290362954E+007, +1.22536942807E+000, +4.62378678322E+002
+1.63540675845E+007, +1.73776833735E+000, +4.65679362961E+002
+1.64790988736E+007, +1.49482806998E+000, +4.69832530249E+002
+1.66041301627E+007, +1.44175198717E+000, +4.73854339374E+002
+1.67291614518E+007, +1.44176680676E+000, +4.77300833224E+002
+1.68541927409E+007, +1.22335664153E+000, +4.81358275420E+002
+1.69792240300E+007, +1.15914175435E+000, +4.85048514074E+002
+1.71042553191E+007, +1.77629244302E-001, +4.89277695965E+002
+1.72292866083E+007, +5.15841175250E-001, +4.92962401290E+002
+1.73543178974E+007, +5.24502984980E-001, +4.96509985928E+002
+1.74793491865E+007, +7.91596223892E-001, +5.00325028379E+002
+1.76043804756E+007, +7.49021477288E-001, +5.04717456805E+002
+1.77294117647E+007, +9.38606320705E-001, +5.08180153821E+002
+1.78544430538E+007, +1.35019793329E+000, +5.12100327517E+002
+1.79794743429E+007, +1.13894981305E+000, +5.16074372556E+002
+1.81045056320E+007, +1.20713280882E+000, +5.19792091724E+002
+1.82295369212E+007, +6.80850885581E-001, +5.24277990721E+002
+1.83545682103E+007, +6.72338471951E-001, +5.28131033045E+002
+1.84795994994E+007, +1.19980929737E+000, +5.31145370226E+002
+1.86046307885E+007, +9.50831793561E-001, +5.35120973425E+002
+1.87296620776E+007, +9.67766431069E-001, +5.39426613565E+002
+1.88546933667E+007, +8.43948385843E-001, +5.43420747806E+002
+1.89797246558E+007, +1.32482171744E+000, +5.46958709823E+002
+1.91047559449E+007, +1.36271226519E+000, +5.50561790583E+002
+1.92297872340E+007, +2.45818687625E-001, +5.54421979289E+002
+1.93548185232E+007, +1.85328833716E+000, +5.58099067157E+002
+1.94798498123E+007, +1.03527624310E+000, +5.62675656210E+002
+1.96048811014E+007, +1.03386624253E+000, +5.66282106237E+002
+1.97299123905E+007, +1.28159779367E+000, +5.70292108517E+002
+1.98549436796E+007, +9.52703157778E-001, +5.74836059151E+002
+1.99799749687E+007, +5.29625167382E-001, +5.78583472959E+002
+2.01050062578E+007, +9.74247176860E-001, +5.81937701491E+002
+2.02300375469E+007, +1.18517086707E+000, +5.86002761598E+002
+2.03550688360E+007, +7.08443810627E-001, +5.90483859039E+002
+2.04801001252E+007, +1.21801337267E+000, +5.94625482966E+002
+2.06051314143E+007, +6.90078827153E-001, +5.98834340873E+002
+2.07301627034E+007, +4.53755767519E-001, +6.02098160894E+002
+2.08551939925E+007, +7.75427521525E-002, +6.06237631873E+002
+2.09802252816E+007, +9.54307723635E-001, +6.11454954638E+002
+2.11052565707E+007, +6.56981138575E-001, +6.14610162295E+002
+2.12302878598E+007, +1.47949759989E-001, +6.18829203013E+002
+2.13553191489E+007, +9.81301095483E-001, +6.22055753632E+002
+2.14803504380E+007, +3.62543815366E-001, +6.27119700798E+002
+2.16053817272E+007, +7.92161007374E-001, +6.30616918663E+002
+2.17304130163E+007, +2.64601769448E-001, +6.34852361278E+002
+2.18554443054E+007, +9.62608827543E-001, +6.38268959573E+002
+2.19804755945E+007, +1.66639066955E-001, +6.42618711592E+002
+2.21055068836E+007, +1.68371687577E+000, +6.46806392777E+002
+2.22305381727E+007, +9.82690984486E-001, +6.51203767996E+002
+2.23555694618E+007, +9.02397356700E-001, +6.54763217949E+002
+2.24806007509E+007, +6.25510887550E-001, +6.59431936543E+002
+2.26056320401E+007, +2.44275510655E-001, +6.63602348539E+002
+2.27306633292E+007, +6.37629545467E-002, +6.67133311341E+002
+2.28556946183E+007, +5.13574290295E-001, +6.72369022970E+002
+2.29807259074E+007, +5.46245174326E-001, +6.75454270411E+002
+2.31057571965E+007, +1.12375246323E+000, +6.79754760951E+002
+2.32307884856E+007, -3.87860836097E-001, +6.84481164329E+002
+2.33558197747E+007, +4.43372203925E-002, +6.87956884129E+002
+2.34808510638E+007, +8.30413971370E-001, +6.93056976990E+002
+2.36058823529E+007, +8.73084625322E-002, +6.97631151571E+002
+2.37309136421E+007, +8.66356165469E-001, +7.00846097696E+002
+2.38559449312E+007, -2.15682410380E-001, +7.05184769549E+002
+2.39809762203E+007, -3.59903289715E-001, +7.10041316144E+002
+2.41060075094E+007, +8.32905150344E-001, +7.14012049212E+002
+2.42310387985E+007, +1.11148070378E+000, +7.18519539927E+002
+2.43560700876E+007, +3.24443187772E-001, +7.22263813427E+002
+2.44811013767E+007, +4.18028463403E-001, +7.27303826345E+002
+2.46061326658E+007, +4.76448046519E-001, +7.30900626104E+002
+2.47311639549E+007, +1.89458133799E-001, +7.35342166386E+002
+2.48561952441E+007, -2.37662295273E-002, +7.40009392991E+002
+2.49812265332E+007, +1.06989198798E+000, +7.43938097927E+002
+2.51062578223E+007, +3.58061677162E-001, +7.47692768861E+002
+2.52312891114E+007, +1.84954827460E-001, +7.52719239131E+002
+2.53563204005E+007, +4.74174327436E-001, +7.56169328306E+002
+2.54813516896E+007, +2.53014521648E-001, +7.60126820301E+002
+2.56063829787E+007, -3.67389884469E-001, +7.65902880298E+002
+2.57314142678E+007, +2.76979254372E-001, +7.70250126912E+002
+2.58564455569E+007, +2.28497117035E-001, +7.73704201766E+002
+2.59814768461E+007, -6.61090263722E-001, +7.78239296427E+002
+2.61065081352E+007, -2.15864927088E-001, +7.81735703071E+002
+2.62315394243E+007, -1.24220488241E-001, +7.88294751829E+002
+2.63565707134E+007, -4.91513799400E-001, +7.91780978681E+002
+2.64816020025E+007, -1.14000168615E+000, +7.95748512334E+002
+2.66066332916E+007, -2.46410179802E-001, +8.00571634358E+002
+2.67316645807E+007, +6.04272770043E-001, +8.04348572059E+002
+2.68566958698E+007, +2.64436941234E-001, +8.08559118918E+002
+2.69817271589E+007, +4.54439423334E-001, +8.14659151935E+002
+2.71067584481E+007, +3.25403857383E-001, +8.17786416648E+002
+2.72317897372E+007, -1.34426845169E-002, +8.22010071920E+002
+2.73568210263E+007, +1.43698468467E+000, +8.27880831005E+002
+2.74818523154E+007, -1.64148102431E+000, +8.31979113428E+002
+2.76068836045E+007, -8.32879343482E-001, +8.36265705559E+002
+2.77319148936E+007, -7.33572041175E-001, +8.39511603791E+002
+2.78569461827E+007, -1.14762859999E+000, +8.45687570973E+002
+2.79819774718E+007, +1.98332933133E-001, +8.48337160003E+002
+2.81070087610E+007, +1.74455530681E+000, +8.54573718641E+002
+2.82320400501E+007, -1.37427197199E-001, +8.58233194909E+002
+2.83570713392E+007, -1.03238167543E+000, +8.63111704904E+002
+2.84821026283E+007, -3.89061761738E-001, +8.68688437759E+002
+2.86071339174E+007, +5.94589112774E-001, +8.72744861881E+002
+2.87321652065E+007, -2.00581349571E-001, +8.78346220965E+002
+2.88571964956E+007, -3.42906532721E-002, +8.81967920232E+002
+2.89822277847E+007, -9.34948149780E-002, +8.88677403352E+002
+2.91072590738E+007, -1.10218631664E+000, +8.91041248699E+002
+2.92322903630E+007, -2.89564715752E+000, +8.97358714907E+002
+2.93573216521E+007, -5.49476327847E-001, +9.00698233240E+002
+2.94823529412E+007, +6.18674147953E-001, +9.07137074701E+002
+2.96073842303E+007, -7.78171674063E-001, +9.10651747995E+002
+2.97324155194E+007, -2.02699877615E+000, +9.14060520174E+002
+2.98574468085E+007, -1.92143318624E+000, +9.18573715043E+002
+2.99824780976E+007, -1.44041290761E-001, +9.23782342070E+002
+3.01075093867E+007, -1.22947473931E+000, +9.29936153058E+002
+3.02325406758E+007, +1.24853613146E+000, +9.34980354096E+002
+3.03575719650E+007, -1.76759299122E+000, +9.39000802052E+002
+3.04826032541E+007, -3.17032494485E+000, +9.42733107507E+002
+3.06076345432E+007, -1.21298887749E+000, +9.46831675779E+002
+3.07326658323E+007, -3.87174471436E-001, +9.53948829628E+002
+3.08576971214E+007, -1.57249245522E+000, +9.58267157811E+002
+3.09827284105E+007, +6.11040100712E-001, +9.61905890525E+002
+3.11077596996E+007, -6.61110665044E-001, +9.68051649351E+002
+3.12327909887E+007, -1.71436744395E+000, +9.72332682205E+002
+3.13578222778E+007, -1.75774557541E+000, +9.77049345708E+002
+3.14828535670E+007, -2.59472142388E+000, +9.83113784374E+002
+3.16078848561E+007, -3.07005570814E+000, +9.88813204761E+002
+3.17329161452E+007, +2.48879992074E-001, +9.92048584725E+002
+3.18579474343E+007, -3.73813042190E+000, +9.96056594738E+002
+3.19829787234E+007, -4.75010020581E-001, +1.00316750580E+003
+3.21080100125E+007, -3.75681855613E+000, +1.00662811048E+003
+3.22330413016E+007, -3.39403064810E+000, +1.01268475723E+003
+3.23580725907E+007, -9.92957890681E-001, +1.01930453814E+003
+3.24831038798E+007, -2.77430351937E+000, +1.02230853409E+003
+3.26081351690E+007, -3.20511800025E+000, +1.02885103703E+003
+3.27331664581E+007, -2.97273630973E+000, +1.03183585466E+003
+3.28581977472E+007, -4.11908185449E+000, +1.03809863397E+003
+3.29832290363E+007, -4.34955195144E+000, +1.04381324076E+003
+3.31082603254E+007, -2.84063181302E+000, +1.04791330385E+003
+3.32332916145E+007, -1.44991822048E+000, +1.05474821164E+003
+3.33583229036E+007, -1.82119593345E+000, +1.05927456692E+003
+3.34833541927E+007, -2.90895924362E+000, +1.06432563418E+003
+3.36083854819E+007, -2.83113460601E+000, +1.06976584733E+003
+3.37334167710E+007, -4.07952531802E+000, +1.07572725660E+003
+3.38584480601E+007, -4.75427946827E+000, +1.07778871971E+003
+3.39834793492E+007, -4.29106827759E+000, +1.08425848528E+003
+3.41085106383E+007, -5.38250334668E+000, +1.09008748494E+003
+3.42335419274E+007, -2.24728175627E+000, +1.09467910540E+003
+3.43585732165E+007, -5.34089813060E+000, +1.09888477023E+003
+3.44836045056E+007, -5.87784605023E+000, +1.10573254084E+003
+3.46086357947E+007, -5.03683472579E+000, +1.11150035855E+003
+3.47336670839E+007, -4.36628899198E+000, +1.11592277815E+003
+3.48586983730E+007, -4.13237663197E+000, +1.12321173147E+003
+3.49837296621E+007, -5.77739462616E+000, +1.12678864991E+003
+3.51087609512E+007, -5.53766749580E+000, +1.13426784903E+003
+3.52337922403E+007, -2.93127352605E+000, +1.13789083008E+003
+3.53588235294E+007, -6.50395042233E+000, +1.14319616675E+003
+3.54838548185E+007, -2.89922164826E+000, +1.14912295960E+003
+3.56088861076E+007, -2.23146256163E+000, +1.15694930024E+003
+3.57339173967E+007, -4.61040066562E+000, +1.15721574580E+003
+3.58589486859E+007, -5.23235990511E+000, +1.16758470725E+003
+3.59839799750E+007, -4.82410663425E+000, +1.17359401467E+003
+3.61090112641E+007, -4.17732066404E+000, +1.17809565946E+003
+3.62340425532E+007, -6.80588719861E+000, +1.18281516794E+003
+3.63590738423E+007, -4.37117565162E+000, +1.19044198248E+003
+3.64841051314E+007, -7.56464127600E+000, +1.19230355878E+003
+3.66091364205E+007, -2.85665454069E+000, +1.19805877776E+003
+3.67341677096E+007, -3.51147474840E+000, +1.20532814765E+003
+3.68591989987E+007, -3.67420791680E+000, +1.21087634273E+003
+3.69842302879E+007, -4.44559631542E+000, +1.21471431886E+003
+3.71092615770E+007, -6.97858472996E+000, +1.22244722490E+003
+3.72342928661E+007, -3.12329685265E+000, +1.22511727698E+003
+3.73593241552E+007, -6.40340032668E+000, +1.23609234437E+003
+3.74843554443E+007, -7.82323878656E+000, +1.23903339081E+003
+3.76093867334E+007, -6.51095657283E+000, +1.24586683589E+003
+3.77344180225E+007, -6.18822077633E+000, +1.24904183342E+003
+3.78594493116E+007, -5.21761851649E+000, +1.25820263666E+003
+3.79844806008E+007, -4.09540044795E+000, +1.26159039291E+003
+3.81095118899E+007, -4.18373226993E+000, +1.26960340895E+003
+3.82345431790E+007, -6.54473380422E+000, +1.27415369299E+003
+3.83595744681E+007, -3.51115051909E+000, +1.27995158071E+003
+3.84846057572E+007, -8.44614797915E+000, +1.28809376463E+003
+3.86096370463E+007, -7.13584931677E+000, +1.29460813832E+003
+3.87346683354E+007, -6.15438791824E+000, +1.29822043766E+003
+3.88596996245E+007, -9.23333997026E+000, +1.30783261424E+003
+3.89847309136E+007, -9.23833592366E+000, +1.31397059969E+003
+3.91097622028E+007, -5.85523587988E+000, +1.31852051668E+003
+3.92347934919E+007, -6.08749383608E+000, +1.32374297486E+003
+3.93598247810E+007, -9.81795349538E+000, +1.33119855565E+003
+3.94848560701E+007, -4.80847649164E+000, +1.33599848144E+003
+3.96098873592E+007, -6.05721240418E+000, +1.34349933374E+003
+3.97349186483E+007, -9.08306392902E+000, +1.35086406363E+003
+3.98599499374E+007, -9.44745215779E+000, +1.35379790035E+003
+3.99849812265E+007, -7.14439277100E+000, +1.36294050754E+003
+4.01100125156E+007, -7.35346953546E+000, +1.37048918912E+003
