"# Channel 1"
"# Trace 1"
Frequency, Formatted Data, Formatted Data
+1.00000000000E+005, +8.48688162359E-001, +2.59809515496E+000
+2.25031289111E+005, +8.50836731347E-001, +5.81688737342E+000
+3.50062578223E+005, +8.61862635684E-001, +9.04692546743E+000
+4.75093867334E+005, +8.74319882998E-001, +1.23028610953E+001
+6.00125156446E+005, +8.93728037817E-001, +1.55223919102E+001
+7.25156445557E+005, +9.22760992088E-001, +1.87281095633E+001
+8.50187734668E+005, +1.02249986663E+000, +2.19316943909E+001
+9.75219023780E+005, +1.00837391546E+000, +2.51243606396E+001
+1.10025031289E+006, +1.06252611910E+000, +2.82901546605E+001
+1.22528160200E+006, +1.12490154865E+000, +3.15341973050E+001
+1.35031289111E+006, +1.12666989749E+000, +3.47482897664E+001
+1.47534418023E+006, +1.21076925775E+000, +3.78741634049E+001
+1.60037546934E+006, +1.14313296048E+000, +4.10394930621E+001
+1.72540675845E+006, +1.24434490748E+000, +4.42314520955E+001
+1.85043804756E+006, +1.29244901143E+000, +4.73658024496E+001
+1.97546933667E+006, +1.23404144711E+000, +5.05742066220E+001
+2.10050062578E+006, +1.30326745702E+000, +5.37331862346E+001
+2.22553191489E+006, +1.28925552516E+000, +5.70240657674E+001
+2.35056320401E+006, +1.25399238664E+000, +6.01801447895E+001
+2.47559449312E+006, +1.32021937079E+000, +6.32489712889E+001
+2.60062578223E+006, +1.38105779628E+000, +6.63740781555E+001
+2.72565707134E+006, +1.39200437529E+000, +6.95959762054E+001
+2.85068836045E+006, +1.34379282968E+000, +7.28581294589E+001
+2.97571964956E+006, +1.40109031527E+000, +7.60716709894E+001
+3.10075093867E+006, +1.37485221975E+000, +7.94171955796E+001
+3.22578222778E+006, +1.43405034477E+000, +8.23629697468E+001
+3.35081351690E+006, +1.53927254075E+000, +8.56431844631E+001
+3.47584480601E+006, +1.55931137307E+000, +8.87041042625E+001
+3.60087609512E+006, +1.58375537378E+000, +9.18958969938E+001
+3.72590738423E+006, +1.47758666092E+000, +9.53571185927E+001
+3.85093867334E+006, +1.56733631265E+000, +9.83274875447E+001
+3.97596996245E+006, +1.57874204071E+000, +1.01668150612E+002
+4.10100125156E+006, +1.51950985853E+000, +1.05026976862E+002
+4.22603254068E+006, +1.61817863339E+000, +1.07915029423E+002
+4.35106382979E+006, +1.56351389989E+000, +1.11370870626E+002
+4.47609511890E+006, +1.65877955588E+000, +1.14391774125E+002
+4.60112640801E+006, +1.46104926741E+000, +1.17911554474E+002
+4.72615769712E+006, +1.48376534806E+000, +1.20975577867E+002
+4.85118898623E+006, +1.54587643588E+000, +1.24270752863E+002
+4.97622027534E+006, +1.47003031210E+000, +1.27460537931E+002
+5.10125156446E+006, +1.47561951457E+000, +1.30554682428E+002
+5.22628285357E+006, +1.71845909157E+000, +1.33801956365E+002
+5.35131414268E+006, +1.59830445926E+000, +1.37079889276E+002
+5.47634543179E+006, +1.57315523698E+000, +1.40420594574E+002
+5.60137672090E+006, +1.71061251254E+000, +1.44010991245E+002
+5.72640801001E+006, +1.62608555709E+000, +1.47001752166E+002
+5.85143929912E+006, +1.88832304748E+000, +1.50554942221E+002
+5.97647058824E+006, +1.64883434260E+000, +1.53455026116E+002
+6.10150187735E+006, +1.62865280720E+000, +1.57069216399E+002
+6.22653316646E+006, +1.92876862603E+000, +1.60054482401E+002
+6.35156445557E+006, +1.87141891547E+000, +1.63564678948E+002
+6.47659574468E+006, +2.09698400104E+000, +1.66961102919E+002
+6.60162703379E+006, +1.73296327565E+000, +1.70217331220E+002
+6.72665832290E+006, +2.04112878419E+000, +1.73427824530E+002
+6.85168961202E+006, +1.97806241234E+000, +1.76987337314E+002
+6.97672090113E+006, +1.86440181507E+000, +1.80155085955E+002
+7.10175219024E+006, +2.06896575515E+000, +1.83425576307E+002
+7.22678347935E+006, +2.05653134682E+000, +1.86907570607E+002
+7.35181476846E+006, +2.16062215757E+000, +1.90160597143E+002
+7.47684605757E+006, +2.01368810872E+000, +1.93546430947E+002
+7.60187734668E+006, +2.08381324926E+000, +1.96941887812E+002
+7.72690863579E+006, +2.25678769510E+000, +2.00099932648E+002
+7.85193992491E+006, +2.28499605666E+000, +2.03742976411E+002
+7.97697121402E+006, +2.32454352067E+000, +2.07157469012E+002
+8.10200250313E+006, +2.24248832502E+000, +2.10270415873E+002
+8.22703379224E+006, +2.21812451237E+000, +2.13963485286E+002
+8.35206508135E+006, +2.06849870493E+000, +2.17251582905E+002
+8.47709637046E+006, +2.14864270371E+000, +2.20364544661E+002
+8.60212765957E+006, +2.16875206240E+000, +2.24134245169E+002
+8.72715894869E+006, +2.31039493522E+000, +2.27799501920E+002
+8.85219023780E+006, +2.40217141819E+000, +2.31172920813E+002
+8.97722152691E+006, +2.34802747274E+000, +2.34551193029E+002
+9.10225281602E+006, +2.21923043776E+000, +2.38073913349E+002
+9.22728410513E+006, +2.28788869310E+000, +2.41587411702E+002
+9.35231539424E+006, +2.27939000365E+000, +2.45187447277E+002
+9.47734668335E+006, +2.19925092300E+000, +2.48122849586E+002
+9.60237797247E+006, +2.07071886783E+000, +2.52005141145E+002
+9.72740926158E+006, +2.26905812149E+000, +2.55614995644E+002
+9.85244055069E+006, +2.63724294540E+000, +2.58815090600E+002
+9.97747183980E+006, +2.08177482899E+000, +2.62466803998E+002
+1.01025031289E+007, +2.03492767806E+000, +2.65564664272E+002
+1.02275344180E+007, +2.51431562321E+000, +2.69369107567E+002
+1.03525657071E+007, +2.02913719875E+000, +2.73304700269E+002
+1.04775969962E+007, +2.32139517162E+000, +2.76545444927E+002
+1.06026282854E+007, +2.21411194826E+000, +2.80325963120E+002
+1.07276595745E+007, +2.11526175416E+000, +2.83936386927E+002
+1.08526908636E+007, +2.18699451668E+000, +2.87387045977E+002
+1.09777221527E+007, +2.25262879075E+000, +2.91191166942E+002
+1.11027534418E+007, +2.30467366248E+000, +2.94651016731E+002
+1.12277847309E+007, +2.25605952479E+000, +2.98405555540E+002
+1.13528160200E+007, +1.76789952407E+000, +3.01994443911E+002
+1.14778473091E+007, +2.49083632167E+000, +3.05732722686E+002
+1.16028785982E+007, +1.48215781808E+000, +3.09395716712E+002
+1.17279098874E+007, +2.04758446382E+000, +3.13009940363E+002
+1.18529411765E+007, +1.65917136561E+000, +3.16393270186E+002
+1.19779724656E+007, +1.64835853246E+000, +3.20230725494E+002
+1.21030037547E+007, +2.60290087892E+000, +3.24140184963E+002
+1.22280350438E+007, +1.91750759240E+000, +3.27784521471E+002
+1.23530663329E+007, +1.94801680229E+000, +3.32293841044E+002
+1.24780976220E+007, +1.85886118037E+000, +3.35657034157E+002
+1.26031289111E+007, +1.37419977764E+000, +3.39392407723E+002
+1.27281602003E+007, +2.53902867712E+000, +3.42504061750E+002
+1.28531914894E+007, +2.07605385935E+000, +3.46884710265E+002
+1.29782227785E+007, +1.70365264580E+000, +3.50201376472E+002
+1.31032540676E+007, +1.98369212834E+000, +3.54674035546E+002
+1.32282853567E+007, +2.10070408861E+000, +3.58844774829E+002
+1.33533166458E+007, +1.94532355139E+000, +3.61968502054E+002
+1.34783479349E+007, +1.86452034355E+000, +3.66464100669E+002
+1.36033792240E+007, +2.05620678411E+000, +3.70304768613E+002
+1.37284105131E+007, +1.59942576864E+000, +3.74403700451E+002
+1.38534418023E+007, +2.42795446335E+000, +3.77556280159E+002
+1.39784730914E+007, +1.83282628642E+000, +3.81493746589E+002
+1.41035043805E+007, +1.50161989927E+000, +3.85861613972E+002
+1.42285356696E+007, +2.04825936091E+000, +3.89981727593E+002
+1.43535669587E+007, +1.86553743728E+000, +3.93712144501E+002
+1.44785982478E+007, +1.05202887580E+000, +3.98024343155E+002
+1.46036295369E+007, +1.68200861604E+000, +4.01581456466E+002
+1.47286608260E+007, +1.08066729725E+000, +4.06582190509E+002
+1.48536921151E+007, +1.61143760146E+000, +4.09495887854E+002
+1.49787234043E+007, +1.59640506448E+000, +4.14047824087E+002
+1.51037546934E+007, +1.36101731753E+000, +4.17659928560E+002
+1.52287859825E+007, +1.82285489876E+000, +4.22270849653E+002
+1.53538172716E+007, +1.69109739905E+000, +4.25716002195E+002
+1.54788485607E+007, +1.48554912885E+000, +4.31193716626E+002
+1.56038798498E+007, +1.82763232627E+000, +4.34135346856E+002
+1.57289111389E+007, +1.09964363836E+000, +4.40547402027E+002
+1.58539424280E+007, +1.74004011166E+000, +4.42742137663E+002
+1.59789737171E+007, +9.32745982130E-001, +4.47341817201E+002
+1.61040050063E+007, +1.13208048676E+000, +4.51419526304E+002
+1.62290362954E+007, +2.05900855928E+000, +4.56203208198E+002
+1.63540675845E+007, +1.31494356471E+000, +4.60561470154E+002
+1.64790988736E+007, +1.44377777632E+000, +4.64540136592E+002
+1.66041301627E+007, +1.33971687535E+000, +4.68852443378E+002
+1.67291614518E+007, +1.03599347909E+000, +4.74470643303E+002
+1.68541927409E+007, +2.12091641975E+000, +4.79206224666E+002
+1.69792240300E+007, +9.28224287462E-001, +4.81505966091E+002
+1.71042553191E+007, -9.13087295723E-001, +4.87519017585E+002
+1.72292866083E+007, +7.88156340591E-001, +4.90594830860E+002
+1.73543178974E+007, +3.45353533930E-001, +4.96906172402E+002
+1.74793491865E+007, -3.69069119606E-001, +5.00700559793E+002
+1.76043804756E+007, +4.68761282347E-001, +5.06190757439E+002
+1.77294117647E+007, +7.81335522487E-001, +5.08859052575E+002
+1.78544430538E+007, +1.45649464506E+000, +5.15593313463E+002
+1.79794743429E+007, +1.33606724942E+000, +5.18360277374E+002
+1.81045056320E+007, +1.34171395611E-001, +5.25391150443E+002
+1.82295369212E+007, -1.13394115100E-001, +5.27713727242E+002
+1.83545682103E+007, +8.90515433679E-001, +5.32824463450E+002
+1.84795994994E+007, +2.31884013742E+000, +5.38219821644E+002
+1.86046307885E+007, +1.16775549594E+000, +5.42925288159E+002
+1.87296620776E+007, +5.72371246660E-001, +5.48607595004E+002
+1.88546933667E+007, +7.17740573952E-001, +5.51168514285E+002
+1.89797246558E+007, +1.73960485697E+000, +5.56184049096E+002
+1.91047559449E+007, +1.63040492953E+000, +5.62406730675E+002
+1.92297872340E+007, -2.65326455139E-001, +5.70337512237E+002
+1.93548185232E+007, +1.13453954613E+000, +5.73049674841E+002
+1.94798498123E+007, +7.81931396169E-001, +5.76794328766E+002
+1.96048811014E+007, +1.17585319219E+000, +5.81603196804E+002
+1.97299123905E+007, +3.14839466662E-001, +5.86906350672E+002
+1.98549436796E+007, +9.25745963126E-001, +5.94537591025E+002
+1.99799749687E+007, +3.10841078231E+000, +5.97292616456E+002
+2.01050062578E+007, -3.53559044547E-001, +6.02635142044E+002
+2.02300375469E+007, +1.21336141183E+000, +6.09050805847E+002
+2.03550688360E+007, -2.29789356468E-001, +6.14034943134E+002
+2.04801001252E+007, +1.46908341473E+000, +6.19006509846E+002
+2.06051314143E+007, +1.24121739587E+000, +6.26791301543E+002
+2.07301627034E+007, +5.90462422849E-001, +6.28334848180E+002
+2.08551939925E+007, +1.93932039914E+000, +6.36236898652E+002
+2.09802252816E+007, +3.74601519275E-001, +6.38324705005E+002
+2.11052565707E+007, +1.02446763500E+000, +6.47478040960E+002
+2.12302878598E+007, +1.79659989658E+000, +6.54207857296E+002
+2.13553191489E+007, +1.43687742594E+000, +6.54288416053E+002
+2.14803504380E+007, +2.10076309093E+000, +6.60984729988E+002
+2.16053817272E+007, +3.21314287034E-001, +6.69226523623E+002
+2.17304130163E+007, +1.83615673550E+000, +6.74809037539E+002
+2.18554443054E+007, +1.41808074014E+000, +6.79160564922E+002
+2.19804755945E+007, +6.13242493413E-001, +6.86856523158E+002
+2.21055068836E+007, +3.09256595587E+000, +6.93959404579E+002
+2.22305381727E+007, +3.17508892657E+000, +6.99012561834E+002
+2.23555694618E+007, +6.23912189265E+000, +7.04519946762E+002
+2.24806007509E+007, +5.45125970995E+000, +7.10805698999E+002
+2.26056320401E+007, +6.00008680301E+000, +7.17012893779E+002
+2.27306633292E+007, +5.91892822822E+000, +7.18233577634E+002
+2.28556946183E+007, +4.62084290511E+000, +7.27083021458E+002
+2.29807259074E+007, +5.82107687908E+000, +7.36459175983E+002
+2.31057571965E+007, +4.97791489009E+000, +7.40147673203E+002
+2.32307884856E+007, +7.67396378097E+000, +7.48576061647E+002
+2.33558197747E+007, +8.69967928697E+000, +7.51010749136E+002
+2.34808510638E+007, +6.16044286261E+000, +7.58439710990E+002
+2.36058823529E+007, +8.11520039358E+000, +7.63259092542E+002
+2.37309136421E+007, +8.82910011769E+000, +7.68781429062E+002
+2.38559449312E+007, +7.73387030222E+000, +7.81178095764E+002
+2.39809762203E+007, +9.68444928246E+000, +7.81693138161E+002
+2.41060075094E+007, +5.86964633864E+000, +7.86202139042E+002
+2.42310387985E+007, +1.07796173967E+001, +7.94752298549E+002
+2.43560700876E+007, +1.01783454759E+001, +8.01189490930E+002
+2.44811013767E+007, +9.07564477007E+000, +8.06699951272E+002
+2.46061326658E+007, +9.57848176130E+000, +8.12265901042E+002
+2.47311639549E+007, +6.81276425718E+000, +8.17829313335E+002
+2.48561952441E+007, +1.22217774519E+001, +8.26610862040E+002
+2.49812265332E+007, +7.72258127171E+000, +8.34680579563E+002
+2.51062578223E+007, +1.20769862768E+001, +8.35689278036E+002
+2.52312891114E+007, +1.08623251223E+001, +8.44077578260E+002
+2.53563204005E+007, +8.57891579990E+000, +8.57009895225E+002
+2.54813516896E+007, +4.31875483960E+000, +8.60087786741E+002
+2.56063829787E+007, +7.37225682162E+000, +8.65889034192E+002
+2.57314142678E+007, +7.45953206832E+000, +8.73660326230E+002
+2.58564455569E+007, +6.11979119170E+000, +8.80011417168E+002
+2.59814768461E+007, +1.07086497693E+001, +8.87226562778E+002
+2.61065081352E+007, +6.50175129275E+000, +8.94371829758E+002
+2.62315394243E+007, +4.52851839336E+000, +9.01709445107E+002
+2.63565707134E+007, +4.69573893904E+000, +9.16699773854E+002
+2.64816020025E+007, +6.37047482443E+000, +9.19975325647E+002
+2.66066332916E+007, +8.49932664164E+000, +9.28699213084E+002
+2.67316645807E+007, +5.31580458998E+000, +9.32099964295E+002
+2.68566958698E+007, +1.14160609322E+001, +9.42754719886E+002
+2.69817271589E+007, +8.24191084095E+000, +9.53753128737E+002
+2.71067584481E+007, +5.40970611463E+000, +9.63423335865E+002
+2.72317897372E+007, +9.43633762196E+000, +9.67113932850E+002
+2.73568210263E+007, +1.72260238955E+001, +9.76282502087E+002
+2.74818523154E+007, +1.19995977968E+001, +9.80368866653E+002
+2.76068836045E+007, +1.24850619340E+001, +9.87704654776E+002
+2.77319148936E+007, +1.40592082306E+001, +9.97736737548E+002
+2.78569461827E+007, +9.90307519175E+000, +1.00612935292E+003
+2.79819774718E+007, +5.42208244753E+000, +1.01938097305E+003
+2.81070087610E+007, +1.05024922925E+001, +1.02403490155E+003
+2.82320400501E+007, +3.29848802412E+000, +1.03323196314E+003
+2.83570713392E+007, +5.43923112791E+000, +1.04078071717E+003
+2.84821026283E+007, +1.16609911342E+001, +1.05397023012E+003
+2.86071339174E+007, -1.25321343833E+000, +1.06005172404E+003
+2.87321652065E+007, +8.70356626116E+000, +1.07516759611E+003
+2.88571964956E+007, +1.06933375199E+001, +1.08174318030E+003
+2.89822277847E+007, +6.64190099526E+000, +1.09489544166E+003
+2.91072590738E+007, +4.09741382419E+000, +1.10467925017E+003
+2.92322903630E+007, -4.08286208171E+000, +1.11205563443E+003
+2.93573216521E+007, +1.58061079458E+000, +1.12838632261E+003
+2.94823529412E+007, +6.21762857764E+000, +1.13274700608E+003
+2.96073842303E+007, +3.45142408193E+000, +1.14308291583E+003
+2.97324155194E+007, -2.71337205746E+000, +1.15946054850E+003
+2.98574468085E+007, +6.48120740780E-001, +1.16872116789E+003
+2.99824780976E+007, +3.42363047325E+000, +1.17893646647E+003
+3.01075093867E+007, +7.06422734469E+000, +1.18651034523E+003
+3.02325406758E+007, +3.22251748125E+000, +1.19780066462E+003
+3.03575719650E+007, +4.31754201323E+000, +1.20410766378E+003
+3.04826032541E+007, -2.70594010089E+000, +1.22085259157E+003
+3.06076345432E+007, +7.41513023510E+000, +1.22432604765E+003
+3.07326658323E+007, +3.11798901335E+000, +1.24356631592E+003
+3.08576971214E+007, -2.75793703581E+000, +1.25601692033E+003
+3.09827284105E+007, +8.67861909350E+000, +1.27186624555E+003
+3.11077596996E+007, -3.81779699525E+000, +1.28106564845E+003
+3.12327909887E+007, +4.86016783643E+000, +1.29311650194E+003
+3.13578222778E+007, +4.19497433888E+000, +1.30094973446E+003
+3.14828535670E+007, +2.46204956551E+000, +1.31007585787E+003
+3.16078848561E+007, +6.75452984402E+000, +1.32500074228E+003
+3.17329161452E+007, +4.56024291523E+000, +1.34600296930E+003
+3.18579474343E+007, -3.26824742194E+000, +1.36390418386E+003
+3.19829787234E+007, -6.41624951030E-001, +1.36556754578E+003
+3.21080100125E+007, -3.29434490400E-001, +1.38466828909E+003
+3.22330413016E+007, +3.02450416023E+000, +1.39406768719E+003
+3.23580725907E+007, -4.18689195474E-001, +1.41439445485E+003
+3.24831038798E+007, +8.08433484760E+000, +1.42011969193E+003
+3.26081351690E+007, -1.23208342429E+000, +1.43940059355E+003
+3.27331664581E+007, +1.28109706867E+001, +1.44941055464E+003
+3.28581977472E+007, -3.04077093938E+000, +1.47185454130E+003
+3.29832290363E+007, -2.46204363295E+000, +1.49410371093E+003
+3.31082603254E+007, -2.37632997374E+000, +1.48700465062E+003
+3.32332916145E+007, +1.06054504900E+001, +1.51636086299E+003
+3.33583229036E+007, +2.27548697874E+000, +1.53575986318E+003
+3.34833541927E+007, -3.90908722819E+000, +1.55120801343E+003
+3.36083854819E+007, +9.66778482632E+000, +1.56719381329E+003
+3.37334167710E+007, +7.60059561763E+000, +1.57951741264E+003
+3.38584480601E+007, +6.12477021256E+000, +1.59769900351E+003
+3.39834793492E+007, +1.49237670681E+000, +1.62393161096E+003
+3.41085106383E+007, +8.65023270025E+000, +1.64578760224E+003
+3.42335419274E+007, +1.17409372057E+001, +1.64896554522E+003
+3.43585732165E+007, +6.20013782650E+000, +1.67794541780E+003
+3.44836045056E+007, +1.46726832709E+001, +1.70541869108E+003
+3.46086357947E+007, +2.44291466775E+000, +1.70579653007E+003
+3.47336670839E+007, +1.81877194335E+001, +1.73869478666E+003
+3.48586983730E+007, +2.79838945391E+001, +1.75936836209E+003
+3.49837296621E+007, +1.70627583130E+001, +1.78398803337E+003
+3.51087609512E+007, +8.24313331291E+000, +1.79853681489E+003
+3.52337922403E+007, +1.71396847122E+001, +1.81272700852E+003
+3.53588235294E+007, +1.03713131610E+001, +1.84705830588E+003
+3.54838548185E+007, +2.07236639849E+001, +1.85012180058E+003
+3.56088861076E+007, +1.86258951361E+001, +1.88146260651E+003
+3.57339173967E+007, +3.16814562402E+001, +1.92214680254E+003
+3.58589486859E+007, +4.03471373622E+000, +1.93148376244E+003
+3.59839799750E+007, +2.95406979783E+001, +1.93999190526E+003
+3.61090112641E+007, +2.33142616228E+001, +1.97611219363E+003
+3.62340425532E+007, +1.93152061118E+001, +1.97399180315E+003
+3.63590738423E+007, +2.07076600379E+001, +2.03315492119E+003
+3.64841051314E+007, +3.03165889265E+001, +2.03814039278E+003
+3.66091364205E+007, +1.89694486081E+001, +2.06533817324E+003
+3.67341677096E+007, +2.45267394843E+001, +2.12038320162E+003
+3.68591989987E+007, +1.78025594759E+001, +2.12893705340E+003
+3.69842302879E+007, +3.51054380857E+001, +2.15032745185E+003
+3.71092615770E+007, +3.75107851164E+001, +2.20802355265E+003
+3.72342928661E+007, +1.80329333621E+001, +2.22186244311E+003
+3.73593241552E+007, +7.43708012612E+000, +2.27403210016E+003
+3.74843554443E+007, +1.57478250373E+001, +2.29078559404E+003
+3.76093867334E+007, +1.64565674841E+001, +2.27318316976E+003
+3.77344180225E+007, +3.09922525111E+001, +2.36837291461E+003
+3.78594493116E+007, +1.22201663343E+001, +2.37535163385E+003
+3.79844806008E+007, +2.81961278314E+001, +2.43014640320E+003
+3.81095118899E+007, +5.61865499931E+001, +2.47029742310E+003
+3.82345431790E+007, +4.36318800676E+001, +2.50031081666E+003
+3.83595744681E+007, +6.94794205460E+001, +2.50908546688E+003
+3.84846057572E+007, +3.86237803888E+001, +2.55303072529E+003
+3.86096370463E+007, +5.16381408179E+001, +2.64584073292E+003
+3.87346683354E+007, +9.22053117008E+001, +2.64555950815E+003
+3.88596996245E+007, +4.18608600225E+001, +2.73089307721E+003
+3.89847309136E+007, +8.51816636287E+001, +2.73693153280E+003
+3.91097622028E+007, +6.07253298204E+001, +2.82179905912E+003
+3.92347934919E+007, +6.76272787135E+001, +2.82003209109E+003
+3.93598247810E+007, +1.02928295793E+002, +2.85950329485E+003
+3.94848560701E+007, +8.82955993004E+001, +2.94432468669E+003
+3.96098873592E+007, +1.07758509988E+002, +2.96257597277E+003
+3.97349186483E+007, +1.62229789870E+002, +3.04213988109E+003
+3.98599499374E+007, +1.23030464603E+002, +3.08505261037E+003
+3.99849812265E+007, +1.13772067220E+002, +3.19548469742E+003
+4.01100125156E+007, +1.26153364293E+002, +3.20262333168E+003
