"# Channel 1"
"# Trace 1"
Frequency, Formatted Data, Formatted Data
+1.00000000000E+005, +8.35152766837E+000, +2.84072210135E+000
+2.25031289111E+005, +8.46272981673E+000, +6.25783469515E+000
+3.50062578223E+005, +8.59432876764E+000, +9.60991104330E+000
+4.75093867334E+005, +8.64793688637E+000, +1.30032600851E+001
+6.00125156446E+005, +8.73212480152E+000, +1.63006603044E+001
+7.25156445557E+005, +8.80777905718E+000, +1.96343414502E+001
+8.50187734668E+005, +8.85410858652E+000, +2.29523375910E+001
+9.75219023780E+005, +8.84585714645E+000, +2.62496377772E+001
+1.10025031289E+006, +8.93774715280E+000, +2.95416533540E+001
+1.22528160200E+006, +8.95098752120E+000, +3.28837756332E+001
+1.35031289111E+006, +9.06167092601E+000, +3.62048552850E+001
+1.47534418023E+006, +9.07902032185E+000, +3.95216384734E+001
+1.60037546934E+006, +9.12416783496E+000, +4.28479844075E+001
+1.72540675845E+006, +9.13610502230E+000, +4.60964047128E+001
+1.85043804756E+006, +9.12549238086E+000, +4.94332468985E+001
+1.97546933667E+006, +9.18012702418E+000, +5.27125854437E+001
+2.10050062578E+006, +9.14470690661E+000, +5.62315742029E+001
+2.22553191489E+006, +9.18624962456E+000, +5.93362009364E+001
+2.35056320401E+006, +9.15351114162E+000, +6.27279071021E+001
+2.47559449312E+006, +9.35432027582E+000, +6.60750082485E+001
+2.60062578223E+006, +9.31342705508E+000, +6.92593923712E+001
+2.72565707134E+006, +9.30733844084E+000, +7.26673246585E+001
+2.85068836045E+006, +9.36778266264E+000, +7.60366222543E+001
+2.97571964956E+006, +9.29907338570E+000, +7.93635017867E+001
+3.10075093867E+006, +9.45775526632E+000, +8.26726730551E+001
+3.22578222778E+006, +9.56698127112E+000, +8.60892514283E+001
+3.35081351690E+006, +9.52631693007E+000, +8.92496943326E+001
+3.47584480601E+006, +9.58399501698E+000, +9.26340754734E+001
+3.60087609512E+006, +9.64243794405E+000, +9.61793328580E+001
+3.72590738423E+006, +9.53664284528E+000, +9.93928696621E+001
+3.85093867334E+006, +9.72246616310E+000, +1.02881707792E+002
+3.97596996245E+006, +9.78805425975E+000, +1.06391707357E+002
+4.10100125156E+006, +9.90278205697E+000, +1.09350897691E+002
+4.22603254068E+006, +9.63506388381E+000, +1.12802740867E+002
+4.35106382979E+006, +9.78333479324E+000, +1.16363969453E+002
+4.47609511890E+006, +9.89041131959E+000, +1.19622477111E+002
+4.60112640801E+006, +9.94407260026E+000, +1.23314837001E+002
+4.72615769712E+006, +9.77757287364E+000, +1.26374264850E+002
+4.85118898623E+006, +9.99322642133E+000, +1.29891000246E+002
+4.97622027534E+006, +1.00272054011E+001, +1.33263507051E+002
+5.10125156446E+006, +9.87125259024E+000, +1.36598930024E+002
+5.22628285357E+006, +9.90298608011E+000, +1.40290060067E+002
+5.35131414268E+006, +9.90923887135E+000, +1.43247654676E+002
+5.47634543179E+006, +1.04205961358E+001, +1.47048656626E+002
+5.60137672090E+006, +1.02072400152E+001, +1.50587527565E+002
+5.72640801001E+006, +9.98232538214E+000, +1.53776923070E+002
+5.85143929912E+006, +1.03088445182E+001, +1.57017978198E+002
+5.97647058824E+006, +1.02143181284E+001, +1.60866540683E+002
+6.10150187735E+006, +1.03627373415E+001, +1.64417860819E+002
+6.22653316646E+006, +1.02576294052E+001, +1.67829730440E+002
+6.35156445557E+006, +1.05372564755E+001, +1.70950457422E+002
+6.47659574468E+006, +1.06640569219E+001, +1.74639556965E+002
+6.60162703379E+006, +1.06182441599E+001, +1.78163861078E+002
+6.72665832290E+006, +1.08108087677E+001, +1.81649045706E+002
+6.85168961202E+006, +1.08458383430E+001, +1.85015101478E+002
+6.97672090113E+006, +1.09136613570E+001, +1.88723934612E+002
+7.10175219024E+006, +1.06835314152E+001, +1.92331789986E+002
+7.22678347935E+006, +1.10720898210E+001, +1.95621252910E+002
+7.35181476846E+006, +1.11850703558E+001, +1.99234173091E+002
+7.47684605757E+006, +1.12229440074E+001, +2.02917461618E+002
+7.60187734668E+006, +1.11097996454E+001, +2.06581534669E+002
+7.72690863579E+006, +1.15368008947E+001, +2.09926952047E+002
+7.85193992491E+006, +1.12366912942E+001, +2.13340404117E+002
+7.97697121402E+006, +1.15636080644E+001, +2.17148804282E+002
+8.10200250313E+006, +1.16598856233E+001, +2.20806698675E+002
+8.22703379224E+006, +1.14111484163E+001, +2.24272436617E+002
+8.35206508135E+006, +1.16097889518E+001, +2.27851798588E+002
+8.47709637046E+006, +1.17583891509E+001, +2.31348985016E+002
+8.60212765957E+006, +1.17790592016E+001, +2.35253813005E+002
+8.72715894869E+006, +1.17498415051E+001, +2.38555294757E+002
+8.85219023780E+006, +1.17183946316E+001, +2.42883722113E+002
+8.97722152691E+006, +1.23526924449E+001, +2.45831768130E+002
+9.10225281602E+006, +1.18546535170E+001, +2.49266872781E+002
+9.22728410513E+006, +1.23647590453E+001, +2.53140977319E+002
+9.35231539424E+006, +1.17477452811E+001, +2.56930623362E+002
+9.47734668335E+006, +1.19347971758E+001, +2.60541704471E+002
+9.60237797247E+006, +1.25409828870E+001, +2.64599560638E+002
+9.72740926158E+006, +1.20738606387E+001, +2.67928055843E+002
+9.85244055069E+006, +1.23466479981E+001, +2.71617183105E+002
+9.97747183980E+006, +1.22919689753E+001, +2.75559470740E+002
+1.01025031289E+007, +1.23780765879E+001, +2.79221655064E+002
+1.02275344180E+007, +1.25931931732E+001, +2.82975822361E+002
+1.03525657071E+007, +1.25977781336E+001, +2.86780073493E+002
+1.04775969962E+007, +1.25487004870E+001, +2.90662897875E+002
+1.06026282854E+007, +1.25664354314E+001, +2.94221264531E+002
+1.07276595745E+007, +1.23583012160E+001, +2.98819939099E+002
+1.08526908636E+007, +1.20748305432E+001, +3.02086244519E+002
+1.09777221527E+007, +1.28704360269E+001, +3.06588508747E+002
+1.11027534418E+007, +1.23954731216E+001, +3.09970576003E+002
+1.12277847309E+007, +1.29224197873E+001, +3.13673286232E+002
+1.13528160200E+007, +1.24036341059E+001, +3.17112197380E+002
+1.14778473091E+007, +1.36379057241E+001, +3.21726785041E+002
+1.16028785982E+007, +1.29002268994E+001, +3.25558055555E+002
+1.17279098874E+007, +1.28496095564E+001, +3.29428072558E+002
+1.18529411765E+007, +1.32771767586E+001, +3.33042265960E+002
+1.19779724656E+007, +1.32557403276E+001, +3.37766304719E+002
+1.21030037547E+007, +1.30252978775E+001, +3.40415787435E+002
+1.22280350438E+007, +1.34246844182E+001, +3.45069478588E+002
+1.23530663329E+007, +1.32744305946E+001, +3.49132492417E+002
+1.24780976220E+007, +1.36976589630E+001, +3.53273481015E+002
+1.26031289111E+007, +1.33983544603E+001, +3.56971442888E+002
+1.27281602003E+007, +1.35273490635E+001, +3.61244969622E+002
+1.28531914894E+007, +1.33640786460E+001, +3.65498755630E+002
+1.29782227785E+007, +1.36054589232E+001, +3.68779765950E+002
+1.31032540676E+007, +1.43466091941E+001, +3.73808726840E+002
+1.32282853567E+007, +1.34349385960E+001, +3.77583047043E+002
+1.33533166458E+007, +1.39882748020E+001, +3.81531214783E+002
+1.34783479349E+007, +1.32453674115E+001, +3.85713057607E+002
+1.36033792240E+007, +1.38527027163E+001, +3.89910141991E+002
+1.37284105131E+007, +1.39990189040E+001, +3.93853679502E+002
+1.38534418023E+007, +1.34908705611E+001, +3.98302463657E+002
+1.39784730914E+007, +1.49725694818E+001, +4.03303016461E+002
+1.41035043805E+007, +1.42272261782E+001, +4.07142147094E+002
+1.42285356696E+007, +1.47285320793E+001, +4.12485336785E+002
+1.43535669587E+007, +1.38704073819E+001, +4.16280724922E+002
+1.44785982478E+007, +1.40805704244E+001, +4.20347019062E+002
+1.46036295369E+007, +1.44263357608E+001, +4.24828888756E+002
+1.47286608260E+007, +1.35362362840E+001, +4.28642344932E+002
+1.48536921151E+007, +1.45106996033E+001, +4.32891566555E+002
+1.49787234043E+007, +1.51003925734E+001, +4.37491117799E+002
+1.51037546934E+007, +1.45501925355E+001, +4.42180375722E+002
+1.52287859825E+007, +1.43194041725E+001, +4.46115887722E+002
+1.53538172716E+007, +1.47128251767E+001, +4.51058960513E+002
+1.54788485607E+007, +1.31016396425E+001, +4.57189225148E+002
+1.56038798498E+007, +1.46539785336E+001, +4.60575393646E+002
+1.57289111389E+007, +1.54428082007E+001, +4.64990495833E+002
+1.58539424280E+007, +1.51468686944E+001, +4.68559393564E+002
+1.59789737171E+007, +1.45202131749E+001, +4.74756495075E+002
+1.61040050063E+007, +1.47219698878E+001, +4.79525573131E+002
+1.62290362954E+007, +1.52883618496E+001, +4.83539497775E+002
+1.63540675845E+007, +1.58640087649E+001, +4.88560475567E+002
+1.64790988736E+007, +1.49295207896E+001, +4.94966733725E+002
+1.66041301627E+007, +1.42930683438E+001, +4.97587700998E+002
+1.67291614518E+007, +1.51669949520E+001, +5.02863414294E+002
+1.68541927409E+007, +1.45950700858E+001, +5.08600935099E+002
+1.69792240300E+007, +1.62140531994E+001, +5.12755466121E+002
+1.71042553191E+007, +1.37346146208E+001, +5.16741976304E+002
+1.72292866083E+007, +1.47739661325E+001, +5.22826727663E+002
+1.73543178974E+007, +1.32457132091E+001, +5.27990012606E+002
+1.74793491865E+007, +1.55470588099E+001, +5.33730729603E+002
+1.76043804756E+007, +1.45720826220E+001, +5.36666282435E+002
+1.77294117647E+007, +1.41317947094E+001, +5.44381466138E+002
+1.78544430538E+007, +1.61434865931E+001, +5.45540597922E+002
+1.79794743429E+007, +1.60566020406E+001, +5.52326105851E+002
+1.81045056320E+007, +1.39514614600E+001, +5.58047023719E+002
+1.82295369212E+007, +1.67826008654E+001, +5.64811148908E+002
+1.83545682103E+007, +1.50190192776E+001, +5.68928331338E+002
+1.84795994994E+007, +1.52585179443E+001, +5.75595483243E+002
+1.86046307885E+007, +1.69130844954E+001, +5.78993157870E+002
+1.87296620776E+007, +1.74250035303E+001, +5.84945674216E+002
+1.88546933667E+007, +1.63694315181E+001, +5.91177017290E+002
+1.89797246558E+007, +1.94394299585E+001, +5.94116899112E+002
+1.91047559449E+007, +1.79388114102E+001, +6.01140995495E+002
+1.92297872340E+007, +1.79613918810E+001, +6.05322103920E+002
+1.93548185232E+007, +1.95913507768E+001, +6.12234945908E+002
+1.94798498123E+007, +1.80199436257E+001, +6.17431465582E+002
+1.96048811014E+007, +1.85956019843E+001, +6.23499737873E+002
+1.97299123905E+007, +1.71936910713E+001, +6.28827898934E+002
+1.98549436796E+007, +1.74605191517E+001, +6.35626848653E+002
+1.99799749687E+007, +1.98071592934E+001, +6.43448357569E+002
+2.01050062578E+007, +1.69891906553E+001, +6.48191966362E+002
+2.02300375469E+007, +1.94416546243E+001, +6.52843126113E+002
+2.03550688360E+007, +1.90729097533E+001, +6.59597942925E+002
+2.04801001252E+007, +2.09040792857E+001, +6.66528729142E+002
+2.06051314143E+007, +1.72077447628E+001, +6.69616758830E+002
+2.07301627034E+007, +1.88682002010E+001, +6.77402534890E+002
+2.08551939925E+007, +2.00564384086E+001, +6.85419212296E+002
+2.09802252816E+007, +2.12554411726E+001, +6.89009188817E+002
+2.11052565707E+007, +2.14251142298E+001, +6.93348893431E+002
+2.12302878598E+007, +2.23229854510E+001, +7.02420086721E+002
+2.13553191489E+007, +2.29607764997E+001, +7.07865935154E+002
+2.14803504380E+007, +1.99714733818E+001, +7.15267502262E+002
+2.16053817272E+007, +2.42503682194E+001, +7.22106998901E+002
+2.17304130163E+007, +2.22012243550E+001, +7.27662266313E+002
+2.18554443054E+007, +2.53143166406E+001, +7.33501081388E+002
+2.19804755945E+007, +2.25216169603E+001, +7.41117669856E+002
+2.21055068836E+007, +2.26275162029E+001, +7.45712572644E+002
+2.22305381727E+007, +2.67106729695E+001, +7.53722987405E+002
+2.23555694618E+007, +2.50933187382E+001, +7.59566630271E+002
+2.24806007509E+007, +2.60663615573E+001, +7.65809933267E+002
+2.26056320401E+007, +2.65646892726E+001, +7.73636464411E+002
+2.27306633292E+007, +3.11554971684E+001, +7.82425143899E+002
+2.28556946183E+007, +3.25629138294E+001, +7.85351624285E+002
+2.29807259074E+007, +3.04890786275E+001, +7.95449990407E+002
+2.31057571965E+007, +3.18083372255E+001, +7.99455848963E+002
+2.32307884856E+007, +3.05060486195E+001, +8.04239697558E+002
+2.33558197747E+007, +3.26182712217E+001, +8.10604823957E+002
+2.34808510638E+007, +3.37559577839E+001, +8.19321835606E+002
+2.36058823529E+007, +3.63969604698E+001, +8.25236251520E+002
+2.37309136421E+007, +3.58051619094E+001, +8.33812585275E+002
+2.38559449312E+007, +3.50816796820E+001, +8.42092110957E+002
+2.39809762203E+007, +3.56356802833E+001, +8.48370060958E+002
+2.41060075094E+007, +3.45424429646E+001, +8.54425171841E+002
+2.42310387985E+007, +3.61761025616E+001, +8.58234854419E+002
+2.43560700876E+007, +3.28016128479E+001, +8.64972004314E+002
+2.44811013767E+007, +3.68182572945E+001, +8.72301309133E+002
+2.46061326658E+007, +3.39256708735E+001, +8.82512029598E+002
+2.47311639549E+007, +3.24607365296E+001, +8.86308638849E+002
+2.48561952441E+007, +3.50083815583E+001, +8.98440474397E+002
+2.49812265332E+007, +3.36959775000E+001, +9.07855110035E+002
+2.51062578223E+007, +3.45066770321E+001, +9.14468772726E+002
+2.52312891114E+007, +3.76439749224E+001, +9.23072238894E+002
+2.53563204005E+007, +3.35080616276E+001, +9.34305260435E+002
+2.54813516896E+007, +3.01641017128E+001, +9.39261043611E+002
+2.56063829787E+007, +3.32375634417E+001, +9.47517945019E+002
+2.57314142678E+007, +3.44122803307E+001, +9.56263603866E+002
+2.58564455569E+007, +3.73339719636E+001, +9.62969404707E+002
+2.59814768461E+007, +3.99858718225E+001, +9.70418285913E+002
+2.61065081352E+007, +3.48844438937E+001, +9.78693706298E+002
+2.62315394243E+007, +3.26227749643E+001, +9.87052349052E+002
+2.63565707134E+007, +3.27407958355E+001, +1.00289742997E+003
+2.64816020025E+007, +3.74710821212E+001, +1.01001328559E+003
+2.66066332916E+007, +3.53937608286E+001, +1.02101499160E+003
+2.67316645807E+007, +2.98005144683E+001, +1.02977633837E+003
+2.68566958698E+007, +3.86508359497E+001, +1.04549345766E+003
+2.69817271589E+007, +3.43838618280E+001, +1.05178422159E+003
+2.71067584481E+007, +4.00013225044E+001, +1.05734408530E+003
+2.72317897372E+007, +3.84821060290E+001, +1.06502125394E+003
+2.73568210263E+007, +3.68708194230E+001, +1.07495020806E+003
+2.74818523154E+007, +4.23267563354E+001, +1.09156269346E+003
+2.76068836045E+007, +4.20040119481E+001, +1.10206276674E+003
+2.77319148936E+007, +3.98676846546E+001, +1.10946117240E+003
+2.78569461827E+007, +3.85098504544E+001, +1.11831114751E+003
+2.79819774718E+007, +3.25894097430E+001, +1.13449055341E+003
+2.81070087610E+007, +4.32106217983E+001, +1.14710420039E+003
+2.82320400501E+007, +3.67531227986E+001, +1.15453759645E+003
+2.83570713392E+007, +4.74538736614E+001, +1.17196824500E+003
+2.84821026283E+007, +4.02482877114E+001, +1.17933281630E+003
+2.86071339174E+007, +4.23537948633E+001, +1.19254237468E+003
+2.87321652065E+007, +4.81927905258E+001, +1.19879363110E+003
+2.88571964956E+007, +4.11391394962E+001, +1.21415255954E+003
+2.89822277847E+007, +4.77925587961E+001, +1.22379825130E+003
+2.91072590738E+007, +4.38451171445E+001, +1.23596474030E+003
+2.92322903630E+007, +4.19837594943E+001, +1.25985273505E+003
+2.93573216521E+007, +4.92811457554E+001, +1.26581058437E+003
+2.94823529412E+007, +5.01437240815E+001, +1.27773175889E+003
+2.96073842303E+007, +3.97929294889E+001, +1.28473485922E+003
+2.97324155194E+007, +5.36843796478E+001, +1.30854393341E+003
+2.98574468085E+007, +4.76888104088E+001, +1.31345978299E+003
+2.99824780976E+007, +5.40817136103E+001, +1.32683827226E+003
+3.01075093867E+007, +5.57028992456E+001, +1.34612662976E+003
+3.02325406758E+007, +4.69893464530E+001, +1.36649536737E+003
+3.03575719650E+007, +4.54760540553E+001, +1.37255453901E+003
+3.04826032541E+007, +4.78699390965E+001, +1.38631676942E+003
+3.06076345432E+007, +4.95569970561E+001, +1.40820677460E+003
+3.07326658323E+007, +5.43181850699E+001, +1.42236050388E+003
+3.08576971214E+007, +5.49281043171E+001, +1.43800344561E+003
+3.09827284105E+007, +5.34883005023E+001, +1.44957050686E+003
+3.11077596996E+007, +4.53586025282E+001, +1.45875237339E+003
+3.12327909887E+007, +6.12531908243E+001, +1.48207766766E+003
+3.13578222778E+007, +6.21580050610E+001, +1.49377111479E+003
+3.14828535670E+007, +6.06620626665E+001, +1.52075874095E+003
+3.16078848561E+007, +6.91234657814E+001, +1.53725106171E+003
+3.17329161452E+007, +6.68970820247E+001, +1.54848924058E+003
+3.18579474343E+007, +4.54484017209E+001, +1.55829599601E+003
+3.19829787234E+007, +6.57556098278E+001, +1.57126589523E+003
+3.21080100125E+007, +6.06012334577E+001, +1.61076150319E+003
+3.22330413016E+007, +6.51271607610E+001, +1.62252985723E+003
+3.23580725907E+007, +5.82106420238E+001, +1.63302060010E+003
+3.24831038798E+007, +6.67229628978E+001, +1.65461251999E+003
+3.26081351690E+007, +7.04687422139E+001, +1.66586648101E+003
+3.27331664581E+007, +7.42095691139E+001, +1.70478054679E+003
+3.28581977472E+007, +6.79882922120E+001, +1.71578510111E+003
+3.29832290363E+007, +7.58855683997E+001, +1.73826281374E+003
+3.31082603254E+007, +7.21588568656E+001, +1.77042331096E+003
+3.32332916145E+007, +8.71384471385E+001, +1.79042899420E+003
+3.33583229036E+007, +6.40323047820E+001, +1.81185558007E+003
+3.34833541927E+007, +7.64579403776E+001, +1.82921163143E+003
+3.36083854819E+007, +7.89525688091E+001, +1.86957352214E+003
+3.37334167710E+007, +8.03602454119E+001, +1.88756274844E+003
+3.38584480601E+007, +9.34735457752E+001, +1.89536313491E+003
+3.39834793492E+007, +7.75600411633E+001, +1.93570257772E+003
+3.41085106383E+007, +8.41227482901E+001, +1.95845962699E+003
+3.42335419274E+007, +9.84793897804E+001, +1.95878618391E+003
+3.43585732165E+007, +9.97925071997E+001, +2.01978702615E+003
+3.44836045056E+007, +9.83718688418E+001, +2.04067209064E+003
+3.46086357947E+007, +1.06872783449E+002, +2.05556770764E+003
+3.47336670839E+007, +8.87779844684E+001, +2.08706076361E+003
+3.48586983730E+007, +1.21096844605E+002, +2.09922218017E+003
+3.49837296621E+007, +1.34923901688E+002, +2.16504288913E+003
+3.51087609512E+007, +1.07001918264E+002, +2.15980904309E+003
+3.52337922403E+007, +1.29093999491E+002, +2.22064965767E+003
+3.53588235294E+007, +1.32479305324E+002, +2.27209838972E+003
+3.54838548185E+007, +1.29717628350E+002, +2.28240152052E+003
+3.56088861076E+007, +1.51566817762E+002, +2.33319519681E+003
+3.57339173967E+007, +1.56130908338E+002, +2.36379187061E+003
+3.58589486859E+007, +1.57453775493E+002, +2.39650787058E+003
+3.59839799750E+007, +1.29394348342E+002, +2.43337820641E+003
+3.61090112641E+007, +1.38487065918E+002, +2.46682305511E+003
+3.62340425532E+007, +1.41859713792E+002, +2.51510472137E+003
+3.63590738423E+007, +1.88793512115E+002, +2.57143776103E+003
+3.64841051314E+007, +1.94961318750E+002, +2.57785156915E+003
+3.66091364205E+007, +1.62189433335E+002, +2.68035362700E+003
+3.67341677096E+007, +2.20102175344E+002, +2.65619416618E+003
+3.68591989987E+007, +2.00069309333E+002, +2.71907480540E+003
+3.69842302879E+007, +2.47139431342E+002, +2.80353321465E+003
+3.71092615770E+007, +2.27867949323E+002, +2.84884371062E+003
+3.72342928661E+007, +1.95077874465E+002, +2.92577061264E+003
+3.73593241552E+007, +2.48245919984E+002, +2.91648404144E+003
+3.74843554443E+007, +2.69145421412E+002, +3.02142097450E+003
+3.76093867334E+007, +2.58175583990E+002, +3.06749502629E+003
+3.77344180225E+007, +2.95710849003E+002, +3.10506502668E+003
+3.78594493116E+007, +3.06269394931E+002, +3.18074900673E+003
+3.79844806008E+007, +3.17485051921E+002, +3.25708054043E+003
+3.81095118899E+007, +3.14042102423E+002, +3.24818254846E+003
+3.82345431790E+007, +3.56507745216E+002, +3.38859633980E+003
+3.83595744681E+007, +4.20986423820E+002, +3.39052014978E+003
+3.84846057572E+007, +3.67567890568E+002, +3.48190551881E+003
+3.86096370463E+007, +4.39002474069E+002, +3.55289260012E+003
+3.87346683354E+007, +4.59904914543E+002, +3.74925717575E+003
+3.88596996245E+007, +5.03223929001E+002, +3.66692735639E+003
+3.89847309136E+007, +5.12075066597E+002, +3.83719129577E+003
+3.91097622028E+007, +4.91669533397E+002, +3.87080514579E+003
+3.92347934919E+007, +5.27124867320E+002, +3.93165732427E+003
+3.93598247810E+007, +5.58299059055E+002, +4.12915762345E+003
+3.94848560701E+007, +6.47132130935E+002, +4.08405522223E+003
+3.96098873592E+007, +6.51169336339E+002, +4.26322309547E+003
+3.97349186483E+007, +6.02936884839E+002, +4.44539296407E+003
+3.98599499374E+007, +7.86047219048E+002, +4.47959339856E+003
+3.99849812265E+007, +7.28570510540E+002, +4.54510872012E+003
+4.01100125156E+007, +7.45156277099E+002, +4.77224630551E+003
