"# Channel 1"
"# Trace 1"
Frequency, Formatted Data, Formatted Data
+1.00000000000E+005, +5.51613823317E+002, -3.21738310733E+003
+2.87609511890E+005, +1.25675270228E+002, -1.21629065231E+003
+4.75219023780E+005, +8.07824030236E+001, -7.39914152802E+002
+6.62828535670E+005, +6.76037810233E+001, -5.33517207970E+002
+8.50438047559E+005, +6.19461363075E+001, -4.15949307786E+002
+1.03804755945E+006, +5.96697678772E+001, -3.41612435418E+002
+1.22565707134E+006, +5.65205996506E+001, -2.90220393986E+002
+1.41326658323E+006, +5.55230786512E+001, -2.51893720122E+002
+1.60087609512E+006, +5.46100453047E+001, -2.22707034722E+002
+1.78848560701E+006, +5.34633435314E+001, -2.00005605813E+002
+1.97609511890E+006, +5.29309661468E+001, -1.80417883957E+002
+2.16370463079E+006, +5.26668472112E+001, -1.65128871565E+002
+2.35131414268E+006, +5.23334511106E+001, -1.52249368650E+002
+2.53892365457E+006, +5.17894075928E+001, -1.41146024169E+002
+2.72653316646E+006, +5.19134870084E+001, -1.31837950917E+002
+2.91414267835E+006, +5.14616834612E+001, -1.22759527468E+002
+3.10175219024E+006, +5.12835932661E+001, -1.15992364923E+002
+3.28936170213E+006, +5.12977911132E+001, -1.09133121523E+002
+3.47697121402E+006, +5.11669008889E+001, -1.03417398516E+002
+3.66458072591E+006, +5.09717834554E+001, -9.80779325334E+001
+3.85219023780E+006, +5.07197892524E+001, -9.33774911993E+001
+4.03979974969E+006, +5.06265993456E+001, -8.91217340985E+001
+4.22740926158E+006, +5.06060372517E+001, -8.51363076961E+001
+4.41501877347E+006, +5.05233332932E+001, -8.14465979979E+001
+4.60262828536E+006, +5.03782353200E+001, -7.84102913229E+001
+4.79023779725E+006, +5.03767028403E+001, -7.51719706507E+001
+4.97784730914E+006, +5.04988401385E+001, -7.23787133678E+001
+5.16545682103E+006, +5.01911197076E+001, -6.98727611580E+001
+5.35306633292E+006, +5.03112777803E+001, -6.75166901284E+001
+5.54067584481E+006, +5.00587716424E+001, -6.53712599616E+001
+5.72828535670E+006, +5.02384277716E+001, -6.30722870919E+001
+5.91589486859E+006, +5.02202406585E+001, -6.10853747989E+001
+6.10350438048E+006, +5.01473583377E+001, -5.91545630647E+001
+6.29111389237E+006, +4.99767983872E+001, -5.74943331736E+001
+6.47872340426E+006, +5.00173519308E+001, -5.57750853602E+001
+6.66633291615E+006, +5.00403905921E+001, -5.42670889535E+001
+6.85394242804E+006, +5.00535059327E+001, -5.28234606157E+001
+7.04155193992E+006, +4.99621968803E+001, -5.14006117058E+001
+7.22916145181E+006, +4.99478592699E+001, -5.00619537379E+001
+7.41677096370E+006, +4.99765022768E+001, -4.88907636180E+001
+7.60438047559E+006, +4.99114132989E+001, -4.76448695489E+001
+7.79198998748E+006, +4.99281365834E+001, -4.65811357827E+001
+7.97959949937E+006, +4.99069880019E+001, -4.54537712426E+001
+8.16720901126E+006, +4.98313979590E+001, -4.44371244253E+001
+8.35481852315E+006, +4.98148586682E+001, -4.34402830521E+001
+8.54242803504E+006, +4.98556300016E+001, -4.24144800064E+001
+8.73003754693E+006, +4.98062711424E+001, -4.16242322813E+001
+8.91764705882E+006, +4.97938826952E+001, -4.07411757842E+001
+9.10525657071E+006, +4.98171753175E+001, -3.99666287642E+001
+9.29286608260E+006, +4.98090266584E+001, -3.91708953956E+001
+9.48047559449E+006, +4.98077031570E+001, -3.84074898700E+001
+9.66808510638E+006, +4.97218997278E+001, -3.76499993367E+001
+9.85569461827E+006, +4.97487308706E+001, -3.69841509010E+001
+1.00433041302E+007, +4.97452165048E+001, -3.63040803179E+001
+1.02309136421E+007, +4.97435134093E+001, -3.56425721111E+001
+1.04185231539E+007, +4.97828574772E+001, -3.50203946412E+001
+1.06061326658E+007, +4.97170877657E+001, -3.44150444326E+001
+1.07937421777E+007, +4.97055737592E+001, -3.38156712825E+001
+1.09813516896E+007, +4.96829685785E+001, -3.32510353415E+001
+1.11689612015E+007, +4.97147725514E+001, -3.27167698475E+001
+1.13565707134E+007, +4.96825219855E+001, -3.21844970659E+001
+1.15441802253E+007, +4.96845746550E+001, -3.16672373437E+001
+1.17317897372E+007, +4.96662344599E+001, -3.12131837692E+001
+1.19193992491E+007, +4.96656275482E+001, -3.07293602471E+001
+1.21070087610E+007, +4.96160544222E+001, -3.02432575130E+001
+1.22946182728E+007, +4.96585507699E+001, -2.98111275445E+001
+1.24822277847E+007, +4.96361228336E+001, -2.93770807416E+001
+1.26698372966E+007, +4.96282218340E+001, -2.89652887608E+001
+1.28574468085E+007, +4.96431692716E+001, -2.85466963474E+001
+1.30450563204E+007, +4.96278768394E+001, -2.81715905668E+001
+1.32326658323E+007, +4.96059467223E+001, -2.77524982239E+001
+1.34202753442E+007, +4.96252700806E+001, -2.73821720473E+001
+1.36078848561E+007, +4.95990984351E+001, -2.70318955288E+001
+1.37954943680E+007, +4.95987528619E+001, -2.66779840661E+001
+1.39831038798E+007, +4.96031078170E+001, -2.63401468828E+001
+1.41707133917E+007, +4.95967747205E+001, -2.60004120910E+001
+1.43583229036E+007, +4.95924236446E+001, -2.56851318629E+001
+1.45459324155E+007, +4.95902771723E+001, -2.53751188521E+001
+1.47335419274E+007, +4.96029671726E+001, -2.50765352090E+001
+1.49211514393E+007, +4.95736841897E+001, -2.47728223125E+001
+1.51087609512E+007, +4.95819978624E+001, -2.44537044013E+001
+1.52963704631E+007, +4.95654212251E+001, -2.41850452958E+001
+1.54839799750E+007, +4.95412188285E+001, -2.39025316596E+001
+1.56715894869E+007, +4.95451481722E+001, -2.36467949633E+001
+1.58591989987E+007, +4.95645656858E+001, -2.33694902978E+001
+1.60468085106E+007, +4.95482708162E+001, -2.31217001775E+001
+1.62344180225E+007, +4.95384840392E+001, -2.28657601243E+001
+1.64220275344E+007, +4.95665679476E+001, -2.26102913653E+001
+1.66096370463E+007, +4.95349242558E+001, -2.23954810821E+001
+1.67972465582E+007, +4.95440439806E+001, -2.21339381263E+001
+1.69848560701E+007, +4.95416686671E+001, -2.19178610401E+001
+1.71724655820E+007, +4.95323644867E+001, -2.17272593751E+001
+1.73600750939E+007, +4.95322527934E+001, -2.14872165091E+001
+1.75476846058E+007, +4.95128987993E+001, -2.12538988397E+001
+1.77352941176E+007, +4.95268318257E+001, -2.10391789985E+001
+1.79229036295E+007, +4.95259382741E+001, -2.08552679413E+001
+1.81105131414E+007, +4.95215457880E+001, -2.06306364732E+001
+1.82981226533E+007, +4.95057535346E+001, -2.04341299192E+001
+1.84857321652E+007, +4.95161647295E+001, -2.02574398125E+001
+1.86733416771E+007, +4.94987318756E+001, -2.00743543664E+001
+1.88609511890E+007, +4.95133986546E+001, -1.98805025184E+001
+1.90485607009E+007, +4.94889802403E+001, -1.96988603567E+001
+1.92361702128E+007, +4.95019487121E+001, -1.95315825863E+001
+1.94237797247E+007, +4.95036799079E+001, -1.93577748378E+001
+1.96113892365E+007, +4.94893975186E+001, -1.91904897829E+001
+1.97989987484E+007, +4.94837873790E+001, -1.90182228030E+001
+1.99866082603E+007, +4.94814928626E+001, -1.88584177594E+001
+2.01742177722E+007, +4.94748429442E+001, -1.87103527060E+001
+2.03618272841E+007, +4.94514942242E+001, -1.85566428349E+001
+2.05494367960E+007, +4.94685043442E+001, -1.83932127114E+001
+2.07370463079E+007, +4.94605149838E+001, -1.82637872089E+001
+2.09246558198E+007, +4.94594328657E+001, -1.80854572638E+001
+2.11122653317E+007, +4.94514762391E+001, -1.79506480666E+001
+2.12998748436E+007, +4.94585631402E+001, -1.78109092391E+001
+2.14874843554E+007, +4.94356852375E+001, -1.76757559460E+001
+2.16750938673E+007, +4.94182238663E+001, -1.75232541325E+001
+2.18627033792E+007, +4.94290277697E+001, -1.73891996941E+001
+2.20503128911E+007, +4.94257512936E+001, -1.72786597324E+001
+2.22379224030E+007, +4.94250968863E+001, -1.71349155609E+001
+2.24255319149E+007, +4.94085215705E+001, -1.70155975011E+001
+2.26131414268E+007, +4.94086819708E+001, -1.68896906929E+001
+2.28007509387E+007, +4.93879454754E+001, -1.67507224001E+001
+2.29883604506E+007, +4.93858973812E+001, -1.66346972947E+001
+2.31759699625E+007, +4.93823497794E+001, -1.65002261230E+001
+2.33635794743E+007, +4.93763792712E+001, -1.64104626594E+001
+2.35511889862E+007, +4.93626784442E+001, -1.62842545453E+001
+2.37387984981E+007, +4.93470478125E+001, -1.61489081739E+001
+2.39264080100E+007, +4.93393772477E+001, -1.60523618146E+001
+2.41140175219E+007, +4.93334521730E+001, -1.59403537923E+001
+2.43016270338E+007, +4.93254857061E+001, -1.58162934251E+001
+2.44892365457E+007, +4.93047182145E+001, -1.56998629712E+001
+2.46768460576E+007, +4.93073418982E+001, -1.55744857844E+001
+2.48644555695E+007, +4.93040666937E+001, -1.54533463820E+001
+2.50520650814E+007, +4.92856215454E+001, -1.53577691525E+001
+2.52396745932E+007, +4.93012835134E+001, -1.52331247311E+001
+2.54272841051E+007, +4.93303556482E+001, -1.51291639466E+001
+2.56148936170E+007, +4.93309680030E+001, -1.50272432695E+001
+2.58025031289E+007, +4.93158826148E+001, -1.49028015729E+001
+2.59901126408E+007, +4.93188637854E+001, -1.48157225104E+001
+2.61777221527E+007, +4.93276013269E+001, -1.47241191081E+001
+2.63653316646E+007, +4.93452982761E+001, -1.46343444126E+001
+2.65529411765E+007, +4.93414679026E+001, -1.45421732927E+001
+2.67405506884E+007, +4.93504937121E+001, -1.44606064096E+001
+2.69281602003E+007, +4.93600472315E+001, -1.43814250685E+001
+2.71157697121E+007, +4.93655138797E+001, -1.42923827791E+001
+2.73033792240E+007, +4.93593619912E+001, -1.42038917686E+001
+2.74909887359E+007, +4.93688805698E+001, -1.41347845799E+001
+2.76785982478E+007, +4.93777014943E+001, -1.40577356270E+001
+2.78662077597E+007, +4.93670412790E+001, -1.39921128019E+001
+2.80538172716E+007, +4.93714148068E+001, -1.39112251471E+001
+2.82414267835E+007, +4.93799958833E+001, -1.38330889097E+001
+2.84290362954E+007, +4.93835640458E+001, -1.37587787518E+001
+2.86166458073E+007, +4.93782326947E+001, -1.36901348256E+001
+2.88042553191E+007, +4.93710558442E+001, -1.36225765250E+001
+2.89918648310E+007, +4.93771410912E+001, -1.35366088805E+001
+2.91794743429E+007, +4.93665987038E+001, -1.34870297910E+001
+2.93670838548E+007, +4.93787372733E+001, -1.34202402162E+001
+2.95546933667E+007, +4.93790077398E+001, -1.33449199240E+001
+2.97423028786E+007, +4.93666913767E+001, -1.32921374475E+001
+2.99299123905E+007, +4.93671294585E+001, -1.32248605776E+001
+3.01175219024E+007, +4.93717346108E+001, -1.31711147967E+001
+3.03051314143E+007, +4.93686813720E+001, -1.30889100952E+001
+3.04927409262E+007, +4.93548987691E+001, -1.30298210699E+001
+3.06803504380E+007, +4.93457516051E+001, -1.29676312931E+001
+3.08679599499E+007, +4.93491502652E+001, -1.29203556587E+001
+3.10555694618E+007, +4.93468010863E+001, -1.28527837250E+001
+3.12431789737E+007, +4.93638205791E+001, -1.27976427671E+001
+3.14307884856E+007, +4.93550548458E+001, -1.27271641709E+001
+3.16183979975E+007, +4.93414995148E+001, -1.26805782364E+001
+3.18060075094E+007, +4.93383840452E+001, -1.26350652348E+001
+3.19936170213E+007, +4.93385468484E+001, -1.25838317159E+001
+3.21812265332E+007, +4.93450461069E+001, -1.25210012382E+001
+3.23688360451E+007, +4.93447554720E+001, -1.24552132149E+001
+3.25564455569E+007, +4.93382239462E+001, -1.24192809976E+001
+3.27440550688E+007, +4.93371090653E+001, -1.23783499726E+001
+3.29316645807E+007, +4.93199879961E+001, -1.23162085905E+001
+3.31192740926E+007, +4.93193282513E+001, -1.22693844082E+001
+3.33068836045E+007, +4.93199960968E+001, -1.22244861136E+001
+3.34944931164E+007, +4.93100656555E+001, -1.21701284289E+001
+3.36821026283E+007, +4.93173650171E+001, -1.21121995365E+001
+3.38697121402E+007, +4.93084608644E+001, -1.20711103615E+001
+3.40573216521E+007, +4.93053907724E+001, -1.20134417636E+001
+3.42449311640E+007, +4.93009121699E+001, -1.19598111428E+001
+3.44325406758E+007, +4.93072470637E+001, -1.19269140718E+001
+3.46201501877E+007, +4.93086106100E+001, -1.18832562362E+001
+3.48077596996E+007, +4.92906253277E+001, -1.18349128494E+001
+3.49953692115E+007, +4.92954269656E+001, -1.18085001565E+001
+3.51829787234E+007, +4.92842357395E+001, -1.17445568466E+001
+3.53705882353E+007, +4.92703803739E+001, -1.16943753282E+001
+3.55581977472E+007, +4.92803728691E+001, -1.16531323549E+001
+3.57458072591E+007, +4.92724927759E+001, -1.16174225682E+001
+3.59334167710E+007, +4.92577595593E+001, -1.15753467728E+001
+3.61210262829E+007, +4.92647790330E+001, -1.15411222808E+001
+3.63086357947E+007, +4.92646961890E+001, -1.14922102775E+001
+3.64962453066E+007, +4.92621699537E+001, -1.14506200747E+001
+3.66838548185E+007, +4.92535811043E+001, -1.14167007107E+001
+3.68714643304E+007, +4.92529497415E+001, -1.13742204832E+001
+3.70590738423E+007, +4.92493537446E+001, -1.13367716046E+001
+3.72466833542E+007, +4.92501236642E+001, -1.12970006490E+001
+3.74342928661E+007, +4.92432941428E+001, -1.12656912398E+001
+3.76219023780E+007, +4.92439363209E+001, -1.12441371635E+001
+3.78095118899E+007, +4.92349208578E+001, -1.12031993062E+001
+3.79971214018E+007, +4.92176755222E+001, -1.11596876058E+001
+3.81847309136E+007, +4.92318493284E+001, -1.11326755818E+001
+3.83723404255E+007, +4.92169120221E+001, -1.10975705573E+001
+3.85599499374E+007, +4.92197046207E+001, -1.10704526778E+001
+3.87475594493E+007, +4.92130883798E+001, -1.10503088394E+001
+3.89351689612E+007, +4.92068910011E+001, -1.10094936146E+001
+3.91227784731E+007, +4.92019783313E+001, -1.09820536951E+001
+3.93103879850E+007, +4.92006117776E+001, -1.09548538781E+001
+3.94979974969E+007, +4.91999327835E+001, -1.09192020760E+001
+3.96856070088E+007, +4.91861892318E+001, -1.09041935851E+001
+3.98732165207E+007, +4.91791386730E+001, -1.08716236594E+001
+4.00608260325E+007, +4.91743536716E+001, -1.08447143994E+001
+4.02484355444E+007, +4.91645670373E+001, -1.08209418794E+001
+4.04360450563E+007, +4.91499587131E+001, -1.07940767912E+001
+4.06236545682E+007, +4.91395247302E+001, -1.07594233925E+001
+4.08112640801E+007, +4.91239356943E+001, -1.07401641235E+001
+4.09988735920E+007, +4.91208679465E+001, -1.07050140537E+001
+4.11864831039E+007, +4.91207873600E+001, -1.06805858655E+001
+4.13740926158E+007, +4.91116839587E+001, -1.06509188396E+001
+4.15617021277E+007, +4.90970324027E+001, -1.06242896757E+001
+4.17493116395E+007, +4.90918935249E+001, -1.06004873912E+001
+4.19369211514E+007, +4.90854744590E+001, -1.05729066007E+001
+4.21245306633E+007, +4.90739098570E+001, -1.05394453547E+001
+4.23121401752E+007, +4.90664938327E+001, -1.05095345459E+001
+4.24997496871E+007, +4.90554340519E+001, -1.04906732472E+001
+4.26873591990E+007, +4.90416526403E+001, -1.04573157272E+001
+4.28749687109E+007, +4.90409696110E+001, -1.04402763437E+001
+4.30625782228E+007, +4.90399593082E+001, -1.04191110068E+001
+4.32501877347E+007, +4.90358748996E+001, -1.03828047674E+001
+4.34377972466E+007, +4.90236622717E+001, -1.03481981643E+001
+4.36254067584E+007, +4.90202524928E+001, -1.03363053056E+001
+4.38130162703E+007, +4.90199467317E+001, -1.03095598184E+001
+4.40006257822E+007, +4.90075463720E+001, -1.02873846866E+001
+4.41882352941E+007, +4.90083876892E+001, -1.02746160514E+001
+4.43758448060E+007, +4.90117106016E+001, -1.02564820269E+001
+4.45634543179E+007, +4.89868030742E+001, -1.02296392951E+001
+4.47510638298E+007, +4.89883347256E+001, -1.02092896658E+001
+4.49386733417E+007, +4.89837256141E+001, -1.02003904782E+001
+4.51262828536E+007, +4.89769799088E+001, -1.01762539738E+001
+4.53138923655E+007, +4.89603179032E+001, -1.01497224388E+001
+4.55015018773E+007, +4.89624205196E+001, -1.01359424058E+001
+4.56891113892E+007, +4.89551823521E+001, -1.01243846823E+001
+4.58767209011E+007, +4.89325751272E+001, -1.01054533828E+001
+4.60643304130E+007, +4.89211134073E+001, -1.00866022099E+001
+4.62519399249E+007, +4.89178913352E+001, -1.00663355032E+001
+4.64395494368E+007, +4.89055403927E+001, -1.00457321728E+001
+4.66271589487E+007, +4.88907226382E+001, -1.00348283646E+001
+4.68147684606E+007, +4.88843733683E+001, -1.00056028148E+001
+4.70023779725E+007, +4.88724799597E+001, -9.99118299674E+000
+4.71899874844E+007, +4.88708836141E+001, -9.96714057739E+000
+4.73775969962E+007, +4.88621046289E+001, -9.94765900946E+000
+4.75652065081E+007, +4.88488927059E+001, -9.93621731469E+000
+4.77528160200E+007, +4.88484718145E+001, -9.91193743653E+000
+4.79404255319E+007, +4.88386435486E+001, -9.90300783113E+000
+4.81280350438E+007, +4.88336887099E+001, -9.88534436882E+000
+4.83156445557E+007, +4.88287534284E+001, -9.86803040572E+000
+4.85032540676E+007, +4.88239770547E+001, -9.84837390342E+000
+4.86908635795E+007, +4.88184525746E+001, -9.83067817692E+000
+4.88784730914E+007, +4.88127419092E+001, -9.82907750073E+000
+4.90660826033E+007, +4.88078220834E+001, -9.81335597955E+000
+4.92536921151E+007, +4.88102845895E+001, -9.80163581031E+000
+4.94413016270E+007, +4.88047061291E+001, -9.79369373387E+000
+4.96289111389E+007, +4.87963793129E+001, -9.78290707283E+000
+4.98165206508E+007, +4.87910225336E+001, -9.78151944157E+000
+5.00041301627E+007, +4.87699923961E+001, -9.76506249835E+000
+5.01917396746E+007, +4.87500922090E+001, -9.75438507843E+000
+5.03793491865E+007, +4.87444976954E+001, -9.74039745254E+000
+5.05669586984E+007, +4.87213138414E+001, -9.73029917695E+000
+5.07545682103E+007, +4.87150140375E+001, -9.71267203950E+000
+5.09421777222E+007, +4.87066121539E+001, -9.69909165946E+000
+5.11297872340E+007, +4.86921747282E+001, -9.68076909878E+000
+5.13173967459E+007, +4.86837829620E+001, -9.65991199790E+000
+5.15050062578E+007, +4.86763049276E+001, -9.65383913376E+000
+5.16926157697E+007, +4.86808739703E+001, -9.63978315685E+000
+5.18802252816E+007, +4.86640706240E+001, -9.62386117499E+000
+5.20678347935E+007, +4.86488455338E+001, -9.61285561745E+000
+5.22554443054E+007, +4.86499906825E+001, -9.59739359785E+000
+5.24430538173E+007, +4.86471604853E+001, -9.58760149066E+000
+5.26306633292E+007, +4.86546006416E+001, -9.58601797089E+000
+5.28182728411E+007, +4.86426024814E+001, -9.56634702809E+000
+5.30058823529E+007, +4.86431743363E+001, -9.55420167346E+000
+5.31934918648E+007, +4.86382814148E+001, -9.55377218338E+000
+5.33811013767E+007, +4.86453764591E+001, -9.55512022479E+000
+5.35687108886E+007, +4.86401915544E+001, -9.53930952265E+000
+5.37563204005E+007, +4.86350520835E+001, -9.55361761249E+000
+5.39439299124E+007, +4.86394819139E+001, -9.54306265443E+000
+5.41315394243E+007, +4.86251612804E+001, -9.56070962175E+000
+5.43191489362E+007, +4.86211342625E+001, -9.56364620032E+000
+5.45067584481E+007, +4.86023604270E+001, -9.55572548958E+000
+5.46943679599E+007, +4.85883450276E+001, -9.55884905781E+000
+5.48819774718E+007, +4.85762763808E+001, -9.55648667203E+000
+5.50695869837E+007, +4.85555332300E+001, -9.55677305147E+000
+5.52571964956E+007, +4.85498605634E+001, -9.54892977180E+000
+5.54448060075E+007, +4.85338727056E+001, -9.52199163677E+000
+5.56324155194E+007, +4.85297097670E+001, -9.51703275371E+000
+5.58200250313E+007, +4.85351051006E+001, -9.51727131529E+000
+5.60076345432E+007, +4.85246255693E+001, -9.50352966336E+000
+5.61952440551E+007, +4.85278541102E+001, -9.51144323968E+000
+5.63828535670E+007, +4.85422227788E+001, -9.50837279202E+000
+5.65704630788E+007, +4.85263410834E+001, -9.50652275914E+000
+5.67580725907E+007, +4.85321728255E+001, -9.51811029456E+000
+5.69456821026E+007, +4.85348208415E+001, -9.52465700876E+000
+5.71332916145E+007, +4.85253596379E+001, -9.53972775189E+000
+5.73209011264E+007, +4.85238781103E+001, -9.54144137800E+000
+5.75085106383E+007, +4.85299141559E+001, -9.54814739496E+000
+5.76961201502E+007, +4.85139545205E+001, -9.57022169223E+000
+5.78837296621E+007, +4.85089172941E+001, -9.59110946941E+000
+5.80713391740E+007, +4.85056731070E+001, -9.59334881856E+000
+5.82589486859E+007, +4.84939044713E+001, -9.61521889603E+000
+5.84465581977E+007, +4.84734375082E+001, -9.63022847845E+000
+5.86341677096E+007, +4.84745781305E+001, -9.64526029960E+000
+5.88217772215E+007, +4.84556797426E+001, -9.66913571866E+000
+5.90093867334E+007, +4.84445988291E+001, -9.67891372453E+000
+5.91969962453E+007, +4.84313160992E+001, -9.69833141726E+000
+5.93846057572E+007, +4.84185018651E+001, -9.71065854855E+000
+5.95722152691E+007, +4.84089346336E+001, -9.73224166329E+000
+5.97598247810E+007, +4.83870248626E+001, -9.75550451116E+000
+5.99474342929E+007, +4.83795054562E+001, -9.77417224143E+000
+6.01350438048E+007, +4.83617981773E+001, -9.78659624706E+000
