"# Channel 1"
"# Trace 1"
Frequency, Formatted Data, Formatted Data
+1.00000000000E+005, +5.66451918026E+001, +2.44844686705E+000
+2.25031289111E+005, +5.66259545487E+001, +5.90905197718E+000
+3.50062578223E+005, +5.66240349073E+001, +9.29106632662E+000
+4.75093867334E+005, +5.67007276646E+001, +1.25073142674E+001
+6.00125156446E+005, +5.66530680986E+001, +1.58095596370E+001
+7.25156445557E+005, +5.66286770267E+001, +1.90258426044E+001
+8.50187734668E+005, +5.67679161068E+001, +2.23705430680E+001
+9.75219023780E+005, +5.66660103568E+001, +2.55750250203E+001
+1.10025031289E+006, +5.65898468634E+001, +2.88899993852E+001
+1.22528160200E+006, +5.67629659590E+001, +3.21217205387E+001
+1.35031289111E+006, +5.66785812289E+001, +3.54249923517E+001
+1.47534418023E+006, +5.67120711535E+001, +3.86465392153E+001
+1.60037546934E+006, +5.67249088246E+001, +4.19777724781E+001
+1.72540675845E+006, +5.66257631344E+001, +4.52436557980E+001
+1.85043804756E+006, +5.66175093085E+001, +4.84329051582E+001
+1.97546933667E+006, +5.67490021329E+001, +5.17685355848E+001
+2.10050062578E+006, +5.67099593722E+001, +5.49223480171E+001
+2.22553191489E+006, +5.66218013207E+001, +5.82668203567E+001
+2.35056320401E+006, +5.67025248433E+001, +6.16370365763E+001
+2.47559449312E+006, +5.67065078893E+001, +6.48579687236E+001
+2.60062578223E+006, +5.67356463329E+001, +6.82253009516E+001
+2.72565707134E+006, +5.68729434641E+001, +7.15280342234E+001
+2.85068836045E+006, +5.66412860488E+001, +7.48088633765E+001
+2.97571964956E+006, +5.68378516249E+001, +7.79163063211E+001
+3.10075093867E+006, +5.67725130563E+001, +8.13136174245E+001
+3.22578222778E+006, +5.67756681788E+001, +8.45856237167E+001
+3.35081351690E+006, +5.66789050480E+001, +8.78631904055E+001
+3.47584480601E+006, +5.70591020742E+001, +9.11128461957E+001
+3.60087609512E+006, +5.68464997360E+001, +9.43897092923E+001
+3.72590738423E+006, +5.68692601123E+001, +9.77187486599E+001
+3.85093867334E+006, +5.69457782929E+001, +1.01175690868E+002
+3.97596996245E+006, +5.69169974241E+001, +1.04062353770E+002
+4.10100125156E+006, +5.69303737761E+001, +1.07745225053E+002
+4.22603254068E+006, +5.68658529025E+001, +1.11081933273E+002
+4.35106382979E+006, +5.68998181225E+001, +1.14213220070E+002
+4.47609511890E+006, +5.71936974752E+001, +1.17642187759E+002
+4.60112640801E+006, +5.69690615229E+001, +1.21015052701E+002
+4.72615769712E+006, +5.72266900672E+001, +1.24151241852E+002
+4.85118898623E+006, +5.70407278798E+001, +1.27696680088E+002
+4.97622027534E+006, +5.70133581683E+001, +1.30871641277E+002
+5.10125156446E+006, +5.74226146789E+001, +1.34262949269E+002
+5.22628285357E+006, +5.74514761153E+001, +1.37702785289E+002
+5.35131414268E+006, +5.72652146650E+001, +1.41158299131E+002
+5.47634543179E+006, +5.68484634011E+001, +1.44422842731E+002
+5.60137672090E+006, +5.72776896570E+001, +1.47547380040E+002
+5.72640801001E+006, +5.77638416999E+001, +1.51115816277E+002
+5.85143929912E+006, +5.74596551831E+001, +1.54742440216E+002
+5.97647058824E+006, +5.75309835944E+001, +1.58100062683E+002
+6.10150187735E+006, +5.80963560332E+001, +1.61110978581E+002
+6.22653316646E+006, +5.72985891613E+001, +1.64462415377E+002
+6.35156445557E+006, +5.78866412729E+001, +1.67864626105E+002
+6.47659574468E+006, +5.80690272570E+001, +1.71510646535E+002
+6.60162703379E+006, +5.81188632344E+001, +1.74834669478E+002
+6.72665832290E+006, +5.81789460033E+001, +1.78118559202E+002
+6.85168961202E+006, +5.84013497387E+001, +1.81644992557E+002
+6.97672090113E+006, +5.85484790253E+001, +1.85073595991E+002
+7.10175219024E+006, +5.84580194383E+001, +1.88372749021E+002
+7.22678347935E+006, +5.87390100427E+001, +1.91751407494E+002
+7.35181476846E+006, +5.87478621976E+001, +1.95472966525E+002
+7.47684605757E+006, +5.86937793950E+001, +1.99141085600E+002
+7.60187734668E+006, +5.91634344264E+001, +2.02336189619E+002
+7.72690863579E+006, +5.89530053393E+001, +2.05933438319E+002
+7.85193992491E+006, +5.85524656155E+001, +2.09357935521E+002
+7.97697121402E+006, +5.93605187442E+001, +2.12689059691E+002
+8.10200250313E+006, +5.92404690407E+001, +2.16016827576E+002
+8.22703379224E+006, +5.92524289792E+001, +2.19581460822E+002
+8.35206508135E+006, +5.91292007451E+001, +2.23374695696E+002
+8.47709637046E+006, +5.93540373612E+001, +2.26620266979E+002
+8.60212765957E+006, +5.95509937975E+001, +2.30257671586E+002
+8.72715894869E+006, +5.97570869718E+001, +2.34466998303E+002
+8.85219023780E+006, +5.97532809045E+001, +2.37806769869E+002
+8.97722152691E+006, +6.00516574678E+001, +2.41196741380E+002
+9.10225281602E+006, +5.95350225215E+001, +2.44889506884E+002
+9.22728410513E+006, +6.01387055053E+001, +2.48164481756E+002
+9.35231539424E+006, +6.00386078292E+001, +2.52059048101E+002
+9.47734668335E+006, +6.02615306312E+001, +2.55486842498E+002
+9.60237797247E+006, +6.05009306030E+001, +2.59145957373E+002
+9.72740926158E+006, +6.04773900792E+001, +2.62758070020E+002
+9.85244055069E+006, +6.03474813405E+001, +2.66320562175E+002
+9.97747183980E+006, +6.06965498928E+001, +2.70069177901E+002
+1.01025031289E+007, +6.07081020838E+001, +2.72996435076E+002
+1.02275344180E+007, +6.09446156650E+001, +2.77222213047E+002
+1.03525657071E+007, +6.08415453599E+001, +2.80858675446E+002
+1.04775969962E+007, +6.08317631521E+001, +2.85097875872E+002
+1.06026282854E+007, +6.09925296108E+001, +2.88354520739E+002
+1.07276595745E+007, +6.11263027816E+001, +2.92530059623E+002
+1.08526908636E+007, +6.16066986141E+001, +2.95791750409E+002
+1.09777221527E+007, +6.14878755307E+001, +2.99361852413E+002
+1.11027534418E+007, +6.19373431192E+001, +3.03147746949E+002
+1.12277847309E+007, +6.17918082018E+001, +3.07269381617E+002
+1.13528160200E+007, +6.14479294512E+001, +3.10853894277E+002
+1.14778473091E+007, +6.15378124864E+001, +3.15141121482E+002
+1.16028785982E+007, +6.25290821679E+001, +3.18377936695E+002
+1.17279098874E+007, +6.17797989181E+001, +3.22981043149E+002
+1.18529411765E+007, +6.17171715440E+001, +3.26422147032E+002
+1.19779724656E+007, +6.23169181534E+001, +3.30802920000E+002
+1.21030037547E+007, +6.27682384296E+001, +3.34490794191E+002
+1.22280350438E+007, +6.22977155862E+001, +3.37923064196E+002
+1.23530663329E+007, +6.23656080995E+001, +3.41449970769E+002
+1.24780976220E+007, +6.24488019707E+001, +3.46198226574E+002
+1.26031289111E+007, +6.27247417674E+001, +3.49654408314E+002
+1.27281602003E+007, +6.32113518510E+001, +3.54085924108E+002
+1.28531914894E+007, +6.30824195493E+001, +3.57229821230E+002
+1.29782227785E+007, +6.34858924650E+001, +3.61213991614E+002
+1.31032540676E+007, +6.35230795018E+001, +3.65007179176E+002
+1.32282853567E+007, +6.39614109001E+001, +3.69918932823E+002
+1.33533166458E+007, +6.33814726030E+001, +3.73264732232E+002
+1.34783479349E+007, +6.42888877841E+001, +3.78060297758E+002
+1.36033792240E+007, +6.34090707478E+001, +3.82241242124E+002
+1.37284105131E+007, +6.37166473767E+001, +3.85421156454E+002
+1.38534418023E+007, +6.39932966901E+001, +3.88870455208E+002
+1.39784730914E+007, +6.46440463152E+001, +3.93832508575E+002
+1.41035043805E+007, +6.44755000087E+001, +3.97803613406E+002
+1.42285356696E+007, +6.49323401952E+001, +4.02184060339E+002
+1.43535669587E+007, +6.48382014283E+001, +4.06100742172E+002
+1.44785982478E+007, +6.52623608649E+001, +4.10768381790E+002
+1.46036295369E+007, +6.47746781784E+001, +4.14082201979E+002
+1.47286608260E+007, +6.52259664552E+001, +4.18513205494E+002
+1.48536921151E+007, +6.58201789823E+001, +4.22409142519E+002
+1.49787234043E+007, +6.65577801618E+001, +4.27298217219E+002
+1.51037546934E+007, +6.68020818890E+001, +4.32186704547E+002
+1.52287859825E+007, +6.58766051430E+001, +4.36137849371E+002
+1.53538172716E+007, +6.70351098587E+001, +4.39704587002E+002
+1.54788485607E+007, +6.64648146795E+001, +4.44619564002E+002
+1.56038798498E+007, +6.69219744238E+001, +4.49220236653E+002
+1.57289111389E+007, +6.66037368463E+001, +4.53514140557E+002
+1.58539424280E+007, +6.59994921939E+001, +4.57615015565E+002
+1.59789737171E+007, +6.60827645409E+001, +4.61276225190E+002
+1.61040050063E+007, +6.78789778439E+001, +4.67713661145E+002
+1.62290362954E+007, +6.75146787974E+001, +4.69834778169E+002
+1.63540675845E+007, +6.79115405613E+001, +4.75159987462E+002
+1.64790988736E+007, +6.93519249228E+001, +4.79930394913E+002
+1.66041301627E+007, +6.81402665144E+001, +4.84049160599E+002
+1.67291614518E+007, +6.82539460119E+001, +4.88860394695E+002
+1.68541927409E+007, +6.95101137872E+001, +4.93205513135E+002
+1.69792240300E+007, +6.92124869287E+001, +4.99054424870E+002
+1.71042553191E+007, +6.63896756639E+001, +5.03152512210E+002
+1.72292866083E+007, +6.85523457422E+001, +5.08318678714E+002
+1.73543178974E+007, +6.74104987507E+001, +5.11349277413E+002
+1.74793491865E+007, +6.90500621447E+001, +5.17841529425E+002
+1.76043804756E+007, +7.03208812164E+001, +5.20049916772E+002
+1.77294117647E+007, +7.02774139928E+001, +5.26852828737E+002
+1.78544430538E+007, +7.03203360002E+001, +5.32456047571E+002
+1.79794743429E+007, +7.02434920258E+001, +5.38431608025E+002
+1.81045056320E+007, +6.94857857836E+001, +5.43795304989E+002
+1.82295369212E+007, +7.10904034350E+001, +5.46653216080E+002
+1.83545682103E+007, +7.22256812782E+001, +5.51053627937E+002
+1.84795994994E+007, +7.18800015211E+001, +5.57271508324E+002
+1.86046307885E+007, +7.30546430228E+001, +5.61577116841E+002
+1.87296620776E+007, +7.16917745685E+001, +5.65481480709E+002
+1.88546933667E+007, +7.38334570551E+001, +5.71273580154E+002
+1.89797246558E+007, +7.40500484898E+001, +5.77178912277E+002
+1.91047559449E+007, +7.38227500636E+001, +5.82047471182E+002
+1.92297872340E+007, +7.46161430728E+001, +5.86559005420E+002
+1.93548185232E+007, +7.54337570548E+001, +5.93391407566E+002
+1.94798498123E+007, +7.56141004248E+001, +5.96753006140E+002
+1.96048811014E+007, +7.41758446372E+001, +6.01941688426E+002
+1.97299123905E+007, +7.50319403399E+001, +6.07123620946E+002
+1.98549436796E+007, +7.55406093296E+001, +6.12819081876E+002
+1.99799749687E+007, +7.61473626426E+001, +6.17854379648E+002
+2.01050062578E+007, +7.84344808687E+001, +6.23055825165E+002
+2.02300375469E+007, +7.59365062328E+001, +6.29759747756E+002
+2.03550688360E+007, +7.86218909351E+001, +6.34766033466E+002
+2.04801001252E+007, +7.79183929708E+001, +6.38612528204E+002
+2.06051314143E+007, +7.68515890838E+001, +6.45516616637E+002
+2.07301627034E+007, +7.74985952969E+001, +6.53279549126E+002
+2.08551939925E+007, +8.00220590829E+001, +6.58617069270E+002
+2.09802252816E+007, +7.76911591736E+001, +6.63988159933E+002
+2.11052565707E+007, +8.02941965447E+001, +6.68716004004E+002
+2.12302878598E+007, +8.03169232247E+001, +6.73487601765E+002
+2.13553191489E+007, +8.20038013908E+001, +6.82075934845E+002
+2.14803504380E+007, +8.01641379859E+001, +6.88008306072E+002
+2.16053817272E+007, +8.36511501568E+001, +6.93813338718E+002
+2.17304130163E+007, +8.19669673290E+001, +6.98143769430E+002
+2.18554443054E+007, +8.32976716630E+001, +7.04174730673E+002
+2.19804755945E+007, +8.23714365622E+001, +7.10434786081E+002
+2.21055068836E+007, +8.52117914794E+001, +7.17869895357E+002
+2.22305381727E+007, +8.69403845280E+001, +7.22417163200E+002
+2.23555694618E+007, +8.61997387388E+001, +7.29665311477E+002
+2.24806007509E+007, +8.51106597340E+001, +7.34394630695E+002
+2.26056320401E+007, +8.93273018137E+001, +7.43303851034E+002
+2.27306633292E+007, +8.98263307456E+001, +7.48002452838E+002
+2.28556946183E+007, +9.23537434486E+001, +7.53907788263E+002
+2.29807259074E+007, +9.10234971978E+001, +7.62775836808E+002
+2.31057571965E+007, +9.05422416337E+001, +7.64508662616E+002
+2.32307884856E+007, +9.66788516323E+001, +7.72798316057E+002
+2.33558197747E+007, +9.51562128761E+001, +7.78507643171E+002
+2.34808510638E+007, +9.76335561310E+001, +7.86341404703E+002
+2.36058823529E+007, +9.90311876320E+001, +7.89726259254E+002
+2.37309136421E+007, +1.02268856498E+002, +7.95977645134E+002
+2.38559449312E+007, +1.01783665963E+002, +8.03024923652E+002
+2.39809762203E+007, +1.00039315078E+002, +8.08163343397E+002
+2.41060075094E+007, +9.95617576687E+001, +8.14647315552E+002
+2.42310387985E+007, +1.00700034080E+002, +8.19500739727E+002
+2.43560700876E+007, +1.03015288932E+002, +8.25720002794E+002
+2.44811013767E+007, +1.04907800542E+002, +8.32236643321E+002
+2.46061326658E+007, +1.06341347619E+002, +8.34566097982E+002
+2.47311639549E+007, +1.08526618390E+002, +8.45626370032E+002
+2.48561952441E+007, +1.05906657019E+002, +8.53517191254E+002
+2.49812265332E+007, +1.05836781565E+002, +8.59071583036E+002
+2.51062578223E+007, +1.07879996664E+002, +8.68121102243E+002
+2.52312891114E+007, +1.04600588784E+002, +8.73246745922E+002
+2.53563204005E+007, +1.03417511397E+002, +8.83254995433E+002
+2.54813516896E+007, +1.08997750488E+002, +8.85934679742E+002
+2.56063829787E+007, +1.02758108775E+002, +8.92211839546E+002
+2.57314142678E+007, +1.07233191203E+002, +8.98833341347E+002
+2.58564455569E+007, +1.05294331683E+002, +9.11565736917E+002
+2.59814768461E+007, +1.08256958507E+002, +9.18277797185E+002
+2.61065081352E+007, +1.10052534705E+002, +9.27065309409E+002
+2.62315394243E+007, +1.12170963427E+002, +9.37120807631E+002
+2.63565707134E+007, +1.03768587519E+002, +9.39371588187E+002
+2.64816020025E+007, +1.05533699377E+002, +9.49283019339E+002
+2.66066332916E+007, +1.02854540975E+002, +9.62462431507E+002
+2.67316645807E+007, +1.10326293090E+002, +9.71006198062E+002
+2.68566958698E+007, +1.12479112497E+002, +9.80354120380E+002
+2.69817271589E+007, +1.12095481830E+002, +9.90944121612E+002
+2.71067584481E+007, +1.11140912452E+002, +9.95752657242E+002
+2.72317897372E+007, +1.14430677618E+002, +1.00141210464E+003
+2.73568210263E+007, +1.13250496306E+002, +1.01115930829E+003
+2.74818523154E+007, +1.18830693972E+002, +1.02190113285E+003
+2.76068836045E+007, +1.13688374500E+002, +1.03575017183E+003
+2.77319148936E+007, +1.21480941503E+002, +1.04170007449E+003
+2.78569461827E+007, +1.18661272993E+002, +1.04538204139E+003
+2.79819774718E+007, +1.21022887183E+002, +1.05485353838E+003
+2.81070087610E+007, +1.18615900520E+002, +1.06429284742E+003
+2.82320400501E+007, +1.23813486662E+002, +1.07560514006E+003
+2.83570713392E+007, +1.24504830004E+002, +1.08017257952E+003
+2.84821026283E+007, +1.19374675546E+002, +1.09622460879E+003
+2.86071339174E+007, +1.19818957998E+002, +1.10601693080E+003
+2.87321652065E+007, +1.18860973003E+002, +1.11000437046E+003
+2.88571964956E+007, +1.19169789474E+002, +1.12434906040E+003
+2.89822277847E+007, +1.23899179106E+002, +1.13740584767E+003
+2.91072590738E+007, +1.20515024082E+002, +1.14241057113E+003
+2.92322903630E+007, +1.27115914721E+002, +1.15585851436E+003
+2.93573216521E+007, +1.30480544579E+002, +1.16815020904E+003
+2.94823529412E+007, +1.30767345111E+002, +1.18041819771E+003
+2.96073842303E+007, +1.29283271091E+002, +1.19026761720E+003
+2.97324155194E+007, +1.31371521110E+002, +1.19506985829E+003
+2.98574468085E+007, +1.35982112048E+002, +1.21767067395E+003
+2.99824780976E+007, +1.38468910430E+002, +1.21946820608E+003
+3.01075093867E+007, +1.41522614050E+002, +1.23538521019E+003
+3.02325406758E+007, +1.29431943751E+002, +1.25080882923E+003
+3.03575719650E+007, +1.39663627321E+002, +1.26279564862E+003
+3.04826032541E+007, +1.37575851715E+002, +1.27272202357E+003
+3.06076345432E+007, +1.39694193528E+002, +1.28066615625E+003
+3.07326658323E+007, +1.44320815098E+002, +1.29935095406E+003
+3.08576971214E+007, +1.46191123516E+002, +1.30723090061E+003
+3.09827284105E+007, +1.44786643462E+002, +1.30890288755E+003
+3.11077596996E+007, +1.43363778946E+002, +1.33025219800E+003
+3.12327909887E+007, +1.40770917695E+002, +1.34835423224E+003
+3.13578222778E+007, +1.44263605435E+002, +1.35958469031E+003
+3.14828535670E+007, +1.57866028110E+002, +1.36881756908E+003
+3.16078848561E+007, +1.57013957869E+002, +1.37806203925E+003
+3.17329161452E+007, +1.51680767750E+002, +1.39627565973E+003
+3.18579474343E+007, +1.58336291194E+002, +1.41946311827E+003
+3.19829787234E+007, +1.48517414294E+002, +1.43286006055E+003
+3.21080100125E+007, +1.57844901827E+002, +1.44476430427E+003
+3.22330413016E+007, +1.66734290457E+002, +1.46297748283E+003
+3.23580725907E+007, +1.70737683275E+002, +1.47611236829E+003
+3.24831038798E+007, +1.62448280713E+002, +1.49495570758E+003
+3.26081351690E+007, +1.68100424397E+002, +1.49914856416E+003
+3.27331664581E+007, +1.67314719064E+002, +1.52128832256E+003
+3.28581977472E+007, +1.63725218186E+002, +1.52322685147E+003
+3.29832290363E+007, +1.75965495923E+002, +1.54298790899E+003
+3.31082603254E+007, +1.81539699631E+002, +1.58003881480E+003
+3.32332916145E+007, +1.82399438888E+002, +1.58000219470E+003
+3.33583229036E+007, +1.81815930699E+002, +1.59869108392E+003
+3.34833541927E+007, +1.79969294582E+002, +1.60853763643E+003
+3.36083854819E+007, +1.93613578395E+002, +1.64358261008E+003
+3.37334167710E+007, +1.88548901786E+002, +1.64305344590E+003
+3.38584480601E+007, +1.80809473365E+002, +1.67851339783E+003
+3.39834793492E+007, +1.90200352338E+002, +1.69267194776E+003
+3.41085106383E+007, +1.87778409093E+002, +1.70673127641E+003
+3.42335419274E+007, +1.96620010543E+002, +1.73063190118E+003
+3.43585732165E+007, +1.92460017896E+002, +1.74127398629E+003
+3.44836045056E+007, +2.16042350214E+002, +1.75635951865E+003
+3.46086357947E+007, +2.14859504759E+002, +1.78930349009E+003
+3.47336670839E+007, +2.13455180085E+002, +1.80886533944E+003
+3.48586983730E+007, +2.29144674126E+002, +1.82433528713E+003
+3.49837296621E+007, +2.21864086377E+002, +1.84367095785E+003
+3.51087609512E+007, +2.26239277479E+002, +1.85986121602E+003
+3.52337922403E+007, +2.36961951815E+002, +1.88943226784E+003
+3.53588235294E+007, +2.20291114925E+002, +1.91078345352E+003
+3.54838548185E+007, +2.35988238901E+002, +1.93432539087E+003
+3.56088861076E+007, +2.42706736373E+002, +1.96876177594E+003
+3.57339173967E+007, +2.63898338536E+002, +2.00627048685E+003
+3.58589486859E+007, +2.49901071860E+002, +2.03745482902E+003
+3.59839799750E+007, +2.36980335611E+002, +2.04570111756E+003
+3.61090112641E+007, +2.66599105818E+002, +2.05899588128E+003
+3.62340425532E+007, +2.86009672453E+002, +2.10483913078E+003
+3.63590738423E+007, +2.88630833515E+002, +2.10642554560E+003
+3.64841051314E+007, +2.94307333072E+002, +2.15615112549E+003
+3.66091364205E+007, +2.81002853234E+002, +2.18215511719E+003
+3.67341677096E+007, +2.95230945033E+002, +2.20853732296E+003
+3.68591989987E+007, +3.12202377905E+002, +2.23142553931E+003
+3.69842302879E+007, +2.73177856105E+002, +2.25416315898E+003
+3.71092615770E+007, +3.12849823578E+002, +2.28421044667E+003
+3.72342928661E+007, +2.93690972325E+002, +2.33580951774E+003
+3.73593241552E+007, +3.05304504985E+002, +2.36443775252E+003
+3.74843554443E+007, +3.32804121959E+002, +2.39467328423E+003
+3.76093867334E+007, +3.16505948314E+002, +2.42833602951E+003
+3.77344180225E+007, +3.51430821823E+002, +2.46865548944E+003
+3.78594493116E+007, +3.47033117792E+002, +2.53918630917E+003
+3.79844806008E+007, +3.66063662898E+002, +2.55682986181E+003
+3.81095118899E+007, +3.62264574877E+002, +2.59473790573E+003
+3.82345431790E+007, +3.73476942908E+002, +2.60970561245E+003
+3.83595744681E+007, +4.08259905307E+002, +2.66007124688E+003
+3.84846057572E+007, +3.53483861121E+002, +2.69741725444E+003
+3.86096370463E+007, +3.93746031090E+002, +2.73875622060E+003
+3.87346683354E+007, +4.29047624082E+002, +2.80639105961E+003
+3.88596996245E+007, +4.06545308729E+002, +2.85501660446E+003
+3.89847309136E+007, +4.28248487222E+002, +2.88393398595E+003
+3.91097622028E+007, +4.48526559067E+002, +2.94291078940E+003
+3.92347934919E+007, +4.96026084951E+002, +3.01607615273E+003
+3.93598247810E+007, +4.72062425661E+002, +3.04444209819E+003
+3.94848560701E+007, +4.68545574705E+002, +3.11944859540E+003
+3.96098873592E+007, +4.98229903781E+002, +3.22335899601E+003
+3.97349186483E+007, +5.25712243426E+002, +3.25227547742E+003
+3.98599499374E+007, +6.15320676693E+002, +3.27195316777E+003
+3.99849812265E+007, +5.44907722860E+002, +3.32212751117E+003
+4.01100125156E+007, +6.12204047370E+002, +3.44514019756E+003
