"# Channel 1"
"# Trace 1"
Frequency, Formatted Data, Formatted Data
+1.00000000000E+005, +2.21696236481E-001, +2.42012691428E+000
+2.66777963272E+005, +2.57209167853E-001, +6.41336300561E+000
+4.33555926544E+005, +3.14019474930E-001, +1.03991732061E+001
+6.00333889816E+005, +3.45257868004E-001, +1.43020357322E+001
+7.67111853088E+005, +3.93479349771E-001, +1.82724964900E+001
+9.33889816361E+005, +4.16868728478E-001, +2.21896783425E+001
+1.10066777963E+006, +3.65539766934E-001, +2.61556937017E+001
+1.26744574290E+006, +4.29370943691E-001, +3.00543678490E+001
+1.43422370618E+006, +3.74840686417E-001, +3.40630579576E+001
+1.60100166945E+006, +4.55168343706E-001, +3.79047508189E+001
+1.76777963272E+006, +4.71187659025E-001, +4.18259471993E+001
+1.93455759599E+006, +4.63779313194E-001, +4.57128447406E+001
+2.10133555927E+006, +4.84902086862E-001, +4.96152121762E+001
+2.26811352254E+006, +4.99648030256E-001, +5.36103032722E+001
+2.43489148581E+006, +5.03245926474E-001, +5.76036088433E+001
+2.60166944908E+006, +5.18774518742E-001, +6.14450600714E+001
+2.76844741235E+006, +4.17962098092E-001, +6.55218431120E+001
+2.93522537563E+006, +4.32917093076E-001, +6.93472667695E+001
+3.10200333890E+006, +6.31854567220E-001, +7.32459874239E+001
+3.26878130217E+006, +3.61897558543E-001, +7.73896693242E+001
+3.43555926544E+006, +4.69518778548E-001, +8.13216058871E+001
+3.60233722871E+006, +5.50793867156E-001, +8.53149598832E+001
+3.76911519199E+006, +4.18677435976E-001, +8.94393482584E+001
+3.93589315526E+006, +7.05735518756E-001, +9.32357860609E+001
+4.10267111853E+006, -1.17209418746E-001, +9.65035931884E+001
+4.26944908180E+006, +1.93941541007E-001, +1.01911247876E+002
+4.43622704508E+006, +4.83524618387E-001, +1.05392913419E+002
+4.60300500835E+006, +4.31777629030E-001, +1.09568420672E+002
+4.76978297162E+006, +3.90132086415E-001, +1.13262112281E+002
+4.93656093489E+006, +5.78320159808E-001, +1.17506831302E+002
+5.10333889816E+006, +5.69401832764E-001, +1.21412246556E+002
+5.27011686144E+006, +1.01290444509E+000, +1.25700266787E+002
+5.43689482471E+006, +5.97936126421E-001, +1.29718891004E+002
+5.60367278798E+006, +7.39334364072E-001, +1.33858249214E+002
+5.77045075125E+006, +6.47314638359E-001, +1.37590815369E+002
+5.93722871452E+006, +9.58579312905E-001, +1.41965748426E+002
+6.10400667780E+006, +9.15633377371E-001, +1.46098462041E+002
+6.27078464107E+006, +1.09229666590E+000, +1.50061781457E+002
+6.43756260434E+006, +1.14127033029E+000, +1.54201240982E+002
+6.60434056761E+006, +1.27963865963E+000, +1.58301347167E+002
+6.77111853088E+006, +1.41023266461E+000, +1.62259152715E+002
+6.93789649416E+006, +1.35372184722E+000, +1.66519626134E+002
+7.10467445743E+006, +1.20363215243E+000, +1.70496295689E+002
+7.27145242070E+006, +1.18329960443E+000, +1.74532099611E+002
+7.43823038397E+006, +1.36808913857E+000, +1.78581576731E+002
+7.60500834725E+006, +1.17763809287E+000, +1.82973547764E+002
+7.77178631052E+006, +1.36312507675E+000, +1.87097313100E+002
+7.93856427379E+006, +1.18981211183E+000, +1.91035877765E+002
+8.10534223706E+006, +1.29254226144E+000, +1.95250160057E+002
+8.27212020033E+006, +1.05140042573E+000, +1.99484505382E+002
+8.43889816361E+006, +9.86988365146E-001, +2.03713807031E+002
+8.60567612688E+006, +6.66268711005E-001, +2.08174032382E+002
+8.77245409015E+006, +7.32031822090E-001, +2.12224804857E+002
+8.93923205342E+006, +7.54231542279E-001, +2.16705979235E+002
+9.10601001669E+006, +8.98093018794E-001, +2.20892807110E+002
+9.27278797997E+006, +7.05995075279E-001, +2.25328665994E+002
+9.43956594324E+006, +5.62764562698E-001, +2.29668941160E+002
+9.60634390651E+006, +2.67153385178E-001, +2.34003443088E+002
+9.77312186978E+006, +4.85853621496E-001, +2.38493707022E+002
+9.93989983306E+006, +5.93080670737E-001, +2.42831952026E+002
+1.01066777963E+007, +3.33327138528E-001, +2.47207974054E+002
+1.02734557596E+007, +4.61344922901E-001, +2.52195353197E+002
+1.04402337229E+007, +1.25944845142E-001, +2.56313567649E+002
+1.06070116861E+007, -2.49839557078E-001, +2.61032489285E+002
+1.07737896494E+007, +1.71056174159E-001, +2.65316376999E+002
+1.09405676127E+007, +3.00649170625E-001, +2.70236791808E+002
+1.11073455760E+007, +2.67451760217E-001, +2.74554991485E+002
+1.12741235392E+007, +3.62634791255E-001, +2.79515549237E+002
+1.14409015025E+007, +2.53903306348E-001, +2.84029824247E+002
+1.16076794658E+007, +4.10066460114E-001, +2.88365077107E+002
+1.17744574290E+007, +4.00827018284E-001, +2.93495888740E+002
+1.19412353923E+007, +1.70893549748E-001, +2.98086829969E+002
+1.21080133556E+007, -3.18606969217E-001, +3.02894089073E+002
+1.22747913189E+007, -1.70980580687E-002, +3.07554402476E+002
+1.24415692821E+007, +1.10743056755E-001, +3.12340785031E+002
+1.26083472454E+007, -7.13352082517E-002, +3.16959991453E+002
+1.27751252087E+007, -2.21739791040E-001, +3.21574705748E+002
+1.29419031720E+007, -6.87563620060E-001, +3.26305826484E+002
+1.31086811352E+007, +7.99698889938E-002, +3.31531380321E+002
+1.32754590985E+007, +3.81454269840E-001, +3.36109887650E+002
+1.34422370618E+007, +2.57869693248E-001, +3.41316408186E+002
+1.36090150250E+007, +8.03443558536E-001, +3.46141472422E+002
+1.37757929883E+007, +2.12754506959E-002, +3.51367256750E+002
+1.39425709516E+007, +9.48798939293E-001, +3.55735451133E+002
+1.41093489149E+007, +2.98685471881E-001, +3.60842374484E+002
+1.42761268781E+007, +1.10483190529E+000, +3.66260269265E+002
+1.44429048414E+007, +8.40894252978E-001, +3.70902893335E+002
+1.46096828047E+007, -8.96747781128E-002, +3.76107016570E+002
+1.47764607679E+007, +2.33235255381E-001, +3.80870032529E+002
+1.49432387312E+007, -7.62154186477E-002, +3.85996598221E+002
+1.51100166945E+007, +5.74307219681E-001, +3.91607503254E+002
+1.52767946578E+007, +2.71026840594E-001, +3.96952927128E+002
+1.54435726210E+007, +2.82187611637E-001, +4.02241277472E+002
+1.56103505843E+007, +7.07540940237E-001, +4.07170803812E+002
+1.57771285476E+007, +1.22429788050E+000, +4.11924872510E+002
+1.59439065109E+007, +1.68839286694E-001, +4.17774859757E+002
+1.61106844741E+007, +4.58543301114E-001, +4.23069537090E+002
+1.62774624374E+007, +1.26854095457E+000, +4.28937769210E+002
+1.64442404007E+007, +2.43624424175E-001, +4.34700017071E+002
+1.66110183639E+007, +1.02273759863E+000, +4.40391033016E+002
+1.67777963272E+007, +4.96837833333E-001, +4.45668352538E+002
+1.69445742905E+007, +7.87207687552E-001, +4.51289329914E+002
+1.71113522538E+007, -2.24027777998E+000, +4.55670905315E+002
+1.72781302170E+007, +2.74448019601E-001, +4.62967969423E+002
+1.74449081803E+007, -1.44660469239E+000, +4.68505921856E+002
+1.76116861436E+007, +8.47036090995E-001, +4.74782101621E+002
+1.77784641068E+007, +2.40272911497E-001, +4.78886086514E+002
+1.79452420701E+007, +3.66233908378E-001, +4.85554290240E+002
+1.81120200334E+007, +1.66485181563E+000, +4.89795992364E+002
+1.82787979967E+007, +1.81781186506E+000, +4.96757820427E+002
+1.84455759599E+007, +1.71370866966E+000, +5.03547591675E+002
+1.86123539232E+007, +2.73153701693E+000, +5.09412150069E+002
+1.87791318865E+007, +1.60787063632E+000, +5.15152539316E+002
+1.89459098497E+007, +1.91632240238E+000, +5.22277400951E+002
+1.91126878130E+007, +1.96623547037E+000, +5.26508544519E+002
+1.92794657763E+007, +2.80092561713E+000, +5.32921834737E+002
+1.94462437396E+007, +2.95689615786E+000, +5.40023145703E+002
+1.96130217028E+007, +3.39651938865E+000, +5.48332479358E+002
+1.97797996661E+007, +3.39879649213E+000, +5.52146286191E+002
+1.99465776294E+007, +2.97373638570E+000, +5.59420627541E+002
+2.01133555927E+007, +2.38573369185E+000, +5.65342168662E+002
+2.02801335559E+007, +3.56208438114E+000, +5.72725858250E+002
+2.04469115192E+007, +3.07906503768E+000, +5.79352953519E+002
+2.06136894825E+007, +4.76767616580E+000, +5.86004414201E+002
+2.07804674457E+007, +4.08730021772E+000, +5.93787758622E+002
+2.09472454090E+007, +5.27586432077E+000, +6.00842305143E+002
+2.11140233723E+007, +4.05253967960E+000, +6.04712505089E+002
+2.12808013356E+007, +5.47578034812E+000, +6.12465916296E+002
+2.14475792988E+007, +3.95511889437E+000, +6.20586757244E+002
+2.16143572621E+007, +6.29351213825E+000, +6.27527598987E+002
+2.17811352254E+007, +5.82444077401E+000, +6.33719229831E+002
+2.19479131886E+007, +7.87158181303E+000, +6.40759607826E+002
+2.21146911519E+007, +7.89473891456E+000, +6.47328885050E+002
+2.22814691152E+007, +5.99667320031E+000, +6.56605106749E+002
+2.24482470785E+007, +7.19099963846E+000, +6.64613205209E+002
+2.26150250417E+007, +8.96637090761E+000, +6.69135989858E+002
+2.27818030050E+007, +8.82869878749E+000, +6.78802640375E+002
+2.29485809683E+007, +1.21360666128E+001, +6.85219989050E+002
+2.31153589316E+007, +6.86571872257E+000, +6.96016134385E+002
+2.32821368948E+007, +1.03938741110E+001, +7.01406092591E+002
+2.34489148581E+007, +1.17532765097E+001, +7.08511897633E+002
+2.36156928214E+007, +1.21208856054E+001, +7.17254133483E+002
+2.37824707846E+007, +1.21158384357E+001, +7.24401495599E+002
+2.39492487479E+007, +1.44393643822E+001, +7.30742972908E+002
+2.41160267112E+007, +1.27267804550E+001, +7.40925165859E+002
+2.42828046745E+007, +1.53136870100E+001, +7.50282533960E+002
+2.44495826377E+007, +1.74456266463E+001, +7.59929302061E+002
+2.46163606010E+007, +1.60272628938E+001, +7.68653282061E+002
+2.47831385643E+007, +1.66231440596E+001, +7.72787009060E+002
+2.49499165275E+007, +1.87865244964E+001, +7.85212498136E+002
+2.51166944908E+007, +2.08111248530E+001, +7.91517761499E+002
+2.52834724541E+007, +1.96058082528E+001, +8.00979191878E+002
+2.54502504174E+007, +2.06015288018E+001, +8.12098699703E+002
+2.56170283806E+007, +2.13604387271E+001, +8.19411875636E+002
+2.57838063439E+007, +2.28045363896E+001, +8.34511194331E+002
+2.59505843072E+007, +2.35872008323E+001, +8.37443828015E+002
+2.61173622705E+007, +2.50881544355E+001, +8.47235144540E+002
+2.62841402337E+007, +2.43341973511E+001, +8.53894400281E+002
+2.64509181970E+007, +2.56788575714E+001, +8.65147626540E+002
+2.66176961603E+007, +2.79989210001E+001, +8.81412079855E+002
+2.67844741235E+007, +3.03681933850E+001, +8.85522728862E+002
+2.69512520868E+007, +2.87822783306E+001, +8.92965185579E+002
+2.71180300501E+007, +3.17108615710E+001, +9.00224585720E+002
+2.72848080134E+007, +3.27383847281E+001, +9.14463526469E+002
+2.74515859766E+007, +3.69236504346E+001, +9.21369413627E+002
+2.76183639399E+007, +3.17958639249E+001, +9.27288839720E+002
+2.77851419032E+007, +3.08449139564E+001, +9.39755078411E+002
+2.79519198664E+007, +3.13156313613E+001, +9.49466941592E+002
+2.81186978297E+007, +3.43789794483E+001, +9.57638637953E+002
+2.82854757930E+007, +3.63672438548E+001, +9.69856215937E+002
+2.84522537563E+007, +2.93226742209E+001, +9.85288031634E+002
+2.86190317195E+007, +3.13605123176E+001, +9.92766082331E+002
+2.87858096828E+007, +3.83804673433E+001, +1.00025710419E+003
+2.89525876461E+007, +3.79912839824E+001, +1.01494046019E+003
+2.91193656093E+007, +3.06008707997E+001, +1.02156901768E+003
+2.92861435726E+007, +2.97427493381E+001, +1.03312650861E+003
+2.94529215359E+007, +3.61985621174E+001, +1.05235239757E+003
+2.96196994992E+007, +3.54834620699E+001, +1.06242084787E+003
+2.97864774624E+007, +3.98021564430E+001, +1.07405938990E+003
+2.99532554257E+007, +3.84988142815E+001, +1.08904712124E+003
+3.01200333890E+007, +3.54196647281E+001, +1.10497459538E+003
+3.02868113523E+007, +3.40052606865E+001, +1.11106313486E+003
+3.04535893155E+007, +3.38640103668E+001, +1.12870071394E+003
+3.06203672788E+007, +3.47176994253E+001, +1.14332419080E+003
+3.07871452421E+007, +3.73909941024E+001, +1.15369830965E+003
+3.09539232053E+007, +3.89340474647E+001, +1.17360813081E+003
+3.11207011686E+007, +3.41320298329E+001, +1.18540207493E+003
+3.12874791319E+007, +4.02070049404E+001, +1.19501337728E+003
+3.14542570952E+007, +3.41753527837E+001, +1.21866321909E+003
+3.16210350584E+007, +4.07247386721E+001, +1.23263437007E+003
+3.17878130217E+007, +3.11254142584E+001, +1.25084141980E+003
+3.19545909850E+007, +4.12079922696E+001, +1.27179789767E+003
+3.21213689482E+007, +3.00949317964E+001, +1.28538894844E+003
+3.22881469115E+007, +3.26551651875E+001, +1.29842919044E+003
+3.24549248748E+007, +3.69423868742E+001, +1.31398235555E+003
+3.26217028381E+007, +3.36472265314E+001, +1.33435000034E+003
+3.27884808013E+007, +3.61392455034E+001, +1.35100112970E+003
+3.29552587646E+007, +3.98489935038E+001, +1.37216826700E+003
+3.31220367279E+007, +4.87682695693E+001, +1.38796894647E+003
+3.32888146912E+007, +4.26115208442E+001, +1.41702273547E+003
+3.34555926544E+007, +3.46250115365E+001, +1.43829575553E+003
+3.36223706177E+007, +4.51473787555E+001, +1.45281845990E+003
+3.37891485810E+007, +3.47520558454E+001, +1.47162134685E+003
+3.39559265442E+007, +4.21040996539E+001, +1.49132208710E+003
+3.41227045075E+007, +4.37985623286E+001, +1.50825353306E+003
+3.42894824708E+007, +4.73078925614E+001, +1.55385755610E+003
+3.44562604341E+007, +4.17971638990E+001, +1.55973198626E+003
+3.46230383973E+007, +5.18796375699E+001, +1.59395087263E+003
+3.47898163606E+007, +4.90935823439E+001, +1.60893760094E+003
+3.49565943239E+007, +5.40074209154E+001, +1.64292703470E+003
+3.51233722871E+007, +5.46807805045E+001, +1.67588845833E+003
+3.52901502504E+007, +5.02578100202E+001, +1.68283419384E+003
+3.54569282137E+007, +4.85491786206E+001, +1.71362182230E+003
+3.56237061770E+007, +5.85802864174E+001, +1.74378976199E+003
+3.57904841402E+007, +5.34221831349E+001, +1.77974117563E+003
+3.59572621035E+007, +5.65107636425E+001, +1.81249962845E+003
+3.61240400668E+007, +5.12567892271E+001, +1.82884347714E+003
+3.62908180301E+007, +6.96951620829E+001, +1.87632629603E+003
+3.64575959933E+007, +6.54720377687E+001, +1.90291725468E+003
+3.66243739566E+007, +7.96535662212E+001, +1.94871963397E+003
+3.67911519199E+007, +7.35221352555E+001, +1.97559325405E+003
+3.69579298831E+007, +6.96685157436E+001, +1.99518323773E+003
+3.71247078464E+007, +7.51783291175E+001, +2.03854748990E+003
+3.72914858097E+007, +6.10881472778E+001, +2.09370939246E+003
+3.74582637730E+007, +9.45871250205E+001, +2.13862241297E+003
+3.76250417362E+007, +9.25742390829E+001, +2.16304070671E+003
+3.77918196995E+007, +7.21283225263E+001, +2.21415782788E+003
+3.79585976628E+007, +7.71335303302E+001, +2.26032342476E+003
+3.81253756260E+007, +9.85103517345E+001, +2.31767949204E+003
+3.82921535893E+007, +1.09085351996E+002, +2.33768567538E+003
+3.84589315526E+007, +1.24289871404E+002, +2.41351011268E+003
+3.86257095159E+007, +9.77753442648E+001, +2.47036466443E+003
+3.87924874791E+007, +1.07401923951E+002, +2.53620923834E+003
+3.89592654424E+007, +9.92006975166E+001, +2.58707654895E+003
+3.91260434057E+007, +1.38950755454E+002, +2.63807335132E+003
+3.92928213689E+007, +1.42323053955E+002, +2.69203726917E+003
+3.94595993322E+007, +1.26406888323E+002, +2.80026580722E+003
+3.96263772955E+007, +1.37144809819E+002, +2.82875350551E+003
+3.97931552588E+007, +1.53788430196E+002, +2.91343901392E+003
+3.99599332220E+007, +1.77742038578E+002, +3.02056675182E+003
+4.01267111853E+007, +1.73275451144E+002, +3.09052793907E+003
+4.02934891486E+007, +1.45390142024E+002, +3.18330535238E+003
+4.04602671119E+007, +2.59489240374E+002, +3.24182874164E+003
+4.06270450751E+007, +2.00033368530E+002, +3.35813367697E+003
+4.07938230384E+007, +2.16998404413E+002, +3.46910376463E+003
+4.09606010017E+007, +2.34863284607E+002, +3.58373645517E+003
+4.11273789649E+007, +2.35841227737E+002, +3.65645982870E+003
+4.12941569282E+007, +2.55185961326E+002, +3.80185015988E+003
+4.14609348915E+007, +2.78764858438E+002, +3.99331627048E+003
+4.16277128548E+007, +3.19550846558E+002, +4.03394277429E+003
+4.17944908180E+007, +3.48376639349E+002, +4.23123396518E+003
+4.19612687813E+007, +3.51372869911E+002, +4.30394968033E+003
+4.21280467446E+007, +4.03829219840E+002, +4.55439877579E+003
+4.22948247078E+007, +5.14696999370E+002, +4.73994093280E+003
+4.24616026711E+007, +4.89234518887E+002, +4.92803427215E+003
+4.26283806344E+007, +6.32229222005E+002, +5.11448480384E+003
+4.27951585977E+007, +3.97482161387E+002, +5.48396568541E+003
+4.29619365609E+007, +8.59164417587E+002, +5.63304018867E+003
+4.31287145242E+007, +9.10319689232E+002, +5.95779186071E+003
+4.32954924875E+007, +9.03340454988E+002, +6.40142127126E+003
+4.34622704508E+007, +1.02674973069E+003, +6.88564923409E+003
+4.36290484140E+007, +1.24102839479E+003, +7.10215774997E+003
+4.37958263773E+007, +1.38882457529E+003, +7.69440404284E+003
+4.39626043406E+007, +1.50336184778E+003, +8.07118466919E+003
+4.41293823038E+007, +2.11650636416E+003, +8.66838682972E+003
+4.42961602671E+007, +2.04610611935E+003, +9.29632735512E+003
+4.44629382304E+007, +2.48944751613E+003, +1.00408704438E+004
+4.46297161937E+007, +2.98562621405E+003, +1.08810916258E+004
+4.47964941569E+007, +3.60479171763E+003, +1.28678795096E+004
+4.49632721202E+007, +4.99097577879E+003, +1.37542587845E+004
+4.51300500835E+007, +5.65327319157E+003, +1.47878259983E+004
+4.52968280467E+007, +8.55521985423E+003, +1.62540439645E+004
+4.54636060100E+007, +1.37336952076E+004, +1.97851957337E+004
+4.56303839733E+007, +1.90818801870E+004, +2.14434251074E+004
+4.57971619366E+007, +2.65906623557E+004, +2.07169194591E+004
+4.59639398998E+007, +4.01490348535E+004, +4.32988613555E+003
+4.61307178631E+007, +3.63139309713E+004, -4.34822491808E+003
+4.62974958264E+007, +3.35704545709E+004, -1.13967174699E+004
+4.64642737896E+007, +2.46603307912E+004, -1.81112620613E+004
+4.66310517529E+007, +1.44982088875E+004, -2.08878353967E+004
+4.67978297162E+007, +1.49742286650E+004, -1.43859859551E+004
+4.69646076795E+007, +8.80777455696E+003, -1.47113260762E+004
+4.71313856427E+007, +7.78454879841E+003, -1.33547127247E+004
+4.72981636060E+007, +5.51554545344E+003, -1.26549412192E+004
+4.74649415693E+007, +4.84958727029E+003, -1.18203345406E+004
+4.76317195326E+007, +4.18813903464E+003, -9.97475371746E+003
+4.77984974958E+007, +3.42968535346E+003, -9.25492570677E+003
+4.79652754591E+007, +3.06798837648E+003, -8.44689051402E+003
+4.81320534224E+007, +2.99856431949E+003, -7.80815654731E+003
+4.82988313856E+007, +2.26971183096E+003, -7.43135391430E+003
+4.84656093489E+007, +2.38627496932E+003, -6.92431686534E+003
+4.86323873122E+007, +1.92815091052E+003, -6.53945227300E+003
+4.87991652755E+007, +2.01687694794E+003, -6.07786394144E+003
+4.89659432387E+007, +1.66861152804E+003, -5.91764317912E+003
+4.91327212020E+007, +1.48610900379E+003, -5.46528590631E+003
+4.92994991653E+007, +1.55644737699E+003, -5.28648991699E+003
+4.94662771285E+007, +1.48348109704E+003, -4.97605323890E+003
+4.96330550918E+007, +1.30933949945E+003, -4.78711987370E+003
+4.97998330551E+007, +1.28969082189E+003, -4.59794734393E+003
+4.99666110184E+007, +1.20036972892E+003, -4.37556739173E+003
+5.01333889816E+007, +1.05719552001E+003, -4.28428126869E+003
+5.03001669449E+007, +1.00120888840E+003, -4.12883942292E+003
+5.04669449082E+007, +9.62719453528E+002, -3.96724699420E+003
+5.06337228715E+007, +9.92736187285E+002, -3.80910709000E+003
+5.08005008347E+007, +8.22151388818E+002, -3.75760489495E+003
+5.09672787980E+007, +8.38440914182E+002, -3.60081285239E+003
+5.11340567613E+007, +7.73733535274E+002, -3.49909819245E+003
+5.13008347245E+007, +6.75793404673E+002, -3.34924113063E+003
+5.14676126878E+007, +6.86637956863E+002, -3.28010455890E+003
+5.16343906511E+007, +6.17502287535E+002, -3.16189608539E+003
+5.18011686144E+007, +5.93928262418E+002, -3.07372018404E+003
+5.19679465776E+007, +5.61983583436E+002, -2.98808217007E+003
+5.21347245409E+007, +5.17125772276E+002, -2.88926821806E+003
+5.23015025042E+007, +4.82246511925E+002, -2.74657189078E+003
+5.24682804674E+007, +4.56425202605E+002, -2.71404567700E+003
+5.26350584307E+007, +4.52525231108E+002, -2.64585510345E+003
+5.28018363940E+007, +4.25815601923E+002, -2.56637133680E+003
+5.29686143573E+007, +4.02338770213E+002, -2.47258259556E+003
+5.31353923205E+007, +3.95559881891E+002, -2.44259011592E+003
+5.33021702838E+007, +3.63653064327E+002, -2.38411053603E+003
+5.34689482471E+007, +3.85157259831E+002, -2.30276979592E+003
