"# Channel 1"
"# Trace 1"
Frequency, Formatted Data, Formatted Data
+1.00000000000E+006, +5.66386722697E-001, +2.54876848810E+001
+1.16527545910E+006, +6.46866565130E-001, +2.96978193610E+001
+1.33055091820E+006, +7.02624528011E-001, +3.37673711953E+001
+1.49582637730E+006, +6.52682785635E-001, +3.79641473851E+001
+1.66110183639E+006, +7.17015585875E-001, +4.21031553749E+001
+1.82637729549E+006, +7.17012526852E-001, +4.62144588885E+001
+1.99165275459E+006, +7.68127082446E-001, +5.03745918058E+001
+2.15692821369E+006, +7.11574565922E-001, +5.45433914183E+001
+2.32220367279E+006, +6.56745784936E-001, +5.87347386770E+001
+2.48747913189E+006, +6.84126361454E-001, +6.28862948686E+001
+2.65275459098E+006, +5.94604186523E-001, +6.70635927627E+001
+2.81803005008E+006, +7.02492468666E-001, +7.13196300318E+001
+2.98330550918E+006, +5.95677064980E-001, +7.52355872762E+001
+3.14858096828E+006, +7.06964645829E-001, +7.94799241988E+001
+3.31385642738E+006, +8.20792048473E-001, +8.36844193132E+001
+3.47913188648E+006, +6.00153031344E-001, +8.79692208005E+001
+3.64440734558E+006, +7.08752764106E-001, +9.19760952776E+001
+3.80968280467E+006, +9.51395310561E-001, +9.61938896972E+001
+3.97495826377E+006, +1.07163224686E+000, +1.00288519053E+002
+4.14023372287E+006, +3.05841071870E-001, +1.04645379527E+002
+4.30550918197E+006, +7.23578216432E-001, +1.08791791801E+002
+4.47078464107E+006, +6.37574023519E-001, +1.13116253291E+002
+4.63606010017E+006, +6.06760743490E-001, +1.17088871072E+002
+4.80133555927E+006, +5.46478520821E-001, +1.21491348404E+002
+4.96661101836E+006, +5.69822002738E-001, +1.25632380672E+002
+5.13188647746E+006, +7.04857622049E-001, +1.30062336844E+002
+5.29716193656E+006, +7.39033885887E-001, +1.33777676987E+002
+5.46243739566E+006, +7.03510038068E-001, +1.38248364970E+002
+5.62771285476E+006, +7.14830088115E-001, +1.42458471218E+002
+5.79298831386E+006, +9.72703272050E-001, +1.46874530621E+002
+5.95826377295E+006, +8.52496921398E-001, +1.51157800285E+002
+6.12353923205E+006, +1.55518794146E+000, +1.54992607083E+002
+6.28881469115E+006, +1.01591557220E+000, +1.59350280062E+002
+6.45409015025E+006, +1.24688371206E+000, +1.63536080829E+002
+6.61936560935E+006, +1.14137022376E+000, +1.67836545593E+002
+6.78464106845E+006, +1.22342298355E+000, +1.72102913348E+002
+6.94991652755E+006, +1.32389452292E+000, +1.76371872493E+002
+7.11519198664E+006, +1.34836632744E+000, +1.80576698179E+002
+7.28046744574E+006, +1.31258982300E+000, +1.84932236579E+002
+7.44574290484E+006, +1.63871655435E+000, +1.89119810197E+002
+7.61101836394E+006, +1.30010383553E+000, +1.93249186895E+002
+7.77629382304E+006, +1.58260029148E+000, +1.97554372331E+002
+7.94156928214E+006, +1.33160313799E+000, +2.01681365544E+002
+8.10684474124E+006, +1.21751586650E+000, +2.05604696876E+002
+8.27212020033E+006, +1.27142936352E+000, +2.10091035423E+002
+8.43739565943E+006, +1.25987329178E+000, +2.14691568014E+002
+8.60267111853E+006, +8.82585957741E-001, +2.18581010999E+002
+8.76794657763E+006, +1.42706361349E+000, +2.22955164903E+002
+8.93322203673E+006, +1.09295014647E+000, +2.27519125729E+002
+9.09849749583E+006, +9.97798559246E-001, +2.31718742229E+002
+9.26377295492E+006, +9.56765707702E-001, +2.36402766312E+002
+9.42904841402E+006, +1.11018561145E+000, +2.40522483431E+002
+9.59432387312E+006, +1.06978387878E+000, +2.44837389094E+002
+9.75959933222E+006, +7.23804758217E-001, +2.49143141599E+002
+9.92487479132E+006, +1.16992524236E+000, +2.53399157239E+002
+1.00901502504E+007, +7.83006220769E-001, +2.57866793697E+002
+1.02554257095E+007, +7.06496188638E-001, +2.62032636903E+002
+1.04207011686E+007, +6.92262111622E-001, +2.66406492456E+002
+1.05859766277E+007, +6.80087499307E-001, +2.71350307228E+002
+1.07512520868E+007, +9.20117178570E-001, +2.75410423745E+002
+1.09165275459E+007, +6.69047124919E-001, +2.79953337248E+002
+1.10818030050E+007, +8.47615649084E-001, +2.84792874469E+002
+1.12470784641E+007, +7.04016541195E-001, +2.88293156399E+002
+1.14123539232E+007, +6.71453641466E-001, +2.92956036235E+002
+1.15776293823E+007, +9.28910381855E-001, +2.97975221811E+002
+1.17429048414E+007, +7.52522351912E-001, +3.02483439446E+002
+1.19081803005E+007, +6.76841296626E-001, +3.06967101969E+002
+1.20734557596E+007, +6.86951030668E-001, +3.11565857918E+002
+1.22387312187E+007, +8.18954130529E-002, +3.15823498262E+002
+1.24040066778E+007, +7.70110862791E-001, +3.19651570527E+002
+1.25692821369E+007, +1.23514606421E-001, +3.24423592031E+002
+1.27345575960E+007, +4.21679496444E-001, +3.29027178657E+002
+1.28998330551E+007, +4.06972425400E-001, +3.33813417594E+002
+1.30651085142E+007, -5.13459691281E-001, +3.38644154444E+002
+1.32303839733E+007, +6.20370410285E-001, +3.43490219130E+002
+1.33956594324E+007, +4.90163616147E-001, +3.47773937398E+002
+1.35609348915E+007, +7.33385880347E-001, +3.52113190716E+002
+1.37262103506E+007, -6.29196251220E-002, +3.55681934650E+002
+1.38914858097E+007, +7.41041798738E-001, +3.60788834454E+002
+1.40567612688E+007, +8.82085589912E-001, +3.65356863547E+002
+1.42220367279E+007, +6.35578539906E-001, +3.70067274578E+002
+1.43873121870E+007, +6.26005113854E-001, +3.75679913514E+002
+1.45525876461E+007, +6.90077637128E-001, +3.79903856071E+002
+1.47178631052E+007, +9.69575049673E-001, +3.85079632819E+002
+1.48831385643E+007, +6.15808986930E-001, +3.88819655911E+002
+1.50484140234E+007, +2.10973909509E-001, +3.93379643746E+002
+1.52136894825E+007, -3.90458853931E-002, +3.97976199021E+002
+1.53789649416E+007, +6.88274676765E-001, +4.02891988692E+002
+1.55442404007E+007, +1.78324912664E-001, +4.07646700164E+002
+1.57095158598E+007, +6.33799087484E-001, +4.12121275770E+002
+1.58747913189E+007, +1.53527604429E+000, +4.17710379249E+002
+1.60400667780E+007, +3.93026437215E-001, +4.21878068887E+002
+1.62053422371E+007, +9.15885350333E-002, +4.26169455555E+002
+1.63706176962E+007, +1.02727445326E-001, +4.30898202872E+002
+1.65358931553E+007, +6.68406227225E-001, +4.35909633915E+002
+1.67011686144E+007, +2.01553508065E+000, +4.40105288914E+002
+1.68664440735E+007, +7.57799206105E-001, +4.45267471541E+002
+1.70317195326E+007, -8.15212253870E-001, +4.50174101839E+002
+1.71969949917E+007, -1.51593050573E+000, +4.56378510895E+002
+1.73622704508E+007, -5.51665871003E-001, +4.60098505908E+002
+1.75275459098E+007, -7.10159520757E-001, +4.65187899115E+002
+1.76928213689E+007, +9.71623977931E-002, +4.70981401067E+002
+1.78580968280E+007, -7.18082826160E-002, +4.76115142956E+002
+1.80233722871E+007, -2.60705852441E-001, +4.80781406575E+002
+1.81886477462E+007, +2.14032308063E-001, +4.86051186435E+002
+1.83539232053E+007, +1.76898583909E+000, +4.90533986713E+002
+1.85191986644E+007, +3.66239678827E-001, +4.95025392514E+002
+1.86844741235E+007, -4.05625452035E-002, +4.98588496765E+002
+1.88497495826E+007, +1.08462953791E+000, +5.04890039261E+002
+1.90150250417E+007, +2.70962485211E-001, +5.10831966902E+002
+1.91803005008E+007, +2.54547548198E-001, +5.15647268581E+002
+1.93455759599E+007, +8.46521882088E-001, +5.18690361362E+002
+1.95108514190E+007, +1.29485067245E+000, +5.25862445242E+002
+1.96761268781E+007, +4.83845373717E-001, +5.31227244045E+002
+1.98414023372E+007, +1.19640819140E+000, +5.36574300536E+002
+2.00066777963E+007, +5.07818939931E-001, +5.41098689402E+002
+2.01719532554E+007, +6.28141334438E-001, +5.46485228249E+002
+2.03372287145E+007, +2.22812666649E+000, +5.53423751562E+002
+2.05025041736E+007, +1.98976293676E+000, +5.56811278054E+002
+2.06677796327E+007, +2.61425290671E+000, +5.63296619912E+002
+2.08330550918E+007, +7.50521680483E-001, +5.65470693419E+002
+2.09983305509E+007, +1.57614929310E+000, +5.72857464178E+002
+2.11636060100E+007, +9.01219286952E-001, +5.78329268678E+002
+2.13288814691E+007, +1.61104732888E+000, +5.83735225357E+002
+2.14941569282E+007, +2.24219683030E+000, +5.88559805815E+002
+2.16594323873E+007, +1.92064088807E+000, +5.95080238180E+002
+2.18247078464E+007, +1.37185928472E+000, +6.01496770040E+002
+2.19899833055E+007, +2.67674761333E+000, +6.06407744843E+002
+2.21552587646E+007, +1.53611006407E+000, +6.09163852009E+002
+2.23205342237E+007, +2.23518350380E+000, +6.17310416731E+002
+2.24858096828E+007, +3.06255524371E+000, +6.22922138287E+002
+2.26510851419E+007, +2.77191681539E+000, +6.26936455104E+002
+2.28163606010E+007, +3.47864055034E+000, +6.32849271365E+002
+2.29816360601E+007, +3.03616081628E+000, +6.36868786525E+002
+2.31469115192E+007, +8.07979593865E+000, +6.45316712457E+002
+2.33121869783E+007, +5.42881971089E+000, +6.52608976664E+002
+2.34774624374E+007, +5.26919290511E+000, +6.58511464974E+002
+2.36427378965E+007, +5.23395171125E+000, +6.62305474185E+002
+2.38080133556E+007, +6.60007565224E+000, +6.67265997880E+002
+2.39732888147E+007, +7.24779595517E+000, +6.74101589476E+002
+2.41385642738E+007, +6.47033734733E+000, +6.79017134580E+002
+2.43038397329E+007, +6.44415415496E+000, +6.85158938009E+002
+2.44691151920E+007, +6.89285537688E+000, +6.89533063133E+002
+2.46343906511E+007, +5.35329830739E+000, +6.97838120369E+002
+2.47996661102E+007, +5.19371167342E+000, +7.03870064536E+002
+2.49649415693E+007, +7.38413801274E+000, +7.09642297751E+002
+2.51302170284E+007, +7.03497317115E+000, +7.13259225908E+002
+2.52954924875E+007, +1.06494029413E+001, +7.19462446659E+002
+2.54607679466E+007, +8.76422963264E+000, +7.27304906133E+002
+2.56260434057E+007, +1.07555965819E+001, +7.30929830034E+002
+2.57913188648E+007, +8.40042663177E+000, +7.37357124233E+002
+2.59565943239E+007, +9.24293273096E+000, +7.43487544613E+002
+2.61218697830E+007, +9.83259219316E+000, +7.50450887690E+002
+2.62871452421E+007, +1.19448460245E+001, +7.57519070401E+002
+2.64524207012E+007, +1.04397383839E+001, +7.63506006707E+002
+2.66176961603E+007, +1.05834349113E+001, +7.70046274108E+002
+2.67829716194E+007, +1.01719326914E+001, +7.75085486567E+002
+2.69482470785E+007, +9.18323316254E+000, +7.83046317557E+002
+2.71135225376E+007, +1.33515749769E+001, +7.90440574581E+002
+2.72787979967E+007, +1.30925027190E+001, +7.96309517488E+002
+2.74440734558E+007, +1.25593994266E+001, +8.02471389254E+002
+2.76093489149E+007, +1.32772838666E+001, +8.05222707159E+002
+2.77746243740E+007, +1.42103275700E+001, +8.12866930545E+002
+2.79398998331E+007, +1.20102111940E+001, +8.24407955987E+002
+2.81051752922E+007, +1.80386896401E+001, +8.25762535603E+002
+2.82704507513E+007, +1.83144741262E+001, +8.35091666223E+002
+2.84357262104E+007, +1.67533012548E+001, +8.39167008368E+002
+2.86010016694E+007, +1.33245349886E+001, +8.52468149715E+002
+2.87662771285E+007, +1.37359661020E+001, +8.56802344759E+002
+2.89315525876E+007, +1.56031796531E+001, +8.63193185048E+002
+2.90968280467E+007, +1.81211066575E+001, +8.67583530737E+002
+2.92621035058E+007, +1.62542785886E+001, +8.75399285178E+002
+2.94273789649E+007, +1.83852246578E+001, +8.81952534889E+002
+2.95926544240E+007, +1.58024032193E+001, +8.89066090048E+002
+2.97579298831E+007, +1.72136827508E+001, +8.98013724995E+002
+2.99232053422E+007, +1.92047197431E+001, +9.04687918361E+002
+3.00884808013E+007, +1.99925585441E+001, +9.14253334143E+002
+3.02537562604E+007, +1.94973075676E+001, +9.19519142403E+002
+3.04190317195E+007, +2.16556481544E+001, +9.27378653626E+002
+3.05843071786E+007, +1.99678747347E+001, +9.30953758278E+002
+3.07495826377E+007, +1.28281178569E+001, +9.42332695681E+002
+3.09148580968E+007, +1.75965487782E+001, +9.49414671490E+002
+3.10801335559E+007, +2.21211470506E+001, +9.56362583810E+002
+3.12454090150E+007, +1.94874225424E+001, +9.61849934117E+002
+3.14106844741E+007, +2.14244686144E+001, +9.70391793956E+002
+3.15759599332E+007, +2.06237508783E+001, +9.75623975654E+002
+3.17412353923E+007, +2.30340271114E+001, +9.88371202511E+002
+3.19065108514E+007, +2.34491885520E+001, +9.94101062300E+002
+3.20717863105E+007, +1.69914852070E+001, +1.00099705303E+003
+3.22370617696E+007, +2.27200575214E+001, +1.00320050894E+003
+3.24023372287E+007, +2.26114203892E+001, +1.01282951778E+003
+3.25676126878E+007, +2.35001382298E+001, +1.02694011346E+003
+3.27328881469E+007, +2.45088302597E+001, +1.03207256244E+003
+3.28981636060E+007, +1.96333167764E+001, +1.03944953786E+003
+3.30634390651E+007, +2.16739365183E+001, +1.04810868766E+003
+3.32287145242E+007, +1.94637319434E+001, +1.06751741327E+003
+3.33939899833E+007, +2.38836752896E+001, +1.07297621410E+003
+3.35592654424E+007, +2.39482424017E+001, +1.07650255617E+003
+3.37245409015E+007, +2.40218082958E+001, +1.08631332301E+003
+3.38898163606E+007, +1.84659616645E+001, +1.09578915077E+003
+3.40550918197E+007, +2.27564868535E+001, +1.10239481008E+003
+3.42203672788E+007, +2.53594700835E+001, +1.10953974923E+003
+3.43856427379E+007, +2.06328980654E+001, +1.12075164057E+003
+3.45509181970E+007, +1.82016387635E+001, +1.13276792539E+003
+3.47161936561E+007, +2.11109858853E+001, +1.14232017345E+003
+3.48814691152E+007, +2.47719353424E+001, +1.14919114228E+003
+3.50467445743E+007, +2.66652239685E+001, +1.15947843109E+003
+3.52120200334E+007, +3.11277867482E+001, +1.16799888524E+003
+3.53772954925E+007, +2.26317792334E+001, +1.18016023632E+003
+3.55425709516E+007, +2.46114557262E+001, +1.19015004982E+003
+3.57078464107E+007, +2.20828505141E+001, +1.20078448726E+003
+3.58731218698E+007, +2.63514114889E+001, +1.20976688815E+003
+3.60383973289E+007, +1.68888933315E+001, +1.22353801266E+003
+3.62036727880E+007, +2.63229224730E+001, +1.23233469566E+003
+3.63689482471E+007, +2.93348360977E+001, +1.24826270050E+003
+3.65342237062E+007, +1.95783157876E+001, +1.25762956867E+003
+3.66994991653E+007, +1.85461441611E+001, +1.27050771546E+003
+3.68647746244E+007, +2.77186314123E+001, +1.27797529391E+003
+3.70300500835E+007, +1.52278742590E+001, +1.29540591983E+003
+3.71953255426E+007, +2.18410500281E+001, +1.30829725788E+003
+3.73606010017E+007, +2.64392743109E+001, +1.32424522820E+003
+3.75258764608E+007, +2.51032485532E+001, +1.33922771083E+003
+3.76911519199E+007, +2.30252532257E+001, +1.34120053693E+003
+3.78564273790E+007, +1.96610255194E+001, +1.35757513789E+003
+3.80217028381E+007, +2.64579610008E+001, +1.36531734866E+003
+3.81869782972E+007, +2.22269548724E+001, +1.37855226518E+003
+3.83522537563E+007, +1.34984836405E+001, +1.39747134369E+003
+3.85175292154E+007, +1.96920895176E+001, +1.40942645942E+003
+3.86828046745E+007, +2.09826512129E+001, +1.43411582617E+003
+3.88480801336E+007, +3.01116837723E+001, +1.44730986389E+003
+3.90133555927E+007, +2.65840511819E+001, +1.46405522028E+003
+3.91786310518E+007, +2.05530160607E+001, +1.47852559739E+003
+3.93439065109E+007, +2.88189331186E+001, +1.49097777971E+003
+3.95091819699E+007, +3.82201801672E+001, +1.49985957136E+003
+3.96744574290E+007, +3.26015355995E+001, +1.52126979760E+003
+3.98397328881E+007, +2.46116431166E+001, +1.53859943359E+003
+4.00050083472E+007, +3.15073355217E+001, +1.56464941034E+003
+4.01702838063E+007, +2.58106708491E+001, +1.56923734429E+003
+4.03355592654E+007, +3.62494803852E+001, +1.59007182315E+003
+4.05008347245E+007, +3.25135136563E+001, +1.61236272494E+003
+4.06661101836E+007, +4.25785812479E+001, +1.62323071375E+003
+4.08313856427E+007, +3.22858719055E+001, +1.64953002740E+003
+4.09966611018E+007, +3.68156518320E+001, +1.66436600733E+003
+4.11619365609E+007, +4.15071644394E+001, +1.67986374332E+003
+4.13272120200E+007, +5.32275422573E+001, +1.70103103602E+003
+4.14924874791E+007, +4.84293116085E+001, +1.71155781708E+003
+4.16577629382E+007, +3.98822094450E+001, +1.74785491591E+003
+4.18230383973E+007, +4.87411056540E+001, +1.76134350984E+003
+4.19883138564E+007, +3.60030130225E+001, +1.78855095642E+003
+4.21535893155E+007, +4.30486891498E+001, +1.79438690614E+003
+4.23188647746E+007, +6.07493353676E+001, +1.83827373724E+003
+4.24841402337E+007, +4.44227565667E+001, +1.87984952474E+003
+4.26494156928E+007, +5.07020188567E+001, +1.86657263858E+003
+4.28146911519E+007, +6.41336861917E+001, +1.90456864308E+003
+4.29799666110E+007, +5.37219691532E+001, +1.93136595448E+003
+4.31452420701E+007, +5.85685822107E+001, +1.97759034405E+003
+4.33105175292E+007, +6.17201616311E+001, +1.97203107158E+003
+4.34757929883E+007, +4.49243275504E+001, +2.02811442967E+003
+4.36410684474E+007, +5.85096655716E+001, +2.04833251264E+003
+4.38063439065E+007, +4.89833801119E+001, +2.08056673277E+003
+4.39716193656E+007, +8.58769349809E+001, +2.11288039131E+003
+4.41368948247E+007, +5.86581503806E+001, +2.13951142358E+003
+4.43021702838E+007, +7.64306195188E+001, +2.17354138968E+003
+4.44674457429E+007, +8.04240766155E+001, +2.22280202753E+003
+4.46327212020E+007, +9.81332924703E+001, +2.24077165282E+003
+4.47979966611E+007, +8.68680213050E+001, +2.26676929229E+003
+4.49632721202E+007, +1.05121754241E+002, +2.34460462517E+003
+4.51285475793E+007, +8.33237601297E+001, +2.36302287447E+003
+4.52938230384E+007, +1.14751093557E+002, +2.42291516972E+003
+4.54590984975E+007, +8.49867954842E+001, +2.43047530714E+003
+4.56243739566E+007, +1.39043580198E+002, +2.51185876456E+003
+4.57896494157E+007, +1.22910426741E+002, +2.53004267523E+003
+4.59549248748E+007, +1.62097640964E+002, +2.59252296164E+003
+4.61202003339E+007, +1.49803530807E+002, +2.65162461825E+003
+4.62854757930E+007, +1.69519882483E+002, +2.69947084439E+003
+4.64507512521E+007, +1.82930000973E+002, +2.76452055501E+003
+4.66160267112E+007, +1.99214359682E+002, +2.83458491814E+003
+4.67813021703E+007, +2.18137933650E+002, +2.87549100038E+003
+4.69465776294E+007, +2.44217446412E+002, +2.91624429584E+003
+4.71118530885E+007, +2.81366357815E+002, +3.02424594135E+003
+4.72771285476E+007, +3.10760069466E+002, +3.08209279619E+003
+4.74424040067E+007, +3.32479621817E+002, +3.16901158182E+003
+4.76076794658E+007, +3.42353508536E+002, +3.24227719724E+003
+4.77729549249E+007, +3.75074383434E+002, +3.31676638478E+003
+4.79382303840E+007, +4.24774549480E+002, +3.35715213430E+003
+4.81035058431E+007, +4.89417001882E+002, +3.45955613676E+003
+4.82687813022E+007, +5.39764207525E+002, +3.52638558513E+003
+4.84340567613E+007, +5.61585910389E+002, +3.64337423795E+003
+4.85993322204E+007, +6.28416275580E+002, +3.74571285359E+003
+4.87646076795E+007, +7.73159642055E+002, +3.81904129361E+003
+4.89298831386E+007, +7.82110627763E+002, +3.84796174220E+003
+4.90951585977E+007, +8.19245131207E+002, +3.95276209247E+003
+4.92604340568E+007, +9.50327186338E+002, +4.06638574670E+003
+4.94257095159E+007, +1.07014636815E+003, +4.16120350224E+003
+4.95909849750E+007, +1.18601334627E+003, +4.26892479138E+003
+4.97562604341E+007, +1.22323048510E+003, +4.25338704398E+003
+4.99215358932E+007, +1.38967786223E+003, +4.43730489072E+003
+5.00868113523E+007, +1.44267604402E+003, +4.58371398772E+003
+5.02520868114E+007, +1.67902229164E+003, +4.50839287093E+003
+5.04173622705E+007, +1.72399558504E+003, +4.68679058422E+003
+5.05826377295E+007, +1.82320361485E+003, +4.61722906165E+003
+5.07479131886E+007, +2.02550183968E+003, +4.71111471794E+003
+5.09131886477E+007, +2.01232545320E+003, +4.82597103951E+003
+5.10784641068E+007, +2.21681615450E+003, +4.97122281320E+003
+5.12437395659E+007, +2.23480650768E+003, +5.07577465193E+003
+5.14090150250E+007, +2.36374063270E+003, +4.98447282635E+003
+5.15742904841E+007, +2.44962730352E+003, +5.18257058453E+003
+5.17395659432E+007, +2.63084729398E+003, +5.25033979043E+003
+5.19048414023E+007, +2.93265938329E+003, +5.50435376245E+003
+5.20701168614E+007, +3.04843770695E+003, +5.66742566112E+003
+5.22353923205E+007, +3.27709700095E+003, +6.04817788508E+003
+5.24006677796E+007, +3.15861596900E+003, +6.06317358799E+003
+5.25659432387E+007, +3.72753029337E+003, +6.33586075044E+003
+5.27312186978E+007, +4.14606915577E+003, +6.48026601474E+003
+5.28964941569E+007, +4.96314511310E+003, +7.09341504637E+003
+5.30617696160E+007, +5.22008292458E+003, +7.14367130255E+003
+5.32270450751E+007, +5.99632813600E+003, +7.56384140392E+003
+5.33923205342E+007, +6.79743147511E+003, +8.32175383875E+003
+5.35575959933E+007, +8.45082603279E+003, +8.35708818595E+003
+5.37228714524E+007, +9.59501689670E+003, +7.87044551154E+003
+5.38881469115E+007, +1.02583824886E+004, +7.47706069763E+003
