"# Channel 1"
"# Trace 1"
Frequency, Formatted Data, Formatted Data
+1.00000000000E+005, +3.72816699087E-001, +2.56519340365E+000
+2.66777963272E+005, +4.14602330462E-001, +6.84697677618E+000
+4.33555926544E+005, +4.44589498149E-001, +1.11215126979E+001
+6.00333889816E+005, +5.33157489942E-001, +1.53033465956E+001
+7.67111853088E+005, +6.03141150269E-001, +1.95460680814E+001
+9.33889816361E+005, +6.41438753777E-001, +2.37026211430E+001
+1.10066777963E+006, +6.09451963445E-001, +2.79404483570E+001
+1.26744574290E+006, +7.15275932451E-001, +3.20880573620E+001
+1.43422370618E+006, +6.38192857093E-001, +3.63666872076E+001
+1.60100166945E+006, +7.33599866891E-001, +4.04539018615E+001
+1.76777963272E+006, +8.12036317436E-001, +4.46366948707E+001
+1.93455759599E+006, +7.43585641875E-001, +4.87442822037E+001
+2.10133555927E+006, +7.77441275071E-001, +5.28963007410E+001
+2.26811352254E+006, +8.30452053513E-001, +5.71115882650E+001
+2.43489148581E+006, +7.54284751283E-001, +6.13875690065E+001
+2.60166944908E+006, +8.59371426485E-001, +6.54754249571E+001
+2.76844741235E+006, +7.48456538670E-001, +6.98213410233E+001
+2.93522537563E+006, +7.73389334440E-001, +7.39835885948E+001
+3.10200333890E+006, +9.50085400052E-001, +7.79974566340E+001
+3.26878130217E+006, +6.65615106054E-001, +8.24618192382E+001
+3.43555926544E+006, +8.41196826833E-001, +8.65549544229E+001
+3.60233722871E+006, +8.36785272470E-001, +9.08789720306E+001
+3.76911519199E+006, +8.13325252841E-001, +9.52457026775E+001
+3.93589315526E+006, +8.22431300724E-001, +9.91680257302E+001
+4.10267111853E+006, +7.64478179951E-001, +1.03686474261E+002
+4.26944908180E+006, +7.08456291490E-001, +1.08026866685E+002
+4.43622704508E+006, +6.76569961733E-001, +1.12009643317E+002
+4.60300500835E+006, +7.92145494713E-001, +1.16490801420E+002
+4.76978297162E+006, +6.92232637762E-001, +1.20549505712E+002
+4.93656093489E+006, +8.27158192304E-001, +1.25017155667E+002
+5.10333889816E+006, +8.72856987733E-001, +1.29095057525E+002
+5.27011686144E+006, +1.02350829032E+000, +1.33757056181E+002
+5.43689482471E+006, +7.67797257106E-001, +1.38088250821E+002
+5.60367278798E+006, +9.58807954429E-001, +1.42429000198E+002
+5.77045075125E+006, +9.88137952120E-001, +1.46610220507E+002
+5.93722871452E+006, +1.01858829942E+000, +1.50988920392E+002
+6.10400667780E+006, +9.19482244123E-001, +1.55337677216E+002
+6.27078464107E+006, +1.25147605657E+000, +1.59703669182E+002
+6.43756260434E+006, +1.28068205661E+000, +1.64040472539E+002
+6.60434056761E+006, +1.38693311104E+000, +1.68413364300E+002
+6.77111853088E+006, +1.63074803754E+000, +1.72801197046E+002
+6.93789649416E+006, +1.49878229441E+000, +1.77267443629E+002
+7.10467445743E+006, +1.42742523131E+000, +1.81461718922E+002
+7.27145242070E+006, +1.50873636932E+000, +1.85739134051E+002
+7.43823038397E+006, +1.61027267933E+000, +1.90151914399E+002
+7.60500834725E+006, +1.55602344345E+000, +1.94629953422E+002
+7.77178631052E+006, +1.52545160156E+000, +1.99314982122E+002
+7.93856427379E+006, +1.56464068266E+000, +2.03480305222E+002
+8.10534223706E+006, +1.55220302954E+000, +2.08056449082E+002
+8.27212020033E+006, +1.52885651180E+000, +2.12575667135E+002
+8.43889816361E+006, +1.25520028928E+000, +2.17118107032E+002
+8.60567612688E+006, +1.23601528691E+000, +2.21604259990E+002
+8.77245409015E+006, +1.38830475521E+000, +2.25725946667E+002
+8.93923205342E+006, +1.33461827134E+000, +2.30673797297E+002
+9.10601001669E+006, +1.25400833665E+000, +2.35350444967E+002
+9.27278797997E+006, +1.30955384096E+000, +2.39728272460E+002
+9.43956594324E+006, +1.01374596175E+000, +2.44334455309E+002
+9.60634390651E+006, +1.30720362268E+000, +2.49191875659E+002
+9.77312186978E+006, +8.77356733951E-001, +2.53795231379E+002
+9.93989983306E+006, +1.11977718269E+000, +2.58719348340E+002
+1.01066777963E+007, +6.10792170451E-001, +2.62773962301E+002
+1.02734557596E+007, +8.21714395454E-001, +2.68118265502E+002
+1.04402337229E+007, +6.11649576614E-001, +2.72592434071E+002
+1.06070116861E+007, +5.10086325977E-001, +2.77495047231E+002
+1.07737896494E+007, +4.84027331589E-001, +2.82385167888E+002
+1.09405676127E+007, +1.30843564820E+000, +2.86939856697E+002
+1.11073455760E+007, +7.27056535838E-001, +2.92206657953E+002
+1.12741235392E+007, +7.56319544057E-001, +2.96465794838E+002
+1.14409015025E+007, +1.10495488784E+000, +3.01348550718E+002
+1.16076794658E+007, +1.12211096329E+000, +3.06592527501E+002
+1.17744574290E+007, +1.02879296554E+000, +3.11590133775E+002
+1.19412353923E+007, +7.63216201379E-001, +3.16420882337E+002
+1.21080133556E+007, +3.84037386662E-001, +3.21388462607E+002
+1.22747913189E+007, +2.84386562485E-001, +3.26590706086E+002
+1.24415692821E+007, +4.62174389716E-001, +3.31564184374E+002
+1.26083472454E+007, +4.92382604034E-002, +3.36992928489E+002
+1.27751252087E+007, +3.89440760858E-001, +3.41767364939E+002
+1.29419031720E+007, +5.05128220713E-003, +3.46697250588E+002
+1.31086811352E+007, +9.28278153990E-001, +3.51618254559E+002
+1.32754590985E+007, +2.06452306148E-001, +3.56781494807E+002
+1.34422370618E+007, +2.36701104448E-001, +3.62162066875E+002
+1.36090150250E+007, +7.20275161433E-001, +3.67226506475E+002
+1.37757929883E+007, -2.69870479883E-001, +3.72155997136E+002
+1.39425709516E+007, +9.06273751618E-001, +3.77677831322E+002
+1.41093489149E+007, +1.04466079865E-001, +3.83367921933E+002
+1.42761268781E+007, +1.02140661309E-001, +3.88464469974E+002
+1.44429048414E+007, -1.69212004076E-001, +3.93957071541E+002
+1.46096828047E+007, -4.77595604142E-002, +4.00365213168E+002
+1.47764607679E+007, +1.21316893841E+000, +4.04356540222E+002
+1.49432387312E+007, -6.66734968010E-002, +4.10493525387E+002
+1.51100166945E+007, +8.61181618333E-002, +4.16381096023E+002
+1.52767946578E+007, +1.27202399389E-001, +4.21484973285E+002
+1.54435726210E+007, +2.56091237816E-001, +4.26578210052E+002
+1.56103505843E+007, +9.20291360741E-001, +4.32286781994E+002
+1.57771285476E+007, +6.99428160358E-001, +4.37738168060E+002
+1.59439065109E+007, +3.16993632716E-001, +4.44117090622E+002
+1.61106844741E+007, +6.61114977143E-001, +4.49602983715E+002
+1.62774624374E+007, +1.42297540344E+000, +4.54155271431E+002
+1.64442404007E+007, +5.47518479336E-002, +4.60624732434E+002
+1.66110183639E+007, +8.07949360409E-001, +4.67090947523E+002
+1.67777963272E+007, +1.62993693227E+000, +4.72761587250E+002
+1.69445742905E+007, +6.14315630373E-001, +4.78907148405E+002
+1.71113522538E+007, -1.23481158034E+000, +4.83687337446E+002
+1.72781302170E+007, +3.62649732166E-001, +4.90657681866E+002
+1.74449081803E+007, -1.32114347383E+000, +4.95324501808E+002
+1.76116861436E+007, -1.82086446658E-001, +5.02114449821E+002
+1.77784641068E+007, +3.09474973976E-001, +5.06830501241E+002
+1.79452420701E+007, -7.88228616715E-001, +5.14718634930E+002
+1.81120200334E+007, -3.48273677816E-003, +5.18812412306E+002
+1.82787979967E+007, +5.56519096868E-001, +5.26777938619E+002
+1.84455759599E+007, +7.22217303429E-001, +5.33371916145E+002
+1.86123539232E+007, +1.77628113458E+000, +5.39563935170E+002
+1.87791318865E+007, +4.56928577788E-001, +5.45960905185E+002
+1.89459098497E+007, +6.68413213030E-001, +5.53510273686E+002
+1.91126878130E+007, +5.55238978669E-001, +5.58381354702E+002
+1.92794657763E+007, +8.49766961061E-001, +5.66553931018E+002
+1.94462437396E+007, +1.65539473782E+000, +5.73424227934E+002
+1.96130217028E+007, +7.91917043039E-002, +5.79845585538E+002
+1.97797996661E+007, +1.70187403763E+000, +5.85883306758E+002
+1.99465776294E+007, -5.70485685494E-001, +5.92109284538E+002
+2.01133555927E+007, -1.22350007798E+000, +6.00911529568E+002
+2.02801335559E+007, -2.25260779646E-001, +6.07786392910E+002
+2.04469115192E+007, +1.42020556470E+000, +6.14787812590E+002
+2.06136894825E+007, +8.88718415266E-001, +6.22856645918E+002
+2.07804674457E+007, +2.49410311985E+000, +6.29930651031E+002
+2.09472454090E+007, +9.13754454863E-002, +6.38491986053E+002
+2.11140233723E+007, +1.54623991523E+000, +6.43293833726E+002
+2.12808013356E+007, +1.20211916484E+000, +6.51102284162E+002
+2.14475792988E+007, -3.59689146244E-003, +6.60310316250E+002
+2.16143572621E+007, +3.61628729274E+000, +6.66089012434E+002
+2.17811352254E+007, +2.76958521551E+000, +6.74697892283E+002
+2.19479131886E+007, +4.39337490817E+000, +6.83151494984E+002
+2.21146911519E+007, +5.46694088205E+000, +6.87831931374E+002
+2.22814691152E+007, +1.87195751303E+000, +6.97031186499E+002
+2.24482470785E+007, +2.67838234501E+000, +7.05356780017E+002
+2.26150250417E+007, +6.02954458193E+000, +7.11022345457E+002
+2.27818030050E+007, +5.39553922738E+000, +7.23660868935E+002
+2.29485809683E+007, +1.05329443601E+001, +7.27799078551E+002
+2.31153589316E+007, +7.85125844940E+000, +7.39898900611E+002
+2.32821368948E+007, +8.95662008733E+000, +7.49718601043E+002
+2.34489148581E+007, +8.70852718201E+000, +7.51896933290E+002
+2.36156928214E+007, +1.02652525547E+001, +7.62130322858E+002
+2.37824707846E+007, +1.00353423434E+001, +7.70129519759E+002
+2.39492487479E+007, +8.74498580450E+000, +7.80128514463E+002
+2.41160267112E+007, +1.03626052923E+001, +7.86080455867E+002
+2.42828046745E+007, +1.14219092586E+001, +7.97769713182E+002
+2.44495826377E+007, +1.26333464505E+001, +8.11075252803E+002
+2.46163606010E+007, +1.28552305110E+001, +8.15347487669E+002
+2.47831385643E+007, +1.17995074237E+001, +8.24278456170E+002
+2.49499165275E+007, +1.60489318077E+001, +8.34798875558E+002
+2.51166944908E+007, +1.51711356765E+001, +8.42323622521E+002
+2.52834724541E+007, +1.62142702102E+001, +8.52116684437E+002
+2.54502504174E+007, +1.57195385192E+001, +8.64545984710E+002
+2.56170283806E+007, +1.58761959460E+001, +8.70678090378E+002
+2.57838063439E+007, +1.63206555681E+001, +8.85666488803E+002
+2.59505843072E+007, +2.03217478254E+001, +8.94716434384E+002
+2.61173622705E+007, +1.84064286581E+001, +9.04188488165E+002
+2.62841402337E+007, +1.75342829857E+001, +9.12629596748E+002
+2.64509181970E+007, +1.89357569788E+001, +9.21820152484E+002
+2.66176961603E+007, +1.97831620637E+001, +9.35030313278E+002
+2.67844741235E+007, +2.09905861420E+001, +9.45531125686E+002
+2.69512520868E+007, +2.05420887638E+001, +9.54651692780E+002
+2.71180300501E+007, +2.27181703748E+001, +9.60312711724E+002
+2.72848080134E+007, +2.09147374397E+001, +9.72532458769E+002
+2.74515859766E+007, +2.90497679107E+001, +9.85583169595E+002
+2.76183639399E+007, +2.53897038587E+001, +9.97389862906E+002
+2.77851419032E+007, +2.16389332546E+001, +1.00609933484E+003
+2.79519198664E+007, +2.62072063134E+001, +1.01876515546E+003
+2.81186978297E+007, +3.01040981335E+001, +1.02913981961E+003
+2.82854757930E+007, +3.20456237876E+001, +1.04041307179E+003
+2.84522537563E+007, +2.24829370297E+001, +1.05650950695E+003
+2.86190317195E+007, +2.97393635698E+001, +1.06380254094E+003
+2.87858096828E+007, +3.46920682496E+001, +1.08439375500E+003
+2.89525876461E+007, +3.03469380026E+001, +1.09150050535E+003
+2.91193656093E+007, +2.61827570121E+001, +1.10361590944E+003
+2.92861435726E+007, +2.92838462346E+001, +1.11223747681E+003
+2.94529215359E+007, +3.29154762093E+001, +1.12742146615E+003
+2.96196994992E+007, +3.26313709609E+001, +1.14437180785E+003
+2.97864774624E+007, +3.50335786176E+001, +1.15180496378E+003
+2.99532554257E+007, +3.81624188041E+001, +1.17516214749E+003
+3.01200333890E+007, +3.83817313369E+001, +1.18768653717E+003
+3.02868113523E+007, +3.48041410496E+001, +1.20457880661E+003
+3.04535893155E+007, +3.95335866873E+001, +1.21766579726E+003
+3.06203672788E+007, +4.39343163720E+001, +1.22706492906E+003
+3.07871452421E+007, +3.88747424937E+001, +1.24700912279E+003
+3.09539232053E+007, +3.80976231836E+001, +1.25942605545E+003
+3.11207011686E+007, +4.46171296276E+001, +1.28165762810E+003
+3.12874791319E+007, +4.08315288721E+001, +1.28979893368E+003
+3.14542570952E+007, +4.51242227818E+001, +1.30604941634E+003
+3.16210350584E+007, +4.38901346915E+001, +1.33116852282E+003
+3.17878130217E+007, +3.75956180297E+001, +1.34692695597E+003
+3.19545909850E+007, +4.68297362770E+001, +1.36175723415E+003
+3.21213689482E+007, +3.24023954579E+001, +1.38200104641E+003
+3.22881469115E+007, +4.38392497294E+001, +1.39156780272E+003
+3.24549248748E+007, +4.94302111830E+001, +1.41193591509E+003
+3.26217028381E+007, +4.46784031513E+001, +1.44211159964E+003
+3.27884808013E+007, +4.57945542262E+001, +1.45415003459E+003
+3.29552587646E+007, +5.21287963840E+001, +1.47072401726E+003
+3.31220367279E+007, +5.82522789605E+001, +1.48960402311E+003
+3.32888146912E+007, +5.83549989247E+001, +1.52846293627E+003
+3.34555926544E+007, +3.67778038405E+001, +1.54135275945E+003
+3.36223706177E+007, +5.42857325110E+001, +1.55147960364E+003
+3.37891485810E+007, +5.26765011420E+001, +1.57931525958E+003
+3.39559265442E+007, +5.05869245583E+001, +1.62903512440E+003
+3.41227045075E+007, +5.03224415304E+001, +1.63948621421E+003
+3.42894824708E+007, +5.80694206549E+001, +1.66321336543E+003
+3.44562604341E+007, +6.18918812435E+001, +1.69183915285E+003
+3.46230383973E+007, +6.75174635217E+001, +1.72948088216E+003
+3.47898163606E+007, +6.89854094652E+001, +1.73318544116E+003
+3.49565943239E+007, +8.76136594160E+001, +1.77052007267E+003
+3.51233722871E+007, +7.24990718840E+001, +1.79121967990E+003
+3.52901502504E+007, +7.73787570615E+001, +1.80869307948E+003
+3.54569282137E+007, +7.45191503603E+001, +1.84952900821E+003
+3.56237061770E+007, +6.86267782164E+001, +1.88341652133E+003
+3.57904841402E+007, +6.36680049085E+001, +1.92870953433E+003
+3.59572621035E+007, +8.30104773180E+001, +1.94491884273E+003
+3.61240400668E+007, +9.48575148615E+001, +1.99767876740E+003
+3.62908180301E+007, +9.82311566175E+001, +2.04152231581E+003
+3.64575959933E+007, +8.65876579177E+001, +2.07154713114E+003
+3.66243739566E+007, +1.09071478578E+002, +2.08155373399E+003
+3.67911519199E+007, +1.06275699290E+002, +2.15547246790E+003
+3.69579298831E+007, +7.97161469757E+001, +2.15916669278E+003
+3.71247078464E+007, +1.01205484221E+002, +2.22977124685E+003
+3.72914858097E+007, +1.01226594099E+002, +2.27296880183E+003
+3.74582637730E+007, +1.36797498813E+002, +2.31208438062E+003
+3.76250417362E+007, +1.46163536600E+002, +2.36469526652E+003
+3.77918196995E+007, +1.24633803235E+002, +2.40990867723E+003
+3.79585976628E+007, +1.41880231424E+002, +2.46295172681E+003
+3.81253756260E+007, +1.48386417470E+002, +2.50703405768E+003
+3.82921535893E+007, +1.71069861843E+002, +2.55026583702E+003
+3.84589315526E+007, +1.81434523161E+002, +2.64205394648E+003
+3.86257095159E+007, +1.70706855039E+002, +2.68754651481E+003
+3.87924874791E+007, +1.60306847837E+002, +2.73768825752E+003
+3.89592654424E+007, +1.93818800201E+002, +2.80633410222E+003
+3.91260434057E+007, +2.11353403161E+002, +2.90775615192E+003
+3.92928213689E+007, +2.48898642284E+002, +2.95940017221E+003
+3.94595993322E+007, +2.61873536330E+002, +3.04602649184E+003
+3.96263772955E+007, +2.42253827437E+002, +3.14662318787E+003
+3.97931552588E+007, +2.27973017897E+002, +3.16636980622E+003
+3.99599332220E+007, +3.09516777257E+002, +3.27658820266E+003
+4.01267111853E+007, +3.16066873300E+002, +3.39571426903E+003
+4.02934891486E+007, +3.10547373469E+002, +3.45391749846E+003
+4.04602671119E+007, +3.68312270856E+002, +3.54887230204E+003
+4.06270450751E+007, +3.89688488570E+002, +3.68985954350E+003
+4.07938230384E+007, +4.05580456663E+002, +3.79541063870E+003
+4.09606010017E+007, +4.71682457752E+002, +3.93808106141E+003
+4.11273789649E+007, +4.73099688409E+002, +3.97629726114E+003
+4.12941569282E+007, +5.51662180687E+002, +4.19751679186E+003
+4.14609348915E+007, +5.85335757094E+002, +4.41246894037E+003
+4.16277128548E+007, +6.30315143760E+002, +4.52170213249E+003
+4.17944908180E+007, +6.05937783823E+002, +4.54031861834E+003
+4.19612687813E+007, +7.25281847678E+002, +4.74870605392E+003
+4.21280467446E+007, +6.90011680777E+002, +5.03061716191E+003
+4.22948247078E+007, +9.30451104850E+002, +5.22913017363E+003
+4.24616026711E+007, +1.10877851558E+003, +5.40017129427E+003
+4.26283806344E+007, +1.12398500194E+003, +5.56942067355E+003
+4.27951585977E+007, +9.90761757000E+002, +6.06657077147E+003
+4.29619365609E+007, +1.43167036558E+003, +6.28226910065E+003
+4.31287145242E+007, +1.61492083538E+003, +6.66706217205E+003
+4.32954924875E+007, +1.74964009886E+003, +6.84713952338E+003
+4.34622704508E+007, +2.00857278073E+003, +7.66882756873E+003
+4.36290484140E+007, +2.52866940839E+003, +7.64696474095E+003
+4.37958263773E+007, +2.59497185034E+003, +8.66302426292E+003
+4.39626043406E+007, +3.24825409182E+003, +8.83315851915E+003
+4.41293823038E+007, +4.36571732084E+003, +9.32755521054E+003
+4.42961602671E+007, +4.87651053754E+003, +1.00500539540E+004
+4.44629382304E+007, +5.20942042172E+003, +1.11750970975E+004
+4.46297161937E+007, +6.79407077386E+003, +1.13227945077E+004
+4.47964941569E+007, +8.36691047959E+003, +1.19523048938E+004
+4.49632721202E+007, +1.14441559894E+004, +1.29214167839E+004
+4.51300500835E+007, +1.18348704140E+004, +1.25779592029E+004
+4.52968280467E+007, +1.52879304296E+004, +1.11854935056E+004
+4.54636060100E+007, +1.99748870680E+004, +7.11744851420E+003
+4.56303839733E+007, +2.23850898211E+004, +4.08859910479E+003
+4.57971619366E+007, +2.35574468305E+004, -1.36037191942E+002
+4.59639398998E+007, +1.93523729067E+004, -6.99860425548E+003
+4.61307178631E+007, +1.75391263017E+004, -7.65600617258E+003
+4.62974958264E+007, +1.49875323328E+004, -9.48059105832E+003
+4.64642737896E+007, +1.30090951430E+004, -1.04330273997E+004
+4.66310517529E+007, +1.05587145404E+004, -1.03672105986E+004
+4.67978297162E+007, +9.80465713768E+003, -8.66289902589E+003
+4.69646076795E+007, +6.84116546346E+003, -8.88101552117E+003
+4.71313856427E+007, +6.51035418117E+003, -8.48375579001E+003
+4.72981636060E+007, +5.60289070876E+003, -7.90309789404E+003
+4.74649415693E+007, +4.86410196576E+003, -7.58316118936E+003
+4.76317195326E+007, +4.74172461967E+003, -6.67516369012E+003
+4.77984974958E+007, +4.16454358050E+003, -6.25412643835E+003
+4.79652754591E+007, +3.76303536133E+003, -6.30620700686E+003
+4.81320534224E+007, +3.47506778764E+003, -5.86683978919E+003
+4.82988313856E+007, +3.18639863780E+003, -5.63687714482E+003
+4.84656093489E+007, +3.04625802164E+003, -5.23131546202E+003
+4.86323873122E+007, +2.88968275159E+003, -5.14073741541E+003
+4.87991652755E+007, +2.57485950195E+003, -4.88482727378E+003
+4.89659432387E+007, +2.47283136928E+003, -4.70804604262E+003
+4.91327212020E+007, +2.33159294128E+003, -4.58015142459E+003
+4.92994991653E+007, +2.37558742125E+003, -4.37176528654E+003
+4.94662771285E+007, +2.23123221427E+003, -4.20549287201E+003
+4.96330550918E+007, +2.14794934844E+003, -4.02447922077E+003
+4.97998330551E+007, +2.07843128386E+003, -3.97909736718E+003
+4.99666110184E+007, +1.97334413853E+003, -3.85181014502E+003
+5.01333889816E+007, +1.89957994626E+003, -3.88645123055E+003
+5.03001669449E+007, +1.72996506380E+003, -3.69286696888E+003
+5.04669449082E+007, +1.68002165221E+003, -3.62669865236E+003
+5.06337228715E+007, +1.61679202394E+003, -3.52461933940E+003
+5.08005008347E+007, +1.58841776864E+003, -3.50058833553E+003
+5.09672787980E+007, +1.50937838655E+003, -3.39162816711E+003
+5.11340567613E+007, +1.42210022928E+003, -3.30178307090E+003
+5.13008347245E+007, +1.34537797132E+003, -3.26898542817E+003
+5.14676126878E+007, +1.27579285378E+003, -3.23734328779E+003
+5.16343906511E+007, +1.21416395461E+003, -3.10147341569E+003
+5.18011686144E+007, +1.14923858969E+003, -3.11272384321E+003
+5.19679465776E+007, +1.05230806412E+003, -3.02659765472E+003
+5.21347245409E+007, +1.01952550708E+003, -2.92218199545E+003
+5.23015025042E+007, +9.56639518074E+002, -2.81885877520E+003
+5.24682804674E+007, +8.73975820908E+002, -2.82378353230E+003
+5.26350584307E+007, +8.46314361206E+002, -2.74733435592E+003
+5.28018363940E+007, +7.57278041576E+002, -2.69998777621E+003
+5.29686143573E+007, +7.42002024117E+002, -2.59736331809E+003
+5.31353923205E+007, +7.07200386232E+002, -2.57694923952E+003
+5.33021702838E+007, +6.48988355125E+002, -2.50398974255E+003
+5.34689482471E+007, +6.20677385245E+002, -2.41487378925E+003
