"# Channel 1"
"# Trace 1"
Frequency, Formatted Data, Formatted Data
+1.00000000000E+005, +9.27037393241E-001, +2.62983593293E+000
+2.25031289111E+005, +9.44804052504E-001, +5.87635694254E+000
+3.50062578223E+005, +9.68124087377E-001, +9.11340273397E+000
+4.75093867334E+005, +1.01137776189E+000, +1.23321340528E+001
+6.00125156446E+005, +1.06864095349E+000, +1.55524126390E+001
+7.25156445557E+005, +1.11070533120E+000, +1.87818253030E+001
+8.50187734668E+005, +1.16830511949E+000, +2.19752948597E+001
+9.75219023780E+005, +1.18130474618E+000, +2.51896464257E+001
+1.10025031289E+006, +1.24957472680E+000, +2.83838801935E+001
+1.22528160200E+006, +1.29884597860E+000, +3.15825331713E+001
+1.35031289111E+006, +1.34418600795E+000, +3.47873206428E+001
+1.47534418023E+006, +1.38227305415E+000, +3.79769737465E+001
+1.60037546934E+006, +1.43775822387E+000, +4.10997531772E+001
+1.72540675845E+006, +1.47797434592E+000, +4.43235172193E+001
+1.85043804756E+006, +1.50505342725E+000, +4.74780045377E+001
+1.97546933667E+006, +1.58371395821E+000, +5.06802207890E+001
+2.10050062578E+006, +1.58462310469E+000, +5.38170457045E+001
+2.22553191489E+006, +1.59180097070E+000, +5.70120347413E+001
+2.35056320401E+006, +1.67981193174E+000, +6.01811588712E+001
+2.47559449312E+006, +1.64517373619E+000, +6.33710524803E+001
+2.60062578223E+006, +1.71462731927E+000, +6.65928858775E+001
+2.72565707134E+006, +1.75175364394E+000, +6.97454082070E+001
+2.85068836045E+006, +1.87212529491E+000, +7.29054644652E+001
+2.97571964956E+006, +1.76060531082E+000, +7.61019211728E+001
+3.10075093867E+006, +1.88296979692E+000, +7.93125544908E+001
+3.22578222778E+006, +1.85836402885E+000, +8.24435759705E+001
+3.35081351690E+006, +1.89486675488E+000, +8.56341946832E+001
+3.47584480601E+006, +1.96835004746E+000, +8.88673627913E+001
+3.60087609512E+006, +1.84393591757E+000, +9.20633717966E+001
+3.72590738423E+006, +1.83000452135E+000, +9.51599349989E+001
+3.85093867334E+006, +1.72360673692E+000, +9.84972484616E+001
+3.97596996245E+006, +1.26600634277E+000, +1.01915608963E+002
+4.10100125156E+006, +4.70606961541E+000, +1.04649040804E+002
+4.22603254068E+006, +2.13397266202E+000, +1.07682311634E+002
+4.35106382979E+006, +2.14289312679E+000, +1.10988724258E+002
+4.47609511890E+006, +2.07900808520E+000, +1.14302707555E+002
+4.60112640801E+006, +2.06510456718E+000, +1.17585280126E+002
+4.72615769712E+006, +2.05832500907E+000, +1.20830662623E+002
+4.85118898623E+006, +2.03754432399E+000, +1.23969217224E+002
+4.97622027534E+006, +2.14167178043E+000, +1.27344612508E+002
+5.10125156446E+006, +2.17431829497E+000, +1.30474136037E+002
+5.22628285357E+006, +2.05757149450E+000, +1.33568583258E+002
+5.35131414268E+006, +2.14028246601E+000, +1.36948848809E+002
+5.47634543179E+006, +2.15453630837E+000, +1.40253609998E+002
+5.60137672090E+006, +2.17291908631E+000, +1.43528033898E+002
+5.72640801001E+006, +2.17193670807E+000, +1.46664462655E+002
+5.85143929912E+006, +1.98993794510E+000, +1.50091731805E+002
+5.97647058824E+006, +1.96291459533E+000, +1.53155760126E+002
+6.10150187735E+006, +2.05920098928E+000, +1.56433746068E+002
+6.22653316646E+006, +1.95900962605E+000, +1.59869607041E+002
+6.35156445557E+006, +2.10557160141E+000, +1.63206987989E+002
+6.47659574468E+006, +2.22365456740E+000, +1.66333254082E+002
+6.60162703379E+006, +2.19199492117E+000, +1.69812727806E+002
+6.72665832290E+006, +2.44918032612E+000, +1.73145844884E+002
+6.85168961202E+006, +2.23629096485E+000, +1.76522683091E+002
+6.97672090113E+006, +2.25427590994E+000, +1.79625727821E+002
+7.10175219024E+006, +2.22900432063E+000, +1.83106658623E+002
+7.22678347935E+006, +2.33597165279E+000, +1.86670980709E+002
+7.35181476846E+006, +2.47867067290E+000, +1.89621911034E+002
+7.47684605757E+006, +2.36731256005E+000, +1.92807162642E+002
+7.60187734668E+006, +2.40106366517E+000, +1.96494996411E+002
+7.72690863579E+006, +2.69883456634E+000, +1.99730973601E+002
+7.85193992491E+006, +2.58027933330E+000, +2.03060990343E+002
+7.97697121402E+006, +2.35886833216E+000, +2.06371484231E+002
+8.10200250313E+006, +2.54654331912E+000, +2.09918855743E+002
+8.22703379224E+006, +2.65053076583E+000, +2.13143145836E+002
+8.35206508135E+006, +2.66103383125E+000, +2.16595375167E+002
+8.47709637046E+006, +2.51935410051E+000, +2.19762280345E+002
+8.60212765957E+006, +2.80638030078E+000, +2.22950497191E+002
+8.72715894869E+006, +3.15744891759E+000, +2.26267861953E+002
+8.85219023780E+006, +3.27290762715E+000, +2.29545890897E+002
+8.97722152691E+006, +3.45838990403E+000, +2.32985913724E+002
+9.10225281602E+006, +3.08663045191E+000, +2.36228920615E+002
+9.22728410513E+006, +2.89265571549E+000, +2.40053381598E+002
+9.35231539424E+006, +2.76996998693E+000, +2.43521641308E+002
+9.47734668335E+006, +3.05760590352E+000, +2.46413481238E+002
+9.60237797247E+006, +3.30370070495E+000, +2.49393252366E+002
+9.72740926158E+006, +3.74894751299E+000, +2.52103198592E+002
+9.85244055069E+006, +3.96519883737E+000, +2.55190579923E+002
+9.97747183980E+006, +4.14724106513E+000, +2.58419870823E+002
+1.01025031289E+007, +4.00523347045E+000, +2.61600473860E+002
+1.02275344180E+007, +4.35855298679E+000, +2.64447080276E+002
+1.03525657071E+007, +4.08838560843E+000, +2.68089378867E+002
+1.04775969962E+007, +3.94739230731E+000, +2.71541632911E+002
+1.06026282854E+007, +3.86263917771E+000, +2.75237457954E+002
+1.07276595745E+007, +4.02729513880E+000, +2.78929961460E+002
+1.08526908636E+007, +3.58162583808E+000, +2.82332420136E+002
+1.09777221527E+007, +3.61915178241E+000, +2.86484076733E+002
+1.11027534418E+007, +3.40239081182E+000, +2.89854614587E+002
+1.12277847309E+007, +3.12871677133E+000, +2.94110085903E+002
+1.13528160200E+007, +3.13688775159E+000, +2.98989589382E+002
+1.14778473091E+007, +2.81525536612E+000, +3.02895355642E+002
+1.16028785982E+007, +2.53544900299E+000, +3.06083299291E+002
+1.17279098874E+007, +2.53857765833E+000, +3.09715416691E+002
+1.18529411765E+007, +3.00579425799E+000, +3.13228276524E+002
+1.19779724656E+007, +2.62629039161E+000, +3.16903927262E+002
+1.21030037547E+007, +2.70702657652E+000, +3.20483192848E+002
+1.22280350438E+007, +2.50226272860E+000, +3.24041168271E+002
+1.23530663329E+007, +2.86154038854E+000, +3.28588452641E+002
+1.24780976220E+007, +2.59076340152E+000, +3.31686082999E+002
+1.26031289111E+007, +2.26150092892E+000, +3.35731190853E+002
+1.27281602003E+007, +2.09739745681E+000, +3.39098654283E+002
+1.28531914894E+007, +2.55497248959E+000, +3.42658263802E+002
+1.29782227785E+007, +2.26937190381E+000, +3.45783764464E+002
+1.31032540676E+007, +2.54445299300E+000, +3.49558715857E+002
+1.32282853567E+007, +2.59369607880E+000, +3.53500779325E+002
+1.33533166458E+007, +2.73237159451E+000, +3.57756390033E+002
+1.34783479349E+007, +2.89933607960E+000, +3.61542048735E+002
+1.36033792240E+007, +2.10455406254E+000, +3.65611524812E+002
+1.37284105131E+007, +2.70556269639E+000, +3.69299711566E+002
+1.38534418023E+007, +2.63383881400E+000, +3.73261498923E+002
+1.39784730914E+007, +2.97725233278E+000, +3.77217653763E+002
+1.41035043805E+007, +2.29898942398E+000, +3.80899468394E+002
+1.42285356696E+007, +2.17318567043E+000, +3.84731540127E+002
+1.43535669587E+007, +1.87239728052E+000, +3.89072349649E+002
+1.44785982478E+007, +2.08411980876E+000, +3.92013443145E+002
+1.46036295369E+007, +1.95344425274E+000, +3.96427628244E+002
+1.47286608260E+007, +2.19778321048E+000, +3.99989762055E+002
+1.48536921151E+007, +2.05737694834E+000, +4.03989150346E+002
+1.49787234043E+007, +1.58692397375E+000, +4.08096527712E+002
+1.51037546934E+007, +2.25236575137E+000, +4.12001806486E+002
+1.52287859825E+007, +1.55531017543E+000, +4.15904085859E+002
+1.53538172716E+007, +2.13827759348E+000, +4.20381984586E+002
+1.54788485607E+007, +1.83716517791E+000, +4.24187917741E+002
+1.56038798498E+007, +2.41078464181E+000, +4.29102320724E+002
+1.57289111389E+007, +1.92442067517E+000, +4.33714468476E+002
+1.58539424280E+007, +2.42961589966E+000, +4.37475402401E+002
+1.59789737171E+007, +1.56677136601E+000, +4.40824267082E+002
+1.61040050063E+007, +1.81546645535E+000, +4.45413725382E+002
+1.62290362954E+007, +1.83182438974E+000, +4.48994159744E+002
+1.63540675845E+007, +1.89640743078E+000, +4.53646843401E+002
+1.64790988736E+007, +2.00736116738E+000, +4.58123428441E+002
+1.66041301627E+007, +1.74917640200E+000, +4.62835193264E+002
+1.67291614518E+007, +2.08111143992E+000, +4.66503124837E+002
+1.68541927409E+007, +1.89247774872E+000, +4.71362407052E+002
+1.69792240300E+007, +2.47521299685E+000, +4.75373119301E+002
+1.71042553191E+007, +1.61445308683E+000, +4.78955187311E+002
+1.72292866083E+007, +1.99625216919E+000, +4.83404826124E+002
+1.73543178974E+007, +1.47189926371E+000, +4.87962420078E+002
+1.74793491865E+007, +1.17836874569E+000, +4.92270747143E+002
+1.76043804756E+007, +8.58810554435E-001, +4.96814100167E+002
+1.77294117647E+007, +1.50478665593E+000, +5.00830612818E+002
+1.78544430538E+007, +8.35506903103E-001, +5.05749025024E+002
+1.79794743429E+007, +8.11959229848E-001, +5.09186276622E+002
+1.81045056320E+007, +1.35004775718E+000, +5.14972030932E+002
+1.82295369212E+007, +1.29688486776E+000, +5.18155614742E+002
+1.83545682103E+007, +3.08083752617E+000, +5.22894813778E+002
+1.84795994994E+007, +9.38987669280E-001, +5.29295549512E+002
+1.86046307885E+007, +2.52960405673E+000, +5.33735716088E+002
+1.87296620776E+007, +2.14787488487E+000, +5.37412468100E+002
+1.88546933667E+007, +1.58143283051E+000, +5.42958607977E+002
+1.89797246558E+007, +1.73273258396E+000, +5.46359127485E+002
+1.91047559449E+007, +1.61842733241E+000, +5.51922889871E+002
+1.92297872340E+007, +1.67518585085E+000, +5.57456919005E+002
+1.93548185232E+007, +2.55462081401E+000, +5.61461931780E+002
+1.94798498123E+007, +2.98274761020E+000, +5.66610456526E+002
+1.96048811014E+007, +2.08929491560E+000, +5.71292339336E+002
+1.97299123905E+007, +1.73819245358E+000, +5.75405341734E+002
+1.98549436796E+007, +2.50109417458E+000, +5.81094751133E+002
+1.99799749687E+007, +2.22867298511E+000, +5.87059637857E+002
+2.01050062578E+007, +2.55054892668E+000, +5.91422283309E+002
+2.02300375469E+007, +2.18474647559E+000, +5.94831298197E+002
+2.03550688360E+007, +1.14676064913E+000, +6.01809429064E+002
+2.04801001252E+007, +2.37942925590E+000, +6.06232904078E+002
+2.06051314143E+007, +1.06893962374E+000, +6.11362966165E+002
+2.07301627034E+007, +3.24629449354E+000, +6.16332838761E+002
+2.08551939925E+007, +2.35686330862E+000, +6.21557380804E+002
+2.09802252816E+007, +4.24158302756E+000, +6.25203786425E+002
+2.11052565707E+007, +2.37368384937E+000, +6.32207681172E+002
+2.12302878598E+007, +1.96571712747E+000, +6.37717659486E+002
+2.13553191489E+007, +3.50291841579E+000, +6.41379557807E+002
+2.14803504380E+007, +3.40514992391E+000, +6.47749446601E+002
+2.16053817272E+007, +3.95871168124E+000, +6.52974019577E+002
+2.17304130163E+007, +3.90508088243E+000, +6.59578879271E+002
+2.18554443054E+007, +3.58928964656E+000, +6.63457408726E+002
+2.19804755945E+007, +4.94284888643E+000, +6.69714215193E+002
+2.21055068836E+007, +4.46354902841E+000, +6.75773388409E+002
+2.22305381727E+007, +4.60025963372E+000, +6.80670784812E+002
+2.23555694618E+007, +4.58394350666E+000, +6.87337520615E+002
+2.24806007509E+007, +5.53271025879E+000, +6.93434115513E+002
+2.26056320401E+007, +4.32202266062E+000, +6.99843416269E+002
+2.27306633292E+007, +5.91802374775E+000, +7.05572076123E+002
+2.28556946183E+007, +5.13385999579E+000, +7.10071836700E+002
+2.29807259074E+007, +6.33220655296E+000, +7.17015732480E+002
+2.31057571965E+007, +5.83989540646E+000, +7.23912046551E+002
+2.32307884856E+007, +5.64129314434E+000, +7.28875179460E+002
+2.33558197747E+007, +8.13604313514E+000, +7.35523401964E+002
+2.34808510638E+007, +6.71000441043E+000, +7.41071671855E+002
+2.36058823529E+007, +8.63106809286E+000, +7.45137003275E+002
+2.37309136421E+007, +7.77681423775E+000, +7.49009239878E+002
+2.38559449312E+007, +9.18080635320E+000, +7.55854946370E+002
+2.39809762203E+007, +9.63561230009E+000, +7.64711810525E+002
+2.41060075094E+007, +8.87927082631E+000, +7.67737692364E+002
+2.42310387985E+007, +9.80100067012E+000, +7.74534545111E+002
+2.43560700876E+007, +9.87378022777E+000, +7.80580335790E+002
+2.44811013767E+007, +1.19213001848E+001, +7.84027754145E+002
+2.46061326658E+007, +1.00759502354E+001, +7.90147081536E+002
+2.47311639549E+007, +1.03715733848E+001, +7.95826359862E+002
+2.48561952441E+007, +1.05280793929E+001, +8.02433532056E+002
+2.49812265332E+007, +9.39043922800E+000, +8.07518026287E+002
+2.51062578223E+007, +1.16567246610E+001, +8.14669666448E+002
+2.52312891114E+007, +5.77980188496E+000, +8.20623495675E+002
+2.53563204005E+007, +8.70166536295E+000, +8.26728609606E+002
+2.54813516896E+007, +7.18891232839E+000, +8.35547226175E+002
+2.56063829787E+007, +9.38986457468E+000, +8.39066847485E+002
+2.57314142678E+007, +7.01881614515E+000, +8.46698499998E+002
+2.58564455569E+007, +6.18277918478E+000, +8.55314073681E+002
+2.59814768461E+007, +6.38680259410E+000, +8.62311501699E+002
+2.61065081352E+007, +7.41105606321E+000, +8.67697905813E+002
+2.62315394243E+007, +4.83643890271E+000, +8.76299707412E+002
+2.63565707134E+007, +6.32029173795E+000, +8.81691534791E+002
+2.64816020025E+007, +6.21728008379E+000, +8.91554008241E+002
+2.66066332916E+007, +6.27775779303E+000, +8.98629960307E+002
+2.67316645807E+007, +6.42619210069E+000, +9.04720573878E+002
+2.68566958698E+007, +7.26579201817E+000, +9.13287927940E+002
+2.69817271589E+007, +7.07923663378E+000, +9.21480002521E+002
+2.71067584481E+007, +7.42322508973E+000, +9.31708778581E+002
+2.72317897372E+007, +6.85279504265E+000, +9.35477587307E+002
+2.73568210263E+007, +6.23247398574E+000, +9.44117397531E+002
+2.74818523154E+007, +5.17279112393E+000, +9.56232677385E+002
+2.76068836045E+007, +1.08308416914E+001, +9.61172124261E+002
+2.77319148936E+007, +8.26138886944E+000, +9.68993645099E+002
+2.78569461827E+007, +1.10978459008E+001, +9.77159507795E+002
+2.79819774718E+007, +8.55421533057E+000, +9.86007478153E+002
+2.81070087610E+007, +8.91242380501E+000, +9.92833745398E+002
+2.82320400501E+007, +4.55305878521E+000, +9.99337408014E+002
+2.83570713392E+007, +1.09193328307E+001, +1.00740527033E+003
+2.84821026283E+007, +5.42918768857E+000, +1.01776632670E+003
+2.86071339174E+007, +6.69968106722E+000, +1.02628535838E+003
+2.87321652065E+007, +8.40893739061E+000, +1.03449503177E+003
+2.88571964956E+007, +7.64639059799E+000, +1.04060114062E+003
+2.89822277847E+007, +9.62233052903E+000, +1.05557890736E+003
+2.91072590738E+007, +8.90905649020E+000, +1.06211560265E+003
+2.92322903630E+007, +5.43905854563E+000, +1.07362769874E+003
+2.93573216521E+007, +1.02953212492E+001, +1.08076095372E+003
+2.94823529412E+007, +8.62363643266E+000, +1.08835437085E+003
+2.96073842303E+007, +6.60634124016E+000, +1.09793245446E+003
+2.97324155194E+007, +8.32958220662E+000, +1.11245939827E+003
+2.98574468085E+007, +9.24106667178E+000, +1.11971084534E+003
+2.99824780976E+007, +1.26496723770E+001, +1.13065843333E+003
+3.01075093867E+007, +1.37012080114E+001, +1.13462515475E+003
+3.02325406758E+007, +1.05677534987E+001, +1.14896128056E+003
+3.03575719650E+007, +8.38541171057E+000, +1.16204924592E+003
+3.04826032541E+007, +1.32486562070E+001, +1.16825477433E+003
+3.06076345432E+007, +1.09312849152E+001, +1.18386257547E+003
+3.07326658323E+007, +1.35597203543E+001, +1.20157529328E+003
+3.08576971214E+007, +1.40982384268E+001, +1.20334591072E+003
+3.09827284105E+007, +1.58728117487E+001, +1.21734300345E+003
+3.11077596996E+007, +1.54457456461E+001, +1.22248423181E+003
+3.12327909887E+007, +9.75284954598E+000, +1.23295130968E+003
+3.13578222778E+007, +1.75066638052E+001, +1.25058738507E+003
+3.14828535670E+007, +1.97195128193E+001, +1.25972943018E+003
+3.16078848561E+007, +1.49103235858E+001, +1.27159778525E+003
+3.17329161452E+007, +1.88936722891E+001, +1.28097234068E+003
+3.18579474343E+007, +1.67743870720E+001, +1.30220974753E+003
+3.19829787234E+007, +1.77775315975E+001, +1.31052080779E+003
+3.21080100125E+007, +1.71346291950E+001, +1.32209953155E+003
+3.22330413016E+007, +1.45113138024E+001, +1.33042742262E+003
+3.23580725907E+007, +1.84512833820E+001, +1.34022241451E+003
+3.24831038798E+007, +3.13337717520E+001, +1.35866095900E+003
+3.26081351690E+007, +2.75030578830E+001, +1.36886803170E+003
+3.27331664581E+007, +2.60004688943E+001, +1.38501984599E+003
+3.28581977472E+007, +2.83344113145E+001, +1.39349145294E+003
+3.29832290363E+007, +2.62419776286E+001, +1.41202942486E+003
+3.31082603254E+007, +3.07197816655E+001, +1.42710930254E+003
+3.32332916145E+007, +2.97309741646E+001, +1.44235144617E+003
+3.33583229036E+007, +1.95585329956E+001, +1.45299264266E+003
+3.34833541927E+007, +2.74668427378E+001, +1.46605772804E+003
+3.36083854819E+007, +3.58830856413E+001, +1.48376620248E+003
+3.37334167710E+007, +3.27330454320E+001, +1.50125574969E+003
+3.38584480601E+007, +2.94539547520E+001, +1.50830199101E+003
+3.39834793492E+007, +3.16234704901E+001, +1.52566480832E+003
+3.41085106383E+007, +2.94125653918E+001, +1.54277171329E+003
+3.42335419274E+007, +3.82906265688E+001, +1.56529681216E+003
+3.43585732165E+007, +2.92915970750E+001, +1.57478641333E+003
+3.44836045056E+007, +3.17750633223E+001, +1.58862317888E+003
+3.46086357947E+007, +3.51646664168E+001, +1.61594892265E+003
+3.47336670839E+007, +3.16141450265E+001, +1.63482425181E+003
+3.48586983730E+007, +4.22075962842E+001, +1.64308260915E+003
+3.49837296621E+007, +3.92771717375E+001, +1.67234721520E+003
+3.51087609512E+007, +5.20103900384E+001, +1.67779679117E+003
+3.52337922403E+007, +4.18392741428E+001, +1.70101594691E+003
+3.53588235294E+007, +5.68275496680E+001, +1.71661202451E+003
+3.54838548185E+007, +5.16073537345E+001, +1.74051356617E+003
+3.56088861076E+007, +4.61889221520E+001, +1.76309051216E+003
+3.57339173967E+007, +3.57776105252E+001, +1.77052149087E+003
+3.58589486859E+007, +6.22784350836E+001, +1.79693022345E+003
+3.59839799750E+007, +5.14782333470E+001, +1.82278381009E+003
+3.61090112641E+007, +6.47490131716E+001, +1.83841899120E+003
+3.62340425532E+007, +7.22549395464E+001, +1.86305574742E+003
+3.63590738423E+007, +7.46443309903E+001, +1.88891425302E+003
+3.64841051314E+007, +6.91744802345E+001, +1.90480124019E+003
+3.66091364205E+007, +6.12201212495E+001, +1.94253153944E+003
+3.67341677096E+007, +7.26485777031E+001, +1.95347037411E+003
+3.68591989987E+007, +8.14827691305E+001, +1.98173981321E+003
+3.69842302879E+007, +8.89280565484E+001, +2.01124214541E+003
+3.71092615770E+007, +8.11622692990E+001, +2.03655688081E+003
+3.72342928661E+007, +8.52090618117E+001, +2.05303470428E+003
+3.73593241552E+007, +9.36774065624E+001, +2.08983311284E+003
+3.74843554443E+007, +9.09875216239E+001, +2.10686951631E+003
+3.76093867334E+007, +9.19163192973E+001, +2.15711716986E+003
+3.77344180225E+007, +9.13745524085E+001, +2.18025621080E+003
+3.78594493116E+007, +1.03057003448E+002, +2.20233507490E+003
+3.79844806008E+007, +9.47279315754E+001, +2.23640169478E+003
+3.81095118899E+007, +1.01908108598E+002, +2.26646508695E+003
+3.82345431790E+007, +1.19532905591E+002, +2.28901125365E+003
+3.83595744681E+007, +1.02788756353E+002, +2.32818395019E+003
+3.84846057572E+007, +1.35118866814E+002, +2.34287124166E+003
+3.86096370463E+007, +1.21602202231E+002, +2.39521754748E+003
+3.87346683354E+007, +1.51373667963E+002, +2.41838344710E+003
+3.88596996245E+007, +1.36907133268E+002, +2.47939821918E+003
+3.89847309136E+007, +1.50334217445E+002, +2.51429011748E+003
+3.91097622028E+007, +1.47071303214E+002, +2.54598738192E+003
+3.92347934919E+007, +1.49177078716E+002, +2.57527609939E+003
+3.93598247810E+007, +1.47158130955E+002, +2.63228824463E+003
+3.94848560701E+007, +1.64337991806E+002, +2.67438938951E+003
+3.96098873592E+007, +1.71310029598E+002, +2.68733709334E+003
+3.97349186483E+007, +2.08682324866E+002, +2.75306927761E+003
+3.98599499374E+007, +1.94230191524E+002, +2.77981891208E+003
+3.99849812265E+007, +2.20830165874E+002, +2.85545988939E+003
+4.01100125156E+007, +2.13384256614E+002, +2.90905817219E+003
