"# Channel 1"
"# Trace 1"
Frequency, Formatted Data, Formatted Data
+1.00000000000E+005, +5.48814508452E+001, +2.33763732854E+000
+2.25031289111E+005, +5.48056664698E+001, +5.88958749380E+000
+3.50062578223E+005, +5.47880576560E+001, +9.18678067522E+000
+4.75093867334E+005, +5.48462656456E+001, +1.24584906846E+001
+6.00125156446E+005, +5.47719533059E+001, +1.56888767256E+001
+7.25156445557E+005, +5.48369722797E+001, +1.90052221208E+001
+8.50187734668E+005, +5.49075855771E+001, +2.23098452133E+001
+9.75219023780E+005, +5.48726726170E+001, +2.55129048735E+001
+1.10025031289E+006, +5.49497406053E+001, +2.87580698921E+001
+1.22528160200E+006, +5.48927863117E+001, +3.20995699166E+001
+1.35031289111E+006, +5.49665692008E+001, +3.53666447860E+001
+1.47534418023E+006, +5.49035960009E+001, +3.86393601407E+001
+1.60037546934E+006, +5.48657016608E+001, +4.19041064922E+001
+1.72540675845E+006, +5.49679091007E+001, +4.50795555256E+001
+1.85043804756E+006, +5.48648295421E+001, +4.84992910862E+001
+1.97546933667E+006, +5.50367278017E+001, +5.17988784360E+001
+2.10050062578E+006, +5.49669193150E+001, +5.49961306176E+001
+2.22553191489E+006, +5.50283684323E+001, +5.83002070540E+001
+2.35056320401E+006, +5.50493006798E+001, +6.16515219651E+001
+2.47559449312E+006, +5.50587169623E+001, +6.49158811109E+001
+2.60062578223E+006, +5.50379082040E+001, +6.81427573280E+001
+2.72565707134E+006, +5.49281110153E+001, +7.12876764240E+001
+2.85068836045E+006, +5.50826864844E+001, +7.47041292810E+001
+2.97571964956E+006, +5.49443559726E+001, +7.80355101625E+001
+3.10075093867E+006, +5.49318259677E+001, +8.12933899871E+001
+3.22578222778E+006, +5.50797562506E+001, +8.45868607151E+001
+3.35081351690E+006, +5.52149199828E+001, +8.79571970270E+001
+3.47584480601E+006, +5.52487768845E+001, +9.12706755457E+001
+3.60087609512E+006, +5.52715775559E+001, +9.47787675632E+001
+3.72590738423E+006, +5.52041930065E+001, +9.79590261335E+001
+3.85093867334E+006, +5.53760349406E+001, +1.01158773253E+002
+3.97596996245E+006, +5.54520491575E+001, +1.04765815567E+002
+4.10100125156E+006, +5.53308862520E+001, +1.08011989689E+002
+4.22603254068E+006, +5.54695509009E+001, +1.11009657964E+002
+4.35106382979E+006, +5.54986990218E+001, +1.14642183821E+002
+4.47609511890E+006, +5.53813470363E+001, +1.17704855725E+002
+4.60112640801E+006, +5.55531903184E+001, +1.21143868566E+002
+4.72615769712E+006, +5.57816373618E+001, +1.24536488819E+002
+4.85118898623E+006, +5.56879179765E+001, +1.27817682751E+002
+4.97622027534E+006, +5.56014293230E+001, +1.31164239150E+002
+5.10125156446E+006, +5.56330857490E+001, +1.34643059647E+002
+5.22628285357E+006, +5.61278506824E+001, +1.38037751729E+002
+5.35131414268E+006, +5.58961604570E+001, +1.41335845955E+002
+5.47634543179E+006, +5.57486198523E+001, +1.45131652892E+002
+5.60137672090E+006, +5.59291599687E+001, +1.48065284507E+002
+5.72640801001E+006, +5.57847853092E+001, +1.51680054253E+002
+5.85143929912E+006, +5.63145900234E+001, +1.55035580268E+002
+5.97647058824E+006, +5.64939871968E+001, +1.58860021594E+002
+6.10150187735E+006, +5.58963760522E+001, +1.61847613955E+002
+6.22653316646E+006, +5.63512783726E+001, +1.65224760362E+002
+6.35156445557E+006, +5.66171698221E+001, +1.68715312109E+002
+6.47659574468E+006, +5.66553302925E+001, +1.72192656779E+002
+6.60162703379E+006, +5.69590513726E+001, +1.75772433080E+002
+6.72665832290E+006, +5.69357257545E+001, +1.78942141602E+002
+6.85168961202E+006, +5.70170169172E+001, +1.82606044706E+002
+6.97672090113E+006, +5.69296647429E+001, +1.85935726292E+002
+7.10175219024E+006, +5.72864182786E+001, +1.89330286269E+002
+7.22678347935E+006, +5.72525158769E+001, +1.93036465796E+002
+7.35181476846E+006, +5.72878156759E+001, +1.96574095683E+002
+7.47684605757E+006, +5.74074956018E+001, +2.00374862350E+002
+7.60187734668E+006, +5.73376468826E+001, +2.03530377783E+002
+7.72690863579E+006, +5.74118919181E+001, +2.07134884047E+002
+7.85193992491E+006, +5.77674005620E+001, +2.10687830411E+002
+7.97697121402E+006, +5.78891825917E+001, +2.13909725903E+002
+8.10200250313E+006, +5.77543919845E+001, +2.17514431031E+002
+8.22703379224E+006, +5.77751512652E+001, +2.21267217044E+002
+8.35206508135E+006, +5.81755290417E+001, +2.24995931091E+002
+8.47709637046E+006, +5.82727166526E+001, +2.28563256456E+002
+8.60212765957E+006, +5.79818744335E+001, +2.32062659856E+002
+8.72715894869E+006, +5.86706047857E+001, +2.35586303076E+002
+8.85219023780E+006, +5.86602110427E+001, +2.38798012906E+002
+8.97722152691E+006, +5.84808904926E+001, +2.42662588832E+002
+9.10225281602E+006, +5.86261681927E+001, +2.46566447674E+002
+9.22728410513E+006, +5.91033452645E+001, +2.50262521791E+002
+9.35231539424E+006, +5.88512131709E+001, +2.53811311494E+002
+9.47734668335E+006, +5.89768195813E+001, +2.57888137036E+002
+9.60237797247E+006, +5.94888471816E+001, +2.61314126301E+002
+9.72740926158E+006, +5.94025814610E+001, +2.64670441350E+002
+9.85244055069E+006, +5.92181885025E+001, +2.68496783645E+002
+9.97747183980E+006, +5.92347538977E+001, +2.72438273381E+002
+1.01025031289E+007, +5.95009760083E+001, +2.76144071817E+002
+1.02275344180E+007, +5.93792066106E+001, +2.80006052644E+002
+1.03525657071E+007, +5.98290155988E+001, +2.83308218830E+002
+1.04775969962E+007, +5.99653292457E+001, +2.87220003659E+002
+1.06026282854E+007, +5.97349831865E+001, +2.91215706865E+002
+1.07276595745E+007, +5.99350778588E+001, +2.94882405608E+002
+1.08526908636E+007, +6.07235478650E+001, +2.98255422948E+002
+1.09777221527E+007, +6.03398551595E+001, +3.02308813467E+002
+1.11027534418E+007, +6.04731336586E+001, +3.06769279104E+002
+1.12277847309E+007, +6.06162361697E+001, +3.10511339894E+002
+1.13528160200E+007, +6.08851605919E+001, +3.14147886943E+002
+1.14778473091E+007, +6.13796958942E+001, +3.18049776426E+002
+1.16028785982E+007, +6.16458302995E+001, +3.21994482426E+002
+1.17279098874E+007, +6.07180368322E+001, +3.26656065671E+002
+1.18529411765E+007, +6.12791992201E+001, +3.29036830425E+002
+1.19779724656E+007, +6.12546326316E+001, +3.34217208722E+002
+1.21030037547E+007, +6.15803190841E+001, +3.38191333563E+002
+1.22280350438E+007, +6.23322269626E+001, +3.41651526940E+002
+1.23530663329E+007, +6.21006068094E+001, +3.45317816563E+002
+1.24780976220E+007, +6.21083212855E+001, +3.49570242000E+002
+1.26031289111E+007, +6.23956196921E+001, +3.54317046896E+002
+1.27281602003E+007, +6.22265405719E+001, +3.57442681695E+002
+1.28531914894E+007, +6.21635016719E+001, +3.62323965328E+002
+1.29782227785E+007, +6.21032665505E+001, +3.66120108886E+002
+1.31032540676E+007, +6.30104856954E+001, +3.69827383924E+002
+1.32282853567E+007, +6.26161169189E+001, +3.75259436684E+002
+1.33533166458E+007, +6.28009079395E+001, +3.79408068390E+002
+1.34783479349E+007, +6.39924093899E+001, +3.82752868773E+002
+1.36033792240E+007, +6.33367738090E+001, +3.87056032652E+002
+1.37284105131E+007, +6.41967052400E+001, +3.91827216891E+002
+1.38534418023E+007, +6.40296328390E+001, +3.95125842753E+002
+1.39784730914E+007, +6.44281067034E+001, +4.00671589235E+002
+1.41035043805E+007, +6.38197785819E+001, +4.04279645579E+002
+1.42285356696E+007, +6.41882361049E+001, +4.08371749824E+002
+1.43535669587E+007, +6.43443372207E+001, +4.13163470367E+002
+1.44785982478E+007, +6.54066188001E+001, +4.16397457940E+002
+1.46036295369E+007, +6.54233381605E+001, +4.22701531005E+002
+1.47286608260E+007, +6.52511832013E+001, +4.26733734232E+002
+1.48536921151E+007, +6.50563600329E+001, +4.30502471756E+002
+1.49787234043E+007, +6.56122293417E+001, +4.35660774122E+002
+1.51037546934E+007, +6.49700197206E+001, +4.37736017082E+002
+1.52287859825E+007, +6.56919107402E+001, +4.44047195872E+002
+1.53538172716E+007, +6.60519049549E+001, +4.48753530892E+002
+1.54788485607E+007, +6.77878780314E+001, +4.53535950385E+002
+1.56038798498E+007, +6.65709377641E+001, +4.57830650831E+002
+1.57289111389E+007, +6.64676640542E+001, +4.61364747001E+002
+1.58539424280E+007, +6.80599859970E+001, +4.66593659755E+002
+1.59789737171E+007, +6.73967856541E+001, +4.70243338954E+002
+1.61040050063E+007, +6.64253758614E+001, +4.75614371053E+002
+1.62290362954E+007, +6.93530894652E+001, +4.80218088012E+002
+1.63540675845E+007, +6.85081184258E+001, +4.85530125148E+002
+1.64790988736E+007, +6.74746770855E+001, +4.89992750250E+002
+1.66041301627E+007, +6.97190836370E+001, +4.94638281549E+002
+1.67291614518E+007, +6.87291243133E+001, +4.97750410928E+002
+1.68541927409E+007, +7.02778315795E+001, +5.05159831000E+002
+1.69792240300E+007, +7.06159833421E+001, +5.08708362112E+002
+1.71042553191E+007, +6.77451492494E+001, +5.15182074635E+002
+1.72292866083E+007, +6.97452630434E+001, +5.19890184110E+002
+1.73543178974E+007, +7.00783698249E+001, +5.24492866392E+002
+1.74793491865E+007, +7.09557860233E+001, +5.30139330268E+002
+1.76043804756E+007, +7.20620121036E+001, +5.34787863011E+002
+1.77294117647E+007, +7.13427887688E+001, +5.41089700169E+002
+1.78544430538E+007, +7.14120465203E+001, +5.44953475622E+002
+1.79794743429E+007, +6.99749652242E+001, +5.49409407418E+002
+1.81045056320E+007, +7.32000705255E+001, +5.54368661670E+002
+1.82295369212E+007, +7.32734392544E+001, +5.59887027029E+002
+1.83545682103E+007, +7.17508180810E+001, +5.65792119307E+002
+1.84795994994E+007, +7.21907827561E+001, +5.71467118889E+002
+1.86046307885E+007, +7.31650004898E+001, +5.74000908851E+002
+1.87296620776E+007, +7.41404648789E+001, +5.81472944565E+002
+1.88546933667E+007, +7.39391319542E+001, +5.85533081103E+002
+1.89797246558E+007, +7.54923364968E+001, +5.91394496066E+002
+1.91047559449E+007, +7.61517865712E+001, +5.96487787363E+002
+1.92297872340E+007, +7.55285164357E+001, +6.05966498339E+002
+1.93548185232E+007, +7.64268169638E+001, +6.07102878356E+002
+1.94798498123E+007, +7.56792295056E+001, +6.14253319571E+002
+1.96048811014E+007, +7.45258184529E+001, +6.20373045015E+002
+1.97299123905E+007, +7.84336239392E+001, +6.25988673127E+002
+1.98549436796E+007, +7.83714770662E+001, +6.30317426135E+002
+1.99799749687E+007, +7.86295870022E+001, +6.38149994968E+002
+2.01050062578E+007, +7.86262232197E+001, +6.43976629754E+002
+2.02300375469E+007, +7.75817715270E+001, +6.47930068533E+002
+2.03550688360E+007, +7.98818968217E+001, +6.53503465451E+002
+2.04801001252E+007, +7.83753233958E+001, +6.61784948712E+002
+2.06051314143E+007, +7.97930508437E+001, +6.66368138092E+002
+2.07301627034E+007, +8.16528037176E+001, +6.73682877713E+002
+2.08551939925E+007, +8.41193059219E+001, +6.78733546559E+002
+2.09802252816E+007, +8.23670053064E+001, +6.85093310582E+002
+2.11052565707E+007, +8.26302367945E+001, +6.92556761205E+002
+2.12302878598E+007, +8.32475929233E+001, +6.98578867243E+002
+2.13553191489E+007, +8.28428016941E+001, +7.01090204831E+002
+2.14803504380E+007, +8.25397347976E+001, +7.09137786643E+002
+2.16053817272E+007, +8.40273770642E+001, +7.17646688340E+002
+2.17304130163E+007, +8.44745418946E+001, +7.25493280859E+002
+2.18554443054E+007, +8.74754547467E+001, +7.29126828522E+002
+2.19804755945E+007, +8.52666758456E+001, +7.38989883479E+002
+2.21055068836E+007, +8.93440401019E+001, +7.45457608134E+002
+2.22305381727E+007, +8.71482910126E+001, +7.50591472930E+002
+2.23555694618E+007, +9.09339365564E+001, +7.55288518468E+002
+2.24806007509E+007, +9.08288844560E+001, +7.63084472410E+002
+2.26056320401E+007, +9.21397278330E+001, +7.71233109011E+002
+2.27306633292E+007, +9.27103146181E+001, +7.76855155980E+002
+2.28556946183E+007, +9.58233463561E+001, +7.84328528269E+002
+2.29807259074E+007, +9.43210688783E+001, +7.89677251645E+002
+2.31057571965E+007, +9.56935915570E+001, +7.98355683379E+002
+2.32307884856E+007, +9.60921227432E+001, +8.08164514126E+002
+2.33558197747E+007, +1.00095960177E+002, +8.10394597146E+002
+2.34808510638E+007, +1.03898236528E+002, +8.17618355615E+002
+2.36058823529E+007, +1.02009774808E+002, +8.26910308541E+002
+2.37309136421E+007, +1.01269425766E+002, +8.32359286531E+002
+2.38559449312E+007, +1.04057072543E+002, +8.36812566086E+002
+2.39809762203E+007, +1.06075454758E+002, +8.45395877922E+002
+2.41060075094E+007, +1.03098708174E+002, +8.49428078296E+002
+2.42310387985E+007, +1.07370510118E+002, +8.58024570956E+002
+2.43560700876E+007, +1.08130954215E+002, +8.64163343812E+002
+2.44811013767E+007, +1.04750170618E+002, +8.73365128998E+002
+2.46061326658E+007, +1.05569592238E+002, +8.80827811147E+002
+2.47311639549E+007, +1.10371730744E+002, +8.88358897508E+002
+2.48561952441E+007, +1.10087009908E+002, +8.92611615697E+002
+2.49812265332E+007, +1.07950703249E+002, +9.04000278125E+002
+2.51062578223E+007, +1.08253755674E+002, +9.12584967964E+002
+2.52312891114E+007, +1.11339214986E+002, +9.19960477585E+002
+2.53563204005E+007, +1.10498860367E+002, +9.26737224197E+002
+2.54813516896E+007, +1.13562472789E+002, +9.37438449588E+002
+2.56063829787E+007, +1.14887880441E+002, +9.49125428730E+002
+2.57314142678E+007, +1.14743240060E+002, +9.58007151048E+002
+2.58564455569E+007, +1.10246852944E+002, +9.60111941033E+002
+2.59814768461E+007, +1.14859216856E+002, +9.69007273992E+002
+2.61065081352E+007, +1.06678429306E+002, +9.86833248644E+002
+2.62315394243E+007, +1.18330309334E+002, +9.87848962855E+002
+2.63565707134E+007, +1.18329743966E+002, +1.00350216052E+003
+2.64816020025E+007, +1.19208378831E+002, +1.00427345219E+003
+2.66066332916E+007, +1.22641787937E+002, +1.02183977826E+003
+2.67316645807E+007, +1.21114684783E+002, +1.02626040370E+003
+2.68566958698E+007, +1.30160430918E+002, +1.03359670976E+003
+2.69817271589E+007, +1.15390164809E+002, +1.05075010403E+003
+2.71067584481E+007, +1.22193485034E+002, +1.05959995145E+003
+2.72317897372E+007, +1.24582347674E+002, +1.06773283279E+003
+2.73568210263E+007, +1.27432809927E+002, +1.07401700721E+003
+2.74818523154E+007, +1.23203778140E+002, +1.08437808024E+003
+2.76068836045E+007, +1.38374769208E+002, +1.09361704754E+003
+2.77319148936E+007, +1.31567653492E+002, +1.10220532214E+003
+2.78569461827E+007, +1.34510618448E+002, +1.11669321279E+003
+2.79819774718E+007, +1.31803593458E+002, +1.12142786049E+003
+2.81070087610E+007, +1.31804306818E+002, +1.13452571756E+003
+2.82320400501E+007, +1.33425132420E+002, +1.14867531367E+003
+2.83570713392E+007, +1.35109705923E+002, +1.16486292288E+003
+2.84821026283E+007, +1.40473635944E+002, +1.16887203949E+003
+2.86071339174E+007, +1.33713937636E+002, +1.18097291907E+003
+2.87321652065E+007, +1.40995821963E+002, +1.19015983250E+003
+2.88571964956E+007, +1.37317335196E+002, +1.21271771246E+003
+2.89822277847E+007, +1.42116811282E+002, +1.22435011103E+003
+2.91072590738E+007, +1.39948550066E+002, +1.23400183249E+003
+2.92322903630E+007, +1.39883941261E+002, +1.24557276596E+003
+2.93573216521E+007, +1.44928509089E+002, +1.25515944310E+003
+2.94823529412E+007, +1.43297723720E+002, +1.27550295785E+003
+2.96073842303E+007, +1.43020950088E+002, +1.28414172452E+003
+2.97324155194E+007, +1.54474027874E+002, +1.30050881002E+003
+2.98574468085E+007, +1.56691580766E+002, +1.30604931547E+003
+2.99824780976E+007, +1.51498054130E+002, +1.33039684437E+003
+3.01075093867E+007, +1.55340894302E+002, +1.35000312564E+003
+3.02325406758E+007, +1.60473710431E+002, +1.35623362880E+003
+3.03575719650E+007, +1.70850640785E+002, +1.36908688424E+003
+3.04826032541E+007, +1.61806391642E+002, +1.37818963675E+003
+3.06076345432E+007, +1.63990090709E+002, +1.40167462459E+003
+3.07326658323E+007, +1.69169330740E+002, +1.41890258896E+003
+3.08576971214E+007, +1.64850507566E+002, +1.43753173120E+003
+3.09827284105E+007, +1.74464805353E+002, +1.43337054774E+003
+3.11077596996E+007, +1.66224847595E+002, +1.46256311688E+003
+3.12327909887E+007, +1.71526521886E+002, +1.47621700484E+003
+3.13578222778E+007, +1.76019196358E+002, +1.49995883032E+003
+3.14828535670E+007, +1.91215325834E+002, +1.50712389388E+003
+3.16078848561E+007, +1.76355434101E+002, +1.53209823474E+003
+3.17329161452E+007, +1.85609270494E+002, +1.54116287436E+003
+3.18579474343E+007, +1.90965831410E+002, +1.56367937729E+003
+3.19829787234E+007, +1.96691820549E+002, +1.57941915228E+003
+3.21080100125E+007, +2.01741294808E+002, +1.60607255509E+003
+3.22330413016E+007, +1.96865248500E+002, +1.62448477325E+003
+3.23580725907E+007, +2.08742730942E+002, +1.64922945092E+003
+3.24831038798E+007, +2.03615524313E+002, +1.65605610466E+003
+3.26081351690E+007, +2.06952182354E+002, +1.67919462034E+003
+3.27331664581E+007, +2.27315369814E+002, +1.71345621942E+003
+3.28581977472E+007, +2.23208681978E+002, +1.71450917880E+003
+3.29832290363E+007, +2.25447657753E+002, +1.73739498342E+003
+3.31082603254E+007, +2.31323324689E+002, +1.75594714639E+003
+3.32332916145E+007, +2.38030235404E+002, +1.76913757438E+003
+3.33583229036E+007, +2.36122549198E+002, +1.80922919137E+003
+3.34833541927E+007, +2.43567169264E+002, +1.82823363925E+003
+3.36083854819E+007, +2.53856464434E+002, +1.84313239715E+003
+3.37334167710E+007, +2.59540085216E+002, +1.88442561214E+003
+3.38584480601E+007, +2.53394054216E+002, +1.89521576796E+003
+3.39834793492E+007, +2.67518980227E+002, +1.91924772807E+003
+3.41085106383E+007, +2.82111570863E+002, +1.94795968801E+003
+3.42335419274E+007, +2.82897368829E+002, +1.97598048196E+003
+3.43585732165E+007, +2.89998344125E+002, +2.01003771434E+003
+3.44836045056E+007, +2.83176245669E+002, +2.03857060077E+003
+3.46086357947E+007, +2.91924997200E+002, +2.05652217606E+003
+3.47336670839E+007, +2.97129549963E+002, +2.08867629283E+003
+3.48586983730E+007, +3.11077178686E+002, +2.11874386084E+003
+3.49837296621E+007, +2.99010628226E+002, +2.17421857548E+003
+3.51087609512E+007, +3.26493429472E+002, +2.16622578225E+003
+3.52337922403E+007, +3.16851762405E+002, +2.22170949713E+003
+3.53588235294E+007, +3.35608296584E+002, +2.23221123906E+003
+3.54838548185E+007, +3.85323021029E+002, +2.24952668075E+003
+3.56088861076E+007, +3.46909963596E+002, +2.30498795965E+003
+3.57339173967E+007, +3.59366158480E+002, +2.32396403810E+003
+3.58589486859E+007, +3.73499444319E+002, +2.37021460894E+003
+3.59839799750E+007, +3.90505861623E+002, +2.42848230546E+003
+3.61090112641E+007, +4.01567788122E+002, +2.43653972809E+003
+3.62340425532E+007, +4.20258973039E+002, +2.53844847467E+003
+3.63590738423E+007, +4.12960996970E+002, +2.52257236392E+003
+3.64841051314E+007, +4.23145418822E+002, +2.55829975055E+003
+3.66091364205E+007, +4.39730322321E+002, +2.61719695033E+003
+3.67341677096E+007, +4.48667219634E+002, +2.66017265253E+003
+3.68591989987E+007, +4.66353783324E+002, +2.71398664586E+003
+3.69842302879E+007, +4.52399418085E+002, +2.73165680389E+003
+3.71092615770E+007, +4.94416735274E+002, +2.78835102542E+003
+3.72342928661E+007, +4.76426949852E+002, +2.82781754456E+003
+3.73593241552E+007, +5.04133470674E+002, +2.93159273210E+003
+3.74843554443E+007, +5.26528672595E+002, +2.93746899907E+003
+3.76093867334E+007, +5.69380018942E+002, +2.99913141585E+003
+3.77344180225E+007, +5.99026158550E+002, +3.08449705032E+003
+3.78594493116E+007, +5.54343484521E+002, +3.12920685066E+003
+3.79844806008E+007, +6.55995876504E+002, +3.18499347298E+003
+3.81095118899E+007, +6.52046017154E+002, +3.29669124059E+003
+3.82345431790E+007, +6.11703719097E+002, +3.30715346646E+003
+3.83595744681E+007, +7.10954978253E+002, +3.37874573050E+003
+3.84846057572E+007, +7.05392810058E+002, +3.45745522040E+003
+3.86096370463E+007, +7.40030968759E+002, +3.51856099514E+003
+3.87346683354E+007, +7.96801517418E+002, +3.67856687376E+003
+3.88596996245E+007, +7.92302946189E+002, +3.71234861092E+003
+3.89847309136E+007, +8.64907294421E+002, +3.77447443079E+003
+3.91097622028E+007, +8.91364732063E+002, +3.91972454593E+003
+3.92347934919E+007, +9.34853067447E+002, +3.99918633882E+003
+3.93598247810E+007, +1.07446029527E+003, +4.09619792216E+003
+3.94848560701E+007, +1.05240771636E+003, +4.15842325241E+003
+3.96098873592E+007, +1.13600146254E+003, +4.24943489861E+003
+3.97349186483E+007, +1.13091817940E+003, +4.30060000044E+003
+3.98599499374E+007, +1.28066418292E+003, +4.52159389965E+003
+3.99849812265E+007, +1.36156630320E+003, +4.64793103417E+003
+4.01100125156E+007, +1.48921162746E+003, +4.68216725241E+003
