"# Channel 1"
"# Trace 1"
Frequency, Formatted Data, Formatted Data
+1.00000000000E+005, +9.16095567697E-001, +2.41845693762E+000
+2.25031289111E+005, +9.16356195393E-001, +5.46025857286E+000
+3.50062578223E+005, +9.13377878461E-001, +8.53643320348E+000
+4.75093867334E+005, +9.92264960697E-001, +1.14942261951E+001
+6.00125156446E+005, +9.71427163266E-001, +1.45372456056E+001
+7.25156445557E+005, +9.51301905246E-001, +1.75386190822E+001
+8.50187734668E+005, +1.06109287743E+000, +2.05584734920E+001
+9.75219023780E+005, +1.06318245209E+000, +2.35415805110E+001
+1.10025031289E+006, +1.08077669420E+000, +2.65412045287E+001
+1.22528160200E+006, +1.18621490616E+000, +2.94898352884E+001
+1.35031289111E+006, +1.19343859088E+000, +3.25362253686E+001
+1.47534418023E+006, +1.18931323813E+000, +3.54905851796E+001
+1.60037546934E+006, +1.25311687189E+000, +3.84846659123E+001
+1.72540675845E+006, +1.33742703071E+000, +4.14299128913E+001
+1.85043804756E+006, +1.29928019392E+000, +4.43888541073E+001
+1.97546933667E+006, +1.29734868525E+000, +4.74171220089E+001
+2.10050062578E+006, +1.34658336546E+000, +5.03804492003E+001
+2.22553191489E+006, +1.40954915254E+000, +5.32447298400E+001
+2.35056320401E+006, +1.37172775579E+000, +5.63405655957E+001
+2.47559449312E+006, +1.37846026211E+000, +5.92923707713E+001
+2.60062578223E+006, +1.36716748187E+000, +6.23578568477E+001
+2.72565707134E+006, +1.29218474937E+000, +6.51823166049E+001
+2.85068836045E+006, +1.48092080801E+000, +6.81719410159E+001
+2.97571964956E+006, +1.42569377517E+000, +7.11969957294E+001
+3.10075093867E+006, +1.32217720384E+000, +7.42491514915E+001
+3.22578222778E+006, +1.42173450538E+000, +7.69911056729E+001
+3.35081351690E+006, +1.44937692047E+000, +8.01988139385E+001
+3.47584480601E+006, +1.49957662878E+000, +8.31079527906E+001
+3.60087609512E+006, +1.54460257611E+000, +8.61659060816E+001
+3.72590738423E+006, +1.60467638617E+000, +8.92005545962E+001
+3.85093867334E+006, +1.52986467697E+000, +9.21826528642E+001
+3.97596996245E+006, +1.56402607888E+000, +9.50955451201E+001
+4.10100125156E+006, +1.63053279750E+000, +9.83118399718E+001
+4.22603254068E+006, +1.59349463339E+000, +1.01144954835E+002
+4.35106382979E+006, +1.59716060201E+000, +1.04238107276E+002
+4.47609511890E+006, +1.52818309933E+000, +1.07192577460E+002
+4.60112640801E+006, +1.41610642793E+000, +1.10246751541E+002
+4.72615769712E+006, +1.60197231435E+000, +1.13279399788E+002
+4.85118898623E+006, +1.62292734166E+000, +1.16139829381E+002
+4.97622027534E+006, +1.52593238442E+000, +1.19107488496E+002
+5.10125156446E+006, +1.74679148135E+000, +1.22286364836E+002
+5.22628285357E+006, +1.56541545109E+000, +1.25437412201E+002
+5.35131414268E+006, +1.63603421100E+000, +1.28490822388E+002
+5.47634543179E+006, +1.67315377299E+000, +1.31329389938E+002
+5.60137672090E+006, +1.62389845925E+000, +1.34492172306E+002
+5.72640801001E+006, +1.55230666484E+000, +1.37816060127E+002
+5.85143929912E+006, +1.89128284329E+000, +1.40432025443E+002
+5.97647058824E+006, +1.87596486810E+000, +1.43996684447E+002
+6.10150187735E+006, +1.76277526800E+000, +1.47098371203E+002
+6.22653316646E+006, +1.74515673437E+000, +1.49890572282E+002
+6.35156445557E+006, +2.05878617635E+000, +1.53084631136E+002
+6.47659574468E+006, +1.91439777035E+000, +1.56036419260E+002
+6.60162703379E+006, +1.77594090732E+000, +1.59340819180E+002
+6.72665832290E+006, +1.89616668247E+000, +1.62365661912E+002
+6.85168961202E+006, +1.89684122658E+000, +1.65477400970E+002
+6.97672090113E+006, +2.06167715460E+000, +1.68410229743E+002
+7.10175219024E+006, +1.95696582285E+000, +1.71573903054E+002
+7.22678347935E+006, +1.95531833476E+000, +1.74688065178E+002
+7.35181476846E+006, +1.89695190533E+000, +1.77929573540E+002
+7.47684605757E+006, +2.13925497311E+000, +1.81034261879E+002
+7.60187734668E+006, +2.17951898689E+000, +1.84105235460E+002
+7.72690863579E+006, +2.03637957963E+000, +1.87334973652E+002
+7.85193992491E+006, +2.07126437344E+000, +1.90561395820E+002
+7.97697121402E+006, +2.17392628425E+000, +1.93355623974E+002
+8.10200250313E+006, +2.30627779840E+000, +1.96825764372E+002
+8.22703379224E+006, +2.27466376605E+000, +2.00035593859E+002
+8.35206508135E+006, +2.19179449270E+000, +2.03337012246E+002
+8.47709637046E+006, +2.16623239269E+000, +2.06319265942E+002
+8.60212765957E+006, +2.07058785389E+000, +2.09519092886E+002
+8.72715894869E+006, +2.11366573706E+000, +2.12766533839E+002
+8.85219023780E+006, +2.42413808686E+000, +2.15774866555E+002
+8.97722152691E+006, +1.98599777191E+000, +2.19093191435E+002
+9.10225281602E+006, +2.28128489479E+000, +2.22263758263E+002
+9.22728410513E+006, +2.10955220960E+000, +2.25535647516E+002
+9.35231539424E+006, +2.13108617724E+000, +2.28890082037E+002
+9.47734668335E+006, +2.18783489683E+000, +2.32016656867E+002
+9.60237797247E+006, +2.22695722201E+000, +2.34933889871E+002
+9.72740926158E+006, +2.49166883784E+000, +2.38483043531E+002
+9.85244055069E+006, +2.10923874770E+000, +2.41754017913E+002
+9.97747183980E+006, +2.44189077193E+000, +2.45051020548E+002
+1.01025031289E+007, +2.33630239748E+000, +2.48134009433E+002
+1.02275344180E+007, +1.81571186866E+000, +2.51737852420E+002
+1.03525657071E+007, +2.13896958579E+000, +2.55099387407E+002
+1.04775969962E+007, +1.86241116177E+000, +2.58314157859E+002
+1.06026282854E+007, +1.87206774085E+000, +2.61329853102E+002
+1.07276595745E+007, +1.88469000551E+000, +2.64852128179E+002
+1.08526908636E+007, +2.16666791898E+000, +2.67959234820E+002
+1.09777221527E+007, +2.25652326990E+000, +2.71086374675E+002
+1.11027534418E+007, +2.56603360762E+000, +2.74967653208E+002
+1.12277847309E+007, +1.86739932590E+000, +2.77874559046E+002
+1.13528160200E+007, +2.30537670236E+000, +2.81232134978E+002
+1.14778473091E+007, +1.99106790459E+000, +2.85109537046E+002
+1.16028785982E+007, +2.71011693465E+000, +2.88305049936E+002
+1.17279098874E+007, +2.36391365794E+000, +2.92020415684E+002
+1.18529411765E+007, +2.27938637656E+000, +2.95042924891E+002
+1.19779724656E+007, +2.54642325471E+000, +2.98961124231E+002
+1.21030037547E+007, +2.46925214549E+000, +3.02056202941E+002
+1.22280350438E+007, +1.97628108066E+000, +3.05399913365E+002
+1.23530663329E+007, +2.30398484541E+000, +3.09198841038E+002
+1.24780976220E+007, +2.19235084992E+000, +3.12443871434E+002
+1.26031289111E+007, +1.80116688536E+000, +3.15823598170E+002
+1.27281602003E+007, +1.74522793878E+000, +3.19876453110E+002
+1.28531914894E+007, +2.28422788580E+000, +3.22813353856E+002
+1.29782227785E+007, +1.83561582877E+000, +3.26421073909E+002
+1.31032540676E+007, +1.89261462794E+000, +3.29558841060E+002
+1.32282853567E+007, +1.84112802056E+000, +3.33742795486E+002
+1.33533166458E+007, +2.08249697658E+000, +3.37181550326E+002
+1.34783479349E+007, +1.88626091495E+000, +3.40057220781E+002
+1.36033792240E+007, +1.87319739108E+000, +3.44160966073E+002
+1.37284105131E+007, +1.83516680327E+000, +3.47591934531E+002
+1.38534418023E+007, +1.55851572158E+000, +3.51149511010E+002
+1.39784730914E+007, +1.59648659201E+000, +3.54970514657E+002
+1.41035043805E+007, +1.56645066313E+000, +3.58437534396E+002
+1.42285356696E+007, +2.28381807402E+000, +3.62242751487E+002
+1.43535669587E+007, +2.11376863022E+000, +3.65733873086E+002
+1.44785982478E+007, +1.87749830577E+000, +3.69124369035E+002
+1.46036295369E+007, +1.96288573467E+000, +3.73385776034E+002
+1.47286608260E+007, +2.07128683425E+000, +3.77244301261E+002
+1.48536921151E+007, +1.63712353761E+000, +3.80254232435E+002
+1.49787234043E+007, +1.30487663487E+000, +3.85057271397E+002
+1.51037546934E+007, +1.78149381094E+000, +3.88468044976E+002
+1.52287859825E+007, +1.99427441117E+000, +3.92342435098E+002
+1.53538172716E+007, +1.57565466350E+000, +3.95538765980E+002
+1.54788485607E+007, +2.03347708700E+000, +3.99881693883E+002
+1.56038798498E+007, +1.31089406461E+000, +4.02526899454E+002
+1.57289111389E+007, +1.10353399314E+000, +4.07193695225E+002
+1.58539424280E+007, +1.53138024685E+000, +4.11119661418E+002
+1.59789737171E+007, +7.18026865704E-001, +4.14505609227E+002
+1.61040050063E+007, +1.24889889915E+000, +4.19736873367E+002
+1.62290362954E+007, +1.74033803927E+000, +4.23132317512E+002
+1.63540675845E+007, +1.73764328357E+000, +4.26686867928E+002
+1.64790988736E+007, +2.23706214335E+000, +4.30929131276E+002
+1.66041301627E+007, +4.91398317312E-001, +4.35290498754E+002
+1.67291614518E+007, +8.95079579161E-001, +4.39165266966E+002
+1.68541927409E+007, +1.40591788659E+000, +4.42903049425E+002
+1.69792240300E+007, +1.22336009275E+000, +4.45761093110E+002
+1.71042553191E+007, +4.00931408073E-001, +4.50927668459E+002
+1.72292866083E+007, -7.10028616374E-002, +4.54965198907E+002
+1.73543178974E+007, +9.11411728197E-001, +4.58329255797E+002
+1.74793491865E+007, +1.14051012431E+000, +4.63541811240E+002
+1.76043804756E+007, +9.80547193722E-001, +4.66215111085E+002
+1.77294117647E+007, +2.33594292202E+000, +4.70090271216E+002
+1.78544430538E+007, +2.10381566165E-001, +4.75489013784E+002
+1.79794743429E+007, +1.93283180811E+000, +4.78358584846E+002
+1.81045056320E+007, +1.40430900314E+000, +4.84315282111E+002
+1.82295369212E+007, +9.54890836028E-001, +4.88113366140E+002
+1.83545682103E+007, +1.90675278980E+000, +4.93898785354E+002
+1.84795994994E+007, +1.31403360475E+000, +4.97581837613E+002
+1.86046307885E+007, +1.56550750837E+000, +5.00971406050E+002
+1.87296620776E+007, +2.67916775658E+000, +5.05515098403E+002
+1.88546933667E+007, +1.16602813380E+000, +5.09394793869E+002
+1.89797246558E+007, +1.41095524331E+000, +5.14534505445E+002
+1.91047559449E+007, +3.59669741466E+000, +5.19090050952E+002
+1.92297872340E+007, +1.96352805960E+000, +5.23267570859E+002
+1.93548185232E+007, +2.00431561042E+000, +5.26551176698E+002
+1.94798498123E+007, +1.85536275148E+000, +5.33886009231E+002
+1.96048811014E+007, +8.19188807270E-001, +5.36372682305E+002
+1.97299123905E+007, +1.59826055668E+000, +5.39972947313E+002
+1.98549436796E+007, +1.22273184320E+000, +5.44910351183E+002
+1.99799749687E+007, +2.86238775285E+000, +5.48064409919E+002
+2.01050062578E+007, +1.68909306139E+000, +5.52988094731E+002
+2.02300375469E+007, +1.04727956594E+000, +5.58747679338E+002
+2.03550688360E+007, +2.30889547211E+000, +5.63162833945E+002
+2.04801001252E+007, +1.55083589061E+000, +5.67809471082E+002
+2.06051314143E+007, +1.66281896150E+000, +5.73027270329E+002
+2.07301627034E+007, +7.35205670509E-001, +5.79158118745E+002
+2.08551939925E+007, +2.41593361831E+000, +5.83567241273E+002
+2.09802252816E+007, +3.18658079110E+000, +5.87402180324E+002
+2.11052565707E+007, +2.32190548403E+000, +5.94454814748E+002
+2.12302878598E+007, +2.96312264736E+000, +5.97573662084E+002
+2.13553191489E+007, +2.75349433246E+000, +6.03836554084E+002
+2.14803504380E+007, +1.25671072056E+000, +6.08488843497E+002
+2.16053817272E+007, +4.74409110347E-001, +6.13398613020E+002
+2.17304130163E+007, +3.22807876122E+000, +6.17475658880E+002
+2.18554443054E+007, +2.39085290093E+000, +6.22914882177E+002
+2.19804755945E+007, +2.90249292351E+000, +6.26469365514E+002
+2.21055068836E+007, +8.26385826929E-001, +6.34122046896E+002
+2.22305381727E+007, +2.83780626208E+000, +6.36813827629E+002
+2.23555694618E+007, +3.01308806199E+000, +6.42585506461E+002
+2.24806007509E+007, +2.96830206455E+000, +6.47674685481E+002
+2.26056320401E+007, +3.08873577891E+000, +6.53532909520E+002
+2.27306633292E+007, +2.62272732169E+000, +6.58677127229E+002
+2.28556946183E+007, +3.51854628881E+000, +6.63971716864E+002
+2.29807259074E+007, +6.28015120048E+000, +6.69107681121E+002
+2.31057571965E+007, +8.06046924747E+000, +6.75635398297E+002
+2.32307884856E+007, +5.81759445588E+000, +6.80488833891E+002
+2.33558197747E+007, +5.88288063800E+000, +6.84690039595E+002
+2.34808510638E+007, +5.55710106799E+000, +6.91446176727E+002
+2.36058823529E+007, +6.69235832342E+000, +6.94567036537E+002
+2.37309136421E+007, +7.00874456400E+000, +6.99650214254E+002
+2.38559449312E+007, +5.50338531540E+000, +7.04726351091E+002
+2.39809762203E+007, +1.00874389531E+001, +7.07708972324E+002
+2.41060075094E+007, +8.32674840852E+000, +7.17711327142E+002
+2.42310387985E+007, +6.02999277321E+000, +7.16318027627E+002
+2.43560700876E+007, +4.25647509266E+000, +7.28467990916E+002
+2.44811013767E+007, +6.40586545652E+000, +7.32221403432E+002
+2.46061326658E+007, +1.02856635598E+000, +7.39095351767E+002
+2.47311639549E+007, +5.74042290617E+000, +7.42175320350E+002
+2.48561952441E+007, +6.55035556141E+000, +7.48172462338E+002
+2.49812265332E+007, +4.80964961606E+000, +7.54142726610E+002
+2.51062578223E+007, +2.96699903903E+000, +7.58380793842E+002
+2.52312891114E+007, +4.59740562968E+000, +7.68777977737E+002
+2.53563204005E+007, +5.42540882944E+000, +7.71001916070E+002
+2.54813516896E+007, +5.22253898021E+000, +7.80051576279E+002
+2.56063829787E+007, +6.51836062597E+000, +7.88260461141E+002
+2.57314142678E+007, +6.18100306972E+000, +7.91271901730E+002
+2.58564455569E+007, +5.97897857282E+000, +7.96055176835E+002
+2.59814768461E+007, +3.73440306155E+000, +8.05535748754E+002
+2.61065081352E+007, +3.65336471741E+000, +8.11837066687E+002
+2.62315394243E+007, +5.02456744667E+000, +8.17268564095E+002
+2.63565707134E+007, +3.25684280633E+000, +8.25979469115E+002
+2.64816020025E+007, +4.33567059004E+000, +8.32596409416E+002
+2.66066332916E+007, +3.38289488565E+000, +8.36778452388E+002
+2.67316645807E+007, +2.20207165450E+000, +8.45268138598E+002
+2.68566958698E+007, +4.27644938453E+000, +8.47227322584E+002
+2.69817271589E+007, +5.11418459307E+000, +8.56809675270E+002
+2.71067584481E+007, +2.33128525763E+000, +8.65815673563E+002
+2.72317897372E+007, +4.50270186140E+000, +8.74201807693E+002
+2.73568210263E+007, +6.43980698733E+000, +8.76321214489E+002
+2.74818523154E+007, +6.97083054991E+000, +8.86930737468E+002
+2.76068836045E+007, +6.09879050779E+000, +8.91920840020E+002
+2.77319148936E+007, +5.05470701028E+000, +8.98669514444E+002
+2.78569461827E+007, +4.04669736136E+000, +9.07735538608E+002
+2.79819774718E+007, -2.26001649792E+000, +9.13576287144E+002
+2.81070087610E+007, +2.42343766838E+000, +9.17988581472E+002
+2.82320400501E+007, +2.74010866486E+000, +9.29940316249E+002
+2.83570713392E+007, +3.24047073901E+000, +9.33952102935E+002
+2.84821026283E+007, +1.39746746260E-001, +9.41425176938E+002
+2.86071339174E+007, -8.51138925154E+000, +9.52683857026E+002
+2.87321652065E+007, +6.48782004909E+000, +9.58146834613E+002
+2.88571964956E+007, +3.08364317477E+000, +9.66811630359E+002
+2.89822277847E+007, +5.23956200556E+000, +9.75299747882E+002
+2.91072590738E+007, +5.84558306051E-001, +9.89782658542E+002
+2.92322903630E+007, -3.82814713467E+000, +9.93034455900E+002
+2.93573216521E+007, +6.99451554717E-002, +1.00568055981E+003
+2.94823529412E+007, +2.32860105306E+000, +1.00344902113E+003
+2.96073842303E+007, +5.37177547807E+000, +1.01333526327E+003
+2.97324155194E+007, +6.31109370416E+000, +1.02520282250E+003
+2.98574468085E+007, +3.34802930078E+000, +1.03057444721E+003
+2.99824780976E+007, +3.93675240409E+000, +1.04954666418E+003
+3.01075093867E+007, +2.94083743843E-001, +1.04647251843E+003
+3.02325406758E+007, -3.17071105194E+000, +1.06648195883E+003
+3.03575719650E+007, +2.25438389859E+000, +1.07014441812E+003
+3.04826032541E+007, +2.97899526172E+000, +1.08195049044E+003
+3.06076345432E+007, -2.28652639717E+000, +1.09521715181E+003
+3.07326658323E+007, -2.05556308009E-001, +1.09889246151E+003
+3.08576971214E+007, +3.02101360898E+000, +1.10851919878E+003
+3.09827284105E+007, +2.01582078718E+000, +1.11950154627E+003
+3.11077596996E+007, +8.03862929713E-001, +1.12791043101E+003
+3.12327909887E+007, -2.23877982252E+000, +1.13428432221E+003
+3.13578222778E+007, +3.24587644218E+000, +1.14605174756E+003
+3.14828535670E+007, +2.59008821126E+000, +1.15802535533E+003
+3.16078848561E+007, +1.77308995856E+000, +1.16506272221E+003
+3.17329161452E+007, +9.05038299239E-002, +1.18501833764E+003
+3.18579474343E+007, +4.76217884113E+000, +1.18461963369E+003
+3.19829787234E+007, +7.19435748977E-001, +1.19347115325E+003
+3.21080100125E+007, +6.84914598337E+000, +1.20401426454E+003
+3.22330413016E+007, -2.78784416926E-001, +1.22062189070E+003
+3.23580725907E+007, -3.20624574429E+000, +1.22953357691E+003
+3.24831038798E+007, +1.35815483256E+000, +1.24195583663E+003
+3.26081351690E+007, +5.77190272445E+000, +1.25225525323E+003
+3.27331664581E+007, +4.25624212315E+000, +1.26206544319E+003
+3.28581977472E+007, -4.38934302671E+000, +1.27662866738E+003
+3.29832290363E+007, +4.03651426563E+000, +1.29356852635E+003
+3.31082603254E+007, +2.91488314243E+000, +1.30116530685E+003
+3.32332916145E+007, +5.11491955211E+000, +1.31760023825E+003
+3.33583229036E+007, -6.44347047546E+000, +1.33847871664E+003
+3.34833541927E+007, +1.69374605986E+000, +1.34609868129E+003
+3.36083854819E+007, -3.46880410206E+000, +1.36040939175E+003
+3.37334167710E+007, +4.63129768977E+000, +1.36419831506E+003
+3.38584480601E+007, -1.17190351197E+000, +1.37687565433E+003
+3.39834793492E+007, -5.39357605548E+000, +1.40518871273E+003
+3.41085106383E+007, +2.44163189102E+000, +1.41503413172E+003
+3.42335419274E+007, +3.18297845575E+000, +1.42715911335E+003
+3.43585732165E+007, +9.78187913429E+000, +1.43724210795E+003
+3.44836045056E+007, -1.08161019004E+000, +1.45126449035E+003
+3.46086357947E+007, -1.08229008592E+001, +1.46603668129E+003
+3.47336670839E+007, +1.85278219502E+001, +1.48869006001E+003
+3.48586983730E+007, +1.95449822970E+001, +1.48472860015E+003
+3.49837296621E+007, -3.18899097673E+000, +1.49710427027E+003
+3.51087609512E+007, -1.13375976867E+000, +1.52769140297E+003
+3.52337922403E+007, +7.40606179884E+000, +1.53849310810E+003
+3.53588235294E+007, -3.97963410952E+000, +1.55804075091E+003
+3.54838548185E+007, +1.51084178580E+001, +1.56071739020E+003
+3.56088861076E+007, -3.63282937175E+000, +1.58536541269E+003
+3.57339173967E+007, +2.40700997630E+000, +1.59272395368E+003
+3.58589486859E+007, +7.12428089737E+000, +1.62137317557E+003
+3.59839799750E+007, -6.27783575812E+000, +1.63528394943E+003
+3.61090112641E+007, +1.09766350919E+001, +1.65002762909E+003
+3.62340425532E+007, -8.73416968448E-002, +1.66701044743E+003
+3.63590738423E+007, +1.25365432950E+001, +1.69302679200E+003
+3.64841051314E+007, -9.52049273401E+000, +1.71508919101E+003
+3.66091364205E+007, +8.53724720847E+000, +1.71443467358E+003
+3.67341677096E+007, +3.33302733433E+000, +1.74488059054E+003
+3.68591989987E+007, +4.16148831745E+000, +1.76235448167E+003
+3.69842302879E+007, +6.32524140124E+000, +1.79650305208E+003
+3.71092615770E+007, -1.47143687855E+001, +1.81643954020E+003
+3.72342928661E+007, +8.08444327999E+000, +1.81556050604E+003
+3.73593241552E+007, -1.51415038449E+001, +1.84854823653E+003
+3.74843554443E+007, +3.28159428667E+000, +1.86994572542E+003
+3.76093867334E+007, +9.59138183044E+000, +1.89318603231E+003
+3.77344180225E+007, +7.14658707353E+000, +1.91330634021E+003
+3.78594493116E+007, -7.37678506975E+000, +1.94945951133E+003
+3.79844806008E+007, -4.03440048908E+000, +1.94972428141E+003
+3.81095118899E+007, -6.56427653575E+000, +2.00093237764E+003
+3.82345431790E+007, +8.15431378309E+000, +1.99606664340E+003
+3.83595744681E+007, +2.72440965110E+000, +2.03642317280E+003
+3.84846057572E+007, -6.31972504596E+000, +2.07504099720E+003
+3.86096370463E+007, +1.80319253618E+001, +2.09944140144E+003
+3.87346683354E+007, +2.71429956311E+001, +2.10355229594E+003
+3.88596996245E+007, +1.25097054869E+001, +2.14026235061E+003
+3.89847309136E+007, +2.70020862371E+001, +2.17626773582E+003
+3.91097622028E+007, +2.07579904126E+001, +2.21366270200E+003
+3.92347934919E+007, -8.40795492003E-001, +2.23039339952E+003
+3.93598247810E+007, +2.79093078580E+001, +2.28704681253E+003
+3.94848560701E+007, +2.33790661069E+001, +2.29826250300E+003
+3.96098873592E+007, +3.00140926180E+001, +2.33502692519E+003
+3.97349186483E+007, +1.89165381285E+001, +2.37126944612E+003
+3.98599499374E+007, +4.68469120581E+001, +2.39263301551E+003
+3.99849812265E+007, -5.69414595159E+000, +2.43600316985E+003
+4.01100125156E+007, +1.22633734567E+001, +2.49731911080E+003
