"# Channel 1"
"# Trace 1"
Frequency, Formatted Data, Formatted Data
+1.00000000000E+005, +8.45345339496E+002, -3.26562832310E+003
+2.87609511890E+005, +1.64334026575E+002, -1.23827751768E+003
+4.75219023780E+005, +9.14945250989E+001, -7.43338848662E+002
+6.62828535670E+005, +7.16897398173E+001, -5.37555515774E+002
+8.50438047559E+005, +6.32511235537E+001, -4.18093168860E+002
+1.03804755945E+006, +6.06597863545E+001, -3.41439354159E+002
+1.22565707134E+006, +5.73113332311E+001, -2.90982508675E+002
+1.41326658323E+006, +5.61041866715E+001, -2.52453819714E+002
+1.60087609512E+006, +5.52821403631E+001, -2.23186569336E+002
+1.78848560701E+006, +5.43935973582E+001, -2.00100945795E+002
+1.97609511890E+006, +5.35918933584E+001, -1.80794374177E+002
+2.16370463079E+006, +5.27823736771E+001, -1.65234814022E+002
+2.35131414268E+006, +5.23681958068E+001, -1.52617320312E+002
+2.53892365457E+006, +5.19892504228E+001, -1.41206413553E+002
+2.72653316646E+006, +5.18522429990E+001, -1.31597040837E+002
+2.91414267835E+006, +5.16515214597E+001, -1.23235242737E+002
+3.10175219024E+006, +5.13573830659E+001, -1.15917403368E+002
+3.28936170213E+006, +5.10721507417E+001, -1.09296446961E+002
+3.47697121402E+006, +5.08815841223E+001, -1.03296633597E+002
+3.66458072591E+006, +5.09429728474E+001, -9.78218962462E+001
+3.85219023780E+006, +5.06403224124E+001, -9.36649536856E+001
+4.03979974969E+006, +5.07686535798E+001, -8.92718827926E+001
+4.22740926158E+006, +5.07554273393E+001, -8.52898801973E+001
+4.41501877347E+006, +5.06444301172E+001, -8.16622130026E+001
+4.60262828536E+006, +5.06548903440E+001, -7.82190345322E+001
+4.79023779725E+006, +5.05786271055E+001, -7.53112266687E+001
+4.97784730914E+006, +5.04237754625E+001, -7.24449931512E+001
+5.16545682103E+006, +5.02033717019E+001, -6.99104948518E+001
+5.35306633292E+006, +5.04167031420E+001, -6.74732857269E+001
+5.54067584481E+006, +5.02131575073E+001, -6.52374735296E+001
+5.72828535670E+006, +5.02190571022E+001, -6.30153221277E+001
+5.91589486859E+006, +5.01890797567E+001, -6.11483218512E+001
+6.10350438048E+006, +5.01472920986E+001, -5.93661645131E+001
+6.29111389237E+006, +5.02104079028E+001, -5.75427184260E+001
+6.47872340426E+006, +5.00556691576E+001, -5.58611207822E+001
+6.66633291615E+006, +5.00387313263E+001, -5.43167055411E+001
+6.85394242804E+006, +5.00789990172E+001, -5.27841837330E+001
+7.04155193992E+006, +4.99335650632E+001, -5.14834185396E+001
+7.22916145181E+006, +4.99502836409E+001, -5.01006413989E+001
+7.41677096370E+006, +4.99706247617E+001, -4.88785332157E+001
+7.60438047559E+006, +4.99729115504E+001, -4.76374731631E+001
+7.79198998748E+006, +4.99126285458E+001, -4.65217985676E+001
+7.97959949937E+006, +4.98873457073E+001, -4.54797495820E+001
+8.16720901126E+006, +4.98804669121E+001, -4.43826122858E+001
+8.35481852315E+006, +4.98963148095E+001, -4.34982808027E+001
+8.54242803504E+006, +4.98546297020E+001, -4.23945518207E+001
+8.73003754693E+006, +4.98187466011E+001, -4.17084305542E+001
+8.91764705882E+006, +4.97782816618E+001, -4.08349830969E+001
+9.10525657071E+006, +4.98095216210E+001, -3.99901783514E+001
+9.29286608260E+006, +4.98226118435E+001, -3.91914298214E+001
+9.48047559449E+006, +4.98020167652E+001, -3.84141721946E+001
+9.66808510638E+006, +4.97885822440E+001, -3.76871365822E+001
+9.85569461827E+006, +4.97750764142E+001, -3.69890837612E+001
+1.00433041302E+007, +4.97685744790E+001, -3.62832519705E+001
+1.02309136421E+007, +4.97500165167E+001, -3.56638469330E+001
+1.04185231539E+007, +4.97509612527E+001, -3.50184917948E+001
+1.06061326658E+007, +4.97214346683E+001, -3.44304924885E+001
+1.07937421777E+007, +4.97218282441E+001, -3.38576387005E+001
+1.09813516896E+007, +4.97086273117E+001, -3.32680572685E+001
+1.11689612015E+007, +4.97188069099E+001, -3.27593313505E+001
+1.13565707134E+007, +4.97106022814E+001, -3.22160016388E+001
+1.15441802253E+007, +4.97106821523E+001, -3.17235954680E+001
+1.17317897372E+007, +4.96845214566E+001, -3.12195304402E+001
+1.19193992491E+007, +4.96836820175E+001, -3.07356519650E+001
+1.21070087610E+007, +4.96578173516E+001, -3.02711294293E+001
+1.22946182728E+007, +4.96699172187E+001, -2.98333093955E+001
+1.24822277847E+007, +4.96439857601E+001, -2.93707509263E+001
+1.26698372966E+007, +4.96694088686E+001, -2.89482832463E+001
+1.28574468085E+007, +4.96579266186E+001, -2.85750354250E+001
+1.30450563204E+007, +4.96452565157E+001, -2.81761275676E+001
+1.32326658323E+007, +4.96324852807E+001, -2.78170187090E+001
+1.34202753442E+007, +4.96296388760E+001, -2.73970040089E+001
+1.36078848561E+007, +4.96332940256E+001, -2.70570014679E+001
+1.37954943680E+007, +4.96125763533E+001, -2.67032838146E+001
+1.39831038798E+007, +4.96258789828E+001, -2.63429485247E+001
+1.41707133917E+007, +4.96340266684E+001, -2.60158600821E+001
+1.43583229036E+007, +4.96111937810E+001, -2.57106242133E+001
+1.45459324155E+007, +4.96117395926E+001, -2.53782063832E+001
+1.47335419274E+007, +4.95980826225E+001, -2.50646390444E+001
+1.49211514393E+007, +4.95992750290E+001, -2.47643251997E+001
+1.51087609512E+007, +4.96036370811E+001, -2.44813461866E+001
+1.52963704631E+007, +4.95948562506E+001, -2.41809397508E+001
+1.54839799750E+007, +4.95684217855E+001, -2.39074193592E+001
+1.56715894869E+007, +4.95854613196E+001, -2.36419299757E+001
+1.58591989987E+007, +4.95875303919E+001, -2.33845980058E+001
+1.60468085106E+007, +4.95804440264E+001, -2.31394248017E+001
+1.62344180225E+007, +4.95757668997E+001, -2.28612361728E+001
+1.64220275344E+007, +4.95561412142E+001, -2.26347805742E+001
+1.66096370463E+007, +4.95720445926E+001, -2.23724576109E+001
+1.67972465582E+007, +4.95468648362E+001, -2.21441258674E+001
+1.69848560701E+007, +4.95612690276E+001, -2.19173462989E+001
+1.71724655820E+007, +4.95618996040E+001, -2.17023792546E+001
+1.73600750939E+007, +4.95462142125E+001, -2.14995043264E+001
+1.75476846058E+007, +4.95401694419E+001, -2.12627063024E+001
+1.77352941176E+007, +4.95501471088E+001, -2.10361213832E+001
+1.79229036295E+007, +4.95182432205E+001, -2.08486016688E+001
+1.81105131414E+007, +4.95482726662E+001, -2.06409983432E+001
+1.82981226533E+007, +4.95194374505E+001, -2.04625744893E+001
+1.84857321652E+007, +4.95102901303E+001, -2.02538517304E+001
+1.86733416771E+007, +4.95375399459E+001, -2.00896676599E+001
+1.88609511890E+007, +4.95059551377E+001, -1.98956442567E+001
+1.90485607009E+007, +4.95150667209E+001, -1.97025506828E+001
+1.92361702128E+007, +4.95100962688E+001, -1.95435982290E+001
+1.94237797247E+007, +4.94866118876E+001, -1.93681257793E+001
+1.96113892365E+007, +4.94985135606E+001, -1.91911942749E+001
+1.97989987484E+007, +4.95026878460E+001, -1.90251578991E+001
+1.99866082603E+007, +4.95080958089E+001, -1.88700582780E+001
+2.01742177722E+007, +4.95084937831E+001, -1.87135318008E+001
+2.03618272841E+007, +4.94795584981E+001, -1.85365391708E+001
+2.05494367960E+007, +4.94907591931E+001, -1.84041086798E+001
+2.07370463079E+007, +4.94769680794E+001, -1.82546143832E+001
+2.09246558198E+007, +4.94610114494E+001, -1.80918685183E+001
+2.11122653317E+007, +4.94491481506E+001, -1.79559835122E+001
+2.12998748436E+007, +4.94588452283E+001, -1.78234782239E+001
+2.14874843554E+007, +4.94446709988E+001, -1.76808093659E+001
+2.16750938673E+007, +4.94359704040E+001, -1.75260213796E+001
+2.18627033792E+007, +4.94260153475E+001, -1.73966978309E+001
+2.20503128911E+007, +4.94414236107E+001, -1.72695414000E+001
+2.22379224030E+007, +4.94402019506E+001, -1.71523350687E+001
+2.24255319149E+007, +4.94195424890E+001, -1.70237155585E+001
+2.26131414268E+007, +4.94123926748E+001, -1.69046448842E+001
+2.28007509387E+007, +4.94201884580E+001, -1.67743571342E+001
+2.29883604506E+007, +4.93988121818E+001, -1.66378373555E+001
+2.31759699625E+007, +4.93991401022E+001, -1.65281123933E+001
+2.33635794743E+007, +4.93706111718E+001, -1.64054255766E+001
+2.35511889862E+007, +4.93765413606E+001, -1.62764914879E+001
+2.37387984981E+007, +4.93677224601E+001, -1.61614432907E+001
+2.39264080100E+007, +4.93399518905E+001, -1.60431993418E+001
+2.41140175219E+007, +4.93458830235E+001, -1.59332856319E+001
+2.43016270338E+007, +4.93333114872E+001, -1.58267012920E+001
+2.44892365457E+007, +4.93223855402E+001, -1.56907268492E+001
+2.46768460576E+007, +4.93166896719E+001, -1.55729237396E+001
+2.48644555695E+007, +4.93201451071E+001, -1.54658772644E+001
+2.50520650814E+007, +4.93170533882E+001, -1.53311129015E+001
+2.52396745932E+007, +4.93276061121E+001, -1.52351406417E+001
+2.54272841051E+007, +4.93262975508E+001, -1.51223252849E+001
+2.56148936170E+007, +4.93378478428E+001, -1.50189127021E+001
+2.58025031289E+007, +4.93453122852E+001, -1.49188575131E+001
+2.59901126408E+007, +4.93479104588E+001, -1.48333797327E+001
+2.61777221527E+007, +4.93665688092E+001, -1.47325304756E+001
+2.63653316646E+007, +4.93555814178E+001, -1.46557968782E+001
+2.65529411765E+007, +4.93761600691E+001, -1.45563477530E+001
+2.67405506884E+007, +4.93676488659E+001, -1.44750444509E+001
+2.69281602003E+007, +4.93695520924E+001, -1.43889649640E+001
+2.71157697121E+007, +4.93756742112E+001, -1.42975159070E+001
+2.73033792240E+007, +4.93811066628E+001, -1.42215527434E+001
+2.74909887359E+007, +4.93951550548E+001, -1.41286908301E+001
+2.76785982478E+007, +4.93937714092E+001, -1.40683057793E+001
+2.78662077597E+007, +4.93997587703E+001, -1.40004917619E+001
+2.80538172716E+007, +4.93903683276E+001, -1.39178525882E+001
+2.82414267835E+007, +4.93824104196E+001, -1.38398518730E+001
+2.84290362954E+007, +4.93878458659E+001, -1.37668250347E+001
+2.86166458073E+007, +4.93920210410E+001, -1.36871457790E+001
+2.88042553191E+007, +4.93847078377E+001, -1.36283073873E+001
+2.89918648310E+007, +4.93852648207E+001, -1.35570471350E+001
+2.91794743429E+007, +4.93887060931E+001, -1.34844011340E+001
+2.93670838548E+007, +4.93840931143E+001, -1.34315841158E+001
+2.95546933667E+007, +4.93801646049E+001, -1.33683878669E+001
+2.97423028786E+007, +4.93811057762E+001, -1.32861478664E+001
+2.99299123905E+007, +4.93857063742E+001, -1.32210889695E+001
+3.01175219024E+007, +4.93749472152E+001, -1.31561153368E+001
+3.03051314143E+007, +4.93718237838E+001, -1.31081469879E+001
+3.04927409262E+007, +4.93753025365E+001, -1.30477100825E+001
+3.06803504380E+007, +4.93811818950E+001, -1.29729524414E+001
+3.08679599499E+007, +4.93735854177E+001, -1.29248593363E+001
+3.10555694618E+007, +4.93744918678E+001, -1.28681386051E+001
+3.12431789737E+007, +4.93692830259E+001, -1.28102148171E+001
+3.14307884856E+007, +4.93597245660E+001, -1.27530138482E+001
+3.16183979975E+007, +4.93646014854E+001, -1.26942978590E+001
+3.18060075094E+007, +4.93556419215E+001, -1.26420045332E+001
+3.19936170213E+007, +4.93614758931E+001, -1.25941531775E+001
+3.21812265332E+007, +4.93565364460E+001, -1.25336633903E+001
+3.23688360451E+007, +4.93566289175E+001, -1.24839032444E+001
+3.25564455569E+007, +4.93437183210E+001, -1.24216506725E+001
+3.27440550688E+007, +4.93410021807E+001, -1.23726057747E+001
+3.29316645807E+007, +4.93299113889E+001, -1.23149069332E+001
+3.31192740926E+007, +4.93370953079E+001, -1.22740717605E+001
+3.33068836045E+007, +4.93475123485E+001, -1.22233719579E+001
+3.34944931164E+007, +4.93238973112E+001, -1.21765670334E+001
+3.36821026283E+007, +4.93287783189E+001, -1.21236897113E+001
+3.38697121402E+007, +4.93153657324E+001, -1.20801070578E+001
+3.40573216521E+007, +4.93130214395E+001, -1.20323131489E+001
+3.42449311640E+007, +4.93055734441E+001, -1.19880984420E+001
+3.44325406758E+007, +4.93076444520E+001, -1.19411455672E+001
+3.46201501877E+007, +4.92963064047E+001, -1.18933148198E+001
+3.48077596996E+007, +4.92983304684E+001, -1.18416262639E+001
+3.49953692115E+007, +4.92931009685E+001, -1.17895874982E+001
+3.51829787234E+007, +4.92860154750E+001, -1.17510436647E+001
+3.53705882353E+007, +4.92819484792E+001, -1.16988152015E+001
+3.55581977472E+007, +4.92810334576E+001, -1.16734667426E+001
+3.57458072591E+007, +4.92816750867E+001, -1.16206078716E+001
+3.59334167710E+007, +4.92795935381E+001, -1.15770280509E+001
+3.61210262829E+007, +4.92776756217E+001, -1.15368716876E+001
+3.63086357947E+007, +4.92680200682E+001, -1.14921564254E+001
+3.64962453066E+007, +4.92691829507E+001, -1.14692329256E+001
+3.66838548185E+007, +4.92580639848E+001, -1.14314726736E+001
+3.68714643304E+007, +4.92519861851E+001, -1.14033458621E+001
+3.70590738423E+007, +4.92659978263E+001, -1.13440180214E+001
+3.72466833542E+007, +4.92549359988E+001, -1.13223682648E+001
+3.74342928661E+007, +4.92429111478E+001, -1.12758138189E+001
+3.76219023780E+007, +4.92437343098E+001, -1.12456745005E+001
+3.78095118899E+007, +4.92306441601E+001, -1.12093781150E+001
+3.79971214018E+007, +4.92347511851E+001, -1.11843522090E+001
+3.81847309136E+007, +4.92356266104E+001, -1.11479817593E+001
+3.83723404255E+007, +4.92349720795E+001, -1.11062660863E+001
+3.85599499374E+007, +4.92258117336E+001, -1.10742914135E+001
+3.87475594493E+007, +4.92190246781E+001, -1.10506370687E+001
+3.89351689612E+007, +4.92177523796E+001, -1.10130827303E+001
+3.91227784731E+007, +4.92090387340E+001, -1.09930462722E+001
+3.93103879850E+007, +4.92045638958E+001, -1.09615196400E+001
+3.94979974969E+007, +4.91976700821E+001, -1.09388451070E+001
+3.96856070088E+007, +4.91942530815E+001, -1.09027051339E+001
+3.98732165207E+007, +4.91810264250E+001, -1.08792774262E+001
+4.00608260325E+007, +4.91730074438E+001, -1.08575193884E+001
+4.02484355444E+007, +4.91602319759E+001, -1.08135295397E+001
+4.04360450563E+007, +4.91422726305E+001, -1.08017492221E+001
+4.06236545682E+007, +4.91476125514E+001, -1.07784141713E+001
+4.08112640801E+007, +4.91368249981E+001, -1.07412809646E+001
+4.09988735920E+007, +4.91224572055E+001, -1.07132027127E+001
+4.11864831039E+007, +4.91116938838E+001, -1.06896656016E+001
+4.13740926158E+007, +4.91123091018E+001, -1.06571145629E+001
+4.15617021277E+007, +4.90934631369E+001, -1.06503381531E+001
+4.17493116395E+007, +4.90861438154E+001, -1.06092912661E+001
+4.19369211514E+007, +4.90918436868E+001, -1.05766876025E+001
+4.21245306633E+007, +4.90692850463E+001, -1.05585742076E+001
+4.23121401752E+007, +4.90551277083E+001, -1.05277058056E+001
+4.24997496871E+007, +4.90524426553E+001, -1.04994109925E+001
+4.26873591990E+007, +4.90448580696E+001, -1.04645543503E+001
+4.28749687109E+007, +4.90339315825E+001, -1.04395923036E+001
+4.30625782228E+007, +4.90378493742E+001, -1.04140175740E+001
+4.32501877347E+007, +4.90317647319E+001, -1.03879882684E+001
+4.34377972466E+007, +4.90208378483E+001, -1.03516786162E+001
+4.36254067584E+007, +4.90185134320E+001, -1.03382105339E+001
+4.38130162703E+007, +4.90081454170E+001, -1.03142772032E+001
+4.40006257822E+007, +4.90101230338E+001, -1.02857729568E+001
+4.41882352941E+007, +4.90091862965E+001, -1.02614267140E+001
+4.43758448060E+007, +4.90078719629E+001, -1.02436913032E+001
+4.45634543179E+007, +4.90068967462E+001, -1.02284600036E+001
+4.47510638298E+007, +4.89896132353E+001, -1.02071669787E+001
+4.49386733417E+007, +4.89812963102E+001, -1.01793009470E+001
+4.51262828536E+007, +4.89840974771E+001, -1.01734071255E+001
+4.53138923655E+007, +4.89733527649E+001, -1.01489049902E+001
+4.55015018773E+007, +4.89632036561E+001, -1.01329632005E+001
+4.56891113892E+007, +4.89498758847E+001, -1.01145450338E+001
+4.58767209011E+007, +4.89496492630E+001, -1.01025439174E+001
+4.60643304130E+007, +4.89359327897E+001, -1.00934570505E+001
+4.62519399249E+007, +4.89160535212E+001, -1.00747041183E+001
+4.64395494368E+007, +4.89317589686E+001, -1.00524781179E+001
+4.66271589487E+007, +4.88971388441E+001, -1.00289293243E+001
+4.68147684606E+007, +4.88968733039E+001, -9.99814474215E+000
+4.70023779725E+007, +4.88930968400E+001, -9.98230851822E+000
+4.71899874844E+007, +4.88785862434E+001, -9.97235670866E+000
+4.73775969962E+007, +4.88737302446E+001, -9.94830384650E+000
+4.75652065081E+007, +4.88648941763E+001, -9.92944482368E+000
+4.77528160200E+007, +4.88595507399E+001, -9.92005787490E+000
+4.79404255319E+007, +4.88543601091E+001, -9.90010910961E+000
+4.81280350438E+007, +4.88443751677E+001, -9.88448811769E+000
+4.83156445557E+007, +4.88435015597E+001, -9.85619287288E+000
+4.85032540676E+007, +4.88408797194E+001, -9.85160173641E+000
+4.86908635795E+007, +4.88308606035E+001, -9.84716285068E+000
+4.88784730914E+007, +4.88327427726E+001, -9.82355033624E+000
+4.90660826033E+007, +4.88239413098E+001, -9.81936286138E+000
+4.92536921151E+007, +4.88126927019E+001, -9.80815805130E+000
+4.94413016270E+007, +4.88146801916E+001, -9.79738431631E+000
+4.96289111389E+007, +4.87991322196E+001, -9.78818735466E+000
+4.98165206508E+007, +4.87930476326E+001, -9.78709624664E+000
+5.00041301627E+007, +4.87785142079E+001, -9.77790955906E+000
+5.01917396746E+007, +4.87703787667E+001, -9.75777838042E+000
+5.03793491865E+007, +4.87478488737E+001, -9.75716931941E+000
+5.05669586984E+007, +4.87353144085E+001, -9.75062162421E+000
+5.07545682103E+007, +4.87337628201E+001, -9.72594339133E+000
+5.09421777222E+007, +4.87245003191E+001, -9.71236829500E+000
+5.11297872340E+007, +4.87121086546E+001, -9.70563121549E+000
+5.13173967459E+007, +4.86981052299E+001, -9.68432110533E+000
+5.15050062578E+007, +4.86900347654E+001, -9.66746044825E+000
+5.16926157697E+007, +4.86877003937E+001, -9.66029894002E+000
+5.18802252816E+007, +4.86725527657E+001, -9.63898060707E+000
+5.20678347935E+007, +4.86738537209E+001, -9.63488019400E+000
+5.22554443054E+007, +4.86668923475E+001, -9.62892227328E+000
+5.24430538173E+007, +4.86568684450E+001, -9.62130108110E+000
+5.26306633292E+007, +4.86594559071E+001, -9.60042812437E+000
+5.28182728411E+007, +4.86451016253E+001, -9.59567799802E+000
+5.30058823529E+007, +4.86505314059E+001, -9.59044368248E+000
+5.31934918648E+007, +4.86397605171E+001, -9.56976246453E+000
+5.33811013767E+007, +4.86279164353E+001, -9.57145898389E+000
+5.35687108886E+007, +4.86278001038E+001, -9.55991962450E+000
+5.37563204005E+007, +4.86184571363E+001, -9.55956997385E+000
+5.39439299124E+007, +4.86168465751E+001, -9.56637639611E+000
+5.41315394243E+007, +4.86210750334E+001, -9.56388855231E+000
+5.43191489362E+007, +4.86096919483E+001, -9.56254890360E+000
+5.45067584481E+007, +4.85987701845E+001, -9.55277937846E+000
+5.46943679599E+007, +4.85920080225E+001, -9.56459504500E+000
+5.48819774718E+007, +4.85838398723E+001, -9.56563773786E+000
+5.50695869837E+007, +4.85668715733E+001, -9.55810576858E+000
+5.52571964956E+007, +4.85521458681E+001, -9.55302938299E+000
+5.54448060075E+007, +4.85441106335E+001, -9.54988900768E+000
+5.56324155194E+007, +4.85299015764E+001, -9.54567931084E+000
+5.58200250313E+007, +4.85223669640E+001, -9.53932020025E+000
+5.60076345432E+007, +4.85246932778E+001, -9.52814823050E+000
+5.61952440551E+007, +4.85109766264E+001, -9.52786535008E+000
+5.63828535670E+007, +4.85198405928E+001, -9.52300680262E+000
+5.65704630788E+007, +4.85122457227E+001, -9.52118830494E+000
+5.67580725907E+007, +4.85279298819E+001, -9.53202210239E+000
+5.69456821026E+007, +4.85220148100E+001, -9.53119009475E+000
+5.71332916145E+007, +4.85124123570E+001, -9.54991687596E+000
+5.73209011264E+007, +4.85159533304E+001, -9.55521821041E+000
+5.75085106383E+007, +4.85105352551E+001, -9.56057622727E+000
+5.76961201502E+007, +4.84996386030E+001, -9.57299149018E+000
+5.78837296621E+007, +4.85034995813E+001, -9.58581482035E+000
+5.80713391740E+007, +4.84867932631E+001, -9.59218632008E+000
+5.82589486859E+007, +4.84820270180E+001, -9.61527592232E+000
+5.84465581977E+007, +4.84720007948E+001, -9.63684068337E+000
+5.86341677096E+007, +4.84627828555E+001, -9.65904951668E+000
+5.88217772215E+007, +4.84492625103E+001, -9.67785742524E+000
+5.90093867334E+007, +4.84482852224E+001, -9.69078844135E+000
+5.91969962453E+007, +4.84214078105E+001, -9.70355140561E+000
+5.93846057572E+007, +4.84046151284E+001, -9.71366969734E+000
+5.95722152691E+007, +4.83951471341E+001, -9.73525905892E+000
+5.97598247810E+007, +4.83807655326E+001, -9.76280703233E+000
+5.99474342929E+007, +4.83658420423E+001, -9.77812398522E+000
+6.01350438048E+007, +4.83536541615E+001, -9.79287621841E+000
