"# Channel 1"
"# Trace 1"
Frequency, Formatted Data, Formatted Data
+1.00000000000E+005, +1.13840143467E+001, +2.47092168663E+000
+2.66777963272E+005, +1.13711231813E+001, +6.59867612484E+000
+4.33555926544E+005, +1.13745717725E+001, +1.07243803150E+001
+6.00333889816E+005, +1.13880217229E+001, +1.48038689601E+001
+7.67111853088E+005, +1.14430715254E+001, +1.89680163289E+001
+9.33889816361E+005, +1.14301790510E+001, +2.30420904309E+001
+1.10066777963E+006, +1.13847151752E+001, +2.72207822733E+001
+1.26744574290E+006, +1.14219932863E+001, +3.13016822972E+001
+1.43422370618E+006, +1.13923446675E+001, +3.54852983544E+001
+1.60100166945E+006, +1.14540350446E+001, +3.94893065282E+001
+1.76777963272E+006, +1.14163518840E+001, +4.35887628245E+001
+1.93455759599E+006, +1.14298904305E+001, +4.76622339477E+001
+2.10133555927E+006, +1.14620950553E+001, +5.17472795387E+001
+2.26811352254E+006, +1.15390383277E+001, +5.59318278873E+001
+2.43489148581E+006, +1.15081148718E+001, +6.01489585955E+001
+2.60166944908E+006, +1.14900930656E+001, +6.41524010760E+001
+2.76844741235E+006, +1.14607226166E+001, +6.83781617105E+001
+2.93522537563E+006, +1.14293221097E+001, +7.25546878222E+001
+3.10200333890E+006, +1.16187272091E+001, +7.65260722046E+001
+3.26878130217E+006, +1.15150637183E+001, +8.08769040399E+001
+3.43555926544E+006, +1.16214193967E+001, +8.49202280936E+001
+3.60233722871E+006, +1.17037706098E+001, +8.91376012505E+001
+3.76911519199E+006, +1.17046109558E+001, +9.35038572133E+001
+3.93589315526E+006, +1.18215340078E+001, +9.72798847059E+001
+4.10267111853E+006, +1.12474407992E+001, +1.01163606588E+002
+4.26944908180E+006, +1.16320824118E+001, +1.06265676499E+002
+4.43622704508E+006, +1.17790971696E+001, +1.10116673956E+002
+4.60300500835E+006, +1.18536113038E+001, +1.14456840757E+002
+4.76978297162E+006, +1.18142587711E+001, +1.18425097711E+002
+4.93656093489E+006, +1.19952508629E+001, +1.22750906898E+002
+5.10333889816E+006, +1.19855699736E+001, +1.26899396394E+002
+5.27011686144E+006, +1.24181695106E+001, +1.31289116411E+002
+5.43689482471E+006, +1.22896049490E+001, +1.35525019400E+002
+5.60367278798E+006, +1.25360241941E+001, +1.39970418710E+002
+5.77045075125E+006, +1.20226907153E+001, +1.43958478743E+002
+5.93722871452E+006, +1.24882529394E+001, +1.48293668941E+002
+6.10400667780E+006, +1.26375000205E+001, +1.52597499808E+002
+6.27078464107E+006, +1.28365561695E+001, +1.56777424631E+002
+6.43756260434E+006, +1.29836363205E+001, +1.61065596140E+002
+6.60434056761E+006, +1.30860561701E+001, +1.65211400227E+002
+6.77111853088E+006, +1.34688589205E+001, +1.69482284453E+002
+6.93789649416E+006, +1.33229741071E+001, +1.73715876276E+002
+7.10467445743E+006, +1.32368201156E+001, +1.78004447073E+002
+7.27145242070E+006, +1.34659005379E+001, +1.82303159402E+002
+7.43823038397E+006, +1.35804012359E+001, +1.86400157211E+002
+7.60500834725E+006, +1.34759628054E+001, +1.90810880736E+002
+7.77178631052E+006, +1.36875941893E+001, +1.95292443846E+002
+7.93856427379E+006, +1.36804925970E+001, +1.99442573921E+002
+8.10534223706E+006, +1.35580834542E+001, +2.03922407274E+002
+8.27212020033E+006, +1.39513109564E+001, +2.08417307485E+002
+8.43889816361E+006, +1.36372606180E+001, +2.12856933359E+002
+8.60567612688E+006, +1.36027474456E+001, +2.17360611443E+002
+8.77245409015E+006, +1.35524397018E+001, +2.21412729548E+002
+8.93923205342E+006, +1.34823167155E+001, +2.26257661455E+002
+9.10601001669E+006, +1.35135294007E+001, +2.30955979706E+002
+9.27278797997E+006, +1.36959490326E+001, +2.35261354777E+002
+9.43956594324E+006, +1.36332237310E+001, +2.39578134533E+002
+9.60634390651E+006, +1.35424367707E+001, +2.44268639833E+002
+9.77312186978E+006, +1.35033936789E+001, +2.48797040659E+002
+9.93989983306E+006, +1.41671677308E+001, +2.53759872207E+002
+1.01066777963E+007, +1.35922485806E+001, +2.58123968166E+002
+1.02734557596E+007, +1.37111304173E+001, +2.62828016992E+002
+1.04402337229E+007, +1.36328628418E+001, +2.67482466508E+002
+1.06070116861E+007, +1.38174330630E+001, +2.71977542292E+002
+1.07737896494E+007, +1.37528846333E+001, +2.76902881429E+002
+1.09405676127E+007, +1.42180461720E+001, +2.81928516616E+002
+1.11073455760E+007, +1.42002101964E+001, +2.86581965007E+002
+1.12741235392E+007, +1.41515410416E+001, +2.91311971058E+002
+1.14409015025E+007, +1.41882996400E+001, +2.96089689676E+002
+1.16076794658E+007, +1.45993200841E+001, +3.00824158645E+002
+1.17744574290E+007, +1.48598047762E+001, +3.06176880438E+002
+1.19412353923E+007, +1.45118323164E+001, +3.10764898919E+002
+1.21080133556E+007, +1.42587404682E+001, +3.15978708079E+002
+1.22747913189E+007, +1.50219576752E+001, +3.21043860272E+002
+1.24415692821E+007, +1.44097264814E+001, +3.25700398152E+002
+1.26083472454E+007, +1.46189988797E+001, +3.30705417437E+002
+1.27751252087E+007, +1.51617308450E+001, +3.35413570075E+002
+1.29419031720E+007, +1.49208526474E+001, +3.40231011669E+002
+1.31086811352E+007, +1.46160495900E+001, +3.45565470525E+002
+1.32754590985E+007, +1.52879717337E+001, +3.50308172428E+002
+1.34422370618E+007, +1.50632069319E+001, +3.55401773137E+002
+1.36090150250E+007, +1.60658974319E+001, +3.60571642266E+002
+1.37757929883E+007, +1.54488112066E+001, +3.65729181042E+002
+1.39425709516E+007, +1.55355794566E+001, +3.71077748674E+002
+1.41093489149E+007, +1.60678602281E+001, +3.75894948858E+002
+1.42761268781E+007, +1.63625060461E+001, +3.81059168262E+002
+1.44429048414E+007, +1.61982740115E+001, +3.86423022875E+002
+1.46096828047E+007, +1.59102423893E+001, +3.92719181329E+002
+1.47764607679E+007, +1.64805659352E+001, +3.97035159185E+002
+1.49432387312E+007, +1.64630163709E+001, +4.02503630285E+002
+1.51100166945E+007, +1.61632973958E+001, +4.07948655646E+002
+1.52767946578E+007, +1.69356254083E+001, +4.13042624951E+002
+1.54435726210E+007, +1.65905819089E+001, +4.18233673171E+002
+1.56103505843E+007, +1.77470033394E+001, +4.24628656437E+002
+1.57771285476E+007, +1.66067530928E+001, +4.29730470369E+002
+1.59439065109E+007, +1.75155798608E+001, +4.35433701111E+002
+1.61106844741E+007, +1.70316159889E+001, +4.41468416714E+002
+1.62774624374E+007, +1.76350944862E+001, +4.46450856562E+002
+1.64442404007E+007, +1.70661963471E+001, +4.51985284439E+002
+1.66110183639E+007, +1.75964665819E+001, +4.58480217138E+002
+1.67777963272E+007, +1.79299686198E+001, +4.64258009878E+002
+1.69445742905E+007, +1.83017832590E+001, +4.69747278337E+002
+1.71113522538E+007, +1.62185922982E+001, +4.75313412549E+002
+1.72781302170E+007, +1.84226864676E+001, +4.81894783389E+002
+1.74449081803E+007, +1.75476619425E+001, +4.87266266545E+002
+1.76116861436E+007, +1.89517291599E+001, +4.93868898180E+002
+1.77784641068E+007, +1.81628930897E+001, +5.00089505229E+002
+1.79452420701E+007, +1.86196840602E+001, +5.06699049945E+002
+1.81120200334E+007, +2.03832676372E+001, +5.11268809417E+002
+1.82787979967E+007, +2.06284664226E+001, +5.18848351424E+002
+1.84455759599E+007, +2.11744547267E+001, +5.23134591905E+002
+1.86123539232E+007, +2.04636369033E+001, +5.29910036127E+002
+1.87791318865E+007, +2.07104887705E+001, +5.36178952243E+002
+1.89459098497E+007, +2.25856629313E+001, +5.43291741591E+002
+1.91126878130E+007, +2.10199909829E+001, +5.49720033912E+002
+1.92794657763E+007, +2.16651984822E+001, +5.56383595302E+002
+1.94462437396E+007, +2.32058566668E+001, +5.63534810066E+002
+1.96130217028E+007, +2.29115107721E+001, +5.70228686061E+002
+1.97797996661E+007, +2.19204669692E+001, +5.74798478078E+002
+1.99465776294E+007, +2.14717765196E+001, +5.80693901139E+002
+2.01133555927E+007, +2.24457279645E+001, +5.89512945568E+002
+2.02801335559E+007, +2.31382534441E+001, +5.97536466948E+002
+2.04469115192E+007, +2.50282583152E+001, +6.03455104306E+002
+2.06136894825E+007, +2.56057697802E+001, +6.08814267156E+002
+2.07804674457E+007, +2.60087436865E+001, +6.18186812826E+002
+2.09472454090E+007, +2.48188285725E+001, +6.25453460176E+002
+2.11140233723E+007, +2.66599059060E+001, +6.29687937565E+002
+2.12808013356E+007, +2.67842423712E+001, +6.38028387576E+002
+2.14475792988E+007, +2.63435420812E+001, +6.47484331570E+002
+2.16143572621E+007, +2.97329385598E+001, +6.51769006661E+002
+2.17811352254E+007, +2.85791833153E+001, +6.59756571483E+002
+2.19479131886E+007, +3.07625866096E+001, +6.68027695022E+002
+2.21146911519E+007, +3.11400058339E+001, +6.74684437166E+002
+2.22814691152E+007, +2.85639588396E+001, +6.82345221419E+002
+2.24482470785E+007, +3.17071256673E+001, +6.92098101330E+002
+2.26150250417E+007, +3.33091400536E+001, +6.96997914622E+002
+2.27818030050E+007, +3.17510583780E+001, +7.05885208299E+002
+2.29485809683E+007, +3.60707987445E+001, +7.14016649686E+002
+2.31153589316E+007, +3.38340328650E+001, +7.22634509604E+002
+2.32821368948E+007, +3.58610816270E+001, +7.32304803744E+002
+2.34489148581E+007, +3.46257663301E+001, +7.36644709250E+002
+2.36156928214E+007, +3.87827664812E+001, +7.46800029098E+002
+2.37824707846E+007, +3.81287720328E+001, +7.56719455038E+002
+2.39492487479E+007, +3.59452183186E+001, +7.60741907174E+002
+2.41160267112E+007, +4.07633235979E+001, +7.72316853735E+002
+2.42828046745E+007, +3.86783303240E+001, +7.79683954712E+002
+2.44495826377E+007, +4.05625457763E+001, +7.89704573732E+002
+2.46163606010E+007, +4.16759356997E+001, +7.98508365699E+002
+2.47831385643E+007, +4.07356429962E+001, +8.05770890560E+002
+2.49499165275E+007, +4.57300648849E+001, +8.14730055832E+002
+2.51166944908E+007, +4.64274268993E+001, +8.25603670141E+002
+2.52834724541E+007, +4.67426097736E+001, +8.33353482299E+002
+2.54502504174E+007, +4.99667844834E+001, +8.44674518739E+002
+2.56170283806E+007, +4.58818785817E+001, +8.50396605138E+002
+2.57838063439E+007, +4.79098327457E+001, +8.64732840712E+002
+2.59505843072E+007, +5.23402981591E+001, +8.74266207227E+002
+2.61173622705E+007, +5.24164509619E+001, +8.81462018774E+002
+2.62841402337E+007, +5.16282881458E+001, +8.94207981867E+002
+2.64509181970E+007, +5.16315937641E+001, +9.01119599397E+002
+2.66176961603E+007, +5.65040048022E+001, +9.14563963912E+002
+2.67844741235E+007, +5.44901350001E+001, +9.21230733469E+002
+2.69512520868E+007, +5.72170428305E+001, +9.32344718816E+002
+2.71180300501E+007, +5.58236416222E+001, +9.40848913809E+002
+2.72848080134E+007, +6.21739883981E+001, +9.51258406714E+002
+2.74515859766E+007, +6.49370455180E+001, +9.61987891773E+002
+2.76183639399E+007, +6.23899249761E+001, +9.73191853624E+002
+2.77851419032E+007, +6.10219835721E+001, +9.81104731423E+002
+2.79519198664E+007, +6.76278103088E+001, +9.92171524229E+002
+2.81186978297E+007, +6.81255606996E+001, +1.00116200105E+003
+2.82854757930E+007, +7.30230898198E+001, +1.01607564460E+003
+2.84522537563E+007, +6.53338303865E+001, +1.03115456336E+003
+2.86190317195E+007, +6.94843591260E+001, +1.03664871878E+003
+2.87858096828E+007, +7.93779894341E+001, +1.04905427929E+003
+2.89525876461E+007, +7.68321361577E+001, +1.06091010302E+003
+2.91193656093E+007, +7.27444834422E+001, +1.06667318062E+003
+2.92861435726E+007, +6.99458119337E+001, +1.08615540121E+003
+2.94529215359E+007, +7.70842992343E+001, +1.09609582195E+003
+2.96196994992E+007, +7.66965431231E+001, +1.11640640435E+003
+2.97864774624E+007, +8.20436457012E+001, +1.12372562926E+003
+2.99532554257E+007, +8.38565843757E+001, +1.13872826188E+003
+3.01200333890E+007, +8.25301844774E+001, +1.15729068951E+003
+3.02868113523E+007, +7.74544733776E+001, +1.16935476874E+003
+3.04535893155E+007, +8.30629588161E+001, +1.18355740969E+003
+3.06203672788E+007, +8.48586215603E+001, +1.19977467195E+003
+3.07871452421E+007, +8.40306195785E+001, +1.21412027841E+003
+3.09539232053E+007, +8.04614339705E+001, +1.22599271636E+003
+3.11207011686E+007, +7.99390979053E+001, +1.24903398839E+003
+3.12874791319E+007, +9.02422589575E+001, +1.25629348450E+003
+3.14542570952E+007, +9.04951815737E+001, +1.26770303155E+003
+3.16210350584E+007, +8.96126278359E+001, +1.28665461478E+003
+3.17878130217E+007, +9.25774465122E+001, +1.30440537813E+003
+3.19545909850E+007, +8.87452138567E+001, +1.32357021062E+003
+3.21213689482E+007, +9.06701008560E+001, +1.34784765238E+003
+3.22881469115E+007, +9.38961840469E+001, +1.35566743346E+003
+3.24549248748E+007, +9.65543647926E+001, +1.38363127513E+003
+3.26217028381E+007, +9.15529382814E+001, +1.39857075640E+003
+3.27884808013E+007, +1.01031304168E+002, +1.41481120202E+003
+3.29552587646E+007, +1.09227779798E+002, +1.43082277175E+003
+3.31220367279E+007, +1.09109767701E+002, +1.45101081766E+003
+3.32888146912E+007, +1.09718481047E+002, +1.47874509839E+003
+3.34555926544E+007, +1.03823596989E+002, +1.49946011590E+003
+3.36223706177E+007, +1.17500163273E+002, +1.51831772926E+003
+3.37891485810E+007, +1.07314783720E+002, +1.53958786519E+003
+3.39559265442E+007, +1.11962130616E+002, +1.56629182275E+003
+3.41227045075E+007, +1.09695516651E+002, +1.58539909622E+003
+3.42894824708E+007, +1.23346791997E+002, +1.61852453930E+003
+3.44562604341E+007, +1.08133493693E+002, +1.63223066534E+003
+3.46230383973E+007, +1.34022033124E+002, +1.67065665318E+003
+3.47898163606E+007, +1.29634125740E+002, +1.68828309484E+003
+3.49565943239E+007, +1.43440282595E+002, +1.72666512284E+003
+3.51233722871E+007, +1.39843608344E+002, +1.75427640267E+003
+3.52901502504E+007, +1.51101843462E+002, +1.76748985339E+003
+3.54569282137E+007, +1.47803714600E+002, +1.79268966020E+003
+3.56237061770E+007, +1.41363151983E+002, +1.83082897463E+003
+3.57904841402E+007, +1.58532788813E+002, +1.86636148709E+003
+3.59572621035E+007, +1.65878902193E+002, +1.90163064902E+003
+3.61240400668E+007, +1.61700274407E+002, +1.92164287268E+003
+3.62908180301E+007, +1.66004390532E+002, +1.96925836363E+003
+3.64575959933E+007, +1.73646555096E+002, +2.00898380616E+003
+3.66243739566E+007, +1.79011305570E+002, +2.02122654142E+003
+3.67911519199E+007, +1.99391905801E+002, +2.08420177472E+003
+3.69579298831E+007, +1.98729170916E+002, +2.10915083532E+003
+3.71247078464E+007, +2.08515833803E+002, +2.16408093109E+003
+3.72914858097E+007, +2.12851192652E+002, +2.20259946063E+003
+3.74582637730E+007, +2.29365105567E+002, +2.25065213432E+003
+3.76250417362E+007, +2.42656688168E+002, +2.27171689465E+003
+3.77918196995E+007, +2.27583066583E+002, +2.31410232790E+003
+3.79585976628E+007, +2.27097655786E+002, +2.36527873973E+003
+3.81253756260E+007, +2.71826694234E+002, +2.39229696131E+003
+3.82921535893E+007, +2.93023647839E+002, +2.48836977835E+003
+3.84589315526E+007, +2.73103224136E+002, +2.51775078453E+003
+3.86257095159E+007, +2.88821256088E+002, +2.59522419269E+003
+3.87924874791E+007, +2.74902749183E+002, +2.66956359702E+003
+3.89592654424E+007, +3.24174417883E+002, +2.69022373438E+003
+3.91260434057E+007, +3.43473243753E+002, +2.79910863232E+003
+3.92928213689E+007, +3.63931473879E+002, +2.83850023778E+003
+3.94595993322E+007, +4.02555922622E+002, +2.92878974261E+003
+3.96263772955E+007, +3.64852470330E+002, +3.01221006144E+003
+3.97931552588E+007, +3.78172947445E+002, +3.05706501369E+003
+3.99599332220E+007, +4.41538657558E+002, +3.14114376193E+003
+4.01267111853E+007, +4.54743404850E+002, +3.21019720104E+003
+4.02934891486E+007, +4.64658285910E+002, +3.32936967649E+003
+4.04602671119E+007, +5.22160082150E+002, +3.41279875542E+003
+4.06270450751E+007, +5.76084957458E+002, +3.51518050981E+003
+4.07938230384E+007, +6.17953438309E+002, +3.58191326724E+003
+4.09606010017E+007, +6.19704816793E+002, +3.73015297623E+003
+4.11273789649E+007, +6.72932342246E+002, +3.83859152899E+003
+4.12941569282E+007, +6.97397356827E+002, +3.95332985993E+003
+4.14609348915E+007, +7.84496526334E+002, +4.17646863086E+003
+4.16277128548E+007, +8.78500513552E+002, +4.25210834821E+003
+4.17944908180E+007, +8.63964391770E+002, +4.35760397964E+003
+4.19612687813E+007, +9.73897522306E+002, +4.60363025435E+003
+4.21280467446E+007, +1.05531968625E+003, +4.77747125091E+003
+4.22948247078E+007, +1.23828660154E+003, +4.89095032616E+003
+4.24616026711E+007, +1.29456582095E+003, +5.04554618780E+003
+4.26283806344E+007, +1.49847293402E+003, +5.32504982701E+003
+4.27951585977E+007, +1.40631757880E+003, +5.76852698434E+003
+4.29619365609E+007, +1.85581168974E+003, +5.72589611405E+003
+4.31287145242E+007, +2.04660844001E+003, +6.14576022391E+003
+4.32954924875E+007, +2.19187813817E+003, +6.28177084723E+003
+4.34622704508E+007, +2.29213746805E+003, +6.71585920961E+003
+4.36290484140E+007, +2.86369060423E+003, +6.87303887898E+003
+4.37958263773E+007, +3.00568283644E+003, +7.43840146000E+003
+4.39626043406E+007, +3.38122539306E+003, +7.48812065104E+003
+4.41293823038E+007, +4.31234819605E+003, +7.86170307000E+003
+4.42961602671E+007, +4.32032294712E+003, +8.38471522043E+003
+4.44629382304E+007, +5.48246087457E+003, +8.83035988970E+003
+4.46297161937E+007, +6.30738979620E+003, +9.14867417218E+003
+4.47964941569E+007, +7.22998544408E+003, +1.01227990188E+004
+4.49632721202E+007, +8.78440246140E+003, +1.00844639993E+004
+4.51300500835E+007, +9.72339549758E+003, +9.64619857561E+003
+4.52968280467E+007, +1.25148866537E+004, +9.07960125748E+003
+4.54636060100E+007, +1.53347605540E+004, +6.68360091458E+003
+4.56303839733E+007, +1.76848777768E+004, +6.49765379157E+003
+4.57971619366E+007, +1.87609847121E+004, +3.73203678878E+003
+4.59639398998E+007, +1.96860464194E+004, -1.63255824763E+003
+4.61307178631E+007, +1.84102371123E+004, -2.92878573414E+003
+4.62974958264E+007, +1.59951460382E+004, -5.95798584366E+003
+4.64642737896E+007, +1.57888674127E+004, -7.44850969523E+003
+4.66310517529E+007, +1.25898385305E+004, -8.80778584042E+003
+4.67978297162E+007, +1.08275827711E+004, -7.69684592474E+003
+4.69646076795E+007, +9.28203224849E+003, -9.04361023647E+003
+4.71313856427E+007, +8.42069977470E+003, -8.71917091490E+003
+4.72981636060E+007, +7.16978992779E+003, -8.36035871438E+003
+4.74649415693E+007, +5.86178088199E+003, -8.43695865001E+003
+4.76317195326E+007, +5.39592681805E+003, -7.18377530078E+003
+4.77984974958E+007, +4.53164048466E+003, -7.20185766361E+003
+4.79652754591E+007, +4.23849191101E+003, -6.74960582457E+003
+4.81320534224E+007, +3.89811879235E+003, -6.43708065603E+003
+4.82988313856E+007, +3.35817455595E+003, -6.10608663919E+003
+4.84656093489E+007, +3.10855125685E+003, -5.94102216780E+003
+4.86323873122E+007, +3.02400758060E+003, -5.62719185685E+003
+4.87991652755E+007, +2.63176469494E+003, -5.37102632024E+003
+4.89659432387E+007, +2.50523517855E+003, -5.23601445646E+003
+4.91327212020E+007, +2.16233805944E+003, -4.99816185629E+003
+4.92994991653E+007, +2.11483162333E+003, -4.78415099885E+003
+4.94662771285E+007, +1.98984228887E+003, -4.52251129179E+003
+4.96330550918E+007, +1.91230676900E+003, -4.31726944846E+003
+4.97998330551E+007, +1.83168137207E+003, -4.27707274950E+003
+4.99666110184E+007, +1.68113084869E+003, -4.06358833489E+003
+5.01333889816E+007, +1.60089308372E+003, -4.04478170657E+003
+5.03001669449E+007, +1.43564895556E+003, -3.96372640584E+003
+5.04669449082E+007, +1.33988555267E+003, -3.75359989341E+003
+5.06337228715E+007, +1.30743589239E+003, -3.62976461720E+003
+5.08005008347E+007, +1.21833860556E+003, -3.56599290492E+003
+5.09672787980E+007, +1.18162605887E+003, -3.46484113947E+003
+5.11340567613E+007, +1.10828024867E+003, -3.32880901804E+003
+5.13008347245E+007, +1.02092956355E+003, -3.25318635898E+003
+5.14676126878E+007, +9.56863871450E+002, -3.18080108353E+003
+5.16343906511E+007, +9.16395009784E+002, -3.05557398326E+003
+5.18011686144E+007, +8.56738343988E+002, -2.99778636504E+003
+5.19679465776E+007, +8.36269903903E+002, -2.88273057368E+003
+5.21347245409E+007, +7.74190481638E+002, -2.78011165835E+003
+5.23015025042E+007, +7.45320715564E+002, -2.69311039541E+003
+5.24682804674E+007, +7.20859200690E+002, -2.63591364628E+003
+5.26350584307E+007, +7.12379578536E+002, -2.59101521237E+003
+5.28018363940E+007, +6.51783572477E+002, -2.48764069868E+003
+5.29686143573E+007, +6.55224850889E+002, -2.43225639406E+003
+5.31353923205E+007, +6.29042389453E+002, -2.39911849819E+003
+5.33021702838E+007, +6.31330637249E+002, -2.33612540375E+003
+5.34689482471E+007, +6.04144606521E+002, -2.26446504185E+003
