"# Channel 1"
"# Trace 1"
Frequency, Formatted Data, Formatted Data
+1.00000000000E+005, +3.76729377401E-001, +2.60836085013E+000
+2.66777963272E+005, +3.94806328900E-001, +6.90873048566E+000
+4.33555926544E+005, +4.42429776767E-001, +1.12018052025E+001
+6.00333889816E+005, +5.16213640226E-001, +1.54053477316E+001
+7.67111853088E+005, +5.91032157222E-001, +1.97064014281E+001
+9.33889816361E+005, +6.37137564372E-001, +2.38757052681E+001
+1.10066777963E+006, +5.92874886430E-001, +2.81409591088E+001
+1.26744574290E+006, +7.03624004061E-001, +3.23300829032E+001
+1.43422370618E+006, +6.14855281727E-001, +3.66050726636E+001
+1.60100166945E+006, +7.43496646660E-001, +4.07396946990E+001
+1.76777963272E+006, +7.11935186454E-001, +4.49552354997E+001
+1.93455759599E+006, +7.20433777153E-001, +4.90599033791E+001
+2.10133555927E+006, +7.27940141338E-001, +5.32787166361E+001
+2.26811352254E+006, +7.67330885756E-001, +5.74875262569E+001
+2.43489148581E+006, +7.31212252036E-001, +6.17913008363E+001
+2.60166944908E+006, +7.91952126092E-001, +6.58150584211E+001
+2.76844741235E+006, +6.96969314642E-001, +7.01708655634E+001
+2.93522537563E+006, +6.69626724457E-001, +7.43113698087E+001
+3.10200333890E+006, +7.88155210204E-001, +7.84440423735E+001
+3.26878130217E+006, +5.51055948787E-001, +8.28297160755E+001
+3.43555926544E+006, +7.46085542175E-001, +8.69325205912E+001
+3.60233722871E+006, +6.71177025667E-001, +9.12591556915E+001
+3.76911519199E+006, +6.00108537707E-001, +9.55967610639E+001
+3.93589315526E+006, +5.07766429192E-001, +9.96077363686E+001
+4.10267111853E+006, +7.22203395508E-001, +1.04096217830E+002
+4.26944908180E+006, +4.88374195821E-001, +1.08314953882E+002
+4.43622704508E+006, +4.89775658066E-001, +1.12377296902E+002
+4.60300500835E+006, +4.43917811138E-001, +1.16814338950E+002
+4.76978297162E+006, +4.25197787474E-001, +1.20930134433E+002
+4.93656093489E+006, +7.96402681930E-001, +1.25180905005E+002
+5.10333889816E+006, +4.71824302519E-001, +1.29278357311E+002
+5.27011686144E+006, +7.54817841999E-001, +1.33911105872E+002
+5.43689482471E+006, +4.20997862045E-001, +1.38003356965E+002
+5.60367278798E+006, +4.57586848339E-001, +1.42531677148E+002
+5.77045075125E+006, +3.35156519373E-001, +1.46438784453E+002
+5.93722871452E+006, +6.14548160113E-001, +1.50833415893E+002
+6.10400667780E+006, +4.80111291125E-001, +1.55281499816E+002
+6.27078464107E+006, +5.97613236862E-001, +1.59413943542E+002
+6.43756260434E+006, +6.95511595426E-001, +1.63840972649E+002
+6.60434056761E+006, +7.40175142826E-001, +1.68068964745E+002
+6.77111853088E+006, +9.59727908323E-001, +1.72294619213E+002
+6.93789649416E+006, +8.68873647358E-001, +1.76644294376E+002
+7.10467445743E+006, +6.23108793685E-001, +1.81045952596E+002
+7.27145242070E+006, +8.46417863060E-001, +1.85197497704E+002
+7.43823038397E+006, +8.43962774619E-001, +1.89383915489E+002
+7.60500834725E+006, +8.85973451198E-001, +1.93858509865E+002
+7.77178631052E+006, +9.53135149692E-001, +1.98181546757E+002
+7.93856427379E+006, +7.84990821609E-001, +2.02437738615E+002
+8.10534223706E+006, +9.43404482930E-001, +2.06674325143E+002
+8.27212020033E+006, +9.74828855994E-001, +2.11171222214E+002
+8.43889816361E+006, +8.41800041561E-001, +2.15450594724E+002
+8.60567612688E+006, +8.09466636921E-001, +2.19931574950E+002
+8.77245409015E+006, +6.92465788175E-001, +2.23858341029E+002
+8.93923205342E+006, +8.31180775542E-001, +2.28568278931E+002
+9.10601001669E+006, +8.50679106115E-001, +2.32953057759E+002
+9.27278797997E+006, +7.75217099410E-001, +2.36948472103E+002
+9.43956594324E+006, +8.17950198135E-001, +2.41533310908E+002
+9.60634390651E+006, +6.10571429938E-001, +2.45914821336E+002
+9.77312186978E+006, +3.48679284638E-001, +2.50151374142E+002
+9.93989983306E+006, +8.84550893195E-001, +2.54840329714E+002
+1.01066777963E+007, +5.12226861946E-001, +2.59006139929E+002
+1.02734557596E+007, +6.13160114007E-001, +2.63606049194E+002
+1.04402337229E+007, +2.08110605854E-001, +2.67936891635E+002
+1.06070116861E+007, +7.35162894942E-002, +2.72050108140E+002
+1.07737896494E+007, -3.34133080361E-002, +2.77026159959E+002
+1.09405676127E+007, +3.88536005139E-001, +2.81161184132E+002
+1.11073455760E+007, +3.85628987728E-001, +2.85712925880E+002
+1.12741235392E+007, +2.46494885338E-001, +2.90346315182E+002
+1.14409015025E+007, +5.76710447135E-001, +2.94476947999E+002
+1.16076794658E+007, +3.02865729865E-001, +2.98753550113E+002
+1.17744574290E+007, +2.05487820108E-001, +3.03415719236E+002
+1.19412353923E+007, +1.97058931726E-001, +3.08219539054E+002
+1.21080133556E+007, -6.81378310716E-002, +3.12645608250E+002
+1.22747913189E+007, +3.30053276684E-001, +3.17223388726E+002
+1.24415692821E+007, -6.92284845842E-001, +3.21428955379E+002
+1.26083472454E+007, -6.45821259168E-001, +3.25963005936E+002
+1.27751252087E+007, -1.21507347838E-001, +3.30577212387E+002
+1.29419031720E+007, -4.69337656844E-001, +3.34517040865E+002
+1.31086811352E+007, -1.73104877441E-001, +3.39588588170E+002
+1.32754590985E+007, -3.48721886361E-001, +3.44453677247E+002
+1.34422370618E+007, -2.62652770335E-001, +3.48700105295E+002
+1.36090150250E+007, -3.54091628700E-001, +3.53122645659E+002
+1.37757929883E+007, -4.62693417408E-001, +3.57820321830E+002
+1.39425709516E+007, -1.42335043255E-001, +3.62475794250E+002
+1.41093489149E+007, -1.32764537277E-001, +3.66990760920E+002
+1.42761268781E+007, -4.44419130706E-001, +3.71677221371E+002
+1.44429048414E+007, +3.90795258098E-002, +3.76378020799E+002
+1.46096828047E+007, +2.85219655007E-001, +3.80887120477E+002
+1.47764607679E+007, -4.58548721373E-001, +3.84710480013E+002
+1.49432387312E+007, -6.58528295105E-001, +3.90085126208E+002
+1.51100166945E+007, -7.85334734708E-001, +3.94343580752E+002
+1.52767946578E+007, -5.01979196309E-001, +3.98960244289E+002
+1.54435726210E+007, -5.78737107296E-001, +4.03879568001E+002
+1.56103505843E+007, -5.28177664307E-001, +4.08548567528E+002
+1.57771285476E+007, -9.49581192004E-001, +4.13435201000E+002
+1.59439065109E+007, -6.27156847824E-001, +4.17821406242E+002
+1.61106844741E+007, -1.20013572727E+000, +4.23113078510E+002
+1.62774624374E+007, -3.02239137538E-001, +4.28420621599E+002
+1.64442404007E+007, -1.00185701937E+000, +4.31523429297E+002
+1.66110183639E+007, -7.56846683031E-001, +4.37423668179E+002
+1.67777963272E+007, -9.87049044219E-001, +4.42805452482E+002
+1.69445742905E+007, -7.82506910700E-001, +4.46400256886E+002
+1.71113522538E+007, -2.61982511584E+000, +4.50816222703E+002
+1.72781302170E+007, -2.02329109890E+000, +4.56406456026E+002
+1.74449081803E+007, -2.56185698027E+000, +4.60618066688E+002
+1.76116861436E+007, -1.23536440785E+000, +4.66817495994E+002
+1.77784641068E+007, -1.12860656088E+000, +4.69754612785E+002
+1.79452420701E+007, -1.12292852219E+000, +4.75256480499E+002
+1.81120200334E+007, -4.10412038549E-001, +4.79833602902E+002
+1.82787979967E+007, -1.69181595948E+000, +4.86098304221E+002
+1.84455759599E+007, -6.16130036859E-001, +4.89932679407E+002
+1.86123539232E+007, -2.31591179383E-001, +4.95916447778E+002
+1.87791318865E+007, -1.66041881839E+000, +5.00423582906E+002
+1.89459098497E+007, -1.07347222388E+000, +5.06373183102E+002
+1.91126878130E+007, -1.54631343811E+000, +5.10953518936E+002
+1.92794657763E+007, -9.14435545620E-001, +5.15393571793E+002
+1.94462437396E+007, -6.51405677820E-001, +5.22191377486E+002
+1.96130217028E+007, -1.04741946996E+000, +5.25767116614E+002
+1.97797996661E+007, -2.99112365694E-001, +5.29595192323E+002
+1.99465776294E+007, -1.98910735095E+000, +5.35338815607E+002
+2.01133555927E+007, -1.49758750995E+000, +5.40305900877E+002
+2.02801335559E+007, -1.24760626279E+000, +5.46805966225E+002
+2.04469115192E+007, -7.26357339707E-001, +5.51607122626E+002
+2.06136894825E+007, +9.23874362511E-002, +5.55885990992E+002
+2.07804674457E+007, -9.60927036917E-001, +5.61693683211E+002
+2.09472454090E+007, -2.04543133868E+000, +5.67435744820E+002
+2.11140233723E+007, +2.91196398143E-001, +5.72223525336E+002
+2.12808013356E+007, -3.71313038234E-001, +5.76743265282E+002
+2.14475792988E+007, -1.74372932726E-001, +5.84162348677E+002
+2.16143572621E+007, +5.52887437923E-001, +5.87587774308E+002
+2.17811352254E+007, -1.46551501178E+000, +5.91819075802E+002
+2.19479131886E+007, +3.69647776533E-001, +5.97436604081E+002
+2.21146911519E+007, +9.94453078075E-001, +6.02177941928E+002
+2.22814691152E+007, -6.41904023385E-001, +6.09325267289E+002
+2.24482470785E+007, +1.29207298749E+000, +6.15286733072E+002
+2.26150250417E+007, +2.41033548914E+000, +6.20401114319E+002
+2.27818030050E+007, +1.00223823048E+000, +6.25174902525E+002
+2.29485809683E+007, +4.24386668346E+000, +6.31032159669E+002
+2.31153589316E+007, +1.62387380429E+000, +6.36924743869E+002
+2.32821368948E+007, +3.76161403802E+000, +6.41571008037E+002
+2.34489148581E+007, +3.52407194387E+000, +6.47828246797E+002
+2.36156928214E+007, +2.90446842885E+000, +6.52880667572E+002
+2.37824707846E+007, +2.78369733179E+000, +6.58019908568E+002
+2.39492487479E+007, +2.13379776717E+000, +6.64217044424E+002
+2.41160267112E+007, +3.42691700025E+000, +6.69003476395E+002
+2.42828046745E+007, +1.66232253468E+000, +6.73868326396E+002
+2.44495826377E+007, +5.68968430079E+000, +6.81654567584E+002
+2.46163606010E+007, +3.61622929111E+000, +6.86187258561E+002
+2.47831385643E+007, +4.23433858531E+000, +6.91851593221E+002
+2.49499165275E+007, +7.53101957422E+000, +6.98010884852E+002
+2.51166944908E+007, +7.91810297749E+000, +7.01951816774E+002
+2.52834724541E+007, +6.87947139350E+000, +7.07529889804E+002
+2.54502504174E+007, +7.53509709484E+000, +7.16048678967E+002
+2.56170283806E+007, +7.30347935081E+000, +7.19042481995E+002
+2.57838063439E+007, +7.61146490806E+000, +7.27953011412E+002
+2.59505843072E+007, +9.49831036552E+000, +7.32433342548E+002
+2.61173622705E+007, +9.06592795358E+000, +7.37576904666E+002
+2.62841402337E+007, +8.05983925304E+000, +7.42354791384E+002
+2.64509181970E+007, +7.63219455703E+000, +7.48954245681E+002
+2.66176961603E+007, +8.28320748576E+000, +7.57186894116E+002
+2.67844741235E+007, +1.13773199217E+001, +7.62091935889E+002
+2.69512520868E+007, +9.91824347808E+000, +7.65197816286E+002
+2.71180300501E+007, +1.25412378555E+001, +7.70092637455E+002
+2.72848080134E+007, +1.13478854508E+001, +7.79243087285E+002
+2.74515859766E+007, +1.33770951811E+001, +7.83852430176E+002
+2.76183639399E+007, +1.06641357459E+001, +7.86965806639E+002
+2.77851419032E+007, +1.10604019110E+001, +7.93072957025E+002
+2.79519198664E+007, +1.21749739352E+001, +7.99240233220E+002
+2.81186978297E+007, +1.13299463649E+001, +8.03014243148E+002
+2.82854757930E+007, +1.25903843540E+001, +8.09373035043E+002
+2.84522537563E+007, +7.81039279933E+000, +8.14404173605E+002
+2.86190317195E+007, +8.65531285374E+000, +8.18948266463E+002
+2.87858096828E+007, +1.59516192156E+001, +8.27105437313E+002
+2.89525876461E+007, +1.12940004686E+001, +8.31112832086E+002
+2.91193656093E+007, +9.24932122061E+000, +8.36559942129E+002
+2.92861435726E+007, +7.73613467009E+000, +8.45849008244E+002
+2.94529215359E+007, +9.50794720013E+000, +8.51344304349E+002
+2.96196994992E+007, +1.22312318287E+001, +8.56366362811E+002
+2.97864774624E+007, +1.33280608486E+001, +8.62879163160E+002
+2.99532554257E+007, +1.13305177165E+001, +8.74569316365E+002
+3.01200333890E+007, +7.41119347331E+000, +8.81485916356E+002
+3.02868113523E+007, +6.24743642960E+000, +8.83993225414E+002
+3.04535893155E+007, +6.56726406148E+000, +8.93482503595E+002
+3.06203672788E+007, +9.29961239884E+000, +8.98166849284E+002
+3.07871452421E+007, +9.65840150637E+000, +9.07010886206E+002
+3.09539232053E+007, +1.30490493522E+001, +9.14752194839E+002
+3.11207011686E+007, +2.99596921741E+000, +9.24463043953E+002
+3.12874791319E+007, +1.18245297780E+001, +9.25932533016E+002
+3.14542570952E+007, +6.16008989113E+000, +9.33782607418E+002
+3.16210350584E+007, +4.89906909407E+000, +9.40465218659E+002
+3.17878130217E+007, +2.06092320130E+000, +9.50291839470E+002
+3.19545909850E+007, +7.16918987201E+000, +9.56974780323E+002
+3.21213689482E+007, +2.79985628895E+000, +9.68613189414E+002
+3.22881469115E+007, +3.30526497485E+000, +9.69858537712E+002
+3.24549248748E+007, +6.24752395905E+000, +9.81210063416E+002
+3.26217028381E+007, +2.38013204617E+000, +9.84707325634E+002
+3.27884808013E+007, +5.42125479128E+000, +9.92249738150E+002
+3.29552587646E+007, +1.01446466823E+001, +1.00484320574E+003
+3.31220367279E+007, +1.07425529755E+001, +1.00993400687E+003
+3.32888146912E+007, +6.73473488921E+000, +1.01868539721E+003
+3.34555926544E+007, +4.22022487440E+000, +1.02723878748E+003
+3.36223706177E+007, +6.88767961658E+000, +1.03037968340E+003
+3.37891485810E+007, +4.40174015703E-001, +1.03819985243E+003
+3.39559265442E+007, +3.06480017147E+000, +1.05133044381E+003
+3.41227045075E+007, +3.68434921427E+000, +1.05781277817E+003
+3.42894824708E+007, +6.90311469596E+000, +1.06838074670E+003
+3.44562604341E+007, +6.11470188912E+000, +1.07712082546E+003
+3.46230383973E+007, +4.97853211834E+000, +1.08854667671E+003
+3.47898163606E+007, +4.44630437286E+000, +1.09117597034E+003
+3.49565943239E+007, +1.14720788244E+001, +1.10456253628E+003
+3.51233722871E+007, +1.09441458245E+001, +1.11177499697E+003
+3.52901502504E+007, +5.88717672979E+000, +1.11351185794E+003
+3.54569282137E+007, +3.23737597632E+000, +1.12797009401E+003
+3.56237061770E+007, +5.36897354202E+000, +1.13919827540E+003
+3.57904841402E+007, -2.39583839396E+000, +1.14990536294E+003
+3.59572621035E+007, +5.16661729231E+000, +1.15300274959E+003
+3.61240400668E+007, +7.76627034128E+000, +1.16508383984E+003
+3.62908180301E+007, +8.64411349979E+000, +1.17883383045E+003
+3.64575959933E+007, -2.22802752000E+000, +1.18597388042E+003
+3.66243739566E+007, +5.70345253047E+000, +1.19659041171E+003
+3.67911519199E+007, +7.44870942629E+000, +1.21199669934E+003
+3.69579298831E+007, +6.82719432271E+000, +1.21085928957E+003
+3.71247078464E+007, +5.18533006997E+000, +1.23035848492E+003
+3.72914858097E+007, +3.40542543462E+000, +1.24004073760E+003
+3.74582637730E+007, +1.01728207759E+001, +1.24877524780E+003
+3.76250417362E+007, +4.78719587558E+000, +1.26245507059E+003
+3.77918196995E+007, +4.24323338531E+000, +1.26998373794E+003
+3.79585976628E+007, +6.15031733901E+000, +1.27984339819E+003
+3.81253756260E+007, +9.23115204896E+000, +1.29339159912E+003
+3.82921535893E+007, +9.10241123336E+000, +1.30635772626E+003
+3.84589315526E+007, +9.64326625726E+000, +1.32233242993E+003
+3.86257095159E+007, +7.64066152450E+000, +1.33525615472E+003
+3.87924874791E+007, +5.60391596856E+000, +1.35024703974E+003
+3.89592654424E+007, +9.15871169673E+000, +1.35407243788E+003
+3.91260434057E+007, +1.40154748365E+001, +1.37361371214E+003
+3.92928213689E+007, +1.76659306731E+001, +1.38046813923E+003
+3.94595993322E+007, +9.35739526113E+000, +1.39430222050E+003
+3.96263772955E+007, +1.60665247329E+001, +1.40918104282E+003
+3.97931552588E+007, +6.11276440753E+000, +1.42153912955E+003
+3.99599332220E+007, +1.58795186423E+001, +1.43416757283E+003
+4.01267111853E+007, +2.19774738160E+001, +1.44373963234E+003
+4.02934891486E+007, +1.32497802955E+001, +1.45879130320E+003
+4.04602671119E+007, +1.66709540725E+001, +1.46480808378E+003
+4.06270450751E+007, +2.72917725096E+001, +1.48541772629E+003
+4.07938230384E+007, +2.07337932597E+001, +1.49829265536E+003
+4.09606010017E+007, +1.76927377385E+001, +1.51680076320E+003
+4.11273789649E+007, +2.03664365184E+001, +1.52330892993E+003
+4.12941569282E+007, +2.26420192452E+001, +1.54571037016E+003
+4.14609348915E+007, +1.51488006497E+001, +1.57433495867E+003
+4.16277128548E+007, +2.21464977728E+001, +1.58206312801E+003
+4.17944908180E+007, +2.86532510287E+001, +1.58525687756E+003
+4.19612687813E+007, +2.34608815357E+001, +1.60538031306E+003
+4.21280467446E+007, +2.24809995913E+001, +1.62937787215E+003
+4.22948247078E+007, +1.87726238183E+001, +1.63911183811E+003
+4.24616026711E+007, +3.62445078209E+001, +1.66221488752E+003
+4.26283806344E+007, +3.19272182603E+001, +1.67801333048E+003
+4.27951585977E+007, +6.08012326734E+000, +1.70614878562E+003
+4.29619365609E+007, +4.02312265728E+001, +1.71376947861E+003
+4.31287145242E+007, +2.95120158449E+001, +1.74298930738E+003
+4.32954924875E+007, +3.59130324212E+001, +1.75960010685E+003
+4.34622704508E+007, +2.70982105365E+001, +1.79543343656E+003
+4.36290484140E+007, +3.73687297451E+001, +1.79494631551E+003
+4.37958263773E+007, +3.44329582528E+001, +1.83826098304E+003
+4.39626043406E+007, +4.40401951395E+001, +1.85325809615E+003
+4.41293823038E+007, +4.90782628644E+001, +1.87989687227E+003
+4.42961602671E+007, +3.96542433464E+001, +1.88838485313E+003
+4.44629382304E+007, +2.92285748596E+001, +1.90837621746E+003
+4.46297161937E+007, +5.79747916307E+001, +1.93920655672E+003
+4.47964941569E+007, +3.79027534055E+001, +1.96263981838E+003
+4.49632721202E+007, +4.51253427474E+001, +2.00575161720E+003
+4.51300500835E+007, +4.10421458373E+001, +2.01938939411E+003
+4.52968280467E+007, +6.65022278397E+001, +2.05925090843E+003
+4.54636060100E+007, +6.46864505040E+001, +2.09751955607E+003
+4.56303839733E+007, +6.63895065020E+001, +2.12493100885E+003
+4.57971619366E+007, +8.62635885751E+001, +2.15841552767E+003
+4.59639398998E+007, +7.29351520515E+001, +2.21430278527E+003
+4.61307178631E+007, +9.44759862569E+001, +2.21669947997E+003
+4.62974958264E+007, +1.14810444350E+002, +2.27134080041E+003
+4.64642737896E+007, +9.67741138061E+001, +2.29311790249E+003
+4.66310517529E+007, +1.07516739207E+002, +2.33037131093E+003
+4.67978297162E+007, +1.50504993531E+002, +2.35875886189E+003
+4.69646076795E+007, +1.33758943753E+002, +2.40593380721E+003
+4.71313856427E+007, +1.35612684566E+002, +2.46254240997E+003
+4.72981636060E+007, +1.45961159780E+002, +2.51283439267E+003
+4.74649415693E+007, +1.46720420985E+002, +2.54284115440E+003
+4.76317195326E+007, +1.82055672750E+002, +2.57065089035E+003
+4.77984974958E+007, +1.98142074725E+002, +2.62152179000E+003
+4.79652754591E+007, +2.18220140213E+002, +2.70296167869E+003
+4.81320534224E+007, +2.47355189715E+002, +2.70809001239E+003
+4.82988313856E+007, +2.70411913837E+002, +2.76058185501E+003
+4.84656093489E+007, +2.97886233652E+002, +2.80131130689E+003
+4.86323873122E+007, +3.55020287303E+002, +2.86738816662E+003
+4.87991652755E+007, +3.43409257927E+002, +2.91081046731E+003
+4.89659432387E+007, +3.98745598258E+002, +2.97076380767E+003
+4.91327212020E+007, +4.13423265673E+002, +2.99495228139E+003
+4.92994991653E+007, +4.56770431405E+002, +3.00206678731E+003
+4.94662771285E+007, +5.42691406820E+002, +3.15949799355E+003
+4.96330550918E+007, +5.68963540801E+002, +3.15895537510E+003
+4.97998330551E+007, +6.27494614658E+002, +3.15748347749E+003
+4.99666110184E+007, +6.65651703514E+002, +3.17542291239E+003
+5.01333889816E+007, +6.74967874047E+002, +3.19994884456E+003
+5.03001669449E+007, +6.98084465526E+002, +3.24669248447E+003
+5.04669449082E+007, +7.31310149510E+002, +3.37420025287E+003
+5.06337228715E+007, +7.82779653128E+002, +3.35650421691E+003
+5.08005008347E+007, +7.61887062416E+002, +3.40848113787E+003
+5.09672787980E+007, +8.61037287286E+002, +3.48541647792E+003
+5.11340567613E+007, +8.52221365773E+002, +3.52817225525E+003
+5.13008347245E+007, +8.78106110330E+002, +3.63978138570E+003
+5.14676126878E+007, +9.18608949451E+002, +3.66129921596E+003
+5.16343906511E+007, +9.99457307638E+002, +3.73234052744E+003
+5.18011686144E+007, +9.63296312714E+002, +3.80934134373E+003
+5.19679465776E+007, +9.43814485777E+002, +3.88545116139E+003
+5.21347245409E+007, +1.03271451852E+003, +3.96049222543E+003
+5.23015025042E+007, +1.12595971111E+003, +4.21143586885E+003
+5.24682804674E+007, +1.09037812025E+003, +4.28368000528E+003
+5.26350584307E+007, +1.16287182885E+003, +4.40017315446E+003
+5.28018363940E+007, +1.22219533634E+003, +4.58804887662E+003
+5.29686143573E+007, +1.31917998522E+003, +4.82372985680E+003
+5.31353923205E+007, +1.32185890406E+003, +4.86749723791E+003
+5.33021702838E+007, +1.47095534068E+003, +5.11332213159E+003
+5.34689482471E+007, +1.62671188844E+003, +5.46297277799E+003
