"# Channel 1"
"# Trace 1"
Frequency, Formatted Data, Formatted Data
+1.00000000000E+005, +5.33116444349E+001, +2.51385715980E+000
+2.25031289111E+005, +5.32037244323E+001, +5.98369478264E+000
+3.50062578223E+005, +5.31866492382E+001, +9.31559417509E+000
+4.75093867334E+005, +5.32308326654E+001, +1.26828611730E+001
+6.00125156446E+005, +5.32460120571E+001, +1.58537030728E+001
+7.25156445557E+005, +5.32134793772E+001, +1.92129299774E+001
+8.50187734668E+005, +5.32949617393E+001, +2.25042270737E+001
+9.75219023780E+005, +5.32422435808E+001, +2.57447054108E+001
+1.10025031289E+006, +5.33624538192E+001, +2.91191010537E+001
+1.22528160200E+006, +5.33658424298E+001, +3.24413438387E+001
+1.35031289111E+006, +5.33554997954E+001, +3.57437219445E+001
+1.47534418023E+006, +5.33760829994E+001, +3.89614221337E+001
+1.60037546934E+006, +5.33651557434E+001, +4.22090961200E+001
+1.72540675845E+006, +5.33196579535E+001, +4.56575733991E+001
+1.85043804756E+006, +5.32584060187E+001, +4.90081114714E+001
+1.97546933667E+006, +5.33335777515E+001, +5.21176931069E+001
+2.10050062578E+006, +5.33595254251E+001, +5.55215661458E+001
+2.22553191489E+006, +5.33767208345E+001, +5.88681675586E+001
+2.35056320401E+006, +5.34254015225E+001, +6.20916878049E+001
+2.47559449312E+006, +5.33175841770E+001, +6.54600630984E+001
+2.60062578223E+006, +5.35293690846E+001, +6.86202457026E+001
+2.72565707134E+006, +5.33971700514E+001, +7.19703956596E+001
+2.85068836045E+006, +5.34663034640E+001, +7.52344563434E+001
+2.97571964956E+006, +5.34985438419E+001, +7.85539760266E+001
+3.10075093867E+006, +5.35969047539E+001, +8.20122711032E+001
+3.22578222778E+006, +5.34312372345E+001, +8.52877976767E+001
+3.35081351690E+006, +5.35900017307E+001, +8.85471738184E+001
+3.47584480601E+006, +5.37269029406E+001, +9.19521521553E+001
+3.60087609512E+006, +5.35403028740E+001, +9.54343913117E+001
+3.72590738423E+006, +5.38640816285E+001, +9.85871651068E+001
+3.85093867334E+006, +5.37608922176E+001, +1.01820994727E+002
+3.97596996245E+006, +5.37890074079E+001, +1.05258379898E+002
+4.10100125156E+006, +5.39036944285E+001, +1.08662988629E+002
+4.22603254068E+006, +5.40482948839E+001, +1.11979560067E+002
+4.35106382979E+006, +5.41672052682E+001, +1.15364482242E+002
+4.47609511890E+006, +5.39984897638E+001, +1.18813227834E+002
+4.60112640801E+006, +5.39354102563E+001, +1.21805936726E+002
+4.72615769712E+006, +5.40702554007E+001, +1.25438265244E+002
+4.85118898623E+006, +5.38691599220E+001, +1.28842757504E+002
+4.97622027534E+006, +5.41064455950E+001, +1.32107034827E+002
+5.10125156446E+006, +5.41793681271E+001, +1.35629974631E+002
+5.22628285357E+006, +5.41779163740E+001, +1.38790378807E+002
+5.35131414268E+006, +5.44646362509E+001, +1.42574210363E+002
+5.47634543179E+006, +5.41902206352E+001, +1.45631643867E+002
+5.60137672090E+006, +5.45657046096E+001, +1.49205928984E+002
+5.72640801001E+006, +5.45735067300E+001, +1.52314925478E+002
+5.85143929912E+006, +5.43994805187E+001, +1.56072257316E+002
+5.97647058824E+006, +5.48332122562E+001, +1.59176328718E+002
+6.10150187735E+006, +5.51374720261E+001, +1.62618240927E+002
+6.22653316646E+006, +5.49957585699E+001, +1.66553431162E+002
+6.35156445557E+006, +5.50242308112E+001, +1.69520599443E+002
+6.47659574468E+006, +5.51553800495E+001, +1.72972622982E+002
+6.60162703379E+006, +5.53378852363E+001, +1.76278697310E+002
+6.72665832290E+006, +5.55395057676E+001, +1.79811845728E+002
+6.85168961202E+006, +5.55939520474E+001, +1.83279103219E+002
+6.97672090113E+006, +5.55068222267E+001, +1.86843908784E+002
+7.10175219024E+006, +5.56418510088E+001, +1.90025448355E+002
+7.22678347935E+006, +5.57085254157E+001, +1.93715182502E+002
+7.35181476846E+006, +5.57115794739E+001, +1.97312739465E+002
+7.47684605757E+006, +5.58939956970E+001, +2.00711751024E+002
+7.60187734668E+006, +5.59860092387E+001, +2.03960654899E+002
+7.72690863579E+006, +5.61483169148E+001, +2.07518400437E+002
+7.85193992491E+006, +5.63822719373E+001, +2.11028786309E+002
+7.97697121402E+006, +5.62734212610E+001, +2.14466752605E+002
+8.10200250313E+006, +5.64812168862E+001, +2.18176968828E+002
+8.22703379224E+006, +5.63040551717E+001, +2.21836206164E+002
+8.35206508135E+006, +5.62630275730E+001, +2.25161995092E+002
+8.47709637046E+006, +5.66271098970E+001, +2.28728081809E+002
+8.60212765957E+006, +5.66455350795E+001, +2.32525997040E+002
+8.72715894869E+006, +5.64258924488E+001, +2.35901019505E+002
+8.85219023780E+006, +5.68777995203E+001, +2.39889434990E+002
+8.97722152691E+006, +5.67372828183E+001, +2.43397334197E+002
+9.10225281602E+006, +5.69824202832E+001, +2.47049230561E+002
+9.22728410513E+006, +5.71782625795E+001, +2.50782408658E+002
+9.35231539424E+006, +5.72540149026E+001, +2.54478970387E+002
+9.47734668335E+006, +5.73066563598E+001, +2.58000478970E+002
+9.60237797247E+006, +5.74553485439E+001, +2.62039208639E+002
+9.72740926158E+006, +5.72703056778E+001, +2.65227320986E+002
+9.85244055069E+006, +5.75770619291E+001, +2.69126211142E+002
+9.97747183980E+006, +5.77898132834E+001, +2.72595893893E+002
+1.01025031289E+007, +5.75874864444E+001, +2.76581856883E+002
+1.02275344180E+007, +5.78172392782E+001, +2.80235847294E+002
+1.03525657071E+007, +5.81999478976E+001, +2.83946955234E+002
+1.04775969962E+007, +5.82909585020E+001, +2.87648407126E+002
+1.06026282854E+007, +5.82220473668E+001, +2.91357798822E+002
+1.07276595745E+007, +5.81475816519E+001, +2.95227364705E+002
+1.08526908636E+007, +5.86852493344E+001, +2.98854408004E+002
+1.09777221527E+007, +5.81726704145E+001, +3.02545979827E+002
+1.11027534418E+007, +5.86230735354E+001, +3.06387873604E+002
+1.12277847309E+007, +5.83952055066E+001, +3.10676226227E+002
+1.13528160200E+007, +5.87036248964E+001, +3.14206107002E+002
+1.14778473091E+007, +5.92543884509E+001, +3.18292271123E+002
+1.16028785982E+007, +5.91795800652E+001, +3.22411411156E+002
+1.17279098874E+007, +5.95128005847E+001, +3.26580080804E+002
+1.18529411765E+007, +5.97324095793E+001, +3.30390874215E+002
+1.19779724656E+007, +5.96871851828E+001, +3.34291111854E+002
+1.21030037547E+007, +5.97069741492E+001, +3.38003421093E+002
+1.22280350438E+007, +5.97327096395E+001, +3.41588337066E+002
+1.23530663329E+007, +5.98482553786E+001, +3.46016630803E+002
+1.24780976220E+007, +5.99803603280E+001, +3.50370748409E+002
+1.26031289111E+007, +6.04950519662E+001, +3.53834396852E+002
+1.27281602003E+007, +6.01104127134E+001, +3.57841547510E+002
+1.28531914894E+007, +6.11517950911E+001, +3.62183129216E+002
+1.29782227785E+007, +6.03763715053E+001, +3.66488452950E+002
+1.31032540676E+007, +6.04599043972E+001, +3.69322133787E+002
+1.32282853567E+007, +6.11096775895E+001, +3.74639202110E+002
+1.33533166458E+007, +6.13232773028E+001, +3.78440077309E+002
+1.34783479349E+007, +6.08697352597E+001, +3.82563617825E+002
+1.36033792240E+007, +6.18215650945E+001, +3.85709275491E+002
+1.37284105131E+007, +6.13058165970E+001, +3.90335053631E+002
+1.38534418023E+007, +6.24377017835E+001, +3.95361232118E+002
+1.39784730914E+007, +6.23291447919E+001, +3.99253520886E+002
+1.41035043805E+007, +6.20405362504E+001, +4.04000328448E+002
+1.42285356696E+007, +6.23818237108E+001, +4.07956624952E+002
+1.43535669587E+007, +6.25964623942E+001, +4.11958530312E+002
+1.44785982478E+007, +6.29175806797E+001, +4.17123749453E+002
+1.46036295369E+007, +6.38066007969E+001, +4.20694916485E+002
+1.47286608260E+007, +6.36682752624E+001, +4.25723306329E+002
+1.48536921151E+007, +6.30627707903E+001, +4.30652041367E+002
+1.49787234043E+007, +6.38319274201E+001, +4.34257274769E+002
+1.51037546934E+007, +6.34930309120E+001, +4.38036824861E+002
+1.52287859825E+007, +6.42476064267E+001, +4.43746518918E+002
+1.53538172716E+007, +6.44710319744E+001, +4.45989940572E+002
+1.54788485607E+007, +6.60244881411E+001, +4.51743634188E+002
+1.56038798498E+007, +6.44983909352E+001, +4.56794976983E+002
+1.57289111389E+007, +6.50174859865E+001, +4.60803321735E+002
+1.58539424280E+007, +6.55813601614E+001, +4.66289358097E+002
+1.59789737171E+007, +6.51446275996E+001, +4.70276470485E+002
+1.61040050063E+007, +6.57553355520E+001, +4.73354699679E+002
+1.62290362954E+007, +6.64488200640E+001, +4.78474525770E+002
+1.63540675845E+007, +6.59819570995E+001, +4.84083387148E+002
+1.64790988736E+007, +6.57378715046E+001, +4.87871917919E+002
+1.66041301627E+007, +6.58975672403E+001, +4.93508414920E+002
+1.67291614518E+007, +6.69937024012E+001, +4.98324615081E+002
+1.68541927409E+007, +6.84477556700E+001, +5.02436447461E+002
+1.69792240300E+007, +6.81995861522E+001, +5.07689127512E+002
+1.71042553191E+007, +6.67231993961E+001, +5.13340341665E+002
+1.72292866083E+007, +6.75417492721E+001, +5.17181465792E+002
+1.73543178974E+007, +6.79699424840E+001, +5.21863200148E+002
+1.74793491865E+007, +6.91936869584E+001, +5.27447402188E+002
+1.76043804756E+007, +6.78323099613E+001, +5.31685313995E+002
+1.77294117647E+007, +6.89132074305E+001, +5.38551611796E+002
+1.78544430538E+007, +7.00879043789E+001, +5.42606342795E+002
+1.79794743429E+007, +6.97577481677E+001, +5.47885722886E+002
+1.81045056320E+007, +6.97662965785E+001, +5.52677666901E+002
+1.82295369212E+007, +7.19505758275E+001, +5.58075564763E+002
+1.83545682103E+007, +7.15564064090E+001, +5.62285636838E+002
+1.84795994994E+007, +7.08314926952E+001, +5.68693857149E+002
+1.86046307885E+007, +7.17224563777E+001, +5.71601298576E+002
+1.87296620776E+007, +7.02716686044E+001, +5.78946813945E+002
+1.88546933667E+007, +7.07151296077E+001, +5.81171733195E+002
+1.89797246558E+007, +7.30355770552E+001, +5.87504242995E+002
+1.91047559449E+007, +7.47420509032E+001, +5.92588937801E+002
+1.92297872340E+007, +7.36982780863E+001, +5.98999608597E+002
+1.93548185232E+007, +7.48774558779E+001, +6.05826382349E+002
+1.94798498123E+007, +7.59195904966E+001, +6.10827838400E+002
+1.96048811014E+007, +7.56460853583E+001, +6.16040265330E+002
+1.97299123905E+007, +7.71919006759E+001, +6.21913362139E+002
+1.98549436796E+007, +7.40545236051E+001, +6.26780872100E+002
+1.99799749687E+007, +7.64161246806E+001, +6.34408067655E+002
+2.01050062578E+007, +7.64819871274E+001, +6.36081902614E+002
+2.02300375469E+007, +7.85985752597E+001, +6.42600038613E+002
+2.03550688360E+007, +7.67326305302E+001, +6.49600415589E+002
+2.04801001252E+007, +7.89778636457E+001, +6.56449358068E+002
+2.06051314143E+007, +7.92377182850E+001, +6.60575000323E+002
+2.07301627034E+007, +7.93350209870E+001, +6.66880878588E+002
+2.08551939925E+007, +8.08486828908E+001, +6.70703127914E+002
+2.09802252816E+007, +7.75687133608E+001, +6.78144489128E+002
+2.11052565707E+007, +8.26895759752E+001, +6.82993913382E+002
+2.12302878598E+007, +8.29733630759E+001, +6.92337724494E+002
+2.13553191489E+007, +8.50762523021E+001, +6.95675333911E+002
+2.14803504380E+007, +8.44955384004E+001, +7.04881781983E+002
+2.16053817272E+007, +8.53816747082E+001, +7.10335683045E+002
+2.17304130163E+007, +8.42798716026E+001, +7.18821705939E+002
+2.18554443054E+007, +8.57613643800E+001, +7.23576543901E+002
+2.19804755945E+007, +8.62163738538E+001, +7.27371704827E+002
+2.21055068836E+007, +8.68367503633E+001, +7.34349694830E+002
+2.22305381727E+007, +8.90573763815E+001, +7.38482824640E+002
+2.23555694618E+007, +9.01862868279E+001, +7.48570806265E+002
+2.24806007509E+007, +9.06310429607E+001, +7.56621223414E+002
+2.26056320401E+007, +9.12937891417E+001, +7.61198220728E+002
+2.27306633292E+007, +9.40219317467E+001, +7.71449163435E+002
+2.28556946183E+007, +9.35427767817E+001, +7.74104467963E+002
+2.29807259074E+007, +9.24726367928E+001, +7.80872845014E+002
+2.31057571965E+007, +9.57308252909E+001, +7.86875451144E+002
+2.32307884856E+007, +9.68415898496E+001, +7.96504036739E+002
+2.33558197747E+007, +9.96099999139E+001, +7.97238259013E+002
+2.34808510638E+007, +9.85006667513E+001, +8.09611068610E+002
+2.36058823529E+007, +1.01826420784E+002, +8.12478392722E+002
+2.37309136421E+007, +1.02069446234E+002, +8.18387772726E+002
+2.38559449312E+007, +1.00771607753E+002, +8.27847387282E+002
+2.39809762203E+007, +1.04618709220E+002, +8.30296427227E+002
+2.41060075094E+007, +1.07069840200E+002, +8.44319342041E+002
+2.42310387985E+007, +1.03223846464E+002, +8.43975561459E+002
+2.43560700876E+007, +1.06552457002E+002, +8.53585038711E+002
+2.44811013767E+007, +1.07818834286E+002, +8.56941826457E+002
+2.46061326658E+007, +1.07333108005E+002, +8.64414075952E+002
+2.47311639549E+007, +1.10738738768E+002, +8.70541720254E+002
+2.48561952441E+007, +1.09783956147E+002, +8.76452945239E+002
+2.49812265332E+007, +1.09652153051E+002, +8.89203773923E+002
+2.51062578223E+007, +1.11068988275E+002, +8.96815601797E+002
+2.52312891114E+007, +1.08863697470E+002, +9.03265195686E+002
+2.53563204005E+007, +1.10100979731E+002, +9.10180892084E+002
+2.54813516896E+007, +1.12416340598E+002, +9.14405369799E+002
+2.56063829787E+007, +1.11710905563E+002, +9.25021758564E+002
+2.57314142678E+007, +1.16171414911E+002, +9.34390378067E+002
+2.58564455569E+007, +1.17151006977E+002, +9.45543600263E+002
+2.59814768461E+007, +1.14634999728E+002, +9.53228298437E+002
+2.61065081352E+007, +1.16346591593E+002, +9.57725926355E+002
+2.62315394243E+007, +1.19859025701E+002, +9.65264769558E+002
+2.63565707134E+007, +1.11577711819E+002, +9.75848139051E+002
+2.64816020025E+007, +1.18065220157E+002, +9.87751878046E+002
+2.66066332916E+007, +1.17718210704E+002, +9.94098039974E+002
+2.67316645807E+007, +1.21792129931E+002, +1.00116419029E+003
+2.68566958698E+007, +1.23527277674E+002, +1.01606881389E+003
+2.69817271589E+007, +1.19388117931E+002, +1.02137053971E+003
+2.71067584481E+007, +1.23436931881E+002, +1.03359336467E+003
+2.72317897372E+007, +1.24069997032E+002, +1.03908726403E+003
+2.73568210263E+007, +1.25970737528E+002, +1.05089814649E+003
+2.74818523154E+007, +1.34539974659E+002, +1.05913867678E+003
+2.76068836045E+007, +1.30239198938E+002, +1.06699875623E+003
+2.77319148936E+007, +1.30273864221E+002, +1.07510185507E+003
+2.78569461827E+007, +1.31728791291E+002, +1.08214836020E+003
+2.79819774718E+007, +1.23271011293E+002, +1.09624106548E+003
+2.81070087610E+007, +1.28492491595E+002, +1.10590159555E+003
+2.82320400501E+007, +1.34218130419E+002, +1.11943013065E+003
+2.83570713392E+007, +1.31688762513E+002, +1.12341453666E+003
+2.84821026283E+007, +1.39115217656E+002, +1.13828072121E+003
+2.86071339174E+007, +1.36859937524E+002, +1.15234512169E+003
+2.87321652065E+007, +1.33798030272E+002, +1.16193514470E+003
+2.88571964956E+007, +1.38629103436E+002, +1.17504844770E+003
+2.89822277847E+007, +1.42801120887E+002, +1.18447069657E+003
+2.91072590738E+007, +1.34921030298E+002, +1.19627068213E+003
+2.92322903630E+007, +1.44344922372E+002, +1.20800227868E+003
+2.93573216521E+007, +1.45169100208E+002, +1.22506674558E+003
+2.94823529412E+007, +1.45515642026E+002, +1.23838615191E+003
+2.96073842303E+007, +1.52885265663E+002, +1.24627989825E+003
+2.97324155194E+007, +1.44788904474E+002, +1.26004329346E+003
+2.98574468085E+007, +1.49365089918E+002, +1.27389642661E+003
+2.99824780976E+007, +1.54867514646E+002, +1.28168647891E+003
+3.01075093867E+007, +1.57859418910E+002, +1.30118568557E+003
+3.02325406758E+007, +1.55045356337E+002, +1.31317203278E+003
+3.03575719650E+007, +1.60088247274E+002, +1.32698013090E+003
+3.04826032541E+007, +1.61526070968E+002, +1.33674352317E+003
+3.06076345432E+007, +1.57357727828E+002, +1.35413473605E+003
+3.07326658323E+007, +1.63651768180E+002, +1.36466333311E+003
+3.08576971214E+007, +1.75426442417E+002, +1.37889582042E+003
+3.09827284105E+007, +1.64307977468E+002, +1.39139408004E+003
+3.11077596996E+007, +1.68265698464E+002, +1.40199302636E+003
+3.12327909887E+007, +1.61365088951E+002, +1.41960015922E+003
+3.13578222778E+007, +1.69118590558E+002, +1.43650446265E+003
+3.14828535670E+007, +1.78119497882E+002, +1.46395992802E+003
+3.16078848561E+007, +1.75346893183E+002, +1.46627330229E+003
+3.17329161452E+007, +1.86651901442E+002, +1.47938496985E+003
+3.18579474343E+007, +1.94374146278E+002, +1.48937925501E+003
+3.19829787234E+007, +1.91366988689E+002, +1.51363895032E+003
+3.21080100125E+007, +1.83526215162E+002, +1.53476417578E+003
+3.22330413016E+007, +1.87779199235E+002, +1.53777334940E+003
+3.23580725907E+007, +2.06661584463E+002, +1.56313470828E+003
+3.24831038798E+007, +2.11110901357E+002, +1.57982378907E+003
+3.26081351690E+007, +2.06602231531E+002, +1.60883851926E+003
+3.27331664581E+007, +2.08277769279E+002, +1.61063220573E+003
+3.28581977472E+007, +1.89199180895E+002, +1.62465807248E+003
+3.29832290363E+007, +2.11675679568E+002, +1.66065367069E+003
+3.31082603254E+007, +2.16632437405E+002, +1.68193724556E+003
+3.32332916145E+007, +2.22658586669E+002, +1.68725090964E+003
+3.33583229036E+007, +2.16121570407E+002, +1.70865677513E+003
+3.34833541927E+007, +2.28729649718E+002, +1.74648638945E+003
+3.36083854819E+007, +2.34494146072E+002, +1.75368930118E+003
+3.37334167710E+007, +2.46693174309E+002, +1.77593190281E+003
+3.38584480601E+007, +2.31182252407E+002, +1.78514414570E+003
+3.39834793492E+007, +2.41775961497E+002, +1.81880202925E+003
+3.41085106383E+007, +2.51553125803E+002, +1.84907449589E+003
+3.42335419274E+007, +2.60928553450E+002, +1.85633847311E+003
+3.43585732165E+007, +2.65540327749E+002, +1.88098120016E+003
+3.44836045056E+007, +2.78085715762E+002, +1.90338137192E+003
+3.46086357947E+007, +2.57918876177E+002, +1.92757883017E+003
+3.47336670839E+007, +2.93286513895E+002, +1.94767346976E+003
+3.48586983730E+007, +2.83444129307E+002, +1.98389271818E+003
+3.49837296621E+007, +2.85231216710E+002, +2.01218988766E+003
+3.51087609512E+007, +2.94888485233E+002, +2.02933777546E+003
+3.52337922403E+007, +2.97837707632E+002, +2.05657512012E+003
+3.53588235294E+007, +3.01600244572E+002, +2.10346966665E+003
+3.54838548185E+007, +3.41210555278E+002, +2.10681545572E+003
+3.56088861076E+007, +3.43712120593E+002, +2.12291990633E+003
+3.57339173967E+007, +3.33635682682E+002, +2.16085500361E+003
+3.58589486859E+007, +3.39093866003E+002, +2.19322652476E+003
+3.59839799750E+007, +3.62326879081E+002, +2.20616774162E+003
+3.61090112641E+007, +3.39016847275E+002, +2.25794783570E+003
+3.62340425532E+007, +3.48123956237E+002, +2.27804022859E+003
+3.63590738423E+007, +3.82510369159E+002, +2.32314907162E+003
+3.64841051314E+007, +4.06875550230E+002, +2.34889255732E+003
+3.66091364205E+007, +3.97019010724E+002, +2.37124634705E+003
+3.67341677096E+007, +4.05228791682E+002, +2.41120244147E+003
+3.68591989987E+007, +4.37274623819E+002, +2.43675455344E+003
+3.69842302879E+007, +4.04153505025E+002, +2.46743046185E+003
+3.71092615770E+007, +4.24885849215E+002, +2.54368820675E+003
+3.72342928661E+007, +4.37914068501E+002, +2.57697364380E+003
+3.73593241552E+007, +4.57954019429E+002, +2.61100222402E+003
+3.74843554443E+007, +4.76909928855E+002, +2.66305961753E+003
+3.76093867334E+007, +4.97282450279E+002, +2.70675833044E+003
+3.77344180225E+007, +4.93201799664E+002, +2.75220892307E+003
+3.78594493116E+007, +5.20796479641E+002, +2.78924075307E+003
+3.79844806008E+007, +5.03555854811E+002, +2.82619281391E+003
+3.81095118899E+007, +5.30724742547E+002, +2.87279671915E+003
+3.82345431790E+007, +4.96313433468E+002, +2.89592002336E+003
+3.83595744681E+007, +5.29273307243E+002, +2.99065853618E+003
+3.84846057572E+007, +5.86344597241E+002, +3.04375324086E+003
+3.86096370463E+007, +5.46307066349E+002, +3.08740456618E+003
+3.87346683354E+007, +6.10108695205E+002, +3.14789066393E+003
+3.88596996245E+007, +6.34162747722E+002, +3.23663584879E+003
+3.89847309136E+007, +6.24338481274E+002, +3.28620158004E+003
+3.91097622028E+007, +7.13176892160E+002, +3.34244692732E+003
+3.92347934919E+007, +6.92604813291E+002, +3.44502737661E+003
+3.93598247810E+007, +7.27240259123E+002, +3.50836593261E+003
+3.94848560701E+007, +7.34757415943E+002, +3.63828276714E+003
+3.96098873592E+007, +7.84749295399E+002, +3.62528584399E+003
+3.97349186483E+007, +8.19120962390E+002, +3.65081491664E+003
+3.98599499374E+007, +8.08459692220E+002, +3.81996750900E+003
+3.99849812265E+007, +9.78619625040E+002, +3.95284965506E+003
+4.01100125156E+007, +9.43492340984E+002, +3.97320930372E+003
