"# Channel 1"
"# Trace 1"
Frequency, Formatted Data, Formatted Data
+1.00000000000E+005, +1.02690774098E+002, +2.60292057183E+000
+3.18898623279E+005, +1.02728345478E+002, +8.85115371800E+000
+5.37797246558E+005, +1.02735804368E+002, +1.51461808308E+001
+7.56695869837E+005, +1.02760548459E+002, +2.11274026076E+001
+9.75594493116E+005, +1.02876455549E+002, +2.74674227861E+001
+1.19449311640E+006, +1.02681033128E+002, +3.33669052434E+001
+1.41339173967E+006, +1.02723738492E+002, +3.96591919066E+001
+1.63229036295E+006, +1.02809000050E+002, +4.58071712974E+001
+1.85118898623E+006, +1.02690217799E+002, +5.19688791444E+001
+2.07008760951E+006, +1.02694964482E+002, +5.82525820138E+001
+2.28898623279E+006, +1.03032425117E+002, +6.44491998063E+001
+2.50788485607E+006, +1.03006677960E+002, +7.03808179063E+001
+2.72678347935E+006, +1.02944477776E+002, +7.68869058420E+001
+2.94568210263E+006, +1.02965043767E+002, +8.28972682041E+001
+3.16458072591E+006, +1.02817594872E+002, +8.90178210215E+001
+3.38347934919E+006, +1.03359542660E+002, +9.53892331024E+001
+3.60237797247E+006, +1.02976183704E+002, +1.01099424909E+002
+3.82127659574E+006, +1.03272781069E+002, +1.07371013103E+002
+4.04017521902E+006, +1.03810701304E+002, +1.13575798841E+002
+4.25907384230E+006, +1.03356054318E+002, +1.19834497310E+002
+4.47797246558E+006, +1.03527831238E+002, +1.25842980328E+002
+4.69687108886E+006, +1.03518587315E+002, +1.32598973170E+002
+4.91576971214E+006, +1.03804316393E+002, +1.38409232135E+002
+5.13466833542E+006, +1.03904589712E+002, +1.44959258064E+002
+5.35356695870E+006, +1.04352760563E+002, +1.51227247889E+002
+5.57246558198E+006, +1.03915594964E+002, +1.57260464514E+002
+5.79136420526E+006, +1.05166398822E+002, +1.63681684251E+002
+6.01026282854E+006, +1.04992063461E+002, +1.69314512657E+002
+6.22916145181E+006, +1.05201544224E+002, +1.76289223447E+002
+6.44806007509E+006, +1.05432934562E+002, +1.82410570566E+002
+6.66695869837E+006, +1.05724127828E+002, +1.88890225310E+002
+6.88585732165E+006, +1.05978157495E+002, +1.95459409938E+002
+7.10475594493E+006, +1.06325364775E+002, +2.01580502970E+002
+7.32365456821E+006, +1.06747271543E+002, +2.07821153925E+002
+7.54255319149E+006, +1.06812349294E+002, +2.14301081524E+002
+7.76145181477E+006, +1.07496788677E+002, +2.20592211023E+002
+7.98035043805E+006, +1.07763765223E+002, +2.27259450175E+002
+8.19924906133E+006, +1.07935209975E+002, +2.33672732823E+002
+8.41814768461E+006, +1.08353864136E+002, +2.40134446772E+002
+8.63704630788E+006, +1.08645522387E+002, +2.46788905932E+002
+8.85594493116E+006, +1.08856940637E+002, +2.53431190492E+002
+9.07484355444E+006, +1.09066080602E+002, +2.60194871197E+002
+9.29374217772E+006, +1.09628345565E+002, +2.67283519480E+002
+9.51264080100E+006, +1.09893209709E+002, +2.73395999481E+002
+9.73153942428E+006, +1.10412167601E+002, +2.80413001077E+002
+9.95043804756E+006, +1.10065368005E+002, +2.87143350879E+002
+1.01693366708E+007, +1.10680438592E+002, +2.94185417629E+002
+1.03882352941E+007, +1.11184182995E+002, +3.00022561171E+002
+1.06071339174E+007, +1.11510618469E+002, +3.07096484804E+002
+1.08260325407E+007, +1.11819765329E+002, +3.14336633308E+002
+1.10449311640E+007, +1.12169490374E+002, +3.21155509486E+002
+1.12638297872E+007, +1.12779626614E+002, +3.29077220483E+002
+1.14827284105E+007, +1.13361225055E+002, +3.34985320478E+002
+1.17016270338E+007, +1.13848592406E+002, +3.41915073308E+002
+1.19205256571E+007, +1.14279019411E+002, +3.49570757495E+002
+1.21394242804E+007, +1.15054499747E+002, +3.56311818254E+002
+1.23583229036E+007, +1.16412439056E+002, +3.63857787363E+002
+1.25772215269E+007, +1.15376940856E+002, +3.71035902148E+002
+1.27961201502E+007, +1.16165856255E+002, +3.77850754043E+002
+1.30150187735E+007, +1.16727053659E+002, +3.85107806288E+002
+1.32339173967E+007, +1.17194057989E+002, +3.92993244747E+002
+1.34528160200E+007, +1.16761090099E+002, +4.00562092754E+002
+1.36717146433E+007, +1.18180298071E+002, +4.07368733846E+002
+1.38906132666E+007, +1.19185024993E+002, +4.15917505194E+002
+1.41095118899E+007, +1.20006666986E+002, +4.23442622716E+002
+1.43284105131E+007, +1.19303364476E+002, +4.31238019895E+002
+1.45473091364E+007, +1.20964969750E+002, +4.38632061326E+002
+1.47662077597E+007, +1.21631333856E+002, +4.45312186590E+002
+1.49851063830E+007, +1.21965004660E+002, +4.52663782082E+002
+1.52040050063E+007, +1.22969173743E+002, +4.62604752762E+002
+1.54229036295E+007, +1.23981166415E+002, +4.69548531151E+002
+1.56418022528E+007, +1.23349632263E+002, +4.77581967137E+002
+1.58607008761E+007, +1.25649195482E+002, +4.85342589317E+002
+1.60795994994E+007, +1.25487675819E+002, +4.95069813912E+002
+1.62984981227E+007, +1.26544173731E+002, +5.01418391944E+002
+1.65173967459E+007, +1.27375502796E+002, +5.10501846677E+002
+1.67362953692E+007, +1.28314186741E+002, +5.18382173717E+002
+1.69551939925E+007, +1.29912218792E+002, +5.26440797084E+002
+1.71740926158E+007, +1.27032356513E+002, +5.37030594071E+002
+1.73929912390E+007, +1.28359307822E+002, +5.46202100961E+002
+1.76118898623E+007, +1.30145507647E+002, +5.53069022711E+002
+1.78307884856E+007, +1.31782757722E+002, +5.61039226101E+002
+1.80496871089E+007, +1.33124697911E+002, +5.70695875198E+002
+1.82685857322E+007, +1.33509773764E+002, +5.80760710570E+002
+1.84874843554E+007, +1.35772787855E+002, +5.87700012007E+002
+1.87063829787E+007, +1.36094324647E+002, +5.96720407133E+002
+1.89252816020E+007, +1.38501391788E+002, +6.08340886179E+002
+1.91441802253E+007, +1.38559105101E+002, +6.12971662294E+002
+1.93630788486E+007, +1.38810455347E+002, +6.26227900309E+002
+1.95819774718E+007, +1.43309579164E+002, +6.34655106897E+002
+1.98008760951E+007, +1.42648871532E+002, +6.42433747926E+002
+2.00197747184E+007, +1.42193282656E+002, +6.54914940743E+002
+2.02386733417E+007, +1.42784894668E+002, +6.63324958937E+002
+2.04575719650E+007, +1.47985951930E+002, +6.71012736670E+002
+2.06764705882E+007, +1.46316940634E+002, +6.82623209262E+002
+2.08953692115E+007, +1.51737783252E+002, +6.95613393056E+002
+2.11142678348E+007, +1.49229475782E+002, +7.01507471678E+002
+2.13331664581E+007, +1.51173273383E+002, +7.13174746771E+002
+2.15520650814E+007, +1.53740397881E+002, +7.20698463080E+002
+2.17709637046E+007, +1.55286691475E+002, +7.32263574367E+002
+2.19898623279E+007, +1.60254268030E+002, +7.47624124883E+002
+2.22087609512E+007, +1.56052019028E+002, +7.54814566225E+002
+2.24276595745E+007, +1.61725795611E+002, +7.67874248047E+002
+2.26465581977E+007, +1.63246265012E+002, +7.78723202128E+002
+2.28654568210E+007, +1.66567017596E+002, +7.86224216834E+002
+2.30843554443E+007, +1.65710501815E+002, +7.96131794587E+002
+2.33032540676E+007, +1.72227106472E+002, +8.07770105750E+002
+2.35221526909E+007, +1.72997992899E+002, +8.23215979843E+002
+2.37410513141E+007, +1.74976377989E+002, +8.29820427948E+002
+2.39599499374E+007, +1.76358218343E+002, +8.42552141265E+002
+2.41788485607E+007, +1.79377526401E+002, +8.54065461226E+002
+2.43977471840E+007, +1.81854698877E+002, +8.69113702699E+002
+2.46166458073E+007, +1.83313652956E+002, +8.79429091907E+002
+2.48355444305E+007, +1.85146353369E+002, +8.90616106819E+002
+2.50544430538E+007, +1.88365943268E+002, +8.98466224198E+002
+2.52733416771E+007, +1.92772402131E+002, +9.15554413740E+002
+2.54922403004E+007, +1.91475610609E+002, +9.28623029071E+002
+2.57111389237E+007, +1.97184752618E+002, +9.43849504158E+002
+2.59300375469E+007, +1.94749627430E+002, +9.52404548365E+002
+2.61489361702E+007, +1.98304992932E+002, +9.65972688906E+002
+2.63678347935E+007, +2.00773855241E+002, +9.79426997527E+002
+2.65867334168E+007, +2.08226937600E+002, +9.92264813531E+002
+2.68056320401E+007, +2.07284421184E+002, +1.00529249318E+003
+2.70245306633E+007, +2.07752736758E+002, +1.01913616217E+003
+2.72434292866E+007, +2.04924195547E+002, +1.03304006104E+003
+2.74623279099E+007, +2.09724609890E+002, +1.05374740546E+003
+2.76812265332E+007, +2.12257379673E+002, +1.06630457384E+003
+2.79001251564E+007, +2.18930846292E+002, +1.08425783504E+003
+2.81190237797E+007, +2.24499821940E+002, +1.09742470989E+003
+2.83379224030E+007, +2.23849535516E+002, +1.10953351477E+003
+2.85568210263E+007, +2.19627386594E+002, +1.13397870183E+003
+2.87757196496E+007, +2.28971914509E+002, +1.15346113817E+003
+2.89946182728E+007, +2.30536395204E+002, +1.17225039079E+003
+2.92135168961E+007, +2.31521958759E+002, +1.18906177758E+003
+2.94324155194E+007, +2.43169313681E+002, +1.20801472204E+003
+2.96513141427E+007, +2.41583224179E+002, +1.22472580515E+003
+2.98702127660E+007, +2.44383394263E+002, +1.23969068678E+003
+3.00891113892E+007, +2.44358233271E+002, +1.25742209241E+003
+3.03080100125E+007, +2.60678020656E+002, +1.27658018060E+003
+3.05269086358E+007, +2.61265320012E+002, +1.29777479433E+003
+3.07458072591E+007, +2.64952261309E+002, +1.31218241999E+003
+3.09647058824E+007, +2.73754652647E+002, +1.33567716721E+003
+3.11836045056E+007, +2.74688677138E+002, +1.36090186054E+003
+3.14025031289E+007, +2.75472316326E+002, +1.37743041354E+003
+3.16214017522E+007, +2.87695010613E+002, +1.39695444338E+003
+3.18403003755E+007, +2.81366206400E+002, +1.43916824605E+003
+3.20591989987E+007, +2.88073436253E+002, +1.45431955378E+003
+3.22780976220E+007, +2.91388451970E+002, +1.47644747261E+003
+3.24969962453E+007, +2.98678246052E+002, +1.50029528699E+003
+3.27158948686E+007, +3.12189504998E+002, +1.51965504116E+003
+3.29347934919E+007, +3.23952931499E+002, +1.54758091036E+003
+3.31536921151E+007, +3.22775129629E+002, +1.56217910417E+003
+3.33725907384E+007, +3.39087374588E+002, +1.59960379574E+003
+3.35914893617E+007, +3.22815514984E+002, +1.61991701581E+003
+3.38103879850E+007, +3.46935133906E+002, +1.67536487469E+003
+3.40292866083E+007, +3.44534815842E+002, +1.69394629794E+003
+3.42481852315E+007, +3.71314731593E+002, +1.70449048572E+003
+3.44670838548E+007, +3.72827819497E+002, +1.74973559274E+003
+3.46859824781E+007, +3.77227617272E+002, +1.76297599653E+003
+3.49048811014E+007, +4.09036361816E+002, +1.80384264012E+003
+3.51237797247E+007, +4.02061677977E+002, +1.84434133594E+003
+3.53426783479E+007, +4.21057242624E+002, +1.87894618375E+003
+3.55615769712E+007, +4.23957211369E+002, +1.91711732699E+003
+3.57804755945E+007, +4.49756648075E+002, +1.93121901279E+003
+3.59993742178E+007, +4.55304127272E+002, +2.00136211968E+003
+3.62182728411E+007, +4.72372829213E+002, +2.01684027720E+003
+3.64371714643E+007, +4.84896197096E+002, +2.05966568119E+003
+3.66560700876E+007, +4.86663679130E+002, +2.12346665522E+003
+3.68749687109E+007, +5.42083764922E+002, +2.16087233198E+003
+3.70938673342E+007, +5.39024077870E+002, +2.17244616880E+003
+3.73127659574E+007, +5.47798806379E+002, +2.24020646034E+003
+3.75316645807E+007, +5.41026805389E+002, +2.27574587165E+003
+3.77505632040E+007, +5.88740752769E+002, +2.35941652779E+003
+3.79694618273E+007, +6.28357598729E+002, +2.37410238278E+003
+3.81883604506E+007, +6.06244342627E+002, +2.44661675895E+003
+3.84072590738E+007, +6.12227942655E+002, +2.50658243647E+003
+3.86261576971E+007, +6.58804115620E+002, +2.56533658407E+003
+3.88450563204E+007, +6.96060600322E+002, +2.63027060776E+003
+3.90639549437E+007, +7.38249734309E+002, +2.63045313375E+003
+3.92828535670E+007, +7.83568153189E+002, +2.76364549624E+003
+3.95017521902E+007, +8.03354639040E+002, +2.81829992888E+003
+3.97206508135E+007, +8.74694830315E+002, +2.88045888608E+003
+3.99395494368E+007, +9.10323504903E+002, +2.93001884575E+003
+4.01584480601E+007, +9.78926463172E+002, +3.01375028743E+003
+4.03773466834E+007, +1.03320155947E+003, +3.12027353159E+003
+4.05962453066E+007, +1.01108909071E+003, +3.24863711378E+003
+4.08151439299E+007, +1.12013925208E+003, +3.28387087913E+003
+4.10340425532E+007, +1.13846622864E+003, +3.35296791460E+003
+4.12529411765E+007, +1.15435334854E+003, +3.42188640858E+003
+4.14718397997E+007, +1.23869138007E+003, +3.56557289701E+003
+4.16907384230E+007, +1.38775425545E+003, +3.63112465062E+003
+4.19096370463E+007, +1.48779842124E+003, +3.75372924509E+003
+4.21285356696E+007, +1.45509802002E+003, +3.92809503770E+003
+4.23474342929E+007, +1.61791853512E+003, +4.02484497661E+003
+4.25663329161E+007, +1.73672778110E+003, +4.07525994512E+003
+4.27852315394E+007, +1.78831974963E+003, +4.23877002090E+003
+4.30041301627E+007, +2.04473443001E+003, +4.36186631627E+003
+4.32230287860E+007, +2.19861437415E+003, +4.56142623183E+003
+4.34419274093E+007, +2.43822117037E+003, +4.68228526481E+003
+4.36608260325E+007, +2.51529966915E+003, +4.80027041204E+003
+4.38797246558E+007, +2.72482677234E+003, +4.96068631805E+003
+4.40986232791E+007, +2.86112541638E+003, +5.15872339804E+003
+4.43175219024E+007, +3.39677906348E+003, +5.32457975793E+003
+4.45364205257E+007, +3.60504238251E+003, +5.46253484226E+003
+4.47553191489E+007, +4.02836673901E+003, +5.38724774212E+003
+4.49742177722E+007, +4.41921395290E+003, +6.01823566039E+003
+4.51931163955E+007, +4.60530404891E+003, +5.66157940246E+003
+4.54120150188E+007, +5.08974648061E+003, +6.14315902940E+003
+4.56309136421E+007, +5.67672981819E+003, +5.75591110297E+003
+4.58498122653E+007, +6.22645027940E+003, +5.97989641442E+003
+4.60687108886E+007, +7.15355124139E+003, +5.90276017796E+003
+4.62876095119E+007, +7.67079144897E+003, +5.39152127191E+003
+4.65065081352E+007, +8.35978030218E+003, +5.24983526669E+003
+4.67254067584E+007, +9.56901312612E+003, +5.43126836066E+003
+4.69443053817E+007, +9.18272155461E+003, +4.79603475966E+003
+4.71632040050E+007, +1.08956455338E+004, +4.42146055047E+003
+4.73821026283E+007, +1.11576824926E+004, +2.60443785960E+003
+4.76010012516E+007, +1.17908087128E+004, +2.26172315912E+003
+4.78198998748E+007, +1.27423049233E+004, +1.39540905346E+003
+4.80387984981E+007, +1.19191792695E+004, -7.00818921185E+002
+4.82576971214E+007, +1.17613493451E+004, -1.57625881628E+003
+4.84765957447E+007, +1.13800550301E+004, -2.36437844697E+003
+4.86954943680E+007, +1.06843220340E+004, -3.62482747730E+003
+4.89143929912E+007, +1.02595006917E+004, -4.42562472055E+003
+4.91332916145E+007, +9.67764951216E+003, -4.84379173211E+003
+4.93521902378E+007, +8.98167291656E+003, -5.65712073868E+003
+4.95710888611E+007, +8.07879960561E+003, -4.98100210122E+003
+4.97899874844E+007, +7.47246978190E+003, -5.38719859101E+003
+5.00088861076E+007, +6.64067527543E+003, -6.03601964647E+003
+5.02277847309E+007, +5.77396295728E+003, -5.88479679612E+003
+5.04466833542E+007, +5.47945078240E+003, -5.64324051512E+003
+5.06655819775E+007, +5.01373546424E+003, -5.84101628641E+003
+5.08844806008E+007, +4.65951254297E+003, -5.54378195768E+003
+5.11033792240E+007, +4.09426566854E+003, -5.54952485368E+003
+5.13222778473E+007, +3.64204685906E+003, -5.41873327641E+003
+5.15411764706E+007, +3.34639417712E+003, -5.22752110459E+003
+5.17600750939E+007, +3.17867725216E+003, -5.08463001348E+003
+5.19789737171E+007, +2.80951165302E+003, -4.95451974237E+003
+5.21978723404E+007, +2.60051482363E+003, -4.73805566836E+003
+5.24167709637E+007, +2.27414766482E+003, -4.81346829547E+003
+5.26356695870E+007, +2.27205531409E+003, -4.49188900242E+003
+5.28545682103E+007, +2.06064368930E+003, -4.30267470236E+003
+5.30734668335E+007, +1.88582968674E+003, -4.25884746995E+003
+5.32923654568E+007, +1.70709212577E+003, -4.13102086593E+003
+5.35112640801E+007, +1.77816895898E+003, -3.92744691544E+003
+5.37301627034E+007, +1.57761955327E+003, -3.84919177714E+003
+5.39490613267E+007, +1.39229070743E+003, -3.68468059229E+003
+5.41679599499E+007, +1.38124401118E+003, -3.62740372842E+003
+5.43868585732E+007, +1.25216254284E+003, -3.52707586390E+003
+5.46057571965E+007, +1.25920835424E+003, -3.45475894920E+003
+5.48246558198E+007, +1.19460916543E+003, -3.34669715238E+003
+5.50435544431E+007, +1.10605377166E+003, -3.19541000546E+003
+5.52624530663E+007, +1.05672183478E+003, -3.13442729700E+003
+5.54813516896E+007, +1.06426696763E+003, -3.08108167487E+003
+5.57002503129E+007, +9.88823672594E+002, -2.97571055784E+003
+5.59191489362E+007, +9.50350872587E+002, -2.91548694080E+003
+5.61380475594E+007, +8.86672553029E+002, -2.81370615267E+003
+5.63569461827E+007, +8.69756263969E+002, -2.74681937146E+003
+5.65758448060E+007, +8.28453575568E+002, -2.72557144781E+003
+5.67947434293E+007, +7.91984815530E+002, -2.62389503066E+003
+5.70136420526E+007, +7.76517992067E+002, -2.57971104256E+003
+5.72325406758E+007, +7.51161335733E+002, -2.53808246383E+003
+5.74514392991E+007, +6.96642403511E+002, -2.44738995545E+003
+5.76703379224E+007, +7.20605778985E+002, -2.41028917040E+003
+5.78892365457E+007, +6.55978212108E+002, -2.36136163545E+003
+5.81081351690E+007, +6.52656684669E+002, -2.27841259154E+003
+5.83270337922E+007, +6.29414036412E+002, -2.25961350766E+003
+5.85459324155E+007, +6.34340108270E+002, -2.19353015975E+003
+5.87648310388E+007, +6.10590493297E+002, -2.18090390585E+003
+5.89837296621E+007, +5.99557967608E+002, -2.13260615927E+003
+5.92026282854E+007, +5.89343176985E+002, -2.06800781256E+003
+5.94215269086E+007, +5.66872058603E+002, -2.03153045813E+003
+5.96404255319E+007, +5.20966766730E+002, -1.99802442348E+003
+5.98593241552E+007, +5.33318453600E+002, -1.95746219056E+003
+6.00782227785E+007, +5.12408833978E+002, -1.90352914948E+003
+6.02971214018E+007, +5.04937749710E+002, -1.87962856988E+003
+6.05160200250E+007, +4.95951809415E+002, -1.85070838301E+003
+6.07349186483E+007, +4.88764540821E+002, -1.81988047225E+003
+6.09538172716E+007, +4.56581945303E+002, -1.79017542500E+003
+6.11727158949E+007, +4.75289328289E+002, -1.73598699408E+003
+6.13916145181E+007, +4.49626820276E+002, -1.71702389904E+003
+6.16105131414E+007, +4.42262048486E+002, -1.70637499158E+003
+6.18294117647E+007, +4.40573366870E+002, -1.67753498414E+003
+6.20483103880E+007, +4.23585062044E+002, -1.65051051444E+003
+6.22672090113E+007, +4.15161937838E+002, -1.61387173453E+003
+6.24861076345E+007, +4.21036401886E+002, -1.58984339030E+003
+6.27050062578E+007, +4.07742451724E+002, -1.55710949372E+003
+6.29239048811E+007, +3.85048442047E+002, -1.53369549798E+003
+6.31428035044E+007, +3.80170867917E+002, -1.51974322914E+003
+6.33617021277E+007, +3.81721465807E+002, -1.48238470390E+003
+6.35806007509E+007, +3.62473457706E+002, -1.46239560619E+003
+6.37994993742E+007, +3.58446041187E+002, -1.44695740552E+003
+6.40183979975E+007, +3.55185185410E+002, -1.42195165991E+003
+6.42372966208E+007, +3.43794891005E+002, -1.39032323016E+003
+6.44561952441E+007, +3.47634710410E+002, -1.37325125238E+003
+6.46750938673E+007, +3.39388948115E+002, -1.34093683411E+003
+6.48939924906E+007, +3.34809106352E+002, -1.32487044393E+003
+6.51128911139E+007, +3.28711346679E+002, -1.29871293420E+003
+6.53317897372E+007, +3.36406394914E+002, -1.27453117627E+003
+6.55506883605E+007, +3.25296213331E+002, -1.25276581338E+003
+6.57695869837E+007, +3.17691652531E+002, -1.24359230221E+003
+6.59884856070E+007, +3.24531096469E+002, -1.21833090079E+003
+6.62073842303E+007, +3.10367329370E+002, -1.19874967595E+003
+6.64262828536E+007, +3.12557231154E+002, -1.18170976512E+003
+6.66451814768E+007, +3.08418429124E+002, -1.16158743997E+003
+6.68640801001E+007, +3.08920307087E+002, -1.14190384111E+003
+6.70829787234E+007, +3.06300990563E+002, -1.12775863776E+003
+6.73018773467E+007, +3.05615375939E+002, -1.10798790043E+003
+6.75207759700E+007, +3.09167966944E+002, -1.09357963821E+003
+6.77396745932E+007, +3.04244276866E+002, -1.08385063586E+003
+6.79585732165E+007, +3.03346503023E+002, -1.06250392174E+003
+6.81774718398E+007, +2.95177360297E+002, -1.04950658891E+003
+6.83963704631E+007, +3.01942803685E+002, -1.03692043328E+003
+6.86152690864E+007, +3.00697760336E+002, -1.02205742783E+003
+6.88341677096E+007, +2.93290125108E+002, -1.00750076837E+003
+6.90530663329E+007, +2.90826599900E+002, -9.91439125077E+002
+6.92719649562E+007, +2.90813743157E+002, -9.74218718120E+002
+6.94908635795E+007, +2.89085670180E+002, -9.57271791385E+002
+6.97097622028E+007, +2.83710989503E+002, -9.46213531081E+002
+6.99286608260E+007, +2.86151216911E+002, -9.30799272969E+002
+7.01475594493E+007, +2.85027952855E+002, -9.19654514813E+002
