"# Channel 1"
"# Trace 1"
Frequency, Formatted Data, Formatted Data
+1.00000000000E+005, +5.82777210800E+001, +2.33411379019E+000
+2.66777963272E+005, +5.81381006198E+001, +7.22651843979E+000
+4.33555926544E+005, +5.81229514287E+001, +1.17171684342E+001
+6.00333889816E+005, +5.81212025455E+001, +1.62274185802E+001
+7.67111853088E+005, +5.82692283735E+001, +2.06961522927E+001
+9.33889816361E+005, +5.81404349134E+001, +2.52710657933E+001
+1.10066777963E+006, +5.82785562634E+001, +2.99331504017E+001
+1.26744574290E+006, +5.82875008462E+001, +3.43361506927E+001
+1.43422370618E+006, +5.83044498030E+001, +3.89580453625E+001
+1.60100166945E+006, +5.82901194556E+001, +4.34214941667E+001
+1.76777963272E+006, +5.82772892003E+001, +4.78936796006E+001
+1.93455759599E+006, +5.81594641833E+001, +5.24514292255E+001
+2.10133555927E+006, +5.81998932406E+001, +5.69868598124E+001
+2.26811352254E+006, +5.84010684641E+001, +6.15686341104E+001
+2.43489148581E+006, +5.83601713774E+001, +6.61926084849E+001
+2.60166944908E+006, +5.83089421446E+001, +7.05937250883E+001
+2.76844741235E+006, +5.84164154550E+001, +7.52348458500E+001
+2.93522537563E+006, +5.83881395956E+001, +7.98929203687E+001
+3.10200333890E+006, +5.84804021266E+001, +8.42272631108E+001
+3.26878130217E+006, +5.83159257383E+001, +8.90657724290E+001
+3.43555926544E+006, +5.84276000395E+001, +9.34656468570E+001
+3.60233722871E+006, +5.87089318229E+001, +9.81382073198E+001
+3.76911519199E+006, +5.86754997889E+001, +1.02749188601E+002
+3.93589315526E+006, +5.83892063775E+001, +1.07233375741E+002
+4.10267111853E+006, +5.84811398907E+001, +1.12070348208E+002
+4.26944908180E+006, +5.88632229519E+001, +1.16853637139E+002
+4.43622704508E+006, +5.87488877162E+001, +1.21227085973E+002
+4.60300500835E+006, +5.89525038848E+001, +1.25907906909E+002
+4.76978297162E+006, +5.88379464691E+001, +1.30515647060E+002
+4.93656093489E+006, +5.91543515006E+001, +1.35035731374E+002
+5.10333889816E+006, +5.90835196639E+001, +1.39706276183E+002
+5.27011686144E+006, +5.97675522046E+001, +1.44495214029E+002
+5.43689482471E+006, +5.92339190373E+001, +1.49023129821E+002
+5.60367278798E+006, +5.95825331851E+001, +1.53940673449E+002
+5.77045075125E+006, +5.95017114044E+001, +1.58088053681E+002
+5.93722871452E+006, +5.98820538642E+001, +1.63229293971E+002
+6.10400667780E+006, +6.01769413653E+001, +1.68082234103E+002
+6.27078464107E+006, +6.01097304689E+001, +1.72420373513E+002
+6.43756260434E+006, +6.02667739805E+001, +1.77275903455E+002
+6.60434056761E+006, +6.03366692053E+001, +1.81825136458E+002
+6.77111853088E+006, +6.06841479680E+001, +1.86360847813E+002
+6.93789649416E+006, +6.07778694559E+001, +1.91314343701E+002
+7.10467445743E+006, +6.07609875420E+001, +1.95926385075E+002
+7.27145242070E+006, +6.07612534504E+001, +2.00530730597E+002
+7.43823038397E+006, +6.10087460593E+001, +2.05315358831E+002
+7.60500834725E+006, +6.09196718843E+001, +2.10270039553E+002
+7.77178631052E+006, +6.13328750091E+001, +2.15133557699E+002
+7.93856427379E+006, +6.12421218741E+001, +2.19841452485E+002
+8.10534223706E+006, +6.13104146696E+001, +2.24860135915E+002
+8.27212020033E+006, +6.12268932038E+001, +2.29480900859E+002
+8.43889816361E+006, +6.16734427101E+001, +2.34658639608E+002
+8.60567612688E+006, +6.13632982968E+001, +2.39663820717E+002
+8.77245409015E+006, +6.13787460969E+001, +2.44542577006E+002
+8.93923205342E+006, +6.16750963833E+001, +2.49605176284E+002
+9.10601001669E+006, +6.17685261370E+001, +2.54763648175E+002
+9.27278797997E+006, +6.19223158185E+001, +2.59438630791E+002
+9.43956594324E+006, +6.20367592731E+001, +2.64612172466E+002
+9.60634390651E+006, +6.23567387907E+001, +2.69649795124E+002
+9.77312186978E+006, +6.25955465838E+001, +2.74894599449E+002
+9.93989983306E+006, +6.29054731075E+001, +2.80037470513E+002
+1.01066777963E+007, +6.21047008079E+001, +2.85122678429E+002
+1.02734557596E+007, +6.27036968720E+001, +2.90418553595E+002
+1.04402337229E+007, +6.24278064827E+001, +2.95790234374E+002
+1.06070116861E+007, +6.25547090913E+001, +3.00625268985E+002
+1.07737896494E+007, +6.30628045909E+001, +3.06142842475E+002
+1.09405676127E+007, +6.41691024056E+001, +3.10880722474E+002
+1.11073455760E+007, +6.33829142439E+001, +3.16814522355E+002
+1.12741235392E+007, +6.39191670053E+001, +3.21764036969E+002
+1.14409015025E+007, +6.39087087530E+001, +3.27127698223E+002
+1.16076794658E+007, +6.39542737457E+001, +3.32402156902E+002
+1.17744574290E+007, +6.49747723382E+001, +3.38374948102E+002
+1.19412353923E+007, +6.46606532114E+001, +3.43265240816E+002
+1.21080133556E+007, +6.44110385171E+001, +3.49385635485E+002
+1.22747913189E+007, +6.54339294727E+001, +3.54580008597E+002
+1.24415692821E+007, +6.45498383750E+001, +3.60001593716E+002
+1.26083472454E+007, +6.50061426365E+001, +3.65896806716E+002
+1.27751252087E+007, +6.50692710696E+001, +3.70749164842E+002
+1.29419031720E+007, +6.49722631684E+001, +3.76466027025E+002
+1.31086811352E+007, +6.57651781191E+001, +3.82203071932E+002
+1.32754590985E+007, +6.63423049140E+001, +3.88394346814E+002
+1.34422370618E+007, +6.62198785323E+001, +3.93908863921E+002
+1.36090150250E+007, +6.67906730365E+001, +3.99526430917E+002
+1.37757929883E+007, +6.63192648991E+001, +4.05487668034E+002
+1.39425709516E+007, +6.68471984538E+001, +4.10972060711E+002
+1.41093489149E+007, +6.74019142941E+001, +4.17011840820E+002
+1.42761268781E+007, +6.77547341402E+001, +4.23186286009E+002
+1.44429048414E+007, +6.82272156775E+001, +4.28374564021E+002
+1.46096828047E+007, +6.75116520516E+001, +4.35591993247E+002
+1.47764607679E+007, +6.89227468091E+001, +4.39935968725E+002
+1.49432387312E+007, +6.84565321067E+001, +4.46981354145E+002
+1.51100166945E+007, +6.96379296302E+001, +4.53680529456E+002
+1.52767946578E+007, +6.99176058915E+001, +4.58158096844E+002
+1.54435726210E+007, +7.06823045194E+001, +4.64474058925E+002
+1.56103505843E+007, +7.14268972209E+001, +4.71113207685E+002
+1.57771285476E+007, +7.10697613491E+001, +4.77428956317E+002
+1.59439065109E+007, +7.15316282045E+001, +4.82009818836E+002
+1.61106844741E+007, +7.21811238049E+001, +4.89063451220E+002
+1.62774624374E+007, +7.37603111126E+001, +4.95792638058E+002
+1.64442404007E+007, +7.21316599280E+001, +5.01686605222E+002
+1.66110183639E+007, +7.30253958863E+001, +5.08209064891E+002
+1.67777963272E+007, +7.50254143812E+001, +5.16378798048E+002
+1.69445742905E+007, +7.48210148284E+001, +5.20560236459E+002
+1.71113522538E+007, +7.19712647997E+001, +5.28189744159E+002
+1.72781302170E+007, +7.42154611581E+001, +5.36219315803E+002
+1.74449081803E+007, +7.34281450666E+001, +5.41158615927E+002
+1.76116861436E+007, +7.58580234779E+001, +5.48591869007E+002
+1.77784641068E+007, +7.49216690930E+001, +5.54198172873E+002
+1.79452420701E+007, +7.67821718500E+001, +5.60301378729E+002
+1.81120200334E+007, +7.61700929888E+001, +5.66953721842E+002
+1.82787979967E+007, +7.75577147357E+001, +5.74472678894E+002
+1.84455759599E+007, +7.81692330582E+001, +5.81837585179E+002
+1.86123539232E+007, +7.92728596131E+001, +5.89010999974E+002
+1.87791318865E+007, +7.80188592046E+001, +5.97893956905E+002
+1.89459098497E+007, +7.93988902725E+001, +6.03970633363E+002
+1.91126878130E+007, +7.97378305203E+001, +6.10939345842E+002
+1.92794657763E+007, +8.03067804603E+001, +6.18532030625E+002
+1.94462437396E+007, +8.19366295197E+001, +6.26129727373E+002
+1.96130217028E+007, +8.24194933244E+001, +6.35346783922E+002
+1.97797996661E+007, +8.24182834141E+001, +6.40126795837E+002
+1.99465776294E+007, +8.08371725846E+001, +6.48988019959E+002
+2.01133555927E+007, +8.16863501338E+001, +6.56878345312E+002
+2.02801335559E+007, +8.50834675565E+001, +6.65449730753E+002
+2.04469115192E+007, +8.57460562332E+001, +6.74479586634E+002
+2.06136894825E+007, +8.59264727696E+001, +6.80474534414E+002
+2.07804674457E+007, +8.64741454294E+001, +6.89924871018E+002
+2.09472454090E+007, +8.83451423074E+001, +7.00318970101E+002
+2.11140233723E+007, +8.93994034295E+001, +7.04386870049E+002
+2.12808013356E+007, +9.07907163502E+001, +7.13806862047E+002
+2.14475792988E+007, +9.04622290575E+001, +7.22196882977E+002
+2.16143572621E+007, +9.41120818144E+001, +7.29407596369E+002
+2.17811352254E+007, +9.21318728275E+001, +7.38316014069E+002
+2.19479131886E+007, +9.72212966210E+001, +7.46801256836E+002
+2.21146911519E+007, +9.70757965162E+001, +7.54478268547E+002
+2.22814691152E+007, +9.69027013587E+001, +7.65258883141E+002
+2.24482470785E+007, +9.97749597098E+001, +7.74171670523E+002
+2.26150250417E+007, +1.02306207009E+002, +7.83407229853E+002
+2.27818030050E+007, +9.88182060023E+001, +7.92178339056E+002
+2.29485809683E+007, +1.07393889102E+002, +7.99186084888E+002
+2.31153589316E+007, +1.03117712002E+002, +8.11839045485E+002
+2.32821368948E+007, +1.07968997245E+002, +8.18427115182E+002
+2.34489148581E+007, +1.07693805261E+002, +8.27518706106E+002
+2.36156928214E+007, +1.12144798226E+002, +8.41238828257E+002
+2.37824707846E+007, +1.11217155326E+002, +8.49114927013E+002
+2.39492487479E+007, +1.11891268806E+002, +8.56248489036E+002
+2.41160267112E+007, +1.14223701886E+002, +8.67071493072E+002
+2.42828046745E+007, +1.15536809657E+002, +8.77757843059E+002
+2.44495826377E+007, +1.20074955417E+002, +8.84979993069E+002
+2.46163606010E+007, +1.18729335717E+002, +8.95078751155E+002
+2.47831385643E+007, +1.19052139375E+002, +9.07980096754E+002
+2.49499165275E+007, +1.29463410203E+002, +9.13570951819E+002
+2.51166944908E+007, +1.29528706480E+002, +9.23992520666E+002
+2.52834724541E+007, +1.31140699513E+002, +9.37612807547E+002
+2.54502504174E+007, +1.32425424484E+002, +9.47473871060E+002
+2.56170283806E+007, +1.32233103795E+002, +9.59932452936E+002
+2.57838063439E+007, +1.38207578374E+002, +9.69994386983E+002
+2.59505843072E+007, +1.43230180903E+002, +9.81244630065E+002
+2.61173622705E+007, +1.41542973831E+002, +9.92632923256E+002
+2.62841402337E+007, +1.42619446305E+002, +1.00396598625E+003
+2.64509181970E+007, +1.39316418293E+002, +1.01241079659E+003
+2.66176961603E+007, +1.49990264258E+002, +1.03134270077E+003
+2.67844741235E+007, +1.51363697389E+002, +1.03876212641E+003
+2.69512520868E+007, +1.53100484434E+002, +1.04782047588E+003
+2.71180300501E+007, +1.52507635010E+002, +1.05588524875E+003
+2.72848080134E+007, +1.54413828227E+002, +1.07214232557E+003
+2.74515859766E+007, +1.60430895405E+002, +1.08575373178E+003
+2.76183639399E+007, +1.56460363195E+002, +1.09787829970E+003
+2.77851419032E+007, +1.60205430270E+002, +1.10852602484E+003
+2.79519198664E+007, +1.67071947585E+002, +1.11957186297E+003
+2.81186978297E+007, +1.67015954512E+002, +1.12725741767E+003
+2.82854757930E+007, +1.73507456578E+002, +1.14175200648E+003
+2.84522537563E+007, +1.61395855618E+002, +1.16166424987E+003
+2.86190317195E+007, +1.70336275348E+002, +1.16968732602E+003
+2.87858096828E+007, +1.82946490038E+002, +1.18795515200E+003
+2.89525876461E+007, +1.77884220634E+002, +1.19730845140E+003
+2.91193656093E+007, +1.75225507345E+002, +1.20806632296E+003
+2.92861435726E+007, +1.82516720611E+002, +1.23106451682E+003
+2.94529215359E+007, +1.90057611641E+002, +1.24689919245E+003
+2.96196994992E+007, +1.93408383603E+002, +1.25487583510E+003
+2.97864774624E+007, +1.97669968557E+002, +1.27254336625E+003
+2.99532554257E+007, +2.04636711716E+002, +1.28930458769E+003
+3.01200333890E+007, +1.96605039911E+002, +1.31339220720E+003
+3.02868113523E+007, +1.99331472687E+002, +1.32958673145E+003
+3.04535893155E+007, +2.04698397840E+002, +1.34815450395E+003
+3.06203672788E+007, +2.18771180932E+002, +1.36345485634E+003
+3.07871452421E+007, +2.15969747435E+002, +1.37233960318E+003
+3.09539232053E+007, +2.23220171210E+002, +1.38948317616E+003
+3.11207011686E+007, +2.18994877599E+002, +1.42061182556E+003
+3.12874791319E+007, +2.19313634421E+002, +1.41933244957E+003
+3.14542570952E+007, +2.20351125882E+002, +1.46300587913E+003
+3.16210350584E+007, +2.26158646845E+002, +1.47771263583E+003
+3.17878130217E+007, +2.28088594207E+002, +1.49467587570E+003
+3.19545909850E+007, +2.30099317987E+002, +1.51395904733E+003
+3.21213689482E+007, +2.40177690455E+002, +1.54451300460E+003
+3.22881469115E+007, +2.32969203478E+002, +1.56745722625E+003
+3.24549248748E+007, +2.45182748782E+002, +1.59081355833E+003
+3.26217028381E+007, +2.53987527215E+002, +1.60634570563E+003
+3.27884808013E+007, +2.71149111523E+002, +1.63013391091E+003
+3.29552587646E+007, +2.71706599652E+002, +1.64140674671E+003
+3.31220367279E+007, +2.73596368145E+002, +1.66692513652E+003
+3.32888146912E+007, +2.80605582641E+002, +1.69661907912E+003
+3.34555926544E+007, +2.80286045414E+002, +1.72896939561E+003
+3.36223706177E+007, +2.87483699839E+002, +1.74473888295E+003
+3.37891485810E+007, +2.92970516682E+002, +1.77310459473E+003
+3.39559265442E+007, +2.98782807834E+002, +1.81807655122E+003
+3.41227045075E+007, +3.00320494170E+002, +1.82091724514E+003
+3.42894824708E+007, +3.06392562299E+002, +1.85800171944E+003
+3.44562604341E+007, +3.16287293280E+002, +1.89432912848E+003
+3.46230383973E+007, +3.36057783600E+002, +1.93831219577E+003
+3.47898163606E+007, +3.37136841078E+002, +1.94330645598E+003
+3.49565943239E+007, +3.72675092324E+002, +1.99961874407E+003
+3.51233722871E+007, +3.55581020925E+002, +2.01239963828E+003
+3.52901502504E+007, +3.66034193837E+002, +2.02470959927E+003
+3.54569282137E+007, +3.75745956964E+002, +2.08539285236E+003
+3.56237061770E+007, +3.83993887921E+002, +2.13843814181E+003
+3.57904841402E+007, +3.76666352848E+002, +2.18571471207E+003
+3.59572621035E+007, +4.16194881679E+002, +2.21594715695E+003
+3.61240400668E+007, +4.23302750292E+002, +2.25024700573E+003
+3.62908180301E+007, +4.39151044525E+002, +2.30450624541E+003
+3.64575959933E+007, +4.70503037996E+002, +2.34876898658E+003
+3.66243739566E+007, +4.82995252613E+002, +2.37562792196E+003
+3.67911519199E+007, +5.07713459131E+002, +2.42035705698E+003
+3.69579298831E+007, +4.94312638210E+002, +2.48585663792E+003
+3.71247078464E+007, +5.44371662917E+002, +2.55019499009E+003
+3.72914858097E+007, +5.75266330347E+002, +2.60088204788E+003
+3.74582637730E+007, +6.23543591238E+002, +2.69104439424E+003
+3.76250417362E+007, +6.13465388822E+002, +2.69975341880E+003
+3.77918196995E+007, +6.05083316435E+002, +2.76840306419E+003
+3.79585976628E+007, +6.52437422658E+002, +2.82642159706E+003
+3.81253756260E+007, +6.79757208207E+002, +2.87905056663E+003
+3.82921535893E+007, +7.24303776141E+002, +2.93884015934E+003
+3.84589315526E+007, +7.59372249094E+002, +3.05464998181E+003
+3.86257095159E+007, +7.75253400772E+002, +3.09859691587E+003
+3.87924874791E+007, +8.32582071447E+002, +3.17147643307E+003
+3.89592654424E+007, +9.13958416120E+002, +3.26016338242E+003
+3.91260434057E+007, +9.41702542930E+002, +3.37002775135E+003
+3.92928213689E+007, +9.89371259770E+002, +3.41741022038E+003
+3.94595993322E+007, +1.03309449852E+003, +3.58068564270E+003
+3.96263772955E+007, +1.07186288630E+003, +3.63439374321E+003
+3.97931552588E+007, +1.17810046980E+003, +3.74258145525E+003
+3.99599332220E+007, +1.17989277849E+003, +3.85992040305E+003
+4.01267111853E+007, +1.25297694447E+003, +3.91021199984E+003
+4.02934891486E+007, +1.23379163079E+003, +4.04092377098E+003
+4.04602671119E+007, +1.47633665408E+003, +4.13705488189E+003
+4.06270450751E+007, +1.58212152823E+003, +4.33641836737E+003
+4.07938230384E+007, +1.69234413243E+003, +4.38839400786E+003
+4.09606010017E+007, +1.89809088912E+003, +4.55073367606E+003
+4.11273789649E+007, +1.96967763502E+003, +4.64947635604E+003
+4.12941569282E+007, +2.09094616884E+003, +4.85315766493E+003
+4.14609348915E+007, +2.35907161264E+003, +5.16814460878E+003
+4.16277128548E+007, +2.60584060179E+003, +5.26988818222E+003
+4.17944908180E+007, +2.60441629460E+003, +5.31647191871E+003
+4.19612687813E+007, +2.94571184996E+003, +5.41602153979E+003
+4.21280467446E+007, +3.26276943140E+003, +5.76961529775E+003
+4.22948247078E+007, +3.60745973258E+003, +5.91399520482E+003
+4.24616026711E+007, +3.88687035071E+003, +5.81091847469E+003
+4.26283806344E+007, +4.43223217939E+003, +6.04615774459E+003
+4.27951585977E+007, +4.76011574522E+003, +6.79274208008E+003
+4.29619365609E+007, +5.37266236176E+003, +6.27951035896E+003
+4.31287145242E+007, +6.22593776448E+003, +6.48235915294E+003
+4.32954924875E+007, +6.78716312376E+003, +6.46386720142E+003
+4.34622704508E+007, +7.44516724439E+003, +6.64409723611E+003
+4.36290484140E+007, +8.13119837214E+003, +6.33541503474E+003
+4.37958263773E+007, +9.68959045008E+003, +6.31048624144E+003
+4.39626043406E+007, +9.90851830499E+003, +5.78213920076E+003
+4.41293823038E+007, +1.09660722065E+004, +4.11634727359E+003
+4.42961602671E+007, +1.15352593789E+004, +3.64565425062E+003
+4.44629382304E+007, +1.25718634336E+004, +2.70381883381E+003
+4.46297161937E+007, +1.33029853639E+004, +1.63382819235E+003
+4.47964941569E+007, +1.30860648870E+004, -3.04933941993E+002
+4.49632721202E+007, +1.29741717546E+004, -1.49560726208E+003
+4.51300500835E+007, +1.30886403575E+004, -2.77443706369E+003
+4.52968280467E+007, +1.14414643896E+004, -3.47207056369E+003
+4.54636060100E+007, +1.03880272086E+004, -4.67921281100E+003
+4.56303839733E+007, +9.40348196059E+003, -5.97928785447E+003
+4.57971619366E+007, +8.46029370069E+003, -5.74936842220E+003
+4.59639398998E+007, +7.00824314805E+003, -6.40925217545E+003
+4.61307178631E+007, +6.83527375290E+003, -5.97873484873E+003
+4.62974958264E+007, +5.92525948941E+003, -6.21204167081E+003
+4.64642737896E+007, +5.48421281361E+003, -6.04502880533E+003
+4.66310517529E+007, +4.63706846749E+003, -5.82202417002E+003
+4.67978297162E+007, +4.41776433573E+003, -5.38222673190E+003
+4.69646076795E+007, +3.83741448732E+003, -5.52571506882E+003
+4.71313856427E+007, +3.63633038066E+003, -5.31163792729E+003
+4.72981636060E+007, +3.29400663728E+003, -5.19212597469E+003
+4.74649415693E+007, +3.05793926799E+003, -4.93076773115E+003
+4.76317195326E+007, +2.88308938403E+003, -4.75402570596E+003
+4.77984974958E+007, +2.73892429973E+003, -4.33646730916E+003
+4.79652754591E+007, +2.48379122266E+003, -4.29476534404E+003
+4.81320534224E+007, +2.36276270135E+003, -4.24363594903E+003
+4.82988313856E+007, +2.25876582993E+003, -4.02064913120E+003
+4.84656093489E+007, +2.18949747121E+003, -3.92762462966E+003
+4.86323873122E+007, +2.10334658245E+003, -3.76305922342E+003
+4.87991652755E+007, +1.89161992835E+003, -3.60331860383E+003
+4.89659432387E+007, +1.91631614268E+003, -3.55518583805E+003
+4.91327212020E+007, +1.77684432510E+003, -3.43056688794E+003
+4.92994991653E+007, +1.76764914663E+003, -3.29740015070E+003
+4.94662771285E+007, +1.69678690299E+003, -3.18375754329E+003
+4.96330550918E+007, +1.65155462408E+003, -3.14767894992E+003
+4.97998330551E+007, +1.62607200366E+003, -3.05393304921E+003
+4.99666110184E+007, +1.54913215823E+003, -2.98872823659E+003
+5.01333889816E+007, +1.55275147323E+003, -2.96002426012E+003
+5.03001669449E+007, +1.43488508518E+003, -2.94086891923E+003
+5.04669449082E+007, +1.42206505921E+003, -2.85525858387E+003
+5.06337228715E+007, +1.38191144738E+003, -2.80358349368E+003
+5.08005008347E+007, +1.33789839071E+003, -2.79415946698E+003
+5.09672787980E+007, +1.34803785674E+003, -2.73821222971E+003
+5.11340567613E+007, +1.28115412893E+003, -2.68907257070E+003
+5.13008347245E+007, +1.21109290036E+003, -2.69559883490E+003
+5.14676126878E+007, +1.15434548188E+003, -2.63341665858E+003
+5.16343906511E+007, +1.12543745687E+003, -2.58035037438E+003
+5.18011686144E+007, +1.04930265260E+003, -2.58230573908E+003
+5.19679465776E+007, +1.00951975937E+003, -2.52269865594E+003
+5.21347245409E+007, +9.51333318316E+002, -2.49028399455E+003
+5.23015025042E+007, +9.01241246504E+002, -2.40158231480E+003
+5.24682804674E+007, +8.28567255899E+002, -2.38668548637E+003
+5.26350584307E+007, +8.28559428750E+002, -2.35231352196E+003
+5.28018363940E+007, +7.57188627684E+002, -2.32437062155E+003
+5.29686143573E+007, +7.21136964722E+002, -2.24579972471E+003
+5.31353923205E+007, +7.18731742304E+002, -2.21408267144E+003
+5.33021702838E+007, +6.64653981615E+002, -2.16901573405E+003
+5.34689482471E+007, +6.51151621016E+002, -2.12109864526E+003
