"# Channel 1"
"# Trace 1"
Frequency, Formatted Data, Formatted Data
+1.00000000000E+005, +9.25218667592E-001, +2.63504613325E+000
+2.25031289111E+005, +9.37724768889E-001, +5.87080605524E+000
+3.50062578223E+005, +9.79054383953E-001, +9.12459500549E+000
+4.75093867334E+005, +1.00358501958E+000, +1.23410347260E+001
+6.00125156446E+005, +1.05917409287E+000, +1.55603850927E+001
+7.25156445557E+005, +1.09197347309E+000, +1.87645252296E+001
+8.50187734668E+005, +1.15656063227E+000, +2.19793354174E+001
+9.75219023780E+005, +1.19501139222E+000, +2.51968408423E+001
+1.10025031289E+006, +1.25605230434E+000, +2.83898779608E+001
+1.22528160200E+006, +1.29489122266E+000, +3.15862546598E+001
+1.35031289111E+006, +1.35029283811E+000, +3.47748576950E+001
+1.47534418023E+006, +1.39419057206E+000, +3.79795960056E+001
+1.60037546934E+006, +1.41194198278E+000, +4.11313125331E+001
+1.72540675845E+006, +1.46608160044E+000, +4.43457317859E+001
+1.85043804756E+006, +1.51473272216E+000, +4.75063414099E+001
+1.97546933667E+006, +1.54557022433E+000, +5.06803249717E+001
+2.10050062578E+006, +1.56257040286E+000, +5.38420423090E+001
+2.22553191489E+006, +1.61514681149E+000, +5.70210854879E+001
+2.35056320401E+006, +1.67095936433E+000, +6.02135185727E+001
+2.47559449312E+006, +1.69589651835E+000, +6.33874390075E+001
+2.60062578223E+006, +1.70155712464E+000, +6.65498183863E+001
+2.72565707134E+006, +1.75802960783E+000, +6.97504130933E+001
+2.85068836045E+006, +1.71643773877E+000, +7.29578523313E+001
+2.97571964956E+006, +1.82631081067E+000, +7.61391224185E+001
+3.10075093867E+006, +1.79491920539E+000, +7.92813556924E+001
+3.22578222778E+006, +1.88093918209E+000, +8.24552341300E+001
+3.35081351690E+006, +1.80484687492E+000, +8.56361677025E+001
+3.47584480601E+006, +1.87061104860E+000, +8.88530754637E+001
+3.60087609512E+006, +1.88521829138E+000, +9.20888900074E+001
+3.72590738423E+006, +1.85833276756E+000, +9.51923672047E+001
+3.85093867334E+006, +1.62398414764E+000, +9.85418171418E+001
+3.97596996245E+006, +1.47918348650E+000, +1.01998718539E+002
+4.10100125156E+006, +4.70645564554E+000, +1.04667776219E+002
+4.22603254068E+006, +2.17315791374E+000, +1.07650691362E+002
+4.35106382979E+006, +2.04016663487E+000, +1.11035909009E+002
+4.47609511890E+006, +2.05540351250E+000, +1.14385261982E+002
+4.60112640801E+006, +1.95244977228E+000, +1.17692624343E+002
+4.72615769712E+006, +2.10419242437E+000, +1.20717067358E+002
+4.85118898623E+006, +2.07730287394E+000, +1.24065928605E+002
+4.97622027534E+006, +2.10541505595E+000, +1.27309179163E+002
+5.10125156446E+006, +2.03414527832E+000, +1.30495624334E+002
+5.22628285357E+006, +2.12797107713E+000, +1.33900043356E+002
+5.35131414268E+006, +2.09851967027E+000, +1.37090343258E+002
+5.47634543179E+006, +2.18262046688E+000, +1.40297050203E+002
+5.60137672090E+006, +2.17402296046E+000, +1.43521102478E+002
+5.72640801001E+006, +2.15488017955E+000, +1.46750099202E+002
+5.85143929912E+006, +2.11304914473E+000, +1.50020876475E+002
+5.97647058824E+006, +2.05855493939E+000, +1.53238057229E+002
+6.10150187735E+006, +2.08857185433E+000, +1.56496705882E+002
+6.22653316646E+006, +2.10430500464E+000, +1.59696950600E+002
+6.35156445557E+006, +2.16655690088E+000, +1.63196498725E+002
+6.47659574468E+006, +2.04427183276E+000, +1.66443387046E+002
+6.60162703379E+006, +2.15611374483E+000, +1.69841750007E+002
+6.72665832290E+006, +2.20415808647E+000, +1.73143655804E+002
+6.85168961202E+006, +2.30345212666E+000, +1.76480262843E+002
+6.97672090113E+006, +2.18140788855E+000, +1.79708588965E+002
+7.10175219024E+006, +2.35783027448E+000, +1.83186298369E+002
+7.22678347935E+006, +2.47713371962E+000, +1.86602487720E+002
+7.35181476846E+006, +2.41924366419E+000, +1.89808888924E+002
+7.47684605757E+006, +2.25943644321E+000, +1.93022413591E+002
+7.60187734668E+006, +2.50732900986E+000, +1.96387982779E+002
+7.72690863579E+006, +2.75248224091E+000, +1.99860199029E+002
+7.85193992491E+006, +2.38597879689E+000, +2.03062139973E+002
+7.97697121402E+006, +2.50771521226E+000, +2.06493762260E+002
+8.10200250313E+006, +2.63906671075E+000, +2.09717544273E+002
+8.22703379224E+006, +2.64460805605E+000, +2.13191874486E+002
+8.35206508135E+006, +2.65389453812E+000, +2.16633395223E+002
+8.47709637046E+006, +2.53576236999E+000, +2.19912046477E+002
+8.60212765957E+006, +2.61606727591E+000, +2.23040354926E+002
+8.72715894869E+006, +3.05635966723E+000, +2.26052764668E+002
+8.85219023780E+006, +3.20380894605E+000, +2.29491127856E+002
+8.97722152691E+006, +3.12828121395E+000, +2.32754820767E+002
+9.10225281602E+006, +3.29318398635E+000, +2.36499699473E+002
+9.22728410513E+006, +2.86503775814E+000, +2.39959809141E+002
+9.35231539424E+006, +2.53426170238E+000, +2.43501921169E+002
+9.47734668335E+006, +3.07074327913E+000, +2.46439762337E+002
+9.60237797247E+006, +3.23307204572E+000, +2.49311946734E+002
+9.72740926158E+006, +3.57804777815E+000, +2.52210359730E+002
+9.85244055069E+006, +3.73759777471E+000, +2.55092106816E+002
+9.97747183980E+006, +4.09204774453E+000, +2.58174656708E+002
+1.01025031289E+007, +3.75312030475E+000, +2.61223864885E+002
+1.02275344180E+007, +4.14455620227E+000, +2.64566291546E+002
+1.03525657071E+007, +4.07943935725E+000, +2.68104972873E+002
+1.04775969962E+007, +4.01362616754E+000, +2.71122955368E+002
+1.06026282854E+007, +4.29662062560E+000, +2.75025539154E+002
+1.07276595745E+007, +3.50362322661E+000, +2.78670423580E+002
+1.08526908636E+007, +3.87544496426E+000, +2.82381156772E+002
+1.09777221527E+007, +3.40067024582E+000, +2.86427065805E+002
+1.11027534418E+007, +3.32726831203E+000, +2.90490043213E+002
+1.12277847309E+007, +3.33705399471E+000, +2.94684003022E+002
+1.13528160200E+007, +2.93540978248E+000, +2.98872756710E+002
+1.14778473091E+007, +2.81814152057E+000, +3.02902966346E+002
+1.16028785982E+007, +2.72459623649E+000, +3.06568599342E+002
+1.17279098874E+007, +2.65053604955E+000, +3.09423023016E+002
+1.18529411765E+007, +2.55331743290E+000, +3.13410313208E+002
+1.19779724656E+007, +2.48185237550E+000, +3.16858028318E+002
+1.21030037547E+007, +2.36845991629E+000, +3.20473176345E+002
+1.22280350438E+007, +2.95722084144E+000, +3.23935633942E+002
+1.23530663329E+007, +2.51249753922E+000, +3.28242665115E+002
+1.24780976220E+007, +2.50977964876E+000, +3.31833601397E+002
+1.26031289111E+007, +2.23232585786E+000, +3.35955997960E+002
+1.27281602003E+007, +2.45907700652E+000, +3.38980812971E+002
+1.28531914894E+007, +2.44211374098E+000, +3.42718769791E+002
+1.29782227785E+007, +2.60227617911E+000, +3.46228418287E+002
+1.31032540676E+007, +2.09746109648E+000, +3.49654260523E+002
+1.32282853567E+007, +2.34236627606E+000, +3.53603021493E+002
+1.33533166458E+007, +2.26473558154E+000, +3.57389656846E+002
+1.34783479349E+007, +2.05371514254E+000, +3.61062943246E+002
+1.36033792240E+007, +2.42122967393E+000, +3.65231652237E+002
+1.37284105131E+007, +2.33209775294E+000, +3.68765609068E+002
+1.38534418023E+007, +2.48963868459E+000, +3.73246614672E+002
+1.39784730914E+007, +2.42787214255E+000, +3.77136977022E+002
+1.41035043805E+007, +1.68218845128E+000, +3.80697702101E+002
+1.42285356696E+007, +2.58997170496E+000, +3.84515065097E+002
+1.43535669587E+007, +2.28736173451E+000, +3.88732344838E+002
+1.44785982478E+007, +2.51419006948E+000, +3.92344664863E+002
+1.46036295369E+007, +2.47836681981E+000, +3.95698156116E+002
+1.47286608260E+007, +2.20026450191E+000, +3.99280013686E+002
+1.48536921151E+007, +1.33086006916E+000, +4.03714753994E+002
+1.49787234043E+007, +1.74100640770E+000, +4.07943090062E+002
+1.51037546934E+007, +1.72680233650E+000, +4.11981294317E+002
+1.52287859825E+007, +1.55623388196E+000, +4.15813509771E+002
+1.53538172716E+007, +2.18560541193E+000, +4.19980849949E+002
+1.54788485607E+007, +2.03841249361E+000, +4.24691237566E+002
+1.56038798498E+007, +2.89383367812E+000, +4.28926250579E+002
+1.57289111389E+007, +1.71707542612E+000, +4.32063221402E+002
+1.58539424280E+007, +2.63528940210E+000, +4.36425524485E+002
+1.59789737171E+007, +1.55733052039E+000, +4.40540299632E+002
+1.61040050063E+007, +2.16870007872E+000, +4.44937442791E+002
+1.62290362954E+007, +1.42430340972E+000, +4.49558752438E+002
+1.63540675845E+007, +1.59673214744E+000, +4.52859337848E+002
+1.64790988736E+007, +1.56007408881E+000, +4.57136430482E+002
+1.66041301627E+007, +2.40828700198E+000, +4.61964945836E+002
+1.67291614518E+007, +2.01784689626E+000, +4.65807331516E+002
+1.68541927409E+007, +1.92799479412E+000, +4.70563068571E+002
+1.69792240300E+007, +1.48037741593E+000, +4.74974609899E+002
+1.71042553191E+007, +1.45199959045E+000, +4.79512018167E+002
+1.72292866083E+007, +1.54590986463E+000, +4.83173726124E+002
+1.73543178974E+007, +1.27573066705E+000, +4.87424225020E+002
+1.74793491865E+007, +2.19243299452E+000, +4.91134866570E+002
+1.76043804756E+007, +2.26027890941E+000, +4.95884374211E+002
+1.77294117647E+007, +1.18509963559E+000, +5.00601063606E+002
+1.78544430538E+007, +2.30234722962E+000, +5.05850000589E+002
+1.79794743429E+007, +1.79704048905E+000, +5.08715429343E+002
+1.81045056320E+007, +1.63075740811E+000, +5.12964146545E+002
+1.82295369212E+007, +1.39743858453E+000, +5.18488918339E+002
+1.83545682103E+007, +4.02637109742E-001, +5.23932305572E+002
+1.84795994994E+007, +8.66421077178E-001, +5.28041661026E+002
+1.86046307885E+007, +1.34692021546E+000, +5.32531409824E+002
+1.87296620776E+007, +1.64305977637E+000, +5.36239247387E+002
+1.88546933667E+007, +9.24099504549E-001, +5.42589447028E+002
+1.89797246558E+007, +1.96219331745E+000, +5.47459204844E+002
+1.91047559449E+007, +9.55349137164E-001, +5.50618655125E+002
+1.92297872340E+007, +1.76060090160E+000, +5.55193644006E+002
+1.93548185232E+007, +2.40412126872E+000, +5.60490247272E+002
+1.94798498123E+007, +1.47870347542E+000, +5.65917342388E+002
+1.96048811014E+007, +2.61837707305E+000, +5.69646343015E+002
+1.97299123905E+007, +1.70048649690E+000, +5.74210042202E+002
+1.98549436796E+007, +2.82638681307E+000, +5.80590325269E+002
+1.99799749687E+007, +3.00716686184E+000, +5.85505587035E+002
+2.01050062578E+007, +2.19136513409E+000, +5.89671271994E+002
+2.02300375469E+007, +1.91469344492E+000, +5.93790744353E+002
+2.03550688360E+007, +1.68539625248E+000, +5.99932244877E+002
+2.04801001252E+007, +2.30922775883E+000, +6.05102843632E+002
+2.06051314143E+007, +2.82033955264E+000, +6.09512180371E+002
+2.07301627034E+007, +2.52524241796E+000, +6.15852522691E+002
+2.08551939925E+007, +2.54261358811E+000, +6.21187924662E+002
+2.09802252816E+007, +2.43889022280E+000, +6.26096772000E+002
+2.11052565707E+007, +2.10277956756E+000, +6.31846134259E+002
+2.12302878598E+007, +3.14721512816E+000, +6.35729814139E+002
+2.13553191489E+007, +2.04366955956E+000, +6.42105818429E+002
+2.14803504380E+007, +3.24465784022E+000, +6.47400648054E+002
+2.16053817272E+007, +2.42148185300E+000, +6.53396171926E+002
+2.17304130163E+007, +3.94530103786E+000, +6.57593024401E+002
+2.18554443054E+007, +3.61252129310E+000, +6.62984115745E+002
+2.19804755945E+007, +1.59892911598E+000, +6.69487233368E+002
+2.21055068836E+007, +4.38109545811E+000, +6.74367654795E+002
+2.22305381727E+007, +4.23852051762E+000, +6.80477918690E+002
+2.23555694618E+007, +5.44813869750E+000, +6.88246177727E+002
+2.24806007509E+007, +4.76650033339E+000, +6.92059760595E+002
+2.26056320401E+007, +5.02956597712E+000, +6.98422859599E+002
+2.27306633292E+007, +4.95529144570E+000, +7.03839642021E+002
+2.28556946183E+007, +4.85109618089E+000, +7.10529731215E+002
+2.29807259074E+007, +5.23735573059E+000, +7.16760139493E+002
+2.31057571965E+007, +4.62646505741E+000, +7.21831722414E+002
+2.32307884856E+007, +6.91835473423E+000, +7.26300682774E+002
+2.33558197747E+007, +9.31676915450E+000, +7.31101872588E+002
+2.34808510638E+007, +7.13139217958E+000, +7.39298781008E+002
+2.36058823529E+007, +6.85756978857E+000, +7.45723876024E+002
+2.37309136421E+007, +9.04446251669E+000, +7.49366860040E+002
+2.38559449312E+007, +9.50969173853E+000, +7.57818091156E+002
+2.39809762203E+007, +9.18081936969E+000, +7.61192125859E+002
+2.41060075094E+007, +9.24363358514E+000, +7.68128550534E+002
+2.42310387985E+007, +1.03226706148E+001, +7.72929082117E+002
+2.43560700876E+007, +1.11082722365E+001, +7.77694341735E+002
+2.44811013767E+007, +9.32747020397E+000, +7.83857495628E+002
+2.46061326658E+007, +8.59401258092E+000, +7.89791397891E+002
+2.47311639549E+007, +7.64192955494E+000, +7.94495500092E+002
+2.48561952441E+007, +8.37244405396E+000, +7.99786200084E+002
+2.49812265332E+007, +1.06208233438E+001, +8.06980201376E+002
+2.51062578223E+007, +8.26426135518E+000, +8.13342253179E+002
+2.52312891114E+007, +8.62532713532E+000, +8.19075228603E+002
+2.53563204005E+007, +8.01066178069E+000, +8.26018656926E+002
+2.54813516896E+007, +6.99870642684E+000, +8.31847304980E+002
+2.56063829787E+007, +6.13084138419E+000, +8.40258393573E+002
+2.57314142678E+007, +5.20080616733E+000, +8.44486174250E+002
+2.58564455569E+007, +5.38579123605E+000, +8.53068110385E+002
+2.59814768461E+007, +6.63729984719E+000, +8.57844599367E+002
+2.61065081352E+007, +8.52848784357E+000, +8.65140028394E+002
+2.62315394243E+007, +7.13108820086E+000, +8.72283927694E+002
+2.63565707134E+007, +4.93931456539E+000, +8.82646042957E+002
+2.64816020025E+007, +6.17038050564E+000, +8.90565025741E+002
+2.66066332916E+007, +5.67510159399E+000, +8.98383734888E+002
+2.67316645807E+007, +1.05893225900E+001, +9.04106062472E+002
+2.68566958698E+007, +6.08869058713E+000, +9.09737230819E+002
+2.69817271589E+007, +6.24246495047E+000, +9.20588260415E+002
+2.71067584481E+007, +3.94736178570E+000, +9.26508356088E+002
+2.72317897372E+007, +5.74417612224E+000, +9.35167409813E+002
+2.73568210263E+007, +2.98071372612E+000, +9.42479983893E+002
+2.74818523154E+007, +8.09273438572E+000, +9.51702433455E+002
+2.76068836045E+007, +7.70021117426E+000, +9.60089773178E+002
+2.77319148936E+007, +5.45630207838E+000, +9.64711897243E+002
+2.78569461827E+007, +8.13935733671E+000, +9.75282431717E+002
+2.79819774718E+007, +9.28934871012E+000, +9.81923926869E+002
+2.81070087610E+007, +4.64092764409E+000, +9.91522059322E+002
+2.82320400501E+007, +8.28469096765E+000, +9.98687637218E+002
+2.83570713392E+007, +9.39473626210E+000, +1.00513904613E+003
+2.84821026283E+007, +6.20845334539E+000, +1.01434003363E+003
+2.86071339174E+007, +6.13655510562E+000, +1.02358830834E+003
+2.87321652065E+007, +5.82827226234E+000, +1.03194192862E+003
+2.88571964956E+007, +8.69448271809E+000, +1.03999649085E+003
+2.89822277847E+007, +7.87362701016E+000, +1.05021716954E+003
+2.91072590738E+007, +8.30145939663E+000, +1.05955731327E+003
+2.92322903630E+007, +6.95654581524E+000, +1.06517816486E+003
+2.93573216521E+007, +8.22510316614E+000, +1.07740580867E+003
+2.94823529412E+007, +1.26010042410E+001, +1.08630147818E+003
+2.96073842303E+007, +5.39144895728E+000, +1.10032315159E+003
+2.97324155194E+007, +1.12591322112E+001, +1.10385585008E+003
+2.98574468085E+007, +9.79940911349E+000, +1.11462152640E+003
+2.99824780976E+007, +7.00871321786E+000, +1.12917198634E+003
+3.01075093867E+007, +8.57214553012E+000, +1.13130502980E+003
+3.02325406758E+007, +5.70291419905E+000, +1.14929958132E+003
+3.03575719650E+007, +1.10130125929E+001, +1.15455789006E+003
+3.04826032541E+007, +1.00985523513E+001, +1.17189279796E+003
+3.06076345432E+007, +8.90845130533E+000, +1.17361917723E+003
+3.07326658323E+007, +1.08513160583E+001, +1.18636292257E+003
+3.08576971214E+007, +1.02174773763E+001, +1.19885577391E+003
+3.09827284105E+007, +1.26513678820E+001, +1.21052813253E+003
+3.11077596996E+007, +1.20808901554E+001, +1.22197717986E+003
+3.12327909887E+007, +1.49315311727E+001, +1.22655403373E+003
+3.13578222778E+007, +1.48756238833E+001, +1.23964286311E+003
+3.14828535670E+007, +1.55526730705E+001, +1.25544478586E+003
+3.16078848561E+007, +1.44188798030E+001, +1.26527317926E+003
+3.17329161452E+007, +2.08012868429E+001, +1.27581999923E+003
+3.18579474343E+007, +1.66157839491E+001, +1.28954607263E+003
+3.19829787234E+007, +1.86483468331E+001, +1.30331097796E+003
+3.21080100125E+007, +2.00161854816E+001, +1.31167102618E+003
+3.22330413016E+007, +1.77486548811E+001, +1.32874619060E+003
+3.23580725907E+007, +2.26049202389E+001, +1.34149174263E+003
+3.24831038798E+007, +2.44714827043E+001, +1.35323011962E+003
+3.26081351690E+007, +2.30397099030E+001, +1.36496130173E+003
+3.27331664581E+007, +2.50172061219E+001, +1.37809948764E+003
+3.28581977472E+007, +2.39436858953E+001, +1.39496625900E+003
+3.29832290363E+007, +2.98296698051E+001, +1.40900470114E+003
+3.31082603254E+007, +3.39037037221E+001, +1.41880250541E+003
+3.32332916145E+007, +2.40262812202E+001, +1.42832846180E+003
+3.33583229036E+007, +2.52247440359E+001, +1.44044401124E+003
+3.34833541927E+007, +3.08043920585E+001, +1.46210954900E+003
+3.36083854819E+007, +2.75957355350E+001, +1.47270204811E+003
+3.37334167710E+007, +2.86464825311E+001, +1.49511216799E+003
+3.38584480601E+007, +3.11840891985E+001, +1.49745205976E+003
+3.39834793492E+007, +3.36112982500E+001, +1.52244477275E+003
+3.41085106383E+007, +2.62941216606E+001, +1.53617266571E+003
+3.42335419274E+007, +4.03941518162E+001, +1.55510580121E+003
+3.43585732165E+007, +3.31157825854E+001, +1.56333278546E+003
+3.44836045056E+007, +4.19259248342E+001, +1.59068679054E+003
+3.46086357947E+007, +3.82822619527E+001, +1.60414681519E+003
+3.47336670839E+007, +4.32302458214E+001, +1.62181145984E+003
+3.48586983730E+007, +4.07313619090E+001, +1.63514503492E+003
+3.49837296621E+007, +4.46841406559E+001, +1.65786153055E+003
+3.51087609512E+007, +4.71380264250E+001, +1.67982285556E+003
+3.52337922403E+007, +4.47442565743E+001, +1.67363710678E+003
+3.53588235294E+007, +4.46757009313E+001, +1.71166430644E+003
+3.54838548185E+007, +5.10323721619E+001, +1.73157995366E+003
+3.56088861076E+007, +4.79139295681E+001, +1.74331304757E+003
+3.57339173967E+007, +5.15790595569E+001, +1.76305788349E+003
+3.58589486859E+007, +5.97037052123E+001, +1.79030705379E+003
+3.59839799750E+007, +6.14526653715E+001, +1.79942212383E+003
+3.61090112641E+007, +4.54587357169E+001, +1.82735165340E+003
+3.62340425532E+007, +7.32742477265E+001, +1.84985830404E+003
+3.63590738423E+007, +7.24103989045E+001, +1.88181091319E+003
+3.64841051314E+007, +5.95227427168E+001, +1.90321809766E+003
+3.66091364205E+007, +6.91284208019E+001, +1.91063002575E+003
+3.67341677096E+007, +7.19872492981E+001, +1.93481856975E+003
+3.68591989987E+007, +7.32350395214E+001, +1.95298916069E+003
+3.69842302879E+007, +6.71130226318E+001, +2.00532463870E+003
+3.71092615770E+007, +7.00342953451E+001, +2.01207035170E+003
+3.72342928661E+007, +8.93419970998E+001, +2.03216356377E+003
+3.73593241552E+007, +7.62095425925E+001, +2.04524938390E+003
+3.74843554443E+007, +8.78427439108E+001, +2.09468729162E+003
+3.76093867334E+007, +7.54233754192E+001, +2.12722197634E+003
+3.77344180225E+007, +8.93148167680E+001, +2.14453393138E+003
+3.78594493116E+007, +8.94375624722E+001, +2.17540672829E+003
+3.79844806008E+007, +9.82457482676E+001, +2.21111230290E+003
+3.81095118899E+007, +1.03690040885E+002, +2.22604513782E+003
+3.82345431790E+007, +1.27386329385E+002, +2.27195448337E+003
+3.83595744681E+007, +1.09123220499E+002, +2.30753337550E+003
+3.84846057572E+007, +1.18942725274E+002, +2.33744768455E+003
+3.86096370463E+007, +1.15719717075E+002, +2.37125492702E+003
+3.87346683354E+007, +1.42874180115E+002, +2.38845274165E+003
+3.88596996245E+007, +1.27814634989E+002, +2.43423479093E+003
+3.89847309136E+007, +1.51793092359E+002, +2.48042540423E+003
+3.91097622028E+007, +1.34130117064E+002, +2.51491628463E+003
+3.92347934919E+007, +1.59452440223E+002, +2.56727777497E+003
+3.93598247810E+007, +1.54502918695E+002, +2.59369392051E+003
+3.94848560701E+007, +1.53894274811E+002, +2.65597024836E+003
+3.96098873592E+007, +1.79546533871E+002, +2.68163207155E+003
+3.97349186483E+007, +1.77606050320E+002, +2.69473834998E+003
+3.98599499374E+007, +1.94092537897E+002, +2.78072892661E+003
+3.99849812265E+007, +1.77424198604E+002, +2.81772980956E+003
+4.01100125156E+007, +2.10157607027E+002, +2.87439884017E+003
