"# Channel 1"
"# Trace 1"
Frequency, Formatted Data, Formatted Data
+1.00000000000E+005, +1.31191237035E+002, +1.20283297679E+000
+2.25031289111E+005, +1.30655699588E+002, +6.07660660651E+000
+3.50062578223E+005, +1.30507053102E+002, +9.58726173959E+000
+4.75093867334E+005, +1.30798774745E+002, +1.27601322734E+001
+6.00125156446E+005, +1.30811454178E+002, +1.60960459850E+001
+7.25156445557E+005, +1.30774381859E+002, +1.93105207610E+001
+8.50187734668E+005, +1.30782901031E+002, +2.29816857620E+001
+9.75219023780E+005, +1.30991329400E+002, +2.61195436415E+001
+1.10025031289E+006, +1.31169784098E+002, +2.91142267720E+001
+1.22528160200E+006, +1.30949796380E+002, +3.23861753486E+001
+1.35031289111E+006, +1.31134886278E+002, +3.60797644830E+001
+1.47534418023E+006, +1.31354459351E+002, +3.90427302992E+001
+1.60037546934E+006, +1.31416809893E+002, +4.23276774174E+001
+1.72540675845E+006, +1.31471360616E+002, +4.54239177492E+001
+1.85043804756E+006, +1.31458983736E+002, +4.89425479645E+001
+1.97546933667E+006, +1.31529778970E+002, +5.21955966259E+001
+2.10050062578E+006, +1.31706231474E+002, +5.56749106041E+001
+2.22553191489E+006, +1.31506072364E+002, +5.87647746437E+001
+2.35056320401E+006, +1.31642419722E+002, +6.23481628781E+001
+2.47559449312E+006, +1.32102586850E+002, +6.53677326990E+001
+2.60062578223E+006, +1.31654577201E+002, +6.86880554488E+001
+2.72565707134E+006, +1.32175624065E+002, +7.17433382697E+001
+2.85068836045E+006, +1.32096764098E+002, +7.50772547456E+001
+2.97571964956E+006, +1.31999695953E+002, +7.81710092408E+001
+3.10075093867E+006, +1.32132847246E+002, +8.18658196799E+001
+3.22578222778E+006, +1.32224900656E+002, +8.51351441333E+001
+3.35081351690E+006, +1.31994734632E+002, +8.86152992795E+001
+3.47584480601E+006, +1.32556498852E+002, +9.11800336614E+001
+3.60087609512E+006, +1.32284490979E+002, +9.48748962800E+001
+3.72590738423E+006, +1.32459196136E+002, +9.80213893262E+001
+3.85093867334E+006, +1.32327807030E+002, +1.01249090660E+002
+3.97596996245E+006, +1.32457767252E+002, +1.04579876840E+002
+4.10100125156E+006, +1.32448068966E+002, +1.08117039530E+002
+4.22603254068E+006, +1.32934717548E+002, +1.11503713944E+002
+4.35106382979E+006, +1.32843244814E+002, +1.14413069322E+002
+4.47609511890E+006, +1.33279942754E+002, +1.17897074248E+002
+4.60112640801E+006, +1.33554822835E+002, +1.21079809733E+002
+4.72615769712E+006, +1.33553210193E+002, +1.24375830753E+002
+4.85118898623E+006, +1.33637073792E+002, +1.27786473866E+002
+4.97622027534E+006, +1.33427645670E+002, +1.31260964306E+002
+5.10125156446E+006, +1.33678197481E+002, +1.34871764611E+002
+5.22628285357E+006, +1.33599053753E+002, +1.37669068275E+002
+5.35131414268E+006, +1.33628398356E+002, +1.40760871451E+002
+5.47634543179E+006, +1.34267692806E+002, +1.45053936993E+002
+5.60137672090E+006, +1.34299010277E+002, +1.47669854568E+002
+5.72640801001E+006, +1.34194894274E+002, +1.50568477833E+002
+5.85143929912E+006, +1.34653075363E+002, +1.54047317108E+002
+5.97647058824E+006, +1.34444690755E+002, +1.57832223233E+002
+6.10150187735E+006, +1.34964554635E+002, +1.60867435476E+002
+6.22653316646E+006, +1.35098594345E+002, +1.64139268737E+002
+6.35156445557E+006, +1.35130879121E+002, +1.68088372759E+002
+6.47659574468E+006, +1.35306055018E+002, +1.71026439601E+002
+6.60162703379E+006, +1.35633050219E+002, +1.74467361361E+002
+6.72665832290E+006, +1.35986811296E+002, +1.77836069907E+002
+6.85168961202E+006, +1.36125601045E+002, +1.81040211510E+002
+6.97672090113E+006, +1.36097459153E+002, +1.84843088710E+002
+7.10175219024E+006, +1.36388649125E+002, +1.88124281256E+002
+7.22678347935E+006, +1.36622348368E+002, +1.91535690251E+002
+7.35181476846E+006, +1.36854464845E+002, +1.94723349899E+002
+7.47684605757E+006, +1.37087618973E+002, +1.98453336414E+002
+7.60187734668E+006, +1.37177917077E+002, +2.02020322537E+002
+7.72690863579E+006, +1.37076861712E+002, +2.05289196364E+002
+7.85193992491E+006, +1.37861263596E+002, +2.08345057103E+002
+7.97697121402E+006, +1.38370408539E+002, +2.12107800777E+002
+8.10200250313E+006, +1.38354504758E+002, +2.15418990974E+002
+8.22703379224E+006, +1.38503024286E+002, +2.18949991539E+002
+8.35206508135E+006, +1.38596606910E+002, +2.22707214581E+002
+8.47709637046E+006, +1.38855887863E+002, +2.26006132952E+002
+8.60212765957E+006, +1.39187955319E+002, +2.29797155133E+002
+8.72715894869E+006, +1.38911693644E+002, +2.33249542906E+002
+8.85219023780E+006, +1.39314460462E+002, +2.36472887902E+002
+8.97722152691E+006, +1.39588379329E+002, +2.40164141746E+002
+9.10225281602E+006, +1.39736149294E+002, +2.44160060494E+002
+9.22728410513E+006, +1.40533357961E+002, +2.46871711046E+002
+9.35231539424E+006, +1.40398787769E+002, +2.51325554625E+002
+9.47734668335E+006, +1.40218638784E+002, +2.54273181853E+002
+9.60237797247E+006, +1.40972596944E+002, +2.58496400893E+002
+9.72740926158E+006, +1.41352366992E+002, +2.61544982340E+002
+9.85244055069E+006, +1.41475774318E+002, +2.65680843377E+002
+9.97747183980E+006, +1.41602733701E+002, +2.69295115727E+002
+1.01025031289E+007, +1.41643060771E+002, +2.72599406446E+002
+1.02275344180E+007, +1.42470411628E+002, +2.76037162918E+002
+1.03525657071E+007, +1.42250287627E+002, +2.79835805078E+002
+1.04775969962E+007, +1.42795247986E+002, +2.83589321730E+002
+1.06026282854E+007, +1.43210997548E+002, +2.87431509100E+002
+1.07276595745E+007, +1.43431871457E+002, +2.90939702314E+002
+1.08526908636E+007, +1.43833547198E+002, +2.94588082219E+002
+1.09777221527E+007, +1.44745856950E+002, +2.98394098372E+002
+1.11027534418E+007, +1.44487793754E+002, +3.01952917966E+002
+1.12277847309E+007, +1.44335682854E+002, +3.06372960048E+002
+1.13528160200E+007, +1.45399359724E+002, +3.09447764020E+002
+1.14778473091E+007, +1.44853865673E+002, +3.12770516035E+002
+1.16028785982E+007, +1.45078715336E+002, +3.17906028246E+002
+1.17279098874E+007, +1.46067541295E+002, +3.21430428339E+002
+1.18529411765E+007, +1.46689875086E+002, +3.24636132829E+002
+1.19779724656E+007, +1.46086965329E+002, +3.28841148213E+002
+1.21030037547E+007, +1.47141811846E+002, +3.32787133252E+002
+1.22280350438E+007, +1.47296958456E+002, +3.36535045435E+002
+1.23530663329E+007, +1.47623642658E+002, +3.40122794687E+002
+1.24780976220E+007, +1.48472695686E+002, +3.43516865766E+002
+1.26031289111E+007, +1.48276623579E+002, +3.48402814634E+002
+1.27281602003E+007, +1.48031327975E+002, +3.52661520202E+002
+1.28531914894E+007, +1.48260268472E+002, +3.55817393683E+002
+1.29782227785E+007, +1.50460515775E+002, +3.60726403480E+002
+1.31032540676E+007, +1.50448564462E+002, +3.64833528832E+002
+1.32282853567E+007, +1.50666348974E+002, +3.68373352605E+002
+1.33533166458E+007, +1.51078921386E+002, +3.71891428937E+002
+1.34783479349E+007, +1.51871953316E+002, +3.76808026950E+002
+1.36033792240E+007, +1.51846758166E+002, +3.80071783779E+002
+1.37284105131E+007, +1.50821975949E+002, +3.84729768655E+002
+1.38534418023E+007, +1.52800569783E+002, +3.88000543410E+002
+1.39784730914E+007, +1.52466229237E+002, +3.92671749740E+002
+1.41035043805E+007, +1.53761652925E+002, +3.97047531863E+002
+1.42285356696E+007, +1.53215917598E+002, +4.00232424252E+002
+1.43535669587E+007, +1.54917609597E+002, +4.04733321283E+002
+1.44785982478E+007, +1.54997736175E+002, +4.08796774751E+002
+1.46036295369E+007, +1.56352248230E+002, +4.13597283497E+002
+1.47286608260E+007, +1.56836178706E+002, +4.18981647176E+002
+1.48536921151E+007, +1.56542063950E+002, +4.22411406247E+002
+1.49787234043E+007, +1.56899778977E+002, +4.26233793760E+002
+1.51037546934E+007, +1.57121673914E+002, +4.30624408320E+002
+1.52287859825E+007, +1.56970573201E+002, +4.35667635834E+002
+1.53538172716E+007, +1.57632928856E+002, +4.38498600372E+002
+1.54788485607E+007, +1.59380360310E+002, +4.43801752700E+002
+1.56038798498E+007, +1.61174341656E+002, +4.48095944818E+002
+1.57289111389E+007, +1.60403391271E+002, +4.52146661248E+002
+1.58539424280E+007, +1.60794594840E+002, +4.54386853396E+002
+1.59789737171E+007, +1.61191358038E+002, +4.60588790761E+002
+1.61040050063E+007, +1.62055503126E+002, +4.65958463976E+002
+1.62290362954E+007, +1.62992613873E+002, +4.70258426685E+002
+1.63540675845E+007, +1.63079998893E+002, +4.73672334194E+002
+1.64790988736E+007, +1.64375050290E+002, +4.80172597557E+002
+1.66041301627E+007, +1.63287933061E+002, +4.82330295070E+002
+1.67291614518E+007, +1.63527678591E+002, +4.88524715257E+002
+1.68541927409E+007, +1.65232680546E+002, +4.92208438969E+002
+1.69792240300E+007, +1.65031596437E+002, +4.96118268614E+002
+1.71042553191E+007, +1.63325622685E+002, +5.02707071220E+002
+1.72292866083E+007, +1.66158133811E+002, +5.08422945248E+002
+1.73543178974E+007, +1.67757953080E+002, +5.13499310251E+002
+1.74793491865E+007, +1.68265751530E+002, +5.16129647275E+002
+1.76043804756E+007, +1.69169310337E+002, +5.22987006414E+002
+1.77294117647E+007, +1.68548105872E+002, +5.27545539418E+002
+1.78544430538E+007, +1.69216968897E+002, +5.31378714915E+002
+1.79794743429E+007, +1.71081385297E+002, +5.35214802878E+002
+1.81045056320E+007, +1.71829342365E+002, +5.40260401143E+002
+1.82295369212E+007, +1.71026985649E+002, +5.46663044017E+002
+1.83545682103E+007, +1.71883380522E+002, +5.53370936006E+002
+1.84795994994E+007, +1.73594330547E+002, +5.54763700772E+002
+1.86046307885E+007, +1.75558186612E+002, +5.61550582004E+002
+1.87296620776E+007, +1.75231214742E+002, +5.65064129079E+002
+1.88546933667E+007, +1.75492179337E+002, +5.71825138569E+002
+1.89797246558E+007, +1.77918808135E+002, +5.75731626032E+002
+1.91047559449E+007, +1.79893866115E+002, +5.81785762020E+002
+1.92297872340E+007, +1.79369124614E+002, +5.87579521162E+002
+1.93548185232E+007, +1.80337295711E+002, +5.91692421168E+002
+1.94798498123E+007, +1.80950786267E+002, +5.95260326005E+002
+1.96048811014E+007, +1.81007597666E+002, +6.02535238753E+002
+1.97299123905E+007, +1.82012421814E+002, +6.06274820591E+002
+1.98549436796E+007, +1.83053818917E+002, +6.14023531839E+002
+1.99799749687E+007, +1.83605407756E+002, +6.17606768007E+002
+2.01050062578E+007, +1.83844808058E+002, +6.22244352080E+002
+2.02300375469E+007, +1.87806017248E+002, +6.28139242271E+002
+2.03550688360E+007, +1.83785722007E+002, +6.33725888116E+002
+2.04801001252E+007, +1.87724246817E+002, +6.40470959671E+002
+2.06051314143E+007, +1.89491011244E+002, +6.45856762222E+002
+2.07301627034E+007, +1.87883478830E+002, +6.51150920961E+002
+2.08551939925E+007, +1.91734363388E+002, +6.57354821810E+002
+2.09802252816E+007, +1.90734814700E+002, +6.60748373206E+002
+2.11052565707E+007, +1.91688081056E+002, +6.68505570025E+002
+2.12302878598E+007, +1.93356821685E+002, +6.74632982870E+002
+2.13553191489E+007, +1.96176939691E+002, +6.78124632604E+002
+2.14803504380E+007, +1.96755717137E+002, +6.88266549560E+002
+2.16053817272E+007, +1.98504122020E+002, +6.90168126522E+002
+2.17304130163E+007, +1.98818977430E+002, +6.95590685018E+002
+2.18554443054E+007, +1.98120456193E+002, +7.01602275496E+002
+2.19804755945E+007, +1.98408096342E+002, +7.09046723436E+002
+2.21055068836E+007, +2.00062924325E+002, +7.17587421694E+002
+2.22305381727E+007, +2.04059987194E+002, +7.22521256005E+002
+2.23555694618E+007, +2.01874726039E+002, +7.27414689839E+002
+2.24806007509E+007, +2.04653401680E+002, +7.30238422562E+002
+2.26056320401E+007, +2.06449203825E+002, +7.39665484477E+002
+2.27306633292E+007, +2.06096536941E+002, +7.48904394563E+002
+2.28556946183E+007, +2.07638344244E+002, +7.53495136297E+002
+2.29807259074E+007, +2.10870017475E+002, +7.65008588618E+002
+2.31057571965E+007, +2.11488414796E+002, +7.67014334954E+002
+2.32307884856E+007, +2.15409798072E+002, +7.73791576174E+002
+2.33558197747E+007, +2.16211388194E+002, +7.77970316687E+002
+2.34808510638E+007, +2.17962780689E+002, +7.81103649841E+002
+2.36058823529E+007, +2.19981875619E+002, +7.90797910315E+002
+2.37309136421E+007, +2.19868698058E+002, +7.99702634169E+002
+2.38559449312E+007, +2.20918029066E+002, +8.03923418391E+002
+2.39809762203E+007, +2.24612487314E+002, +8.15024975511E+002
+2.41060075094E+007, +2.20834706776E+002, +8.19869094551E+002
+2.42310387985E+007, +2.27096337531E+002, +8.26459887213E+002
+2.43560700876E+007, +2.27953072145E+002, +8.34353640048E+002
+2.44811013767E+007, +2.27874432066E+002, +8.40864955419E+002
+2.46061326658E+007, +2.30687160159E+002, +8.51061177865E+002
+2.47311639549E+007, +2.28438116172E+002, +8.53627626828E+002
+2.48561952441E+007, +2.31132585108E+002, +8.64002894092E+002
+2.49812265332E+007, +2.34314957923E+002, +8.72430740703E+002
+2.51062578223E+007, +2.39080603079E+002, +8.77722360560E+002
+2.52312891114E+007, +2.37756530175E+002, +8.86197648523E+002
+2.53563204005E+007, +2.38136562626E+002, +8.91567309545E+002
+2.54813516896E+007, +2.44346510333E+002, +9.06107442751E+002
+2.56063829787E+007, +2.43961087190E+002, +9.12964867196E+002
+2.57314142678E+007, +2.45818134075E+002, +9.20388027798E+002
+2.58564455569E+007, +2.49378597348E+002, +9.26776199338E+002
+2.59814768461E+007, +2.51726236113E+002, +9.33127900178E+002
+2.61065081352E+007, +2.55506168543E+002, +9.46712781364E+002
+2.62315394243E+007, +2.59087116937E+002, +9.56441913901E+002
+2.63565707134E+007, +2.59641501937E+002, +9.59124305727E+002
+2.64816020025E+007, +2.61377698927E+002, +9.63379082567E+002
+2.66066332916E+007, +2.66265484745E+002, +9.76011095729E+002
+2.67316645807E+007, +2.66146534097E+002, +9.80504000505E+002
+2.68566958698E+007, +2.67789734695E+002, +9.93315298169E+002
+2.69817271589E+007, +2.67394738180E+002, +1.00620033831E+003
+2.71067584481E+007, +2.71853816896E+002, +1.00956870666E+003
+2.72317897372E+007, +2.74873261250E+002, +1.02309758147E+003
+2.73568210263E+007, +2.76384650985E+002, +1.02448215788E+003
+2.74818523154E+007, +2.78665676294E+002, +1.03868220501E+003
+2.76068836045E+007, +2.82241552785E+002, +1.04258691280E+003
+2.77319148936E+007, +2.84848365706E+002, +1.05929793257E+003
+2.78569461827E+007, +2.92210063477E+002, +1.06294941529E+003
+2.79819774718E+007, +2.91855243770E+002, +1.07724009162E+003
+2.81070087610E+007, +2.94694378332E+002, +1.08512915761E+003
+2.82320400501E+007, +2.99971649264E+002, +1.09766051781E+003
+2.83570713392E+007, +3.03455447027E+002, +1.10447405257E+003
+2.84821026283E+007, +2.99681386518E+002, +1.11254335602E+003
+2.86071339174E+007, +3.05827817787E+002, +1.12018197044E+003
+2.87321652065E+007, +3.06465720769E+002, +1.13519086803E+003
+2.88571964956E+007, +3.13520719302E+002, +1.14931514816E+003
+2.89822277847E+007, +3.12666020255E+002, +1.15456638444E+003
+2.91072590738E+007, +3.17869217350E+002, +1.16759941785E+003
+2.92322903630E+007, +3.12142155531E+002, +1.17899893289E+003
+2.93573216521E+007, +3.22490063239E+002, +1.19556868463E+003
+2.94823529412E+007, +3.23258260565E+002, +1.20006973259E+003
+2.96073842303E+007, +3.28599393965E+002, +1.20473283456E+003
+2.97324155194E+007, +3.34909303209E+002, +1.21702571651E+003
+2.98574468085E+007, +3.30904956460E+002, +1.23681705549E+003
+2.99824780976E+007, +3.35136333881E+002, +1.24690495450E+003
+3.01075093867E+007, +3.42746989687E+002, +1.26203609403E+003
+3.02325406758E+007, +3.50932407988E+002, +1.27014182732E+003
+3.03575719650E+007, +3.57859879603E+002, +1.28538893347E+003
+3.04826032541E+007, +3.54310771473E+002, +1.29739580097E+003
+3.06076345432E+007, +3.61046265167E+002, +1.31661148532E+003
+3.07326658323E+007, +3.63667061058E+002, +1.32621825959E+003
+3.08576971214E+007, +3.69819283404E+002, +1.33236578120E+003
+3.09827284105E+007, +3.80832498509E+002, +1.35418087141E+003
+3.11077596996E+007, +3.77295365844E+002, +1.36969757975E+003
+3.12327909887E+007, +3.78225058765E+002, +1.37425269610E+003
+3.13578222778E+007, +3.77843840985E+002, +1.38781812098E+003
+3.14828535670E+007, +3.98277246735E+002, +1.39936276887E+003
+3.16078848561E+007, +3.99088293575E+002, +1.42184029618E+003
+3.17329161452E+007, +4.13600537836E+002, +1.42788380897E+003
+3.18579474343E+007, +4.12889191038E+002, +1.44657207698E+003
+3.19829787234E+007, +4.19285636721E+002, +1.46535607009E+003
+3.21080100125E+007, +4.27319246602E+002, +1.48151731890E+003
+3.22330413016E+007, +4.22201212354E+002, +1.51670187061E+003
+3.23580725907E+007, +4.39879237497E+002, +1.51059254735E+003
+3.24831038798E+007, +4.36291762972E+002, +1.53362583281E+003
+3.26081351690E+007, +4.38346400850E+002, +1.55486117966E+003
+3.27331664581E+007, +4.41233534777E+002, +1.54799633880E+003
+3.28581977472E+007, +4.69229886303E+002, +1.57869796391E+003
+3.29832290363E+007, +4.63683997864E+002, +1.61520688699E+003
+3.31082603254E+007, +4.67176707960E+002, +1.61302291734E+003
+3.32332916145E+007, +4.73664586666E+002, +1.62861134107E+003
+3.33583229036E+007, +4.84111091999E+002, +1.64224881663E+003
+3.34833541927E+007, +5.04867166798E+002, +1.67677131769E+003
+3.36083854819E+007, +5.11247953798E+002, +1.67925613845E+003
+3.37334167710E+007, +5.01476882579E+002, +1.70235691403E+003
+3.38584480601E+007, +5.25068937354E+002, +1.70436946382E+003
+3.39834793492E+007, +5.28029629952E+002, +1.75479568397E+003
+3.41085106383E+007, +5.44879740725E+002, +1.76403638151E+003
+3.42335419274E+007, +5.61195418470E+002, +1.78682162615E+003
+3.43585732165E+007, +5.72368132074E+002, +1.80495911625E+003
+3.44836045056E+007, +5.63223722606E+002, +1.82090152047E+003
+3.46086357947E+007, +5.81288092030E+002, +1.84739661205E+003
+3.47336670839E+007, +6.04959341134E+002, +1.88711755836E+003
+3.48586983730E+007, +5.97746545418E+002, +1.89295962608E+003
+3.49837296621E+007, +6.39688273265E+002, +1.92546061356E+003
+3.51087609512E+007, +6.16929872233E+002, +1.95475250357E+003
+3.52337922403E+007, +6.42419825780E+002, +1.96667972960E+003
+3.53588235294E+007, +6.54171720436E+002, +1.99786440016E+003
+3.54838548185E+007, +6.77542402583E+002, +2.01004188540E+003
+3.56088861076E+007, +6.91663176482E+002, +2.03098723107E+003
+3.57339173967E+007, +6.99583303927E+002, +2.06471121776E+003
+3.58589486859E+007, +6.96417094292E+002, +2.10440534973E+003
+3.59839799750E+007, +7.04631588075E+002, +2.12533751196E+003
+3.61090112641E+007, +7.51997872978E+002, +2.13198244510E+003
+3.62340425532E+007, +7.45983013972E+002, +2.17396172292E+003
+3.63590738423E+007, +7.52661196099E+002, +2.22789937935E+003
+3.64841051314E+007, +7.86918226005E+002, +2.22977383215E+003
+3.66091364205E+007, +8.18596472503E+002, +2.24613553543E+003
+3.67341677096E+007, +8.54715802824E+002, +2.26436226156E+003
+3.68591989987E+007, +8.59618868060E+002, +2.32142571018E+003
+3.69842302879E+007, +8.79496492943E+002, +2.34915550956E+003
+3.71092615770E+007, +9.14462585872E+002, +2.39593604244E+003
+3.72342928661E+007, +8.97585944677E+002, +2.42032712482E+003
+3.73593241552E+007, +9.52995680710E+002, +2.43442442315E+003
+3.74843554443E+007, +9.54513953386E+002, +2.48586488753E+003
+3.76093867334E+007, +1.00077388088E+003, +2.53584257069E+003
+3.77344180225E+007, +1.03791662742E+003, +2.54880790545E+003
+3.78594493116E+007, +1.06928507168E+003, +2.60121563628E+003
+3.79844806008E+007, +1.09184716154E+003, +2.64027567786E+003
+3.81095118899E+007, +1.11435302885E+003, +2.68460538122E+003
+3.82345431790E+007, +1.15607619308E+003, +2.68579363806E+003
+3.83595744681E+007, +1.14227722764E+003, +2.77065206227E+003
+3.84846057572E+007, +1.22248629880E+003, +2.82134795288E+003
+3.86096370463E+007, +1.22129303709E+003, +2.87792804115E+003
+3.87346683354E+007, +1.31224198601E+003, +2.82761957305E+003
+3.88596996245E+007, +1.35753578821E+003, +2.97480786946E+003
+3.89847309136E+007, +1.44929356373E+003, +2.98047523844E+003
+3.91097622028E+007, +1.43375026049E+003, +2.96563884192E+003
+3.92347934919E+007, +1.47738232925E+003, +3.06985900573E+003
+3.93598247810E+007, +1.54004940144E+003, +3.13975397198E+003
+3.94848560701E+007, +1.56751297439E+003, +3.18943383573E+003
+3.96098873592E+007, +1.66227647515E+003, +3.16811907121E+003
+3.97349186483E+007, +1.68062619722E+003, +3.25102721874E+003
+3.98599499374E+007, +1.80165926484E+003, +3.28318009839E+003
+3.99849812265E+007, +1.82468662670E+003, +3.34603078764E+003
+4.01100125156E+007, +1.90538301943E+003, +3.39830124785E+003
