"# Channel 1"
"# Trace 1"
Frequency, Formatted Data, Formatted Data
+1.00000000000E+005, +1.12820624180E+001, +2.48535405895E+000
+2.66777963272E+005, +1.13025908123E+001, +6.66562074788E+000
+4.33555926544E+005, +1.12794442674E+001, +1.08442671003E+001
+6.00333889816E+005, +1.13135221121E+001, +1.49576430407E+001
+7.67111853088E+005, +1.13223737702E+001, +1.91493208262E+001
+9.33889816361E+005, +1.13226269196E+001, +2.32407426513E+001
+1.10066777963E+006, +1.12950416397E+001, +2.74452064148E+001
+1.26744574290E+006, +1.13493207846E+001, +3.15447203894E+001
+1.43422370618E+006, +1.13004979219E+001, +3.58110099162E+001
+1.60100166945E+006, +1.13581675293E+001, +3.98536816133E+001
+1.76777963272E+006, +1.13670508847E+001, +4.40013114449E+001
+1.93455759599E+006, +1.13249583011E+001, +4.81100826101E+001
+2.10133555927E+006, +1.13374917114E+001, +5.22957745877E+001
+2.26811352254E+006, +1.14127524767E+001, +5.64212260908E+001
+2.43489148581E+006, +1.14018194774E+001, +6.07063223388E+001
+2.60166944908E+006, +1.13876950183E+001, +6.47653502356E+001
+2.76844741235E+006, +1.13591496555E+001, +6.90930704825E+001
+2.93522537563E+006, +1.13382236162E+001, +7.32021759149E+001
+3.10200333890E+006, +1.15654095588E+001, +7.72564807239E+001
+3.26878130217E+006, +1.13793587783E+001, +8.16068228654E+001
+3.43555926544E+006, +1.15325980396E+001, +8.57503681597E+001
+3.60233722871E+006, +1.16383743270E+001, +9.00277065431E+001
+3.76911519199E+006, +1.15614404476E+001, +9.44407984167E+001
+3.93589315526E+006, +1.16117562737E+001, +9.83088821921E+001
+4.10267111853E+006, +1.09388705994E+001, +1.02164292384E+002
+4.26944908180E+006, +1.13857745831E+001, +1.07453378221E+002
+4.43622704508E+006, +1.15859543480E+001, +1.11190590805E+002
+4.60300500835E+006, +1.16586774330E+001, +1.15601891125E+002
+4.76978297162E+006, +1.14884220192E+001, +1.19748137094E+002
+4.93656093489E+006, +1.17662782629E+001, +1.23908457432E+002
+5.10333889816E+006, +1.18849272170E+001, +1.28145459828E+002
+5.27011686144E+006, +1.23036990016E+001, +1.32782929724E+002
+5.43689482471E+006, +1.19624581063E+001, +1.37009904182E+002
+5.60367278798E+006, +1.22090250225E+001, +1.41487190615E+002
+5.77045075125E+006, +1.20669943672E+001, +1.45453954745E+002
+5.93722871452E+006, +1.22685561734E+001, +1.49924974013E+002
+6.10400667780E+006, +1.23799379548E+001, +1.54272104080E+002
+6.27078464107E+006, +1.26256117556E+001, +1.58341365328E+002
+6.43756260434E+006, +1.28362275949E+001, +1.62753758601E+002
+6.60434056761E+006, +1.29414290086E+001, +1.67028349656E+002
+6.77111853088E+006, +1.31546117182E+001, +1.71272209680E+002
+6.93789649416E+006, +1.30227195401E+001, +1.75848071861E+002
+7.10467445743E+006, +1.29745962298E+001, +1.80042805573E+002
+7.27145242070E+006, +1.31136435326E+001, +1.84362869625E+002
+7.43823038397E+006, +1.32216212270E+001, +1.88584147594E+002
+7.60500834725E+006, +1.32830932993E+001, +1.93082987099E+002
+7.77178631052E+006, +1.35270440775E+001, +1.97644244999E+002
+7.93856427379E+006, +1.33519201966E+001, +2.01795035550E+002
+8.10534223706E+006, +1.33896603987E+001, +2.06327222267E+002
+8.27212020033E+006, +1.35389264231E+001, +2.10697481418E+002
+8.43889816361E+006, +1.34224809309E+001, +2.15436483406E+002
+8.60567612688E+006, +1.32779951503E+001, +2.19830584053E+002
+8.77245409015E+006, +1.33560458732E+001, +2.24304743746E+002
+8.93923205342E+006, +1.32358351430E+001, +2.29004794292E+002
+9.10601001669E+006, +1.31927531977E+001, +2.33873220742E+002
+9.27278797997E+006, +1.36526854987E+001, +2.38373110223E+002
+9.43956594324E+006, +1.32005316932E+001, +2.42483172666E+002
+9.60634390651E+006, +1.34544261504E+001, +2.47641852831E+002
+9.77312186978E+006, +1.36704771832E+001, +2.52416323661E+002
+9.93989983306E+006, +1.36413106728E+001, +2.56902053797E+002
+1.01066777963E+007, +1.34102892606E+001, +2.61416026059E+002
+1.02734557596E+007, +1.35531371951E+001, +2.66417724244E+002
+1.04402337229E+007, +1.37633568417E+001, +2.71097843568E+002
+1.06070116861E+007, +1.33277862809E+001, +2.75949539752E+002
+1.07737896494E+007, +1.37283539931E+001, +2.80834272608E+002
+1.09405676127E+007, +1.41685173717E+001, +2.85908307482E+002
+1.11073455760E+007, +1.37439772594E+001, +2.90507584149E+002
+1.12741235392E+007, +1.38950080858E+001, +2.95266412607E+002
+1.14409015025E+007, +1.40379912677E+001, +3.00318372782E+002
+1.16076794658E+007, +1.42060313178E+001, +3.05063848376E+002
+1.17744574290E+007, +1.43148910675E+001, +3.10537216948E+002
+1.19412353923E+007, +1.42114455439E+001, +3.15292885215E+002
+1.21080133556E+007, +1.44146936285E+001, +3.20746979489E+002
+1.22747913189E+007, +1.44924214604E+001, +3.25656685279E+002
+1.24415692821E+007, +1.45088330453E+001, +3.30436712356E+002
+1.26083472454E+007, +1.45454150462E+001, +3.35026691770E+002
+1.27751252087E+007, +1.44624952554E+001, +3.40967649496E+002
+1.29419031720E+007, +1.37228575244E+001, +3.45537288150E+002
+1.31086811352E+007, +1.48599061095E+001, +3.50742895544E+002
+1.32754590985E+007, +1.53224857201E+001, +3.55837687905E+002
+1.34422370618E+007, +1.48972287587E+001, +3.61020126644E+002
+1.36090150250E+007, +1.64420134340E+001, +3.66201746978E+002
+1.37757929883E+007, +1.56263817256E+001, +3.71431740994E+002
+1.39425709516E+007, +1.53833078064E+001, +3.77176385128E+002
+1.41093489149E+007, +1.59582803960E+001, +3.83186845083E+002
+1.42761268781E+007, +1.61217447690E+001, +3.87904687227E+002
+1.44429048414E+007, +1.61518465765E+001, +3.93440039917E+002
+1.46096828047E+007, +1.65688707090E+001, +3.99563688949E+002
+1.47764607679E+007, +1.64793693962E+001, +4.04605729225E+002
+1.49432387312E+007, +1.66799270815E+001, +4.10138990133E+002
+1.51100166945E+007, +1.71645219151E+001, +4.15154023967E+002
+1.52767946578E+007, +1.73283716749E+001, +4.20902566146E+002
+1.54435726210E+007, +1.70461751937E+001, +4.27295792698E+002
+1.56103505843E+007, +1.89906602749E+001, +4.32237625366E+002
+1.57771285476E+007, +1.82951843146E+001, +4.37256734732E+002
+1.59439065109E+007, +1.83646797704E+001, +4.43261515397E+002
+1.61106844741E+007, +1.86378540536E+001, +4.49564375524E+002
+1.62774624374E+007, +1.92314591314E+001, +4.54648982440E+002
+1.64442404007E+007, +1.79940480665E+001, +4.59912475909E+002
+1.66110183639E+007, +1.91848397487E+001, +4.66555327839E+002
+1.67777963272E+007, +2.01682453682E+001, +4.74076598682E+002
+1.69445742905E+007, +1.99714463698E+001, +4.78519959747E+002
+1.71113522538E+007, +1.78708818200E+001, +4.83296100192E+002
+1.72781302170E+007, +1.88914745494E+001, +4.90838453078E+002
+1.74449081803E+007, +1.90984454827E+001, +4.97766169216E+002
+1.76116861436E+007, +2.14855080039E+001, +5.03827814558E+002
+1.77784641068E+007, +2.00963221143E+001, +5.09109511160E+002
+1.79452420701E+007, +2.05766921534E+001, +5.14901902006E+002
+1.81120200334E+007, +2.14519620880E+001, +5.19534853808E+002
+1.82787979967E+007, +2.14642159845E+001, +5.29033167454E+002
+1.84455759599E+007, +2.20769396940E+001, +5.34373854245E+002
+1.86123539232E+007, +2.30948622599E+001, +5.40834373800E+002
+1.87791318865E+007, +2.08419353661E+001, +5.48071702855E+002
+1.89459098497E+007, +2.28783654030E+001, +5.53929175620E+002
+1.91126878130E+007, +2.35132587263E+001, +5.61018744871E+002
+1.92794657763E+007, +2.31794007770E+001, +5.67598828751E+002
+1.94462437396E+007, +2.54654337772E+001, +5.74493466781E+002
+1.96130217028E+007, +2.27539764733E+001, +5.82749031952E+002
+1.97797996661E+007, +2.47931513375E+001, +5.89023868440E+002
+1.99465776294E+007, +2.26344838800E+001, +5.95526571886E+002
+2.01133555927E+007, +2.31422162465E+001, +6.01672537276E+002
+2.02801335559E+007, +2.53604942933E+001, +6.09971799047E+002
+2.04469115192E+007, +2.76088627587E+001, +6.16631584818E+002
+2.06136894825E+007, +2.58329153426E+001, +6.24851147655E+002
+2.07804674457E+007, +2.78995588613E+001, +6.33785414872E+002
+2.09472454090E+007, +2.67786007525E+001, +6.41975276697E+002
+2.11140233723E+007, +2.75274422077E+001, +6.45571138114E+002
+2.12808013356E+007, +2.91954223385E+001, +6.54009736138E+002
+2.14475792988E+007, +3.00113492294E+001, +6.63678930537E+002
+2.16143572621E+007, +3.09108560189E+001, +6.70132057750E+002
+2.17811352254E+007, +2.85065095709E+001, +6.77999136196E+002
+2.19479131886E+007, +3.20891619455E+001, +6.86202846981E+002
+2.21146911519E+007, +3.24231338612E+001, +6.92467371010E+002
+2.22814691152E+007, +3.28318565027E+001, +7.03829399476E+002
+2.24482470785E+007, +3.46827883827E+001, +7.11127749726E+002
+2.26150250417E+007, +3.72118089835E+001, +7.18669060628E+002
+2.27818030050E+007, +3.43228336511E+001, +7.25763718322E+002
+2.29485809683E+007, +4.06309510340E+001, +7.36506492510E+002
+2.31153589316E+007, +3.69906039691E+001, +7.48028849967E+002
+2.32821368948E+007, +4.18187288588E+001, +7.56282173378E+002
+2.34489148581E+007, +4.10364700406E+001, +7.61663389825E+002
+2.36156928214E+007, +4.37381148832E+001, +7.74565563597E+002
+2.37824707846E+007, +4.32916351694E+001, +7.80299810565E+002
+2.39492487479E+007, +4.61577702955E+001, +7.90015859093E+002
+2.41160267112E+007, +4.71926658109E+001, +7.98593608978E+002
+2.42828046745E+007, +4.58854888404E+001, +8.05590623178E+002
+2.44495826377E+007, +5.03308932993E+001, +8.18208313876E+002
+2.46163606010E+007, +5.00605132629E+001, +8.25090410539E+002
+2.47831385643E+007, +5.17015236268E+001, +8.36332729282E+002
+2.49499165275E+007, +5.70791342625E+001, +8.46243005932E+002
+2.51166944908E+007, +6.01669576182E+001, +8.54837993310E+002
+2.52834724541E+007, +5.72852957941E+001, +8.63390653729E+002
+2.54502504174E+007, +6.39007901389E+001, +8.76482091135E+002
+2.56170283806E+007, +6.24787061059E+001, +8.81775572476E+002
+2.57838063439E+007, +6.95335048424E+001, +8.91621459504E+002
+2.59505843072E+007, +6.86858940466E+001, +9.05180412765E+002
+2.61173622705E+007, +7.14351430877E+001, +9.15371724980E+002
+2.62841402337E+007, +7.08709825752E+001, +9.19840153178E+002
+2.64509181970E+007, +7.39023048237E+001, +9.31411854823E+002
+2.66176961603E+007, +7.17145958932E+001, +9.46763977455E+002
+2.67844741235E+007, +7.72233028617E+001, +9.54627229476E+002
+2.69512520868E+007, +7.85126095554E+001, +9.63343317179E+002
+2.71180300501E+007, +8.00626559467E+001, +9.68931645295E+002
+2.72848080134E+007, +8.30780039937E+001, +9.82871405876E+002
+2.74515859766E+007, +8.29796611873E+001, +9.91673345107E+002
+2.76183639399E+007, +8.19569787182E+001, +9.99750037567E+002
+2.77851419032E+007, +8.47254018444E+001, +1.00915139753E+003
+2.79519198664E+007, +8.44503176771E+001, +1.01715901208E+003
+2.81186978297E+007, +8.75703598008E+001, +1.02980552058E+003
+2.82854757930E+007, +8.72824720228E+001, +1.04011483925E+003
+2.84522537563E+007, +8.02385673069E+001, +1.05596070885E+003
+2.86190317195E+007, +8.60418103837E+001, +1.06326118730E+003
+2.87858096828E+007, +8.97807062217E+001, +1.07957890810E+003
+2.89525876461E+007, +8.74655238073E+001, +1.09174549786E+003
+2.91193656093E+007, +8.40071246580E+001, +1.09944999450E+003
+2.92861435726E+007, +8.36849951893E+001, +1.11477613913E+003
+2.94529215359E+007, +8.70043833851E+001, +1.12915966549E+003
+2.96196994992E+007, +9.33727530091E+001, +1.14593953459E+003
+2.97864774624E+007, +9.46521782983E+001, +1.16338744344E+003
+2.99532554257E+007, +9.45087158657E+001, +1.18283215593E+003
+3.01200333890E+007, +9.13404030280E+001, +1.19445156960E+003
+3.02868113523E+007, +8.70207034011E+001, +1.21109987603E+003
+3.04535893155E+007, +8.64605502020E+001, +1.23086737087E+003
+3.06203672788E+007, +9.49758077107E+001, +1.24447143093E+003
+3.07871452421E+007, +9.41718785735E+001, +1.26267464962E+003
+3.09539232053E+007, +9.94108176756E+001, +1.27814514347E+003
+3.11207011686E+007, +8.72666325369E+001, +1.30134087169E+003
+3.12874791319E+007, +9.48734600185E+001, +1.31213086287E+003
+3.14542570952E+007, +9.88696538658E+001, +1.33133085830E+003
+3.16210350584E+007, +9.71269033031E+001, +1.35269750031E+003
+3.17878130217E+007, +1.02715484157E+002, +1.37116156230E+003
+3.19545909850E+007, +1.09479080448E+002, +1.39328176993E+003
+3.21213689482E+007, +9.73583763972E+001, +1.41788341316E+003
+3.22881469115E+007, +1.14602253551E+002, +1.42973036667E+003
+3.24549248748E+007, +1.14209418875E+002, +1.45893820101E+003
+3.26217028381E+007, +1.02522426842E+002, +1.46988068515E+003
+3.27884808013E+007, +1.06552859399E+002, +1.50591676207E+003
+3.29552587646E+007, +1.21728023035E+002, +1.51910790210E+003
+3.31220367279E+007, +1.25819639983E+002, +1.53953959901E+003
+3.32888146912E+007, +1.28850078984E+002, +1.57533877739E+003
+3.34555926544E+007, +1.14702663256E+002, +1.59683329403E+003
+3.36223706177E+007, +1.30434060125E+002, +1.61752642511E+003
+3.37891485810E+007, +1.36983960347E+002, +1.63955275478E+003
+3.39559265442E+007, +1.27583757133E+002, +1.67334208478E+003
+3.41227045075E+007, +1.37714784543E+002, +1.70173794757E+003
+3.42894824708E+007, +1.50733994912E+002, +1.72822003550E+003
+3.44562604341E+007, +1.38453137207E+002, +1.74091260094E+003
+3.46230383973E+007, +1.56861373910E+002, +1.78550485260E+003
+3.47898163606E+007, +1.58089909475E+002, +1.81646035986E+003
+3.49565943239E+007, +1.70144336527E+002, +1.84839361245E+003
+3.51233722871E+007, +1.64842124859E+002, +1.87949907696E+003
+3.52901502504E+007, +1.72535149010E+002, +1.91158244588E+003
+3.54569282137E+007, +1.71774841447E+002, +1.94681602068E+003
+3.56237061770E+007, +1.69663309960E+002, +1.98531817585E+003
+3.57904841402E+007, +1.74289659478E+002, +2.02955779029E+003
+3.59572621035E+007, +1.85434043081E+002, +2.06444746489E+003
+3.61240400668E+007, +1.91604979672E+002, +2.10537601372E+003
+3.62908180301E+007, +2.21054390808E+002, +2.16975793285E+003
+3.64575959933E+007, +2.22245442868E+002, +2.22583283964E+003
+3.66243739566E+007, +2.44476529139E+002, +2.24181470449E+003
+3.67911519199E+007, +2.41075659381E+002, +2.30266196284E+003
+3.69579298831E+007, +2.40247769891E+002, +2.34000770035E+003
+3.71247078464E+007, +2.38955229717E+002, +2.43551212707E+003
+3.72914858097E+007, +2.45467091331E+002, +2.49127469097E+003
+3.74582637730E+007, +2.87215881800E+002, +2.54083619352E+003
+3.76250417362E+007, +3.02522518580E+002, +2.58571848665E+003
+3.77918196995E+007, +2.94800849842E+002, +2.65399300640E+003
+3.79585976628E+007, +3.29079608587E+002, +2.71373477131E+003
+3.81253756260E+007, +3.66282703448E+002, +2.80287643398E+003
+3.82921535893E+007, +3.58491873459E+002, +2.86337482434E+003
+3.84589315526E+007, +3.78399740764E+002, +2.94732508237E+003
+3.86257095159E+007, +4.18500804531E+002, +3.01157831203E+003
+3.87924874791E+007, +4.47313997348E+002, +3.12953965302E+003
+3.89592654424E+007, +4.72819146365E+002, +3.19707375507E+003
+3.91260434057E+007, +5.35865024394E+002, +3.34207704290E+003
+3.92928213689E+007, +5.68685394711E+002, +3.39839018632E+003
+3.94595993322E+007, +6.02276609450E+002, +3.56770382315E+003
+3.96263772955E+007, +5.81486956544E+002, +3.63885121295E+003
+3.97931552588E+007, +6.82371186752E+002, +3.74370755386E+003
+3.99599332220E+007, +6.52342425332E+002, +3.92586899230E+003
+4.01267111853E+007, +8.36939673668E+002, +4.06456304554E+003
+4.02934891486E+007, +8.86041255330E+002, +4.20809720024E+003
+4.04602671119E+007, +9.68919696935E+002, +4.31390792097E+003
+4.06270450751E+007, +1.07652084610E+003, +4.53959602997E+003
+4.07938230384E+007, +1.20782625786E+003, +4.61900025919E+003
+4.09606010017E+007, +1.35184313737E+003, +4.93211617202E+003
+4.11273789649E+007, +1.45813117927E+003, +5.10045534426E+003
+4.12941569282E+007, +1.60078441414E+003, +5.36076565921E+003
+4.14609348915E+007, +1.93271884370E+003, +5.63721925057E+003
+4.16277128548E+007, +2.11385303944E+003, +5.58439963232E+003
+4.17944908180E+007, +2.25283100344E+003, +5.92439691009E+003
+4.19612687813E+007, +2.54843447507E+003, +6.22199337756E+003
+4.21280467446E+007, +2.88209575160E+003, +6.82561501265E+003
+4.22948247078E+007, +3.40259782193E+003, +6.97856299390E+003
+4.24616026711E+007, +3.88808746712E+003, +6.85454559618E+003
+4.26283806344E+007, +4.45376406539E+003, +7.38048634607E+003
+4.27951585977E+007, +5.30701731355E+003, +7.97466103882E+003
+4.29619365609E+007, +6.18066899784E+003, +7.75834997893E+003
+4.31287145242E+007, +7.48995471384E+003, +7.70587935180E+003
+4.32954924875E+007, +8.51982021016E+003, +7.55185732429E+003
+4.34622704508E+007, +9.73765947441E+003, +7.58196214678E+003
+4.36290484140E+007, +1.02513647127E+004, +6.45336541397E+003
+4.37958263773E+007, +1.24681841688E+004, +5.93218106958E+003
+4.39626043406E+007, +1.27540458552E+004, +4.42371419264E+003
+4.41293823038E+007, +1.35720970379E+004, +1.55891348124E+003
+4.42961602671E+007, +1.41594873040E+004, +4.63831544924E+002
+4.44629382304E+007, +1.41591908841E+004, -1.39971460438E+003
+4.46297161937E+007, +1.26026126741E+004, -2.77899199169E+003
+4.47964941569E+007, +1.14580344243E+004, -4.73128512285E+003
+4.49632721202E+007, +1.03385024487E+004, -5.57542723487E+003
+4.51300500835E+007, +9.12330649510E+003, -5.28675017729E+003
+4.52968280467E+007, +7.85493450942E+003, -5.89542465538E+003
+4.54636060100E+007, +6.71930563112E+003, -5.71087366403E+003
+4.56303839733E+007, +5.98892556894E+003, -5.70801650400E+003
+4.57971619366E+007, +5.37363436778E+003, -5.46796785886E+003
+4.59639398998E+007, +4.58344935340E+003, -5.46588620414E+003
+4.61307178631E+007, +4.42248435197E+003, -5.02295260319E+003
+4.62974958264E+007, +4.09242602923E+003, -4.73908975856E+003
+4.64642737896E+007, +3.74653287554E+003, -4.54489168399E+003
+4.66310517529E+007, +3.34333847111E+003, -4.48053602679E+003
+4.67978297162E+007, +3.26596623173E+003, -4.11646624685E+003
+4.69646076795E+007, +2.83709784365E+003, -4.04502386985E+003
+4.71313856427E+007, +2.77390031874E+003, -3.80374068074E+003
+4.72981636060E+007, +2.63077289641E+003, -3.64936188939E+003
+4.74649415693E+007, +2.58070041750E+003, -3.56051025955E+003
+4.76317195326E+007, +2.43381792404E+003, -3.28871504134E+003
+4.77984974958E+007, +2.31203751855E+003, -3.19625339616E+003
+4.79652754591E+007, +2.21402623900E+003, -3.06674938460E+003
+4.81320534224E+007, +2.16260331189E+003, -2.97819264373E+003
+4.82988313856E+007, +2.10623790291E+003, -2.87560246888E+003
+4.84656093489E+007, +2.09690784336E+003, -2.76997687126E+003
+4.86323873122E+007, +2.02400900024E+003, -2.65499867830E+003
+4.87991652755E+007, +1.96638025042E+003, -2.57692342933E+003
+4.89659432387E+007, +1.98256866869E+003, -2.55155302199E+003
+4.91327212020E+007, +1.87942187172E+003, -2.48345674607E+003
+4.92994991653E+007, +1.89661268196E+003, -2.36158502138E+003
+4.94662771285E+007, +1.88783522215E+003, -2.30226815751E+003
+4.96330550918E+007, +1.89844258343E+003, -2.23156663178E+003
+4.97998330551E+007, +1.90105480580E+003, -2.23821970306E+003
+4.99666110184E+007, +1.90089867528E+003, -2.21621811047E+003
+5.01333889816E+007, +1.93960721417E+003, -2.19068744012E+003
+5.03001669449E+007, +1.90253509810E+003, -2.18283809764E+003
+5.04669449082E+007, +1.91563449134E+003, -2.20003036488E+003
+5.06337228715E+007, +1.91213048654E+003, -2.19220278289E+003
+5.08005008347E+007, +1.95664175027E+003, -2.28271623201E+003
+5.09672787980E+007, +1.94741668505E+003, -2.26391700643E+003
+5.11340567613E+007, +1.88060086341E+003, -2.32720749357E+003
+5.13008347245E+007, +1.80977333338E+003, -2.43089058989E+003
+5.14676126878E+007, +1.77031503893E+003, -2.47870133568E+003
+5.16343906511E+007, +1.69476033538E+003, -2.47499160002E+003
+5.18011686144E+007, +1.60047732659E+003, -2.51578791052E+003
+5.19679465776E+007, +1.46578083044E+003, -2.54214355148E+003
+5.21347245409E+007, +1.36440107496E+003, -2.49955346945E+003
+5.23015025042E+007, +1.24178167502E+003, -2.44094068853E+003
+5.24682804674E+007, +1.15222941068E+003, -2.45212642260E+003
+5.26350584307E+007, +1.07373966652E+003, -2.41873568386E+003
+5.28018363940E+007, +9.90489115243E+002, -2.35893660780E+003
+5.29686143573E+007, +9.34506359727E+002, -2.31208480663E+003
+5.31353923205E+007, +8.96436296928E+002, -2.27833374926E+003
+5.33021702838E+007, +8.17645644713E+002, -2.21887442839E+003
+5.34689482471E+007, +7.96310555772E+002, -2.15720848386E+003
