"# Channel 1"
"# Trace 1"
Frequency, Formatted Data, Formatted Data
+1.00000000000E+006, +1.03248156806E+001, +2.49593759126E+001
+1.16527545910E+006, +1.03643583670E+001, +2.90779331513E+001
+1.33055091820E+006, +1.03891916285E+001, +3.31046966186E+001
+1.49582637730E+006, +1.03543874831E+001, +3.72175855133E+001
+1.66110183639E+006, +1.03688686148E+001, +4.13418029959E+001
+1.82637729549E+006, +1.03692950127E+001, +4.53540699675E+001
+1.99165275459E+006, +1.03856414292E+001, +4.95385409278E+001
+2.15692821369E+006, +1.03705109852E+001, +5.36205525628E+001
+2.32220367279E+006, +1.02897614574E+001, +5.77560260716E+001
+2.48747913189E+006, +1.03317958297E+001, +6.18552225158E+001
+2.65275459098E+006, +1.02780527272E+001, +6.59975960340E+001
+2.81803005008E+006, +1.03280587435E+001, +7.01116126944E+001
+2.98330550918E+006, +1.02112552699E+001, +7.41224035489E+001
+3.14858096828E+006, +1.03395229317E+001, +7.82222514975E+001
+3.31385642738E+006, +1.04706010128E+001, +8.24046347049E+001
+3.47913188648E+006, +1.03274259512E+001, +8.67109390234E+001
+3.64440734558E+006, +1.03775465115E+001, +9.06653448603E+001
+3.80968280467E+006, +1.04143953051E+001, +9.48033436610E+001
+3.97495826377E+006, +1.05273980228E+001, +9.88790776578E+001
+4.14023372287E+006, +1.06297889242E+001, +1.03363665245E+002
+4.30550918197E+006, +1.05806933702E+001, +1.06917174790E+002
+4.47078464107E+006, +1.04501200389E+001, +1.11297771806E+002
+4.63606010017E+006, +1.04808150816E+001, +1.15488262419E+002
+4.80133555927E+006, +1.04572537214E+001, +1.19729354227E+002
+4.96661101836E+006, +1.05441886761E+001, +1.23694188297E+002
+5.13188647746E+006, +1.05404196990E+001, +1.27971550437E+002
+5.29716193656E+006, +1.05149881440E+001, +1.31910648936E+002
+5.46243739566E+006, +1.06967029081E+001, +1.36455989151E+002
+5.62771285476E+006, +1.08073677397E+001, +1.40515905177E+002
+5.79298831386E+006, +1.08835570577E+001, +1.44761415249E+002
+5.95826377295E+006, +1.09268425643E+001, +1.48821474572E+002
+6.12353923205E+006, +1.13166247848E+001, +1.52712479503E+002
+6.28881469115E+006, +1.11772340531E+001, +1.57071231661E+002
+6.45409015025E+006, +1.12959941593E+001, +1.61335350257E+002
+6.61936560935E+006, +1.10791161663E+001, +1.65622109918E+002
+6.78464106845E+006, +1.14152845140E+001, +1.69688934752E+002
+6.94991652755E+006, +1.15563542679E+001, +1.73748965609E+002
+7.11519198664E+006, +1.16220818585E+001, +1.77892918527E+002
+7.28046744574E+006, +1.17217063559E+001, +1.82275908423E+002
+7.44574290484E+006, +1.18730517896E+001, +1.86249881953E+002
+7.61101836394E+006, +1.18410318245E+001, +1.90434425718E+002
+7.77629382304E+006, +1.18891918040E+001, +1.94664385627E+002
+7.94156928214E+006, +1.16905861749E+001, +1.98847849824E+002
+8.10684474124E+006, +1.17930469827E+001, +2.02760746258E+002
+8.27212020033E+006, +1.19602450627E+001, +2.07058517521E+002
+8.43739565943E+006, +1.22335363272E+001, +2.11631333547E+002
+8.60267111853E+006, +1.15683316780E+001, +2.15647259843E+002
+8.76794657763E+006, +1.21060345166E+001, +2.19907389593E+002
+8.93322203673E+006, +1.20209889792E+001, +2.24493832700E+002
+9.09849749583E+006, +1.21107366160E+001, +2.28377233817E+002
+9.26377295492E+006, +1.19998503609E+001, +2.33218178526E+002
+9.42904841402E+006, +1.20629140628E+001, +2.36941783434E+002
+9.59432387312E+006, +1.20143572357E+001, +2.41266246621E+002
+9.75959933222E+006, +1.17897955447E+001, +2.45574620411E+002
+9.92487479132E+006, +1.18079756711E+001, +2.49617494201E+002
+1.00901502504E+007, +1.23264475470E+001, +2.54069649132E+002
+1.02554257095E+007, +1.22227965138E+001, +2.58268328562E+002
+1.04207011686E+007, +1.19308347154E+001, +2.62358118001E+002
+1.05859766277E+007, +1.20828233802E+001, +2.67143201575E+002
+1.07512520868E+007, +1.21662409408E+001, +2.71268920729E+002
+1.09165275459E+007, +1.20139433226E+001, +2.75717028827E+002
+1.10818030050E+007, +1.23431215992E+001, +2.80273375681E+002
+1.12470784641E+007, +1.22822020860E+001, +2.83959321027E+002
+1.14123539232E+007, +1.21031112062E+001, +2.88427272603E+002
+1.15776293823E+007, +1.26103235962E+001, +2.93417009115E+002
+1.17429048414E+007, +1.24270753937E+001, +2.97148594382E+002
+1.19081803005E+007, +1.22876118672E+001, +3.02020986260E+002
+1.20734557596E+007, +1.23748420771E+001, +3.06549362027E+002
+1.22387312187E+007, +1.23217946222E+001, +3.10958821908E+002
+1.24040066778E+007, +1.26605383228E+001, +3.15237347269E+002
+1.25692821369E+007, +1.23351650110E+001, +3.19692399379E+002
+1.27345575960E+007, +1.29397689231E+001, +3.24291778738E+002
+1.28998330551E+007, +1.22452680867E+001, +3.28611668348E+002
+1.30651085142E+007, +1.20810472466E+001, +3.32881293527E+002
+1.32303839733E+007, +1.30474306120E+001, +3.37513151303E+002
+1.33956594324E+007, +1.27404686721E+001, +3.42155421049E+002
+1.35609348915E+007, +1.31300206112E+001, +3.46411363274E+002
+1.37262103506E+007, +1.22649414286E+001, +3.49953853925E+002
+1.38914858097E+007, +1.33954145391E+001, +3.54213563297E+002
+1.40567612688E+007, +1.30009745558E+001, +3.59883315047E+002
+1.42220367279E+007, +1.30198935803E+001, +3.64787461799E+002
+1.43873121870E+007, +1.28560876413E+001, +3.69390806407E+002
+1.45525876461E+007, +1.32185157275E+001, +3.73334660019E+002
+1.47178631052E+007, +1.28212186897E+001, +3.78711693165E+002
+1.48831385643E+007, +1.31441481895E+001, +3.82257369374E+002
+1.50484140234E+007, +1.36837131782E+001, +3.87332141267E+002
+1.52136894825E+007, +1.29373473532E+001, +3.92088270382E+002
+1.53789649416E+007, +1.28751221288E+001, +3.96129947710E+002
+1.55442404007E+007, +1.32375551087E+001, +4.01172360022E+002
+1.57095158598E+007, +1.33462528146E+001, +4.05714021005E+002
+1.58747913189E+007, +1.39996067296E+001, +4.10679161785E+002
+1.60400667780E+007, +1.35522519461E+001, +4.14924450151E+002
+1.62053422371E+007, +1.36098734203E+001, +4.19293026524E+002
+1.63706176962E+007, +1.37871513397E+001, +4.24202455887E+002
+1.65358931553E+007, +1.35751979776E+001, +4.28454903170E+002
+1.67011686144E+007, +1.47511919677E+001, +4.33476516206E+002
+1.68664440735E+007, +1.40245954147E+001, +4.38485952250E+002
+1.70317195326E+007, +1.19532352259E+001, +4.43982276737E+002
+1.71969949917E+007, +1.28571601571E+001, +4.47792764685E+002
+1.73622704508E+007, +1.35778541855E+001, +4.52740148736E+002
+1.75275459098E+007, +1.24852950482E+001, +4.57628787949E+002
+1.76928213689E+007, +1.38875176632E+001, +4.63799174929E+002
+1.78580968280E+007, +1.39624917148E+001, +4.67555787375E+002
+1.80233722871E+007, +1.44847863667E+001, +4.72881308840E+002
+1.81886477462E+007, +1.42236045357E+001, +4.78418065240E+002
+1.83539232053E+007, +1.48340177808E+001, +4.82278185244E+002
+1.85191986644E+007, +1.53234529079E+001, +4.87959728471E+002
+1.86844741235E+007, +1.43475641322E+001, +4.90896306059E+002
+1.88497495826E+007, +1.52141289592E+001, +4.97483716891E+002
+1.90150250417E+007, +1.38138506853E+001, +5.02920972912E+002
+1.91803005008E+007, +1.39783432981E+001, +5.07811626077E+002
+1.93455759599E+007, +1.52983148172E+001, +5.10842150128E+002
+1.95108514190E+007, +1.64656648990E+001, +5.17854551710E+002
+1.96761268781E+007, +1.56288555016E+001, +5.23018263609E+002
+1.98414023372E+007, +1.58355413353E+001, +5.27869735064E+002
+2.00066777963E+007, +1.51827227316E+001, +5.31916840873E+002
+2.01719532554E+007, +1.64000906363E+001, +5.37089946477E+002
+2.03372287145E+007, +1.64572907204E+001, +5.43289828334E+002
+2.05025041736E+007, +1.51909182188E+001, +5.48486774378E+002
+2.06677796327E+007, +1.75116837560E+001, +5.54691479017E+002
+2.08330550918E+007, +1.60224553455E+001, +5.59730905791E+002
+2.09983305509E+007, +1.69725842294E+001, +5.64396749114E+002
+2.11636060100E+007, +1.66608731789E+001, +5.69154875977E+002
+2.13288814691E+007, +1.60495655090E+001, +5.75365262392E+002
+2.14941569282E+007, +1.58289320768E+001, +5.79357705983E+002
+2.16594323873E+007, +1.64840312348E+001, +5.85212617583E+002
+2.18247078464E+007, +1.71279130804E+001, +5.91615804235E+002
+2.19899833055E+007, +1.78149738776E+001, +5.98368420324E+002
+2.21552587646E+007, +1.72488038217E+001, +5.99997020173E+002
+2.23205342237E+007, +1.90116045695E+001, +6.06781401909E+002
+2.24858096828E+007, +1.89068881777E+001, +6.13506255513E+002
+2.26510851419E+007, +2.06743626109E+001, +6.17168064635E+002
+2.28163606010E+007, +1.91094588789E+001, +6.23250055290E+002
+2.29816360601E+007, +1.83324027564E+001, +6.29692566665E+002
+2.31469115192E+007, +2.22505490820E+001, +6.33678861243E+002
+2.33121869783E+007, +2.25451215959E+001, +6.43056184690E+002
+2.34774624374E+007, +2.27885727538E+001, +6.45293063220E+002
+2.36427378965E+007, +2.28855684889E+001, +6.52259583107E+002
+2.38080133556E+007, +2.19556250462E+001, +6.56508172216E+002
+2.39732888147E+007, +2.39647895793E+001, +6.63697871734E+002
+2.41385642738E+007, +2.17918369997E+001, +6.69619358350E+002
+2.43038397329E+007, +2.31549095298E+001, +6.75734849268E+002
+2.44691151920E+007, +2.52313253976E+001, +6.80787645483E+002
+2.46343906511E+007, +2.22385027141E+001, +6.86789651860E+002
+2.47996661102E+007, +2.16443931422E+001, +6.92299514537E+002
+2.49649415693E+007, +2.42288577186E+001, +6.99077907282E+002
+2.51302170284E+007, +2.35818924744E+001, +7.02326569457E+002
+2.52954924875E+007, +2.59854325446E+001, +7.09188549995E+002
+2.54607679466E+007, +2.56970668525E+001, +7.15697715034E+002
+2.56260434057E+007, +2.48745981301E+001, +7.21304615603E+002
+2.57913188648E+007, +2.44795736208E+001, +7.28719586658E+002
+2.59565943239E+007, +2.81278739334E+001, +7.30795823976E+002
+2.61218697830E+007, +2.77574319716E+001, +7.39545702211E+002
+2.62871452421E+007, +2.92283563010E+001, +7.43425320397E+002
+2.64524207012E+007, +2.74997265107E+001, +7.50706394998E+002
+2.66176961603E+007, +2.77552973363E+001, +7.58911746234E+002
+2.67829716194E+007, +2.72621528342E+001, +7.60836706896E+002
+2.69482470785E+007, +2.95079596241E+001, +7.71405103336E+002
+2.71135225376E+007, +2.95655591385E+001, +7.78753567271E+002
+2.72787979967E+007, +2.87542841816E+001, +7.85755908021E+002
+2.74440734558E+007, +3.04584602768E+001, +7.92391100836E+002
+2.76093489149E+007, +3.06907799069E+001, +7.95328222001E+002
+2.77746243740E+007, +3.14801381466E+001, +8.05508570380E+002
+2.79398998331E+007, +2.94381856992E+001, +8.10506767290E+002
+2.81051752922E+007, +3.43273012060E+001, +8.15645794824E+002
+2.82704507513E+007, +3.11826351575E+001, +8.25171963815E+002
+2.84357262104E+007, +3.06724497236E+001, +8.27773659349E+002
+2.86010016694E+007, +3.29213804421E+001, +8.38860284097E+002
+2.87662771285E+007, +3.27985569444E+001, +8.45515748765E+002
+2.89315525876E+007, +3.37943228548E+001, +8.51221808435E+002
+2.90968280467E+007, +3.58400071740E+001, +8.58675233434E+002
+2.92621035058E+007, +3.37091340184E+001, +8.65442532125E+002
+2.94273789649E+007, +3.35658664478E+001, +8.72910185345E+002
+2.95926544240E+007, +3.02712091080E+001, +8.79738395246E+002
+2.97579298831E+007, +3.77376648532E+001, +8.87282732749E+002
+2.99232053422E+007, +3.76827193938E+001, +8.93575010967E+002
+3.00884808013E+007, +3.78336902140E+001, +9.00516906181E+002
+3.02537562604E+007, +3.79405749335E+001, +9.09751631496E+002
+3.04190317195E+007, +4.12903942204E+001, +9.16087742869E+002
+3.05843071786E+007, +3.62020821016E+001, +9.22777816820E+002
+3.07495826377E+007, +3.65843419760E+001, +9.32911513172E+002
+3.09148580968E+007, +4.09871256485E+001, +9.36993763153E+002
+3.10801335559E+007, +4.10478704810E+001, +9.46441535177E+002
+3.12454090150E+007, +3.91252277307E+001, +9.51425775814E+002
+3.14106844741E+007, +3.93230264786E+001, +9.60107179553E+002
+3.15759599332E+007, +3.87356385438E+001, +9.67592205948E+002
+3.17412353923E+007, +4.17975773489E+001, +9.75261348259E+002
+3.19065108514E+007, +4.17848981752E+001, +9.86925391725E+002
+3.20717863105E+007, +3.92623880099E+001, +9.90534240503E+002
+3.22370617696E+007, +4.29129299985E+001, +9.98562868962E+002
+3.24023372287E+007, +4.77651436978E+001, +1.01126813121E+003
+3.25676126878E+007, +4.98118538504E+001, +1.01992856993E+003
+3.27328881469E+007, +4.49987667906E+001, +1.02061703042E+003
+3.28981636060E+007, +4.41491439162E+001, +1.03187069053E+003
+3.30634390651E+007, +4.35480426361E+001, +1.04655124960E+003
+3.32287145242E+007, +4.31456007906E+001, +1.05762719278E+003
+3.33939899833E+007, +4.59147770604E+001, +1.05966491599E+003
+3.35592654424E+007, +4.89782167883E+001, +1.06879990116E+003
+3.37245409015E+007, +4.89469142604E+001, +1.07464224064E+003
+3.38898163606E+007, +4.67616145085E+001, +1.08830070701E+003
+3.40550918197E+007, +5.37199462665E+001, +1.09655183386E+003
+3.42203672788E+007, +5.03108927697E+001, +1.10353059147E+003
+3.43856427379E+007, +5.22959232433E+001, +1.11369036982E+003
+3.45509181970E+007, +5.02423266484E+001, +1.12903837350E+003
+3.47161936561E+007, +5.56816530659E+001, +1.13312223649E+003
+3.48814691152E+007, +5.48518272924E+001, +1.14054482783E+003
+3.50467445743E+007, +5.70969432176E+001, +1.15534401325E+003
+3.52120200334E+007, +6.18618103183E+001, +1.16133934351E+003
+3.53772954925E+007, +5.35697491646E+001, +1.17103276509E+003
+3.55425709516E+007, +5.33823298204E+001, +1.18672400262E+003
+3.57078464107E+007, +5.95664003432E+001, +1.18964229353E+003
+3.58731218698E+007, +5.90544991646E+001, +1.20369309440E+003
+3.60383973289E+007, +5.56408140262E+001, +1.20982994419E+003
+3.62036727880E+007, +6.01998555697E+001, +1.22179107120E+003
+3.63689482471E+007, +6.25764920385E+001, +1.23610905236E+003
+3.65342237062E+007, +6.33498898453E+001, +1.24032660871E+003
+3.66994991653E+007, +5.93086666019E+001, +1.26121322463E+003
+3.68647746244E+007, +6.40582223982E+001, +1.26543388324E+003
+3.70300500835E+007, +5.97441669811E+001, +1.28152766361E+003
+3.71953255426E+007, +5.88086717751E+001, +1.29785099930E+003
+3.73606010017E+007, +6.66480741894E+001, +1.30443756733E+003
+3.75258764608E+007, +6.78379848019E+001, +1.32964447837E+003
+3.76911519199E+007, +6.30119805645E+001, +1.33144994439E+003
+3.78564273790E+007, +5.50997741447E+001, +1.34297972060E+003
+3.80217028381E+007, +6.24930852673E+001, +1.35114209356E+003
+3.81869782972E+007, +6.14589301818E+001, +1.36561736274E+003
+3.83522537563E+007, +5.92754321574E+001, +1.38969601961E+003
+3.85175292154E+007, +6.72145443482E+001, +1.38798534184E+003
+3.86828046745E+007, +5.81821614548E+001, +1.40693530114E+003
+3.88480801336E+007, +7.19179819902E+001, +1.43345486097E+003
+3.90133555927E+007, +6.61779904776E+001, +1.43887971325E+003
+3.91786310518E+007, +7.37892770670E+001, +1.46340293378E+003
+3.93439065109E+007, +7.01236076010E+001, +1.47743459424E+003
+3.95091819699E+007, +9.24932302749E+001, +1.48485432734E+003
+3.96744574290E+007, +8.20781739980E+001, +1.49514309156E+003
+3.98397328881E+007, +7.23909013196E+001, +1.51702285490E+003
+4.00050083472E+007, +8.09536151937E+001, +1.54532791863E+003
+4.01702838063E+007, +7.59201832506E+001, +1.53962698806E+003
+4.03355592654E+007, +8.32240854509E+001, +1.56452577691E+003
+4.05008347245E+007, +8.77231667689E+001, +1.58671660745E+003
+4.06661101836E+007, +7.28619485298E+001, +1.60015842470E+003
+4.08313856427E+007, +7.92548044402E+001, +1.63036392755E+003
+4.09966611018E+007, +7.63448106251E+001, +1.64532820503E+003
+4.11619365609E+007, +9.62293575606E+001, +1.65561180776E+003
+4.13272120200E+007, +1.02110011405E+002, +1.67325535536E+003
+4.14924874791E+007, +9.90918778568E+001, +1.68595410914E+003
+4.16577629382E+007, +9.97638346040E+001, +1.71450038283E+003
+4.18230383973E+007, +1.02221378170E+002, +1.73673496221E+003
+4.19883138564E+007, +9.48456591062E+001, +1.76323167763E+003
+4.21535893155E+007, +1.05936544229E+002, +1.77484949922E+003
+4.23188647746E+007, +1.10857697473E+002, +1.79805223113E+003
+4.24841402337E+007, +1.06420550194E+002, +1.83526976608E+003
+4.26494156928E+007, +1.07138505247E+002, +1.84953333725E+003
+4.28146911519E+007, +1.23399218248E+002, +1.87204720403E+003
+4.29799666110E+007, +1.17214297435E+002, +1.90079823991E+003
+4.31452420701E+007, +1.24322348141E+002, +1.93125520509E+003
+4.33105175292E+007, +1.22374926896E+002, +1.96059075274E+003
+4.34757929883E+007, +1.15355287117E+002, +1.98908105304E+003
+4.36410684474E+007, +1.23872245549E+002, +2.00343373071E+003
+4.38063439065E+007, +1.19259094593E+002, +2.04518863763E+003
+4.39716193656E+007, +1.40522812657E+002, +2.06359698845E+003
+4.41368948247E+007, +1.29769281877E+002, +2.10587716067E+003
+4.43021702838E+007, +1.52445675311E+002, +2.13028396036E+003
+4.44674457429E+007, +1.59335631825E+002, +2.16788852616E+003
+4.46327212020E+007, +1.54409643197E+002, +2.19140025951E+003
+4.47979966611E+007, +1.59003469486E+002, +2.24120830692E+003
+4.49632721202E+007, +1.74792344412E+002, +2.30307998226E+003
+4.51285475793E+007, +1.69317446858E+002, +2.32592620619E+003
+4.52938230384E+007, +1.94489193153E+002, +2.36217521126E+003
+4.54590984975E+007, +1.68537314525E+002, +2.37598999981E+003
+4.56243739566E+007, +2.40762417841E+002, +2.46423367630E+003
+4.57896494157E+007, +2.24478639023E+002, +2.48516736245E+003
+4.59549248748E+007, +2.23166643731E+002, +2.55978966688E+003
+4.61202003339E+007, +2.35628878127E+002, +2.57468918735E+003
+4.62854757930E+007, +2.71291241596E+002, +2.64288195541E+003
+4.64507512521E+007, +2.70365059299E+002, +2.65025771357E+003
+4.66160267112E+007, +2.88940451672E+002, +2.75089748970E+003
+4.67813021703E+007, +3.51461168764E+002, +2.77455088990E+003
+4.69465776294E+007, +3.38124797147E+002, +2.84828287764E+003
+4.71118530885E+007, +3.71174918989E+002, +2.89090845973E+003
+4.72771285476E+007, +3.62377215624E+002, +2.97031228788E+003
+4.74424040067E+007, +4.13097315176E+002, +3.06779314504E+003
+4.76076794658E+007, +4.29151006308E+002, +3.12117283608E+003
+4.77729549249E+007, +4.85018121870E+002, +3.16749097989E+003
+4.79382303840E+007, +5.03452542359E+002, +3.22939518823E+003
+4.81035058431E+007, +5.35155055826E+002, +3.27613459474E+003
+4.82687813022E+007, +5.90615303268E+002, +3.32986496492E+003
+4.84340567613E+007, +6.23359308693E+002, +3.50556635717E+003
+4.85993322204E+007, +6.97332254648E+002, +3.58020017712E+003
+4.87646076795E+007, +7.88371713301E+002, +3.68629835701E+003
+4.89298831386E+007, +7.87776328805E+002, +3.66187607721E+003
+4.90951585977E+007, +8.37019897506E+002, +3.78151676343E+003
+4.92604340568E+007, +9.39722923341E+002, +3.88493147554E+003
+4.94257095159E+007, +1.02736153447E+003, +3.91069599741E+003
+4.95909849750E+007, +1.12129971648E+003, +4.12371370446E+003
+4.97562604341E+007, +1.24438225723E+003, +4.08510829805E+003
+4.99215358932E+007, +1.25349302951E+003, +4.30510348037E+003
+5.00868113523E+007, +1.36006819898E+003, +4.38986045496E+003
+5.02520868114E+007, +1.57801604211E+003, +4.42319429752E+003
+5.04173622705E+007, +1.66191326375E+003, +4.58703737340E+003
+5.05826377295E+007, +1.76182261623E+003, +4.57500274253E+003
+5.07479131886E+007, +1.84026432529E+003, +4.59254150979E+003
+5.09131886477E+007, +1.88861813126E+003, +4.67309812631E+003
+5.10784641068E+007, +1.98523234316E+003, +4.87119796138E+003
+5.12437395659E+007, +2.13458462193E+003, +5.04438986799E+003
+5.14090150250E+007, +2.25761661925E+003, +5.01981188886E+003
+5.15742904841E+007, +2.33173706514E+003, +5.15252630330E+003
+5.17395659432E+007, +2.63364280832E+003, +5.24603505698E+003
+5.19048414023E+007, +2.88563127401E+003, +5.42840806568E+003
+5.20701168614E+007, +3.07215189239E+003, +5.62849575186E+003
+5.22353923205E+007, +3.41182955837E+003, +6.03737470954E+003
+5.24006677796E+007, +3.28704417378E+003, +6.02874719319E+003
+5.25659432387E+007, +3.85701957394E+003, +6.31883716154E+003
+5.27312186978E+007, +4.35713563343E+003, +6.53387257739E+003
+5.28964941569E+007, +4.82848445610E+003, +6.99908952467E+003
+5.30617696160E+007, +5.52688487776E+003, +7.25549508214E+003
+5.32270450751E+007, +5.86953695581E+003, +7.15445169720E+003
+5.33923205342E+007, +7.33451978247E+003, +7.97816209716E+003
+5.35575959933E+007, +8.45269372286E+003, +7.56680665674E+003
+5.37228714524E+007, +1.00202194841E+004, +7.00077469664E+003
+5.38881469115E+007, +1.02132795328E+004, +6.59833205021E+003
