"# Channel 1"
"# Trace 1"
Frequency, Formatted Data, Formatted Data
+1.00000000000E+005, +2.96348714152E+001, +2.54871738451E+000
+2.25031289111E+005, +2.95980202374E+001, +5.83903592809E+000
+3.50062578223E+005, +2.96336289649E+001, +9.04673227144E+000
+4.75093867334E+005, +2.96699691731E+001, +1.22336476563E+001
+6.00125156446E+005, +2.96623215147E+001, +1.54074764025E+001
+7.25156445557E+005, +2.96771082688E+001, +1.87033252876E+001
+8.50187734668E+005, +2.97188431621E+001, +2.18793190417E+001
+9.75219023780E+005, +2.97010220062E+001, +2.50957081756E+001
+1.10025031289E+006, +2.96596296798E+001, +2.82615261339E+001
+1.22528160200E+006, +2.97148307691E+001, +3.15080732863E+001
+1.35031289111E+006, +2.97662734080E+001, +3.46857493034E+001
+1.47534418023E+006, +2.97011744360E+001, +3.79169828269E+001
+1.60037546934E+006, +2.97504770868E+001, +4.11398510163E+001
+1.72540675845E+006, +2.96706367563E+001, +4.43484535706E+001
+1.85043804756E+006, +2.96247332684E+001, +4.75572910560E+001
+1.97546933667E+006, +2.96923897595E+001, +5.07393768118E+001
+2.10050062578E+006, +2.97078235932E+001, +5.39480268809E+001
+2.22553191489E+006, +2.96138842758E+001, +5.71778805307E+001
+2.35056320401E+006, +2.96366201536E+001, +6.03956699485E+001
+2.47559449312E+006, +2.97132694296E+001, +6.36198755719E+001
+2.60062578223E+006, +2.97150640738E+001, +6.68255186202E+001
+2.72565707134E+006, +2.97693884288E+001, +7.01432250937E+001
+2.85068836045E+006, +2.97483224388E+001, +7.33904198637E+001
+2.97571964956E+006, +2.95445159009E+001, +7.65761290819E+001
+3.10075093867E+006, +2.97988413260E+001, +7.97747632536E+001
+3.22578222778E+006, +2.98055734615E+001, +8.29637297476E+001
+3.35081351690E+006, +2.97014253191E+001, +8.63112163325E+001
+3.47584480601E+006, +2.97893163502E+001, +8.95982215043E+001
+3.60087609512E+006, +2.98051042479E+001, +9.28954050489E+001
+3.72590738423E+006, +2.97937098046E+001, +9.61165969619E+001
+3.85093867334E+006, +2.96759328813E+001, +9.93026731504E+001
+3.97596996245E+006, +2.98421608247E+001, +1.02470077617E+002
+4.10100125156E+006, +3.01218266812E+001, +1.05873704067E+002
+4.22603254068E+006, +2.98726932969E+001, +1.08884838961E+002
+4.35106382979E+006, +2.99145208050E+001, +1.12482626005E+002
+4.47609511890E+006, +2.97337875308E+001, +1.15748574351E+002
+4.60112640801E+006, +2.98788299923E+001, +1.18763630850E+002
+4.72615769712E+006, +2.99946462865E+001, +1.22309285420E+002
+4.85118898623E+006, +2.98439057450E+001, +1.25425931244E+002
+4.97622027534E+006, +2.97429321451E+001, +1.28653496607E+002
+5.10125156446E+006, +2.99617019527E+001, +1.31846441009E+002
+5.22628285357E+006, +3.00912393348E+001, +1.35075352858E+002
+5.35131414268E+006, +3.03012730086E+001, +1.38815300368E+002
+5.47634543179E+006, +2.98289366407E+001, +1.41836211919E+002
+5.60137672090E+006, +3.01156232425E+001, +1.45507537717E+002
+5.72640801001E+006, +2.99004793931E+001, +1.48564687262E+002
+5.85143929912E+006, +2.97471428830E+001, +1.51616627959E+002
+5.97647058824E+006, +3.00207672913E+001, +1.55447854494E+002
+6.10150187735E+006, +3.03835030890E+001, +1.58518041249E+002
+6.22653316646E+006, +3.02809141593E+001, +1.62039050616E+002
+6.35156445557E+006, +3.03853245077E+001, +1.65249741857E+002
+6.47659574468E+006, +3.05917566597E+001, +1.68649075315E+002
+6.60162703379E+006, +3.05553061658E+001, +1.72228794050E+002
+6.72665832290E+006, +3.04482895509E+001, +1.75526704134E+002
+6.85168961202E+006, +3.07603732014E+001, +1.78769033844E+002
+6.97672090113E+006, +3.07602593008E+001, +1.82588468610E+002
+7.10175219024E+006, +3.08131056373E+001, +1.85761038080E+002
+7.22678347935E+006, +3.07098135163E+001, +1.88914233566E+002
+7.35181476846E+006, +3.08937243560E+001, +1.92524985443E+002
+7.47684605757E+006, +3.06372075087E+001, +1.95601605804E+002
+7.60187734668E+006, +3.09048346112E+001, +1.99183878943E+002
+7.72690863579E+006, +3.09892850467E+001, +2.02860366687E+002
+7.85193992491E+006, +3.09288943324E+001, +2.06471929400E+002
+7.97697121402E+006, +3.10688457451E+001, +2.09522519404E+002
+8.10200250313E+006, +3.12861442969E+001, +2.13323248389E+002
+8.22703379224E+006, +3.08066019218E+001, +2.16681949038E+002
+8.35206508135E+006, +3.11990343043E+001, +2.20552814844E+002
+8.47709637046E+006, +3.09986992069E+001, +2.23459968574E+002
+8.60212765957E+006, +3.13866073598E+001, +2.27029497824E+002
+8.72715894869E+006, +3.10399656951E+001, +2.30848911344E+002
+8.85219023780E+006, +3.14394176230E+001, +2.34285865259E+002
+8.97722152691E+006, +3.17193867153E+001, +2.37742922157E+002
+9.10225281602E+006, +3.09003044227E+001, +2.41416218993E+002
+9.22728410513E+006, +3.14693835930E+001, +2.44387708784E+002
+9.35231539424E+006, +3.15494692697E+001, +2.48117154380E+002
+9.47734668335E+006, +3.16816832252E+001, +2.51612440896E+002
+9.60237797247E+006, +3.14393405878E+001, +2.55730300212E+002
+9.72740926158E+006, +3.14125597352E+001, +2.58710123164E+002
+9.85244055069E+006, +3.15716628901E+001, +2.62688220401E+002
+9.97747183980E+006, +3.14537347623E+001, +2.66037551855E+002
+1.01025031289E+007, +3.12715823834E+001, +2.69884121423E+002
+1.02275344180E+007, +3.16620276819E+001, +2.73078838232E+002
+1.03525657071E+007, +3.18326531418E+001, +2.76718964358E+002
+1.04775969962E+007, +3.18600235977E+001, +2.80649332332E+002
+1.06026282854E+007, +3.20131827735E+001, +2.84317325487E+002
+1.07276595745E+007, +3.21137981853E+001, +2.87804775111E+002
+1.08526908636E+007, +3.26346629208E+001, +2.91582880938E+002
+1.09777221527E+007, +3.19669463769E+001, +2.95600740354E+002
+1.11027534418E+007, +3.19199125068E+001, +2.99139207432E+002
+1.12277847309E+007, +3.22656658923E+001, +3.02262403398E+002
+1.13528160200E+007, +3.24761707174E+001, +3.06135323543E+002
+1.14778473091E+007, +3.22404139828E+001, +3.09808486068E+002
+1.16028785982E+007, +3.23410878579E+001, +3.13972928971E+002
+1.17279098874E+007, +3.24490733449E+001, +3.17068310687E+002
+1.18529411765E+007, +3.27677003694E+001, +3.21233690462E+002
+1.19779724656E+007, +3.21894435337E+001, +3.25539558601E+002
+1.21030037547E+007, +3.20058393336E+001, +3.29047771659E+002
+1.22280350438E+007, +3.26534556944E+001, +3.32969265323E+002
+1.23530663329E+007, +3.28477282817E+001, +3.36908868945E+002
+1.24780976220E+007, +3.21556517213E+001, +3.40355717024E+002
+1.26031289111E+007, +3.28897877319E+001, +3.43738114407E+002
+1.27281602003E+007, +3.31030506629E+001, +3.48334355111E+002
+1.28531914894E+007, +3.35174332756E+001, +3.51787055444E+002
+1.29782227785E+007, +3.29654097268E+001, +3.56945647609E+002
+1.31032540676E+007, +3.21079891105E+001, +3.59549010491E+002
+1.32282853567E+007, +3.28849495658E+001, +3.63326565934E+002
+1.33533166458E+007, +3.29725911317E+001, +3.67670891098E+002
+1.34783479349E+007, +3.34569150326E+001, +3.72210630153E+002
+1.36033792240E+007, +3.30713328123E+001, +3.75919744727E+002
+1.37284105131E+007, +3.33475988465E+001, +3.79662944729E+002
+1.38534418023E+007, +3.47712490899E+001, +3.83341511553E+002
+1.39784730914E+007, +3.31315573508E+001, +3.88096655430E+002
+1.41035043805E+007, +3.31337077506E+001, +3.91373088800E+002
+1.42285356696E+007, +3.38343757281E+001, +3.95728215122E+002
+1.43535669587E+007, +3.35749523559E+001, +4.00320844158E+002
+1.44785982478E+007, +3.34894075048E+001, +4.04100553847E+002
+1.46036295369E+007, +3.37288510440E+001, +4.07862458722E+002
+1.47286608260E+007, +3.32966113148E+001, +4.12083136740E+002
+1.48536921151E+007, +3.39233311727E+001, +4.16712922012E+002
+1.49787234043E+007, +3.37291951854E+001, +4.20432502810E+002
+1.51037546934E+007, +3.31862760008E+001, +4.25176663225E+002
+1.52287859825E+007, +3.38277263356E+001, +4.28791165595E+002
+1.53538172716E+007, +3.46472499403E+001, +4.32737533351E+002
+1.54788485607E+007, +3.44555722842E+001, +4.36760625310E+002
+1.56038798498E+007, +3.43865618209E+001, +4.42075951044E+002
+1.57289111389E+007, +3.43340760285E+001, +4.46471308442E+002
+1.58539424280E+007, +3.40724206832E+001, +4.50736754156E+002
+1.59789737171E+007, +3.43875585524E+001, +4.53855621059E+002
+1.61040050063E+007, +3.42704894539E+001, +4.59433076721E+002
+1.62290362954E+007, +3.50912863433E+001, +4.63695231220E+002
+1.63540675845E+007, +3.49082028347E+001, +4.67660159310E+002
+1.64790988736E+007, +3.58198311687E+001, +4.72354757133E+002
+1.66041301627E+007, +3.51657656320E+001, +4.75349959975E+002
+1.67291614518E+007, +3.56953209060E+001, +4.81916513777E+002
+1.68541927409E+007, +3.48945509109E+001, +4.84956744818E+002
+1.69792240300E+007, +3.58370628379E+001, +4.89098092224E+002
+1.71042553191E+007, +3.50960465821E+001, +4.96399073670E+002
+1.72292866083E+007, +3.44623857238E+001, +4.99622395553E+002
+1.73543178974E+007, +3.44774265538E+001, +5.04612724586E+002
+1.74793491865E+007, +3.49463952750E+001, +5.08564221043E+002
+1.76043804756E+007, +3.41094717567E+001, +5.13344376938E+002
+1.77294117647E+007, +3.58547177056E+001, +5.19356757612E+002
+1.78544430538E+007, +3.53430051073E+001, +5.22025280074E+002
+1.79794743429E+007, +3.69081660664E+001, +5.27487140912E+002
+1.81045056320E+007, +3.63287058547E+001, +5.32991005543E+002
+1.82295369212E+007, +3.52921410353E+001, +5.37170904041E+002
+1.83545682103E+007, +3.72680477305E+001, +5.43179788097E+002
+1.84795994994E+007, +3.61518430281E+001, +5.46887563950E+002
+1.86046307885E+007, +3.68648742166E+001, +5.50507441008E+002
+1.87296620776E+007, +3.67136780515E+001, +5.56748176782E+002
+1.88546933667E+007, +3.73604879676E+001, +5.62401195310E+002
+1.89797246558E+007, +3.75053170212E+001, +5.66467707161E+002
+1.91047559449E+007, +3.68174365887E+001, +5.72580720665E+002
+1.92297872340E+007, +3.76702219545E+001, +5.77712984486E+002
+1.93548185232E+007, +4.05356155083E+001, +5.83553926769E+002
+1.94798498123E+007, +3.81842952134E+001, +5.86943307148E+002
+1.96048811014E+007, +3.85969216508E+001, +5.92956278441E+002
+1.97299123905E+007, +3.60380402209E+001, +5.96704922869E+002
+1.98549436796E+007, +3.97424183816E+001, +6.02472140607E+002
+1.99799749687E+007, +3.83489021180E+001, +6.07804609369E+002
+2.01050062578E+007, +3.91346698651E+001, +6.13282503164E+002
+2.02300375469E+007, +3.91763655898E+001, +6.18992487451E+002
+2.03550688360E+007, +4.09419043103E+001, +6.23487262268E+002
+2.04801001252E+007, +4.01141853438E+001, +6.27704774990E+002
+2.06051314143E+007, +3.99746063001E+001, +6.32499175621E+002
+2.07301627034E+007, +4.07748271676E+001, +6.38109292976E+002
+2.08551939925E+007, +4.23222735507E+001, +6.45437941803E+002
+2.09802252816E+007, +4.04387340576E+001, +6.49493745623E+002
+2.11052565707E+007, +4.22172570932E+001, +6.58306702369E+002
+2.12302878598E+007, +4.20009586276E+001, +6.63207845286E+002
+2.13553191489E+007, +4.34860573621E+001, +6.68323744207E+002
+2.14803504380E+007, +4.37905501068E+001, +6.71447853786E+002
+2.16053817272E+007, +4.31373937482E+001, +6.78735006575E+002
+2.17304130163E+007, +4.11421307018E+001, +6.85369642967E+002
+2.18554443054E+007, +4.22681388704E+001, +6.90276009483E+002
+2.19804755945E+007, +4.31637523612E+001, +6.94914275858E+002
+2.21055068836E+007, +4.41981501124E+001, +7.04325410034E+002
+2.22305381727E+007, +4.35473575214E+001, +7.09604440813E+002
+2.23555694618E+007, +4.55738508810E+001, +7.16558519990E+002
+2.24806007509E+007, +4.57006188099E+001, +7.20086250202E+002
+2.26056320401E+007, +4.61813516512E+001, +7.27084685980E+002
+2.27306633292E+007, +4.58994227585E+001, +7.34226446249E+002
+2.28556946183E+007, +4.81497036287E+001, +7.37746780771E+002
+2.29807259074E+007, +4.84843569488E+001, +7.47198953010E+002
+2.31057571965E+007, +4.79948943721E+001, +7.52045602326E+002
+2.32307884856E+007, +5.31095560643E+001, +7.55993997321E+002
+2.33558197747E+007, +5.14161948561E+001, +7.63620630680E+002
+2.34808510638E+007, +5.30460175520E+001, +7.66161661540E+002
+2.36058823529E+007, +5.13253590229E+001, +7.74426595063E+002
+2.37309136421E+007, +5.18875082628E+001, +7.84051120217E+002
+2.38559449312E+007, +5.31014425391E+001, +7.88497701456E+002
+2.39809762203E+007, +5.74944924746E+001, +7.92001651482E+002
+2.41060075094E+007, +5.62025391536E+001, +7.98103072120E+002
+2.42310387985E+007, +5.32510583817E+001, +8.05979194961E+002
+2.43560700876E+007, +5.58262239285E+001, +8.09467675454E+002
+2.44811013767E+007, +5.52722432998E+001, +8.17504025211E+002
+2.46061326658E+007, +5.43379407157E+001, +8.23532378526E+002
+2.47311639549E+007, +5.76657954113E+001, +8.30609068793E+002
+2.48561952441E+007, +5.58058163151E+001, +8.37294932550E+002
+2.49812265332E+007, +5.63320685203E+001, +8.40555082413E+002
+2.51062578223E+007, +5.53732457904E+001, +8.46857467963E+002
+2.52312891114E+007, +5.61285213944E+001, +8.54106116911E+002
+2.53563204005E+007, +5.62142855030E+001, +8.65709229691E+002
+2.54813516896E+007, +5.49791488071E+001, +8.70205482503E+002
+2.56063829787E+007, +5.53275412559E+001, +8.76337896356E+002
+2.57314142678E+007, +5.52028239360E+001, +8.82885261985E+002
+2.58564455569E+007, +6.09338562937E+001, +8.90325641728E+002
+2.59814768461E+007, +5.60843887006E+001, +9.01392505954E+002
+2.61065081352E+007, +5.41098682321E+001, +9.09037430965E+002
+2.62315394243E+007, +5.42418736574E+001, +9.16624545804E+002
+2.63565707134E+007, +5.82007694247E+001, +9.22308537159E+002
+2.64816020025E+007, +5.57248972300E+001, +9.32782812219E+002
+2.66066332916E+007, +5.63335683810E+001, +9.34700877599E+002
+2.67316645807E+007, +5.72233781571E+001, +9.48221684719E+002
+2.68566958698E+007, +5.48499240581E+001, +9.53862402679E+002
+2.69817271589E+007, +5.70407793388E+001, +9.64600449717E+002
+2.71067584481E+007, +5.86057424263E+001, +9.73882157147E+002
+2.72317897372E+007, +5.99944379239E+001, +9.83171136915E+002
+2.73568210263E+007, +6.01709224165E+001, +9.89328728583E+002
+2.74818523154E+007, +6.61206543958E+001, +9.96433073143E+002
+2.76068836045E+007, +6.59693126896E+001, +1.00618933610E+003
+2.77319148936E+007, +6.38090917937E+001, +1.01318938605E+003
+2.78569461827E+007, +6.13594170670E+001, +1.02049384289E+003
+2.79819774718E+007, +6.27760741314E+001, +1.02890362255E+003
+2.81070087610E+007, +6.49471238491E+001, +1.03965615240E+003
+2.82320400501E+007, +6.02210232313E+001, +1.04251691439E+003
+2.83570713392E+007, +6.30246038349E+001, +1.05465126915E+003
+2.84821026283E+007, +5.96434494167E+001, +1.07126885727E+003
+2.86071339174E+007, +6.42065039574E+001, +1.07493578589E+003
+2.87321652065E+007, +6.38162049452E+001, +1.08881655283E+003
+2.88571964956E+007, +6.40520285365E+001, +1.09726693362E+003
+2.89822277847E+007, +6.61656837439E+001, +1.10639500143E+003
+2.91072590738E+007, +7.31277558992E+001, +1.12015230021E+003
+2.92322903630E+007, +7.16098532793E+001, +1.12432263206E+003
+2.93573216521E+007, +6.91551784166E+001, +1.13145381422E+003
+2.94823529412E+007, +6.52644395743E+001, +1.14995915297E+003
+2.96073842303E+007, +7.33309265204E+001, +1.15750139177E+003
+2.97324155194E+007, +6.52311286848E+001, +1.16250595663E+003
+2.98574468085E+007, +6.45138750930E+001, +1.18123828401E+003
+2.99824780976E+007, +7.21224953506E+001, +1.19162106656E+003
+3.01075093867E+007, +6.62392222400E+001, +1.20391841735E+003
+3.02325406758E+007, +7.18023608376E+001, +1.20854389861E+003
+3.03575719650E+007, +7.06661569874E+001, +1.22618574254E+003
+3.04826032541E+007, +6.78560638351E+001, +1.22923975684E+003
+3.06076345432E+007, +7.70455967247E+001, +1.24977352551E+003
+3.07326658323E+007, +6.86432932621E+001, +1.25873717610E+003
+3.08576971214E+007, +6.93951509325E+001, +1.27553433890E+003
+3.09827284105E+007, +8.11741462005E+001, +1.28406679903E+003
+3.11077596996E+007, +7.37235494395E+001, +1.29778955934E+003
+3.12327909887E+007, +7.50940484987E+001, +1.29449266580E+003
+3.13578222778E+007, +8.23353464329E+001, +1.31528005557E+003
+3.14828535670E+007, +7.35618711695E+001, +1.33365285163E+003
+3.16078848561E+007, +7.11546003518E+001, +1.34115062585E+003
+3.17329161452E+007, +8.02878230321E+001, +1.35027012919E+003
+3.18579474343E+007, +7.50313817064E+001, +1.37607362222E+003
+3.19829787234E+007, +8.00624341879E+001, +1.38001865519E+003
+3.21080100125E+007, +7.54560908892E+001, +1.39552959203E+003
+3.22330413016E+007, +8.18107008479E+001, +1.40500572866E+003
+3.23580725907E+007, +8.50276957744E+001, +1.42889970270E+003
+3.24831038798E+007, +8.53870408071E+001, +1.43679137657E+003
+3.26081351690E+007, +1.01208085113E+002, +1.45453311086E+003
+3.27331664581E+007, +9.15216339288E+001, +1.46513192032E+003
+3.28581977472E+007, +9.31479873383E+001, +1.48354169912E+003
+3.29832290363E+007, +8.67754507529E+001, +1.50368134984E+003
+3.31082603254E+007, +9.78067576964E+001, +1.51298263723E+003
+3.32332916145E+007, +9.96461403380E+001, +1.53302769374E+003
+3.33583229036E+007, +1.05836067773E+002, +1.55844681640E+003
+3.34833541927E+007, +9.04361972981E+001, +1.57196906791E+003
+3.36083854819E+007, +1.12911038733E+002, +1.56919033009E+003
+3.37334167710E+007, +1.00238447508E+002, +1.59798571933E+003
+3.38584480601E+007, +1.07885562058E+002, +1.62332213506E+003
+3.39834793492E+007, +1.13122679399E+002, +1.61042833388E+003
+3.41085106383E+007, +1.01057225801E+002, +1.63384205854E+003
+3.42335419274E+007, +1.10540486984E+002, +1.66540173181E+003
+3.43585732165E+007, +1.19893609693E+002, +1.67172601761E+003
+3.44836045056E+007, +1.28574578274E+002, +1.69726951975E+003
+3.46086357947E+007, +1.05077442745E+002, +1.72166981770E+003
+3.47336670839E+007, +1.32029094330E+002, +1.73491590332E+003
+3.48586983730E+007, +1.16567559999E+002, +1.77254808199E+003
+3.49837296621E+007, +1.16403974537E+002, +1.77646114638E+003
+3.51087609512E+007, +1.18402093870E+002, +1.80340879007E+003
+3.52337922403E+007, +1.20822304877E+002, +1.82214716003E+003
+3.53588235294E+007, +1.41390013914E+002, +1.82134043963E+003
+3.54838548185E+007, +1.34776683289E+002, +1.86679665759E+003
+3.56088861076E+007, +1.25640344284E+002, +1.87037657651E+003
+3.57339173967E+007, +1.29429313947E+002, +1.89390249796E+003
+3.58589486859E+007, +1.28028537272E+002, +1.91005628672E+003
+3.59839799750E+007, +1.57979908424E+002, +1.93596594083E+003
+3.61090112641E+007, +1.28528492190E+002, +1.94930243242E+003
+3.62340425532E+007, +1.47461538941E+002, +1.99325121110E+003
+3.63590738423E+007, +1.41134462685E+002, +2.01239223510E+003
+3.64841051314E+007, +1.54901397193E+002, +2.04953003001E+003
+3.66091364205E+007, +1.49611648787E+002, +2.08370081672E+003
+3.67341677096E+007, +1.60534538859E+002, +2.09508424558E+003
+3.68591989987E+007, +1.49122156076E+002, +2.13222004217E+003
+3.69842302879E+007, +1.55591234676E+002, +2.14892942406E+003
+3.71092615770E+007, +1.86974636313E+002, +2.17072389188E+003
+3.72342928661E+007, +1.33620474628E+002, +2.20555058086E+003
+3.73593241552E+007, +1.89523266540E+002, +2.24073954171E+003
+3.74843554443E+007, +1.85416402488E+002, +2.26743830615E+003
+3.76093867334E+007, +1.69384086448E+002, +2.31604976533E+003
+3.77344180225E+007, +2.08621938835E+002, +2.36017449177E+003
+3.78594493116E+007, +1.89225471909E+002, +2.39417863149E+003
+3.79844806008E+007, +2.06997324547E+002, +2.42228075916E+003
+3.81095118899E+007, +1.96059865497E+002, +2.46398098135E+003
+3.82345431790E+007, +1.74609608670E+002, +2.47899036789E+003
+3.83595744681E+007, +2.23742538996E+002, +2.52866506951E+003
+3.84846057572E+007, +2.39501868703E+002, +2.57196200349E+003
+3.86096370463E+007, +2.31406598740E+002, +2.60644274938E+003
+3.87346683354E+007, +2.44625004567E+002, +2.61350099642E+003
+3.88596996245E+007, +2.70421576589E+002, +2.68123860200E+003
+3.89847309136E+007, +2.70300004298E+002, +2.73596213563E+003
+3.91097622028E+007, +2.82518968300E+002, +2.75347854620E+003
+3.92347934919E+007, +2.72216067212E+002, +2.83351190186E+003
+3.93598247810E+007, +2.75232851682E+002, +2.84892787518E+003
+3.94848560701E+007, +2.73327354236E+002, +2.91901948779E+003
+3.96098873592E+007, +2.78368944891E+002, +3.00783327641E+003
+3.97349186483E+007, +2.76101958750E+002, +2.97465835432E+003
+3.98599499374E+007, +3.02013358221E+002, +3.07600443902E+003
+3.99849812265E+007, +3.68691100340E+002, +3.15020157898E+003
+4.01100125156E+007, +3.41886362537E+002, +3.22759294055E+003
