"# Channel 1"
"# Trace 1"
Frequency, Formatted Data, Formatted Data
+1.00000000000E+005, +8.34757024970E+000, +2.84747997074E+000
+2.25031289111E+005, +8.45803789854E+000, +6.25107367543E+000
+3.50062578223E+005, +8.59554693466E+000, +9.61475470269E+000
+4.75093867334E+005, +8.65953126852E+000, +1.29914054033E+001
+6.00125156446E+005, +8.72853086825E+000, +1.62901847117E+001
+7.25156445557E+005, +8.82279672103E+000, +1.96271630641E+001
+8.50187734668E+005, +8.86613206034E+000, +2.29390133525E+001
+9.75219023780E+005, +8.85353042138E+000, +2.62255109123E+001
+1.10025031289E+006, +8.94554684460E+000, +2.94986922691E+001
+1.22528160200E+006, +8.96060496916E+000, +3.28214729236E+001
+1.35031289111E+006, +9.03281101816E+000, +3.61713283340E+001
+1.47534418023E+006, +9.08498021732E+000, +3.94633321713E+001
+1.60037546934E+006, +9.10836851727E+000, +4.27625651367E+001
+1.72540675845E+006, +9.09926662682E+000, +4.60215907421E+001
+1.85043804756E+006, +9.11896711011E+000, +4.93245171736E+001
+1.97546933667E+006, +9.18141845380E+000, +5.26120720588E+001
+2.10050062578E+006, +9.13341410469E+000, +5.60806759601E+001
+2.22553191489E+006, +9.22681594628E+000, +5.92704099221E+001
+2.35056320401E+006, +9.18313918903E+000, +6.26747928472E+001
+2.47559449312E+006, +9.38062795144E+000, +6.60611452309E+001
+2.60062578223E+006, +9.24599002787E+000, +6.91120512616E+001
+2.72565707134E+006, +9.32309322110E+000, +7.25403546491E+001
+2.85068836045E+006, +9.37418233828E+000, +7.58319497575E+001
+2.97571964956E+006, +9.33832638878E+000, +7.92882226679E+001
+3.10075093867E+006, +9.46924608367E+000, +8.25042665298E+001
+3.22578222778E+006, +9.49008423322E+000, +8.59365358234E+001
+3.35081351690E+006, +9.54769671872E+000, +8.90878786718E+001
+3.47584480601E+006, +9.60188507764E+000, +9.25476839893E+001
+3.60087609512E+006, +9.63836978069E+000, +9.60708438879E+001
+3.72590738423E+006, +9.66457248522E+000, +9.91879911809E+001
+3.85093867334E+006, +9.73410295482E+000, +1.02815360876E+002
+3.97596996245E+006, +9.87157124350E+000, +1.06216959907E+002
+4.10100125156E+006, +9.74537540493E+000, +1.09228909299E+002
+4.22603254068E+006, +9.62969907581E+000, +1.12551286356E+002
+4.35106382979E+006, +9.70301040314E+000, +1.16399668578E+002
+4.47609511890E+006, +9.96715250425E+000, +1.19562615931E+002
+4.60112640801E+006, +1.01130417663E+001, +1.23182606535E+002
+4.72615769712E+006, +9.85779084278E+000, +1.26210843407E+002
+4.85118898623E+006, +9.92860565280E+000, +1.29664166443E+002
+4.97622027534E+006, +1.00742597806E+001, +1.33000083292E+002
+5.10125156446E+006, +1.00460346495E+001, +1.36339929591E+002
+5.22628285357E+006, +1.00410269205E+001, +1.40078645335E+002
+5.35131414268E+006, +1.02067071481E+001, +1.43236398433E+002
+5.47634543179E+006, +1.02709558791E+001, +1.47003395912E+002
+5.60137672090E+006, +1.01801481028E+001, +1.50386644849E+002
+5.72640801001E+006, +9.76965408046E+000, +1.53556349328E+002
+5.85143929912E+006, +1.04129428847E+001, +1.56999277799E+002
+5.97647058824E+006, +1.02952145832E+001, +1.60607839218E+002
+6.10150187735E+006, +1.04707325428E+001, +1.64376892516E+002
+6.22653316646E+006, +1.04509397240E+001, +1.67888616295E+002
+6.35156445557E+006, +1.06596630006E+001, +1.70915033606E+002
+6.47659574468E+006, +1.06757754691E+001, +1.74482628948E+002
+6.60162703379E+006, +1.06984473880E+001, +1.78013269152E+002
+6.72665832290E+006, +1.08192439632E+001, +1.81450053791E+002
+6.85168961202E+006, +1.09779634413E+001, +1.84942154357E+002
+6.97672090113E+006, +1.10638975409E+001, +1.88355012428E+002
+7.10175219024E+006, +1.06607199129E+001, +1.92036098243E+002
+7.22678347935E+006, +1.11449719141E+001, +1.95680600706E+002
+7.35181476846E+006, +1.10865901337E+001, +1.98985387443E+002
+7.47684605757E+006, +1.13500430905E+001, +2.02480049661E+002
+7.60187734668E+006, +1.12960550175E+001, +2.06156296910E+002
+7.72690863579E+006, +1.15467942880E+001, +2.09727495780E+002
+7.85193992491E+006, +1.14550601935E+001, +2.13349418786E+002
+7.97697121402E+006, +1.14584925993E+001, +2.16984343206E+002
+8.10200250313E+006, +1.16080231091E+001, +2.20752067101E+002
+8.22703379224E+006, +1.15529866671E+001, +2.24033599868E+002
+8.35206508135E+006, +1.14302401761E+001, +2.27676437258E+002
+8.47709637046E+006, +1.17046861046E+001, +2.31197756789E+002
+8.60212765957E+006, +1.15031764234E+001, +2.35083475743E+002
+8.72715894869E+006, +1.17701919590E+001, +2.38529078200E+002
+8.85219023780E+006, +1.18784986762E+001, +2.42470965178E+002
+8.97722152691E+006, +1.21582263189E+001, +2.45542783634E+002
+9.10225281602E+006, +1.19438873863E+001, +2.49569161689E+002
+9.22728410513E+006, +1.23953868058E+001, +2.53002704260E+002
+9.35231539424E+006, +1.18023044328E+001, +2.56639229945E+002
+9.47734668335E+006, +1.21101022394E+001, +2.60896026122E+002
+9.60237797247E+006, +1.24953281245E+001, +2.64574694240E+002
+9.72740926158E+006, +1.24009324493E+001, +2.68094666325E+002
+9.85244055069E+006, +1.19720914344E+001, +2.72007770694E+002
+9.97747183980E+006, +1.24902401779E+001, +2.75571088373E+002
+1.01025031289E+007, +1.21544393957E+001, +2.79130176908E+002
+1.02275344180E+007, +1.23919869120E+001, +2.82879088811E+002
+1.03525657071E+007, +1.29302001774E+001, +2.86710965050E+002
+1.04775969962E+007, +1.24108875776E+001, +2.90817560298E+002
+1.06026282854E+007, +1.26230594178E+001, +2.94096225194E+002
+1.07276595745E+007, +1.26277410357E+001, +2.98738984943E+002
+1.08526908636E+007, +1.26976956474E+001, +3.02155093203E+002
+1.09777221527E+007, +1.31400133253E+001, +3.06201001120E+002
+1.11027534418E+007, +1.28888380549E+001, +3.10016335190E+002
+1.12277847309E+007, +1.29283809970E+001, +3.13835359941E+002
+1.13528160200E+007, +1.29715889123E+001, +3.17855295408E+002
+1.14778473091E+007, +1.33563455777E+001, +3.21885148835E+002
+1.16028785982E+007, +1.35318181911E+001, +3.25301160639E+002
+1.17279098874E+007, +1.28525933687E+001, +3.29590689621E+002
+1.18529411765E+007, +1.28913890519E+001, +3.33247996915E+002
+1.19779724656E+007, +1.30268499795E+001, +3.37477360786E+002
+1.21030037547E+007, +1.35652135771E+001, +3.40761256024E+002
+1.22280350438E+007, +1.37174238876E+001, +3.45400270089E+002
+1.23530663329E+007, +1.32303796575E+001, +3.49707514303E+002
+1.24780976220E+007, +1.36171774692E+001, +3.53421934124E+002
+1.26031289111E+007, +1.34291408129E+001, +3.57652904964E+002
+1.27281602003E+007, +1.38680655626E+001, +3.61482632634E+002
+1.28531914894E+007, +1.32626473645E+001, +3.65786144698E+002
+1.29782227785E+007, +1.30786512328E+001, +3.70277862627E+002
+1.31032540676E+007, +1.37122113743E+001, +3.74087023240E+002
+1.32282853567E+007, +1.47646946139E+001, +3.78213288210E+002
+1.33533166458E+007, +1.40531734540E+001, +3.82427614078E+002
+1.34783479349E+007, +1.37478913201E+001, +3.86776349221E+002
+1.36033792240E+007, +1.41156040331E+001, +3.90433627791E+002
+1.37284105131E+007, +1.47194191047E+001, +3.95236204617E+002
+1.38534418023E+007, +1.38486940378E+001, +3.98512437587E+002
+1.39784730914E+007, +1.45373314712E+001, +4.03502992930E+002
+1.41035043805E+007, +1.36964876215E+001, +4.07982986977E+002
+1.42285356696E+007, +1.43098212431E+001, +4.12819636492E+002
+1.43535669587E+007, +1.39317483080E+001, +4.17037104103E+002
+1.44785982478E+007, +1.44010156518E+001, +4.21286884705E+002
+1.46036295369E+007, +1.49192966063E+001, +4.26763950699E+002
+1.47286608260E+007, +1.39598540796E+001, +4.29861427803E+002
+1.48536921151E+007, +1.50736764119E+001, +4.33516498916E+002
+1.49787234043E+007, +1.54333695166E+001, +4.38737121382E+002
+1.51037546934E+007, +1.43510497699E+001, +4.43206649630E+002
+1.52287859825E+007, +1.47541759890E+001, +4.48163421127E+002
+1.53538172716E+007, +1.60414521518E+001, +4.52565777433E+002
+1.54788485607E+007, +1.40314944238E+001, +4.56941452185E+002
+1.56038798498E+007, +1.46375327297E+001, +4.62028774238E+002
+1.57289111389E+007, +1.54791138416E+001, +4.66093284259E+002
+1.58539424280E+007, +1.45807574615E+001, +4.69700523928E+002
+1.59789737171E+007, +1.42094747854E+001, +4.75577231863E+002
+1.61040050063E+007, +1.42684911384E+001, +4.81546669649E+002
+1.62290362954E+007, +1.54817856843E+001, +4.85578724084E+002
+1.63540675845E+007, +1.66273046887E+001, +4.89988259776E+002
+1.64790988736E+007, +1.56568716480E+001, +4.95208920307E+002
+1.66041301627E+007, +1.60199338561E+001, +5.00017122797E+002
+1.67291614518E+007, +1.62070549664E+001, +5.04678078678E+002
+1.68541927409E+007, +1.51252920272E+001, +5.10716022931E+002
+1.69792240300E+007, +1.65644613807E+001, +5.15808410607E+002
+1.71042553191E+007, +1.42221373254E+001, +5.19779290662E+002
+1.72292866083E+007, +1.48735599838E+001, +5.25590649751E+002
+1.73543178974E+007, +1.40975667318E+001, +5.29091369187E+002
+1.74793491865E+007, +1.58485720124E+001, +5.34270849354E+002
+1.76043804756E+007, +1.46686160244E+001, +5.37927215115E+002
+1.77294117647E+007, +1.50527980206E+001, +5.45462738530E+002
+1.78544430538E+007, +1.58188461041E+001, +5.49187328934E+002
+1.79794743429E+007, +1.68754668872E+001, +5.55014787243E+002
+1.81045056320E+007, +1.52885598046E+001, +5.61120570408E+002
+1.82295369212E+007, +1.89869943783E+001, +5.66554734107E+002
+1.83545682103E+007, +1.61140799510E+001, +5.70791364766E+002
+1.84795994994E+007, +1.56762533761E+001, +5.78876943967E+002
+1.86046307885E+007, +1.67164580897E+001, +5.82677021868E+002
+1.87296620776E+007, +1.73856926807E+001, +5.86823297950E+002
+1.88546933667E+007, +1.62634838392E+001, +5.93890687796E+002
+1.89797246558E+007, +1.94380209747E+001, +5.98332762049E+002
+1.91047559449E+007, +1.84463512178E+001, +6.02162931549E+002
+1.92297872340E+007, +1.89536072020E+001, +6.08747656161E+002
+1.93548185232E+007, +1.99562052271E+001, +6.14060897109E+002
+1.94798498123E+007, +1.86896067338E+001, +6.19078088110E+002
+1.96048811014E+007, +1.87724186851E+001, +6.27023934871E+002
+1.97299123905E+007, +1.87486121934E+001, +6.32206214733E+002
+1.98549436796E+007, +1.85079501097E+001, +6.38493880423E+002
+1.99799749687E+007, +1.87437946206E+001, +6.44686422079E+002
+2.01050062578E+007, +1.76241895242E+001, +6.51424452954E+002
+2.02300375469E+007, +1.89179630265E+001, +6.54965696250E+002
+2.03550688360E+007, +1.90127754720E+001, +6.61602844205E+002
+2.04801001252E+007, +2.15693334126E+001, +6.69780543428E+002
+2.06051314143E+007, +1.96211566205E+001, +6.74830363776E+002
+2.07301627034E+007, +1.73335451889E+001, +6.82345970918E+002
+2.08551939925E+007, +2.05517761946E+001, +6.87334429161E+002
+2.09802252816E+007, +2.28525489194E+001, +6.95288025920E+002
+2.11052565707E+007, +2.04511669283E+001, +6.98706791245E+002
+2.12302878598E+007, +2.19532596000E+001, +7.07132336016E+002
+2.13553191489E+007, +2.05744819949E+001, +7.13360276636E+002
+2.14803504380E+007, +2.14876099581E+001, +7.19987032555E+002
+2.16053817272E+007, +2.24090061027E+001, +7.25255841406E+002
+2.17304130163E+007, +2.44974346113E+001, +7.31954189566E+002
+2.18554443054E+007, +2.51730826894E+001, +7.39002844727E+002
+2.19804755945E+007, +2.39986692359E+001, +7.43598789814E+002
+2.21055068836E+007, +2.60855339905E+001, +7.54427764665E+002
+2.22305381727E+007, +3.01512578661E+001, +7.61061817623E+002
+2.23555694618E+007, +2.53459200278E+001, +7.63672930012E+002
+2.24806007509E+007, +2.58675458343E+001, +7.71593860709E+002
+2.26056320401E+007, +2.87598138379E+001, +7.78383040738E+002
+2.27306633292E+007, +2.96181005725E+001, +7.84869044382E+002
+2.28556946183E+007, +3.04022827866E+001, +7.95385515362E+002
+2.29807259074E+007, +3.27090055225E+001, +8.04331503629E+002
+2.31057571965E+007, +3.26725570878E+001, +8.07233072864E+002
+2.32307884856E+007, +3.14265856817E+001, +8.12819102811E+002
+2.33558197747E+007, +3.17211145971E+001, +8.18407081780E+002
+2.34808510638E+007, +3.38573142740E+001, +8.29173552595E+002
+2.36058823529E+007, +3.81952596377E+001, +8.30993460417E+002
+2.37309136421E+007, +3.60263263211E+001, +8.41671630750E+002
+2.38559449312E+007, +3.59879462835E+001, +8.51007167567E+002
+2.39809762203E+007, +3.73128856124E+001, +8.55155322596E+002
+2.41060075094E+007, +3.90787163837E+001, +8.62907565485E+002
+2.42310387985E+007, +3.81487604232E+001, +8.66696481710E+002
+2.43560700876E+007, +3.02339343759E+001, +8.72611494933E+002
+2.44811013767E+007, +3.75978037035E+001, +8.80377731467E+002
+2.46061326658E+007, +3.55862956640E+001, +8.92756934338E+002
+2.47311639549E+007, +3.29986373002E+001, +8.95839154033E+002
+2.48561952441E+007, +3.53817411253E+001, +9.07920889070E+002
+2.49812265332E+007, +3.44398253317E+001, +9.16492306750E+002
+2.51062578223E+007, +3.27537012537E+001, +9.31140172992E+002
+2.52312891114E+007, +3.59951104609E+001, +9.32217822184E+002
+2.53563204005E+007, +3.41758518714E+001, +9.44800185636E+002
+2.54813516896E+007, +3.49270743175E+001, +9.50619572600E+002
+2.56063829787E+007, +3.75717707056E+001, +9.63238996046E+002
+2.57314142678E+007, +3.76751181542E+001, +9.68751282166E+002
+2.58564455569E+007, +3.51807811013E+001, +9.76274885738E+002
+2.59814768461E+007, +4.03523336311E+001, +9.82770089039E+002
+2.61065081352E+007, +3.70656594685E+001, +9.94655438820E+002
+2.62315394243E+007, +3.62508091488E+001, +1.00279489634E+003
+2.63565707134E+007, +3.34276598999E+001, +1.01542504907E+003
+2.64816020025E+007, +3.47753254871E+001, +1.02566217139E+003
+2.66066332916E+007, +3.67050362725E+001, +1.03591219795E+003
+2.67316645807E+007, +3.15577251918E+001, +1.04453321948E+003
+2.68566958698E+007, +3.51974819387E+001, +1.05593733715E+003
+2.69817271589E+007, +3.23249279170E+001, +1.06728622658E+003
+2.71067584481E+007, +3.61826676016E+001, +1.07317692585E+003
+2.72317897372E+007, +3.64801481204E+001, +1.08796486591E+003
+2.73568210263E+007, +4.24520220338E+001, +1.09616709673E+003
+2.74818523154E+007, +4.12256223900E+001, +1.10888529814E+003
+2.76068836045E+007, +4.14861681787E+001, +1.12582547096E+003
+2.77319148936E+007, +4.14577021483E+001, +1.12438442512E+003
+2.78569461827E+007, +3.73181097253E+001, +1.13876132318E+003
+2.79819774718E+007, +3.70440070081E+001, +1.14961957408E+003
+2.81070087610E+007, +4.78949810092E+001, +1.16692035516E+003
+2.82320400501E+007, +3.71284225461E+001, +1.17406919935E+003
+2.83570713392E+007, +4.39103436249E+001, +1.18677761393E+003
+2.84821026283E+007, +4.61163290433E+001, +1.19939997403E+003
+2.86071339174E+007, +4.29354742215E+001, +1.21179370652E+003
+2.87321652065E+007, +4.86190128990E+001, +1.22415974880E+003
+2.88571964956E+007, +4.65241300195E+001, +1.23125844730E+003
+2.89822277847E+007, +5.00160804778E+001, +1.25232430952E+003
+2.91072590738E+007, +4.73430700757E+001, +1.26052374229E+003
+2.92322903630E+007, +4.70839758581E+001, +1.28248110550E+003
+2.93573216521E+007, +5.06741142139E+001, +1.28634135667E+003
+2.94823529412E+007, +4.55490032518E+001, +1.30388501954E+003
+2.96073842303E+007, +4.28824972227E+001, +1.31681548833E+003
+2.97324155194E+007, +5.07044189000E+001, +1.33489522722E+003
+2.98574468085E+007, +5.46575143239E+001, +1.33999868164E+003
+2.99824780976E+007, +5.37453126468E+001, +1.35641839073E+003
+3.01075093867E+007, +4.88808560048E+001, +1.37771884353E+003
+3.02325406758E+007, +4.77530070394E+001, +1.39739499641E+003
+3.03575719650E+007, +4.98690549507E+001, +1.40486723468E+003
+3.04826032541E+007, +4.32018685177E+001, +1.41773675427E+003
+3.06076345432E+007, +5.54471768758E+001, +1.43817034672E+003
+3.07326658323E+007, +5.83615183272E+001, +1.45520859015E+003
+3.08576971214E+007, +6.46874702377E+001, +1.46901144586E+003
+3.09827284105E+007, +5.41435847536E+001, +1.48433821744E+003
+3.11077596996E+007, +5.39553842743E+001, +1.50143926447E+003
+3.12327909887E+007, +7.25520970957E+001, +1.52068198065E+003
+3.13578222778E+007, +5.81112519927E+001, +1.54615810310E+003
+3.14828535670E+007, +5.91364902770E+001, +1.55668429742E+003
+3.16078848561E+007, +5.99252306241E+001, +1.58488577468E+003
+3.17329161452E+007, +6.69837622462E+001, +1.58373511516E+003
+3.18579474343E+007, +6.79397246541E+001, +1.61531569679E+003
+3.19829787234E+007, +7.46051330954E+001, +1.62031529865E+003
+3.21080100125E+007, +7.40738910359E+001, +1.66007346503E+003
+3.22330413016E+007, +8.15091172947E+001, +1.66815903436E+003
+3.23580725907E+007, +6.86107841176E+001, +1.69062848274E+003
+3.24831038798E+007, +6.61850889447E+001, +1.71279437160E+003
+3.26081351690E+007, +7.29195817939E+001, +1.71213976991E+003
+3.27331664581E+007, +7.58474750635E+001, +1.75364316287E+003
+3.28581977472E+007, +6.77904988084E+001, +1.77699775344E+003
+3.29832290363E+007, +7.61225140181E+001, +1.80894339474E+003
+3.31082603254E+007, +7.74079994000E+001, +1.81792894803E+003
+3.32332916145E+007, +8.44831952806E+001, +1.84305005010E+003
+3.33583229036E+007, +8.70519032314E+001, +1.87328893289E+003
+3.34833541927E+007, +8.84448551644E+001, +1.91930755962E+003
+3.36083854819E+007, +8.68881509236E+001, +1.92561097590E+003
+3.37334167710E+007, +9.95740992276E+001, +1.96074955083E+003
+3.38584480601E+007, +1.05260979723E+002, +1.97377470136E+003
+3.39834793492E+007, +9.04476070303E+001, +2.00193117810E+003
+3.41085106383E+007, +9.89584398020E+001, +2.03523129139E+003
+3.42335419274E+007, +9.83957706936E+001, +2.04899968399E+003
+3.43585732165E+007, +1.11229054505E+002, +2.09785640971E+003
+3.44836045056E+007, +1.18316514014E+002, +2.13799622318E+003
+3.46086357947E+007, +1.19868472132E+002, +2.13685984667E+003
+3.47336670839E+007, +1.01098317192E+002, +2.18050380399E+003
+3.48586983730E+007, +1.41042415606E+002, +2.19574267448E+003
+3.49837296621E+007, +1.49106933591E+002, +2.26633381120E+003
+3.51087609512E+007, +1.28539788411E+002, +2.27623681122E+003
+3.52337922403E+007, +1.53255097003E+002, +2.30130393213E+003
+3.53588235294E+007, +1.41361013388E+002, +2.40632428205E+003
+3.54838548185E+007, +1.35636110290E+002, +2.38985778446E+003
+3.56088861076E+007, +1.42255975158E+002, +2.42918813694E+003
+3.57339173967E+007, +1.79559302091E+002, +2.50206005781E+003
+3.58589486859E+007, +1.95894428326E+002, +2.53711322096E+003
+3.59839799750E+007, +1.49015580563E+002, +2.56272070743E+003
+3.61090112641E+007, +1.62225605406E+002, +2.61954500854E+003
+3.62340425532E+007, +1.66085763329E+002, +2.64353285552E+003
+3.63590738423E+007, +2.20845342542E+002, +2.73375681020E+003
+3.64841051314E+007, +2.06532649123E+002, +2.76590909760E+003
+3.66091364205E+007, +1.78926507882E+002, +2.82989397487E+003
+3.67341677096E+007, +2.08355379583E+002, +2.81445689915E+003
+3.68591989987E+007, +1.97477787554E+002, +2.89476913776E+003
+3.69842302879E+007, +2.43027532287E+002, +2.95697024513E+003
+3.71092615770E+007, +2.68600830482E+002, +3.02676131369E+003
+3.72342928661E+007, +2.55627505078E+002, +3.15114946537E+003
+3.73593241552E+007, +2.62465914965E+002, +3.14560864892E+003
+3.74843554443E+007, +3.04263066599E+002, +3.18734851641E+003
+3.76093867334E+007, +3.17828955283E+002, +3.26559955442E+003
+3.77344180225E+007, +3.14689247034E+002, +3.35551690725E+003
+3.78594493116E+007, +3.48608140521E+002, +3.44326497130E+003
+3.79844806008E+007, +3.41111745645E+002, +3.49331499680E+003
+3.81095118899E+007, +3.71135212933E+002, +3.53497249209E+003
+3.82345431790E+007, +3.40004264530E+002, +3.69446541423E+003
+3.83595744681E+007, +4.72726287414E+002, +3.67446602954E+003
+3.84846057572E+007, +4.53473564144E+002, +3.72317292822E+003
+3.86096370463E+007, +4.98654087961E+002, +3.82484114587E+003
+3.87346683354E+007, +5.13618035985E+002, +3.99496485637E+003
+3.88596996245E+007, +5.46256042829E+002, +3.98499108867E+003
+3.89847309136E+007, +5.08205677895E+002, +4.13928138947E+003
+3.91097622028E+007, +4.91011288180E+002, +4.30202034053E+003
+3.92347934919E+007, +6.27307708882E+002, +4.34413138923E+003
+3.93598247810E+007, +5.47186133143E+002, +4.57585895503E+003
+3.94848560701E+007, +7.29991599770E+002, +4.59477023278E+003
+3.96098873592E+007, +7.17605169524E+002, +4.70577188473E+003
+3.97349186483E+007, +7.55342789717E+002, +4.90975400521E+003
+3.98599499374E+007, +8.76650592677E+002, +5.08592831238E+003
+3.99849812265E+007, +9.58756273602E+002, +5.10608027418E+003
+4.01100125156E+007, +9.08554850805E+002, +5.23961522579E+003
