"# Channel 1"
"# Trace 1"
Frequency, Formatted Data, Formatted Data
+1.00000000000E+005, +5.05297916507E+001, +2.61080402545E+000
+2.25031289111E+005, +5.04585968705E+001, +6.22240576463E+000
+3.50062578223E+005, +5.04649821233E+001, +9.78740960281E+000
+4.75093867334E+005, +5.05631925362E+001, +1.32771660443E+001
+6.00125156446E+005, +5.06730173673E+001, +1.66588883730E+001
+7.25156445557E+005, +5.06069602551E+001, +2.01390518009E+001
+8.50187734668E+005, +5.06003242058E+001, +2.36038185603E+001
+9.75219023780E+005, +5.07780727772E+001, +2.70364277753E+001
+1.10025031289E+006, +5.09100426782E+001, +3.04846911659E+001
+1.22528160200E+006, +5.08971704661E+001, +3.37284604882E+001
+1.35031289111E+006, +5.09951132838E+001, +3.72409176107E+001
+1.47534418023E+006, +5.10365426018E+001, +4.08006539463E+001
+1.60037546934E+006, +5.10365354006E+001, +4.39987655232E+001
+1.72540675845E+006, +5.11717250645E+001, +4.74877834296E+001
+1.85043804756E+006, +5.10182211383E+001, +5.10276403208E+001
+1.97546933667E+006, +5.11593294318E+001, +5.43593234340E+001
+2.10050062578E+006, +5.13167044431E+001, +5.79248770450E+001
+2.22553191489E+006, +5.11273044971E+001, +6.12015025251E+001
+2.35056320401E+006, +5.13422713066E+001, +6.45053964095E+001
+2.47559449312E+006, +5.12598149756E+001, +6.81034353385E+001
+2.60062578223E+006, +5.16508111940E+001, +7.15889111722E+001
+2.72565707134E+006, +5.15460020615E+001, +7.50278150840E+001
+2.85068836045E+006, +5.18036080620E+001, +7.83537567215E+001
+2.97571964956E+006, +5.19537431362E+001, +8.20205615617E+001
+3.10075093867E+006, +5.17649997283E+001, +8.53972716542E+001
+3.22578222778E+006, +5.18175222572E+001, +8.87770598456E+001
+3.35081351690E+006, +5.19822510762E+001, +9.22124447551E+001
+3.47584480601E+006, +5.19657537588E+001, +9.54264573745E+001
+3.60087609512E+006, +5.20000329063E+001, +9.92719483707E+001
+3.72590738423E+006, +5.30360166707E+001, +1.02893193366E+002
+3.85093867334E+006, +5.24238750615E+001, +1.05650013919E+002
+3.97596996245E+006, +5.21867655449E+001, +1.09502146293E+002
+4.10100125156E+006, +5.23368795633E+001, +1.12767436119E+002
+4.22603254068E+006, +5.24077097030E+001, +1.16337606654E+002
+4.35106382979E+006, +5.27900657904E+001, +1.19751577367E+002
+4.47609511890E+006, +5.27975939753E+001, +1.23358691074E+002
+4.60112640801E+006, +5.29019961399E+001, +1.26767038925E+002
+4.72615769712E+006, +5.30655700187E+001, +1.30117639667E+002
+4.85118898623E+006, +5.36180390882E+001, +1.33568939490E+002
+4.97622027534E+006, +5.31293225656E+001, +1.37231901826E+002
+5.10125156446E+006, +5.33786414488E+001, +1.40580259015E+002
+5.22628285357E+006, +5.37395769593E+001, +1.44247234258E+002
+5.35131414268E+006, +5.39775062088E+001, +1.48116870765E+002
+5.47634543179E+006, +5.40966132383E+001, +1.51441164509E+002
+5.60137672090E+006, +5.42451936433E+001, +1.54711004451E+002
+5.72640801001E+006, +5.43234718431E+001, +1.58169063276E+002
+5.85143929912E+006, +5.46575568141E+001, +1.61975556705E+002
+5.97647058824E+006, +5.45146139053E+001, +1.65439505828E+002
+6.10150187735E+006, +5.49944226212E+001, +1.69249443857E+002
+6.22653316646E+006, +5.45858545449E+001, +1.73010451407E+002
+6.35156445557E+006, +5.50433306745E+001, +1.75961193981E+002
+6.47659574468E+006, +5.52806395951E+001, +1.79775985035E+002
+6.60162703379E+006, +5.53364753125E+001, +1.83093758915E+002
+6.72665832290E+006, +5.56321275840E+001, +1.86837839087E+002
+6.85168961202E+006, +5.57532100441E+001, +1.90421504002E+002
+6.97672090113E+006, +5.58197286436E+001, +1.94007861395E+002
+7.10175219024E+006, +5.64260074618E+001, +1.97541353820E+002
+7.22678347935E+006, +5.63321233917E+001, +2.01014352011E+002
+7.35181476846E+006, +5.66271331958E+001, +2.04824842293E+002
+7.47684605757E+006, +5.68543879365E+001, +2.08349875760E+002
+7.60187734668E+006, +5.69078003392E+001, +2.12007115815E+002
+7.72690863579E+006, +5.72156442019E+001, +2.15478725943E+002
+7.85193992491E+006, +5.75750422185E+001, +2.19048737163E+002
+7.97697121402E+006, +5.73921250172E+001, +2.22623939789E+002
+8.10200250313E+006, +5.76842687720E+001, +2.26367187693E+002
+8.22703379224E+006, +5.78904861764E+001, +2.30408520003E+002
+8.35206508135E+006, +5.81010396068E+001, +2.33694295264E+002
+8.47709637046E+006, +5.82123562822E+001, +2.37351833225E+002
+8.60212765957E+006, +5.84914851432E+001, +2.41551832466E+002
+8.72715894869E+006, +5.87077432411E+001, +2.45063173467E+002
+8.85219023780E+006, +5.88593900922E+001, +2.48451543394E+002
+8.97722152691E+006, +5.92447978719E+001, +2.52518742558E+002
+9.10225281602E+006, +5.95557725832E+001, +2.55831860514E+002
+9.22728410513E+006, +5.96613213676E+001, +2.59814925484E+002
+9.35231539424E+006, +5.92790534440E+001, +2.63890593348E+002
+9.47734668335E+006, +5.96244886301E+001, +2.67179786313E+002
+9.60237797247E+006, +5.99778301413E+001, +2.70942681674E+002
+9.72740926158E+006, +6.02509843571E+001, +2.74330372516E+002
+9.85244055069E+006, +6.00230170615E+001, +2.78352852725E+002
+9.97747183980E+006, +6.03616846061E+001, +2.82602007632E+002
+1.01025031289E+007, +6.07036559061E+001, +2.86333911090E+002
+1.02275344180E+007, +6.06936885140E+001, +2.89407069870E+002
+1.03525657071E+007, +6.07566918826E+001, +2.93852557393E+002
+1.04775969962E+007, +6.13122515007E+001, +2.97562711472E+002
+1.06026282854E+007, +6.12428963776E+001, +3.01767907385E+002
+1.07276595745E+007, +6.20221630751E+001, +3.05382403858E+002
+1.08526908636E+007, +6.25511629812E+001, +3.09338756367E+002
+1.09777221527E+007, +6.28356190977E+001, +3.13047218479E+002
+1.11027534418E+007, +6.25711008427E+001, +3.17502354142E+002
+1.12277847309E+007, +6.35067394103E+001, +3.20790974155E+002
+1.13528160200E+007, +6.30342110156E+001, +3.24234027908E+002
+1.14778473091E+007, +6.37951371061E+001, +3.28071726599E+002
+1.16028785982E+007, +6.41213283810E+001, +3.32857271814E+002
+1.17279098874E+007, +6.38109843206E+001, +3.36443708555E+002
+1.18529411765E+007, +6.40338903537E+001, +3.40644599518E+002
+1.19779724656E+007, +6.42174565774E+001, +3.44903247235E+002
+1.21030037547E+007, +6.46969748379E+001, +3.48356326510E+002
+1.22280350438E+007, +6.45837370479E+001, +3.51961824900E+002
+1.23530663329E+007, +6.53738895578E+001, +3.57104695381E+002
+1.24780976220E+007, +6.60054166763E+001, +3.60880881717E+002
+1.26031289111E+007, +6.65161537740E+001, +3.64261202297E+002
+1.27281602003E+007, +6.57083307113E+001, +3.68325813783E+002
+1.28531914894E+007, +6.61951345223E+001, +3.72215646328E+002
+1.29782227785E+007, +6.65772256560E+001, +3.77261553075E+002
+1.31032540676E+007, +6.69235056706E+001, +3.80712902764E+002
+1.32282853567E+007, +6.72156583659E+001, +3.85137925648E+002
+1.33533166458E+007, +6.79197226210E+001, +3.89467724781E+002
+1.34783479349E+007, +6.76633115129E+001, +3.92960255473E+002
+1.36033792240E+007, +6.76487800368E+001, +3.97642421581E+002
+1.37284105131E+007, +6.88547379700E+001, +4.00970265774E+002
+1.38534418023E+007, +6.95223031583E+001, +4.05894396477E+002
+1.39784730914E+007, +6.95409605348E+001, +4.10280402941E+002
+1.41035043805E+007, +6.93467930547E+001, +4.13764554470E+002
+1.42285356696E+007, +7.01291839463E+001, +4.18910644610E+002
+1.43535669587E+007, +7.06614095464E+001, +4.22282733284E+002
+1.44785982478E+007, +7.02918896891E+001, +4.26792453626E+002
+1.46036295369E+007, +7.15220173764E+001, +4.31101240828E+002
+1.47286608260E+007, +7.15651395920E+001, +4.35676495103E+002
+1.48536921151E+007, +7.17315744094E+001, +4.39250468481E+002
+1.49787234043E+007, +7.19021504596E+001, +4.43507696718E+002
+1.51037546934E+007, +7.33944847053E+001, +4.48934755070E+002
+1.52287859825E+007, +7.36155045011E+001, +4.52751477127E+002
+1.53538172716E+007, +7.42330671070E+001, +4.57418546995E+002
+1.54788485607E+007, +7.35249847537E+001, +4.61903206480E+002
+1.56038798498E+007, +7.54016860661E+001, +4.66080563568E+002
+1.57289111389E+007, +7.34254360289E+001, +4.69989561210E+002
+1.58539424280E+007, +7.44551417083E+001, +4.75484049240E+002
+1.59789737171E+007, +7.55655053951E+001, +4.80987685764E+002
+1.61040050063E+007, +7.72631446358E+001, +4.84443289430E+002
+1.62290362954E+007, +7.68541615682E+001, +4.89063191032E+002
+1.63540675845E+007, +7.65549385603E+001, +4.93542253384E+002
+1.64790988736E+007, +7.76272373158E+001, +4.97265107661E+002
+1.66041301627E+007, +7.77734580175E+001, +5.02087285130E+002
+1.67291614518E+007, +7.76701808290E+001, +5.07045318863E+002
+1.68541927409E+007, +7.77412885057E+001, +5.11114807698E+002
+1.69792240300E+007, +7.87195502863E+001, +5.15694598174E+002
+1.71042553191E+007, +7.76908629993E+001, +5.22530010119E+002
+1.72292866083E+007, +7.85269284198E+001, +5.27076573567E+002
+1.73543178974E+007, +7.96773268349E+001, +5.33346946460E+002
+1.74793491865E+007, +8.15258102417E+001, +5.35625334484E+002
+1.76043804756E+007, +7.79753956849E+001, +5.40139006800E+002
+1.77294117647E+007, +8.17845395268E+001, +5.46827356869E+002
+1.78544430538E+007, +8.18465439872E+001, +5.51618950505E+002
+1.79794743429E+007, +8.20294255436E+001, +5.53870182637E+002
+1.81045056320E+007, +8.15090595943E+001, +5.60103643548E+002
+1.82295369212E+007, +8.36994545113E+001, +5.64847783707E+002
+1.83545682103E+007, +8.46091816732E+001, +5.69210754829E+002
+1.84795994994E+007, +8.38714758152E+001, +5.75208181104E+002
+1.86046307885E+007, +8.63908450700E+001, +5.81450309224E+002
+1.87296620776E+007, +8.47107372085E+001, +5.86509862278E+002
+1.88546933667E+007, +8.70887737353E+001, +5.87645311499E+002
+1.89797246558E+007, +8.78933113922E+001, +5.95524046473E+002
+1.91047559449E+007, +8.79825016364E+001, +6.02592170261E+002
+1.92297872340E+007, +8.70535997282E+001, +6.07313226670E+002
+1.93548185232E+007, +8.85017901983E+001, +6.13178205477E+002
+1.94798498123E+007, +8.83225631215E+001, +6.15666295078E+002
+1.96048811014E+007, +8.96066879754E+001, +6.20655741047E+002
+1.97299123905E+007, +9.05217618413E+001, +6.27007911868E+002
+1.98549436796E+007, +8.85105306644E+001, +6.30932404564E+002
+1.99799749687E+007, +9.10528048498E+001, +6.37013818417E+002
+2.01050062578E+007, +9.33859846261E+001, +6.43745839561E+002
+2.02300375469E+007, +9.38901520804E+001, +6.49427301057E+002
+2.03550688360E+007, +9.24371900780E+001, +6.53488124466E+002
+2.04801001252E+007, +9.38276655441E+001, +6.59541301707E+002
+2.06051314143E+007, +9.53210563935E+001, +6.64292857582E+002
+2.07301627034E+007, +9.73273736969E+001, +6.69578189294E+002
+2.08551939925E+007, +9.68674663266E+001, +6.77287109491E+002
+2.09802252816E+007, +9.76629768826E+001, +6.81608479350E+002
+2.11052565707E+007, +1.01635293733E+002, +6.88977416536E+002
+2.12302878598E+007, +1.00605187028E+002, +6.94809334319E+002
+2.13553191489E+007, +1.00417950670E+002, +6.97864567756E+002
+2.14803504380E+007, +9.73494706308E+001, +7.03158983333E+002
+2.16053817272E+007, +1.01277603789E+002, +7.10541698509E+002
+2.17304130163E+007, +1.04653266940E+002, +7.12337618491E+002
+2.18554443054E+007, +1.03875871963E+002, +7.22968453233E+002
+2.19804755945E+007, +1.06036086389E+002, +7.27860451656E+002
+2.21055068836E+007, +1.05232553851E+002, +7.31803832160E+002
+2.22305381727E+007, +1.05015914513E+002, +7.37444137874E+002
+2.23555694618E+007, +1.07484613512E+002, +7.45163644598E+002
+2.24806007509E+007, +1.08998953346E+002, +7.50388360469E+002
+2.26056320401E+007, +1.08329183549E+002, +7.58825029575E+002
+2.27306633292E+007, +1.10261802964E+002, +7.66089560063E+002
+2.28556946183E+007, +1.14952723390E+002, +7.68924632905E+002
+2.29807259074E+007, +1.11646372138E+002, +7.73278103396E+002
+2.31057571965E+007, +1.16770153793E+002, +7.81090011826E+002
+2.32307884856E+007, +1.10780259882E+002, +7.89600031805E+002
+2.33558197747E+007, +1.14642992380E+002, +7.98925352734E+002
+2.34808510638E+007, +1.15924766939E+002, +7.99360877789E+002
+2.36058823529E+007, +1.19409304451E+002, +8.07215733643E+002
+2.37309136421E+007, +1.19381987592E+002, +8.13845019218E+002
+2.38559449312E+007, +1.24633474118E+002, +8.19530480235E+002
+2.39809762203E+007, +1.24347557761E+002, +8.24420704939E+002
+2.41060075094E+007, +1.24025258846E+002, +8.35974931587E+002
+2.42310387985E+007, +1.28532276064E+002, +8.38084462900E+002
+2.43560700876E+007, +1.28508362485E+002, +8.43245957997E+002
+2.44811013767E+007, +1.32020846349E+002, +8.53309724104E+002
+2.46061326658E+007, +1.31346125972E+002, +8.58930599113E+002
+2.47311639549E+007, +1.32854065650E+002, +8.64890524360E+002
+2.48561952441E+007, +1.30020123339E+002, +8.70710212550E+002
+2.49812265332E+007, +1.34126992461E+002, +8.83281084755E+002
+2.51062578223E+007, +1.33995742339E+002, +8.86066283871E+002
+2.52312891114E+007, +1.38517725993E+002, +8.96782867351E+002
+2.53563204005E+007, +1.39021560048E+002, +8.96860950341E+002
+2.54813516896E+007, +1.39496511783E+002, +9.03649004165E+002
+2.56063829787E+007, +1.40719956165E+002, +9.10823615410E+002
+2.57314142678E+007, +1.40605790269E+002, +9.21108912778E+002
+2.58564455569E+007, +1.44325437595E+002, +9.26349414665E+002
+2.59814768461E+007, +1.46101227082E+002, +9.34188787581E+002
+2.61065081352E+007, +1.43485465822E+002, +9.43790380058E+002
+2.62315394243E+007, +1.48801578756E+002, +9.50470835409E+002
+2.63565707134E+007, +1.51093771226E+002, +9.54631054274E+002
+2.64816020025E+007, +1.49385154113E+002, +9.60679323340E+002
+2.66066332916E+007, +1.57225056326E+002, +9.71993762414E+002
+2.67316645807E+007, +1.55826224268E+002, +9.75747805608E+002
+2.68566958698E+007, +1.57545406783E+002, +9.82623013539E+002
+2.69817271589E+007, +1.58332997593E+002, +9.99136434549E+002
+2.71067584481E+007, +1.58071984000E+002, +1.00409681930E+003
+2.72317897372E+007, +1.60214504743E+002, +1.00816041428E+003
+2.73568210263E+007, +1.58345280932E+002, +1.01581072349E+003
+2.74818523154E+007, +1.62724267695E+002, +1.01902986104E+003
+2.76068836045E+007, +1.64744122894E+002, +1.03773775494E+003
+2.77319148936E+007, +1.64619953463E+002, +1.04251962325E+003
+2.78569461827E+007, +1.63062720453E+002, +1.05121917992E+003
+2.79819774718E+007, +1.66984192644E+002, +1.05709811091E+003
+2.81070087610E+007, +1.68581472488E+002, +1.06550632026E+003
+2.82320400501E+007, +1.68263740209E+002, +1.07331835505E+003
+2.83570713392E+007, +1.72941655327E+002, +1.08557063065E+003
+2.84821026283E+007, +1.80826997290E+002, +1.09968939007E+003
+2.86071339174E+007, +1.75696160747E+002, +1.09996746872E+003
+2.87321652065E+007, +1.74794064283E+002, +1.12105498623E+003
+2.88571964956E+007, +1.77053897659E+002, +1.12253230449E+003
+2.89822277847E+007, +1.82008467828E+002, +1.13765465816E+003
+2.91072590738E+007, +1.82879177260E+002, +1.14813788770E+003
+2.92322903630E+007, +1.81034119545E+002, +1.15789631682E+003
+2.93573216521E+007, +1.90936013370E+002, +1.15600966805E+003
+2.94823529412E+007, +1.85197721061E+002, +1.16732589204E+003
+2.96073842303E+007, +1.94645825622E+002, +1.17755872137E+003
+2.97324155194E+007, +1.91974258493E+002, +1.18691406290E+003
+2.98574468085E+007, +1.96584252241E+002, +1.19523640372E+003
+2.99824780976E+007, +1.96381218239E+002, +1.20796542863E+003
+3.01075093867E+007, +2.05784917155E+002, +1.22143762478E+003
+3.02325406758E+007, +2.08901142857E+002, +1.23972545148E+003
+3.03575719650E+007, +2.05187647418E+002, +1.24121211788E+003
+3.04826032541E+007, +2.05136923159E+002, +1.25714869488E+003
+3.06076345432E+007, +2.04830758903E+002, +1.26722206115E+003
+3.07326658323E+007, +2.10267896180E+002, +1.27843682181E+003
+3.08576971214E+007, +2.10588908162E+002, +1.29698085537E+003
+3.09827284105E+007, +2.23128218927E+002, +1.28711564025E+003
+3.11077596996E+007, +2.19839922290E+002, +1.31877064651E+003
+3.12327909887E+007, +2.18098488746E+002, +1.31899901404E+003
+3.13578222778E+007, +2.20516932048E+002, +1.32730093875E+003
+3.14828535670E+007, +2.26211435412E+002, +1.34533454242E+003
+3.16078848561E+007, +2.32853646184E+002, +1.35240522866E+003
+3.17329161452E+007, +2.35610037773E+002, +1.36638363459E+003
+3.18579474343E+007, +2.27508961871E+002, +1.38174599842E+003
+3.19829787234E+007, +2.33338605718E+002, +1.38975592327E+003
+3.21080100125E+007, +2.35976296989E+002, +1.40906921415E+003
+3.22330413016E+007, +2.34191518583E+002, +1.41184323634E+003
+3.23580725907E+007, +2.52341770287E+002, +1.43392420864E+003
+3.24831038798E+007, +2.51153908648E+002, +1.43979171563E+003
+3.26081351690E+007, +2.50924481930E+002, +1.46280540197E+003
+3.27331664581E+007, +2.51452023056E+002, +1.47674268038E+003
+3.28581977472E+007, +2.58348366208E+002, +1.47992122118E+003
+3.29832290363E+007, +2.58346644086E+002, +1.50796639500E+003
+3.31082603254E+007, +2.73899679713E+002, +1.51122673923E+003
+3.32332916145E+007, +2.72529053082E+002, +1.52531688661E+003
+3.33583229036E+007, +2.74624319285E+002, +1.54212520609E+003
+3.34833541927E+007, +2.73316770427E+002, +1.56826320074E+003
+3.36083854819E+007, +2.74013007107E+002, +1.56958880036E+003
+3.37334167710E+007, +2.83103800229E+002, +1.57928911537E+003
+3.38584480601E+007, +2.93952461210E+002, +1.60544790064E+003
+3.39834793492E+007, +2.90691555993E+002, +1.61370365857E+003
+3.41085106383E+007, +2.90833508295E+002, +1.63755566563E+003
+3.42335419274E+007, +3.10724946154E+002, +1.64136228074E+003
+3.43585732165E+007, +3.03300602478E+002, +1.66039382537E+003
+3.44836045056E+007, +3.17828533093E+002, +1.67917900552E+003
+3.46086357947E+007, +3.20148683915E+002, +1.69722899224E+003
+3.47336670839E+007, +3.46497307933E+002, +1.71098967891E+003
+3.48586983730E+007, +3.37410562004E+002, +1.73823297598E+003
+3.49837296621E+007, +3.39398787735E+002, +1.75242500931E+003
+3.51087609512E+007, +3.46019409932E+002, +1.74763817246E+003
+3.52337922403E+007, +3.44157733252E+002, +1.78695315480E+003
+3.53588235294E+007, +3.57329190690E+002, +1.79205054118E+003
+3.54838548185E+007, +3.66157578230E+002, +1.82756579188E+003
+3.56088861076E+007, +3.57563152112E+002, +1.85123275745E+003
+3.57339173967E+007, +3.71947309027E+002, +1.85134934973E+003
+3.58589486859E+007, +3.82150621635E+002, +1.85660418158E+003
+3.59839799750E+007, +3.90841407925E+002, +1.87677199540E+003
+3.61090112641E+007, +3.90032144348E+002, +1.90982574312E+003
+3.62340425532E+007, +3.93620326395E+002, +1.91619382994E+003
+3.63590738423E+007, +4.11138980988E+002, +1.94822486289E+003
+3.64841051314E+007, +4.11595615360E+002, +1.96587798555E+003
+3.66091364205E+007, +4.19744960842E+002, +1.98691270140E+003
+3.67341677096E+007, +4.37489589024E+002, +2.01870144681E+003
+3.68591989987E+007, +4.26621214199E+002, +2.02513720551E+003
+3.69842302879E+007, +4.63744146910E+002, +2.06179420344E+003
+3.71092615770E+007, +4.57881663915E+002, +2.06921913508E+003
+3.72342928661E+007, +4.83792416022E+002, +2.09502199656E+003
+3.73593241552E+007, +4.73347617847E+002, +2.11485489169E+003
+3.74843554443E+007, +4.94972043036E+002, +2.16345647901E+003
+3.76093867334E+007, +5.03579089138E+002, +2.18585740961E+003
+3.77344180225E+007, +4.93386687555E+002, +2.17114578261E+003
+3.78594493116E+007, +5.58229731069E+002, +2.23872504043E+003
+3.79844806008E+007, +5.33602110105E+002, +2.25345383520E+003
+3.81095118899E+007, +5.12534606147E+002, +2.26912517252E+003
+3.82345431790E+007, +5.74524052274E+002, +2.30718105665E+003
+3.83595744681E+007, +5.74452157915E+002, +2.30222893751E+003
+3.84846057572E+007, +5.69463051254E+002, +2.36418533541E+003
+3.86096370463E+007, +6.00856642870E+002, +2.41656341446E+003
+3.87346683354E+007, +6.07464825935E+002, +2.41375778947E+003
+3.88596996245E+007, +6.29716056990E+002, +2.45330693027E+003
+3.89847309136E+007, +6.23252030578E+002, +2.48304592922E+003
+3.91097622028E+007, +6.61099198285E+002, +2.50684541547E+003
+3.92347934919E+007, +6.77641330004E+002, +2.54180559620E+003
+3.93598247810E+007, +7.27588848186E+002, +2.56055198324E+003
+3.94848560701E+007, +7.11231992472E+002, +2.59674602722E+003
+3.96098873592E+007, +6.99907418490E+002, +2.63552240834E+003
+3.97349186483E+007, +7.25067941252E+002, +2.66112500197E+003
+3.98599499374E+007, +7.81464016753E+002, +2.73085652668E+003
+3.99849812265E+007, +7.60079618879E+002, +2.77045904106E+003
+4.01100125156E+007, +7.88417650212E+002, +2.81376809462E+003
