"# Channel 1"
"# Trace 1"
Frequency, Formatted Data, Formatted Data
+1.00000000000E+005, +5.84639236763E+001, +2.32970480356E+000
+2.66777963272E+005, +5.83274980588E+001, +7.24802603816E+000
+4.33555926544E+005, +5.83358227745E+001, +1.17447717367E+001
+6.00333889816E+005, +5.83668047943E+001, +1.63625672883E+001
+7.67111853088E+005, +5.84157518554E+001, +2.07409052487E+001
+9.33889816361E+005, +5.84132136552E+001, +2.52995044039E+001
+1.10066777963E+006, +5.85040770767E+001, +3.00285618545E+001
+1.26744574290E+006, +5.83780715257E+001, +3.44921447874E+001
+1.43422370618E+006, +5.85210690177E+001, +3.91925050455E+001
+1.60100166945E+006, +5.85061047052E+001, +4.35207683048E+001
+1.76777963272E+006, +5.83881677127E+001, +4.81531160891E+001
+1.93455759599E+006, +5.84888894487E+001, +5.26906397755E+001
+2.10133555927E+006, +5.84430842874E+001, +5.72930752724E+001
+2.26811352254E+006, +5.85557898483E+001, +6.18022043297E+001
+2.43489148581E+006, +5.87212333004E+001, +6.65020211132E+001
+2.60166944908E+006, +5.85689273860E+001, +7.09103032736E+001
+2.76844741235E+006, +5.87626578141E+001, +7.56229266115E+001
+2.93522537563E+006, +5.86810135411E+001, +8.02759007960E+001
+3.10200333890E+006, +5.86681509761E+001, +8.46512598738E+001
+3.26878130217E+006, +5.86607984163E+001, +8.95022853514E+001
+3.43555926544E+006, +5.89054680771E+001, +9.36810550751E+001
+3.60233722871E+006, +5.90182501263E+001, +9.86794910527E+001
+3.76911519199E+006, +5.93318611982E+001, +1.03369978766E+002
+3.93589315526E+006, +5.90693649089E+001, +1.07468036137E+002
+4.10267111853E+006, +5.76021334339E+001, +1.12446980208E+002
+4.26944908180E+006, +5.93587585313E+001, +1.17907617818E+002
+4.43622704508E+006, +5.91579397590E+001, +1.21762939533E+002
+4.60300500835E+006, +5.93529958442E+001, +1.26616178285E+002
+4.76978297162E+006, +5.96353404985E+001, +1.31082373018E+002
+4.93656093489E+006, +5.96224041513E+001, +1.35760444602E+002
+5.10333889816E+006, +5.98233947520E+001, +1.40338221988E+002
+5.27011686144E+006, +6.01243665835E+001, +1.45147315488E+002
+5.43689482471E+006, +5.99549352326E+001, +1.49701301651E+002
+5.60367278798E+006, +6.03441410237E+001, +1.54618366440E+002
+5.77045075125E+006, +5.99777795996E+001, +1.59133146329E+002
+5.93722871452E+006, +6.04687521096E+001, +1.64042145295E+002
+6.10400667780E+006, +6.04521043214E+001, +1.68505656744E+002
+6.27078464107E+006, +6.09062266090E+001, +1.73036306208E+002
+6.43756260434E+006, +6.09334426066E+001, +1.77864837737E+002
+6.60434056761E+006, +6.11643855011E+001, +1.82374303218E+002
+6.77111853088E+006, +6.14226313867E+001, +1.86999885306E+002
+6.93789649416E+006, +6.14634348595E+001, +1.91921888672E+002
+7.10467445743E+006, +6.14535971463E+001, +1.96760548667E+002
+7.27145242070E+006, +6.16309489777E+001, +2.01237164113E+002
+7.43823038397E+006, +6.16324159261E+001, +2.06064494936E+002
+7.60500834725E+006, +6.17367352213E+001, +2.10907538501E+002
+7.77178631052E+006, +6.18894397985E+001, +2.16163001770E+002
+7.93856427379E+006, +6.17462207176E+001, +2.20670580512E+002
+8.10534223706E+006, +6.17099181348E+001, +2.25570914849E+002
+8.27212020033E+006, +6.20095214420E+001, +2.30497260211E+002
+8.43889816361E+006, +6.20437340684E+001, +2.35651793632E+002
+8.60567612688E+006, +6.18385289372E+001, +2.40628665443E+002
+8.77245409015E+006, +6.19388231030E+001, +2.45269143034E+002
+8.93923205342E+006, +6.24215606802E+001, +2.50775514847E+002
+9.10601001669E+006, +6.20733368490E+001, +2.55966741261E+002
+9.27278797997E+006, +6.25178143387E+001, +2.60880375805E+002
+9.43956594324E+006, +6.26321887906E+001, +2.65970266914E+002
+9.60634390651E+006, +6.28069245301E+001, +2.71452823686E+002
+9.77312186978E+006, +6.29534394230E+001, +2.76196842973E+002
+9.93989983306E+006, +6.35365329579E+001, +2.81280468528E+002
+1.01066777963E+007, +6.26421553097E+001, +2.86991105796E+002
+1.02734557596E+007, +6.30957662101E+001, +2.92045413146E+002
+1.04402337229E+007, +6.33352112823E+001, +2.97508156756E+002
+1.06070116861E+007, +6.37705627053E+001, +3.02605334739E+002
+1.07737896494E+007, +6.38918550491E+001, +3.08135304522E+002
+1.09405676127E+007, +6.48432608786E+001, +3.13257590222E+002
+1.11073455760E+007, +6.43708709930E+001, +3.18176242599E+002
+1.12741235392E+007, +6.47258500807E+001, +3.23542812198E+002
+1.14409015025E+007, +6.49301138627E+001, +3.29211981052E+002
+1.16076794658E+007, +6.52135374328E+001, +3.34468116381E+002
+1.17744574290E+007, +6.54899194737E+001, +3.40857634487E+002
+1.19412353923E+007, +6.55175677483E+001, +3.45842145596E+002
+1.21080133556E+007, +6.59872112471E+001, +3.51636378167E+002
+1.22747913189E+007, +6.61519569076E+001, +3.56883762520E+002
+1.24415692821E+007, +6.63664223637E+001, +3.63045411021E+002
+1.26083472454E+007, +6.65536551355E+001, +3.68590190360E+002
+1.27751252087E+007, +6.67312480387E+001, +3.73959109081E+002
+1.29419031720E+007, +6.67581891814E+001, +3.79779008860E+002
+1.31086811352E+007, +6.76288230795E+001, +3.85923491611E+002
+1.32754590985E+007, +6.82187759499E+001, +3.91167963235E+002
+1.34422370618E+007, +6.74157058909E+001, +3.96554201724E+002
+1.36090150250E+007, +6.90136467830E+001, +4.02299177905E+002
+1.37757929883E+007, +6.84745937229E+001, +4.08205152592E+002
+1.39425709516E+007, +6.90694487382E+001, +4.14816785014E+002
+1.41093489149E+007, +6.95093152930E+001, +4.19988606830E+002
+1.42761268781E+007, +7.01893341618E+001, +4.26961093730E+002
+1.44429048414E+007, +7.09262070604E+001, +4.31808313093E+002
+1.46096828047E+007, +7.05125034068E+001, +4.38890174309E+002
+1.47764607679E+007, +7.13793369992E+001, +4.44169060440E+002
+1.49432387312E+007, +7.14746282432E+001, +4.51291908088E+002
+1.51100166945E+007, +7.14392498065E+001, +4.56837661938E+002
+1.52767946578E+007, +7.32644226117E+001, +4.62529590590E+002
+1.54435726210E+007, +7.38823121877E+001, +4.69113063297E+002
+1.56103505843E+007, +7.40806153631E+001, +4.75359183137E+002
+1.57771285476E+007, +7.40797689138E+001, +4.80702972878E+002
+1.59439065109E+007, +7.53504100942E+001, +4.87765293546E+002
+1.61106844741E+007, +7.63427288814E+001, +4.94019377925E+002
+1.62774624374E+007, +7.57429883050E+001, +4.99539515491E+002
+1.64442404007E+007, +7.52312115276E+001, +5.05642006032E+002
+1.66110183639E+007, +7.66829702375E+001, +5.13188116823E+002
+1.67777963272E+007, +7.65095691624E+001, +5.20144005173E+002
+1.69445742905E+007, +7.73487533284E+001, +5.26227782191E+002
+1.71113522538E+007, +7.57052543036E+001, +5.33271314853E+002
+1.72781302170E+007, +7.81049310203E+001, +5.39230700971E+002
+1.74449081803E+007, +7.66020208068E+001, +5.46776899006E+002
+1.76116861436E+007, +7.81236536784E+001, +5.54255274075E+002
+1.77784641068E+007, +7.82596391671E+001, +5.59963473527E+002
+1.79452420701E+007, +7.99840334688E+001, +5.67888384146E+002
+1.81120200334E+007, +8.14074261841E+001, +5.71970886079E+002
+1.82787979967E+007, +8.13132432825E+001, +5.80488680575E+002
+1.84455759599E+007, +8.28818327064E+001, +5.88495601284E+002
+1.86123539232E+007, +8.27910262286E+001, +5.95511886381E+002
+1.87791318865E+007, +8.36627215133E+001, +6.04487173601E+002
+1.89459098497E+007, +8.48900753183E+001, +6.11632213101E+002
+1.91126878130E+007, +8.49138941611E+001, +6.16597019111E+002
+1.92794657763E+007, +8.71162119514E+001, +6.25925759276E+002
+1.94462437396E+007, +8.77779418440E+001, +6.33701713618E+002
+1.96130217028E+007, +8.69402983744E+001, +6.42304807203E+002
+1.97797996661E+007, +8.75235382740E+001, +6.47075259685E+002
+1.99465776294E+007, +8.55806057578E+001, +6.55272930518E+002
+2.01133555927E+007, +8.77225210157E+001, +6.65026164641E+002
+2.02801335559E+007, +8.93211197913E+001, +6.74598334436E+002
+2.04469115192E+007, +9.26126804120E+001, +6.81957161799E+002
+2.06136894825E+007, +9.33641641318E+001, +6.89901642803E+002
+2.07804674457E+007, +9.56870676330E+001, +6.96838185234E+002
+2.09472454090E+007, +9.42286213923E+001, +7.06355990694E+002
+2.11140233723E+007, +9.57508254296E+001, +7.12894436996E+002
+2.12808013356E+007, +9.65702798578E+001, +7.22378931626E+002
+2.14475792988E+007, +9.83959245306E+001, +7.31414470197E+002
+2.16143572621E+007, +9.88830369825E+001, +7.40514524474E+002
+2.17811352254E+007, +9.89011853863E+001, +7.47512105094E+002
+2.19479131886E+007, +1.03089450635E+002, +7.55234916695E+002
+2.21146911519E+007, +1.04806650343E+002, +7.63543199486E+002
+2.22814691152E+007, +1.03630634834E+002, +7.73441347814E+002
+2.24482470785E+007, +1.06171443125E+002, +7.86082401832E+002
+2.26150250417E+007, +1.08968882945E+002, +7.92454110050E+002
+2.27818030050E+007, +1.09533939994E+002, +8.03605564345E+002
+2.29485809683E+007, +1.16443165850E+002, +8.10952164583E+002
+2.31153589316E+007, +1.10950194393E+002, +8.22434414393E+002
+2.32821368948E+007, +1.16398683002E+002, +8.28324707865E+002
+2.34489148581E+007, +1.15902589669E+002, +8.38142973184E+002
+2.36156928214E+007, +1.22412013258E+002, +8.52215262021E+002
+2.37824707846E+007, +1.21943234900E+002, +8.58738008699E+002
+2.39492487479E+007, +1.20927934090E+002, +8.68453964489E+002
+2.41160267112E+007, +1.23056871233E+002, +8.75992397286E+002
+2.42828046745E+007, +1.27456073098E+002, +8.86756748104E+002
+2.44495826377E+007, +1.33193575683E+002, +9.04337561430E+002
+2.46163606010E+007, +1.31399643853E+002, +9.12099598255E+002
+2.47831385643E+007, +1.34022380573E+002, +9.22497357039E+002
+2.49499165275E+007, +1.39406710952E+002, +9.33514605089E+002
+2.51166944908E+007, +1.41968555445E+002, +9.41486253490E+002
+2.52834724541E+007, +1.41771625783E+002, +9.54248656028E+002
+2.54502504174E+007, +1.44736347992E+002, +9.64940350994E+002
+2.56170283806E+007, +1.47632732465E+002, +9.76369627267E+002
+2.57838063439E+007, +1.53621388941E+002, +9.87205414259E+002
+2.59505843072E+007, +1.56820169164E+002, +1.00204279730E+003
+2.61173622705E+007, +1.58880050432E+002, +1.01165103347E+003
+2.62841402337E+007, +1.60160605816E+002, +1.01703082434E+003
+2.64509181970E+007, +1.59855055366E+002, +1.03213268154E+003
+2.66176961603E+007, +1.70999407103E+002, +1.04756339638E+003
+2.67844741235E+007, +1.67568877818E+002, +1.05785382010E+003
+2.69512520868E+007, +1.74435770031E+002, +1.06922614073E+003
+2.71180300501E+007, +1.70665737109E+002, +1.07532027031E+003
+2.72848080134E+007, +1.84203857467E+002, +1.09085835497E+003
+2.74515859766E+007, +1.85108094708E+002, +1.09963780550E+003
+2.76183639399E+007, +1.77187575607E+002, +1.11420755584E+003
+2.77851419032E+007, +1.82347889025E+002, +1.12559872069E+003
+2.79519198664E+007, +1.86813600036E+002, +1.13565996998E+003
+2.81186978297E+007, +1.89796212102E+002, +1.14488924489E+003
+2.82854757930E+007, +1.95486733586E+002, +1.15463209473E+003
+2.84522537563E+007, +1.88330047490E+002, +1.17965450681E+003
+2.86190317195E+007, +1.91242550925E+002, +1.18519789425E+003
+2.87858096828E+007, +2.05824911241E+002, +1.20049498734E+003
+2.89525876461E+007, +1.98809514380E+002, +1.21941830745E+003
+2.91193656093E+007, +2.00591443183E+002, +1.22385090566E+003
+2.92861435726E+007, +2.02579780500E+002, +1.24220814783E+003
+2.94529215359E+007, +2.07635411343E+002, +1.26229374260E+003
+2.96196994992E+007, +2.12015361930E+002, +1.27706645440E+003
+2.97864774624E+007, +2.19688878485E+002, +1.29063034350E+003
+2.99532554257E+007, +2.20327640020E+002, +1.30485614668E+003
+3.01200333890E+007, +2.28925866699E+002, +1.33125090083E+003
+3.02868113523E+007, +2.21467407112E+002, +1.34462356018E+003
+3.04535893155E+007, +2.31767899038E+002, +1.36364040896E+003
+3.06203672788E+007, +2.28588216536E+002, +1.37977403491E+003
+3.07871452421E+007, +2.29379729661E+002, +1.40135012939E+003
+3.09539232053E+007, +2.39231455562E+002, +1.41875523205E+003
+3.11207011686E+007, +2.44833224866E+002, +1.45080225870E+003
+3.12874791319E+007, +2.40548978136E+002, +1.45316220805E+003
+3.14542570952E+007, +2.54351040372E+002, +1.47677895413E+003
+3.16210350584E+007, +2.47560966974E+002, +1.48752425181E+003
+3.17878130217E+007, +2.60610066897E+002, +1.52526081301E+003
+3.19545909850E+007, +2.70955023989E+002, +1.55392707915E+003
+3.21213689482E+007, +2.62157633713E+002, +1.57312202952E+003
+3.22881469115E+007, +2.74188448823E+002, +1.59716452014E+003
+3.24549248748E+007, +2.79765487924E+002, +1.62470298119E+003
+3.26217028381E+007, +2.83070746571E+002, +1.64499359310E+003
+3.27884808013E+007, +2.82601028237E+002, +1.65510076605E+003
+3.29552587646E+007, +3.01593037695E+002, +1.67485261752E+003
+3.31220367279E+007, +2.97703598409E+002, +1.70089130209E+003
+3.32888146912E+007, +3.11401933573E+002, +1.74568954557E+003
+3.34555926544E+007, +2.97993405974E+002, +1.77572257532E+003
+3.36223706177E+007, +3.15943688658E+002, +1.78597900499E+003
+3.37891485810E+007, +3.17562401359E+002, +1.82179251201E+003
+3.39559265442E+007, +3.30925206233E+002, +1.87308592510E+003
+3.41227045075E+007, +3.27430660838E+002, +1.88998854868E+003
+3.42894824708E+007, +3.62451802913E+002, +1.92450477765E+003
+3.44562604341E+007, +3.73438093592E+002, +1.95814221375E+003
+3.46230383973E+007, +3.83254957618E+002, +2.00461935955E+003
+3.47898163606E+007, +3.82423497720E+002, +2.02445874898E+003
+3.49565943239E+007, +4.10125016719E+002, +2.06364485902E+003
+3.51233722871E+007, +4.15539269220E+002, +2.09596236300E+003
+3.52901502504E+007, +4.29260780628E+002, +2.11536388710E+003
+3.54569282137E+007, +4.44621387638E+002, +2.17695312883E+003
+3.56237061770E+007, +4.34781324774E+002, +2.22533834153E+003
+3.57904841402E+007, +4.57545167445E+002, +2.26898380205E+003
+3.59572621035E+007, +4.87008221365E+002, +2.29621412377E+003
+3.61240400668E+007, +5.14255429372E+002, +2.36819923686E+003
+3.62908180301E+007, +5.45861829505E+002, +2.42013376377E+003
+3.64575959933E+007, +5.34973592250E+002, +2.44888786406E+003
+3.66243739566E+007, +5.67529282849E+002, +2.47134586414E+003
+3.67911519199E+007, +5.84175836534E+002, +2.55276408621E+003
+3.69579298831E+007, +5.65737050070E+002, +2.58573566795E+003
+3.71247078464E+007, +6.11868409513E+002, +2.66500354994E+003
+3.72914858097E+007, +6.52928602296E+002, +2.71573246236E+003
+3.74582637730E+007, +7.18410750328E+002, +2.81137691113E+003
+3.76250417362E+007, +6.97648890332E+002, +2.83579088875E+003
+3.77918196995E+007, +7.33585515192E+002, +2.90894812134E+003
+3.79585976628E+007, +7.65185726735E+002, +2.98150326490E+003
+3.81253756260E+007, +8.26992776907E+002, +3.04123134669E+003
+3.82921535893E+007, +9.03586583027E+002, +3.13684185197E+003
+3.84589315526E+007, +8.90561344473E+002, +3.21504182085E+003
+3.86257095159E+007, +9.37572488910E+002, +3.25459682403E+003
+3.87924874791E+007, +9.58409457217E+002, +3.40610936298E+003
+3.89592654424E+007, +1.01248351881E+003, +3.41790011839E+003
+3.91260434057E+007, +1.12951248825E+003, +3.56679403369E+003
+3.92928213689E+007, +1.21899991780E+003, +3.69097058989E+003
+3.94595993322E+007, +1.28045760749E+003, +3.82267591190E+003
+3.96263772955E+007, +1.30986481371E+003, +3.96971181257E+003
+3.97931552588E+007, +1.36468016804E+003, +3.97003976693E+003
+3.99599332220E+007, +1.50810173299E+003, +4.14030569584E+003
+4.01267111853E+007, +1.58461967837E+003, +4.24751165670E+003
+4.02934891486E+007, +1.59668491926E+003, +4.35795823870E+003
+4.04602671119E+007, +1.86793876746E+003, +4.47398914056E+003
+4.06270450751E+007, +2.17624863321E+003, +4.57716376411E+003
+4.07938230384E+007, +2.28851826436E+003, +4.79850966167E+003
+4.09606010017E+007, +2.38631947403E+003, +4.93441552128E+003
+4.11273789649E+007, +2.52936858068E+003, +4.99312465222E+003
+4.12941569282E+007, +2.78302546442E+003, +5.33054214692E+003
+4.14609348915E+007, +3.21673851395E+003, +5.49996471115E+003
+4.16277128548E+007, +3.33046639456E+003, +5.51786364175E+003
+4.17944908180E+007, +3.62759807747E+003, +5.66815569012E+003
+4.19612687813E+007, +4.05925450026E+003, +5.95833331817E+003
+4.21280467446E+007, +4.54429226088E+003, +6.14235915259E+003
+4.22948247078E+007, +5.00198890764E+003, +6.09011938777E+003
+4.24616026711E+007, +5.42936135052E+003, +6.07605208307E+003
+4.26283806344E+007, +6.10611378592E+003, +6.10767526783E+003
+4.27951585977E+007, +7.03515248693E+003, +6.70562012726E+003
+4.29619365609E+007, +7.53359869324E+003, +5.93529544297E+003
+4.31287145242E+007, +8.26137766555E+003, +5.68618063344E+003
+4.32954924875E+007, +8.75589530653E+003, +5.84114887322E+003
+4.34622704508E+007, +1.00513658523E+004, +5.32259211743E+003
+4.36290484140E+007, +1.04643235166E+004, +4.02395342464E+003
+4.37958263773E+007, +1.17307298634E+004, +3.15332522993E+003
+4.39626043406E+007, +1.18712099479E+004, +2.66729017262E+003
+4.41293823038E+007, +1.20778201925E+004, +2.87902017979E+002
+4.42961602671E+007, +1.21494557725E+004, +2.88163900242E+002
+4.44629382304E+007, +1.29237499884E+004, -1.23728851525E+003
+4.46297161937E+007, +1.18413352035E+004, -2.79428901528E+003
+4.47964941569E+007, +1.11904860965E+004, -3.83658221395E+003
+4.49632721202E+007, +1.02330608767E+004, -4.76563033128E+003
+4.51300500835E+007, +1.02083139863E+004, -5.01427371063E+003
+4.52968280467E+007, +8.54062009870E+003, -5.29477357345E+003
+4.54636060100E+007, +7.35206878783E+003, -5.82597312011E+003
+4.56303839733E+007, +7.14681415873E+003, -6.13445705470E+003
+4.57971619366E+007, +6.27588903912E+003, -6.32705117332E+003
+4.59639398998E+007, +4.92132408665E+003, -5.95425442820E+003
+4.61307178631E+007, +4.84716336172E+003, -5.98555955451E+003
+4.62974958264E+007, +4.33095430549E+003, -5.51310649314E+003
+4.64642737896E+007, +4.06091732154E+003, -5.61451706478E+003
+4.66310517529E+007, +3.60598653381E+003, -5.55464366025E+003
+4.67978297162E+007, +3.53888792060E+003, -5.14698271911E+003
+4.69646076795E+007, +2.93818444751E+003, -5.18924742165E+003
+4.71313856427E+007, +2.84993925889E+003, -4.86985531985E+003
+4.72981636060E+007, +2.45053671196E+003, -4.70208764312E+003
+4.74649415693E+007, +2.39167299533E+003, -4.57422525511E+003
+4.76317195326E+007, +2.33416019352E+003, -4.25871310925E+003
+4.77984974958E+007, +2.11326506751E+003, -4.15776938325E+003
+4.79652754591E+007, +1.94585071547E+003, -4.02007080141E+003
+4.81320534224E+007, +1.86712737885E+003, -3.93492951843E+003
+4.82988313856E+007, +1.76108070930E+003, -3.86578585769E+003
+4.84656093489E+007, +1.64941932162E+003, -3.66248291270E+003
+4.86323873122E+007, +1.59568356255E+003, -3.54566277664E+003
+4.87991652755E+007, +1.50352803767E+003, -3.46620869803E+003
+4.89659432387E+007, +1.45306338235E+003, -3.38367405422E+003
+4.91327212020E+007, +1.34472188615E+003, -3.25264148324E+003
+4.92994991653E+007, +1.29745059022E+003, -3.17365133094E+003
+4.94662771285E+007, +1.25092050983E+003, -3.07708023989E+003
+4.96330550918E+007, +1.23928716529E+003, -3.01679854634E+003
+4.97998330551E+007, +1.19539775878E+003, -2.91392290086E+003
+4.99666110184E+007, +1.14182256005E+003, -2.86558023525E+003
+5.01333889816E+007, +1.06220122597E+003, -2.82129536244E+003
+5.03001669449E+007, +1.02841227059E+003, -2.73453819377E+003
+5.04669449082E+007, +1.01315131575E+003, -2.69233106557E+003
+5.06337228715E+007, +9.67822703900E+002, -2.60659538666E+003
+5.08005008347E+007, +9.33816246498E+002, -2.60550870137E+003
+5.09672787980E+007, +8.98135594877E+002, -2.56482548864E+003
+5.11340567613E+007, +8.49064341152E+002, -2.46509973011E+003
+5.13008347245E+007, +7.84595435858E+002, -2.41809882311E+003
+5.14676126878E+007, +7.78118915963E+002, -2.39133580565E+003
+5.16343906511E+007, +7.50405330362E+002, -2.29968984233E+003
+5.18011686144E+007, +7.04112653998E+002, -2.29309704297E+003
+5.19679465776E+007, +6.64643542208E+002, -2.23142653257E+003
+5.21347245409E+007, +6.52397213699E+002, -2.16659870510E+003
+5.23015025042E+007, +6.10725212030E+002, -2.08944720813E+003
+5.24682804674E+007, +5.87026803476E+002, -2.06008204813E+003
+5.26350584307E+007, +5.94440401820E+002, -2.01901194603E+003
+5.28018363940E+007, +5.36620523314E+002, -1.97676580421E+003
+5.29686143573E+007, +5.24327757956E+002, -1.92936863907E+003
+5.31353923205E+007, +5.24482709727E+002, -1.90647778203E+003
+5.33021702838E+007, +5.13487376017E+002, -1.85733944447E+003
+5.34689482471E+007, +5.01105847333E+002, -1.78426629732E+003
