"# Channel 1"
"# Trace 1"
Frequency, Formatted Data, Formatted Data
+1.00000000000E+005, +7.90790197033E+000, +2.67210865233E+000
+2.25031289111E+005, +7.85922445681E+000, +5.98834859569E+000
+3.50062578223E+005, +7.87915383276E+000, +9.33945584050E+000
+4.75093867334E+005, +7.89722706218E+000, +1.26367696968E+001
+6.00125156446E+005, +7.89447010688E+000, +1.59616889624E+001
+7.25156445557E+005, +7.87753965269E+000, +1.93167287458E+001
+8.50187734668E+005, +7.88062986566E+000, +2.26090666446E+001
+9.75219023780E+005, +7.88476602558E+000, +2.58982233057E+001
+1.10025031289E+006, +7.90067588265E+000, +2.91792645015E+001
+1.22528160200E+006, +7.88284020787E+000, +3.25436261527E+001
+1.35031289111E+006, +7.88927459601E+000, +3.58789084739E+001
+1.47534418023E+006, +7.87531134000E+000, +3.91770254796E+001
+1.60037546934E+006, +7.92768101804E+000, +4.24300801762E+001
+1.72540675845E+006, +7.84487670330E+000, +4.57929997442E+001
+1.85043804756E+006, +7.92997056576E+000, +4.90787305865E+001
+1.97546933667E+006, +7.90288596231E+000, +5.24591774755E+001
+2.10050062578E+006, +7.86851698482E+000, +5.56653433502E+001
+2.22553191489E+006, +7.90822477433E+000, +5.89103829759E+001
+2.35056320401E+006, +7.92205650964E+000, +6.23269802030E+001
+2.47559449312E+006, +7.87806147025E+000, +6.55981767908E+001
+2.60062578223E+006, +7.74750593832E+000, +6.89450702015E+001
+2.72565707134E+006, +7.82976279875E+000, +7.22119178668E+001
+2.85068836045E+006, +7.80131089379E+000, +7.55723362264E+001
+2.97571964956E+006, +7.98433607524E+000, +7.89790976476E+001
+3.10075093867E+006, +7.80264933138E+000, +8.22836337465E+001
+3.22578222778E+006, +7.86951259759E+000, +8.55498272654E+001
+3.35081351690E+006, +8.02118436875E+000, +8.88887336859E+001
+3.47584480601E+006, +8.02857943643E+000, +9.22428361561E+001
+3.60087609512E+006, +7.83592318514E+000, +9.56444091365E+001
+3.72590738423E+006, +7.85254078533E+000, +9.89265429353E+001
+3.85093867334E+006, +8.00151081235E+000, +1.02260484670E+002
+3.97596996245E+006, +7.92234729517E+000, +1.05477924456E+002
+4.10100125156E+006, +8.10734794195E+000, +1.08950072422E+002
+4.22603254068E+006, +7.86019737780E+000, +1.12181637555E+002
+4.35106382979E+006, +7.87730442382E+000, +1.15602646432E+002
+4.47609511890E+006, +7.71412466348E+000, +1.18822697444E+002
+4.60112640801E+006, +7.77162108448E+000, +1.22310825276E+002
+4.72615769712E+006, +7.97415065703E+000, +1.25616973720E+002
+4.85118898623E+006, +8.13751377346E+000, +1.28743865602E+002
+4.97622027534E+006, +7.99758416928E+000, +1.32407098672E+002
+5.10125156446E+006, +8.21977661428E+000, +1.35698662772E+002
+5.22628285357E+006, +8.16058321022E+000, +1.38978313423E+002
+5.35131414268E+006, +7.78836999715E+000, +1.42312165294E+002
+5.47634543179E+006, +8.12879065255E+000, +1.45759738996E+002
+5.60137672090E+006, +8.06787860982E+000, +1.49356370169E+002
+5.72640801001E+006, +8.26485339988E+000, +1.52606504005E+002
+5.85143929912E+006, +8.34181097665E+000, +1.55847236267E+002
+5.97647058824E+006, +8.19442487941E+000, +1.59445390936E+002
+6.10150187735E+006, +8.24189271915E+000, +1.62477391918E+002
+6.22653316646E+006, +8.36154507788E+000, +1.66216808078E+002
+6.35156445557E+006, +8.38235034569E+000, +1.69245783106E+002
+6.47659574468E+006, +8.36940772884E+000, +1.72778118465E+002
+6.60162703379E+006, +8.61335901648E+000, +1.76196885939E+002
+6.72665832290E+006, +8.45521722366E+000, +1.79569339551E+002
+6.85168961202E+006, +8.68837890965E+000, +1.82974928420E+002
+6.97672090113E+006, +8.68175869818E+000, +1.86392128285E+002
+7.10175219024E+006, +8.76045487306E+000, +1.89637818837E+002
+7.22678347935E+006, +8.80293085619E+000, +1.93055972847E+002
+7.35181476846E+006, +8.91112351478E+000, +1.96528894388E+002
+7.47684605757E+006, +8.95205636803E+000, +1.99749755334E+002
+7.60187734668E+006, +9.08842133993E+000, +2.03373837710E+002
+7.72690863579E+006, +9.10995595930E+000, +2.06794040147E+002
+7.85193992491E+006, +8.86973797506E+000, +2.09964579890E+002
+7.97697121402E+006, +8.80308254439E+000, +2.13464753389E+002
+8.10200250313E+006, +9.35451022253E+000, +2.17046295715E+002
+8.22703379224E+006, +9.24771875173E+000, +2.20597652437E+002
+8.35206508135E+006, +9.28543485101E+000, +2.23715504816E+002
+8.47709637046E+006, +8.98133686038E+000, +2.27319565585E+002
+8.60212765957E+006, +9.09857185838E+000, +2.30631717862E+002
+8.72715894869E+006, +9.14564911780E+000, +2.34174229875E+002
+8.85219023780E+006, +9.32655795210E+000, +2.37194435131E+002
+8.97722152691E+006, +9.62659742281E+000, +2.41182424393E+002
+9.10225281602E+006, +9.30223305597E+000, +2.44259282251E+002
+9.22728410513E+006, +8.98748056628E+000, +2.47639019545E+002
+9.35231539424E+006, +9.07177364709E+000, +2.51293448090E+002
+9.47734668335E+006, +9.52901555060E+000, +2.55039498949E+002
+9.60237797247E+006, +9.38235550458E+000, +2.58229018332E+002
+9.72740926158E+006, +9.93813857541E+000, +2.61304679950E+002
+9.85244055069E+006, +9.73322020759E+000, +2.64928655875E+002
+9.97747183980E+006, +9.57655205603E+000, +2.68583489999E+002
+1.01025031289E+007, +9.38707654405E+000, +2.71673922030E+002
+1.02275344180E+007, +9.27724665023E+000, +2.75517954973E+002
+1.03525657071E+007, +9.69708087414E+000, +2.78881363502E+002
+1.04775969962E+007, +9.67207373016E+000, +2.82475842504E+002
+1.06026282854E+007, +9.87068024741E+000, +2.86033105905E+002
+1.07276595745E+007, +9.80443547828E+000, +2.89796567117E+002
+1.08526908636E+007, +9.61172489521E+000, +2.93059667943E+002
+1.09777221527E+007, +9.57879711673E+000, +2.96453573724E+002
+1.11027534418E+007, +9.74968785462E+000, +3.00160116280E+002
+1.12277847309E+007, +1.00331620963E+001, +3.03796621267E+002
+1.13528160200E+007, +9.57187849008E+000, +3.06864510651E+002
+1.14778473091E+007, +1.01695072119E+001, +3.10147671620E+002
+1.16028785982E+007, +9.77801167507E+000, +3.13695167760E+002
+1.17279098874E+007, +9.98244581425E+000, +3.17848957476E+002
+1.18529411765E+007, +9.98814909406E+000, +3.20623587775E+002
+1.19779724656E+007, +9.91110954072E+000, +3.24279061313E+002
+1.21030037547E+007, +9.66010265079E+000, +3.27795504606E+002
+1.22280350438E+007, +1.01453507980E+001, +3.31896820672E+002
+1.23530663329E+007, +1.06335313429E+001, +3.35663711613E+002
+1.24780976220E+007, +1.02905403821E+001, +3.38693598325E+002
+1.26031289111E+007, +9.88495654738E+000, +3.42464188719E+002
+1.27281602003E+007, +9.93732366212E+000, +3.45837296026E+002
+1.28531914894E+007, +9.77788220463E+000, +3.48817313739E+002
+1.29782227785E+007, +9.97570523271E+000, +3.53237893246E+002
+1.31032540676E+007, +1.02092105394E+001, +3.56847234615E+002
+1.32282853567E+007, +1.10240207476E+001, +3.60518840885E+002
+1.33533166458E+007, +1.03877840346E+001, +3.63894730784E+002
+1.34783479349E+007, +1.03031666564E+001, +3.67519625341E+002
+1.36033792240E+007, +1.05697446330E+001, +3.71468757041E+002
+1.37284105131E+007, +1.03993219544E+001, +3.75084151771E+002
+1.38534418023E+007, +1.04208900309E+001, +3.78936690692E+002
+1.39784730914E+007, +1.07776444276E+001, +3.82238109510E+002
+1.41035043805E+007, +1.08278469468E+001, +3.86752390658E+002
+1.42285356696E+007, +1.06056257024E+001, +3.89767396526E+002
+1.43535669587E+007, +1.10913828391E+001, +3.93346870668E+002
+1.44785982478E+007, +1.13570568959E+001, +3.96995984300E+002
+1.46036295369E+007, +1.13267721369E+001, +4.00307522920E+002
+1.47286608260E+007, +1.11656503924E+001, +4.04299893720E+002
+1.48536921151E+007, +1.05435001040E+001, +4.07780549136E+002
+1.49787234043E+007, +1.06311048677E+001, +4.11914266819E+002
+1.51037546934E+007, +1.09400263170E+001, +4.15272515408E+002
+1.52287859825E+007, +1.07806884907E+001, +4.19939549678E+002
+1.53538172716E+007, +1.08988576034E+001, +4.21807422775E+002
+1.54788485607E+007, +1.16984195878E+001, +4.26793112664E+002
+1.56038798498E+007, +1.08227623214E+001, +4.30229124819E+002
+1.57289111389E+007, +1.13810346080E+001, +4.33337267040E+002
+1.58539424280E+007, +1.16426042060E+001, +4.37581182187E+002
+1.59789737171E+007, +1.16427028609E+001, +4.41313660080E+002
+1.61040050063E+007, +1.19506891031E+001, +4.44043374284E+002
+1.62290362954E+007, +1.13685996459E+001, +4.48359766484E+002
+1.63540675845E+007, +1.13264217497E+001, +4.51934378625E+002
+1.64790988736E+007, +1.22655472612E+001, +4.57324625313E+002
+1.66041301627E+007, +1.24906906908E+001, +4.60549206369E+002
+1.67291614518E+007, +1.19817085722E+001, +4.63757400513E+002
+1.68541927409E+007, +1.15170023071E+001, +4.67810507029E+002
+1.69792240300E+007, +1.19561118892E+001, +4.71541781053E+002
+1.71042553191E+007, +9.65807904402E+000, +4.74593470214E+002
+1.72292866083E+007, +1.02019697328E+001, +4.80540889929E+002
+1.73543178974E+007, +1.17198278361E+001, +4.82899603501E+002
+1.74793491865E+007, +1.09212133443E+001, +4.88487851829E+002
+1.76043804756E+007, +1.07839907203E+001, +4.90795770962E+002
+1.77294117647E+007, +1.08435955492E+001, +4.96511188858E+002
+1.78544430538E+007, +1.07986310003E+001, +4.99525219437E+002
+1.79794743429E+007, +1.05535143734E+001, +5.02489230825E+002
+1.81045056320E+007, +1.14480858655E+001, +5.08005740401E+002
+1.82295369212E+007, +1.19061524381E+001, +5.10775065040E+002
+1.83545682103E+007, +1.13401788311E+001, +5.15223373100E+002
+1.84795994994E+007, +1.28831505604E+001, +5.19551048334E+002
+1.86046307885E+007, +1.07366673341E+001, +5.23732030807E+002
+1.87296620776E+007, +1.19013267434E+001, +5.27049845033E+002
+1.88546933667E+007, +1.16376284708E+001, +5.32264315794E+002
+1.89797246558E+007, +1.24487936165E+001, +5.35879512928E+002
+1.91047559449E+007, +1.28583955998E+001, +5.36978825468E+002
+1.92297872340E+007, +1.13708349410E+001, +5.43002451027E+002
+1.93548185232E+007, +1.26791605382E+001, +5.47703100935E+002
+1.94798498123E+007, +1.23810026550E+001, +5.50941852769E+002
+1.96048811014E+007, +1.44795047666E+001, +5.54941527279E+002
+1.97299123905E+007, +1.36863122593E+001, +5.60912799598E+002
+1.98549436796E+007, +1.18581988964E+001, +5.62805287412E+002
+1.99799749687E+007, +1.22273455531E+001, +5.69388551182E+002
+2.01050062578E+007, +1.25304954586E+001, +5.73075313766E+002
+2.02300375469E+007, +1.28488185615E+001, +5.76273473144E+002
+2.03550688360E+007, +1.32199341489E+001, +5.80780744731E+002
+2.04801001252E+007, +1.41131465588E+001, +5.83947241888E+002
+2.06051314143E+007, +1.28976493676E+001, +5.88879496521E+002
+2.07301627034E+007, +1.25634430380E+001, +5.94284644141E+002
+2.08551939925E+007, +1.34752390994E+001, +5.96440458144E+002
+2.09802252816E+007, +1.34536733551E+001, +6.02385325327E+002
+2.11052565707E+007, +1.39332463825E+001, +6.06036029403E+002
+2.12302878598E+007, +1.35592679045E+001, +6.11078090695E+002
+2.13553191489E+007, +1.16634340347E+001, +6.16343531012E+002
+2.14803504380E+007, +1.26896361369E+001, +6.20221073838E+002
+2.16053817272E+007, +1.30598606783E+001, +6.24188987312E+002
+2.17304130163E+007, +1.51409359394E+001, +6.28695965574E+002
+2.18554443054E+007, +1.45428680632E+001, +6.31373205576E+002
+2.19804755945E+007, +1.35246272938E+001, +6.36607426623E+002
+2.21055068836E+007, +1.51077700633E+001, +6.40071290142E+002
+2.22305381727E+007, +1.29677806106E+001, +6.48617021244E+002
+2.23555694618E+007, +1.54869296721E+001, +6.50704947368E+002
+2.24806007509E+007, +1.68231898437E+001, +6.54609414625E+002
+2.26056320401E+007, +1.67106443676E+001, +6.58745321289E+002
+2.27306633292E+007, +1.54378054850E+001, +6.65479512581E+002
+2.28556946183E+007, +1.83679394146E+001, +6.71227005639E+002
+2.29807259074E+007, +1.75733839381E+001, +6.73913502262E+002
+2.31057571965E+007, +1.96228627568E+001, +6.76859791734E+002
+2.32307884856E+007, +1.99694645483E+001, +6.81963622123E+002
+2.33558197747E+007, +1.83140903987E+001, +6.88922203914E+002
+2.34808510638E+007, +1.98316125040E+001, +6.92063762680E+002
+2.36058823529E+007, +1.98725086008E+001, +6.97554497469E+002
+2.37309136421E+007, +1.97426695805E+001, +7.00906645935E+002
+2.38559449312E+007, +2.22960204203E+001, +7.05535697723E+002
+2.39809762203E+007, +2.08705599341E+001, +7.09963936381E+002
+2.41060075094E+007, +1.87487989700E+001, +7.14356242452E+002
+2.42310387985E+007, +2.32353216800E+001, +7.18977261392E+002
+2.43560700876E+007, +2.18197293260E+001, +7.24633400087E+002
+2.44811013767E+007, +2.10951285939E+001, +7.31739026955E+002
+2.46061326658E+007, +2.39304916528E+001, +7.35577778313E+002
+2.47311639549E+007, +2.25155398573E+001, +7.38755686526E+002
+2.48561952441E+007, +2.33150914292E+001, +7.43344465936E+002
+2.49812265332E+007, +2.41297255692E+001, +7.48724970012E+002
+2.51062578223E+007, +2.47725320908E+001, +7.53437819285E+002
+2.52312891114E+007, +2.60036575893E+001, +7.55864604716E+002
+2.53563204005E+007, +2.36032639423E+001, +7.61838055193E+002
+2.54813516896E+007, +2.39929513817E+001, +7.67502067387E+002
+2.56063829787E+007, +2.62306240150E+001, +7.69014237626E+002
+2.57314142678E+007, +2.87112886629E+001, +7.78509899295E+002
+2.58564455569E+007, +2.64162262198E+001, +7.79504322856E+002
+2.59814768461E+007, +2.84884182328E+001, +7.86648607523E+002
+2.61065081352E+007, +2.71527787892E+001, +7.89150870085E+002
+2.62315394243E+007, +2.69692954722E+001, +7.97025484296E+002
+2.63565707134E+007, +2.96117262359E+001, +8.03432523472E+002
+2.64816020025E+007, +2.59860325063E+001, +8.04182318849E+002
+2.66066332916E+007, +2.91725185404E+001, +8.10002888571E+002
+2.67316645807E+007, +3.11333007825E+001, +8.15472921581E+002
+2.68566958698E+007, +3.01951225739E+001, +8.23441348999E+002
+2.69817271589E+007, +3.18344005924E+001, +8.28861644301E+002
+2.71067584481E+007, +3.48475426249E+001, +8.29067343338E+002
+2.72317897372E+007, +3.15749410337E+001, +8.36389431951E+002
+2.73568210263E+007, +3.51227742283E+001, +8.36482206147E+002
+2.74818523154E+007, +3.29442924053E+001, +8.47078113134E+002
+2.76068836045E+007, +3.36602425968E+001, +8.49357805116E+002
+2.77319148936E+007, +3.36432288708E+001, +8.55749637689E+002
+2.78569461827E+007, +3.26584880037E+001, +8.59826945461E+002
+2.79819774718E+007, +3.53467739247E+001, +8.64592731222E+002
+2.81070087610E+007, +3.89480022347E+001, +8.74314253314E+002
+2.82320400501E+007, +3.70955367050E+001, +8.75865522835E+002
+2.83570713392E+007, +3.70348409144E+001, +8.80542357692E+002
+2.84821026283E+007, +3.94862060226E+001, +8.85666200836E+002
+2.86071339174E+007, +3.42954722652E+001, +8.92242962258E+002
+2.87321652065E+007, +3.84582458429E+001, +8.97482658777E+002
+2.88571964956E+007, +3.49795397525E+001, +8.98576585838E+002
+2.89822277847E+007, +3.75293231722E+001, +9.07819202484E+002
+2.91072590738E+007, +4.10359841378E+001, +9.07103611409E+002
+2.92322903630E+007, +3.65631650357E+001, +9.21412537187E+002
+2.93573216521E+007, +4.43180715401E+001, +9.21458027605E+002
+2.94823529412E+007, +3.88651828833E+001, +9.29709299673E+002
+2.96073842303E+007, +3.93701455012E+001, +9.34954535796E+002
+2.97324155194E+007, +4.11728372922E+001, +9.35317419502E+002
+2.98574468085E+007, +3.72239273144E+001, +9.46641846024E+002
+2.99824780976E+007, +3.94630385607E+001, +9.46305733525E+002
+3.01075093867E+007, +4.05498310397E+001, +9.52194224556E+002
+3.02325406758E+007, +3.81994193686E+001, +9.63043507710E+002
+3.03575719650E+007, +3.90765277045E+001, +9.64146500614E+002
+3.04826032541E+007, +4.20498763604E+001, +9.71574094364E+002
+3.06076345432E+007, +4.00322589923E+001, +9.77910941010E+002
+3.07326658323E+007, +4.10531454349E+001, +9.85289311865E+002
+3.08576971214E+007, +4.06269887089E+001, +9.90077110316E+002
+3.09827284105E+007, +3.72078287795E+001, +9.96762663534E+002
+3.11077596996E+007, +3.87534329894E+001, +1.00189795442E+003
+3.12327909887E+007, +3.73635469498E+001, +1.00600601905E+003
+3.13578222778E+007, +3.93320136176E+001, +1.01287857710E+003
+3.14828535670E+007, +3.80619211367E+001, +1.02029139417E+003
+3.16078848561E+007, +4.16779092380E+001, +1.02874608223E+003
+3.17329161452E+007, +4.09488768627E+001, +1.03606740358E+003
+3.18579474343E+007, +4.14754214848E+001, +1.03521174427E+003
+3.19829787234E+007, +3.38332757687E+001, +1.05017254930E+003
+3.21080100125E+007, +3.84317893347E+001, +1.04670949799E+003
+3.22330413016E+007, +3.74153704814E+001, +1.05655909988E+003
+3.23580725907E+007, +3.70798651539E+001, +1.06619613452E+003
+3.24831038798E+007, +4.36923488634E+001, +1.07436973738E+003
+3.26081351690E+007, +3.93566415839E+001, +1.07820928500E+003
+3.27331664581E+007, +4.04870430101E+001, +1.09163594358E+003
+3.28581977472E+007, +3.91813406751E+001, +1.08783805498E+003
+3.29832290363E+007, +3.35596707163E+001, +1.10182817098E+003
+3.31082603254E+007, +4.37944687477E+001, +1.10265626174E+003
+3.32332916145E+007, +3.49587755714E+001, +1.11679784372E+003
+3.33583229036E+007, +3.67736754496E+001, +1.12121004659E+003
+3.34833541927E+007, +4.18594601652E+001, +1.13299673354E+003
+3.36083854819E+007, +3.87760140680E+001, +1.13995036441E+003
+3.37334167710E+007, +3.92886827016E+001, +1.13505691750E+003
+3.38584480601E+007, +3.44631011831E+001, +1.15450362812E+003
+3.39834793492E+007, +3.72345776776E+001, +1.15913875873E+003
+3.41085106383E+007, +4.17203876035E+001, +1.16629478532E+003
+3.42335419274E+007, +4.54912588571E+001, +1.16836117511E+003
+3.43585732165E+007, +3.96282952038E+001, +1.18088411743E+003
+3.44836045056E+007, +3.92021898046E+001, +1.18540598171E+003
+3.46086357947E+007, +4.59355885817E+001, +1.19697456432E+003
+3.47336670839E+007, +3.82737522645E+001, +1.20550927890E+003
+3.48586983730E+007, +3.83230318442E+001, +1.20738172941E+003
+3.49837296621E+007, +3.88827004768E+001, +1.21508737014E+003
+3.51087609512E+007, +3.54317633920E+001, +1.22397134014E+003
+3.52337922403E+007, +4.27345915555E+001, +1.23809609888E+003
+3.53588235294E+007, +4.59269369894E+001, +1.24411011156E+003
+3.54838548185E+007, +3.90422171887E+001, +1.25647936752E+003
+3.56088861076E+007, +4.80387495240E+001, +1.25877333987E+003
+3.57339173967E+007, +3.86794796673E+001, +1.27130834516E+003
+3.58589486859E+007, +4.76632775210E+001, +1.27797356927E+003
+3.59839799750E+007, +3.59155031893E+001, +1.28689710147E+003
+3.61090112641E+007, +3.83064468512E+001, +1.29789293387E+003
+3.62340425532E+007, +3.95719597604E+001, +1.30596140726E+003
+3.63590738423E+007, +5.24279172623E+001, +1.32392320446E+003
+3.64841051314E+007, +3.16666186820E+001, +1.31716095980E+003
+3.66091364205E+007, +3.97100441703E+001, +1.33232906361E+003
+3.67341677096E+007, +3.76665750788E+001, +1.34959845779E+003
+3.68591989987E+007, +4.46258579915E+001, +1.36511790745E+003
+3.69842302879E+007, +3.77913417429E+001, +1.37184846357E+003
+3.71092615770E+007, +4.28413857125E+001, +1.38142119223E+003
+3.72342928661E+007, +3.05688415567E+001, +1.39695822208E+003
+3.73593241552E+007, +4.11216714303E+001, +1.39493839198E+003
+3.74843554443E+007, +4.73565909471E+001, +1.41732138019E+003
+3.76093867334E+007, +3.44082541146E+001, +1.41658943921E+003
+3.77344180225E+007, +4.81486530543E+001, +1.42204609861E+003
+3.78594493116E+007, +4.75245633261E+001, +1.42832282441E+003
+3.79844806008E+007, +3.62911517329E+001, +1.45038774640E+003
+3.81095118899E+007, +4.05622072004E+001, +1.46273149745E+003
+3.82345431790E+007, +4.65866557790E+001, +1.48193031893E+003
+3.83595744681E+007, +4.48190941062E+001, +1.48162253008E+003
+3.84846057572E+007, +5.09494755881E+001, +1.49937106668E+003
+3.86096370463E+007, +3.52494448844E+001, +1.51486185680E+003
+3.87346683354E+007, +4.59132320326E+001, +1.51841252896E+003
+3.88596996245E+007, +4.75298810089E+001, +1.54276220878E+003
+3.89847309136E+007, +5.48976186846E+001, +1.56238789338E+003
+3.91097622028E+007, +4.81125706737E+001, +1.55600042319E+003
+3.92347934919E+007, +5.59468839038E+001, +1.58266092953E+003
+3.93598247810E+007, +4.75417010709E+001, +1.60075532660E+003
+3.94848560701E+007, +5.47259869029E+001, +1.60885014311E+003
+3.96098873592E+007, +5.16932828137E+001, +1.61604137249E+003
+3.97349186483E+007, +5.90205739247E+001, +1.62859012047E+003
+3.98599499374E+007, +6.03004607090E+001, +1.65310048398E+003
+3.99849812265E+007, +5.99397007027E+001, +1.67004845041E+003
+4.01100125156E+007, +5.68387907135E+001, +1.67516404339E+003
