"# Channel 1"
"# Trace 1"
Frequency, Formatted Data, Formatted Data
+1.00000000000E+005, +2.93102463226E+001, +2.54474961983E+000
+2.66777963272E+005, +2.92770994721E+001, +7.00564198003E+000
+4.33555926544E+005, +2.92856294448E+001, +1.13414572564E+001
+6.00333889816E+005, +2.93156156091E+001, +1.56829407180E+001
+7.67111853088E+005, +2.93232169026E+001, +2.00486174054E+001
+9.33889816361E+005, +2.92989518372E+001, +2.43873079266E+001
+1.10066777963E+006, +2.93054613847E+001, +2.88166850657E+001
+1.26744574290E+006, +2.93416610043E+001, +3.31096415863E+001
+1.43422370618E+006, +2.93063128181E+001, +3.75814648200E+001
+1.60100166945E+006, +2.93495687393E+001, +4.17983927994E+001
+1.76777963272E+006, +2.93367257146E+001, +4.62158807186E+001
+1.93455759599E+006, +2.92996375194E+001, +5.04756593552E+001
+2.10133555927E+006, +2.92892836833E+001, +5.47476920821E+001
+2.26811352254E+006, +2.93356868168E+001, +5.91946644203E+001
+2.43489148581E+006, +2.93746472525E+001, +6.36252015117E+001
+2.60166944908E+006, +2.92692154347E+001, +6.78373526912E+001
+2.76844741235E+006, +2.92687168446E+001, +7.22707073416E+001
+2.93522537563E+006, +2.92403512180E+001, +7.66760148369E+001
+3.10200333890E+006, +2.93241679362E+001, +8.09022520900E+001
+3.26878130217E+006, +2.91819444594E+001, +8.55060555280E+001
+3.43555926544E+006, +2.92471622011E+001, +8.96521603331E+001
+3.60233722871E+006, +2.94074324805E+001, +9.42021245943E+001
+3.76911519199E+006, +2.92355056414E+001, +9.86316583119E+001
+3.93589315526E+006, +2.91786705578E+001, +1.02818761748E+002
+4.10267111853E+006, +2.92004882735E+001, +1.07345744171E+002
+4.26944908180E+006, +2.92721033838E+001, +1.11898090651E+002
+4.43622704508E+006, +2.92239240342E+001, +1.16193161269E+002
+4.60300500835E+006, +2.93565588623E+001, +1.20551439986E+002
+4.76978297162E+006, +2.91094847462E+001, +1.24981459576E+002
+4.93656093489E+006, +2.94993077454E+001, +1.29296252579E+002
+5.10333889816E+006, +2.93891246027E+001, +1.33521250294E+002
+5.27011686144E+006, +2.97407335631E+001, +1.38146402412E+002
+5.43689482471E+006, +2.93458443226E+001, +1.42627393314E+002
+5.60367278798E+006, +2.97429571457E+001, +1.47232113681E+002
+5.77045075125E+006, +2.95051545650E+001, +1.51350434291E+002
+5.93722871452E+006, +2.96195857213E+001, +1.55860268064E+002
+6.10400667780E+006, +2.98647676963E+001, +1.60207936992E+002
+6.27078464107E+006, +3.00427710112E+001, +1.64567944988E+002
+6.43756260434E+006, +2.99145487449E+001, +1.69041447605E+002
+6.60434056761E+006, +3.00691146718E+001, +1.73378902295E+002
+6.77111853088E+006, +3.02981923772E+001, +1.77693150589E+002
+6.93789649416E+006, +3.01715343558E+001, +1.82184402659E+002
+7.10467445743E+006, +3.00820770949E+001, +1.86667334833E+002
+7.27145242070E+006, +3.02389467027E+001, +1.90980982610E+002
+7.43823038397E+006, +3.01092807266E+001, +1.95180828016E+002
+7.60500834725E+006, +3.01329060028E+001, +2.00009315448E+002
+7.77178631052E+006, +3.04947463628E+001, +2.04428816445E+002
+7.93856427379E+006, +3.03652091052E+001, +2.08732807493E+002
+8.10534223706E+006, +3.04190469309E+001, +2.13306818974E+002
+8.27212020033E+006, +3.03884859544E+001, +2.17665966666E+002
+8.43889816361E+006, +3.02469857500E+001, +2.22441785185E+002
+8.60567612688E+006, +3.01139283446E+001, +2.27056301400E+002
+8.77245409015E+006, +3.00144008573E+001, +2.31257165474E+002
+8.93923205342E+006, +3.02071740867E+001, +2.35955249242E+002
+9.10601001669E+006, +3.01197617116E+001, +2.40582782758E+002
+9.27278797997E+006, +3.01648137992E+001, +2.45068044929E+002
+9.43956594324E+006, +3.01542181512E+001, +2.49474633620E+002
+9.60634390651E+006, +3.00221161740E+001, +2.54113769244E+002
+9.77312186978E+006, +3.00490992249E+001, +2.58462969058E+002
+9.93989983306E+006, +3.05497960519E+001, +2.63410085725E+002
+1.01066777963E+007, +3.01486262737E+001, +2.67738152543E+002
+1.02734557596E+007, +3.00436338110E+001, +2.72726828892E+002
+1.04402337229E+007, +3.00343023793E+001, +2.77251857700E+002
+1.06070116861E+007, +2.98690497459E+001, +2.81821589263E+002
+1.07737896494E+007, +2.99902666782E+001, +2.86684296674E+002
+1.09405676127E+007, +3.05882442474E+001, +2.91221795729E+002
+1.11073455760E+007, +3.00412243819E+001, +2.95816021565E+002
+1.12741235392E+007, +2.99560059211E+001, +3.00165066640E+002
+1.14409015025E+007, +3.04956926882E+001, +3.05377600518E+002
+1.16076794658E+007, +3.03353241383E+001, +3.10096505399E+002
+1.17744574290E+007, +3.09765229823E+001, +3.14878149726E+002
+1.19412353923E+007, +3.01422582148E+001, +3.19294277312E+002
+1.21080133556E+007, +3.00778631985E+001, +3.24035722491E+002
+1.22747913189E+007, +3.05419762325E+001, +3.29403728984E+002
+1.24415692821E+007, +3.02260560158E+001, +3.33481586795E+002
+1.26083472454E+007, +3.03021019215E+001, +3.38785613335E+002
+1.27751252087E+007, +3.00716789037E+001, +3.42889828257E+002
+1.29419031720E+007, +3.02244484214E+001, +3.47782509653E+002
+1.31086811352E+007, +3.06944282697E+001, +3.52701687805E+002
+1.32754590985E+007, +3.03439589757E+001, +3.57010572595E+002
+1.34422370618E+007, +3.03411916351E+001, +3.62111752135E+002
+1.36090150250E+007, +3.11770316353E+001, +3.67068399130E+002
+1.37757929883E+007, +3.08781053634E+001, +3.71459614831E+002
+1.39425709516E+007, +3.06119486172E+001, +3.76451962112E+002
+1.41093489149E+007, +3.08742612751E+001, +3.80609344819E+002
+1.42761268781E+007, +3.05601832062E+001, +3.86517376973E+002
+1.44429048414E+007, +3.13206484002E+001, +3.90425924414E+002
+1.46096828047E+007, +3.12625873047E+001, +3.96189694012E+002
+1.47764607679E+007, +3.20279421370E+001, +4.00740195986E+002
+1.49432387312E+007, +3.18914783395E+001, +4.05669715114E+002
+1.51100166945E+007, +3.11742841911E+001, +4.10829859378E+002
+1.52767946578E+007, +3.21517187410E+001, +4.16062890294E+002
+1.54435726210E+007, +3.22452842906E+001, +4.20929680592E+002
+1.56103505843E+007, +3.26855515983E+001, +4.25834351800E+002
+1.57771285476E+007, +3.21422351173E+001, +4.29881738321E+002
+1.59439065109E+007, +3.17965674841E+001, +4.35349834631E+002
+1.61106844741E+007, +3.22259393181E+001, +4.41112747968E+002
+1.62774624374E+007, +3.31193373741E+001, +4.45146129288E+002
+1.64442404007E+007, +3.16533208491E+001, +4.50615836069E+002
+1.66110183639E+007, +3.29104747320E+001, +4.55407961517E+002
+1.67777963272E+007, +3.35972839271E+001, +4.60575390293E+002
+1.69445742905E+007, +3.40124589633E+001, +4.65082774799E+002
+1.71113522538E+007, +3.10586460209E+001, +4.69969345389E+002
+1.72781302170E+007, +3.12157179076E+001, +4.76980483654E+002
+1.74449081803E+007, +3.12714545908E+001, +4.80934419100E+002
+1.76116861436E+007, +3.28677092460E+001, +4.86186649500E+002
+1.77784641068E+007, +3.26933833772E+001, +4.90195616724E+002
+1.79452420701E+007, +3.37138180196E+001, +4.96252024992E+002
+1.81120200334E+007, +3.39365201169E+001, +5.00641952888E+002
+1.82787979967E+007, +3.24151526950E+001, +5.06553808646E+002
+1.84455759599E+007, +3.48992224416E+001, +5.12483582276E+002
+1.86123539232E+007, +3.47082658067E+001, +5.16126440167E+002
+1.87791318865E+007, +3.31411444716E+001, +5.22644224850E+002
+1.89459098497E+007, +3.41176399498E+001, +5.28229635028E+002
+1.91126878130E+007, +3.37858675592E+001, +5.32041071323E+002
+1.92794657763E+007, +3.33398904080E+001, +5.38886722073E+002
+1.94462437396E+007, +3.59289102572E+001, +5.45013814622E+002
+1.96130217028E+007, +3.47101048780E+001, +5.50424723647E+002
+1.97797996661E+007, +3.52523489296E+001, +5.53714966034E+002
+1.99465776294E+007, +3.37880383570E+001, +5.60319219086E+002
+2.01133555927E+007, +3.45750056283E+001, +5.65434409472E+002
+2.02801335559E+007, +3.40769774219E+001, +5.72655971899E+002
+2.04469115192E+007, +3.57563106003E+001, +5.77053113958E+002
+2.06136894825E+007, +3.65322467571E+001, +5.82188639254E+002
+2.07804674457E+007, +3.70047869016E+001, +5.89095846731E+002
+2.09472454090E+007, +3.37560616398E+001, +5.95943114007E+002
+2.11140233723E+007, +3.51464451644E+001, +5.98617216511E+002
+2.12808013356E+007, +3.77971851149E+001, +6.04002901565E+002
+2.14475792988E+007, +3.68742229944E+001, +6.11920437043E+002
+2.16143572621E+007, +3.85452086419E+001, +6.15139965428E+002
+2.17811352254E+007, +3.71772921488E+001, +6.19537538007E+002
+2.19479131886E+007, +4.01729685720E+001, +6.27336805660E+002
+2.21146911519E+007, +3.77000780159E+001, +6.30624302318E+002
+2.22814691152E+007, +3.76784660441E+001, +6.39666746644E+002
+2.24482470785E+007, +3.89278988342E+001, +6.45097958734E+002
+2.26150250417E+007, +4.26628007602E+001, +6.49214387372E+002
+2.27818030050E+007, +3.97174248073E+001, +6.57316204452E+002
+2.29485809683E+007, +4.47190226505E+001, +6.61341190418E+002
+2.31153589316E+007, +4.11882129383E+001, +6.68372818380E+002
+2.32821368948E+007, +4.41919430960E+001, +6.75312081171E+002
+2.34489148581E+007, +4.33547505255E+001, +6.78120679115E+002
+2.36156928214E+007, +4.57275283562E+001, +6.87434463880E+002
+2.37824707846E+007, +4.50097575311E+001, +6.92119275165E+002
+2.39492487479E+007, +4.46186597698E+001, +6.95967064372E+002
+2.41160267112E+007, +4.56206347839E+001, +7.04385077923E+002
+2.42828046745E+007, +4.60450685047E+001, +7.10429782980E+002
+2.44495826377E+007, +4.86850575457E+001, +7.17598438770E+002
+2.46163606010E+007, +4.79653109232E+001, +7.21048296376E+002
+2.47831385643E+007, +4.69758457649E+001, +7.26889623935E+002
+2.49499165275E+007, +5.10956739033E+001, +7.33112357678E+002
+2.51166944908E+007, +5.13719463025E+001, +7.38547863990E+002
+2.52834724541E+007, +4.98462066293E+001, +7.45191167108E+002
+2.54502504174E+007, +5.26330393330E+001, +7.52449824263E+002
+2.56170283806E+007, +5.06261497759E+001, +7.57536527412E+002
+2.57838063439E+007, +5.26595749448E+001, +7.65637013412E+002
+2.59505843072E+007, +5.35155260969E+001, +7.71132156609E+002
+2.61173622705E+007, +5.68877255662E+001, +7.77849795108E+002
+2.62841402337E+007, +5.24629001561E+001, +7.83568673724E+002
+2.64509181970E+007, +5.40595362382E+001, +7.88569756752E+002
+2.66176961603E+007, +5.36263313371E+001, +7.96062610987E+002
+2.67844741235E+007, +5.53761479552E+001, +8.00914587191E+002
+2.69512520868E+007, +5.60504630504E+001, +8.06807415922E+002
+2.71180300501E+007, +5.73292579875E+001, +8.13017383620E+002
+2.72848080134E+007, +5.66567329412E+001, +8.21842001412E+002
+2.74515859766E+007, +5.88059781724E+001, +8.28745905668E+002
+2.76183639399E+007, +5.53423107443E+001, +8.30893638288E+002
+2.77851419032E+007, +5.48358692408E+001, +8.36880203940E+002
+2.79519198664E+007, +6.05950509689E+001, +8.43725959586E+002
+2.81186978297E+007, +5.99344169921E+001, +8.47919047706E+002
+2.82854757930E+007, +6.35671725835E+001, +8.56815989182E+002
+2.84522537563E+007, +5.77841950814E+001, +8.69066602390E+002
+2.86190317195E+007, +5.74917698076E+001, +8.69893490189E+002
+2.87858096828E+007, +6.46419749171E+001, +8.78003354100E+002
+2.89525876461E+007, +6.32965607716E+001, +8.83905315492E+002
+2.91193656093E+007, +6.18549590644E+001, +8.90370882356E+002
+2.92861435726E+007, +6.23474285931E+001, +8.94675170382E+002
+2.94529215359E+007, +6.51055191795E+001, +9.05394404551E+002
+2.96196994992E+007, +6.64953149520E+001, +9.11605503194E+002
+2.97864774624E+007, +6.95057191715E+001, +9.17254828072E+002
+2.99532554257E+007, +6.80334566204E+001, +9.26974214162E+002
+3.01200333890E+007, +6.76476853416E+001, +9.34144746341E+002
+3.02868113523E+007, +6.65270582101E+001, +9.42249504662E+002
+3.04535893155E+007, +6.49808458147E+001, +9.49260854197E+002
+3.06203672788E+007, +6.82595722563E+001, +9.59505343350E+002
+3.07871452421E+007, +6.93836069749E+001, +9.65582537857E+002
+3.09539232053E+007, +7.11827219761E+001, +9.69616231971E+002
+3.11207011686E+007, +7.03093155172E+001, +9.82702701435E+002
+3.12874791319E+007, +6.97539338487E+001, +9.84092579477E+002
+3.14542570952E+007, +6.91210972024E+001, +9.95278926811E+002
+3.16210350584E+007, +6.48301892911E+001, +1.00140981908E+003
+3.17878130217E+007, +6.71331082086E+001, +1.01122765684E+003
+3.19545909850E+007, +6.96030082253E+001, +1.01889668217E+003
+3.21213689482E+007, +6.83608717025E+001, +1.02700835615E+003
+3.22881469115E+007, +6.95612533757E+001, +1.03257938010E+003
+3.24549248748E+007, +7.57555219597E+001, +1.04338281797E+003
+3.26217028381E+007, +6.86787072163E+001, +1.05445568239E+003
+3.27884808013E+007, +7.02106392787E+001, +1.05831588340E+003
+3.29552587646E+007, +7.18078067356E+001, +1.06253268083E+003
+3.31220367279E+007, +7.20153718749E+001, +1.07356758183E+003
+3.32888146912E+007, +7.11277076872E+001, +1.08849401115E+003
+3.34555926544E+007, +6.97436462205E+001, +1.09235314127E+003
+3.36223706177E+007, +7.74528603602E+001, +1.09747743676E+003
+3.37891485810E+007, +7.49102901593E+001, +1.10586262148E+003
+3.39559265442E+007, +7.57653171968E+001, +1.12384969741E+003
+3.41227045075E+007, +7.50755459053E+001, +1.12499417212E+003
+3.42894824708E+007, +7.61635837708E+001, +1.13765101477E+003
+3.44562604341E+007, +7.95228923018E+001, +1.14778440336E+003
+3.46230383973E+007, +8.22005511934E+001, +1.16193043701E+003
+3.47898163606E+007, +8.09858236637E+001, +1.15880130922E+003
+3.49565943239E+007, +8.15113687181E+001, +1.17801602749E+003
+3.51233722871E+007, +8.58940768556E+001, +1.18760739214E+003
+3.52901502504E+007, +8.06270111719E+001, +1.18937607763E+003
+3.54569282137E+007, +8.27802630275E+001, +1.20676164414E+003
+3.56237061770E+007, +7.62639517830E+001, +1.22066607204E+003
+3.57904841402E+007, +7.88639749145E+001, +1.22873535200E+003
+3.59572621035E+007, +8.66023668152E+001, +1.24477830597E+003
+3.61240400668E+007, +8.49000683468E+001, +1.25135160162E+003
+3.62908180301E+007, +9.42993609620E+001, +1.26279642444E+003
+3.64575959933E+007, +8.67444315939E+001, +1.26979812297E+003
+3.66243739566E+007, +9.18286179068E+001, +1.27399874225E+003
+3.67911519199E+007, +9.64623147759E+001, +1.29323415929E+003
+3.69579298831E+007, +8.94836776457E+001, +1.30350072333E+003
+3.71247078464E+007, +8.94777998493E+001, +1.31813826253E+003
+3.72914858097E+007, +9.05745220421E+001, +1.33608888399E+003
+3.74582637730E+007, +1.00187031878E+002, +1.35362943338E+003
+3.76250417362E+007, +9.90046693072E+001, +1.36018676918E+003
+3.77918196995E+007, +9.47988982325E+001, +1.36832420429E+003
+3.79585976628E+007, +9.32859293823E+001, +1.37307633270E+003
+3.81253756260E+007, +1.01375284634E+002, +1.39895443361E+003
+3.82921535893E+007, +1.03627438257E+002, +1.40197074953E+003
+3.84589315526E+007, +1.07432743545E+002, +1.42160605531E+003
+3.86257095159E+007, +1.00224603195E+002, +1.44058759780E+003
+3.87924874791E+007, +1.12635556364E+002, +1.44929208123E+003
+3.89592654424E+007, +1.12198599491E+002, +1.45973702474E+003
+3.91260434057E+007, +1.15229651755E+002, +1.48876401273E+003
+3.92928213689E+007, +1.16797425237E+002, +1.49447024398E+003
+3.94595993322E+007, +1.17489220871E+002, +1.51300489496E+003
+3.96263772955E+007, +1.20964302750E+002, +1.52622220223E+003
+3.97931552588E+007, +1.22876412976E+002, +1.53557651392E+003
+3.99599332220E+007, +1.22221573396E+002, +1.55250868633E+003
+4.01267111853E+007, +1.31681834358E+002, +1.56841333405E+003
+4.02934891486E+007, +1.18313089600E+002, +1.57176383165E+003
+4.04602671119E+007, +1.34913729066E+002, +1.58824549743E+003
+4.06270450751E+007, +1.40891608157E+002, +1.61177457603E+003
+4.07938230384E+007, +1.45495277633E+002, +1.62612088973E+003
+4.09606010017E+007, +1.36388306698E+002, +1.64869746880E+003
+4.11273789649E+007, +1.41125926683E+002, +1.66161509742E+003
+4.12941569282E+007, +1.45396431933E+002, +1.68822840518E+003
+4.14609348915E+007, +1.60293606100E+002, +1.71558896562E+003
+4.16277128548E+007, +1.48334572260E+002, +1.72654533812E+003
+4.17944908180E+007, +1.58256684595E+002, +1.73673909539E+003
+4.19612687813E+007, +1.66350385285E+002, +1.74845236656E+003
+4.21280467446E+007, +1.61856442343E+002, +1.78454085732E+003
+4.22948247078E+007, +1.63689089527E+002, +1.79913536771E+003
+4.24616026711E+007, +1.74125416587E+002, +1.81639053911E+003
+4.26283806344E+007, +1.78815337056E+002, +1.82980097917E+003
+4.27951585977E+007, +1.62154360212E+002, +1.88474218500E+003
+4.29619365609E+007, +1.91102586807E+002, +1.88867049213E+003
+4.31287145242E+007, +1.96629955562E+002, +1.91589797055E+003
+4.32954924875E+007, +1.96907289638E+002, +1.94467217007E+003
+4.34622704508E+007, +2.09689723925E+002, +1.97168145303E+003
+4.36290484140E+007, +2.11499167786E+002, +1.98614132535E+003
+4.37958263773E+007, +2.01400392217E+002, +2.02582251260E+003
+4.39626043406E+007, +2.25082780572E+002, +2.02517468179E+003
+4.41293823038E+007, +2.40951276927E+002, +2.08064003166E+003
+4.42961602671E+007, +2.21863578412E+002, +2.08717729801E+003
+4.44629382304E+007, +2.25238289811E+002, +2.13167977907E+003
+4.46297161937E+007, +2.48269555574E+002, +2.13165394608E+003
+4.47964941569E+007, +2.30471324698E+002, +2.17842467536E+003
+4.49632721202E+007, +2.63683763036E+002, +2.21564926189E+003
+4.51300500835E+007, +2.55355232186E+002, +2.22353558431E+003
+4.52968280467E+007, +2.98315071758E+002, +2.27234230853E+003
+4.54636060100E+007, +3.03982342646E+002, +2.34792795598E+003
+4.56303839733E+007, +2.96685730698E+002, +2.35663755494E+003
+4.57971619366E+007, +3.31685332646E+002, +2.38108842145E+003
+4.59639398998E+007, +3.43791445208E+002, +2.46076914011E+003
+4.61307178631E+007, +3.61758283310E+002, +2.45998302346E+003
+4.62974958264E+007, +3.87424977173E+002, +2.51131166991E+003
+4.64642737896E+007, +3.96126027765E+002, +2.56036054802E+003
+4.66310517529E+007, +3.71883196679E+002, +2.60690033784E+003
+4.67978297162E+007, +4.63556345375E+002, +2.60555261169E+003
+4.69646076795E+007, +4.53968323382E+002, +2.71172087317E+003
+4.71313856427E+007, +4.80981395687E+002, +2.71092399231E+003
+4.72981636060E+007, +5.18805702896E+002, +2.77128093365E+003
+4.74649415693E+007, +5.49272205454E+002, +2.82138391236E+003
+4.76317195326E+007, +6.19763865396E+002, +2.83037307531E+003
+4.77984974958E+007, +6.64872454114E+002, +2.91073021514E+003
+4.79652754591E+007, +6.76054910885E+002, +2.95390754165E+003
+4.81320534224E+007, +7.20283815350E+002, +2.97648322499E+003
+4.82988313856E+007, +7.46037338245E+002, +3.06619441927E+003
+4.84656093489E+007, +8.11663286233E+002, +3.06890549383E+003
+4.86323873122E+007, +8.05449146048E+002, +3.09124965650E+003
+4.87991652755E+007, +9.14136749346E+002, +3.15311786370E+003
+4.89659432387E+007, +8.99243695126E+002, +3.19121602053E+003
+4.91327212020E+007, +1.01886093264E+003, +3.24037609003E+003
+4.92994991653E+007, +1.05839083065E+003, +3.27700157623E+003
+4.94662771285E+007, +1.10402935641E+003, +3.32545353287E+003
+4.96330550918E+007, +1.19853252601E+003, +3.37735292710E+003
+4.97998330551E+007, +1.19668306269E+003, +3.34766458051E+003
+4.99666110184E+007, +1.27141248306E+003, +3.44249387900E+003
+5.01333889816E+007, +1.28043834345E+003, +3.44636186134E+003
+5.03001669449E+007, +1.32617839488E+003, +3.54002033646E+003
+5.04669449082E+007, +1.42423598468E+003, +3.54007838665E+003
+5.06337228715E+007, +1.48872789930E+003, +3.61558343462E+003
+5.08005008347E+007, +1.50135489083E+003, +3.62219007093E+003
+5.09672787980E+007, +1.54779307480E+003, +3.66825619121E+003
+5.11340567613E+007, +1.68706315351E+003, +3.72273784324E+003
+5.13008347245E+007, +1.66321308615E+003, +3.85686757860E+003
+5.14676126878E+007, +1.72542662506E+003, +3.88233656367E+003
+5.16343906511E+007, +1.87954437180E+003, +3.90618769847E+003
+5.18011686144E+007, +1.79876173238E+003, +4.07390824503E+003
+5.19679465776E+007, +1.87441564041E+003, +4.11318503273E+003
+5.21347245409E+007, +2.01811818603E+003, +4.30227633313E+003
+5.23015025042E+007, +2.28130426209E+003, +4.47455082863E+003
+5.24682804674E+007, +2.23410914766E+003, +4.57489237957E+003
+5.26350584307E+007, +2.35583811152E+003, +4.67962282043E+003
+5.28018363940E+007, +2.49408580589E+003, +4.96348806382E+003
+5.29686143573E+007, +2.69396695863E+003, +5.07865389837E+003
+5.31353923205E+007, +2.85565083687E+003, +5.18652516383E+003
+5.33021702838E+007, +3.11729799660E+003, +5.59644416227E+003
+5.34689482471E+007, +3.41770618619E+003, +5.48924792224E+003
