"# Channel 1"
"# Trace 1"
Frequency, Formatted Data, Formatted Data
+1.00000000000E+006, +1.03536315672E+001, +2.49591720271E+001
+1.16527545910E+006, +1.04053614866E+001, +2.90784718536E+001
+1.33055091820E+006, +1.03954481187E+001, +3.31053980254E+001
+1.49582637730E+006, +1.03976921746E+001, +3.72251643294E+001
+1.66110183639E+006, +1.03948956484E+001, +4.13805556074E+001
+1.82637729549E+006, +1.03959716589E+001, +4.54211377248E+001
+1.99165275459E+006, +1.04124668190E+001, +4.95167020985E+001
+2.15692821369E+006, +1.03943362394E+001, +5.36114755955E+001
+2.32220367279E+006, +1.03009637874E+001, +5.77272077014E+001
+2.48747913189E+006, +1.03766386721E+001, +6.18802454175E+001
+2.65275459098E+006, +1.02840447420E+001, +6.60723427839E+001
+2.81803005008E+006, +1.03491426970E+001, +7.01205307167E+001
+2.98330550918E+006, +1.01998648520E+001, +7.41586799778E+001
+3.14858096828E+006, +1.03526319775E+001, +7.82536923280E+001
+3.31385642738E+006, +1.04425315179E+001, +8.24603879882E+001
+3.47913188648E+006, +1.04192352732E+001, +8.67305774013E+001
+3.64440734558E+006, +1.03928439761E+001, +9.06638583485E+001
+3.80968280467E+006, +1.05155257636E+001, +9.48813838419E+001
+3.97495826377E+006, +1.05769040837E+001, +9.88698269173E+001
+4.14023372287E+006, +1.06895073829E+001, +1.03353011387E+002
+4.30550918197E+006, +1.05588645461E+001, +1.06926012114E+002
+4.47078464107E+006, +1.06233632356E+001, +1.11457441207E+002
+4.63606010017E+006, +1.04122270317E+001, +1.15449262425E+002
+4.80133555927E+006, +1.04423570276E+001, +1.19713346502E+002
+4.96661101836E+006, +1.05421957830E+001, +1.23746305358E+002
+5.13188647746E+006, +1.06509829577E+001, +1.28046540061E+002
+5.29716193656E+006, +1.05901850303E+001, +1.31883814837E+002
+5.46243739566E+006, +1.07926235130E+001, +1.36313092361E+002
+5.62771285476E+006, +1.09506415858E+001, +1.40470499579E+002
+5.79298831386E+006, +1.08088015662E+001, +1.44653559873E+002
+5.95826377295E+006, +1.09820700477E+001, +1.48763468917E+002
+6.12353923205E+006, +1.13589039460E+001, +1.52891584913E+002
+6.28881469115E+006, +1.11745214264E+001, +1.57158236648E+002
+6.45409015025E+006, +1.13929275610E+001, +1.61316326497E+002
+6.61936560935E+006, +1.12811084729E+001, +1.65477627453E+002
+6.78464106845E+006, +1.13749444458E+001, +1.69668456891E+002
+6.94991652755E+006, +1.15843555413E+001, +1.73793417579E+002
+7.11519198664E+006, +1.16088019812E+001, +1.77887649155E+002
+7.28046744574E+006, +1.16067612265E+001, +1.82123708732E+002
+7.44574290484E+006, +1.17784108711E+001, +1.86296658348E+002
+7.61101836394E+006, +1.17231639746E+001, +1.90566053023E+002
+7.77629382304E+006, +1.18949305797E+001, +1.94631343638E+002
+7.94156928214E+006, +1.17474664704E+001, +1.98965912405E+002
+8.10684474124E+006, +1.17728893297E+001, +2.02792556487E+002
+8.27212020033E+006, +1.18709968145E+001, +2.07218575657E+002
+8.43739565943E+006, +1.19087978537E+001, +2.11594918985E+002
+8.60267111853E+006, +1.16513808375E+001, +2.15659181078E+002
+8.76794657763E+006, +1.20838060098E+001, +2.20076272847E+002
+8.93322203673E+006, +1.20530109511E+001, +2.24553409356E+002
+9.09849749583E+006, +1.19979964322E+001, +2.28346895745E+002
+9.26377295492E+006, +1.19943870248E+001, +2.33329071177E+002
+9.42904841402E+006, +1.21443891602E+001, +2.37009002432E+002
+9.59432387312E+006, +1.20609321560E+001, +2.41203781727E+002
+9.75959933222E+006, +1.16555372906E+001, +2.45583289888E+002
+9.92487479132E+006, +1.20643765168E+001, +2.49778140247E+002
+1.00901502504E+007, +1.19948720087E+001, +2.54214423364E+002
+1.02554257095E+007, +1.18560284193E+001, +2.58146013905E+002
+1.04207011686E+007, +1.20980766032E+001, +2.62169820608E+002
+1.05859766277E+007, +1.20007459577E+001, +2.67370929754E+002
+1.07512520868E+007, +1.20547245431E+001, +2.71361830091E+002
+1.09165275459E+007, +1.22550536303E+001, +2.75877853128E+002
+1.10818030050E+007, +1.21452466715E+001, +2.80448077337E+002
+1.12470784641E+007, +1.22805502056E+001, +2.84248942063E+002
+1.14123539232E+007, +1.21321568869E+001, +2.88627070378E+002
+1.15776293823E+007, +1.25758722135E+001, +2.93318906899E+002
+1.17429048414E+007, +1.25322982428E+001, +2.98094233107E+002
+1.19081803005E+007, +1.25360020849E+001, +3.02346935266E+002
+1.20734557596E+007, +1.24089826958E+001, +3.06620730347E+002
+1.22387312187E+007, +1.23345380475E+001, +3.10582535369E+002
+1.24040066778E+007, +1.24078038718E+001, +3.15104629315E+002
+1.25692821369E+007, +1.22396083418E+001, +3.19665326199E+002
+1.27345575960E+007, +1.26910739236E+001, +3.23743745052E+002
+1.28998330551E+007, +1.24425407414E+001, +3.29201891280E+002
+1.30651085142E+007, +1.23344239512E+001, +3.33033330724E+002
+1.32303839733E+007, +1.31475863371E+001, +3.37962273845E+002
+1.33956594324E+007, +1.24887602105E+001, +3.42116532493E+002
+1.35609348915E+007, +1.32598176748E+001, +3.46867583692E+002
+1.37262103506E+007, +1.25326751286E+001, +3.50778887568E+002
+1.38914858097E+007, +1.35602123702E+001, +3.55253580511E+002
+1.40567612688E+007, +1.28918610775E+001, +3.59986248557E+002
+1.42220367279E+007, +1.32565460203E+001, +3.64396461871E+002
+1.43873121870E+007, +1.34707465646E+001, +3.69811444063E+002
+1.45525876461E+007, +1.35514236604E+001, +3.73946891481E+002
+1.47178631052E+007, +1.27132175977E+001, +3.78919539029E+002
+1.48831385643E+007, +1.34838459680E+001, +3.82215915629E+002
+1.50484140234E+007, +1.32952794252E+001, +3.87425083960E+002
+1.52136894825E+007, +1.28607034630E+001, +3.92571858523E+002
+1.53789649416E+007, +1.35092377887E+001, +3.96436939367E+002
+1.55442404007E+007, +1.35739033351E+001, +4.01889055499E+002
+1.57095158598E+007, +1.28898128051E+001, +4.06379452262E+002
+1.58747913189E+007, +1.40604943940E+001, +4.10693192781E+002
+1.60400667780E+007, +1.34614190231E+001, +4.15029034852E+002
+1.62053422371E+007, +1.40407878050E+001, +4.19690758682E+002
+1.63706176962E+007, +1.40210403038E+001, +4.23654719929E+002
+1.65358931553E+007, +1.40548610067E+001, +4.29499344285E+002
+1.67011686144E+007, +1.46395994555E+001, +4.34399549882E+002
+1.68664440735E+007, +1.46224601062E+001, +4.38804371186E+002
+1.70317195326E+007, +1.22803944345E+001, +4.43953215215E+002
+1.71969949917E+007, +1.27349860201E+001, +4.49051259699E+002
+1.73622704508E+007, +1.29355194248E+001, +4.53830740137E+002
+1.75275459098E+007, +1.20123783589E+001, +4.59359051497E+002
+1.76928213689E+007, +1.34506721062E+001, +4.64142344198E+002
+1.78580968280E+007, +1.42906100352E+001, +4.68500667429E+002
+1.80233722871E+007, +1.46277149902E+001, +4.73160174975E+002
+1.81886477462E+007, +1.42583751729E+001, +4.78920952597E+002
+1.83539232053E+007, +1.54711975071E+001, +4.83845159250E+002
+1.85191986644E+007, +1.47767103003E+001, +4.89303142551E+002
+1.86844741235E+007, +1.39176091733E+001, +4.92141663013E+002
+1.88497495826E+007, +1.50628309032E+001, +4.97920926274E+002
+1.90150250417E+007, +1.39615488092E+001, +5.04168035928E+002
+1.91803005008E+007, +1.30548998733E+001, +5.08151429213E+002
+1.93455759599E+007, +1.61473649664E+001, +5.12111491747E+002
+1.95108514190E+007, +1.58082888528E+001, +5.18667575832E+002
+1.96761268781E+007, +1.58091317405E+001, +5.23517910952E+002
+1.98414023372E+007, +1.57701760984E+001, +5.28458469242E+002
+2.00066777963E+007, +1.61920226380E+001, +5.32320182975E+002
+2.01719532554E+007, +1.63340022921E+001, +5.38776042132E+002
+2.03372287145E+007, +1.64992444592E+001, +5.43778556810E+002
+2.05025041736E+007, +1.70319580888E+001, +5.48571706313E+002
+2.06677796327E+007, +1.76446951936E+001, +5.53799854907E+002
+2.08330550918E+007, +1.57218552870E+001, +5.59523885539E+002
+2.09983305509E+007, +1.76033162063E+001, +5.64062191734E+002
+2.11636060100E+007, +1.72156098330E+001, +5.70942695973E+002
+2.13288814691E+007, +1.72554513367E+001, +5.75444408965E+002
+2.14941569282E+007, +1.80523380659E+001, +5.79554582346E+002
+2.16594323873E+007, +1.74260184287E+001, +5.85530203428E+002
+2.18247078464E+007, +1.80905401371E+001, +5.92849311542E+002
+2.19899833055E+007, +1.78205071861E+001, +5.98343834822E+002
+2.21552587646E+007, +1.64637461863E+001, +6.00299597193E+002
+2.23205342237E+007, +1.96297607531E+001, +6.07588824121E+002
+2.24858096828E+007, +1.86011742159E+001, +6.13628898140E+002
+2.26510851419E+007, +1.92652972179E+001, +6.18812016924E+002
+2.28163606010E+007, +1.92516047941E+001, +6.23267003179E+002
+2.29816360601E+007, +1.87264420316E+001, +6.29457334520E+002
+2.31469115192E+007, +2.30050713278E+001, +6.36160620206E+002
+2.33121869783E+007, +2.13106027884E+001, +6.43030841396E+002
+2.34774624374E+007, +2.17499629137E+001, +6.48405420859E+002
+2.36427378965E+007, +2.21570420895E+001, +6.53689778293E+002
+2.38080133556E+007, +2.35154707421E+001, +6.58224290017E+002
+2.39732888147E+007, +2.48463046490E+001, +6.65797356595E+002
+2.41385642738E+007, +2.35742722740E+001, +6.70514706332E+002
+2.43038397329E+007, +2.21203988517E+001, +6.76308858076E+002
+2.44691151920E+007, +2.42424899084E+001, +6.81986815293E+002
+2.46343906511E+007, +2.29995463144E+001, +6.87242777826E+002
+2.47996661102E+007, +2.42247099239E+001, +6.94199012875E+002
+2.49649415693E+007, +2.40520371883E+001, +7.00301114762E+002
+2.51302170284E+007, +2.47338443314E+001, +7.05808999894E+002
+2.52954924875E+007, +2.91662122727E+001, +7.08980182939E+002
+2.54607679466E+007, +2.63758333360E+001, +7.19111983531E+002
+2.56260434057E+007, +2.80335425856E+001, +7.21163453297E+002
+2.57913188648E+007, +2.80274623879E+001, +7.28808223323E+002
+2.59565943239E+007, +3.08420504888E+001, +7.33904626173E+002
+2.61218697830E+007, +2.90506400532E+001, +7.39548143161E+002
+2.62871452421E+007, +3.18796916876E+001, +7.44728715787E+002
+2.64524207012E+007, +2.79940429005E+001, +7.51749677605E+002
+2.66176961603E+007, +2.91639397663E+001, +7.58999708993E+002
+2.67829716194E+007, +2.90136997456E+001, +7.63600091940E+002
+2.69482470785E+007, +3.10042495311E+001, +7.73652592975E+002
+2.71135225376E+007, +3.26404572229E+001, +7.78121194174E+002
+2.72787979967E+007, +3.43200861441E+001, +7.82904137927E+002
+2.74440734558E+007, +3.37539397239E+001, +7.90579181034E+002
+2.76093489149E+007, +3.25577668328E+001, +7.92080796644E+002
+2.77746243740E+007, +3.65603784074E+001, +7.99379154869E+002
+2.79398998331E+007, +3.61423120457E+001, +8.09044527716E+002
+2.81051752922E+007, +3.58078410033E+001, +8.15233690878E+002
+2.82704507513E+007, +3.24701592009E+001, +8.22624769634E+002
+2.84357262104E+007, +3.17821343785E+001, +8.27190934135E+002
+2.86010016694E+007, +3.38766471741E+001, +8.37313198938E+002
+2.87662771285E+007, +3.21524057298E+001, +8.42450678236E+002
+2.89315525876E+007, +3.65939589848E+001, +8.51078740341E+002
+2.90968280467E+007, +3.47029420912E+001, +8.56860029257E+002
+2.92621035058E+007, +3.61730516238E+001, +8.62842791412E+002
+2.94273789649E+007, +3.73982863214E+001, +8.69138088034E+002
+2.95926544240E+007, +3.47878438935E+001, +8.75802550552E+002
+2.97579298831E+007, +3.52265222204E+001, +8.83737885021E+002
+2.99232053422E+007, +3.98887778293E+001, +8.94098946238E+002
+3.00884808013E+007, +3.93500422150E+001, +8.99636669326E+002
+3.02537562604E+007, +3.99985340261E+001, +9.02807641043E+002
+3.04190317195E+007, +3.84359415119E+001, +9.12407089814E+002
+3.05843071786E+007, +4.02145863551E+001, +9.18049518498E+002
+3.07495826377E+007, +3.67233148890E+001, +9.26569857070E+002
+3.09148580968E+007, +3.82269461929E+001, +9.34445988297E+002
+3.10801335559E+007, +4.18396390130E+001, +9.42157533347E+002
+3.12454090150E+007, +4.29455641422E+001, +9.48351433172E+002
+3.14106844741E+007, +3.85960072763E+001, +9.54438254812E+002
+3.15759599332E+007, +4.22682922048E+001, +9.64581985813E+002
+3.17412353923E+007, +4.14050759098E+001, +9.71523845329E+002
+3.19065108514E+007, +4.47524652550E+001, +9.83472214683E+002
+3.20717863105E+007, +3.88240427972E+001, +9.89627523216E+002
+3.22370617696E+007, +4.15533762893E+001, +9.93793611606E+002
+3.24023372287E+007, +4.38290386122E+001, +1.00466721808E+003
+3.25676126878E+007, +4.42208933788E+001, +1.01852444152E+003
+3.27328881469E+007, +4.66116872396E+001, +1.01932426205E+003
+3.28981636060E+007, +3.93445162112E+001, +1.03096329065E+003
+3.30634390651E+007, +4.09954267073E+001, +1.04056464170E+003
+3.32287145242E+007, +4.34399138304E+001, +1.05595625534E+003
+3.33939899833E+007, +4.24205809062E+001, +1.05758085851E+003
+3.35592654424E+007, +4.69033833381E+001, +1.06656838195E+003
+3.37245409015E+007, +5.04668708616E+001, +1.07277067645E+003
+3.38898163606E+007, +4.18566045031E+001, +1.08444078800E+003
+3.40550918197E+007, +4.25059641000E+001, +1.09502708204E+003
+3.42203672788E+007, +4.59028446373E+001, +1.09990983931E+003
+3.43856427379E+007, +4.92410255086E+001, +1.11397984457E+003
+3.45509181970E+007, +4.35455348887E+001, +1.12373990464E+003
+3.47161936561E+007, +5.22513990465E+001, +1.13100522793E+003
+3.48814691152E+007, +4.83669237300E+001, +1.13737375519E+003
+3.50467445743E+007, +5.04067857979E+001, +1.14860889896E+003
+3.52120200334E+007, +6.03998374075E+001, +1.15925016064E+003
+3.53772954925E+007, +4.96966921012E+001, +1.17253137773E+003
+3.55425709516E+007, +5.55187999903E+001, +1.18591882153E+003
+3.57078464107E+007, +5.10175700957E+001, +1.18709539955E+003
+3.58731218698E+007, +5.57374770667E+001, +1.20120848048E+003
+3.60383973289E+007, +5.29113265886E+001, +1.20999174662E+003
+3.62036727880E+007, +5.04163490334E+001, +1.22470934714E+003
+3.63689482471E+007, +6.10646341795E+001, +1.22941844084E+003
+3.65342237062E+007, +4.85821763593E+001, +1.24244739889E+003
+3.66994991653E+007, +5.42373024250E+001, +1.25388167304E+003
+3.68647746244E+007, +6.57930870052E+001, +1.26605731193E+003
+3.70300500835E+007, +5.65998849133E+001, +1.28580797059E+003
+3.71953255426E+007, +5.96153990743E+001, +1.30772660411E+003
+3.73606010017E+007, +6.08835943522E+001, +1.31499610077E+003
+3.75258764608E+007, +6.05117394877E+001, +1.32760839353E+003
+3.76911519199E+007, +6.11837945156E+001, +1.33186181567E+003
+3.78564273790E+007, +6.06069789784E+001, +1.34867551245E+003
+3.80217028381E+007, +5.95053805853E+001, +1.35734951166E+003
+3.81869782972E+007, +5.60942435758E+001, +1.37028159079E+003
+3.83522537563E+007, +5.60400540500E+001, +1.38653683019E+003
+3.85175292154E+007, +6.38552273370E+001, +1.39913750401E+003
+3.86828046745E+007, +6.36273874156E+001, +1.41287343311E+003
+3.88480801336E+007, +6.91749283667E+001, +1.43607503031E+003
+3.90133555927E+007, +6.55927393364E+001, +1.45124866323E+003
+3.91786310518E+007, +7.10718873005E+001, +1.46586015347E+003
+3.93439065109E+007, +7.34767155549E+001, +1.48536911678E+003
+3.95091819699E+007, +8.58860486639E+001, +1.48775199571E+003
+3.96744574290E+007, +7.88371134388E+001, +1.50458911608E+003
+3.98397328881E+007, +6.94548444959E+001, +1.52920579722E+003
+4.00050083472E+007, +7.41208883344E+001, +1.56033361490E+003
+4.01702838063E+007, +7.14172002174E+001, +1.55751017143E+003
+4.03355592654E+007, +8.40320607963E+001, +1.56424072831E+003
+4.05008347245E+007, +8.26061159981E+001, +1.60084273669E+003
+4.06661101836E+007, +8.55313951353E+001, +1.61175037312E+003
+4.08313856427E+007, +7.96220969294E+001, +1.64253339383E+003
+4.09966611018E+007, +8.28491924321E+001, +1.65105249358E+003
+4.11619365609E+007, +1.01235394761E+002, +1.66073530674E+003
+4.13272120200E+007, +1.06787006746E+002, +1.68282602216E+003
+4.14924874791E+007, +9.43230752081E+001, +1.69837579409E+003
+4.16577629382E+007, +9.70673348835E+001, +1.72789348194E+003
+4.18230383973E+007, +1.01373089721E+002, +1.73524547671E+003
+4.19883138564E+007, +9.30682029108E+001, +1.76087551020E+003
+4.21535893155E+007, +1.00251601346E+002, +1.78418354370E+003
+4.23188647746E+007, +1.17026524314E+002, +1.81904132880E+003
+4.24841402337E+007, +1.08241173383E+002, +1.86107399794E+003
+4.26494156928E+007, +9.10708291546E+001, +1.85760318085E+003
+4.28146911519E+007, +1.24604434854E+002, +1.88395172379E+003
+4.29799666110E+007, +1.18202959804E+002, +1.90852117683E+003
+4.31452420701E+007, +1.14299802430E+002, +1.93487002198E+003
+4.33105175292E+007, +1.30747629556E+002, +1.97247640596E+003
+4.34757929883E+007, +1.23150097141E+002, +1.99386044394E+003
+4.36410684474E+007, +1.15920536294E+002, +2.01533153715E+003
+4.38063439065E+007, +1.25543179359E+002, +2.05721607003E+003
+4.39716193656E+007, +1.54026013964E+002, +2.06839926550E+003
+4.41368948247E+007, +1.42402649433E+002, +2.12322893647E+003
+4.43021702838E+007, +1.64082018814E+002, +2.15828969382E+003
+4.44674457429E+007, +1.52296225960E+002, +2.19372163563E+003
+4.46327212020E+007, +1.67929060414E+002, +2.21074584490E+003
+4.47979966611E+007, +1.62121871918E+002, +2.26296398754E+003
+4.49632721202E+007, +1.81242531012E+002, +2.32327315179E+003
+4.51285475793E+007, +1.80389173026E+002, +2.34560777982E+003
+4.52938230384E+007, +2.25640813567E+002, +2.38263970174E+003
+4.54590984975E+007, +1.97014122824E+002, +2.39673608130E+003
+4.56243739566E+007, +2.19771663326E+002, +2.44441371549E+003
+4.57896494157E+007, +2.35147968996E+002, +2.47720713592E+003
+4.59549248748E+007, +2.30623659845E+002, +2.58477783398E+003
+4.61202003339E+007, +2.18665086370E+002, +2.61514437805E+003
+4.62854757930E+007, +2.81694014579E+002, +2.64915984178E+003
+4.64507512521E+007, +2.95093315607E+002, +2.70698350849E+003
+4.66160267112E+007, +3.17707964630E+002, +2.78597569062E+003
+4.67813021703E+007, +3.46802462330E+002, +2.81950825777E+003
+4.69465776294E+007, +3.58736435983E+002, +2.88812565099E+003
+4.71118530885E+007, +3.76989560741E+002, +2.96453589778E+003
+4.72771285476E+007, +4.37525166996E+002, +3.02990659183E+003
+4.74424040067E+007, +4.48278476818E+002, +3.09019765173E+003
+4.76076794658E+007, +4.83316689670E+002, +3.13211930252E+003
+4.77729549249E+007, +5.18095229424E+002, +3.25015405161E+003
+4.79382303840E+007, +5.53432459860E+002, +3.25514904019E+003
+4.81035058431E+007, +6.40249193954E+002, +3.36611786450E+003
+4.82687813022E+007, +6.78380099618E+002, +3.41002289305E+003
+4.84340567613E+007, +7.09153959686E+002, +3.56145112420E+003
+4.85993322204E+007, +7.93595263513E+002, +3.62501721779E+003
+4.87646076795E+007, +8.80073885943E+002, +3.68863618826E+003
+4.89298831386E+007, +8.93254330414E+002, +3.72849451965E+003
+4.90951585977E+007, +9.70979178328E+002, +3.81272277209E+003
+4.92604340568E+007, +1.08746121448E+003, +3.86362725893E+003
+4.94257095159E+007, +1.21007770985E+003, +3.95525902397E+003
+4.95909849750E+007, +1.29011024595E+003, +4.07414557505E+003
+4.97562604341E+007, +1.39797455075E+003, +4.07994272383E+003
+4.99215358932E+007, +1.51436809883E+003, +4.23772384667E+003
+5.00868113523E+007, +1.55558699539E+003, +4.26864892893E+003
+5.02520868114E+007, +1.83238279380E+003, +4.30810863300E+003
+5.04173622705E+007, +1.90901071301E+003, +4.36480060354E+003
+5.05826377295E+007, +1.86847415468E+003, +4.38435268481E+003
+5.07479131886E+007, +2.05433163398E+003, +4.39516242402E+003
+5.09131886477E+007, +2.11014484370E+003, +4.46646953514E+003
+5.10784641068E+007, +2.31554487630E+003, +4.50239473382E+003
+5.12437395659E+007, +2.42157146338E+003, +4.66738738374E+003
+5.14090150250E+007, +2.46016742444E+003, +4.69103186132E+003
+5.15742904841E+007, +2.55051763964E+003, +4.71190455083E+003
+5.17395659432E+007, +2.65592207852E+003, +4.92992623830E+003
+5.19048414023E+007, +2.85966600129E+003, +5.02976253498E+003
+5.20701168614E+007, +3.15221895869E+003, +5.28910338600E+003
+5.22353923205E+007, +3.34510329886E+003, +5.51629526879E+003
+5.24006677796E+007, +3.25254360908E+003, +5.67862798875E+003
+5.25659432387E+007, +3.89243420891E+003, +5.68196483291E+003
+5.27312186978E+007, +4.22008171461E+003, +5.94724860119E+003
+5.28964941569E+007, +4.38444250125E+003, +6.36222612365E+003
+5.30617696160E+007, +5.01158390281E+003, +6.39209151420E+003
+5.32270450751E+007, +5.63921752979E+003, +6.57846119013E+003
+5.33923205342E+007, +6.55591446428E+003, +7.19952620619E+003
+5.35575959933E+007, +7.32982547892E+003, +7.01386746381E+003
+5.37228714524E+007, +9.24708008366E+003, +6.86160277424E+003
+5.38881469115E+007, +9.09350686527E+003, +6.41579285307E+003
