"# Channel 1"
"# Trace 1"
Frequency, Formatted Data, Formatted Data
+1.00000000000E+005, +1.10375975610E+000, +2.69079458850E+000
+2.66777963272E+005, +1.09554211279E+000, +7.15198801434E+000
+4.33555926544E+005, +1.13362196891E+000, +1.16240642995E+001
+6.00333889816E+005, +1.19890154149E+000, +1.60490242696E+001
+7.67111853088E+005, +1.24982475248E+000, +2.05180236458E+001
+9.33889816361E+005, +1.28998221574E+000, +2.49048857188E+001
+1.10066777963E+006, +1.27113102877E+000, +2.93784722405E+001
+1.26744574290E+006, +1.38976237827E+000, +3.37540463228E+001
+1.43422370618E+006, +1.35006474077E+000, +3.82375158500E+001
+1.60100166945E+006, +1.52406693601E+000, +4.25195510479E+001
+1.76777963272E+006, +1.49803460023E+000, +4.69124297097E+001
+1.93455759599E+006, +1.53001784207E+000, +5.12112989797E+001
+2.10133555927E+006, +1.59845419491E+000, +5.55843891901E+001
+2.26811352254E+006, +1.62367892837E+000, +6.00256660065E+001
+2.43489148581E+006, +1.62721223995E+000, +6.45055627856E+001
+2.60166944908E+006, +1.64597383654E+000, +6.88104395496E+001
+2.76844741235E+006, +1.56196850118E+000, +7.33123262972E+001
+2.93522537563E+006, +1.55382114352E+000, +7.76480257415E+001
+3.10200333890E+006, +1.82446026300E+000, +8.19302735023E+001
+3.26878130217E+006, +1.59593322351E+000, +8.64992846727E+001
+3.43555926544E+006, +1.74205621711E+000, +9.08717265538E+001
+3.60233722871E+006, +1.86686722405E+000, +9.53376710838E+001
+3.76911519199E+006, +1.74181892076E+000, +9.99043723680E+001
+3.93589315526E+006, +1.69430549522E+000, +1.04148546183E+002
+4.10267111853E+006, +1.69874521360E+000, +1.08707236541E+002
+4.26944908180E+006, +1.73049548292E+000, +1.13446725743E+002
+4.43622704508E+006, +1.79933091675E+000, +1.17576835477E+002
+4.60300500835E+006, +1.72848492905E+000, +1.22207548393E+002
+4.76978297162E+006, +1.66496776328E+000, +1.26434805850E+002
+4.93656093489E+006, +1.84885292735E+000, +1.31072648984E+002
+5.10333889816E+006, +1.89845400223E+000, +1.35391523886E+002
+5.27011686144E+006, +2.27543767766E+000, +1.40316159915E+002
+5.43689482471E+006, +2.02180409452E+000, +1.44671351835E+002
+5.60367278798E+006, +1.94792423672E+000, +1.49574763649E+002
+5.77045075125E+006, +1.93851722137E+000, +1.53639069327E+002
+5.93722871452E+006, +2.10157329742E+000, +1.58402512412E+002
+6.10400667780E+006, +2.30358059851E+000, +1.62954409883E+002
+6.27078464107E+006, +2.35795096257E+000, +1.67487574701E+002
+6.43756260434E+006, +2.35856515901E+000, +1.72036675691E+002
+6.60434056761E+006, +2.61063543914E+000, +1.76631377808E+002
+6.77111853088E+006, +2.78537961721E+000, +1.81162874764E+002
+6.93789649416E+006, +2.68835349292E+000, +1.85768021584E+002
+7.10467445743E+006, +2.55959347942E+000, +1.90206595591E+002
+7.27145242070E+006, +2.79596428918E+000, +1.94719155323E+002
+7.43823038397E+006, +2.91162375433E+000, +1.99312994922E+002
+7.60500834725E+006, +2.89078436850E+000, +2.03944119119E+002
+7.77178631052E+006, +2.94542080393E+000, +2.08886287977E+002
+7.93856427379E+006, +2.82287533228E+000, +2.13120549682E+002
+8.10534223706E+006, +2.81333736662E+000, +2.17808360724E+002
+8.27212020033E+006, +2.78060651932E+000, +2.22680055618E+002
+8.43889816361E+006, +2.67226434832E+000, +2.27483778753E+002
+8.60567612688E+006, +2.48534931108E+000, +2.32361490212E+002
+8.77245409015E+006, +2.43942789713E+000, +2.36738144618E+002
+8.93923205342E+006, +2.81694608407E+000, +2.41624671789E+002
+9.10601001669E+006, +2.61545711049E+000, +2.46731074544E+002
+9.27278797997E+006, +2.69938668825E+000, +2.51450976694E+002
+9.43956594324E+006, +2.35970879748E+000, +2.56220727371E+002
+9.60634390651E+006, +2.32316402101E+000, +2.61268644436E+002
+9.77312186978E+006, +2.23240778969E+000, +2.65853214225E+002
+9.93989983306E+006, +2.56353901412E+000, +2.70801945686E+002
+1.01066777963E+007, +2.16287401845E+000, +2.75385217784E+002
+1.02734557596E+007, +2.42614991732E+000, +2.80864693557E+002
+1.04402337229E+007, +2.01628875797E+000, +2.85686474642E+002
+1.06070116861E+007, +2.08686844809E+000, +2.90584386692E+002
+1.07737896494E+007, +2.03382865423E+000, +2.95997539131E+002
+1.09405676127E+007, +2.43741651353E+000, +3.00688296794E+002
+1.11073455760E+007, +2.61676119399E+000, +3.05479160662E+002
+1.12741235392E+007, +2.51589420093E+000, +3.11047512542E+002
+1.14409015025E+007, +2.11598924328E+000, +3.16163540936E+002
+1.16076794658E+007, +2.34994667810E+000, +3.21123616191E+002
+1.17744574290E+007, +2.29889598048E+000, +3.26733609077E+002
+1.19412353923E+007, +1.83945516913E+000, +3.31719763614E+002
+1.21080133556E+007, +1.46618226534E+000, +3.37120878756E+002
+1.22747913189E+007, +2.35012690067E+000, +3.42104717868E+002
+1.24415692821E+007, +1.49168185772E+000, +3.47744340117E+002
+1.26083472454E+007, +1.63408231473E+000, +3.53150191864E+002
+1.27751252087E+007, +1.40103512311E+000, +3.58486719053E+002
+1.29419031720E+007, +1.64865692798E+000, +3.63353951893E+002
+1.31086811352E+007, +1.39422614000E+000, +3.69097205245E+002
+1.32754590985E+007, +1.78340956113E+000, +3.74322688694E+002
+1.34422370618E+007, +1.58593328377E+000, +3.79999793012E+002
+1.36090150250E+007, +2.70251039954E+000, +3.85260683609E+002
+1.37757929883E+007, +1.74120741269E+000, +3.90697354307E+002
+1.39425709516E+007, +1.72405040502E+000, +3.95444631594E+002
+1.41093489149E+007, +2.17889299368E+000, +4.01320218306E+002
+1.42761268781E+007, +2.64305586703E+000, +4.07353741797E+002
+1.44429048414E+007, +2.47910791544E+000, +4.12416000385E+002
+1.46096828047E+007, +1.57546097874E+000, +4.18657414133E+002
+1.47764607679E+007, +1.47564423963E+000, +4.23824900781E+002
+1.49432387312E+007, +1.27243306974E+000, +4.29452785386E+002
+1.51100166945E+007, +1.06953906549E+000, +4.35649839228E+002
+1.52767946578E+007, +2.15704652412E+000, +4.41814138918E+002
+1.54435726210E+007, +1.57227374082E+000, +4.46622289852E+002
+1.56103505843E+007, +2.24235570810E+000, +4.52677812833E+002
+1.57771285476E+007, +1.05008932147E+000, +4.58136859047E+002
+1.59439065109E+007, +2.61045738855E+000, +4.65790921525E+002
+1.61106844741E+007, +1.53935765507E+000, +4.70907783470E+002
+1.62774624374E+007, +2.42330005410E+000, +4.77189013828E+002
+1.64442404007E+007, +1.27568329610E+000, +4.82757633434E+002
+1.66110183639E+007, +1.20558169968E+000, +4.88879129633E+002
+1.67777963272E+007, +2.34640416140E+000, +4.95978818995E+002
+1.69445742905E+007, +2.95285050987E+000, +5.01590631806E+002
+1.71113522538E+007, -3.32755129090E-001, +5.07512810090E+002
+1.72781302170E+007, +4.78594163661E-001, +5.14891970721E+002
+1.74449081803E+007, +1.85110925441E-001, +5.21044734793E+002
+1.76116861436E+007, +2.46820808513E+000, +5.28213571790E+002
+1.77784641068E+007, +1.38595885024E+000, +5.33725449938E+002
+1.79452420701E+007, +1.71234201986E+000, +5.40002202130E+002
+1.81120200334E+007, +1.82724026928E+000, +5.45581951068E+002
+1.82787979967E+007, +2.82007237624E+000, +5.55167356016E+002
+1.84455759599E+007, +2.40084594734E+000, +5.61150235301E+002
+1.86123539232E+007, +2.09331373862E+000, +5.68586027722E+002
+1.87791318865E+007, +2.16033882477E+000, +5.74686703286E+002
+1.89459098497E+007, +2.70326684862E+000, +5.81458504408E+002
+1.91126878130E+007, +2.40176987302E+000, +5.87003441357E+002
+1.92794657763E+007, +1.91755670837E+000, +5.96243610245E+002
+1.94462437396E+007, +3.34131278347E+000, +6.01540363176E+002
+1.96130217028E+007, +2.93126353352E+000, +6.10843148975E+002
+1.97797996661E+007, +2.54565546612E+000, +6.16132105574E+002
+1.99465776294E+007, +1.56718760545E+000, +6.22475104565E+002
+2.01133555927E+007, +4.32475798458E+000, +6.31239157459E+002
+2.02801335559E+007, +2.82453190491E+000, +6.40078020563E+002
+2.04469115192E+007, +3.80291096703E+000, +6.46941111541E+002
+2.06136894825E+007, +4.68102698935E+000, +6.54219919531E+002
+2.07804674457E+007, +5.67275334945E+000, +6.62012966841E+002
+2.09472454090E+007, +1.16337748419E+000, +6.69930811914E+002
+2.11140233723E+007, +4.39765301222E+000, +6.75483732807E+002
+2.12808013356E+007, +5.02315636232E+000, +6.83824634512E+002
+2.14475792988E+007, +5.34017419569E+000, +6.91332972300E+002
+2.16143572621E+007, +6.08810858098E+000, +7.00459655009E+002
+2.17811352254E+007, +4.81877622654E+000, +7.06395556166E+002
+2.19479131886E+007, +8.36570106092E+000, +7.16322423939E+002
+2.21146911519E+007, +7.96766955639E+000, +7.23900134918E+002
+2.22814691152E+007, +5.84279181158E+000, +7.33259080594E+002
+2.24482470785E+007, +4.99433415210E+000, +7.43111782398E+002
+2.26150250417E+007, +1.34448176684E+001, +7.49408653016E+002
+2.27818030050E+007, +8.65820182111E+000, +7.59448892723E+002
+2.29485809683E+007, +1.17386774719E+001, +7.66442894947E+002
+2.31153589316E+007, +1.14467485795E+001, +7.77548517604E+002
+2.32821368948E+007, +1.14803616961E+001, +7.84200935955E+002
+2.34489148581E+007, +1.16743405346E+001, +7.91175500385E+002
+2.36156928214E+007, +1.22840932655E+001, +8.02380787647E+002
+2.37824707846E+007, +1.28528206930E+001, +8.11958565250E+002
+2.39492487479E+007, +1.30541909792E+001, +8.20618930898E+002
+2.41160267112E+007, +1.58284292751E+001, +8.30391823847E+002
+2.42828046745E+007, +1.34988553567E+001, +8.37316136788E+002
+2.44495826377E+007, +1.64777481858E+001, +8.54865213508E+002
+2.46163606010E+007, +1.49925518316E+001, +8.57147415930E+002
+2.47831385643E+007, +1.63304716828E+001, +8.68063330304E+002
+2.49499165275E+007, +1.88731836216E+001, +8.79773828312E+002
+2.51166944908E+007, +2.24485514055E+001, +8.86378386729E+002
+2.52834724541E+007, +2.39666085655E+001, +8.95594645110E+002
+2.54502504174E+007, +2.32274884116E+001, +9.06905753662E+002
+2.56170283806E+007, +2.21360479901E+001, +9.16693656486E+002
+2.57838063439E+007, +2.40230585548E+001, +9.28580001099E+002
+2.59505843072E+007, +2.72255311567E+001, +9.41548757396E+002
+2.61173622705E+007, +2.55365955543E+001, +9.53185288297E+002
+2.62841402337E+007, +2.51386042495E+001, +9.58238147099E+002
+2.64509181970E+007, +2.47417235260E+001, +9.71842376617E+002
+2.66176961603E+007, +2.19619116851E+001, +9.85640382957E+002
+2.67844741235E+007, +2.64990763657E+001, +9.94311726246E+002
+2.69512520868E+007, +3.02481717139E+001, +1.00597105538E+003
+2.71180300501E+007, +3.36969180390E+001, +1.01565551338E+003
+2.72848080134E+007, +2.83811157290E+001, +1.03182745534E+003
+2.74515859766E+007, +3.66055833142E+001, +1.03991730271E+003
+2.76183639399E+007, +3.00770850142E+001, +1.04749204425E+003
+2.77851419032E+007, +3.15102119551E+001, +1.06169715490E+003
+2.79519198664E+007, +3.45980928880E+001, +1.07074452835E+003
+2.81186978297E+007, +3.54496304403E+001, +1.08289745982E+003
+2.82854757930E+007, +3.55094039807E+001, +1.09480117938E+003
+2.84522537563E+007, +3.42766235225E+001, +1.11496282432E+003
+2.86190317195E+007, +3.27115396345E+001, +1.12105278070E+003
+2.87858096828E+007, +4.33076542177E+001, +1.14091014772E+003
+2.89525876461E+007, +3.47462938966E+001, +1.15349536878E+003
+2.91193656093E+007, +3.38694501021E+001, +1.15680898046E+003
+2.92861435726E+007, +4.23920195373E+001, +1.17851506940E+003
+2.94529215359E+007, +4.04261049227E+001, +1.19442213468E+003
+2.96196994992E+007, +4.59971063958E+001, +1.20687087156E+003
+2.97864774624E+007, +5.13407044941E+001, +1.22265876279E+003
+2.99532554257E+007, +5.16312850124E+001, +1.23679788184E+003
+3.01200333890E+007, +4.98256975850E+001, +1.25545842131E+003
+3.02868113523E+007, +4.61609370618E+001, +1.26995172713E+003
+3.04535893155E+007, +5.24171382743E+001, +1.28660139159E+003
+3.06203672788E+007, +5.50180319911E+001, +1.30508633155E+003
+3.07871452421E+007, +5.21745132603E+001, +1.31303311622E+003
+3.09539232053E+007, +5.82777645438E+001, +1.32590138161E+003
+3.11207011686E+007, +5.70028515238E+001, +1.35473029288E+003
+3.12874791319E+007, +6.19113291329E+001, +1.36608604669E+003
+3.14542570952E+007, +5.98758456682E+001, +1.38436233059E+003
+3.16210350584E+007, +5.90513328737E+001, +1.41187558138E+003
+3.17878130217E+007, +6.19622948732E+001, +1.43256226398E+003
+3.19545909850E+007, +6.65747286953E+001, +1.43858118405E+003
+3.21213689482E+007, +5.40496951319E+001, +1.45850148549E+003
+3.22881469115E+007, +6.21657843976E+001, +1.47110402865E+003
+3.24549248748E+007, +6.39591397361E+001, +1.50942034446E+003
+3.26217028381E+007, +6.10730874181E+001, +1.52291056144E+003
+3.27884808013E+007, +7.04351565606E+001, +1.53298328546E+003
+3.29552587646E+007, +7.83521464331E+001, +1.55505261165E+003
+3.31220367279E+007, +7.15471419503E+001, +1.57939903270E+003
+3.32888146912E+007, +6.82539003205E+001, +1.61160646162E+003
+3.34555926544E+007, +6.58069157662E+001, +1.63689011865E+003
+3.36223706177E+007, +8.32118582178E+001, +1.64850760609E+003
+3.37891485810E+007, +7.75531410264E+001, +1.67384348149E+003
+3.39559265442E+007, +8.79818973820E+001, +1.72169020341E+003
+3.41227045075E+007, +8.11639612143E+001, +1.73039794787E+003
+3.42894824708E+007, +8.07216233287E+001, +1.76180506034E+003
+3.44562604341E+007, +8.27359579472E+001, +1.77873734033E+003
+3.46230383973E+007, +9.76380743068E+001, +1.81567909769E+003
+3.47898163606E+007, +8.72774618885E+001, +1.83871381604E+003
+3.49565943239E+007, +9.65553091559E+001, +1.86867199737E+003
+3.51233722871E+007, +1.04101070163E+002, +1.89456796587E+003
+3.52901502504E+007, +8.54428952803E+001, +1.90981849501E+003
+3.54569282137E+007, +8.98277577703E+001, +1.96950168129E+003
+3.56237061770E+007, +7.98561095444E+001, +2.00748404702E+003
+3.57904841402E+007, +9.10263769091E+001, +2.03566421730E+003
+3.59572621035E+007, +9.95157653588E+001, +2.08569226986E+003
+3.61240400668E+007, +9.95184198486E+001, +2.08593176337E+003
+3.62908180301E+007, +1.28026698531E+002, +2.16552423721E+003
+3.64575959933E+007, +1.03356150821E+002, +2.20651339857E+003
+3.66243739566E+007, +1.26323241873E+002, +2.21985361243E+003
+3.67911519199E+007, +1.44049161740E+002, +2.29040293675E+003
+3.69579298831E+007, +1.20633943759E+002, +2.30841270516E+003
+3.71247078464E+007, +1.25522998280E+002, +2.36836325996E+003
+3.72914858097E+007, +1.41268218358E+002, +2.42636750093E+003
+3.74582637730E+007, +1.69286142060E+002, +2.48393228354E+003
+3.76250417362E+007, +1.59785590694E+002, +2.53509808903E+003
+3.77918196995E+007, +1.49476877323E+002, +2.57196675221E+003
+3.79585976628E+007, +1.44112347397E+002, +2.61180569936E+003
+3.81253756260E+007, +1.83206596701E+002, +2.70953871149E+003
+3.82921535893E+007, +2.01254881148E+002, +2.74611009088E+003
+3.84589315526E+007, +1.88681620904E+002, +2.81538689324E+003
+3.86257095159E+007, +2.10187613202E+002, +2.91468534891E+003
+3.87924874791E+007, +2.23213164946E+002, +3.00286515893E+003
+3.89592654424E+007, +2.47416183601E+002, +3.04157801945E+003
+3.91260434057E+007, +2.78842451255E+002, +3.14599715333E+003
+3.92928213689E+007, +3.14583239412E+002, +3.19489024617E+003
+3.94595993322E+007, +3.00018412445E+002, +3.30429528928E+003
+3.96263772955E+007, +2.83711589093E+002, +3.38172920605E+003
+3.97931552588E+007, +3.04940720778E+002, +3.48080082018E+003
+3.99599332220E+007, +3.67389853687E+002, +3.53829516862E+003
+4.01267111853E+007, +3.91909593669E+002, +3.67275737535E+003
+4.02934891486E+007, +3.91082503702E+002, +3.74596699848E+003
+4.04602671119E+007, +4.51130866183E+002, +3.87505475355E+003
+4.06270450751E+007, +5.09213107225E+002, +4.03777094302E+003
+4.07938230384E+007, +5.68668406594E+002, +4.20786482653E+003
+4.09606010017E+007, +6.63241596025E+002, +4.33380188824E+003
+4.11273789649E+007, +6.00872838292E+002, +4.35250269340E+003
+4.12941569282E+007, +5.76161949754E+002, +4.60681172113E+003
+4.14609348915E+007, +7.12497458378E+002, +4.96970001228E+003
+4.16277128548E+007, +7.81275073373E+002, +5.02953453428E+003
+4.17944908180E+007, +8.01100339058E+002, +5.17427708682E+003
+4.19612687813E+007, +9.16972114377E+002, +5.31308471583E+003
+4.21280467446E+007, +1.16291617563E+003, +5.68683756290E+003
+4.22948247078E+007, +1.16061013327E+003, +5.93869670954E+003
+4.24616026711E+007, +1.39984202727E+003, +6.09097164252E+003
+4.26283806344E+007, +1.64866744803E+003, +6.58309740287E+003
+4.27951585977E+007, +1.41621229191E+003, +6.87262899839E+003
+4.29619365609E+007, +1.78127600895E+003, +7.26721235125E+003
+4.31287145242E+007, +2.36411915550E+003, +7.59275084951E+003
+4.32954924875E+007, +2.48086261063E+003, +7.99532442194E+003
+4.34622704508E+007, +2.72783812535E+003, +8.81155072494E+003
+4.36290484140E+007, +3.59562661241E+003, +9.02669488025E+003
+4.37958263773E+007, +3.91939923940E+003, +1.04693785191E+004
+4.39626043406E+007, +4.45483677942E+003, +1.02742970799E+004
+4.41293823038E+007, +6.57597983891E+003, +1.07445643466E+004
+4.42961602671E+007, +6.85129730828E+003, +1.24733246241E+004
+4.44629382304E+007, +8.90897592527E+003, +1.22897639108E+004
+4.46297161937E+007, +1.09404756827E+004, +1.25837747997E+004
+4.47964941569E+007, +1.39367947509E+004, +1.39199427503E+004
+4.49632721202E+007, +1.93934712715E+004, +1.30487702095E+004
+4.51300500835E+007, +1.97300529066E+004, +1.10488089634E+004
+4.52968280467E+007, +2.41067908366E+004, +6.84455986837E+003
+4.54636060100E+007, +2.36438529602E+004, -1.44802187413E+003
+4.56303839733E+007, +2.25876007617E+004, -5.52572616559E+003
+4.57971619366E+007, +2.18521296434E+004, -7.85720465437E+003
+4.59639398998E+007, +1.50456368921E+004, -1.17193707885E+004
+4.61307178631E+007, +1.27695770017E+004, -9.55543961489E+003
+4.62974958264E+007, +1.09590421934E+004, -1.01504585337E+004
+4.64642737896E+007, +9.60205440482E+003, -1.01117039834E+004
+4.66310517529E+007, +7.28153217054E+003, -1.02540924823E+004
+4.67978297162E+007, +7.07924045991E+003, -8.52270130806E+003
+4.69646076795E+007, +5.67939777314E+003, -8.63040695284E+003
+4.71313856427E+007, +4.68343530974E+003, -7.58529722197E+003
+4.72981636060E+007, +4.11422978972E+003, -7.33667051603E+003
+4.74649415693E+007, +3.53882910598E+003, -7.08677504019E+003
+4.76317195326E+007, +3.40704151410E+003, -6.47880579362E+003
+4.77984974958E+007, +3.31584086588E+003, -6.00286910600E+003
+4.79652754591E+007, +3.09537219838E+003, -5.71985936673E+003
+4.81320534224E+007, +2.99272878437E+003, -5.35201161756E+003
+4.82988313856E+007, +2.57656364698E+003, -5.26979083159E+003
+4.84656093489E+007, +2.57607430613E+003, -5.06505242874E+003
+4.86323873122E+007, +2.41938219116E+003, -4.91404444641E+003
+4.87991652755E+007, +2.26147090780E+003, -4.69644049453E+003
+4.89659432387E+007, +2.06681927942E+003, -4.56854926286E+003
+4.91327212020E+007, +2.03114659284E+003, -4.27127694691E+003
+4.92994991653E+007, +1.98531557532E+003, -4.20805600896E+003
+4.94662771285E+007, +1.88926840409E+003, -3.96601549438E+003
+4.96330550918E+007, +1.83513735114E+003, -3.82356260884E+003
+4.97998330551E+007, +1.78142849795E+003, -3.79678260969E+003
+4.99666110184E+007, +1.71506899217E+003, -3.64711872008E+003
+5.01333889816E+007, +1.62658989832E+003, -3.59050358844E+003
+5.03001669449E+007, +1.63005303344E+003, -3.53541929721E+003
+5.04669449082E+007, +1.55274294042E+003, -3.44419573529E+003
+5.06337228715E+007, +1.55736167048E+003, -3.35286487048E+003
+5.08005008347E+007, +1.47888685676E+003, -3.30958940810E+003
+5.09672787980E+007, +1.45794952111E+003, -3.24865453801E+003
+5.11340567613E+007, +1.36238784927E+003, -3.20521896621E+003
+5.13008347245E+007, +1.28597636534E+003, -3.18683471916E+003
+5.14676126878E+007, +1.23730501043E+003, -3.13631202468E+003
+5.16343906511E+007, +1.22169834242E+003, -3.03242850705E+003
+5.18011686144E+007, +1.09504869297E+003, -3.02372314704E+003
+5.19679465776E+007, +1.03325414136E+003, -2.94252847250E+003
+5.21347245409E+007, +9.74586469767E+002, -2.85922476222E+003
+5.23015025042E+007, +8.89712507219E+002, -2.76452746990E+003
+5.24682804674E+007, +8.36281750210E+002, -2.72815216494E+003
+5.26350584307E+007, +8.08549819433E+002, -2.69736683333E+003
+5.28018363940E+007, +7.32888221574E+002, -2.60956027970E+003
+5.29686143573E+007, +7.08903615994E+002, -2.53148814719E+003
+5.31353923205E+007, +6.87222582938E+002, -2.48378833975E+003
+5.33021702838E+007, +6.40639709825E+002, -2.43851583900E+003
+5.34689482471E+007, +6.28267890154E+002, -2.36695032528E+003
