"# Channel 1"
"# Trace 1"
Frequency, Formatted Data, Formatted Data
+1.00000000000E+006, +1.02747199657E+001, +2.49454252683E+001
+1.16527545910E+006, +1.03251504740E+001, +2.90682599629E+001
+1.33055091820E+006, +1.03585826556E+001, +3.30981582677E+001
+1.49582637730E+006, +1.02952851566E+001, +3.72475716599E+001
+1.66110183639E+006, +1.03381787540E+001, +4.13480945189E+001
+1.82637729549E+006, +1.02745221959E+001, +4.53971252882E+001
+1.99165275459E+006, +1.03486183573E+001, +4.95245038025E+001
+2.15692821369E+006, +1.03490545378E+001, +5.36086884608E+001
+2.32220367279E+006, +1.02309219056E+001, +5.77534330880E+001
+2.48747913189E+006, +1.02664102520E+001, +6.18716431828E+001
+2.65275459098E+006, +1.01970320946E+001, +6.60017573915E+001
+2.81803005008E+006, +1.02897618087E+001, +7.01206750570E+001
+2.98330550918E+006, +1.01831285718E+001, +7.41413804940E+001
+3.14858096828E+006, +1.02915077245E+001, +7.82582141819E+001
+3.31385642738E+006, +1.03814173892E+001, +8.24383849672E+001
+3.47913188648E+006, +1.02315649548E+001, +8.67405142651E+001
+3.64440734558E+006, +1.03273911865E+001, +9.06515697098E+001
+3.80968280467E+006, +1.04613235341E+001, +9.47731517073E+001
+3.97495826377E+006, +1.04811172845E+001, +9.88285733042E+001
+4.14023372287E+006, +1.06142343962E+001, +1.03443085553E+002
+4.30550918197E+006, +1.04378190457E+001, +1.06966362459E+002
+4.47078464107E+006, +1.04158902426E+001, +1.11302662821E+002
+4.63606010017E+006, +1.02625797571E+001, +1.15438831450E+002
+4.80133555927E+006, +1.03861876186E+001, +1.19652400233E+002
+4.96661101836E+006, +1.04444336080E+001, +1.23793009003E+002
+5.13188647746E+006, +1.04690976147E+001, +1.28058395311E+002
+5.29716193656E+006, +1.04457478071E+001, +1.31803444795E+002
+5.46243739566E+006, +1.04410036217E+001, +1.36295658606E+002
+5.62771285476E+006, +1.07329350138E+001, +1.40609576269E+002
+5.79298831386E+006, +1.08790804412E+001, +1.44928800067E+002
+5.95826377295E+006, +1.08525198550E+001, +1.48846824134E+002
+6.12353923205E+006, +1.12511477145E+001, +1.52742338066E+002
+6.28881469115E+006, +1.10630629568E+001, +1.56981676755E+002
+6.45409015025E+006, +1.13060617401E+001, +1.61257025146E+002
+6.61936560935E+006, +1.11443731542E+001, +1.65520579211E+002
+6.78464106845E+006, +1.13209525246E+001, +1.69771215560E+002
+6.94991652755E+006, +1.14716102502E+001, +1.73935501388E+002
+7.11519198664E+006, +1.15866999613E+001, +1.77938446032E+002
+7.28046744574E+006, +1.15339311863E+001, +1.82297764335E+002
+7.44574290484E+006, +1.18699299226E+001, +1.86359611022E+002
+7.61101836394E+006, +1.18393057975E+001, +1.90437603907E+002
+7.77629382304E+006, +1.18511889668E+001, +1.94730979721E+002
+7.94156928214E+006, +1.16435866436E+001, +1.98960966982E+002
+8.10684474124E+006, +1.15816722024E+001, +2.02872399591E+002
+8.27212020033E+006, +1.18897854142E+001, +2.07030621638E+002
+8.43739565943E+006, +1.20084934143E+001, +2.11555267909E+002
+8.60267111853E+006, +1.17176531669E+001, +2.15817986454E+002
+8.76794657763E+006, +1.20489287388E+001, +2.19842212737E+002
+8.93322203673E+006, +1.20065986577E+001, +2.24116408092E+002
+9.09849749583E+006, +1.20761043013E+001, +2.28362119454E+002
+9.26377295492E+006, +1.20725639838E+001, +2.32874769496E+002
+9.42904841402E+006, +1.20522162319E+001, +2.36991601261E+002
+9.59432387312E+006, +1.21328586588E+001, +2.41287710459E+002
+9.75959933222E+006, +1.16073058514E+001, +2.45631318067E+002
+9.92487479132E+006, +1.19207796190E+001, +2.49847818359E+002
+1.00901502504E+007, +1.19197158725E+001, +2.54344215694E+002
+1.02554257095E+007, +1.19811527023E+001, +2.57997841142E+002
+1.04207011686E+007, +1.18162083914E+001, +2.62674053671E+002
+1.05859766277E+007, +1.20286003678E+001, +2.67175911038E+002
+1.07512520868E+007, +1.22088128704E+001, +2.71419569621E+002
+1.09165275459E+007, +1.17940410911E+001, +2.75788115316E+002
+1.10818030050E+007, +1.22275333645E+001, +2.80405279716E+002
+1.12470784641E+007, +1.21433871262E+001, +2.84180227705E+002
+1.14123539232E+007, +1.19939659668E+001, +2.88638637651E+002
+1.15776293823E+007, +1.26997374890E+001, +2.93706991682E+002
+1.17429048414E+007, +1.18813204993E+001, +2.97733197946E+002
+1.19081803005E+007, +1.22728970557E+001, +3.02438574700E+002
+1.20734557596E+007, +1.22738096223E+001, +3.06773360732E+002
+1.22387312187E+007, +1.22260721011E+001, +3.10992645204E+002
+1.24040066778E+007, +1.24521554941E+001, +3.14790527224E+002
+1.25692821369E+007, +1.21422301921E+001, +3.19450719262E+002
+1.27345575960E+007, +1.28620012732E+001, +3.23707097316E+002
+1.28998330551E+007, +1.22060465025E+001, +3.28535405088E+002
+1.30651085142E+007, +1.15842775111E+001, +3.32973592574E+002
+1.32303839733E+007, +1.30456840928E+001, +3.37670303938E+002
+1.33956594324E+007, +1.23372621217E+001, +3.42595148653E+002
+1.35609348915E+007, +1.30156265358E+001, +3.46329517266E+002
+1.37262103506E+007, +1.18928795831E+001, +3.50481452426E+002
+1.38914858097E+007, +1.30163152556E+001, +3.55253349318E+002
+1.40567612688E+007, +1.30806150486E+001, +3.59600480502E+002
+1.42220367279E+007, +1.28282192589E+001, +3.64509251383E+002
+1.43873121870E+007, +1.27609258127E+001, +3.69612502912E+002
+1.45525876461E+007, +1.28553380964E+001, +3.73904018703E+002
+1.47178631052E+007, +1.30191003992E+001, +3.78795365163E+002
+1.48831385643E+007, +1.33925637921E+001, +3.82466162539E+002
+1.50484140234E+007, +1.30248514382E+001, +3.87244597428E+002
+1.52136894825E+007, +1.31671226387E+001, +3.92080151802E+002
+1.53789649416E+007, +1.33663423105E+001, +3.96970047001E+002
+1.55442404007E+007, +1.34188762086E+001, +4.01026745763E+002
+1.57095158598E+007, +1.31935868225E+001, +4.05841342117E+002
+1.58747913189E+007, +1.35707795962E+001, +4.11358410040E+002
+1.60400667780E+007, +1.30158383989E+001, +4.15590393243E+002
+1.62053422371E+007, +1.35588055421E+001, +4.19591010129E+002
+1.63706176962E+007, +1.32029745104E+001, +4.24699578839E+002
+1.65358931553E+007, +1.38365728323E+001, +4.29155260244E+002
+1.67011686144E+007, +1.52247561801E+001, +4.33464562503E+002
+1.68664440735E+007, +1.38818665968E+001, +4.38210815913E+002
+1.70317195326E+007, +1.24230504621E+001, +4.44238960701E+002
+1.71969949917E+007, +1.21355796238E+001, +4.49303889995E+002
+1.73622704508E+007, +1.33902085723E+001, +4.53834429461E+002
+1.75275459098E+007, +1.24034190699E+001, +4.58494974685E+002
+1.76928213689E+007, +1.36366442365E+001, +4.63932231609E+002
+1.78580968280E+007, +1.44209682774E+001, +4.68036086657E+002
+1.80233722871E+007, +1.42616752297E+001, +4.72472173473E+002
+1.81886477462E+007, +1.36164894630E+001, +4.77899159006E+002
+1.83539232053E+007, +1.53965247407E+001, +4.82448226338E+002
+1.85191986644E+007, +1.49970614166E+001, +4.88315736948E+002
+1.86844741235E+007, +1.40220561295E+001, +4.91195419807E+002
+1.88497495826E+007, +1.49543823695E+001, +4.97371940362E+002
+1.90150250417E+007, +1.40737165056E+001, +5.03017247377E+002
+1.91803005008E+007, +1.43555819432E+001, +5.07616616592E+002
+1.93455759599E+007, +1.48762355066E+001, +5.12640235679E+002
+1.95108514190E+007, +1.55911820268E+001, +5.18414387321E+002
+1.96761268781E+007, +1.41149226205E+001, +5.22685735934E+002
+1.98414023372E+007, +1.55602138832E+001, +5.27122547219E+002
+2.00066777963E+007, +1.46166745413E+001, +5.32041739260E+002
+2.01719532554E+007, +1.58119683236E+001, +5.38187135715E+002
+2.03372287145E+007, +1.48375421965E+001, +5.44115658984E+002
+2.05025041736E+007, +1.66993826016E+001, +5.48648311257E+002
+2.06677796327E+007, +1.66279452248E+001, +5.54351538499E+002
+2.08330550918E+007, +1.55214053666E+001, +5.60156244953E+002
+2.09983305509E+007, +1.74450027919E+001, +5.63600762448E+002
+2.11636060100E+007, +1.69760145109E+001, +5.69764065280E+002
+2.13288814691E+007, +1.71987651199E+001, +5.74852617542E+002
+2.14941569282E+007, +1.71268065212E+001, +5.79358047832E+002
+2.16594323873E+007, +1.78437277262E+001, +5.86126774519E+002
+2.18247078464E+007, +1.71621926556E+001, +5.92302513960E+002
+2.19899833055E+007, +1.68986868948E+001, +5.97654961721E+002
+2.21552587646E+007, +1.69663071558E+001, +6.01260804300E+002
+2.23205342237E+007, +1.74570030019E+001, +6.07487307004E+002
+2.24858096828E+007, +1.74435592522E+001, +6.13444401041E+002
+2.26510851419E+007, +2.00038658363E+001, +6.18043129004E+002
+2.28163606010E+007, +1.89669514614E+001, +6.23427506985E+002
+2.29816360601E+007, +1.79968902100E+001, +6.29118261419E+002
+2.31469115192E+007, +2.28934200319E+001, +6.34782625995E+002
+2.33121869783E+007, +2.22693938087E+001, +6.42097769456E+002
+2.34774624374E+007, +2.09352250802E+001, +6.46609481014E+002
+2.36427378965E+007, +2.19921150192E+001, +6.52505350855E+002
+2.38080133556E+007, +2.25035706514E+001, +6.56950222081E+002
+2.39732888147E+007, +2.40424502711E+001, +6.64957077488E+002
+2.41385642738E+007, +2.28878893478E+001, +6.68831701673E+002
+2.43038397329E+007, +2.17371758262E+001, +6.75608528270E+002
+2.44691151920E+007, +2.33869202964E+001, +6.80756581228E+002
+2.46343906511E+007, +2.35705986049E+001, +6.86275939552E+002
+2.47996661102E+007, +2.34475681538E+001, +6.93019336959E+002
+2.49649415693E+007, +2.54996704889E+001, +6.99572406837E+002
+2.51302170284E+007, +2.33750061304E+001, +7.04738715955E+002
+2.52954924875E+007, +2.74737911609E+001, +7.09429640927E+002
+2.54607679466E+007, +2.70853424321E+001, +7.15127725567E+002
+2.56260434057E+007, +2.51041995537E+001, +7.19654818160E+002
+2.57913188648E+007, +2.57188257568E+001, +7.27307142159E+002
+2.59565943239E+007, +2.80528799460E+001, +7.33345142944E+002
+2.61218697830E+007, +2.67195400117E+001, +7.39786122023E+002
+2.62871452421E+007, +3.20099764470E+001, +7.44921243392E+002
+2.64524207012E+007, +2.69226531961E+001, +7.50953277092E+002
+2.66176961603E+007, +2.87907876612E+001, +7.57358575791E+002
+2.67829716194E+007, +2.83920866164E+001, +7.62255974242E+002
+2.69482470785E+007, +2.72776426707E+001, +7.70689146401E+002
+2.71135225376E+007, +3.00665611157E+001, +7.77116998104E+002
+2.72787979967E+007, +3.14725547909E+001, +7.83704150378E+002
+2.74440734558E+007, +3.22959169349E+001, +7.90227868068E+002
+2.76093489149E+007, +3.30970388272E+001, +7.93275945553E+002
+2.77746243740E+007, +3.12814932413E+001, +8.02872828152E+002
+2.79398998331E+007, +3.11410854504E+001, +8.10951283572E+002
+2.81051752922E+007, +3.67603468071E+001, +8.14587530345E+002
+2.82704507513E+007, +3.16786415723E+001, +8.22493329366E+002
+2.84357262104E+007, +3.37480131107E+001, +8.29357602636E+002
+2.86010016694E+007, +3.03819500095E+001, +8.38718736739E+002
+2.87662771285E+007, +3.39884542417E+001, +8.42708559001E+002
+2.89315525876E+007, +3.34914181739E+001, +8.51812763183E+002
+2.90968280467E+007, +3.63758696041E+001, +8.58954541419E+002
+2.92621035058E+007, +3.59359278305E+001, +8.61438414203E+002
+2.94273789649E+007, +3.75015469177E+001, +8.71911917054E+002
+2.95926544240E+007, +3.53352636777E+001, +8.77422894506E+002
+2.97579298831E+007, +3.73250503533E+001, +8.86517802775E+002
+2.99232053422E+007, +3.61095440880E+001, +8.91456705893E+002
+3.00884808013E+007, +4.03006909124E+001, +9.01193911517E+002
+3.02537562604E+007, +3.66444495714E+001, +9.06655145359E+002
+3.04190317195E+007, +3.95213390225E+001, +9.17954711029E+002
+3.05843071786E+007, +3.71468976332E+001, +9.20321127324E+002
+3.07495826377E+007, +3.47376955511E+001, +9.29148267107E+002
+3.09148580968E+007, +3.74545843289E+001, +9.36183623552E+002
+3.10801335559E+007, +3.88695444764E+001, +9.44621536186E+002
+3.12454090150E+007, +3.75413207147E+001, +9.51607882861E+002
+3.14106844741E+007, +3.96139346175E+001, +9.54362862917E+002
+3.15759599332E+007, +4.14443244466E+001, +9.65901017723E+002
+3.17412353923E+007, +4.13051738170E+001, +9.71034666398E+002
+3.19065108514E+007, +4.00101230710E+001, +9.83310226952E+002
+3.20717863105E+007, +3.66355577154E+001, +9.89423397268E+002
+3.22370617696E+007, +4.24242859895E+001, +9.95229417987E+002
+3.24023372287E+007, +3.62932918955E+001, +1.00724985644E+003
+3.25676126878E+007, +4.73878474840E+001, +1.01428195033E+003
+3.27328881469E+007, +4.46593368934E+001, +1.02078772459E+003
+3.28981636060E+007, +4.13320337648E+001, +1.02788771220E+003
+3.30634390651E+007, +4.41471801096E+001, +1.04087464229E+003
+3.32287145242E+007, +4.32487452669E+001, +1.05721591016E+003
+3.33939899833E+007, +4.70296500697E+001, +1.06045342012E+003
+3.35592654424E+007, +4.73530717524E+001, +1.06864903874E+003
+3.37245409015E+007, +4.54865256039E+001, +1.07438621497E+003
+3.38898163606E+007, +4.30080277417E+001, +1.08127967588E+003
+3.40550918197E+007, +4.43940176398E+001, +1.09296243252E+003
+3.42203672788E+007, +5.09340266201E+001, +1.10121260581E+003
+3.43856427379E+007, +4.83764070340E+001, +1.11424312265E+003
+3.45509181970E+007, +4.52673323807E+001, +1.12743073134E+003
+3.47161936561E+007, +4.36778246540E+001, +1.13237808092E+003
+3.48814691152E+007, +5.05787259370E+001, +1.13854120051E+003
+3.50467445743E+007, +4.94627709886E+001, +1.15187472439E+003
+3.52120200334E+007, +5.54156980908E+001, +1.16253916258E+003
+3.53772954925E+007, +4.95221135767E+001, +1.16724667943E+003
+3.55425709516E+007, +5.14211276319E+001, +1.18272152742E+003
+3.57078464107E+007, +5.10318139830E+001, +1.19370250174E+003
+3.58731218698E+007, +5.41692819246E+001, +1.20377546334E+003
+3.60383973289E+007, +4.46236305816E+001, +1.21028610273E+003
+3.62036727880E+007, +5.24708869954E+001, +1.23161782185E+003
+3.63689482471E+007, +6.00457607097E+001, +1.23289141523E+003
+3.65342237062E+007, +4.83578529370E+001, +1.24837883796E+003
+3.66994991653E+007, +4.85816045348E+001, +1.25758831449E+003
+3.68647746244E+007, +6.12050962409E+001, +1.26557674275E+003
+3.70300500835E+007, +4.20139947778E+001, +1.28321584161E+003
+3.71953255426E+007, +5.39588054074E+001, +1.29704652766E+003
+3.73606010017E+007, +5.98642803035E+001, +1.31274354120E+003
+3.75258764608E+007, +5.76762003230E+001, +1.33122589425E+003
+3.76911519199E+007, +6.48318188369E+001, +1.33348587691E+003
+3.78564273790E+007, +5.17751102987E+001, +1.34817581015E+003
+3.80217028381E+007, +4.91364101102E+001, +1.35872787499E+003
+3.81869782972E+007, +5.71450352032E+001, +1.36756169954E+003
+3.83522537563E+007, +5.97108741987E+001, +1.38822211975E+003
+3.85175292154E+007, +6.46776267454E+001, +1.40169071994E+003
+3.86828046745E+007, +5.68070708210E+001, +1.41476568490E+003
+3.88480801336E+007, +6.00499337529E+001, +1.43773850612E+003
+3.90133555927E+007, +6.48823853497E+001, +1.44881037919E+003
+3.91786310518E+007, +6.24856332944E+001, +1.47385351326E+003
+3.93439065109E+007, +7.05026773205E+001, +1.48334707597E+003
+3.95091819699E+007, +7.64924803235E+001, +1.49787798638E+003
+3.96744574290E+007, +8.20004789718E+001, +1.51338206766E+003
+3.98397328881E+007, +6.70333163275E+001, +1.53150021221E+003
+4.00050083472E+007, +6.99595055908E+001, +1.55211474623E+003
+4.01702838063E+007, +7.38820042592E+001, +1.56561655393E+003
+4.03355592654E+007, +8.59515603926E+001, +1.56658386527E+003
+4.05008347245E+007, +8.60908155787E+001, +1.59477795325E+003
+4.06661101836E+007, +7.42397124394E+001, +1.61742171510E+003
+4.08313856427E+007, +7.61159305792E+001, +1.63367773456E+003
+4.09966611018E+007, +8.44641160521E+001, +1.64959178155E+003
+4.11619365609E+007, +9.33912538109E+001, +1.67401767112E+003
+4.13272120200E+007, +9.16986158698E+001, +1.69044023535E+003
+4.14924874791E+007, +9.35541321891E+001, +1.70203615216E+003
+4.16577629382E+007, +9.54871706833E+001, +1.73431615509E+003
+4.18230383973E+007, +1.03227866531E+002, +1.75347418058E+003
+4.19883138564E+007, +9.19601228437E+001, +1.77021412134E+003
+4.21535893155E+007, +9.80142407001E+001, +1.79118779326E+003
+4.23188647746E+007, +1.13573067983E+002, +1.81408977888E+003
+4.24841402337E+007, +1.00650360420E+002, +1.87400102028E+003
+4.26494156928E+007, +9.98213529642E+001, +1.87118026058E+003
+4.28146911519E+007, +1.21984517396E+002, +1.88865028761E+003
+4.29799666110E+007, +1.16101566586E+002, +1.91841117540E+003
+4.31452420701E+007, +1.13865742139E+002, +1.95923837398E+003
+4.33105175292E+007, +1.18539063542E+002, +1.98155295563E+003
+4.34757929883E+007, +1.18674998195E+002, +2.00925480864E+003
+4.36410684474E+007, +1.05383063248E+002, +2.03117498386E+003
+4.38063439065E+007, +1.32477737301E+002, +2.07174072392E+003
+4.39716193656E+007, +1.49794078943E+002, +2.06639589629E+003
+4.41368948247E+007, +1.30466655435E+002, +2.12284017615E+003
+4.43021702838E+007, +1.44817021660E+002, +2.15119389026E+003
+4.44674457429E+007, +1.42899210164E+002, +2.18883581976E+003
+4.46327212020E+007, +1.54114408439E+002, +2.21796097711E+003
+4.47979966611E+007, +1.50249323445E+002, +2.26233170563E+003
+4.49632721202E+007, +1.68993628140E+002, +2.32506671137E+003
+4.51285475793E+007, +1.83102475409E+002, +2.34328618650E+003
+4.52938230384E+007, +2.12264770427E+002, +2.38892357238E+003
+4.54590984975E+007, +1.61103358338E+002, +2.41215669737E+003
+4.56243739566E+007, +2.21284224582E+002, +2.47365794690E+003
+4.57896494157E+007, +2.17090140162E+002, +2.51033767070E+003
+4.59549248748E+007, +2.32400265257E+002, +2.58584465987E+003
+4.61202003339E+007, +2.27831230471E+002, +2.61630802497E+003
+4.62854757930E+007, +2.62887182850E+002, +2.66377325318E+003
+4.64507512521E+007, +2.55283856485E+002, +2.71887970393E+003
+4.66160267112E+007, +3.11355326405E+002, +2.79687689341E+003
+4.67813021703E+007, +3.59562982948E+002, +2.83701860606E+003
+4.69465776294E+007, +3.35727514260E+002, +2.88501989401E+003
+4.71118530885E+007, +3.60059779779E+002, +2.96920967603E+003
+4.72771285476E+007, +3.78732335711E+002, +3.01160607330E+003
+4.74424040067E+007, +4.29424109153E+002, +3.12176945748E+003
+4.76076794658E+007, +4.55675265723E+002, +3.14518542417E+003
+4.77729549249E+007, +4.55530493799E+002, +3.24837403251E+003
+4.79382303840E+007, +5.15729936742E+002, +3.27425411185E+003
+4.81035058431E+007, +5.35357441867E+002, +3.35480729443E+003
+4.82687813022E+007, +6.13320417422E+002, +3.47322516634E+003
+4.84340567613E+007, +6.56503870541E+002, +3.54781737425E+003
+4.85993322204E+007, +7.58887389283E+002, +3.62628265552E+003
+4.87646076795E+007, +8.43323612504E+002, +3.75434137934E+003
+4.89298831386E+007, +8.62165441360E+002, +3.82305523046E+003
+4.90951585977E+007, +9.13003674187E+002, +3.83999137247E+003
+4.92604340568E+007, +9.75585415672E+002, +3.93449604951E+003
+4.94257095159E+007, +1.19072886521E+003, +4.01483383028E+003
+4.95909849750E+007, +1.15329715295E+003, +4.13875211345E+003
+4.97562604341E+007, +1.31586143402E+003, +4.09512452297E+003
+4.99215358932E+007, +1.44911064650E+003, +4.41927071371E+003
+5.00868113523E+007, +1.48231692619E+003, +4.49241996811E+003
+5.02520868114E+007, +1.66570174718E+003, +4.52897873808E+003
+5.04173622705E+007, +1.76058514265E+003, +4.58391627601E+003
+5.05826377295E+007, +1.76784835592E+003, +4.70175922486E+003
+5.07479131886E+007, +1.90790463525E+003, +4.65994873428E+003
+5.09131886477E+007, +2.00769961787E+003, +4.77347286452E+003
+5.10784641068E+007, +2.28769951389E+003, +4.82398802255E+003
+5.12437395659E+007, +2.35465679433E+003, +5.15156986846E+003
+5.14090150250E+007, +2.45581515739E+003, +5.11236159337E+003
+5.15742904841E+007, +2.61762353105E+003, +5.13346749129E+003
+5.17395659432E+007, +2.83747748831E+003, +5.32503774217E+003
+5.19048414023E+007, +3.07947747010E+003, +5.52535338602E+003
+5.20701168614E+007, +3.25997928314E+003, +5.83419970147E+003
+5.22353923205E+007, +3.59040758352E+003, +6.08726449817E+003
+5.24006677796E+007, +3.60400119215E+003, +6.13626499458E+003
+5.25659432387E+007, +4.21044576057E+003, +6.32993070346E+003
+5.27312186978E+007, +4.73770985771E+003, +6.46718182817E+003
+5.28964941569E+007, +5.16958752771E+003, +7.05960041216E+003
+5.30617696160E+007, +6.09881406568E+003, +7.18105575346E+003
+5.32270450751E+007, +6.35005111697E+003, +7.33618664354E+003
+5.33923205342E+007, +8.14083392791E+003, +8.17707006744E+003
+5.35575959933E+007, +9.05619268163E+003, +7.14223000688E+003
+5.37228714524E+007, +1.07304395545E+004, +6.87976273872E+003
+5.38881469115E+007, +1.07035133125E+004, +6.49418215895E+003
