"# Channel 1"
"# Trace 1"
Frequency, Formatted Data, Formatted Data
+1.00000000000E+005, +7.93391226383E+000, +2.67665278949E+000
+2.25031289111E+005, +7.89081609246E+000, +5.98316547086E+000
+3.50062578223E+005, +7.92790371409E+000, +9.33804175875E+000
+4.75093867334E+005, +7.95774018339E+000, +1.26167153526E+001
+6.00125156446E+005, +7.91156553096E+000, +1.59296735630E+001
+7.25156445557E+005, +7.92590501340E+000, +1.92708570039E+001
+8.50187734668E+005, +7.91034457243E+000, +2.25830860535E+001
+9.75219023780E+005, +7.93743767290E+000, +2.58547199878E+001
+1.10025031289E+006, +7.91089313539E+000, +2.91428959482E+001
+1.22528160200E+006, +7.94192996151E+000, +3.24829193139E+001
+1.35031289111E+006, +7.93446012942E+000, +3.57842610766E+001
+1.47534418023E+006, +7.92611951166E+000, +3.90987691226E+001
+1.60037546934E+006, +7.91922675050E+000, +4.23739340805E+001
+1.72540675845E+006, +7.89312789752E+000, +4.57089831409E+001
+1.85043804756E+006, +7.98450509624E+000, +4.89943120360E+001
+1.97546933667E+006, +7.94624367439E+000, +5.23552104008E+001
+2.10050062578E+006, +7.91161763203E+000, +5.55428634137E+001
+2.22553191489E+006, +7.90044325589E+000, +5.88418437005E+001
+2.35056320401E+006, +7.97469554248E+000, +6.21873556884E+001
+2.47559449312E+006, +7.88452902655E+000, +6.54184616204E+001
+2.60062578223E+006, +7.79286633759E+000, +6.87845993836E+001
+2.72565707134E+006, +7.86928125080E+000, +7.21162968507E+001
+2.85068836045E+006, +7.84819305437E+000, +7.54379520282E+001
+2.97571964956E+006, +8.02813071306E+000, +7.87065556392E+001
+3.10075093867E+006, +7.84948920058E+000, +8.20710828893E+001
+3.22578222778E+006, +7.87163139542E+000, +8.53770763083E+001
+3.35081351690E+006, +8.01879915530E+000, +8.87734430918E+001
+3.47584480601E+006, +8.05495002103E+000, +9.20523186363E+001
+3.60087609512E+006, +8.02663074358E+000, +9.54527860788E+001
+3.72590738423E+006, +7.94793658099E+000, +9.87352099769E+001
+3.85093867334E+006, +8.00440474421E+000, +1.02182361077E+002
+3.97596996245E+006, +7.97930941975E+000, +1.05183429703E+002
+4.10100125156E+006, +8.10596459280E+000, +1.08795681802E+002
+4.22603254068E+006, +7.93301683041E+000, +1.11931617551E+002
+4.35106382979E+006, +7.83177419912E+000, +1.15253113553E+002
+4.47609511890E+006, +7.76381920058E+000, +1.18688442006E+002
+4.60112640801E+006, +7.70334740490E+000, +1.22024704635E+002
+4.72615769712E+006, +8.11711254280E+000, +1.25209333176E+002
+4.85118898623E+006, +7.94246735683E+000, +1.28560602995E+002
+4.97622027534E+006, +8.23787043567E+000, +1.32046457079E+002
+5.10125156446E+006, +8.30084086283E+000, +1.35322671565E+002
+5.22628285357E+006, +8.06436299076E+000, +1.38625064284E+002
+5.35131414268E+006, +7.98658710549E+000, +1.41977165459E+002
+5.47634543179E+006, +8.00436118686E+000, +1.45154193802E+002
+5.60137672090E+006, +8.17636767243E+000, +1.48988078039E+002
+5.72640801001E+006, +8.19250442117E+000, +1.52200473476E+002
+5.85143929912E+006, +8.59092780118E+000, +1.55482453355E+002
+5.97647058824E+006, +8.61280695932E+000, +1.58961448153E+002
+6.10150187735E+006, +8.30191158185E+000, +1.62077468966E+002
+6.22653316646E+006, +8.36102270059E+000, +1.65682624876E+002
+6.35156445557E+006, +8.33433819396E+000, +1.68974475681E+002
+6.47659574468E+006, +8.45401023593E+000, +1.72384332993E+002
+6.60162703379E+006, +8.62998556063E+000, +1.75783657568E+002
+6.72665832290E+006, +8.40326344136E+000, +1.79130278244E+002
+6.85168961202E+006, +8.72633030189E+000, +1.82581947038E+002
+6.97672090113E+006, +8.66693903448E+000, +1.85882138631E+002
+7.10175219024E+006, +8.82537532496E+000, +1.89186942649E+002
+7.22678347935E+006, +8.87154651951E+000, +1.92704406608E+002
+7.35181476846E+006, +8.75542729170E+000, +1.96178894232E+002
+7.47684605757E+006, +9.03932633296E+000, +1.99358955970E+002
+7.60187734668E+006, +9.01468479675E+000, +2.02851914434E+002
+7.72690863579E+006, +9.14415984381E+000, +2.06133873003E+002
+7.85193992491E+006, +8.81476193933E+000, +2.09616635994E+002
+7.97697121402E+006, +9.05551310532E+000, +2.13273026360E+002
+8.10200250313E+006, +9.14808299154E+000, +2.16426612550E+002
+8.22703379224E+006, +9.24746080619E+000, +2.20007148278E+002
+8.35206508135E+006, +9.22088898662E+000, +2.23042283496E+002
+8.47709637046E+006, +9.07684195750E+000, +2.27020062427E+002
+8.60212765957E+006, +9.31703597954E+000, +2.30243133174E+002
+8.72715894869E+006, +9.33798923475E+000, +2.33531480292E+002
+8.85219023780E+006, +9.15230546569E+000, +2.36384301471E+002
+8.97722152691E+006, +9.48919542128E+000, +2.40430044036E+002
+9.10225281602E+006, +9.27822486637E+000, +2.44120649491E+002
+9.22728410513E+006, +9.35778911715E+000, +2.47262086392E+002
+9.35231539424E+006, +9.28971483603E+000, +2.50326302256E+002
+9.47734668335E+006, +9.43523919837E+000, +2.54140878795E+002
+9.60237797247E+006, +9.31590504599E+000, +2.57682000937E+002
+9.72740926158E+006, +9.61185972581E+000, +2.60756244896E+002
+9.85244055069E+006, +9.70848239121E+000, +2.64256879765E+002
+9.97747183980E+006, +9.38048186278E+000, +2.68072087953E+002
+1.01025031289E+007, +9.34246130630E+000, +2.71036173456E+002
+1.02275344180E+007, +9.59382604643E+000, +2.74880667298E+002
+1.03525657071E+007, +9.38816498655E+000, +2.78555700154E+002
+1.04775969962E+007, +9.32192347329E+000, +2.81953299063E+002
+1.06026282854E+007, +9.88438636600E+000, +2.85338255230E+002
+1.07276595745E+007, +9.54271250193E+000, +2.89085659487E+002
+1.08526908636E+007, +9.51237433700E+000, +2.91713335060E+002
+1.09777221527E+007, +9.55221382647E+000, +2.95847620412E+002
+1.11027534418E+007, +9.48870156917E+000, +2.99446782672E+002
+1.12277847309E+007, +1.03120774948E+001, +3.02674657466E+002
+1.13528160200E+007, +9.62773003838E+000, +3.05941738521E+002
+1.14778473091E+007, +1.03504193297E+001, +3.09459740545E+002
+1.16028785982E+007, +1.02493946247E+001, +3.12831920796E+002
+1.17279098874E+007, +9.87998933717E+000, +3.17025969489E+002
+1.18529411765E+007, +9.77816696032E+000, +3.19993568358E+002
+1.19779724656E+007, +9.68389390706E+000, +3.23238374833E+002
+1.21030037547E+007, +9.42561972244E+000, +3.27166274864E+002
+1.22280350438E+007, +9.83480976007E+000, +3.30911354883E+002
+1.23530663329E+007, +1.00377683911E+001, +3.34406426623E+002
+1.24780976220E+007, +1.01277857579E+001, +3.37440136594E+002
+1.26031289111E+007, +1.02966611724E+001, +3.41225882458E+002
+1.27281602003E+007, +1.04841757247E+001, +3.44885003157E+002
+1.28531914894E+007, +9.93017651169E+000, +3.47506109490E+002
+1.29782227785E+007, +1.02275198338E+001, +3.51919931724E+002
+1.31032540676E+007, +9.90841605073E+000, +3.55800099821E+002
+1.32282853567E+007, +1.04454727339E+001, +3.59445807275E+002
+1.33533166458E+007, +1.01949916825E+001, +3.62701255612E+002
+1.34783479349E+007, +1.00449476009E+001, +3.66910044115E+002
+1.36033792240E+007, +9.87412149892E+000, +3.70072804249E+002
+1.37284105131E+007, +1.02741454395E+001, +3.74101890895E+002
+1.38534418023E+007, +1.06565904337E+001, +3.77715115643E+002
+1.39784730914E+007, +1.14959978526E+001, +3.81445434938E+002
+1.41035043805E+007, +1.04980918863E+001, +3.84928134913E+002
+1.42285356696E+007, +1.07679705277E+001, +3.88618083927E+002
+1.43535669587E+007, +1.09844982741E+001, +3.92330899861E+002
+1.44785982478E+007, +1.14595827204E+001, +3.96136434941E+002
+1.46036295369E+007, +1.08063222188E+001, +3.99177558958E+002
+1.47286608260E+007, +1.03107197398E+001, +4.02996273370E+002
+1.48536921151E+007, +1.11290473218E+001, +4.06967605738E+002
+1.49787234043E+007, +1.10633470474E+001, +4.10432098275E+002
+1.51037546934E+007, +1.09666624464E+001, +4.14562930497E+002
+1.52287859825E+007, +1.15507722029E+001, +4.18519224756E+002
+1.53538172716E+007, +1.08471777921E+001, +4.20326420620E+002
+1.54788485607E+007, +1.09954118460E+001, +4.25375353294E+002
+1.56038798498E+007, +1.09811285305E+001, +4.29375040635E+002
+1.57289111389E+007, +1.10964949398E+001, +4.32457499700E+002
+1.58539424280E+007, +1.16963625457E+001, +4.36055160666E+002
+1.59789737171E+007, +1.11693764660E+001, +4.39997587897E+002
+1.61040050063E+007, +1.17489637932E+001, +4.42995189105E+002
+1.62290362954E+007, +1.11042708671E+001, +4.46920139321E+002
+1.63540675845E+007, +1.10741711594E+001, +4.51164833812E+002
+1.64790988736E+007, +1.28729343933E+001, +4.55014804735E+002
+1.66041301627E+007, +1.27168723281E+001, +4.58649053188E+002
+1.67291614518E+007, +1.18552935003E+001, +4.62285454115E+002
+1.68541927409E+007, +1.11478867125E+001, +4.65817446017E+002
+1.69792240300E+007, +1.21105112576E+001, +4.69910315453E+002
+1.71042553191E+007, +9.89092068164E+000, +4.73530825222E+002
+1.72292866083E+007, +1.07034391510E+001, +4.77953866020E+002
+1.73543178974E+007, +1.19905529354E+001, +4.82403869820E+002
+1.74793491865E+007, +1.07851077210E+001, +4.86240130080E+002
+1.76043804756E+007, +1.11627954283E+001, +4.89655114023E+002
+1.77294117647E+007, +1.11086226263E+001, +4.93988735902E+002
+1.78544430538E+007, +1.15673201551E+001, +4.96993311777E+002
+1.79794743429E+007, +1.08129537637E+001, +5.00308833823E+002
+1.81045056320E+007, +1.17118904091E+001, +5.07244017837E+002
+1.82295369212E+007, +1.24622517730E+001, +5.08095187288E+002
+1.83545682103E+007, +1.17059639252E+001, +5.12182497882E+002
+1.84795994994E+007, +1.34293869834E+001, +5.16930092643E+002
+1.86046307885E+007, +1.06808283516E+001, +5.20363985451E+002
+1.87296620776E+007, +1.15975654527E+001, +5.25020911613E+002
+1.88546933667E+007, +1.16602926111E+001, +5.28226408741E+002
+1.89797246558E+007, +1.32541416734E+001, +5.32067642499E+002
+1.91047559449E+007, +1.16449102724E+001, +5.35007691887E+002
+1.92297872340E+007, +1.07612695562E+001, +5.40707516903E+002
+1.93548185232E+007, +1.25709459335E+001, +5.45267763888E+002
+1.94798498123E+007, +1.21633458321E+001, +5.50371735039E+002
+1.96048811014E+007, +1.34597526508E+001, +5.52522693649E+002
+1.97299123905E+007, +1.24665952506E+001, +5.58614577084E+002
+1.98549436796E+007, +1.31999527256E+001, +5.60767555289E+002
+1.99799749687E+007, +1.26309842965E+001, +5.66852713276E+002
+2.01050062578E+007, +1.28489487199E+001, +5.68839640890E+002
+2.02300375469E+007, +1.19556990625E+001, +5.72331964148E+002
+2.03550688360E+007, +1.31927510362E+001, +5.76877397257E+002
+2.04801001252E+007, +1.28152962869E+001, +5.82164831138E+002
+2.06051314143E+007, +1.28291312821E+001, +5.87278321057E+002
+2.07301627034E+007, +1.40863337874E+001, +5.90550850091E+002
+2.08551939925E+007, +1.37303541380E+001, +5.95645154519E+002
+2.09802252816E+007, +1.36852394006E+001, +5.98488175250E+002
+2.11052565707E+007, +1.19031462205E+001, +6.04921986522E+002
+2.12302878598E+007, +1.23510287663E+001, +6.08078895919E+002
+2.13553191489E+007, +1.32675506848E+001, +6.11862729738E+002
+2.14803504380E+007, +1.34899034105E+001, +6.15897275554E+002
+2.16053817272E+007, +1.57383802813E+001, +6.22700991843E+002
+2.17304130163E+007, +1.32624186822E+001, +6.26278451173E+002
+2.18554443054E+007, +1.42248800682E+001, +6.29981113277E+002
+2.19804755945E+007, +1.18476402648E+001, +6.35800638745E+002
+2.21055068836E+007, +1.75853390115E+001, +6.37806889971E+002
+2.22305381727E+007, +1.29845199958E+001, +6.44093638221E+002
+2.23555694618E+007, +1.46152391772E+001, +6.47202187076E+002
+2.24806007509E+007, +1.76623022125E+001, +6.53552777975E+002
+2.26056320401E+007, +1.68563554548E+001, +6.58046864333E+002
+2.27306633292E+007, +1.41751218816E+001, +6.60367811516E+002
+2.28556946183E+007, +1.71288591249E+001, +6.67366438666E+002
+2.29807259074E+007, +1.76704257277E+001, +6.70633518644E+002
+2.31057571965E+007, +1.80760706993E+001, +6.73960266721E+002
+2.32307884856E+007, +1.77439577374E+001, +6.77924503530E+002
+2.33558197747E+007, +1.64851211015E+001, +6.86401306691E+002
+2.34808510638E+007, +1.82458592175E+001, +6.87528831236E+002
+2.36058823529E+007, +1.89405748683E+001, +6.94064091930E+002
+2.37309136421E+007, +2.11823029063E+001, +6.98049316290E+002
+2.38559449312E+007, +1.96129754238E+001, +7.01858698355E+002
+2.39809762203E+007, +2.15252874323E+001, +7.06003376334E+002
+2.41060075094E+007, +1.89280840447E+001, +7.10517749249E+002
+2.42310387985E+007, +2.13199362698E+001, +7.15773625471E+002
+2.43560700876E+007, +2.16153219933E+001, +7.22558471926E+002
+2.44811013767E+007, +2.31906218758E+001, +7.25185144480E+002
+2.46061326658E+007, +2.31078571450E+001, +7.28749489139E+002
+2.47311639549E+007, +2.24877430564E+001, +7.30255012915E+002
+2.48561952441E+007, +2.21816002204E+001, +7.38589682916E+002
+2.49812265332E+007, +2.23316162537E+001, +7.41096764449E+002
+2.51062578223E+007, +2.50798636719E+001, +7.49297694888E+002
+2.52312891114E+007, +2.26891817652E+001, +7.50931232222E+002
+2.53563204005E+007, +2.30593326176E+001, +7.58720723546E+002
+2.54813516896E+007, +2.20153803501E+001, +7.60711079238E+002
+2.56063829787E+007, +2.50629034791E+001, +7.65054588452E+002
+2.57314142678E+007, +2.78256244759E+001, +7.71876151977E+002
+2.58564455569E+007, +2.49071468066E+001, +7.75430987788E+002
+2.59814768461E+007, +2.72003709079E+001, +7.79803265532E+002
+2.61065081352E+007, +2.87789076601E+001, +7.83246541776E+002
+2.62315394243E+007, +2.78647260035E+001, +7.91700830048E+002
+2.63565707134E+007, +2.79560446719E+001, +7.97842453378E+002
+2.64816020025E+007, +2.57599236898E+001, +7.99655806169E+002
+2.66066332916E+007, +3.09966829208E+001, +8.03000136486E+002
+2.67316645807E+007, +2.83331784784E+001, +8.09803640617E+002
+2.68566958698E+007, +2.93956722050E+001, +8.14351714812E+002
+2.69817271589E+007, +2.83925322375E+001, +8.17247852623E+002
+2.71067584481E+007, +3.26676957663E+001, +8.22231962199E+002
+2.72317897372E+007, +3.16881328346E+001, +8.28667022874E+002
+2.73568210263E+007, +3.33383219438E+001, +8.32474744751E+002
+2.74818523154E+007, +3.24099728851E+001, +8.43595576376E+002
+2.76068836045E+007, +3.31858504383E+001, +8.42591173916E+002
+2.77319148936E+007, +3.42931074207E+001, +8.45410905151E+002
+2.78569461827E+007, +3.12777745632E+001, +8.52455532069E+002
+2.79819774718E+007, +3.08641652614E+001, +8.53593759595E+002
+2.81070087610E+007, +3.23226775503E+001, +8.64264530159E+002
+2.82320400501E+007, +3.36332626453E+001, +8.67678969551E+002
+2.83570713392E+007, +3.19951212408E+001, +8.72829275202E+002
+2.84821026283E+007, +3.41243462894E+001, +8.76657904266E+002
+2.86071339174E+007, +2.90312080723E+001, +8.84563049424E+002
+2.87321652065E+007, +3.50906944156E+001, +8.88098009574E+002
+2.88571964956E+007, +2.97489223878E+001, +8.89278929644E+002
+2.89822277847E+007, +3.22616951183E+001, +8.97839220828E+002
+2.91072590738E+007, +3.17127389883E+001, +8.98811146746E+002
+2.92322903630E+007, +3.06729631652E+001, +9.10275557450E+002
+2.93573216521E+007, +3.74758518236E+001, +9.09130972432E+002
+2.94823529412E+007, +3.12249219203E+001, +9.23471276188E+002
+2.96073842303E+007, +3.34005378700E+001, +9.22033942666E+002
+2.97324155194E+007, +3.01806411618E+001, +9.25885467565E+002
+2.98574468085E+007, +3.11853362785E+001, +9.38561155378E+002
+2.99824780976E+007, +3.43830822490E+001, +9.34033567118E+002
+3.01075093867E+007, +3.59215022087E+001, +9.49491197526E+002
+3.02325406758E+007, +3.00528005336E+001, +9.53467145671E+002
+3.03575719650E+007, +2.93695587528E+001, +9.60760908574E+002
+3.04826032541E+007, +2.75505219717E+001, +9.64147774936E+002
+3.06076345432E+007, +3.31385066963E+001, +9.68637432270E+002
+3.07326658323E+007, +3.21096580154E+001, +9.80126702553E+002
+3.08576971214E+007, +2.79944634165E+001, +9.81934461217E+002
+3.09827284105E+007, +3.22617572903E+001, +9.92626335827E+002
+3.11077596996E+007, +2.34353198650E+001, +9.97582380218E+002
+3.12327909887E+007, +3.04749772745E+001, +1.00559321436E+003
+3.13578222778E+007, +2.42792358534E+001, +1.00957355356E+003
+3.14828535670E+007, +2.79626056593E+001, +1.01305759296E+003
+3.16078848561E+007, +2.96103059308E+001, +1.02461263915E+003
+3.17329161452E+007, +3.22292950928E+001, +1.02671935057E+003
+3.18579474343E+007, +3.04513663967E+001, +1.03361716722E+003
+3.19829787234E+007, +2.65186543634E+001, +1.04672468170E+003
+3.21080100125E+007, +3.13229468819E+001, +1.04308999521E+003
+3.22330413016E+007, +2.87086789245E+001, +1.05386682548E+003
+3.23580725907E+007, +2.60322340610E+001, +1.05491942906E+003
+3.24831038798E+007, +3.27847934648E+001, +1.07356233051E+003
+3.26081351690E+007, +3.18808825415E+001, +1.07350114074E+003
+3.27331664581E+007, +2.88973403623E+001, +1.08425026471E+003
+3.28581977472E+007, +3.33386580491E+001, +1.08840294397E+003
+3.29832290363E+007, +1.93223899266E+001, +1.09633288649E+003
+3.31082603254E+007, +3.12861119109E+001, +1.09817719676E+003
+3.32332916145E+007, +3.38463036926E+001, +1.11182797354E+003
+3.33583229036E+007, +2.80152123165E+001, +1.11930883007E+003
+3.34833541927E+007, +2.73209922325E+001, +1.11949206496E+003
+3.36083854819E+007, +2.62431350865E+001, +1.13686296134E+003
+3.37334167710E+007, +2.48638880998E+001, +1.13626180685E+003
+3.38584480601E+007, +2.56009253330E+001, +1.14420189040E+003
+3.39834793492E+007, +2.79997515487E+001, +1.14971202470E+003
+3.41085106383E+007, +3.36178731471E+001, +1.16775548469E+003
+3.42335419274E+007, +3.02657055579E+001, +1.16963339865E+003
+3.43585732165E+007, +2.78236947156E+001, +1.18239811171E+003
+3.44836045056E+007, +2.85048689543E+001, +1.18132778976E+003
+3.46086357947E+007, +3.51015068537E+001, +1.19239455945E+003
+3.47336670839E+007, +2.24801765564E+001, +1.19804182223E+003
+3.48586983730E+007, +3.16323440994E+001, +1.20760201139E+003
+3.49837296621E+007, +2.87503638046E+001, +1.21693607587E+003
+3.51087609512E+007, +1.86678721326E+001, +1.22378808852E+003
+3.52337922403E+007, +3.26678591594E+001, +1.23373936251E+003
+3.53588235294E+007, +3.50220314705E+001, +1.24163959948E+003
+3.54838548185E+007, +3.08779804680E+001, +1.25030236443E+003
+3.56088861076E+007, +3.35653964682E+001, +1.25908335306E+003
+3.57339173967E+007, +3.05576126841E+001, +1.27376194967E+003
+3.58589486859E+007, +3.29466010755E+001, +1.27170212550E+003
+3.59839799750E+007, +2.46421948349E+001, +1.29035483339E+003
+3.61090112641E+007, +2.85407070678E+001, +1.29605450857E+003
+3.62340425532E+007, +3.10437986611E+001, +1.30667012681E+003
+3.63590738423E+007, +3.59323551331E+001, +1.30877103453E+003
+3.64841051314E+007, +2.35559131505E+001, +1.32195567179E+003
+3.66091364205E+007, +3.00409500656E+001, +1.33154457551E+003
+3.67341677096E+007, +3.60011292289E+001, +1.34384269603E+003
+3.68591989987E+007, +3.27780794754E+001, +1.35788110210E+003
+3.69842302879E+007, +3.08569346279E+001, +1.36820078799E+003
+3.71092615770E+007, +3.21796617931E+001, +1.37287769235E+003
+3.72342928661E+007, +2.87912261143E+001, +1.38685408574E+003
+3.73593241552E+007, +3.26049592960E+001, +1.38827784567E+003
+3.74843554443E+007, +4.10331671329E+001, +1.40951532916E+003
+3.76093867334E+007, +3.22366028947E+001, +1.41415046787E+003
+3.77344180225E+007, +3.53395913122E+001, +1.42620071615E+003
+3.78594493116E+007, +3.84766771650E+001, +1.42889279990E+003
+3.79844806008E+007, +3.47343152371E+001, +1.44468850754E+003
+3.81095118899E+007, +3.46013593032E+001, +1.46531634381E+003
+3.82345431790E+007, +3.51244158810E+001, +1.47320604843E+003
+3.83595744681E+007, +4.35034912593E+001, +1.47507685972E+003
+3.84846057572E+007, +4.22512189552E+001, +1.49751819403E+003
+3.86096370463E+007, +2.99913465721E+001, +1.51539708658E+003
+3.87346683354E+007, +3.29985917005E+001, +1.50613232167E+003
+3.88596996245E+007, +4.29569142072E+001, +1.53689185336E+003
+3.89847309136E+007, +5.65748328910E+001, +1.55258375700E+003
+3.91097622028E+007, +3.20747457405E+001, +1.55972850864E+003
+3.92347934919E+007, +5.28645943570E+001, +1.57260340090E+003
+3.93598247810E+007, +4.43662986672E+001, +1.58795753118E+003
+3.94848560701E+007, +4.98745196789E+001, +1.59629087621E+003
+3.96098873592E+007, +4.12521871870E+001, +1.61649312001E+003
+3.97349186483E+007, +3.49720850558E+001, +1.62372368389E+003
+3.98599499374E+007, +4.19150324773E+001, +1.63529037264E+003
+3.99849812265E+007, +6.09220219075E+001, +1.64789707951E+003
+4.01100125156E+007, +4.87342806071E+001, +1.67069955730E+003
