"# Channel 1"
"# Trace 1"
Frequency, Formatted Data, Formatted Data
+1.00000000000E+005, +1.30062186378E+002, +1.47681539895E+000
+2.25031289111E+005, +1.29763512980E+002, +6.14886032688E+000
+3.50062578223E+005, +1.29577247385E+002, +9.69521350905E+000
+4.75093867334E+005, +1.29681252342E+002, +1.26171007793E+001
+6.00125156446E+005, +1.29770995379E+002, +1.61086111069E+001
+7.25156445557E+005, +1.29760059460E+002, +1.92926395840E+001
+8.50187734668E+005, +1.30010441212E+002, +2.27680837068E+001
+9.75219023780E+005, +1.30055474190E+002, +2.60049000734E+001
+1.10025031289E+006, +1.30156317095E+002, +2.90624935324E+001
+1.22528160200E+006, +1.30064565224E+002, +3.23876252823E+001
+1.35031289111E+006, +1.30054985581E+002, +3.60694517463E+001
+1.47534418023E+006, +1.30257174427E+002, +3.90686071952E+001
+1.60037546934E+006, +1.30250931875E+002, +4.20919300880E+001
+1.72540675845E+006, +1.30564733043E+002, +4.55188495272E+001
+1.85043804756E+006, +1.30394567691E+002, +4.91343243626E+001
+1.97546933667E+006, +1.30565747641E+002, +5.21880154887E+001
+2.10050062578E+006, +1.30720938584E+002, +5.56734924970E+001
+2.22553191489E+006, +1.30550185403E+002, +5.89815490462E+001
+2.35056320401E+006, +1.30714682242E+002, +6.22971830210E+001
+2.47559449312E+006, +1.30809608116E+002, +6.52910966595E+001
+2.60062578223E+006, +1.30799462280E+002, +6.86263401103E+001
+2.72565707134E+006, +1.30950353998E+002, +7.20340659978E+001
+2.85068836045E+006, +1.31105637127E+002, +7.52287457038E+001
+2.97571964956E+006, +1.31071948583E+002, +7.82117241789E+001
+3.10075093867E+006, +1.31436816994E+002, +8.18067954471E+001
+3.22578222778E+006, +1.31322129668E+002, +8.49523956107E+001
+3.35081351690E+006, +1.31307638384E+002, +8.83840170367E+001
+3.47584480601E+006, +1.31271358697E+002, +9.11419261733E+001
+3.60087609512E+006, +1.31433114185E+002, +9.49114479049E+001
+3.72590738423E+006, +1.31436805802E+002, +9.79670393117E+001
+3.85093867334E+006, +1.31465829279E+002, +1.01164150692E+002
+3.97596996245E+006, +1.31725583290E+002, +1.04871166540E+002
+4.10100125156E+006, +1.31571635294E+002, +1.08019389131E+002
+4.22603254068E+006, +1.31874671042E+002, +1.11439029466E+002
+4.35106382979E+006, +1.31847408222E+002, +1.14556983382E+002
+4.47609511890E+006, +1.32180100965E+002, +1.17711155967E+002
+4.60112640801E+006, +1.32143039748E+002, +1.20957510382E+002
+4.72615769712E+006, +1.32381846323E+002, +1.24437270701E+002
+4.85118898623E+006, +1.32378409769E+002, +1.27825399022E+002
+4.97622027534E+006, +1.32661572323E+002, +1.31210733939E+002
+5.10125156446E+006, +1.32453160478E+002, +1.34731296326E+002
+5.22628285357E+006, +1.32771280744E+002, +1.37896487550E+002
+5.35131414268E+006, +1.32645686931E+002, +1.40863886342E+002
+5.47634543179E+006, +1.33180710477E+002, +1.45004428292E+002
+5.60137672090E+006, +1.32792250459E+002, +1.47556699609E+002
+5.72640801001E+006, +1.33433142740E+002, +1.50699597200E+002
+5.85143929912E+006, +1.33419300778E+002, +1.54555760379E+002
+5.97647058824E+006, +1.33755072345E+002, +1.57516525523E+002
+6.10150187735E+006, +1.33827605665E+002, +1.61404423575E+002
+6.22653316646E+006, +1.34126280720E+002, +1.64321363218E+002
+6.35156445557E+006, +1.34350926187E+002, +1.67798819609E+002
+6.47659574468E+006, +1.34422347692E+002, +1.71099781787E+002
+6.60162703379E+006, +1.34372553657E+002, +1.74509376843E+002
+6.72665832290E+006, +1.34818976902E+002, +1.77703030475E+002
+6.85168961202E+006, +1.34948154747E+002, +1.80866072664E+002
+6.97672090113E+006, +1.35194735310E+002, +1.84684170282E+002
+7.10175219024E+006, +1.35404952514E+002, +1.87959151143E+002
+7.22678347935E+006, +1.35685319503E+002, +1.91552778221E+002
+7.35181476846E+006, +1.35873803187E+002, +1.94666188399E+002
+7.47684605757E+006, +1.36037247500E+002, +1.98405676778E+002
+7.60187734668E+006, +1.36309210815E+002, +2.01748831535E+002
+7.72690863579E+006, +1.36228636216E+002, +2.05189683634E+002
+7.85193992491E+006, +1.36686567518E+002, +2.08547637081E+002
+7.97697121402E+006, +1.37112968553E+002, +2.12218542966E+002
+8.10200250313E+006, +1.37181673411E+002, +2.15314064586E+002
+8.22703379224E+006, +1.37407229121E+002, +2.19043974848E+002
+8.35206508135E+006, +1.37223886965E+002, +2.22751511424E+002
+8.47709637046E+006, +1.37269315543E+002, +2.26317247168E+002
+8.60212765957E+006, +1.37848893104E+002, +2.29599082255E+002
+8.72715894869E+006, +1.38179710435E+002, +2.33476979986E+002
+8.85219023780E+006, +1.38229471661E+002, +2.36954806677E+002
+8.97722152691E+006, +1.38748432133E+002, +2.39896725393E+002
+9.10225281602E+006, +1.38768895506E+002, +2.44207554893E+002
+9.22728410513E+006, +1.39100797003E+002, +2.47042293229E+002
+9.35231539424E+006, +1.39681783787E+002, +2.51109917547E+002
+9.47734668335E+006, +1.38993328646E+002, +2.53695732226E+002
+9.60237797247E+006, +1.39824924259E+002, +2.58402430930E+002
+9.72740926158E+006, +1.40276189843E+002, +2.61583668295E+002
+9.85244055069E+006, +1.40688571187E+002, +2.65726805161E+002
+9.97747183980E+006, +1.40784609471E+002, +2.69301123019E+002
+1.01025031289E+007, +1.40679248681E+002, +2.72918699924E+002
+1.02275344180E+007, +1.41164840287E+002, +2.75589469997E+002
+1.03525657071E+007, +1.41093943695E+002, +2.80156982057E+002
+1.04775969962E+007, +1.41345149572E+002, +2.83645723612E+002
+1.06026282854E+007, +1.42019522739E+002, +2.87397107192E+002
+1.07276595745E+007, +1.42437581606E+002, +2.90751024075E+002
+1.08526908636E+007, +1.42445379177E+002, +2.94525038976E+002
+1.09777221527E+007, +1.43174628218E+002, +2.98190214773E+002
+1.11027534418E+007, +1.43554999748E+002, +3.02051653817E+002
+1.12277847309E+007, +1.43117509242E+002, +3.05872874109E+002
+1.13528160200E+007, +1.44153081268E+002, +3.09666064682E+002
+1.14778473091E+007, +1.43926408941E+002, +3.13103135536E+002
+1.16028785982E+007, +1.44409650489E+002, +3.17693018563E+002
+1.17279098874E+007, +1.45050587828E+002, +3.21555590772E+002
+1.18529411765E+007, +1.45263410258E+002, +3.25532594710E+002
+1.19779724656E+007, +1.45623481678E+002, +3.29123479347E+002
+1.21030037547E+007, +1.46553490869E+002, +3.32695040647E+002
+1.22280350438E+007, +1.46543605911E+002, +3.37516726010E+002
+1.23530663329E+007, +1.46121334882E+002, +3.40363501219E+002
+1.24780976220E+007, +1.47369098509E+002, +3.44599507327E+002
+1.26031289111E+007, +1.46446821025E+002, +3.48437891988E+002
+1.27281602003E+007, +1.47168676838E+002, +3.53004044929E+002
+1.28531914894E+007, +1.47449517400E+002, +3.56546982444E+002
+1.29782227785E+007, +1.48836415200E+002, +3.59633390966E+002
+1.31032540676E+007, +1.48595391388E+002, +3.64453845281E+002
+1.32282853567E+007, +1.49416687209E+002, +3.68885641235E+002
+1.33533166458E+007, +1.49514958297E+002, +3.72164420826E+002
+1.34783479349E+007, +1.50476223858E+002, +3.76168039072E+002
+1.36033792240E+007, +1.50594546043E+002, +3.80134423617E+002
+1.37284105131E+007, +1.50548300132E+002, +3.84628818583E+002
+1.38534418023E+007, +1.51293694666E+002, +3.88495752893E+002
+1.39784730914E+007, +1.50794970491E+002, +3.93388337493E+002
+1.41035043805E+007, +1.52962162878E+002, +3.97573591350E+002
+1.42285356696E+007, +1.53900684629E+002, +4.00841022497E+002
+1.43535669587E+007, +1.53811485903E+002, +4.04911227332E+002
+1.44785982478E+007, +1.53980745503E+002, +4.08815607380E+002
+1.46036295369E+007, +1.55342127971E+002, +4.13989371258E+002
+1.47286608260E+007, +1.55339582451E+002, +4.16931909960E+002
+1.48536921151E+007, +1.55236030829E+002, +4.22584991927E+002
+1.49787234043E+007, +1.56366327789E+002, +4.25992658064E+002
+1.51037546934E+007, +1.56063352105E+002, +4.30042104849E+002
+1.52287859825E+007, +1.56168142042E+002, +4.35065692617E+002
+1.53538172716E+007, +1.56899439812E+002, +4.38975739459E+002
+1.54788485607E+007, +1.57328317050E+002, +4.42924428993E+002
+1.56038798498E+007, +1.58918697578E+002, +4.48301134823E+002
+1.57289111389E+007, +1.57649701165E+002, +4.51251457525E+002
+1.58539424280E+007, +1.59549404452E+002, +4.55013850690E+002
+1.59789737171E+007, +1.59501532296E+002, +4.61733377019E+002
+1.61040050063E+007, +1.61163843893E+002, +4.65066283838E+002
+1.62290362954E+007, +1.62059817583E+002, +4.71080335466E+002
+1.63540675845E+007, +1.62134106318E+002, +4.73329605683E+002
+1.64790988736E+007, +1.61950274167E+002, +4.78472448631E+002
+1.66041301627E+007, +1.62316149764E+002, +4.84447060334E+002
+1.67291614518E+007, +1.62088986099E+002, +4.89203358782E+002
+1.68541927409E+007, +1.63216119042E+002, +4.93139677273E+002
+1.69792240300E+007, +1.63267289158E+002, +4.98354969052E+002
+1.71042553191E+007, +1.62619040937E+002, +5.03014104088E+002
+1.72292866083E+007, +1.63307332771E+002, +5.08227967727E+002
+1.73543178974E+007, +1.66878971502E+002, +5.12713134689E+002
+1.74793491865E+007, +1.66206213262E+002, +5.18497700446E+002
+1.76043804756E+007, +1.67531581325E+002, +5.21768774502E+002
+1.77294117647E+007, +1.66555337549E+002, +5.28016423788E+002
+1.78544430538E+007, +1.68708054878E+002, +5.31017223825E+002
+1.79794743429E+007, +1.68466925773E+002, +5.35831054928E+002
+1.81045056320E+007, +1.70785465396E+002, +5.39751074814E+002
+1.82295369212E+007, +1.68545874187E+002, +5.45529732440E+002
+1.83545682103E+007, +1.71820466746E+002, +5.51293095791E+002
+1.84795994994E+007, +1.72794300887E+002, +5.55403094424E+002
+1.86046307885E+007, +1.74966826794E+002, +5.60964610544E+002
+1.87296620776E+007, +1.73489571999E+002, +5.65336355653E+002
+1.88546933667E+007, +1.74569779515E+002, +5.71171534470E+002
+1.89797246558E+007, +1.76113607868E+002, +5.77038400936E+002
+1.91047559449E+007, +1.77086591746E+002, +5.80379083686E+002
+1.92297872340E+007, +1.76761063874E+002, +5.86584310110E+002
+1.93548185232E+007, +1.79116666412E+002, +5.89803128687E+002
+1.94798498123E+007, +1.79373234119E+002, +5.96341389073E+002
+1.96048811014E+007, +1.80301583617E+002, +6.01902844835E+002
+1.97299123905E+007, +1.80598718769E+002, +6.05974052517E+002
+1.98549436796E+007, +1.82079744517E+002, +6.13932336430E+002
+1.99799749687E+007, +1.82816705507E+002, +6.19151292092E+002
+2.01050062578E+007, +1.84100405357E+002, +6.23470814107E+002
+2.02300375469E+007, +1.85458590447E+002, +6.28332099659E+002
+2.03550688360E+007, +1.82116015489E+002, +6.35228318362E+002
+2.04801001252E+007, +1.86300101225E+002, +6.40850411328E+002
+2.06051314143E+007, +1.85869843312E+002, +6.46960238894E+002
+2.07301627034E+007, +1.87539280068E+002, +6.49119319773E+002
+2.08551939925E+007, +1.89868985954E+002, +6.58492547508E+002
+2.09802252816E+007, +1.89029643869E+002, +6.60143947146E+002
+2.11052565707E+007, +1.90493949668E+002, +6.67707952954E+002
+2.12302878598E+007, +1.92003621496E+002, +6.75488467424E+002
+2.13553191489E+007, +1.94056290207E+002, +6.75363201004E+002
+2.14803504380E+007, +1.94412718325E+002, +6.86159883059E+002
+2.16053817272E+007, +1.96123935447E+002, +6.90920729218E+002
+2.17304130163E+007, +1.96433906387E+002, +6.94258313450E+002
+2.18554443054E+007, +1.96718055653E+002, +7.02244047260E+002
+2.19804755945E+007, +1.98155085230E+002, +7.09038903964E+002
+2.21055068836E+007, +1.99638738368E+002, +7.15922506726E+002
+2.22305381727E+007, +2.01933719282E+002, +7.24149992136E+002
+2.23555694618E+007, +2.02151389559E+002, +7.27189530905E+002
+2.24806007509E+007, +2.03723696074E+002, +7.30709620108E+002
+2.26056320401E+007, +2.04749788535E+002, +7.39998584601E+002
+2.27306633292E+007, +2.06092971368E+002, +7.45438989027E+002
+2.28556946183E+007, +2.04907839453E+002, +7.52608949914E+002
+2.29807259074E+007, +2.08343713065E+002, +7.59389333428E+002
+2.31057571965E+007, +2.11179778995E+002, +7.66926511699E+002
+2.32307884856E+007, +2.13106549451E+002, +7.75702116552E+002
+2.33558197747E+007, +2.13532812227E+002, +7.75245946994E+002
+2.34808510638E+007, +2.14025340454E+002, +7.81956277920E+002
+2.36058823529E+007, +2.16782508683E+002, +7.91971069639E+002
+2.37309136421E+007, +2.15505583629E+002, +8.01001867887E+002
+2.38559449312E+007, +2.22552931040E+002, +8.05500812707E+002
+2.39809762203E+007, +2.24204839660E+002, +8.15285610969E+002
+2.41060075094E+007, +2.19584023563E+002, +8.19429297087E+002
+2.42310387985E+007, +2.24824330359E+002, +8.25442473461E+002
+2.43560700876E+007, +2.25993962363E+002, +8.34998150695E+002
+2.44811013767E+007, +2.28104122616E+002, +8.40447913971E+002
+2.46061326658E+007, +2.30803444846E+002, +8.48121743342E+002
+2.47311639549E+007, +2.26347289872E+002, +8.53600169770E+002
+2.48561952441E+007, +2.33497703871E+002, +8.62271503638E+002
+2.49812265332E+007, +2.33179872925E+002, +8.72907289740E+002
+2.51062578223E+007, +2.39371473719E+002, +8.79179157683E+002
+2.52312891114E+007, +2.38979884808E+002, +8.86327759969E+002
+2.53563204005E+007, +2.39510948535E+002, +8.94344930267E+002
+2.54813516896E+007, +2.42861225344E+002, +9.04496086733E+002
+2.56063829787E+007, +2.42366566070E+002, +9.08462176254E+002
+2.57314142678E+007, +2.44541880283E+002, +9.17987260463E+002
+2.58564455569E+007, +2.44187483161E+002, +9.21627455817E+002
+2.59814768461E+007, +2.49679737434E+002, +9.35581489579E+002
+2.61065081352E+007, +2.55788808119E+002, +9.42966457969E+002
+2.62315394243E+007, +2.54634750550E+002, +9.55466096968E+002
+2.63565707134E+007, +2.58407503641E+002, +9.57857648739E+002
+2.64816020025E+007, +2.60734260640E+002, +9.67308392833E+002
+2.66066332916E+007, +2.60200341085E+002, +9.72024117913E+002
+2.67316645807E+007, +2.64475492379E+002, +9.76522345309E+002
+2.68566958698E+007, +2.62902831148E+002, +9.96506909661E+002
+2.69817271589E+007, +2.66835967820E+002, +1.00226960118E+003
+2.71067584481E+007, +2.73420545781E+002, +1.01097498890E+003
+2.72317897372E+007, +2.75984982784E+002, +1.02145660848E+003
+2.73568210263E+007, +2.71941837347E+002, +1.02996598584E+003
+2.74818523154E+007, +2.76843106531E+002, +1.03886637731E+003
+2.76068836045E+007, +2.83413482478E+002, +1.04356362249E+003
+2.77319148936E+007, +2.85110216630E+002, +1.05724908144E+003
+2.78569461827E+007, +2.89526946307E+002, +1.06025601416E+003
+2.79819774718E+007, +2.87948986429E+002, +1.07212456503E+003
+2.81070087610E+007, +2.86952858697E+002, +1.08521908458E+003
+2.82320400501E+007, +2.93551339036E+002, +1.08941670804E+003
+2.83570713392E+007, +2.99186144044E+002, +1.10000965069E+003
+2.84821026283E+007, +3.02216933497E+002, +1.10869804541E+003
+2.86071339174E+007, +3.07467564909E+002, +1.12072520866E+003
+2.87321652065E+007, +3.07083940646E+002, +1.13340398291E+003
+2.88571964956E+007, +3.02900295053E+002, +1.14702186205E+003
+2.89822277847E+007, +3.07656000534E+002, +1.15272050862E+003
+2.91072590738E+007, +3.17760727769E+002, +1.17109395426E+003
+2.92322903630E+007, +3.10015918052E+002, +1.17877420062E+003
+2.93573216521E+007, +3.13289010752E+002, +1.18662317460E+003
+2.94823529412E+007, +3.19284914992E+002, +1.19953723731E+003
+2.96073842303E+007, +3.23977444478E+002, +1.20211008606E+003
+2.97324155194E+007, +3.30299469934E+002, +1.21613948411E+003
+2.98574468085E+007, +3.35242894606E+002, +1.23239694007E+003
+2.99824780976E+007, +3.27670791261E+002, +1.23957330807E+003
+3.01075093867E+007, +3.39741861399E+002, +1.25829710235E+003
+3.02325406758E+007, +3.49527982000E+002, +1.25827913655E+003
+3.03575719650E+007, +3.48727263320E+002, +1.27896651002E+003
+3.04826032541E+007, +3.57283282647E+002, +1.28851641107E+003
+3.06076345432E+007, +3.62533463968E+002, +1.30912823654E+003
+3.07326658323E+007, +3.59963443537E+002, +1.32306379167E+003
+3.08576971214E+007, +3.66350838627E+002, +1.33463841959E+003
+3.09827284105E+007, +3.71545944842E+002, +1.34829123344E+003
+3.11077596996E+007, +3.76795913386E+002, +1.37087194124E+003
+3.12327909887E+007, +3.80627502756E+002, +1.36392860129E+003
+3.13578222778E+007, +3.88647841391E+002, +1.38479420478E+003
+3.14828535670E+007, +3.93360845205E+002, +1.39327332179E+003
+3.16078848561E+007, +3.92415636871E+002, +1.41826524584E+003
+3.17329161452E+007, +3.95994685534E+002, +1.42512507722E+003
+3.18579474343E+007, +4.14012427955E+002, +1.44020378849E+003
+3.19829787234E+007, +4.11183886200E+002, +1.46255803243E+003
+3.21080100125E+007, +4.24028395054E+002, +1.47195402538E+003
+3.22330413016E+007, +4.25119318053E+002, +1.50599687883E+003
+3.23580725907E+007, +4.35145786523E+002, +1.50899143654E+003
+3.24831038798E+007, +4.28738332725E+002, +1.53491576509E+003
+3.26081351690E+007, +4.38530186355E+002, +1.55277490372E+003
+3.27331664581E+007, +4.42620225347E+002, +1.55165504352E+003
+3.28581977472E+007, +4.61833422207E+002, +1.58033958605E+003
+3.29832290363E+007, +4.59338045197E+002, +1.59886204807E+003
+3.31082603254E+007, +4.72655228263E+002, +1.61356993360E+003
+3.32332916145E+007, +4.67644279101E+002, +1.61971533720E+003
+3.33583229036E+007, +4.76375956795E+002, +1.64439864040E+003
+3.34833541927E+007, +4.97952550605E+002, +1.66603470992E+003
+3.36083854819E+007, +5.08898166017E+002, +1.66991291632E+003
+3.37334167710E+007, +4.92870318303E+002, +1.71159222380E+003
+3.38584480601E+007, +5.11683509464E+002, +1.72027389864E+003
+3.39834793492E+007, +5.28040845247E+002, +1.74962140781E+003
+3.41085106383E+007, +5.33162374952E+002, +1.75978920368E+003
+3.42335419274E+007, +5.33780036211E+002, +1.79319442204E+003
+3.43585732165E+007, +5.54965857802E+002, +1.80331191565E+003
+3.44836045056E+007, +5.49352286579E+002, +1.81477694490E+003
+3.46086357947E+007, +5.70126655532E+002, +1.85177062050E+003
+3.47336670839E+007, +5.90086950928E+002, +1.87785377005E+003
+3.48586983730E+007, +5.90986991573E+002, +1.88009391395E+003
+3.49837296621E+007, +6.15831137739E+002, +1.92049837771E+003
+3.51087609512E+007, +6.12918914248E+002, +1.94174478817E+003
+3.52337922403E+007, +6.34171830656E+002, +1.95754604142E+003
+3.53588235294E+007, +6.43606682286E+002, +1.97165545757E+003
+3.54838548185E+007, +6.72983294354E+002, +2.02379100113E+003
+3.56088861076E+007, +6.57268865792E+002, +2.02845355682E+003
+3.57339173967E+007, +6.93506994236E+002, +2.06351828403E+003
+3.58589486859E+007, +6.99882750864E+002, +2.08685294274E+003
+3.59839799750E+007, +6.95282908754E+002, +2.10170643896E+003
+3.61090112641E+007, +7.23820278241E+002, +2.13187267638E+003
+3.62340425532E+007, +7.46865416343E+002, +2.17217303167E+003
+3.63590738423E+007, +7.54614197538E+002, +2.20930620309E+003
+3.64841051314E+007, +7.73017832884E+002, +2.22302216365E+003
+3.66091364205E+007, +7.95087810641E+002, +2.24531893633E+003
+3.67341677096E+007, +8.10950319100E+002, +2.28657102423E+003
+3.68591989987E+007, +8.42667704871E+002, +2.31697303862E+003
+3.69842302879E+007, +8.64957660185E+002, +2.33343341413E+003
+3.71092615770E+007, +8.84984090731E+002, +2.40272318547E+003
+3.72342928661E+007, +8.67235385567E+002, +2.40647765465E+003
+3.73593241552E+007, +9.06022993622E+002, +2.47883687013E+003
+3.74843554443E+007, +9.23150410242E+002, +2.49273346211E+003
+3.76093867334E+007, +9.71188436703E+002, +2.50332214274E+003
+3.77344180225E+007, +9.72601453936E+002, +2.52274024370E+003
+3.78594493116E+007, +1.06205495882E+003, +2.61613324085E+003
+3.79844806008E+007, +1.03065932163E+003, +2.61527182155E+003
+3.81095118899E+007, +1.05511654814E+003, +2.63433014589E+003
+3.82345431790E+007, +1.16537909213E+003, +2.66000464882E+003
+3.83595744681E+007, +1.16445533214E+003, +2.76027088080E+003
+3.84846057572E+007, +1.21408842612E+003, +2.78237445293E+003
+3.86096370463E+007, +1.18822266517E+003, +2.83820307698E+003
+3.87346683354E+007, +1.29838848808E+003, +2.81461681656E+003
+3.88596996245E+007, +1.37604011280E+003, +2.96095514779E+003
+3.89847309136E+007, +1.40795024730E+003, +2.96853493593E+003
+3.91097622028E+007, +1.42980370795E+003, +2.98251899059E+003
+3.92347934919E+007, +1.45170458458E+003, +2.99301750946E+003
+3.93598247810E+007, +1.48562658257E+003, +3.10382942034E+003
+3.94848560701E+007, +1.53803948505E+003, +3.19844792974E+003
+3.96098873592E+007, +1.60825252408E+003, +3.15504195237E+003
+3.97349186483E+007, +1.69520219056E+003, +3.23999420019E+003
+3.98599499374E+007, +1.69914614480E+003, +3.27293733782E+003
+3.99849812265E+007, +1.75961072870E+003, +3.31931891421E+003
+4.01100125156E+007, +1.89085111655E+003, +3.41120261546E+003
