"# Channel 1"
"# Trace 1"
Frequency, Formatted Data, Formatted Data
+1.00000000000E+005, +8.51442883424E-001, +2.58248822420E+000
+2.25031289111E+005, +8.58374405274E-001, +5.81502376583E+000
+3.50062578223E+005, +8.73559301062E-001, +9.03242617486E+000
+4.75093867334E+005, +8.83390521176E-001, +1.23096673209E+001
+6.00125156446E+005, +9.02545380261E-001, +1.55326169202E+001
+7.25156445557E+005, +9.68679972832E-001, +1.87224179680E+001
+8.50187734668E+005, +1.02574259964E+000, +2.19105984121E+001
+9.75219023780E+005, +1.01390678142E+000, +2.51101373628E+001
+1.10025031289E+006, +1.08930839796E+000, +2.82901588647E+001
+1.22528160200E+006, +1.13575656371E+000, +3.15128478382E+001
+1.35031289111E+006, +1.12797529416E+000, +3.47508788479E+001
+1.47534418023E+006, +1.19749989358E+000, +3.78722443083E+001
+1.60037546934E+006, +1.17398113362E+000, +4.10057386525E+001
+1.72540675845E+006, +1.26480158298E+000, +4.42240773038E+001
+1.85043804756E+006, +1.31287946328E+000, +4.73341784396E+001
+1.97546933667E+006, +1.27750100720E+000, +5.05066686160E+001
+2.10050062578E+006, +1.30529229816E+000, +5.37157276499E+001
+2.22553191489E+006, +1.25377453871E+000, +5.69601350709E+001
+2.35056320401E+006, +1.23995947085E+000, +6.01240701417E+001
+2.47559449312E+006, +1.26312489268E+000, +6.32127670193E+001
+2.60062578223E+006, +1.33117156281E+000, +6.63934889822E+001
+2.72565707134E+006, +1.42884565843E+000, +6.95859623420E+001
+2.85068836045E+006, +1.34759095201E+000, +7.28404190543E+001
+2.97571964956E+006, +1.40596318685E+000, +7.59912524153E+001
+3.10075093867E+006, +1.33765968051E+000, +7.92735586713E+001
+3.22578222778E+006, +1.39378957940E+000, +8.23510408129E+001
+3.35081351690E+006, +1.57247409532E+000, +8.56720525727E+001
+3.47584480601E+006, +1.56876692759E+000, +8.86353942348E+001
+3.60087609512E+006, +1.62951200400E+000, +9.19162688232E+001
+3.72590738423E+006, +1.48947358667E+000, +9.53293938789E+001
+3.85093867334E+006, +1.59749533532E+000, +9.83701582571E+001
+3.97596996245E+006, +1.61041534129E+000, +1.01569461761E+002
+4.10100125156E+006, +1.43633147088E+000, +1.05044351602E+002
+4.22603254068E+006, +1.55129180406E+000, +1.07809121739E+002
+4.35106382979E+006, +1.55661279421E+000, +1.11296155053E+002
+4.47609511890E+006, +1.57512061953E+000, +1.14435115246E+002
+4.60112640801E+006, +1.50375785724E+000, +1.17706671903E+002
+4.72615769712E+006, +1.49052749068E+000, +1.20974387047E+002
+4.85118898623E+006, +1.68081417396E+000, +1.24203076002E+002
+4.97622027534E+006, +1.35208181331E+000, +1.27344539017E+002
+5.10125156446E+006, +1.45848750887E+000, +1.30500639956E+002
+5.22628285357E+006, +1.63223393833E+000, +1.33766643580E+002
+5.35131414268E+006, +1.67292968501E+000, +1.37220504603E+002
+5.47634543179E+006, +1.76995863390E+000, +1.40316295178E+002
+5.60137672090E+006, +1.72647566174E+000, +1.43998219363E+002
+5.72640801001E+006, +1.54786547161E+000, +1.46898887178E+002
+5.85143929912E+006, +1.70104695390E+000, +1.50334020051E+002
+5.97647058824E+006, +1.64237784895E+000, +1.53504149971E+002
+6.10150187735E+006, +1.73537411864E+000, +1.56888968501E+002
+6.22653316646E+006, +2.07220591511E+000, +1.60059796590E+002
+6.35156445557E+006, +1.92643429777E+000, +1.63474099501E+002
+6.47659574468E+006, +2.11624251304E+000, +1.67040104118E+002
+6.60162703379E+006, +1.84826725192E+000, +1.70306490522E+002
+6.72665832290E+006, +1.93489568803E+000, +1.73416962274E+002
+6.85168961202E+006, +1.91473101759E+000, +1.77026999168E+002
+6.97672090113E+006, +1.99377102576E+000, +1.80224054481E+002
+7.10175219024E+006, +2.06474329982E+000, +1.83472251452E+002
+7.22678347935E+006, +2.02847696036E+000, +1.86713944565E+002
+7.35181476846E+006, +2.03471944315E+000, +1.90074891154E+002
+7.47684605757E+006, +2.05283241779E+000, +1.93519252804E+002
+7.60187734668E+006, +2.06110461737E+000, +1.96581882299E+002
+7.72690863579E+006, +2.19053282826E+000, +1.99895387931E+002
+7.85193992491E+006, +2.30419786244E+000, +2.03637789065E+002
+7.97697121402E+006, +2.36163653536E+000, +2.06941300251E+002
+8.10200250313E+006, +2.21413787107E+000, +2.10501432674E+002
+8.22703379224E+006, +2.20242425647E+000, +2.13872389197E+002
+8.35206508135E+006, +2.13562894919E+000, +2.17153455397E+002
+8.47709637046E+006, +2.33050967130E+000, +2.20479563140E+002
+8.60212765957E+006, +2.32864886681E+000, +2.23915015381E+002
+8.72715894869E+006, +2.11360011383E+000, +2.27585638959E+002
+8.85219023780E+006, +2.28082185307E+000, +2.31145503967E+002
+8.97722152691E+006, +2.34245409588E+000, +2.34531290593E+002
+9.10225281602E+006, +2.03242286681E+000, +2.38084558089E+002
+9.22728410513E+006, +2.36891728327E+000, +2.41231266667E+002
+9.35231539424E+006, +2.26531930351E+000, +2.45097771132E+002
+9.47734668335E+006, +1.99684185922E+000, +2.48417545080E+002
+9.60237797247E+006, +2.28580810265E+000, +2.51682812546E+002
+9.72740926158E+006, +2.08911392426E+000, +2.55603837501E+002
+9.85244055069E+006, +2.50225658326E+000, +2.58795636001E+002
+9.97747183980E+006, +1.98225936198E+000, +2.62297151456E+002
+1.01025031289E+007, +2.12357783264E+000, +2.65286995116E+002
+1.02275344180E+007, +2.76568412988E+000, +2.69884309990E+002
+1.03525657071E+007, +2.11194357110E+000, +2.73026504564E+002
+1.04775969962E+007, +2.35669844497E+000, +2.76558313123E+002
+1.06026282854E+007, +2.28608234892E+000, +2.79907030974E+002
+1.07276595745E+007, +2.43720021019E+000, +2.83961289717E+002
+1.08526908636E+007, +2.60256369157E+000, +2.87432768417E+002
+1.09777221527E+007, +2.10220000449E+000, +2.91321440974E+002
+1.11027534418E+007, +2.40167255782E+000, +2.94955322628E+002
+1.12277847309E+007, +2.38610351220E+000, +2.98219908991E+002
+1.13528160200E+007, +1.74059012255E+000, +3.02135806359E+002
+1.14778473091E+007, +2.25373541006E+000, +3.05571146195E+002
+1.16028785982E+007, +1.76458764278E+000, +3.09357025758E+002
+1.17279098874E+007, +2.22687534824E+000, +3.13385318969E+002
+1.18529411765E+007, +2.24649534275E+000, +3.16634079901E+002
+1.19779724656E+007, +1.52618723479E+000, +3.20198193219E+002
+1.21030037547E+007, +1.98410242265E+000, +3.24429321405E+002
+1.22280350438E+007, +2.27649094733E+000, +3.27797953467E+002
+1.23530663329E+007, +2.25096725475E+000, +3.32275047116E+002
+1.24780976220E+007, +1.88883921560E+000, +3.35332387423E+002
+1.26031289111E+007, +1.83736894672E+000, +3.39334444786E+002
+1.27281602003E+007, +2.19868041277E+000, +3.42782901012E+002
+1.28531914894E+007, +2.04708418068E+000, +3.46939629398E+002
+1.29782227785E+007, +1.64037961508E+000, +3.50733510471E+002
+1.31032540676E+007, +2.41570417578E+000, +3.54814719606E+002
+1.32282853567E+007, +1.99009981365E+000, +3.58704258577E+002
+1.33533166458E+007, +2.38151095258E+000, +3.62037911061E+002
+1.34783479349E+007, +1.39322309651E+000, +3.66982638614E+002
+1.36033792240E+007, +2.22108727025E+000, +3.70475632366E+002
+1.37284105131E+007, +1.95717751671E+000, +3.74298739126E+002
+1.38534418023E+007, +2.21883921121E+000, +3.77615603238E+002
+1.39784730914E+007, +2.09761798686E+000, +3.81128391861E+002
+1.41035043805E+007, +1.86992921448E+000, +3.86266715171E+002
+1.42285356696E+007, +2.59522141940E+000, +3.90140199808E+002
+1.43535669587E+007, +2.10473222452E+000, +3.93966068267E+002
+1.44785982478E+007, +1.71044549185E+000, +3.98127285127E+002
+1.46036295369E+007, +1.97940088343E+000, +4.01590499612E+002
+1.47286608260E+007, +8.84644026420E-001, +4.06944821179E+002
+1.48536921151E+007, +2.39307881502E+000, +4.10312800831E+002
+1.49787234043E+007, +2.23810366157E+000, +4.15082039615E+002
+1.51037546934E+007, +2.56022068389E+000, +4.17514588216E+002
+1.52287859825E+007, +1.96714735459E+000, +4.22109766605E+002
+1.53538172716E+007, +2.32382656435E+000, +4.26562310430E+002
+1.54788485607E+007, +1.22306450404E+000, +4.31421580068E+002
+1.56038798498E+007, +2.38845027323E+000, +4.34427004888E+002
+1.57289111389E+007, +1.12586089240E+000, +4.39308061434E+002
+1.58539424280E+007, +1.94600514027E+000, +4.42400470675E+002
+1.59789737171E+007, +2.23983268775E+000, +4.47651295858E+002
+1.61040050063E+007, +1.67409429054E+000, +4.51647174206E+002
+1.62290362954E+007, +2.15598936311E+000, +4.56607212178E+002
+1.63540675845E+007, +1.96303459447E+000, +4.60565339720E+002
+1.64790988736E+007, +7.96235633907E-001, +4.64551067788E+002
+1.66041301627E+007, +4.36861729608E-001, +4.69521382903E+002
+1.67291614518E+007, +1.35688136565E+000, +4.74385310938E+002
+1.68541927409E+007, +1.69394117101E+000, +4.79343148030E+002
+1.69792240300E+007, -1.69434304761E-001, +4.83171863060E+002
+1.71042553191E+007, -7.24421894493E-001, +4.88428770990E+002
+1.72292866083E+007, +3.66919116339E-001, +4.90670781238E+002
+1.73543178974E+007, +1.71789554759E-001, +4.97412737134E+002
+1.74793491865E+007, -1.08763830391E+000, +5.01291727930E+002
+1.76043804756E+007, +9.02472528647E-002, +5.05875073515E+002
+1.77294117647E+007, -3.40017464776E-001, +5.09684196471E+002
+1.78544430538E+007, +1.38257539181E+000, +5.14809424561E+002
+1.79794743429E+007, +1.60190747609E+000, +5.18844329517E+002
+1.81045056320E+007, +9.99430655326E-002, +5.26037878020E+002
+1.82295369212E+007, +5.06740626996E-001, +5.27410824713E+002
+1.83545682103E+007, +1.17498218303E+000, +5.34473601912E+002
+1.84795994994E+007, +2.94792066132E+000, +5.38049430604E+002
+1.86046307885E+007, +1.79613876206E+000, +5.43511441636E+002
+1.87296620776E+007, +1.20163466074E+000, +5.47996164518E+002
+1.88546933667E+007, +4.13153585481E-001, +5.52629882587E+002
+1.89797246558E+007, +1.03781205828E+000, +5.56452661748E+002
+1.91047559449E+007, +2.65299224398E+000, +5.62096881002E+002
+1.92297872340E+007, +7.88640484640E-001, +5.69678534306E+002
+1.93548185232E+007, +1.18761526672E+000, +5.73551470553E+002
+1.94798498123E+007, +5.12955563493E-001, +5.77017270374E+002
+1.96048811014E+007, +2.23230081230E+000, +5.82299767245E+002
+1.97299123905E+007, -4.90649143257E-001, +5.86858305541E+002
+1.98549436796E+007, +6.64015184534E-001, +5.94582690212E+002
+1.99799749687E+007, +1.55182744562E+000, +5.98114274475E+002
+2.01050062578E+007, +1.07981224143E-001, +6.04402533590E+002
+2.02300375469E+007, +1.82129053240E+000, +6.09684771724E+002
+2.03550688360E+007, +1.07488080695E+000, +6.16040580266E+002
+2.04801001252E+007, -1.31051235001E+000, +6.21241327231E+002
+2.06051314143E+007, +8.05743717430E-001, +6.26396030693E+002
+2.07301627034E+007, +1.34744512136E+000, +6.29943887593E+002
+2.08551939925E+007, +1.93948315671E+000, +6.37230538047E+002
+2.09802252816E+007, +1.32874184736E+000, +6.40175273820E+002
+2.11052565707E+007, +1.51950377765E+000, +6.48439240266E+002
+2.12302878598E+007, +2.15278389327E+000, +6.53127735112E+002
+2.13553191489E+007, +3.03826429527E+000, +6.54657202829E+002
+2.14803504380E+007, +2.66407123802E+000, +6.62971871217E+002
+2.16053817272E+007, +2.23828660344E+000, +6.69012228933E+002
+2.17304130163E+007, +8.68964011056E-001, +6.76237420988E+002
+2.18554443054E+007, +4.35749706470E+000, +6.82238369524E+002
+2.19804755945E+007, +4.67698254558E+000, +6.88615085661E+002
+2.21055068836E+007, +3.60513662370E+000, +6.94512902079E+002
+2.22305381727E+007, +4.09295661889E+000, +6.99123620365E+002
+2.23555694618E+007, +5.38975529697E+000, +7.06381216290E+002
+2.24806007509E+007, +6.33957816806E+000, +7.11272595786E+002
+2.26056320401E+007, +8.21016280905E+000, +7.17781974128E+002
+2.27306633292E+007, +6.23258024816E+000, +7.21537269196E+002
+2.28556946183E+007, +3.71340598784E+000, +7.28113553851E+002
+2.29807259074E+007, +6.87126533304E+000, +7.37574772889E+002
+2.31057571965E+007, +3.80014166278E+000, +7.41909716654E+002
+2.32307884856E+007, +7.35829007092E+000, +7.51377775450E+002
+2.33558197747E+007, +9.11361626430E+000, +7.52116212839E+002
+2.34808510638E+007, +7.67097864106E+000, +7.59941451685E+002
+2.36058823529E+007, +7.55899890967E+000, +7.65975060569E+002
+2.37309136421E+007, +1.09689417105E+001, +7.71755870945E+002
+2.38559449312E+007, +9.42266410778E+000, +7.83677617474E+002
+2.39809762203E+007, +9.52641801963E+000, +7.83486603856E+002
+2.41060075094E+007, +1.00594376452E+001, +7.89617639839E+002
+2.42310387985E+007, +1.00437865564E+001, +7.95963568148E+002
+2.43560700876E+007, +1.23143886072E+001, +7.99673722169E+002
+2.44811013767E+007, +9.03470737992E+000, +8.08905916056E+002
+2.46061326658E+007, +1.08117686367E+001, +8.16997764330E+002
+2.47311639549E+007, +9.79373792969E+000, +8.18655935420E+002
+2.48561952441E+007, +1.06797030988E+001, +8.28792579381E+002
+2.49812265332E+007, +1.04950715976E+001, +8.36849924312E+002
+2.51062578223E+007, +1.31717849395E+001, +8.36741794574E+002
+2.52312891114E+007, +1.04581214284E+001, +8.45565181527E+002
+2.53563204005E+007, +7.74734177983E+000, +8.55772457817E+002
+2.54813516896E+007, +6.62326171980E+000, +8.58970524654E+002
+2.56063829787E+007, +8.50618261498E+000, +8.67483545113E+002
+2.57314142678E+007, +7.44985257632E+000, +8.77777666369E+002
+2.58564455569E+007, +8.37838946588E+000, +8.79240764010E+002
+2.59814768461E+007, +1.21414576546E+001, +8.91371305755E+002
+2.61065081352E+007, +6.52164259649E+000, +8.98035278297E+002
+2.62315394243E+007, +5.21487299765E+000, +9.06014087192E+002
+2.63565707134E+007, +6.05079866886E+000, +9.16223393880E+002
+2.64816020025E+007, +3.82041276428E+000, +9.19992046043E+002
+2.66066332916E+007, +1.11411141221E+001, +9.27442445089E+002
+2.67316645807E+007, +9.12109380992E+000, +9.33767013482E+002
+2.68566958698E+007, +1.12372201147E+001, +9.47657231294E+002
+2.69817271589E+007, +4.28822156861E+000, +9.54836565634E+002
+2.71067584481E+007, +6.43920386922E+000, +9.63017104911E+002
+2.72317897372E+007, +7.33756262331E+000, +9.70771434824E+002
+2.73568210263E+007, +1.48769151350E+001, +9.75886219236E+002
+2.74818523154E+007, +1.22675475928E+001, +9.85679996683E+002
+2.76068836045E+007, +1.18976955399E+001, +9.93652626779E+002
+2.77319148936E+007, +9.22403819984E+000, +1.00095704044E+003
+2.78569461827E+007, +7.28006495441E+000, +1.00911436085E+003
+2.79819774718E+007, +1.02724381152E+001, +1.02246916642E+003
+2.81070087610E+007, +1.19433139944E+001, +1.02803395445E+003
+2.82320400501E+007, +1.43525417058E+000, +1.03796042576E+003
+2.83570713392E+007, +2.66599470232E+000, +1.04367573482E+003
+2.84821026283E+007, +6.92662330441E+000, +1.05508449321E+003
+2.86071339174E+007, +8.84700051244E-001, +1.06692838235E+003
+2.87321652065E+007, +4.58125539884E+000, +1.07251512570E+003
+2.88571964956E+007, +7.22190130063E+000, +1.08313812040E+003
+2.89822277847E+007, +5.89469145824E+000, +1.09738735286E+003
+2.91072590738E+007, +5.40038148459E+000, +1.10687184063E+003
+2.92322903630E+007, +3.50940413533E+000, +1.11535030381E+003
+2.93573216521E+007, +2.48092178856E+000, +1.12565638985E+003
+2.94823529412E+007, +8.06029062582E+000, +1.13556549193E+003
+2.96073842303E+007, -9.23417459189E-001, +1.14896950267E+003
+2.97324155194E+007, -3.71093550120E-001, +1.16365846871E+003
+2.98574468085E+007, +2.48395249261E+000, +1.17251072303E+003
+2.99824780976E+007, -1.76908152593E+000, +1.18645294021E+003
+3.01075093867E+007, +3.12245601800E+000, +1.18886237645E+003
+3.02325406758E+007, +3.25547228431E+000, +1.19860601166E+003
+3.03575719650E+007, +2.21658750399E+000, +1.20793712970E+003
+3.04826032541E+007, -1.14619882247E+000, +1.22578038703E+003
+3.06076345432E+007, +7.26232561212E+000, +1.22958763839E+003
+3.07326658323E+007, -4.91490321358E-001, +1.24835148785E+003
+3.08576971214E+007, -4.11156321888E-002, +1.25937837186E+003
+3.09827284105E+007, +4.44882401027E+000, +1.27613956276E+003
+3.11077596996E+007, -3.12570817894E+000, +1.28030365966E+003
+3.12327909887E+007, +8.05586106305E-002, +1.30103443237E+003
+3.13578222778E+007, +6.10422529133E+000, +1.31195511608E+003
+3.14828535670E+007, +2.70097855199E+000, +1.32225318229E+003
+3.16078848561E+007, +5.62317624239E+000, +1.33268974627E+003
+3.17329161452E+007, +8.68687340067E+000, +1.34872588163E+003
+3.18579474343E+007, -6.65405989993E+000, +1.36928993216E+003
+3.19829787234E+007, +3.71632734376E+000, +1.37844271297E+003
+3.21080100125E+007, +2.96322554348E+000, +1.39249385420E+003
+3.22330413016E+007, -4.94367976538E+000, +1.39357499897E+003
+3.23580725907E+007, -5.78065304757E+000, +1.41655556950E+003
+3.24831038798E+007, +4.38573010933E-001, +1.42554355207E+003
+3.26081351690E+007, +1.77783968199E-001, +1.44410975004E+003
+3.27331664581E+007, +5.35830643400E+000, +1.45954416854E+003
+3.28581977472E+007, -3.99988513966E+000, +1.48680820239E+003
+3.29832290363E+007, +2.40891158294E-001, +1.50489145790E+003
+3.31082603254E+007, -1.11351086302E+001, +1.51761548412E+003
+3.32332916145E+007, +1.54211129521E+001, +1.53051166680E+003
+3.33583229036E+007, -1.51098736948E+000, +1.54851812564E+003
+3.34833541927E+007, -9.16951201095E+000, +1.55704752502E+003
+3.36083854819E+007, +7.52475733840E+000, +1.57613177535E+003
+3.37334167710E+007, +2.16055846170E+000, +1.58618182062E+003
+3.38584480601E+007, -5.18393384909E+000, +1.60653945372E+003
+3.39834793492E+007, +7.95888162469E+000, +1.64124922619E+003
+3.41085106383E+007, +6.78116070983E+000, +1.64169504681E+003
+3.42335419274E+007, +6.88375536759E+000, +1.65000860126E+003
+3.43585732165E+007, +2.65871339854E+000, +1.68020594748E+003
+3.44836045056E+007, +2.52023597440E+001, +1.70694701976E+003
+3.46086357947E+007, +1.23889280835E+001, +1.72385110226E+003
+3.47336670839E+007, +1.49966194120E+001, +1.75179909120E+003
+3.48586983730E+007, +1.94032711430E+001, +1.75688968459E+003
+3.49837296621E+007, +2.12644301704E+001, +1.77713475917E+003
+3.51087609512E+007, +2.37232962113E+001, +1.81685602254E+003
+3.52337922403E+007, +1.65530448657E+001, +1.81964935037E+003
+3.53588235294E+007, -5.26827708378E+000, +1.85233604596E+003
+3.54838548185E+007, +1.54136860360E+001, +1.86058052124E+003
+3.56088861076E+007, +1.41756105296E+001, +1.89674433206E+003
+3.57339173967E+007, +1.64736332477E+001, +1.92540700695E+003
+3.58589486859E+007, -2.82320750025E+000, +1.93543515933E+003
+3.59839799750E+007, +2.68089955429E+001, +1.95446882628E+003
+3.61090112641E+007, +8.51558750948E+000, +2.00216709307E+003
+3.62340425532E+007, +5.78190376032E+000, +2.00760854151E+003
+3.63590738423E+007, +2.24778457186E+001, +2.03666127110E+003
+3.64841051314E+007, +2.24104293928E+001, +2.05724648278E+003
+3.66091364205E+007, +1.11330850160E+001, +2.08816167140E+003
+3.67341677096E+007, +1.90753489036E+001, +2.11448750075E+003
+3.68591989987E+007, +1.40355907472E+001, +2.15395896660E+003
+3.69842302879E+007, +3.15611629103E+001, +2.17824477153E+003
+3.71092615770E+007, +1.83605166911E+001, +2.20788504618E+003
+3.72342928661E+007, +2.20315109330E+001, +2.22510496417E+003
+3.73593241552E+007, -1.42869779099E+001, +2.30308855940E+003
+3.74843554443E+007, +2.04410341204E+001, +2.30237894898E+003
+3.76093867334E+007, -1.64513671223E+001, +2.31526834317E+003
+3.77344180225E+007, +2.34562816504E+001, +2.35593188812E+003
+3.78594493116E+007, +7.69237928497E+000, +2.40416612681E+003
+3.79844806008E+007, +1.15942470804E+001, +2.45400949649E+003
+3.81095118899E+007, +8.03679144016E+000, +2.48417143852E+003
+3.82345431790E+007, +4.09153613825E+001, +2.52812429628E+003
+3.83595744681E+007, +4.18064952620E+001, +2.53751078329E+003
+3.84846057572E+007, -1.09563481849E+000, +2.59627923883E+003
+3.86096370463E+007, +1.02869826565E+001, +2.66513846738E+003
+3.87346683354E+007, +7.04634879867E+001, +2.70866169256E+003
+3.88596996245E+007, +2.25931538011E+001, +2.72826916559E+003
+3.89847309136E+007, +6.45451392568E+001, +2.77660234617E+003
+3.91097622028E+007, +5.17380910393E+001, +2.84930795747E+003
+3.92347934919E+007, +5.39770957269E+001, +2.89221840299E+003
+3.93598247810E+007, +9.33212264873E+001, +2.91484850210E+003
+3.94848560701E+007, +2.97144518659E+001, +2.95521717720E+003
+3.96098873592E+007, +4.55105637717E+001, +3.01143329372E+003
+3.97349186483E+007, +1.22638255015E+002, +3.13291845588E+003
+3.98599499374E+007, +7.92707503885E+001, +3.13590594634E+003
+3.99849812265E+007, +6.76615630732E+001, +3.25923533599E+003
+4.01100125156E+007, +5.98243967915E+001, +3.29076404368E+003
