"# Channel 1"
"# Trace 1"
Frequency, Formatted Data, Formatted Data
+1.00000000000E+005, +6.50087492369E-001, +2.87082049112E+000
+2.87609511890E+005, +5.84560114721E-001, +7.78008207453E+000
+4.75219023780E+005, +7.37997427385E-001, +1.27674470613E+001
+6.62828535670E+005, +7.39835583885E-001, +1.78241439763E+001
+8.50438047559E+005, +7.67885262904E-001, +2.28028227829E+001
+1.03804755945E+006, +8.43491375673E-001, +2.77675872529E+001
+1.22565707134E+006, +8.56487143548E-001, +3.27396567391E+001
+1.41326658323E+006, +9.20401296572E-001, +3.77093492170E+001
+1.60087609512E+006, +9.63363888443E-001, +4.27391209042E+001
+1.78848560701E+006, +1.00598192798E+000, +4.76713768141E+001
+1.97609511890E+006, +9.65401013064E-001, +5.26417061282E+001
+2.16370463079E+006, +1.14948447367E+000, +5.76935254494E+001
+2.35131414268E+006, +1.08084982868E+000, +6.25057074017E+001
+2.53892365457E+006, +1.16132717750E+000, +6.76416787484E+001
+2.72653316646E+006, +1.14241804668E+000, +7.25858230054E+001
+2.91414267835E+006, +1.14138753562E+000, +7.74367399515E+001
+3.10175219024E+006, +1.29798795714E+000, +8.24360573414E+001
+3.28936170213E+006, +1.26782405514E+000, +8.75160068632E+001
+3.47697121402E+006, +1.37283473089E+000, +9.25160795578E+001
+3.66458072591E+006, +1.34385905413E+000, +9.74540616449E+001
+3.85219023780E+006, +1.50817428053E+000, +1.02459834133E+002
+4.03979974969E+006, +1.47279804207E+000, +1.07271173612E+002
+4.22740926158E+006, +1.34519965402E+000, +1.12401191438E+002
+4.41501877347E+006, +1.70062059118E+000, +1.17404457242E+002
+4.60262828536E+006, +1.61488636294E+000, +1.22391667887E+002
+4.79023779725E+006, +1.58678211695E+000, +1.27458620097E+002
+4.97784730914E+006, +1.68762239067E+000, +1.32396917325E+002
+5.16545682103E+006, +1.86606792951E+000, +1.37383543161E+002
+5.35306633292E+006, +2.01766250752E+000, +1.42357117375E+002
+5.54067584481E+006, +1.79164974466E+000, +1.47240344010E+002
+5.72828535670E+006, +1.97241575222E+000, +1.52290509122E+002
+5.91589486859E+006, +2.04208030936E+000, +1.57372909983E+002
+6.10350438048E+006, +1.87589599567E+000, +1.62302260844E+002
+6.29111389237E+006, +2.11535461275E+000, +1.67352524853E+002
+6.47872340426E+006, +2.32796630797E+000, +1.72459800313E+002
+6.66633291615E+006, +2.35553517560E+000, +1.77527850982E+002
+6.85394242804E+006, +2.48902626207E+000, +1.82448840611E+002
+7.04155193992E+006, +2.61070307488E+000, +1.87615892640E+002
+7.22916145181E+006, +2.66781598473E+000, +1.92675470187E+002
+7.41677096370E+006, +2.85537095392E+000, +1.97671260902E+002
+7.60438047559E+006, +2.83505744187E+000, +2.02693255061E+002
+7.79198998748E+006, +2.87675010965E+000, +2.07720703524E+002
+7.97959949937E+006, +3.02463261840E+000, +2.12936708951E+002
+8.16720901126E+006, +2.98000766830E+000, +2.17791761035E+002
+8.35481852315E+006, +3.15730441787E+000, +2.22912339178E+002
+8.54242803504E+006, +3.15186614905E+000, +2.28177906059E+002
+8.73003754693E+006, +3.25579042408E+000, +2.33238065427E+002
+8.91764705882E+006, +3.47015728540E+000, +2.38215889907E+002
+9.10525657071E+006, +3.53757382964E+000, +2.43291982440E+002
+9.29286608260E+006, +3.72518069670E+000, +2.48404395374E+002
+9.48047559449E+006, +3.59095850086E+000, +2.53751423433E+002
+9.66808510638E+006, +3.81179730077E+000, +2.58697360536E+002
+9.85569461827E+006, +3.72001324105E+000, +2.63860040128E+002
+1.00433041302E+007, +3.88268994873E+000, +2.68991460800E+002
+1.02309136421E+007, +3.89672345588E+000, +2.73905694199E+002
+1.04185231539E+007, +3.97666987551E+000, +2.78898135134E+002
+1.06061326658E+007, +4.18339435834E+000, +2.84082698675E+002
+1.07937421777E+007, +4.22131271767E+000, +2.89374234345E+002
+1.09813516896E+007, +4.32646952499E+000, +2.94647081019E+002
+1.11689612015E+007, +4.64216834632E+000, +2.99557450282E+002
+1.13565707134E+007, +4.29303622328E+000, +3.05015154494E+002
+1.15441802253E+007, +4.49751670895E+000, +3.10335501672E+002
+1.17317897372E+007, +4.58770261726E+000, +3.15150221686E+002
+1.19193992491E+007, +4.82809572868E+000, +3.20440734068E+002
+1.21070087610E+007, +4.92113142780E+000, +3.25712762485E+002
+1.22946182728E+007, +5.20582655473E+000, +3.30830090561E+002
+1.24822277847E+007, +4.96420484599E+000, +3.36222094325E+002
+1.26698372966E+007, +5.21879327253E+000, +3.41397764645E+002
+1.28574468085E+007, +5.11451476954E+000, +3.46665501629E+002
+1.30450563204E+007, +5.20432065683E+000, +3.51812805640E+002
+1.32326658323E+007, +5.56272254172E+000, +3.57190104853E+002
+1.34202753442E+007, +5.67448700258E+000, +3.62183210390E+002
+1.36078848561E+007, +5.77750518611E+000, +3.67574541608E+002
+1.37954943680E+007, +5.89709132714E+000, +3.72840201965E+002
+1.39831038798E+007, +5.83523242440E+000, +3.78001860120E+002
+1.41707133917E+007, +5.79273255836E+000, +3.83413653746E+002
+1.43583229036E+007, +6.08656040830E+000, +3.88643816807E+002
+1.45459324155E+007, +6.51206608189E+000, +3.93931152398E+002
+1.47335419274E+007, +6.48150304642E+000, +3.99205837318E+002
+1.49211514393E+007, +6.67797880454E+000, +4.04485911175E+002
+1.51087609512E+007, +6.46112953112E+000, +4.09678281350E+002
+1.52963704631E+007, +6.55992717230E+000, +4.15553507610E+002
+1.54839799750E+007, +6.86500258934E+000, +4.20880415060E+002
+1.56715894869E+007, +7.17199446432E+000, +4.25773671120E+002
+1.58591989987E+007, +7.19358269066E+000, +4.31513818210E+002
+1.60468085106E+007, +7.22986376795E+000, +4.37064756553E+002
+1.62344180225E+007, +7.34000651999E+000, +4.42349946664E+002
+1.64220275344E+007, +7.69312873406E+000, +4.47498114144E+002
+1.66096370463E+007, +7.88924331069E+000, +4.53259574116E+002
+1.67972465582E+007, +7.83324738624E+000, +4.58629915038E+002
+1.69848560701E+007, +7.95843901902E+000, +4.64273412710E+002
+1.71724655820E+007, +7.15797025707E+000, +4.69562347726E+002
+1.73600750939E+007, +7.76741700331E+000, +4.75642892077E+002
+1.75476846058E+007, +7.90346964757E+000, +4.80476057329E+002
+1.77352941176E+007, +8.47627412318E+000, +4.86127728455E+002
+1.79229036295E+007, +8.75822648660E+000, +4.92000416706E+002
+1.81105131414E+007, +8.63687938890E+000, +4.97331534162E+002
+1.82981226533E+007, +8.71246370425E+000, +5.02905002598E+002
+1.84857321652E+007, +9.22045394222E+000, +5.08151212522E+002
+1.86733416771E+007, +9.42089226600E+000, +5.14104167747E+002
+1.88609511890E+007, +9.18938473946E+000, +5.18990614069E+002
+1.90485607009E+007, +1.01262512880E+001, +5.25298542438E+002
+1.92361702128E+007, +1.03575150286E+001, +5.31053019359E+002
+1.94237797247E+007, +1.00538145186E+001, +5.36153171182E+002
+1.96113892365E+007, +1.01182295452E+001, +5.42464616978E+002
+1.97989987484E+007, +1.07225166775E+001, +5.47662642521E+002
+1.99866082603E+007, +1.08477832029E+001, +5.53029848999E+002
+2.01742177722E+007, +1.10406005430E+001, +5.59127605655E+002
+2.03618272841E+007, +1.15650837751E+001, +5.64498181023E+002
+2.05494367960E+007, +1.12307127291E+001, +5.70136410188E+002
+2.07370463079E+007, +1.15054113000E+001, +5.75999057807E+002
+2.09246558198E+007, +1.15425733988E+001, +5.81998159705E+002
+2.11122653317E+007, +1.13237926541E+001, +5.87900340711E+002
+2.12998748436E+007, +1.20824990513E+001, +5.93680301929E+002
+2.14874843554E+007, +1.21504184670E+001, +5.98991635537E+002
+2.16750938673E+007, +1.22676412116E+001, +6.04932884876E+002
+2.18627033792E+007, +1.22238075552E+001, +6.11225687017E+002
+2.20503128911E+007, +1.27376602720E+001, +6.16187366169E+002
+2.22379224030E+007, +1.29672268485E+001, +6.22848685229E+002
+2.24255319149E+007, +1.34230351558E+001, +6.28401683342E+002
+2.26131414268E+007, +1.40317959266E+001, +6.33195993473E+002
+2.28007509387E+007, +1.40392855529E+001, +6.40759863857E+002
+2.29883604506E+007, +1.40320094114E+001, +6.45954749961E+002
+2.31759699625E+007, +1.43030718036E+001, +6.52545879319E+002
+2.33635794743E+007, +1.55581614664E+001, +6.57409707279E+002
+2.35511889862E+007, +1.55741181511E+001, +6.63412700339E+002
+2.37387984981E+007, +1.48330089913E+001, +6.70266123189E+002
+2.39264080100E+007, +1.55948795290E+001, +6.76484709495E+002
+2.41140175219E+007, +1.61564383031E+001, +6.82136546548E+002
+2.43016270338E+007, +1.65447608095E+001, +6.88140825012E+002
+2.44892365457E+007, +1.72547515191E+001, +6.94034423085E+002
+2.46768460576E+007, +1.59852022525E+001, +7.00015809199E+002
+2.48644555695E+007, +1.69887614081E+001, +7.05387099638E+002
+2.50520650814E+007, +1.74127103058E+001, +7.12368292146E+002
+2.52396745932E+007, +1.78076626339E+001, +7.18456875266E+002
+2.54272841051E+007, +1.79543585359E+001, +7.24062959508E+002
+2.56148936170E+007, +1.72531044691E+001, +7.29803152558E+002
+2.58025031289E+007, +1.88603007130E+001, +7.37010610178E+002
+2.59901126408E+007, +1.80431404208E+001, +7.42756905931E+002
+2.61777221527E+007, +1.99644807409E+001, +7.49959483622E+002
+2.63653316646E+007, +1.88052371520E+001, +7.55895991441E+002
+2.65529411765E+007, +1.96791651581E+001, +7.62276205520E+002
+2.67405506884E+007, +1.87869781643E+001, +7.68085108002E+002
+2.69281602003E+007, +1.97346600371E+001, +7.74781759831E+002
+2.71157697121E+007, +1.98728371589E+001, +7.81556611055E+002
+2.73033792240E+007, +1.96997354932E+001, +7.87179602321E+002
+2.74909887359E+007, +2.04370272009E+001, +7.94765384353E+002
+2.76785982478E+007, +2.08445685073E+001, +7.99675473087E+002
+2.78662077597E+007, +2.05900310237E+001, +8.06813019591E+002
+2.80538172716E+007, +2.25528147627E+001, +8.13888673138E+002
+2.82414267835E+007, +2.21222283166E+001, +8.19765089633E+002
+2.84290362954E+007, +2.19967786257E+001, +8.25841557695E+002
+2.86166458073E+007, +2.29463871189E+001, +8.31894892668E+002
+2.88042553191E+007, +2.43261575437E+001, +8.38301011823E+002
+2.89918648310E+007, +2.33257936206E+001, +8.45645995795E+002
+2.91794743429E+007, +2.25854552647E+001, +8.53907383976E+002
+2.93670838548E+007, +2.55744716709E+001, +8.60710202389E+002
+2.95546933667E+007, +2.40763716939E+001, +8.66482563711E+002
+2.97423028786E+007, +2.40628876435E+001, +8.72792405487E+002
+2.99299123905E+007, +2.52605476749E+001, +8.79390552935E+002
+3.01175219024E+007, +2.53907268787E+001, +8.87344020768E+002
+3.03051314143E+007, +2.60164816542E+001, +8.93421030882E+002
+3.04927409262E+007, +2.60492133719E+001, +9.00742559977E+002
+3.06803504380E+007, +2.61299726211E+001, +9.06505962181E+002
+3.08679599499E+007, +2.47253684856E+001, +9.15260961058E+002
+3.10555694618E+007, +2.73293915543E+001, +9.21303178727E+002
+3.12431789737E+007, +2.58546665554E+001, +9.28623851784E+002
+3.14307884856E+007, +2.90257966048E+001, +9.32823016975E+002
+3.16183979975E+007, +2.72984185187E+001, +9.41068724463E+002
+3.18060075094E+007, +2.74139472701E+001, +9.49015434565E+002
+3.19936170213E+007, +2.85849508924E+001, +9.56463000552E+002
+3.21812265332E+007, +3.02357351288E+001, +9.62603605811E+002
+3.23688360451E+007, +3.06749183271E+001, +9.68809289543E+002
+3.25564455569E+007, +2.99500518013E+001, +9.76184246475E+002
+3.27440550688E+007, +2.96449038899E+001, +9.84172218334E+002
+3.29316645807E+007, +3.09915879253E+001, +9.89959669832E+002
+3.31192740926E+007, +3.01271780820E+001, +9.99403906924E+002
+3.33068836045E+007, +2.98284394453E+001, +1.00548042066E+003
+3.34944931164E+007, +3.10508161461E+001, +1.01285340401E+003
+3.36821026283E+007, +3.17795903418E+001, +1.02175902664E+003
+3.38697121402E+007, +3.21819862211E+001, +1.02916903915E+003
+3.40573216521E+007, +3.24005821933E+001, +1.03859676197E+003
+3.42449311640E+007, +3.40811642138E+001, +1.04382418323E+003
+3.44325406758E+007, +3.33752620831E+001, +1.04856853806E+003
+3.46201501877E+007, +3.42875289776E+001, +1.05940960358E+003
+3.48077596996E+007, +3.27272199411E+001, +1.06554998808E+003
+3.49953692115E+007, +3.34390380334E+001, +1.07331495852E+003
+3.51829787234E+007, +3.47524045506E+001, +1.08059049093E+003
+3.53705882353E+007, +3.64263802517E+001, +1.08754728157E+003
+3.55581977472E+007, +3.83918853963E+001, +1.09718712099E+003
+3.57458072591E+007, +3.50335499672E+001, +1.10355061435E+003
+3.59334167710E+007, +3.61977751238E+001, +1.10931962969E+003
+3.61210262829E+007, +3.67292767874E+001, +1.11838581233E+003
+3.63086357947E+007, +3.70633939105E+001, +1.12693771733E+003
+3.64962453066E+007, +4.31024335620E+001, +1.13795126461E+003
+3.66838548185E+007, +4.02091441412E+001, +1.14116089989E+003
+3.68714643304E+007, +3.88795980829E+001, +1.15109509388E+003
+3.70590738423E+007, +4.02938910666E+001, +1.15847590429E+003
+3.72466833542E+007, +4.03725749070E+001, +1.16870705034E+003
+3.74342928661E+007, +3.95224626914E+001, +1.17631344283E+003
+3.76219023780E+007, +3.98523786713E+001, +1.18645432372E+003
+3.78095118899E+007, +4.33589659489E+001, +1.19377292297E+003
+3.79971214018E+007, +4.24832473013E+001, +1.19970891683E+003
+3.81847309136E+007, +4.16477289693E+001, +1.20859454518E+003
+3.83723404255E+007, +4.63757411112E+001, +1.21691704506E+003
+3.85599499374E+007, +4.41041109170E+001, +1.22590729126E+003
+3.87475594493E+007, +4.43464579846E+001, +1.23370798452E+003
+3.89351689612E+007, +4.57302483485E+001, +1.24207985872E+003
+3.91227784731E+007, +4.81784105309E+001, +1.24941309556E+003
+3.93103879850E+007, +4.57386068460E+001, +1.25875068905E+003
+3.94979974969E+007, +4.91355998486E+001, +1.26799567381E+003
+3.96856070088E+007, +4.93828520604E+001, +1.27856991279E+003
+3.98732165207E+007, +4.80473250729E+001, +1.28683173446E+003
+4.00608260325E+007, +4.90895131567E+001, +1.29665261389E+003
+4.02484355444E+007, +4.74279125994E+001, +1.30564295801E+003
+4.04360450563E+007, +4.79529359647E+001, +1.31294605593E+003
+4.06236545682E+007, +5.06239463191E+001, +1.32466864769E+003
+4.08112640801E+007, +5.29342838955E+001, +1.33012418866E+003
+4.09988735920E+007, +5.21071974140E+001, +1.34086910829E+003
+4.11864831039E+007, +5.33576519629E+001, +1.35157958566E+003
+4.13740926158E+007, +5.16580708163E+001, +1.35710040061E+003
+4.15617021277E+007, +5.15236650564E+001, +1.36869901770E+003
+4.17493116395E+007, +5.39901834832E+001, +1.37881966703E+003
+4.19369211514E+007, +5.28649158837E+001, +1.38759892193E+003
+4.21245306633E+007, +5.53070446681E+001, +1.39918909631E+003
+4.23121401752E+007, +5.79373630782E+001, +1.40522194414E+003
+4.24997496871E+007, +5.83503797182E+001, +1.41614452462E+003
+4.26873591990E+007, +5.47103121762E+001, +1.42494713310E+003
+4.28749687109E+007, +6.26982558731E+001, +1.43704232686E+003
+4.30625782228E+007, +5.95112815252E+001, +1.44265505407E+003
+4.32501877347E+007, +5.89615607790E+001, +1.45307799143E+003
+4.34377972466E+007, +6.16487187308E+001, +1.46602726252E+003
+4.36254067584E+007, +6.12081679634E+001, +1.47641959166E+003
+4.38130162703E+007, +6.28252841248E+001, +1.48748009190E+003
+4.40006257822E+007, +6.19733949995E+001, +1.49603341058E+003
+4.41882352941E+007, +6.19579481538E+001, +1.50486038537E+003
+4.43758448060E+007, +6.58568799900E+001, +1.51417527630E+003
+4.45634543179E+007, +6.73861186703E+001, +1.52921781149E+003
+4.47510638298E+007, +6.23397368870E+001, +1.53639855256E+003
+4.49386733417E+007, +6.87790644030E+001, +1.54935829911E+003
+4.51262828536E+007, +6.69177427539E+001, +1.55891775417E+003
+4.53138923655E+007, +6.30064354610E+001, +1.57353108661E+003
+4.55015018773E+007, +6.70746156583E+001, +1.57888226883E+003
+4.56891113892E+007, +7.14261266173E+001, +1.59197941570E+003
+4.58767209011E+007, +6.46184004388E+001, +1.60178466741E+003
+4.60643304130E+007, +6.42884451928E+001, +1.61151709101E+003
+4.62519399249E+007, +6.88354977751E+001, +1.62516824651E+003
+4.64395494368E+007, +7.15401661282E+001, +1.63671443300E+003
+4.66271589487E+007, +7.33560846038E+001, +1.64662360161E+003
+4.68147684606E+007, +7.54375323637E+001, +1.66026757031E+003
+4.70023779725E+007, +7.62075349694E+001, +1.66586963228E+003
+4.71899874844E+007, +7.52756867580E+001, +1.67784490321E+003
+4.73775969962E+007, +7.38135700453E+001, +1.69139910165E+003
+4.75652065081E+007, +7.87690918816E+001, +1.70315775364E+003
+4.77528160200E+007, +7.77759645699E+001, +1.71586958353E+003
+4.79404255319E+007, +8.44766868051E+001, +1.73219220366E+003
+4.81280350438E+007, +8.05167487960E+001, +1.74315315902E+003
+4.83156445557E+007, +7.55067113596E+001, +1.75113917877E+003
+4.85032540676E+007, +8.06056906093E+001, +1.76438165559E+003
+4.86908635795E+007, +8.35254295717E+001, +1.77490795802E+003
+4.88784730914E+007, +8.30769388961E+001, +1.78684720570E+003
+4.90660826033E+007, +8.35699860420E+001, +1.80450960433E+003
+4.92536921151E+007, +8.81459877236E+001, +1.81333914759E+003
+4.94413016270E+007, +9.19850605818E+001, +1.82522833285E+003
+4.96289111389E+007, +9.60563036107E+001, +1.83802850390E+003
+4.98165206508E+007, +9.18876715761E+001, +1.85154521577E+003
+5.00041301627E+007, +9.69582112541E+001, +1.86390710765E+003
+5.01917396746E+007, +9.55387409835E+001, +1.87590737276E+003
+5.03793491865E+007, +9.65527985701E+001, +1.89116386640E+003
+5.05669586984E+007, +1.00357495515E+002, +1.90750143220E+003
+5.07545682103E+007, +8.96092198139E+001, +1.91669879266E+003
+5.09421777222E+007, +1.07442014738E+002, +1.93400522322E+003
+5.11297872340E+007, +1.03409759507E+002, +1.94650302862E+003
+5.13173967459E+007, +1.06901320037E+002, +1.96759112678E+003
+5.15050062578E+007, +1.02908213482E+002, +1.97287078479E+003
+5.16926157697E+007, +1.03615045687E+002, +1.98882314799E+003
+5.18802252816E+007, +1.10190959093E+002, +2.00562970887E+003
+5.20678347935E+007, +1.09219590948E+002, +2.01673457279E+003
+5.22554443054E+007, +1.12678574721E+002, +2.03360640772E+003
+5.24430538173E+007, +1.12453605381E+002, +2.05084505847E+003
+5.26306633292E+007, +1.19088613463E+002, +2.06427718871E+003
+5.28182728411E+007, +1.16920575155E+002, +2.07971182227E+003
+5.30058823529E+007, +1.16798012662E+002, +2.09263696726E+003
+5.31934918648E+007, +1.14370888171E+002, +2.11127605401E+003
+5.33811013767E+007, +1.19189904729E+002, +2.12759756018E+003
+5.35687108886E+007, +1.20026916477E+002, +2.14748218983E+003
+5.37563204005E+007, +1.32148417008E+002, +2.16568629116E+003
+5.39439299124E+007, +1.20757335116E+002, +2.17460492765E+003
+5.41315394243E+007, +1.17916702967E+002, +2.19981313261E+003
+5.43191489362E+007, +1.38828518939E+002, +2.21144480966E+003
+5.45067584481E+007, +1.23563779342E+002, +2.22461232147E+003
+5.46943679599E+007, +1.38900737146E+002, +2.24139449841E+003
+5.48819774718E+007, +1.38764204728E+002, +2.24707416233E+003
+5.50695869837E+007, +1.37355010780E+002, +2.27650363184E+003
+5.52571964956E+007, +1.41689680435E+002, +2.29502801698E+003
+5.54448060075E+007, +1.39065929901E+002, +2.32247418062E+003
+5.56324155194E+007, +1.42974679527E+002, +2.33319841878E+003
+5.58200250313E+007, +1.43397374874E+002, +2.34531903311E+003
+5.60076345432E+007, +1.57075396219E+002, +2.36617900493E+003
+5.61952440551E+007, +1.49797462158E+002, +2.38963893036E+003
+5.63828535670E+007, +1.52551967309E+002, +2.39580913208E+003
+5.65704630788E+007, +1.52676576063E+002, +2.42566955395E+003
+5.67580725907E+007, +1.66417017192E+002, +2.44054237396E+003
+5.69456821026E+007, +1.68363613635E+002, +2.45777385224E+003
+5.71332916145E+007, +1.66324566931E+002, +2.47679194273E+003
+5.73209011264E+007, +1.64735342941E+002, +2.49351737238E+003
+5.75085106383E+007, +1.63780106161E+002, +2.52057217010E+003
+5.76961201502E+007, +1.67993681855E+002, +2.54090011584E+003
+5.78837296621E+007, +1.84848866686E+002, +2.56506181870E+003
+5.80713391740E+007, +1.69260599148E+002, +2.57051984743E+003
+5.82589486859E+007, +1.75802164409E+002, +2.61014811033E+003
+5.84465581977E+007, +1.77923277723E+002, +2.61741360259E+003
+5.86341677096E+007, +1.79192403716E+002, +2.64687112517E+003
+5.88217772215E+007, +1.93526712916E+002, +2.67460220419E+003
+5.90093867334E+007, +1.85821224494E+002, +2.70008840564E+003
+5.91969962453E+007, +2.01582177253E+002, +2.71686123137E+003
+5.93846057572E+007, +1.90353073906E+002, +2.74731355433E+003
+5.95722152691E+007, +2.02291362409E+002, +2.76168393564E+003
+5.97598247810E+007, +2.03111296815E+002, +2.79353604116E+003
+5.99474342929E+007, +2.19598942105E+002, +2.80759053284E+003
+6.01350438048E+007, +2.07047098230E+002, +2.84040464964E+003
