"# Channel 1"
"# Trace 1"
Frequency, Formatted Data, Formatted Data
+1.00000000000E+005, +1.01493660326E+002, +2.61526099164E+000
+2.25031289111E+005, +1.01692573331E+002, +6.24750293978E+000
+3.50062578223E+005, +1.01696008750E+002, +9.84434443461E+000
+4.75093867334E+005, +1.01860356813E+002, +1.32618185886E+001
+6.00125156446E+005, +1.01777578720E+002, +1.66873468932E+001
+7.25156445557E+005, +1.01914041462E+002, +2.02165021470E+001
+8.50187734668E+005, +1.01952177628E+002, +2.36849914005E+001
+9.75219023780E+005, +1.01971990842E+002, +2.72417419137E+001
+1.10025031289E+006, +1.02151893961E+002, +3.07755808118E+001
+1.22528160200E+006, +1.02095557960E+002, +3.41198880434E+001
+1.35031289111E+006, +1.02042355112E+002, +3.76153585639E+001
+1.47534418023E+006, +1.02200186280E+002, +4.11505064851E+001
+1.60037546934E+006, +1.02248153155E+002, +4.46104029408E+001
+1.72540675845E+006, +1.02226276511E+002, +4.81363379141E+001
+1.85043804756E+006, +1.02207460819E+002, +5.18200188702E+001
+1.97546933667E+006, +1.02283667461E+002, +5.51985222163E+001
+2.10050062578E+006, +1.02367537296E+002, +5.88341254157E+001
+2.22553191489E+006, +1.02274775511E+002, +6.22973061390E+001
+2.35056320401E+006, +1.02316257636E+002, +6.58807664672E+001
+2.47559449312E+006, +1.02462517693E+002, +6.92626280798E+001
+2.60062578223E+006, +1.02706361422E+002, +7.27386567403E+001
+2.72565707134E+006, +1.02609422965E+002, +7.63324161394E+001
+2.85068836045E+006, +1.02789093619E+002, +7.93838582340E+001
+2.97571964956E+006, +1.02954517884E+002, +8.34319127943E+001
+3.10075093867E+006, +1.03027434897E+002, +8.67108318204E+001
+3.22578222778E+006, +1.03228179778E+002, +9.03494099412E+001
+3.35081351690E+006, +1.03175180232E+002, +9.40646332985E+001
+3.47584480601E+006, +1.03089515553E+002, +9.71724757117E+001
+3.60087609512E+006, +1.03234918331E+002, +1.01093716003E+002
+3.72590738423E+006, +1.03993445410E+002, +1.04376338178E+002
+3.85093867334E+006, +1.03307219313E+002, +1.07842811740E+002
+3.97596996245E+006, +1.03531915302E+002, +1.11944285600E+002
+4.10100125156E+006, +1.03634333870E+002, +1.15327320463E+002
+4.22603254068E+006, +1.03434425058E+002, +1.18931575188E+002
+4.35106382979E+006, +1.04110188010E+002, +1.21911342515E+002
+4.47609511890E+006, +1.04056267802E+002, +1.26105930071E+002
+4.60112640801E+006, +1.04111974100E+002, +1.29457671941E+002
+4.72615769712E+006, +1.04284352057E+002, +1.32822009701E+002
+4.85118898623E+006, +1.04696185878E+002, +1.36509699579E+002
+4.97622027534E+006, +1.04784431814E+002, +1.39823168830E+002
+5.10125156446E+006, +1.04876060329E+002, +1.43361968765E+002
+5.22628285357E+006, +1.05442133166E+002, +1.47446130786E+002
+5.35131414268E+006, +1.05165043559E+002, +1.50611287017E+002
+5.47634543179E+006, +1.05366231302E+002, +1.54631247288E+002
+5.60137672090E+006, +1.06003810745E+002, +1.57842510143E+002
+5.72640801001E+006, +1.05737791018E+002, +1.61063586264E+002
+5.85143929912E+006, +1.05662467403E+002, +1.65654730478E+002
+5.97647058824E+006, +1.05936350693E+002, +1.68993500421E+002
+6.10150187735E+006, +1.06887351663E+002, +1.72416041201E+002
+6.22653316646E+006, +1.06973646714E+002, +1.76416285688E+002
+6.35156445557E+006, +1.06826078282E+002, +1.79391201503E+002
+6.47659574468E+006, +1.06922096090E+002, +1.83441422158E+002
+6.60162703379E+006, +1.06893770944E+002, +1.87028386283E+002
+6.72665832290E+006, +1.07524291969E+002, +1.90515882879E+002
+6.85168961202E+006, +1.07499074280E+002, +1.94219098850E+002
+6.97672090113E+006, +1.07455050660E+002, +1.97665984757E+002
+7.10175219024E+006, +1.08281323753E+002, +2.01376390524E+002
+7.22678347935E+006, +1.08181930560E+002, +2.05121201979E+002
+7.35181476846E+006, +1.08545024808E+002, +2.08878561165E+002
+7.47684605757E+006, +1.08817231189E+002, +2.12559343927E+002
+7.60187734668E+006, +1.08816951571E+002, +2.16241787024E+002
+7.72690863579E+006, +1.09284381190E+002, +2.19898267320E+002
+7.85193992491E+006, +1.09489436768E+002, +2.23579205275E+002
+7.97697121402E+006, +1.09298090462E+002, +2.27141962286E+002
+8.10200250313E+006, +1.09959673143E+002, +2.30988165699E+002
+8.22703379224E+006, +1.10256597408E+002, +2.35005400149E+002
+8.35206508135E+006, +1.10207475306E+002, +2.38304903862E+002
+8.47709637046E+006, +1.10469246759E+002, +2.42452116968E+002
+8.60212765957E+006, +1.11068997766E+002, +2.46568611611E+002
+8.72715894869E+006, +1.11254930183E+002, +2.50021743119E+002
+8.85219023780E+006, +1.11474285196E+002, +2.53747869997E+002
+8.97722152691E+006, +1.12249344745E+002, +2.57457346307E+002
+9.10225281602E+006, +1.11907496154E+002, +2.61466396127E+002
+9.22728410513E+006, +1.12201845174E+002, +2.65289162071E+002
+9.35231539424E+006, +1.12233095398E+002, +2.68860843056E+002
+9.47734668335E+006, +1.11839158326E+002, +2.72998007893E+002
+9.60237797247E+006, +1.12857279092E+002, +2.76474919660E+002
+9.72740926158E+006, +1.13115146867E+002, +2.80248992638E+002
+9.85244055069E+006, +1.13633294726E+002, +2.84722355291E+002
+9.97747183980E+006, +1.13271855127E+002, +2.88687527334E+002
+1.01025031289E+007, +1.13993747432E+002, +2.92445963193E+002
+1.02275344180E+007, +1.13734268316E+002, +2.95967808952E+002
+1.03525657071E+007, +1.14519460283E+002, +3.00699599316E+002
+1.04775969962E+007, +1.14693227641E+002, +3.03799820631E+002
+1.06026282854E+007, +1.15069052290E+002, +3.08118141350E+002
+1.07276595745E+007, +1.15712009459E+002, +3.11804832721E+002
+1.08526908636E+007, +1.16256848711E+002, +3.15081288158E+002
+1.09777221527E+007, +1.16072865234E+002, +3.19952776878E+002
+1.11027534418E+007, +1.17045492207E+002, +3.24342453204E+002
+1.12277847309E+007, +1.17575540618E+002, +3.27506209503E+002
+1.13528160200E+007, +1.16835835377E+002, +3.31437163592E+002
+1.14778473091E+007, +1.17570061542E+002, +3.35475595098E+002
+1.16028785982E+007, +1.18145740637E+002, +3.39863660678E+002
+1.17279098874E+007, +1.17962599390E+002, +3.43929855096E+002
+1.18529411765E+007, +1.18511299665E+002, +3.47735831299E+002
+1.19779724656E+007, +1.18919719571E+002, +3.52150806302E+002
+1.21030037547E+007, +1.19719107093E+002, +3.55509180427E+002
+1.22280350438E+007, +1.19205535967E+002, +3.59673822251E+002
+1.23530663329E+007, +1.20705838383E+002, +3.64917188923E+002
+1.24780976220E+007, +1.20528837953E+002, +3.68268092991E+002
+1.26031289111E+007, +1.21029928855E+002, +3.72179865155E+002
+1.27281602003E+007, +1.21202428077E+002, +3.76661059768E+002
+1.28531914894E+007, +1.21820827269E+002, +3.80023128598E+002
+1.29782227785E+007, +1.21394463106E+002, +3.85306830758E+002
+1.31032540676E+007, +1.22101988994E+002, +3.89052358951E+002
+1.32282853567E+007, +1.21752916920E+002, +3.93630359680E+002
+1.33533166458E+007, +1.23015132945E+002, +3.98134648284E+002
+1.34783479349E+007, +1.22579712595E+002, +4.01371954228E+002
+1.36033792240E+007, +1.23341603043E+002, +4.06148037653E+002
+1.37284105131E+007, +1.24092744008E+002, +4.09952532546E+002
+1.38534418023E+007, +1.24651140366E+002, +4.14094651907E+002
+1.39784730914E+007, +1.24976119764E+002, +4.18780181581E+002
+1.41035043805E+007, +1.25194398860E+002, +4.23298367571E+002
+1.42285356696E+007, +1.25821393351E+002, +4.26887219680E+002
+1.43535669587E+007, +1.26404660293E+002, +4.31458495283E+002
+1.44785982478E+007, +1.26558834835E+002, +4.36416655708E+002
+1.46036295369E+007, +1.26739786113E+002, +4.41256535840E+002
+1.47286608260E+007, +1.27875999482E+002, +4.45510804937E+002
+1.48536921151E+007, +1.28850189960E+002, +4.48885739570E+002
+1.49787234043E+007, +1.29531393864E+002, +4.53028452061E+002
+1.51037546934E+007, +1.29715489126E+002, +4.57300489409E+002
+1.52287859825E+007, +1.29816228205E+002, +4.62120128853E+002
+1.53538172716E+007, +1.31739334522E+002, +4.65575649444E+002
+1.54788485607E+007, +1.31073985026E+002, +4.72461506993E+002
+1.56038798498E+007, +1.32230946904E+002, +4.75293986986E+002
+1.57289111389E+007, +1.30707377424E+002, +4.80145392706E+002
+1.58539424280E+007, +1.32145957484E+002, +4.85426322454E+002
+1.59789737171E+007, +1.33294005318E+002, +4.90507876371E+002
+1.61040050063E+007, +1.34473654162E+002, +4.95101403667E+002
+1.62290362954E+007, +1.34235475133E+002, +4.98748096135E+002
+1.63540675845E+007, +1.34565691140E+002, +5.03965203222E+002
+1.64790988736E+007, +1.33169277735E+002, +5.07569504060E+002
+1.66041301627E+007, +1.34989807629E+002, +5.11922740124E+002
+1.67291614518E+007, +1.35381757856E+002, +5.17222525920E+002
+1.68541927409E+007, +1.35531733072E+002, +5.20225712779E+002
+1.69792240300E+007, +1.36752489205E+002, +5.27701966625E+002
+1.71042553191E+007, +1.38185278897E+002, +5.32738540574E+002
+1.72292866083E+007, +1.37741213520E+002, +5.35763008453E+002
+1.73543178974E+007, +1.38625468636E+002, +5.43583842758E+002
+1.74793491865E+007, +1.39500583177E+002, +5.45071857291E+002
+1.76043804756E+007, +1.37148969123E+002, +5.51876535454E+002
+1.77294117647E+007, +1.41433658544E+002, +5.56516963872E+002
+1.78544430538E+007, +1.40284028085E+002, +5.61158881741E+002
+1.79794743429E+007, +1.41436143571E+002, +5.64448352371E+002
+1.81045056320E+007, +1.40599083515E+002, +5.71398881094E+002
+1.82295369212E+007, +1.45128978610E+002, +5.77408643608E+002
+1.83545682103E+007, +1.45602127931E+002, +5.80821091676E+002
+1.84795994994E+007, +1.45811212597E+002, +5.84081290348E+002
+1.86046307885E+007, +1.46396328727E+002, +5.90561509563E+002
+1.87296620776E+007, +1.45728025804E+002, +5.94699972586E+002
+1.88546933667E+007, +1.45894206435E+002, +5.99955356347E+002
+1.89797246558E+007, +1.48333403034E+002, +6.05963227863E+002
+1.91047559449E+007, +1.50005227192E+002, +6.11120783056E+002
+1.92297872340E+007, +1.48399300584E+002, +6.17623764187E+002
+1.93548185232E+007, +1.50381614424E+002, +6.23658412834E+002
+1.94798498123E+007, +1.49316963687E+002, +6.27639439281E+002
+1.96048811014E+007, +1.52175690643E+002, +6.32142656411E+002
+1.97299123905E+007, +1.55229164034E+002, +6.39742152723E+002
+1.98549436796E+007, +1.51432119353E+002, +6.43123394437E+002
+1.99799749687E+007, +1.54602252544E+002, +6.49303230855E+002
+2.01050062578E+007, +1.54493601732E+002, +6.57287760831E+002
+2.02300375469E+007, +1.55293019318E+002, +6.59190396795E+002
+2.03550688360E+007, +1.55528427870E+002, +6.62712325842E+002
+2.04801001252E+007, +1.57143270813E+002, +6.69851168582E+002
+2.06051314143E+007, +1.59858789030E+002, +6.73816313259E+002
+2.07301627034E+007, +1.59436374004E+002, +6.79778643722E+002
+2.08551939925E+007, +1.59420001007E+002, +6.88293938793E+002
+2.09802252816E+007, +1.61210190467E+002, +6.93074060498E+002
+2.11052565707E+007, +1.64332409808E+002, +6.96800302608E+002
+2.12302878598E+007, +1.64245690341E+002, +7.03156860108E+002
+2.13553191489E+007, +1.66579737046E+002, +7.09857893917E+002
+2.14803504380E+007, +1.64950183189E+002, +7.12006124553E+002
+2.16053817272E+007, +1.65616769079E+002, +7.22274370543E+002
+2.17304130163E+007, +1.69397278646E+002, +7.23156099145E+002
+2.18554443054E+007, +1.70688988012E+002, +7.32443151707E+002
+2.19804755945E+007, +1.69596856179E+002, +7.38422756791E+002
+2.21055068836E+007, +1.71222189247E+002, +7.41973765992E+002
+2.22305381727E+007, +1.73893159470E+002, +7.49254530315E+002
+2.23555694618E+007, +1.71676755401E+002, +7.55701439837E+002
+2.24806007509E+007, +1.77359931989E+002, +7.58761848542E+002
+2.26056320401E+007, +1.77850697814E+002, +7.65792902948E+002
+2.27306633292E+007, +1.77694861915E+002, +7.74861057731E+002
+2.28556946183E+007, +1.82873902782E+002, +7.79420652842E+002
+2.29807259074E+007, +1.81907199183E+002, +7.83230521735E+002
+2.31057571965E+007, +1.83040331855E+002, +7.87662730298E+002
+2.32307884856E+007, +1.82943539977E+002, +8.00114662900E+002
+2.33558197747E+007, +1.84431609242E+002, +8.05057599077E+002
+2.34808510638E+007, +1.84873177257E+002, +8.06028874092E+002
+2.36058823529E+007, +1.89476266778E+002, +8.19194395438E+002
+2.37309136421E+007, +1.89367482046E+002, +8.27005343930E+002
+2.38559449312E+007, +1.94450221834E+002, +8.30044995057E+002
+2.39809762203E+007, +1.96441661145E+002, +8.30341005967E+002
+2.41060075094E+007, +1.94080088171E+002, +8.42654331579E+002
+2.42310387985E+007, +1.97069949580E+002, +8.44928200035E+002
+2.43560700876E+007, +1.96388401773E+002, +8.51198905035E+002
+2.44811013767E+007, +1.97873043376E+002, +8.62324707501E+002
+2.46061326658E+007, +2.03150798259E+002, +8.64582365336E+002
+2.47311639549E+007, +2.03248443698E+002, +8.71676102694E+002
+2.48561952441E+007, +2.04539928886E+002, +8.75221079560E+002
+2.49812265332E+007, +2.02043285148E+002, +8.87299013018E+002
+2.51062578223E+007, +2.04626828614E+002, +8.90108262586E+002
+2.52312891114E+007, +2.07751411823E+002, +8.98358163515E+002
+2.53563204005E+007, +2.05135511609E+002, +9.00996984992E+002
+2.54813516896E+007, +2.11340125496E+002, +9.10168309642E+002
+2.56063829787E+007, +2.12578010110E+002, +9.11806848816E+002
+2.57314142678E+007, +2.11005097515E+002, +9.25100181991E+002
+2.58564455569E+007, +2.18130062364E+002, +9.33053731062E+002
+2.59814768461E+007, +2.16121020535E+002, +9.38088774599E+002
+2.61065081352E+007, +2.14991001934E+002, +9.45597312203E+002
+2.62315394243E+007, +2.18574629436E+002, +9.58972186442E+002
+2.63565707134E+007, +2.19789329685E+002, +9.60532500052E+002
+2.64816020025E+007, +2.23421603092E+002, +9.65731598764E+002
+2.66066332916E+007, +2.24968352685E+002, +9.75481999328E+002
+2.67316645807E+007, +2.25107937040E+002, +9.83016991462E+002
+2.68566958698E+007, +2.23565021355E+002, +9.88390492974E+002
+2.69817271589E+007, +2.27889349435E+002, +9.99206228559E+002
+2.71067584481E+007, +2.28444817897E+002, +1.00988655262E+003
+2.72317897372E+007, +2.30120222798E+002, +1.01101694969E+003
+2.73568210263E+007, +2.34877706701E+002, +1.02119505321E+003
+2.74818523154E+007, +2.33713810967E+002, +1.02750316140E+003
+2.76068836045E+007, +2.36286079131E+002, +1.04167221504E+003
+2.77319148936E+007, +2.34104271275E+002, +1.04878869377E+003
+2.78569461827E+007, +2.37483068852E+002, +1.05574870487E+003
+2.79819774718E+007, +2.37137357933E+002, +1.06183642499E+003
+2.81070087610E+007, +2.47215057798E+002, +1.07120563218E+003
+2.82320400501E+007, +2.40330213428E+002, +1.07413925924E+003
+2.83570713392E+007, +2.39844130475E+002, +1.09141011099E+003
+2.84821026283E+007, +2.48316265629E+002, +1.10088428488E+003
+2.86071339174E+007, +2.45674047483E+002, +1.10374786144E+003
+2.87321652065E+007, +2.51550157656E+002, +1.12313846511E+003
+2.88571964956E+007, +2.49758947073E+002, +1.11822431666E+003
+2.89822277847E+007, +2.58961657213E+002, +1.13235332053E+003
+2.91072590738E+007, +2.57946889148E+002, +1.14744705781E+003
+2.92322903630E+007, +2.62983291485E+002, +1.16197968824E+003
+2.93573216521E+007, +2.64738183333E+002, +1.15312470323E+003
+2.94823529412E+007, +2.64717619275E+002, +1.17172916564E+003
+2.96073842303E+007, +2.71203126256E+002, +1.17941432302E+003
+2.97324155194E+007, +2.69463761500E+002, +1.19561273817E+003
+2.98574468085E+007, +2.70790713536E+002, +1.19884972942E+003
+2.99824780976E+007, +2.71315555835E+002, +1.20520331220E+003
+3.01075093867E+007, +2.83617529736E+002, +1.22549326278E+003
+3.02325406758E+007, +2.76526792880E+002, +1.23591351666E+003
+3.03575719650E+007, +2.88306219917E+002, +1.24301758437E+003
+3.04826032541E+007, +2.86070405788E+002, +1.24816188321E+003
+3.06076345432E+007, +2.88345622392E+002, +1.26941563149E+003
+3.07326658323E+007, +2.92290130634E+002, +1.28124836348E+003
+3.08576971214E+007, +2.92109916587E+002, +1.29536107833E+003
+3.09827284105E+007, +3.04377376295E+002, +1.29188703243E+003
+3.11077596996E+007, +3.05889303170E+002, +1.31622306269E+003
+3.12327909887E+007, +2.96167315966E+002, +1.31019461940E+003
+3.13578222778E+007, +3.06551662487E+002, +1.32744659707E+003
+3.14828535670E+007, +3.14932449581E+002, +1.33801490173E+003
+3.16078848561E+007, +3.19237546619E+002, +1.34892198826E+003
+3.17329161452E+007, +3.24953553439E+002, +1.35515034181E+003
+3.18579474343E+007, +3.11495511719E+002, +1.37361636827E+003
+3.19829787234E+007, +3.28054754676E+002, +1.37947810162E+003
+3.21080100125E+007, +3.22026042996E+002, +1.40374361257E+003
+3.22330413016E+007, +3.32259837401E+002, +1.41198438083E+003
+3.23580725907E+007, +3.38155591551E+002, +1.41823562543E+003
+3.24831038798E+007, +3.37955177282E+002, +1.43440444948E+003
+3.26081351690E+007, +3.43971865561E+002, +1.44820933033E+003
+3.27331664581E+007, +3.55241346642E+002, +1.45986145461E+003
+3.28581977472E+007, +3.52225551775E+002, +1.47004467133E+003
+3.29832290363E+007, +3.52261794792E+002, +1.49231776346E+003
+3.31082603254E+007, +3.62288876095E+002, +1.49472165396E+003
+3.32332916145E+007, +3.63702227753E+002, +1.52222550726E+003
+3.33583229036E+007, +3.74699817733E+002, +1.52454697933E+003
+3.34833541927E+007, +3.74759915975E+002, +1.54907246321E+003
+3.36083854819E+007, +3.72910641920E+002, +1.56049251793E+003
+3.37334167710E+007, +3.83148653059E+002, +1.56336690905E+003
+3.38584480601E+007, +3.82749178861E+002, +1.59669750447E+003
+3.39834793492E+007, +3.96419066019E+002, +1.60092819688E+003
+3.41085106383E+007, +3.88160758392E+002, +1.60840162665E+003
+3.42335419274E+007, +3.91561205125E+002, +1.62485887320E+003
+3.43585732165E+007, +4.10545193394E+002, +1.64696590295E+003
+3.44836045056E+007, +4.10095104689E+002, +1.65899641294E+003
+3.46086357947E+007, +4.10770930746E+002, +1.67068692258E+003
+3.47336670839E+007, +4.39822046112E+002, +1.69141091378E+003
+3.48586983730E+007, +4.26825801320E+002, +1.70585683165E+003
+3.49837296621E+007, +4.38395686276E+002, +1.73690879299E+003
+3.51087609512E+007, +4.50547426613E+002, +1.72781335260E+003
+3.52337922403E+007, +4.53934085218E+002, +1.75373501982E+003
+3.53588235294E+007, +4.61693972226E+002, +1.76555916702E+003
+3.54838548185E+007, +4.81841955654E+002, +1.79770493490E+003
+3.56088861076E+007, +4.81903645815E+002, +1.79341863536E+003
+3.57339173967E+007, +4.71542325027E+002, +1.81008713610E+003
+3.58589486859E+007, +4.88796484319E+002, +1.83518353348E+003
+3.59839799750E+007, +4.92646614551E+002, +1.81567662465E+003
+3.61090112641E+007, +5.11041694870E+002, +1.87268464748E+003
+3.62340425532E+007, +5.09468651172E+002, +1.88864414870E+003
+3.63590738423E+007, +5.17450236998E+002, +1.91105810810E+003
+3.64841051314E+007, +5.04689081748E+002, +1.93368070187E+003
+3.66091364205E+007, +5.28562049564E+002, +1.93806759851E+003
+3.67341677096E+007, +5.54880148770E+002, +1.96296527677E+003
+3.68591989987E+007, +5.39535955117E+002, +2.00249107703E+003
+3.69842302879E+007, +5.62564750332E+002, +2.02148089980E+003
+3.71092615770E+007, +5.68899699693E+002, +2.01780601767E+003
+3.72342928661E+007, +5.98123484729E+002, +2.04632469438E+003
+3.73593241552E+007, +5.96184913896E+002, +2.06090039249E+003
+3.74843554443E+007, +5.97245324955E+002, +2.06748038341E+003
+3.76093867334E+007, +6.23852963733E+002, +2.10851002460E+003
+3.77344180225E+007, +6.29791482293E+002, +2.11295393455E+003
+3.78594493116E+007, +6.53296415729E+002, +2.16605284831E+003
+3.79844806008E+007, +6.48799842010E+002, +2.16925290479E+003
+3.81095118899E+007, +6.27130999103E+002, +2.18243520541E+003
+3.82345431790E+007, +6.96747388293E+002, +2.23269833507E+003
+3.83595744681E+007, +6.84620212379E+002, +2.20927305877E+003
+3.84846057572E+007, +6.81090653319E+002, +2.25187939436E+003
+3.86096370463E+007, +7.31933518928E+002, +2.32783272174E+003
+3.87346683354E+007, +7.36544807069E+002, +2.34445858658E+003
+3.88596996245E+007, +7.72521179531E+002, +2.34647244042E+003
+3.89847309136E+007, +7.36063819235E+002, +2.40589048832E+003
+3.91097622028E+007, +8.03843928181E+002, +2.38856310498E+003
+3.92347934919E+007, +7.86102347584E+002, +2.43288500201E+003
+3.93598247810E+007, +8.23616604085E+002, +2.42885486993E+003
+3.94848560701E+007, +8.17761862391E+002, +2.47275751462E+003
+3.96098873592E+007, +8.29949716958E+002, +2.50649967312E+003
+3.97349186483E+007, +8.66082359930E+002, +2.54298519588E+003
+3.98599499374E+007, +8.77539119491E+002, +2.57674572774E+003
+3.99849812265E+007, +9.02631112575E+002, +2.64279244833E+003
+4.01100125156E+007, +9.14894867642E+002, +2.67163563509E+003
