"# Channel 1"
"# Trace 1"
Frequency, Formatted Data, Formatted Data
+1.00000000000E+005, +5.11052572139E+001, +2.80253493395E+000
+2.87609511890E+005, +5.08248452109E+001, +8.12866343124E+000
+4.75219023780E+005, +5.09321588975E+001, +1.34436205856E+001
+6.62828535670E+005, +5.10097082780E+001, +1.84795711377E+001
+8.50438047559E+005, +5.09524802239E+001, +2.38342377236E+001
+1.03804755945E+006, +5.08664738574E+001, +2.92185636201E+001
+1.22565707134E+006, +5.10816890964E+001, +3.43413294711E+001
+1.41326658323E+006, +5.11526134818E+001, +3.95254503137E+001
+1.60087609512E+006, +5.11969777067E+001, +4.47907350996E+001
+1.78848560701E+006, +5.12506010391E+001, +5.00619154869E+001
+1.97609511890E+006, +5.12898937131E+001, +5.54404635799E+001
+2.16370463079E+006, +5.13016969163E+001, +6.05583971639E+001
+2.35131414268E+006, +5.14442134538E+001, +6.57591399183E+001
+2.53892365457E+006, +5.12790361052E+001, +7.08433807591E+001
+2.72653316646E+006, +5.15025310624E+001, +7.62851728727E+001
+2.91414267835E+006, +5.15834229716E+001, +8.15123689311E+001
+3.10175219024E+006, +5.16830388284E+001, +8.67262165983E+001
+3.28936170213E+006, +5.15620591138E+001, +9.17182907543E+001
+3.47697121402E+006, +5.15063772306E+001, +9.71279798348E+001
+3.66458072591E+006, +5.16673685016E+001, +1.02819015840E+002
+3.85219023780E+006, +5.15893380663E+001, +1.07410619935E+002
+4.03979974969E+006, +5.19029726712E+001, +1.13163474660E+002
+4.22740926158E+006, +5.21271683903E+001, +1.18257494964E+002
+4.41501877347E+006, +5.18252358062E+001, +1.23523129118E+002
+4.60262828536E+006, +5.21778683759E+001, +1.28848072674E+002
+4.79023779725E+006, +5.21739033515E+001, +1.34041184192E+002
+4.97784730914E+006, +5.22238196029E+001, +1.39221524709E+002
+5.16545682103E+006, +5.24998618617E+001, +1.44579119863E+002
+5.35306633292E+006, +5.23947508501E+001, +1.49888526855E+002
+5.54067584481E+006, +5.26711868299E+001, +1.55408413088E+002
+5.72828535670E+006, +5.24811832985E+001, +1.60725732592E+002
+5.91589486859E+006, +5.28529909016E+001, +1.66054291399E+002
+6.10350438048E+006, +5.29669074521E+001, +1.71097978011E+002
+6.29111389237E+006, +5.32175908187E+001, +1.76621573080E+002
+6.47872340426E+006, +5.34074998121E+001, +1.82151309491E+002
+6.66633291615E+006, +5.35633387363E+001, +1.87484050663E+002
+6.85394242804E+006, +5.36830679562E+001, +1.92808346828E+002
+7.04155193992E+006, +5.37290553720E+001, +1.98044364644E+002
+7.22916145181E+006, +5.40193796322E+001, +2.03483245079E+002
+7.41677096370E+006, +5.40897163748E+001, +2.08991884782E+002
+7.60438047559E+006, +5.42205079078E+001, +2.14425522561E+002
+7.79198998748E+006, +5.43365643039E+001, +2.19775737449E+002
+7.97959949937E+006, +5.43291870924E+001, +2.25490602427E+002
+8.16720901126E+006, +5.44890751762E+001, +2.31190978549E+002
+8.35481852315E+006, +5.47664236410E+001, +2.36582907166E+002
+8.54242803504E+006, +5.50052333207E+001, +2.42235771793E+002
+8.73003754693E+006, +5.50742476760E+001, +2.47499016002E+002
+8.91764705882E+006, +5.52722085283E+001, +2.52910230590E+002
+9.10525657071E+006, +5.58660760771E+001, +2.59204501247E+002
+9.29286608260E+006, +5.54955771616E+001, +2.64503328773E+002
+9.48047559449E+006, +5.54777712994E+001, +2.69986852591E+002
+9.66808510638E+006, +5.53536198362E+001, +2.75447780411E+002
+9.85569461827E+006, +5.57227353360E+001, +2.81568367859E+002
+1.00433041302E+007, +5.64121660830E+001, +2.86800778739E+002
+1.02309136421E+007, +5.62770363919E+001, +2.92770930850E+002
+1.04185231539E+007, +5.64925560058E+001, +2.98547359075E+002
+1.06061326658E+007, +5.64863628368E+001, +3.03649224354E+002
+1.07937421777E+007, +5.67620686849E+001, +3.09450629956E+002
+1.09813516896E+007, +5.64422784125E+001, +3.15880673832E+002
+1.11689612015E+007, +5.70188670912E+001, +3.21003131558E+002
+1.13565707134E+007, +5.70882537117E+001, +3.27498334595E+002
+1.15441802253E+007, +5.73562280435E+001, +3.33138766419E+002
+1.17317897372E+007, +5.73790730745E+001, +3.38605999748E+002
+1.19193992491E+007, +5.76188657775E+001, +3.44656164336E+002
+1.21070087610E+007, +5.82923470625E+001, +3.50594215917E+002
+1.22946182728E+007, +5.80827169501E+001, +3.57634594384E+002
+1.24822277847E+007, +5.76632695957E+001, +3.63289092260E+002
+1.26698372966E+007, +5.82257273008E+001, +3.69292320398E+002
+1.28574468085E+007, +5.87196009368E+001, +3.74303329818E+002
+1.30450563204E+007, +5.88586111642E+001, +3.81565652232E+002
+1.32326658323E+007, +5.95737981553E+001, +3.87134059041E+002
+1.34202753442E+007, +5.96543950871E+001, +3.94080978185E+002
+1.36078848561E+007, +6.03457157965E+001, +3.98848087583E+002
+1.37954943680E+007, +5.98371904470E+001, +4.06744961541E+002
+1.39831038798E+007, +6.05558867973E+001, +4.12828978389E+002
+1.41707133917E+007, +6.07639863049E+001, +4.18531579518E+002
+1.43583229036E+007, +6.05857376592E+001, +4.23990864269E+002
+1.45459324155E+007, +6.02555889559E+001, +4.31514350206E+002
+1.47335419274E+007, +6.00576466800E+001, +4.37858241841E+002
+1.49211514393E+007, +6.14000668306E+001, +4.43667079802E+002
+1.51087609512E+007, +6.21143733538E+001, +4.50121571950E+002
+1.52963704631E+007, +6.19184258377E+001, +4.56768646548E+002
+1.54839799750E+007, +6.18041367723E+001, +4.63214581514E+002
+1.56715894869E+007, +6.25825467895E+001, +4.68990454164E+002
+1.58591989987E+007, +6.27432086106E+001, +4.76841199749E+002
+1.60468085106E+007, +6.14739620671E+001, +4.82115513010E+002
+1.62344180225E+007, +6.28540497772E+001, +4.89376617110E+002
+1.64220275344E+007, +6.32400130540E+001, +4.96358013211E+002
+1.66096370463E+007, +6.43879911117E+001, +5.04258947877E+002
+1.67972465582E+007, +6.32568036282E+001, +5.10820289897E+002
+1.69848560701E+007, +6.42166688319E+001, +5.16819614392E+002
+1.71724655820E+007, +6.31015925570E+001, +5.25237104495E+002
+1.73600750939E+007, +6.39328417759E+001, +5.31180002581E+002
+1.75476846058E+007, +6.44463236403E+001, +5.38428119757E+002
+1.77352941176E+007, +6.49242103823E+001, +5.47407609940E+002
+1.79229036295E+007, +6.61908888617E+001, +5.53269546100E+002
+1.81105131414E+007, +6.47526882390E+001, +5.60307422876E+002
+1.82981226533E+007, +6.60836386906E+001, +5.67331001109E+002
+1.84857321652E+007, +6.68451810997E+001, +5.73717063798E+002
+1.86733416771E+007, +6.84397114795E+001, +5.81432232681E+002
+1.88609511890E+007, +6.62116454748E+001, +5.88498703322E+002
+1.90485607009E+007, +7.03989767606E+001, +5.97374873168E+002
+1.92361702128E+007, +6.86306963734E+001, +6.05030576978E+002
+1.94237797247E+007, +6.91595746526E+001, +6.11634856549E+002
+1.96113892365E+007, +7.03504353540E+001, +6.20402852999E+002
+1.97989987484E+007, +7.03183575833E+001, +6.25264148461E+002
+1.99866082603E+007, +7.09842295567E+001, +6.32752858294E+002
+2.01742177722E+007, +6.98987889643E+001, +6.40541002076E+002
+2.03618272841E+007, +7.17708263395E+001, +6.49959534688E+002
+2.05494367960E+007, +7.40376611502E+001, +6.57339635208E+002
+2.07370463079E+007, +7.30537428050E+001, +6.64546710317E+002
+2.09246558198E+007, +7.56668835262E+001, +6.75124880986E+002
+2.11122653317E+007, +7.40296557303E+001, +6.82667396877E+002
+2.12998748436E+007, +7.40400942466E+001, +6.90061844441E+002
+2.14874843554E+007, +7.69194097851E+001, +6.99160841336E+002
+2.16750938673E+007, +7.79065488343E+001, +7.07465500171E+002
+2.18627033792E+007, +7.58000561929E+001, +7.15692750316E+002
+2.20503128911E+007, +7.76741001108E+001, +7.24886000613E+002
+2.22379224030E+007, +7.73655862671E+001, +7.33348165780E+002
+2.24255319149E+007, +7.92744517072E+001, +7.38914829867E+002
+2.26131414268E+007, +7.95228807570E+001, +7.51049565502E+002
+2.28007509387E+007, +8.24889284341E+001, +7.57964153627E+002
+2.29883604506E+007, +8.25170826217E+001, +7.68355437355E+002
+2.31759699625E+007, +8.79043445297E+001, +7.76464458193E+002
+2.33635794743E+007, +8.80388673005E+001, +7.86081305863E+002
+2.35511889862E+007, +8.81989361312E+001, +7.99050698201E+002
+2.37387984981E+007, +8.80447246779E+001, +8.03583690596E+002
+2.39264080100E+007, +9.08396420017E+001, +8.13412517089E+002
+2.41140175219E+007, +9.13908280521E+001, +8.21296273198E+002
+2.43016270338E+007, +9.15245389257E+001, +8.29100443597E+002
+2.44892365457E+007, +9.40917911510E+001, +8.41832842668E+002
+2.46768460576E+007, +9.91195194741E+001, +8.49152047514E+002
+2.48644555695E+007, +1.00240842573E+002, +8.55532058575E+002
+2.50520650814E+007, +1.01655295458E+002, +8.67073636032E+002
+2.52396745932E+007, +9.77264576060E+001, +8.77973837481E+002
+2.54272841051E+007, +1.03366445994E+002, +8.84804240981E+002
+2.56148936170E+007, +9.49427058832E+001, +8.94416846554E+002
+2.58025031289E+007, +1.00036260723E+002, +9.03465603361E+002
+2.59901126408E+007, +9.94988714287E+001, +9.09209727030E+002
+2.61777221527E+007, +9.70433147470E+001, +9.27133743265E+002
+2.63653316646E+007, +1.01485032868E+002, +9.34948601724E+002
+2.65529411765E+007, +1.00491701165E+002, +9.42077275097E+002
+2.67405506884E+007, +1.02788303344E+002, +9.52395951707E+002
+2.69281602003E+007, +1.03336141058E+002, +9.66076660668E+002
+2.71157697121E+007, +1.02874571344E+002, +9.76506709830E+002
+2.73033792240E+007, +1.01620989515E+002, +9.85111476705E+002
+2.74909887359E+007, +1.06071121354E+002, +1.00116143660E+003
+2.76785982478E+007, +1.06302415953E+002, +1.01292065578E+003
+2.78662077597E+007, +1.09185575574E+002, +1.02092391808E+003
+2.80538172716E+007, +1.08304950417E+002, +1.03329421781E+003
+2.82414267835E+007, +1.06106328660E+002, +1.04862520319E+003
+2.84290362954E+007, +1.12479681578E+002, +1.05937968561E+003
+2.86166458073E+007, +1.10454422340E+002, +1.07477226153E+003
+2.88042553191E+007, +1.09973296266E+002, +1.09053761824E+003
+2.89918648310E+007, +1.14588603404E+002, +1.09779505370E+003
+2.91794743429E+007, +1.12954579626E+002, +1.11111756197E+003
+2.93670838548E+007, +1.15695307582E+002, +1.12600160586E+003
+2.95546933667E+007, +1.17741537403E+002, +1.13960646066E+003
+2.97423028786E+007, +1.18343142883E+002, +1.15118071118E+003
+2.99299123905E+007, +1.16029825390E+002, +1.15998260407E+003
+3.01175219024E+007, +1.19745968115E+002, +1.18186709677E+003
+3.03051314143E+007, +1.24333940191E+002, +1.19667980095E+003
+3.04927409262E+007, +1.12035626288E+002, +1.21732935181E+003
+3.06803504380E+007, +1.25840767408E+002, +1.22270501693E+003
+3.08679599499E+007, +1.24179117150E+002, +1.24163279446E+003
+3.10555694618E+007, +1.21032287519E+002, +1.25508396381E+003
+3.12431789737E+007, +1.24087615004E+002, +1.27343736073E+003
+3.14307884856E+007, +1.28125801111E+002, +1.28806661965E+003
+3.16183979975E+007, +1.24213956569E+002, +1.29860545287E+003
+3.18060075094E+007, +1.28927734295E+002, +1.32094347558E+003
+3.19936170213E+007, +1.35707943939E+002, +1.33336343766E+003
+3.21812265332E+007, +1.42672158438E+002, +1.34784378798E+003
+3.23688360451E+007, +1.35063317229E+002, +1.36033020293E+003
+3.25564455569E+007, +1.40801062042E+002, +1.38596752262E+003
+3.27440550688E+007, +1.56918978326E+002, +1.40104307657E+003
+3.29316645807E+007, +1.44889181300E+002, +1.42421464591E+003
+3.31192740926E+007, +1.48592343262E+002, +1.43856977868E+003
+3.33068836045E+007, +1.42478110836E+002, +1.46276794733E+003
+3.34944931164E+007, +1.63633740619E+002, +1.47768782709E+003
+3.36821026283E+007, +1.45790902714E+002, +1.49359898519E+003
+3.38697121402E+007, +1.50142427596E+002, +1.51967776386E+003
+3.40573216521E+007, +1.51587463589E+002, +1.53680512173E+003
+3.42449311640E+007, +1.63814969090E+002, +1.55055045651E+003
+3.44325406758E+007, +1.63235942872E+002, +1.59461586973E+003
+3.46201501877E+007, +1.64922342825E+002, +1.59649940242E+003
+3.48077596996E+007, +1.85787321374E+002, +1.63366952848E+003
+3.49953692115E+007, +1.89593310811E+002, +1.65594817433E+003
+3.51829787234E+007, +1.74775108255E+002, +1.66640817105E+003
+3.53705882353E+007, +1.94125659587E+002, +1.68432750943E+003
+3.55581977472E+007, +1.89621152687E+002, +1.73287627617E+003
+3.57458072591E+007, +2.12319526725E+002, +1.74167759477E+003
+3.59334167710E+007, +2.05002171097E+002, +1.77337258488E+003
+3.61210262829E+007, +1.95059805864E+002, +1.80966638946E+003
+3.63086357947E+007, +2.23641764822E+002, +1.81237771168E+003
+3.64962453066E+007, +2.11307123024E+002, +1.82405789494E+003
+3.66838548185E+007, +2.09468552642E+002, +1.87385658762E+003
+3.68714643304E+007, +2.29263677914E+002, +1.90277531642E+003
+3.70590738423E+007, +2.38705289793E+002, +1.92897232609E+003
+3.72466833542E+007, +2.32699859470E+002, +1.96691252016E+003
+3.74342928661E+007, +2.46227338071E+002, +1.99366882322E+003
+3.76219023780E+007, +2.45029849285E+002, +2.00942990874E+003
+3.78095118899E+007, +2.54935910059E+002, +2.04091477342E+003
+3.79971214018E+007, +2.51392031263E+002, +2.07604502220E+003
+3.81847309136E+007, +2.73416946096E+002, +2.13196464478E+003
+3.83723404255E+007, +2.97656585001E+002, +2.14381438488E+003
+3.85599499374E+007, +2.73221370793E+002, +2.19347962144E+003
+3.87475594493E+007, +3.10978156326E+002, +2.23452016050E+003
+3.89351689612E+007, +3.02283615993E+002, +2.26032053056E+003
+3.91227784731E+007, +3.09212376654E+002, +2.32484408811E+003
+3.93103879850E+007, +3.42766610961E+002, +2.35964681505E+003
+3.94979974969E+007, +3.50440607995E+002, +2.36239023538E+003
+3.96856070088E+007, +3.46757631261E+002, +2.44401759708E+003
+3.98732165207E+007, +3.54296854432E+002, +2.49293945298E+003
+4.00608260325E+007, +3.67733498624E+002, +2.50672341533E+003
+4.02484355444E+007, +4.03242779670E+002, +2.57093676931E+003
+4.04360450563E+007, +3.96443295518E+002, +2.64976968634E+003
+4.06236545682E+007, +3.73071183869E+002, +2.68708110645E+003
+4.08112640801E+007, +4.68590892588E+002, +2.74740111096E+003
+4.09988735920E+007, +4.61664467671E+002, +2.78186150910E+003
+4.11864831039E+007, +4.80626397308E+002, +2.86033186131E+003
+4.13740926158E+007, +5.41453049082E+002, +2.87984792698E+003
+4.15617021277E+007, +4.73465076699E+002, +2.91162505149E+003
+4.17493116395E+007, +5.52691054815E+002, +3.00279158043E+003
+4.19369211514E+007, +5.21748837107E+002, +3.07108265828E+003
+4.21245306633E+007, +6.54979284177E+002, +3.12036616837E+003
+4.23121401752E+007, +5.67828799961E+002, +3.17532172718E+003
+4.24997496871E+007, +6.84418503082E+002, +3.26419860759E+003
+4.26873591990E+007, +7.39372425468E+002, +3.34596933014E+003
+4.28749687109E+007, +7.50121526628E+002, +3.43944007572E+003
+4.30625782228E+007, +8.09840892354E+002, +3.48891161049E+003
+4.32501877347E+007, +8.03070050830E+002, +3.48329471306E+003
+4.34377972466E+007, +8.62046643505E+002, +3.71819546573E+003
+4.36254067584E+007, +9.08589340559E+002, +3.73719872217E+003
+4.38130162703E+007, +9.06509787438E+002, +3.88328098409E+003
+4.40006257822E+007, +1.00241637352E+003, +3.88945014012E+003
+4.41882352941E+007, +1.03146748113E+003, +3.99042912445E+003
+4.43758448060E+007, +1.06816102759E+003, +4.06733768123E+003
+4.45634543179E+007, +1.08938276729E+003, +4.15997808947E+003
+4.47510638298E+007, +1.22824307882E+003, +4.25014271295E+003
+4.49386733417E+007, +1.25399279903E+003, +4.37506598911E+003
+4.51262828536E+007, +1.24783584859E+003, +4.58893051209E+003
+4.53138923655E+007, +1.55326640868E+003, +4.77787660954E+003
+4.55015018773E+007, +1.62482220710E+003, +4.84536448290E+003
+4.56891113892E+007, +1.75807870847E+003, +5.03942993099E+003
+4.58767209011E+007, +1.67283859527E+003, +5.14802140404E+003
+4.60643304130E+007, +1.81635377826E+003, +5.23657774088E+003
+4.62519399249E+007, +1.86865209516E+003, +5.30175973593E+003
+4.64395494368E+007, +2.13855372237E+003, +5.52285395018E+003
+4.66271589487E+007, +2.40546932524E+003, +5.55943031832E+003
+4.68147684606E+007, +2.52095077598E+003, +5.69725543138E+003
+4.70023779725E+007, +3.00811236008E+003, +5.89472831627E+003
+4.71899874844E+007, +3.08852214270E+003, +6.20799421920E+003
+4.73775969962E+007, +3.20395231679E+003, +6.37962116986E+003
+4.75652065081E+007, +3.65672771876E+003, +6.51446549644E+003
+4.77528160200E+007, +3.69471253497E+003, +6.70186787707E+003
+4.79404255319E+007, +4.11507652274E+003, +6.83349982448E+003
+4.81280350438E+007, +4.53636553084E+003, +7.09708006480E+003
+4.83156445557E+007, +5.34965467317E+003, +7.45319014366E+003
+4.85032540676E+007, +5.41509990269E+003, +7.46129854266E+003
+4.86908635795E+007, +5.90401857437E+003, +7.89475531301E+003
+4.88784730914E+007, +6.64488241717E+003, +7.88474874493E+003
+4.90660826033E+007, +7.80540612488E+003, +8.24648615897E+003
+4.92536921151E+007, +8.29888273784E+003, +7.47734694520E+003
+4.94413016270E+007, +8.99512645406E+003, +7.28082933287E+003
+4.96289111389E+007, +1.01501643917E+004, +6.70984580924E+003
+4.98165206508E+007, +1.08727007738E+004, +6.73229679552E+003
+5.00041301627E+007, +1.19897481490E+004, +5.88324698217E+003
+5.01917396746E+007, +1.22808118595E+004, +4.89767433921E+003
+5.03793491865E+007, +1.29627584656E+004, +4.16165567750E+003
+5.05669586984E+007, +1.35945132822E+004, +3.13918315959E+003
+5.07545682103E+007, +1.41782850042E+004, +1.35851005155E+003
+5.09421777222E+007, +1.38088173734E+004, -5.03375034273E+001
+5.11297872340E+007, +1.44601525399E+004, -1.07365113996E+003
+5.13173967459E+007, +1.39171038347E+004, -1.21161239483E+003
+5.15050062578E+007, +1.33254580262E+004, -1.84354819747E+003
+5.16926157697E+007, +1.32282657129E+004, -3.65243297321E+003
+5.18802252816E+007, +1.23979765403E+004, -4.81341633685E+003
+5.20678347935E+007, +1.19457842501E+004, -5.24854109473E+003
+5.22554443054E+007, +1.11565621013E+004, -5.13855949807E+003
+5.24430538173E+007, +1.03028784671E+004, -6.12171708870E+003
+5.26306633292E+007, +8.98724365595E+003, -6.13394797007E+003
+5.28182728411E+007, +8.53976759814E+003, -6.30166268914E+003
+5.30058823529E+007, +7.74068460304E+003, -6.80274545739E+003
+5.31934918648E+007, +6.78931787685E+003, -6.69767028024E+003
+5.33811013767E+007, +6.73730803831E+003, -6.74794151653E+003
+5.35687108886E+007, +5.70961765790E+003, -6.72852816342E+003
+5.37563204005E+007, +5.44686072800E+003, -6.85134314412E+003
+5.39439299124E+007, +4.95384269720E+003, -6.48929478707E+003
+5.41315394243E+007, +4.48282299106E+003, -6.65716206873E+003
+5.43191489362E+007, +4.28848129774E+003, -6.31429619998E+003
+5.45067584481E+007, +3.79877924696E+003, -6.20789400778E+003
+5.46943679599E+007, +3.48705396447E+003, -6.02484249614E+003
+5.48819774718E+007, +3.36952867536E+003, -5.75703936252E+003
+5.50695869837E+007, +3.22330244771E+003, -5.71457423964E+003
+5.52571964956E+007, +3.03058032165E+003, -5.56521093425E+003
+5.54448060075E+007, +2.82183786591E+003, -5.22794791962E+003
+5.56324155194E+007, +2.74748752283E+003, -5.34140809937E+003
+5.58200250313E+007, +2.41958915553E+003, -5.03742247672E+003
+5.60076345432E+007, +2.30758025423E+003, -5.05537756926E+003
+5.61952440551E+007, +2.06683822153E+003, -5.02370311989E+003
+5.63828535670E+007, +2.07565519897E+003, -4.75000554591E+003
+5.65704630788E+007, +1.92220837027E+003, -4.75082060679E+003
+5.67580725907E+007, +1.77393480927E+003, -4.57464294356E+003
+5.69456821026E+007, +1.66817596551E+003, -4.35542310218E+003
+5.71332916145E+007, +1.56521876310E+003, -4.31570520872E+003
+5.73209011264E+007, +1.45526505940E+003, -4.26705157583E+003
+5.75085106383E+007, +1.29068965275E+003, -4.09629809818E+003
+5.76961201502E+007, +1.25782611397E+003, -4.00718087536E+003
+5.78837296621E+007, +1.19823002004E+003, -3.92322342949E+003
+5.80713391740E+007, +1.10692411361E+003, -3.82208538674E+003
+5.82589486859E+007, +1.12376171796E+003, -3.67679100938E+003
+5.84465581977E+007, +1.00195795193E+003, -3.67394668091E+003
+5.86341677096E+007, +9.34272902974E+002, -3.51539011724E+003
+5.88217772215E+007, +9.00580879529E+002, -3.40213581530E+003
+5.90093867334E+007, +8.45421479790E+002, -3.33116823659E+003
+5.91969962453E+007, +8.31999857070E+002, -3.27895179903E+003
+5.93846057572E+007, +7.71833348233E+002, -3.19935712504E+003
+5.95722152691E+007, +7.41314342680E+002, -3.08810027440E+003
+5.97598247810E+007, +7.09618960067E+002, -3.02429104864E+003
+5.99474342929E+007, +6.77602323221E+002, -2.98435833340E+003
+6.01350438048E+007, +6.29824256305E+002, -2.92653148348E+003
