"# Channel 1"
"# Trace 1"
Frequency, Formatted Data, Formatted Data
+1.00000000000E+005, +5.84352318325E+001, +2.31186066671E+000
+2.66777963272E+005, +5.83403524449E+001, +7.20618991548E+000
+4.33555926544E+005, +5.82989649206E+001, +1.17150055652E+001
+6.00333889816E+005, +5.83011367873E+001, +1.62775344862E+001
+7.67111853088E+005, +5.84040566967E+001, +2.07690357460E+001
+9.33889816361E+005, +5.84262631770E+001, +2.53820792722E+001
+1.10066777963E+006, +5.84306640869E+001, +3.00172771115E+001
+1.26744574290E+006, +5.85124568342E+001, +3.44787139256E+001
+1.43422370618E+006, +5.85383518744E+001, +3.91048625316E+001
+1.60100166945E+006, +5.84182766684E+001, +4.35648297111E+001
+1.76777963272E+006, +5.85176981606E+001, +4.81786372065E+001
+1.93455759599E+006, +5.84239894555E+001, +5.27150492658E+001
+2.10133555927E+006, +5.84991606695E+001, +5.72924587238E+001
+2.26811352254E+006, +5.86309564691E+001, +6.17757138370E+001
+2.43489148581E+006, +5.87003744397E+001, +6.65504858127E+001
+2.60166944908E+006, +5.86122457033E+001, +7.08575460129E+001
+2.76844741235E+006, +5.87187707975E+001, +7.57244415865E+001
+2.93522537563E+006, +5.86882139919E+001, +8.00859156701E+001
+3.10200333890E+006, +5.87633279875E+001, +8.46760184628E+001
+3.26878130217E+006, +5.87372293232E+001, +8.93726743296E+001
+3.43555926544E+006, +5.89416005669E+001, +9.38780652061E+001
+3.60233722871E+006, +5.91079533663E+001, +9.86311727558E+001
+3.76911519199E+006, +5.91809669358E+001, +1.03183808423E+002
+3.93589315526E+006, +5.91662096442E+001, +1.07163555463E+002
+4.10267111853E+006, +5.73325067440E+001, +1.12353602749E+002
+4.26944908180E+006, +5.93946582440E+001, +1.17792985796E+002
+4.43622704508E+006, +5.92377683577E+001, +1.21883999845E+002
+4.60300500835E+006, +5.95766974753E+001, +1.26513929108E+002
+4.76978297162E+006, +5.92727338339E+001, +1.31049093135E+002
+4.93656093489E+006, +5.95357802518E+001, +1.35765414137E+002
+5.10333889816E+006, +5.97278392819E+001, +1.40087101559E+002
+5.27011686144E+006, +6.01562969883E+001, +1.45015373005E+002
+5.43689482471E+006, +5.99577674607E+001, +1.49793017872E+002
+5.60367278798E+006, +6.03075716465E+001, +1.54555991058E+002
+5.77045075125E+006, +5.99586160019E+001, +1.58874344994E+002
+5.93722871452E+006, +6.05185036356E+001, +1.63842172408E+002
+6.10400667780E+006, +6.06972126878E+001, +1.68686950976E+002
+6.27078464107E+006, +6.08315719223E+001, +1.73208435485E+002
+6.43756260434E+006, +6.08561897531E+001, +1.77850923039E+002
+6.60434056761E+006, +6.10520524994E+001, +1.82501909755E+002
+6.77111853088E+006, +6.13676326249E+001, +1.87122648647E+002
+6.93789649416E+006, +6.15117813422E+001, +1.92024235577E+002
+7.10467445743E+006, +6.13560006057E+001, +1.96735015561E+002
+7.27145242070E+006, +6.16537732659E+001, +2.01196242622E+002
+7.43823038397E+006, +6.14942720036E+001, +2.06010518628E+002
+7.60500834725E+006, +6.18138352406E+001, +2.10990933505E+002
+7.77178631052E+006, +6.19402929353E+001, +2.15994438741E+002
+7.93856427379E+006, +6.17462656087E+001, +2.20658606030E+002
+8.10534223706E+006, +6.19783849318E+001, +2.25492045392E+002
+8.27212020033E+006, +6.20162600682E+001, +2.30811177028E+002
+8.43889816361E+006, +6.20182428118E+001, +2.35455052932E+002
+8.60567612688E+006, +6.18823013590E+001, +2.40733200210E+002
+8.77245409015E+006, +6.21139983938E+001, +2.45525329911E+002
+8.93923205342E+006, +6.26262298483E+001, +2.50535964275E+002
+9.10601001669E+006, +6.25471973914E+001, +2.55760287926E+002
+9.27278797997E+006, +6.26782612835E+001, +2.60739909873E+002
+9.43956594324E+006, +6.24944200737E+001, +2.66180089587E+002
+9.60634390651E+006, +6.26374770146E+001, +2.71264120912E+002
+9.77312186978E+006, +6.26759516233E+001, +2.76343545968E+002
+9.93989983306E+006, +6.35155479338E+001, +2.81496666669E+002
+1.01066777963E+007, +6.28205426183E+001, +2.86844509638E+002
+1.02734557596E+007, +6.34505162407E+001, +2.92370640719E+002
+1.04402337229E+007, +6.34366176094E+001, +2.97102836002E+002
+1.06070116861E+007, +6.36630865371E+001, +3.02483742646E+002
+1.07737896494E+007, +6.38257343905E+001, +3.07676698620E+002
+1.09405676127E+007, +6.46324754625E+001, +3.12986795198E+002
+1.11073455760E+007, +6.40404732536E+001, +3.18754172330E+002
+1.12741235392E+007, +6.44793452458E+001, +3.23398903661E+002
+1.14409015025E+007, +6.53207581626E+001, +3.29698578993E+002
+1.16076794658E+007, +6.53471744512E+001, +3.35080868744E+002
+1.17744574290E+007, +6.55912423098E+001, +3.40845021826E+002
+1.19412353923E+007, +6.52246547297E+001, +3.46239807210E+002
+1.21080133556E+007, +6.61221963586E+001, +3.51559681891E+002
+1.22747913189E+007, +6.62360429332E+001, +3.57107581110E+002
+1.24415692821E+007, +6.60255273730E+001, +3.62485967266E+002
+1.26083472454E+007, +6.63438639746E+001, +3.68644880617E+002
+1.27751252087E+007, +6.68406147223E+001, +3.74083220258E+002
+1.29419031720E+007, +6.64544083990E+001, +3.79035116734E+002
+1.31086811352E+007, +6.81044192048E+001, +3.85595739276E+002
+1.32754590985E+007, +6.78987686932E+001, +3.91022456305E+002
+1.34422370618E+007, +6.75845834369E+001, +3.97540658259E+002
+1.36090150250E+007, +6.90320076390E+001, +4.02382162144E+002
+1.37757929883E+007, +6.85400731108E+001, +4.08611663709E+002
+1.39425709516E+007, +6.90591417107E+001, +4.13963173662E+002
+1.41093489149E+007, +6.99962465987E+001, +4.20530394682E+002
+1.42761268781E+007, +7.01452823090E+001, +4.26321962972E+002
+1.44429048414E+007, +7.05735891241E+001, +4.31648403243E+002
+1.46096828047E+007, +7.08990173071E+001, +4.38643659016E+002
+1.47764607679E+007, +7.11783083415E+001, +4.44381620425E+002
+1.49432387312E+007, +7.18709050373E+001, +4.51015682053E+002
+1.51100166945E+007, +7.18506619821E+001, +4.56488328640E+002
+1.52767946578E+007, +7.38758805150E+001, +4.62329011581E+002
+1.54435726210E+007, +7.31751387008E+001, +4.69196702316E+002
+1.56103505843E+007, +7.49045095774E+001, +4.75598128450E+002
+1.57771285476E+007, +7.38079408327E+001, +4.80914711063E+002
+1.59439065109E+007, +7.52976397738E+001, +4.88131686468E+002
+1.61106844741E+007, +7.44984541497E+001, +4.93982252657E+002
+1.62774624374E+007, +7.48130642252E+001, +4.99883946755E+002
+1.64442404007E+007, +7.48753371347E+001, +5.07365286380E+002
+1.66110183639E+007, +7.72478795429E+001, +5.12566058848E+002
+1.67777963272E+007, +7.75149216765E+001, +5.20943794984E+002
+1.69445742905E+007, +7.78199687398E+001, +5.26424756640E+002
+1.71113522538E+007, +7.51301967464E+001, +5.32021514604E+002
+1.72781302170E+007, +7.65935695359E+001, +5.41102336492E+002
+1.74449081803E+007, +7.74684337509E+001, +5.47405201575E+002
+1.76116861436E+007, +7.99383061218E+001, +5.55504687420E+002
+1.77784641068E+007, +7.87441164496E+001, +5.59818110452E+002
+1.79452420701E+007, +7.96915760857E+001, +5.66560042392E+002
+1.81120200334E+007, +8.14331488466E+001, +5.73381703538E+002
+1.82787979967E+007, +8.18752921319E+001, +5.81634723881E+002
+1.84455759599E+007, +8.23614939375E+001, +5.88053191404E+002
+1.86123539232E+007, +8.32616699876E+001, +5.95507838455E+002
+1.87791318865E+007, +8.31689300002E+001, +6.05495942315E+002
+1.89459098497E+007, +8.42064682717E+001, +6.12300477887E+002
+1.91126878130E+007, +8.58852048585E+001, +6.18429466063E+002
+1.92794657763E+007, +8.57780003887E+001, +6.26682999887E+002
+1.94462437396E+007, +8.69810189700E+001, +6.33421645211E+002
+1.96130217028E+007, +8.67414857509E+001, +6.41561677468E+002
+1.97797996661E+007, +8.76171992077E+001, +6.48542429445E+002
+1.99465776294E+007, +8.65253846732E+001, +6.57056565629E+002
+2.01133555927E+007, +8.82858150843E+001, +6.65917894525E+002
+2.02801335559E+007, +9.06300793294E+001, +6.72269971507E+002
+2.04469115192E+007, +9.35241522133E+001, +6.81149529538E+002
+2.06136894825E+007, +9.33968038692E+001, +6.90218464275E+002
+2.07804674457E+007, +9.22427606319E+001, +6.98732864177E+002
+2.09472454090E+007, +9.48414422192E+001, +7.08919302067E+002
+2.11140233723E+007, +9.47557807864E+001, +7.13272634697E+002
+2.12808013356E+007, +9.75054187333E+001, +7.22756764955E+002
+2.14475792988E+007, +9.81620777772E+001, +7.31327518271E+002
+2.16143572621E+007, +9.96529075223E+001, +7.39059744396E+002
+2.17811352254E+007, +9.87289496686E+001, +7.45351804499E+002
+2.19479131886E+007, +1.04360135715E+002, +7.56640861684E+002
+2.21146911519E+007, +1.04302066958E+002, +7.63601853595E+002
+2.22814691152E+007, +1.03619957585E+002, +7.74384037429E+002
+2.24482470785E+007, +1.07109043748E+002, +7.85406185244E+002
+2.26150250417E+007, +1.10749011902E+002, +7.93788159807E+002
+2.27818030050E+007, +1.10028725337E+002, +8.02473514924E+002
+2.29485809683E+007, +1.14277996886E+002, +8.10670837492E+002
+2.31153589316E+007, +1.12713495759E+002, +8.22964852663E+002
+2.32821368948E+007, +1.18296430273E+002, +8.32937460506E+002
+2.34489148581E+007, +1.16789553769E+002, +8.38731249882E+002
+2.36156928214E+007, +1.21329944455E+002, +8.51295981016E+002
+2.37824707846E+007, +1.23968198470E+002, +8.60216554421E+002
+2.39492487479E+007, +1.20686252561E+002, +8.68931193502E+002
+2.41160267112E+007, +1.24796873324E+002, +8.79222480700E+002
+2.42828046745E+007, +1.23848680273E+002, +8.91399605683E+002
+2.44495826377E+007, +1.33134499006E+002, +9.01439680012E+002
+2.46163606010E+007, +1.31741426130E+002, +9.13848140485E+002
+2.47831385643E+007, +1.34259941280E+002, +9.23527714795E+002
+2.49499165275E+007, +1.39573858725E+002, +9.30455938907E+002
+2.51166944908E+007, +1.40589996995E+002, +9.41566168845E+002
+2.52834724541E+007, +1.41426627250E+002, +9.55462347575E+002
+2.54502504174E+007, +1.44009798612E+002, +9.61996464851E+002
+2.56170283806E+007, +1.42864723045E+002, +9.73698235719E+002
+2.57838063439E+007, +1.50813677398E+002, +9.89830297750E+002
+2.59505843072E+007, +1.54909037379E+002, +1.00070677158E+003
+2.61173622705E+007, +1.58210091656E+002, +1.01206674263E+003
+2.62841402337E+007, +1.57776419451E+002, +1.01818468000E+003
+2.64509181970E+007, +1.62596812461E+002, +1.03352794713E+003
+2.66176961603E+007, +1.64134129514E+002, +1.04824533877E+003
+2.67844741235E+007, +1.67552585671E+002, +1.05585136397E+003
+2.69512520868E+007, +1.71439449637E+002, +1.06689624578E+003
+2.71180300501E+007, +1.70978858673E+002, +1.07666206923E+003
+2.72848080134E+007, +1.79961738165E+002, +1.09345368677E+003
+2.74515859766E+007, +1.83553587967E+002, +1.10268436187E+003
+2.76183639399E+007, +1.83545691875E+002, +1.11086311145E+003
+2.77851419032E+007, +1.82410377819E+002, +1.12752084980E+003
+2.79519198664E+007, +1.89688344965E+002, +1.13883390516E+003
+2.81186978297E+007, +1.96361607580E+002, +1.14399634129E+003
+2.82854757930E+007, +1.99107099557E+002, +1.15753332875E+003
+2.84522537563E+007, +1.89721924259E+002, +1.18459515437E+003
+2.86190317195E+007, +1.96513122774E+002, +1.18615483500E+003
+2.87858096828E+007, +2.05460525584E+002, +1.20192112675E+003
+2.89525876461E+007, +2.01669723993E+002, +1.21985832000E+003
+2.91193656093E+007, +1.99256327397E+002, +1.22715620243E+003
+2.92861435726E+007, +2.07329168551E+002, +1.24442444568E+003
+2.94529215359E+007, +2.12706564906E+002, +1.26336933241E+003
+2.96196994992E+007, +2.17971512837E+002, +1.27730618355E+003
+2.97864774624E+007, +2.21973066350E+002, +1.29874041931E+003
+2.99532554257E+007, +2.22079762716E+002, +1.31085806956E+003
+3.01200333890E+007, +2.23388282976E+002, +1.33049726080E+003
+3.02868113523E+007, +2.14762160995E+002, +1.34997774974E+003
+3.04535893155E+007, +2.24994268588E+002, +1.36460688984E+003
+3.06203672788E+007, +2.26964095548E+002, +1.38569560419E+003
+3.07871452421E+007, +2.37540028260E+002, +1.40544595966E+003
+3.09539232053E+007, +2.35238451069E+002, +1.41362224387E+003
+3.11207011686E+007, +2.35196451936E+002, +1.45452398826E+003
+3.12874791319E+007, +2.44449445256E+002, +1.45540966249E+003
+3.14542570952E+007, +2.51295503416E+002, +1.48065825250E+003
+3.16210350584E+007, +2.52014093306E+002, +1.50414245781E+003
+3.17878130217E+007, +2.51031378404E+002, +1.52964774174E+003
+3.19545909850E+007, +2.60013008046E+002, +1.54480425268E+003
+3.21213689482E+007, +2.62284986669E+002, +1.57798681902E+003
+3.22881469115E+007, +2.63597514273E+002, +1.59451278299E+003
+3.24549248748E+007, +2.74752331679E+002, +1.62770892976E+003
+3.26217028381E+007, +2.69058341375E+002, +1.64642852515E+003
+3.27884808013E+007, +2.88259468148E+002, +1.66992482689E+003
+3.29552587646E+007, +2.91034976304E+002, +1.68725627531E+003
+3.31220367279E+007, +2.92399866886E+002, +1.71172715382E+003
+3.32888146912E+007, +3.07999604589E+002, +1.74364231771E+003
+3.34555926544E+007, +2.99823887483E+002, +1.77051340952E+003
+3.36223706177E+007, +3.22462431852E+002, +1.79918725172E+003
+3.37891485810E+007, +3.16386957120E+002, +1.81841526755E+003
+3.39559265442E+007, +3.44124609962E+002, +1.86648628530E+003
+3.41227045075E+007, +3.39376013313E+002, +1.89897249985E+003
+3.42894824708E+007, +3.58707448725E+002, +1.93829031704E+003
+3.44562604341E+007, +3.66276835991E+002, +1.95260683895E+003
+3.46230383973E+007, +3.86437315125E+002, +2.01622097500E+003
+3.47898163606E+007, +3.84498003821E+002, +2.02936357627E+003
+3.49565943239E+007, +4.15551028732E+002, +2.07485804455E+003
+3.51233722871E+007, +4.11832007691E+002, +2.11089681032E+003
+3.52901502504E+007, +4.01522652382E+002, +2.10890325434E+003
+3.54569282137E+007, +4.29720668173E+002, +2.18834257803E+003
+3.56237061770E+007, +4.09441082756E+002, +2.23935921144E+003
+3.57904841402E+007, +4.56411783684E+002, +2.27187691706E+003
+3.59572621035E+007, +4.81339356864E+002, +2.30535627249E+003
+3.61240400668E+007, +4.95850010851E+002, +2.33494506113E+003
+3.62908180301E+007, +5.18547076098E+002, +2.42656568527E+003
+3.64575959933E+007, +5.44287464967E+002, +2.46864172459E+003
+3.66243739566E+007, +5.45426208092E+002, +2.49773765922E+003
+3.67911519199E+007, +5.92799933984E+002, +2.56738839428E+003
+3.69579298831E+007, +5.75512418580E+002, +2.60501390087E+003
+3.71247078464E+007, +6.30967969530E+002, +2.67420023687E+003
+3.72914858097E+007, +6.35190271996E+002, +2.76658907355E+003
+3.74582637730E+007, +7.04187210392E+002, +2.78811110937E+003
+3.76250417362E+007, +7.16273824306E+002, +2.81535653848E+003
+3.77918196995E+007, +7.02888795848E+002, +2.95073845063E+003
+3.79585976628E+007, +7.73716589018E+002, +3.01030795202E+003
+3.81253756260E+007, +8.30163038740E+002, +3.06108449201E+003
+3.82921535893E+007, +9.07627296071E+002, +3.11356565761E+003
+3.84589315526E+007, +9.20016621056E+002, +3.21175762882E+003
+3.86257095159E+007, +9.02268656988E+002, +3.28222932360E+003
+3.87924874791E+007, +9.68778924778E+002, +3.37301932767E+003
+3.89592654424E+007, +1.02479818853E+003, +3.43783002384E+003
+3.91260434057E+007, +1.13378219584E+003, +3.58582622649E+003
+3.92928213689E+007, +1.16236755362E+003, +3.67307281898E+003
+3.94595993322E+007, +1.29092908542E+003, +3.83111696198E+003
+3.96263772955E+007, +1.24325288994E+003, +3.89649606233E+003
+3.97931552588E+007, +1.35307225250E+003, +3.97456763483E+003
+3.99599332220E+007, +1.47819409903E+003, +4.09858110078E+003
+4.01267111853E+007, +1.62313211358E+003, +4.29635296191E+003
+4.02934891486E+007, +1.66647785827E+003, +4.34378573350E+003
+4.04602671119E+007, +1.80309709528E+003, +4.48566946470E+003
+4.06270450751E+007, +1.92490509672E+003, +4.63768347677E+003
+4.07938230384E+007, +2.22304817898E+003, +4.82929321003E+003
+4.09606010017E+007, +2.39443287598E+003, +5.06464201330E+003
+4.11273789649E+007, +2.54648955537E+003, +5.20933854642E+003
+4.12941569282E+007, +2.74568691250E+003, +5.33972319855E+003
+4.14609348915E+007, +3.11537526844E+003, +5.52596290106E+003
+4.16277128548E+007, +3.23612287350E+003, +5.69064418658E+003
+4.17944908180E+007, +3.50807121254E+003, +5.69700889483E+003
+4.19612687813E+007, +3.83596010466E+003, +5.90452594323E+003
+4.21280467446E+007, +4.55988570857E+003, +6.44217587061E+003
+4.22948247078E+007, +4.63043750775E+003, +6.34974576233E+003
+4.24616026711E+007, +5.14681431083E+003, +6.17717598200E+003
+4.26283806344E+007, +5.94566624499E+003, +6.09322398545E+003
+4.27951585977E+007, +6.59900146326E+003, +7.02215686205E+003
+4.29619365609E+007, +7.51988615651E+003, +6.25649381593E+003
+4.31287145242E+007, +8.71306148357E+003, +5.94804434259E+003
+4.32954924875E+007, +9.29085886231E+003, +6.33945873373E+003
+4.34622704508E+007, +1.04532424259E+004, +5.22697824647E+003
+4.36290484140E+007, +1.09216047584E+004, +4.30027822465E+003
+4.37958263773E+007, +1.25817061945E+004, +3.30738486808E+003
+4.39626043406E+007, +1.20687685139E+004, +2.91194074866E+003
+4.41293823038E+007, +1.20741282515E+004, +7.30019546794E+002
+4.42961602671E+007, +1.26909597216E+004, -2.65968331606E+002
+4.44629382304E+007, +1.26038064349E+004, -1.35345888340E+003
+4.46297161937E+007, +1.20651087387E+004, -2.84514054538E+003
+4.47964941569E+007, +1.10040121989E+004, -3.81900901077E+003
+4.49632721202E+007, +1.04743658807E+004, -4.99902105660E+003
+4.51300500835E+007, +1.04222902778E+004, -4.96542467126E+003
+4.52968280467E+007, +8.45521986736E+003, -5.62483373034E+003
+4.54636060100E+007, +7.49599684234E+003, -6.04912844907E+003
+4.56303839733E+007, +6.72980715162E+003, -6.51327741906E+003
+4.57971619366E+007, +6.33027199508E+003, -6.62117121188E+003
+4.59639398998E+007, +5.10244027543E+003, -6.32751297887E+003
+4.61307178631E+007, +4.94963463298E+003, -6.02197587946E+003
+4.62974958264E+007, +4.45100798522E+003, -5.82065811560E+003
+4.64642737896E+007, +3.92728451563E+003, -5.91093922200E+003
+4.66310517529E+007, +3.45838156933E+003, -5.64742556271E+003
+4.67978297162E+007, +3.47229094530E+003, -5.27534550241E+003
+4.69646076795E+007, +2.95239907663E+003, -5.18177158134E+003
+4.71313856427E+007, +2.73819361495E+003, -4.94385503741E+003
+4.72981636060E+007, +2.41817079648E+003, -4.83736710560E+003
+4.74649415693E+007, +2.36114975833E+003, -4.69257072863E+003
+4.76317195326E+007, +2.26831159674E+003, -4.37067449548E+003
+4.77984974958E+007, +2.12835113632E+003, -4.31542454637E+003
+4.79652754591E+007, +1.89037375284E+003, -4.12738829483E+003
+4.81320534224E+007, +1.82963985295E+003, -4.07820334653E+003
+4.82988313856E+007, +1.71672316934E+003, -3.94929536732E+003
+4.84656093489E+007, +1.64286438607E+003, -3.73296065369E+003
+4.86323873122E+007, +1.61730030239E+003, -3.62682452446E+003
+4.87991652755E+007, +1.47584888511E+003, -3.52670571603E+003
+4.89659432387E+007, +1.37821444066E+003, -3.48600964168E+003
+4.91327212020E+007, +1.31161581458E+003, -3.33479983353E+003
+4.92994991653E+007, +1.33241416414E+003, -3.28211408461E+003
+4.94662771285E+007, +1.25804015365E+003, -3.14405253628E+003
+4.96330550918E+007, +1.20143098402E+003, -3.10228137007E+003
+4.97998330551E+007, +1.15177052261E+003, -2.98001497875E+003
+4.99666110184E+007, +1.11367441756E+003, -2.93079124092E+003
+5.01333889816E+007, +1.05954976211E+003, -2.87693714569E+003
+5.03001669449E+007, +1.01397463711E+003, -2.82089661653E+003
+5.04669449082E+007, +9.65365043899E+002, -2.74298529239E+003
+5.06337228715E+007, +9.58928021400E+002, -2.69474453096E+003
+5.08005008347E+007, +8.95171597427E+002, -2.64738494321E+003
+5.09672787980E+007, +8.78022494794E+002, -2.57840435747E+003
+5.11340567613E+007, +8.09644969867E+002, -2.51564259216E+003
+5.13008347245E+007, +7.58790709684E+002, -2.47642469517E+003
+5.14676126878E+007, +7.48425588177E+002, -2.43967977602E+003
+5.16343906511E+007, +7.29357109080E+002, -2.36133715630E+003
+5.18011686144E+007, +6.79494439264E+002, -2.32507534709E+003
+5.19679465776E+007, +6.54876793185E+002, -2.30521488265E+003
+5.21347245409E+007, +6.19325774964E+002, -2.21270273479E+003
+5.23015025042E+007, +5.88354949482E+002, -2.15038447751E+003
+5.24682804674E+007, +5.45545273788E+002, -2.12302896152E+003
+5.26350584307E+007, +5.48107163883E+002, -2.08022131676E+003
+5.28018363940E+007, +5.06921699743E+002, -2.03029239623E+003
+5.29686143573E+007, +5.01610897747E+002, -1.97302753657E+003
+5.31353923205E+007, +4.97227554581E+002, -1.95766012000E+003
+5.33021702838E+007, +4.72483711096E+002, -1.90405340822E+003
+5.34689482471E+007, +4.64430287346E+002, -1.83495400916E+003
