"# Channel 1"
"# Trace 1"
Frequency, Formatted Data, Formatted Data
+1.00000000000E+005, +1.09814724432E+000, +2.69814138210E+000
+2.66777963272E+005, +1.09960291440E+000, +7.15677533696E+000
+4.33555926544E+005, +1.11987458195E+000, +1.16330015034E+001
+6.00333889816E+005, +1.17960337355E+000, +1.60431936820E+001
+7.67111853088E+005, +1.25072558874E+000, +2.05230483936E+001
+9.33889816361E+005, +1.29844513314E+000, +2.49039768875E+001
+1.10066777963E+006, +1.26744309550E+000, +2.93759220214E+001
+1.26744574290E+006, +1.39028856029E+000, +3.37210912885E+001
+1.43422370618E+006, +1.33649096195E+000, +3.82385529551E+001
+1.60100166945E+006, +1.50359349939E+000, +4.25321023835E+001
+1.76777963272E+006, +1.48214359566E+000, +4.69136986655E+001
+1.93455759599E+006, +1.51325511160E+000, +5.12088313946E+001
+2.10133555927E+006, +1.58180810894E+000, +5.56039898203E+001
+2.26811352254E+006, +1.64154434092E+000, +6.00308988509E+001
+2.43489148581E+006, +1.61418047262E+000, +6.44996323798E+001
+2.60166944908E+006, +1.65071654527E+000, +6.87775130983E+001
+2.76844741235E+006, +1.58358675042E+000, +7.33098273285E+001
+2.93522537563E+006, +1.70731359223E+000, +7.76043045000E+001
+3.10200333890E+006, +1.81533094287E+000, +8.19364343992E+001
+3.26878130217E+006, +1.56063202733E+000, +8.64850414195E+001
+3.43555926544E+006, +1.75086806125E+000, +9.08817879981E+001
+3.60233722871E+006, +1.81609468972E+000, +9.54314341361E+001
+3.76911519199E+006, +1.73352361728E+000, +9.99338143433E+001
+3.93589315526E+006, +1.71158229712E+000, +1.04108371348E+002
+4.10267111853E+006, +1.69565570677E+000, +1.08793496039E+002
+4.26944908180E+006, +1.64857884866E+000, +1.13380827826E+002
+4.43622704508E+006, +1.77017316673E+000, +1.17630301297E+002
+4.60300500835E+006, +1.67132031717E+000, +1.22245604901E+002
+4.76978297162E+006, +1.64896463148E+000, +1.26454331911E+002
+4.93656093489E+006, +2.02154044531E+000, +1.31193634200E+002
+5.10333889816E+006, +1.87353805056E+000, +1.35586973971E+002
+5.27011686144E+006, +2.32817101083E+000, +1.40262598972E+002
+5.43689482471E+006, +1.87822208103E+000, +1.44702179096E+002
+5.60367278798E+006, +2.10130358706E+000, +1.49505140765E+002
+5.77045075125E+006, +1.89296720092E+000, +1.53748818499E+002
+5.93722871452E+006, +2.22935434434E+000, +1.58339513751E+002
+6.10400667780E+006, +2.39874236540E+000, +1.63045311792E+002
+6.27078464107E+006, +2.39538786088E+000, +1.67292590080E+002
+6.43756260434E+006, +2.41803950251E+000, +1.71958674021E+002
+6.60434056761E+006, +2.59313619662E+000, +1.76513657322E+002
+6.77111853088E+006, +2.83494098635E+000, +1.80884040365E+002
+6.93789649416E+006, +2.66006392088E+000, +1.85794851132E+002
+7.10467445743E+006, +2.65588310689E+000, +1.90344189787E+002
+7.27145242070E+006, +2.72342190710E+000, +1.94807452687E+002
+7.43823038397E+006, +2.78643160089E+000, +1.99041902139E+002
+7.60500834725E+006, +2.76562944228E+000, +2.04104459019E+002
+7.77178631052E+006, +2.93777163230E+000, +2.08785776244E+002
+7.93856427379E+006, +2.77909157493E+000, +2.13079070813E+002
+8.10534223706E+006, +2.80359961221E+000, +2.17893961185E+002
+8.27212020033E+006, +2.84489725742E+000, +2.22647618967E+002
+8.43889816361E+006, +2.66517282544E+000, +2.27421897219E+002
+8.60567612688E+006, +2.75706640172E+000, +2.32305006607E+002
+8.77245409015E+006, +2.54264524576E+000, +2.36771829995E+002
+8.93923205342E+006, +2.59766200380E+000, +2.41556845022E+002
+9.10601001669E+006, +2.57087856836E+000, +2.46503338094E+002
+9.27278797997E+006, +2.72008833358E+000, +2.51359319245E+002
+9.43956594324E+006, +2.46157197078E+000, +2.56024783215E+002
+9.60634390651E+006, +2.39901781503E+000, +2.60872569042E+002
+9.77312186978E+006, +2.37780341293E+000, +2.65812316412E+002
+9.93989983306E+006, +2.57848477783E+000, +2.70966773269E+002
+1.01066777963E+007, +2.13143160834E+000, +2.75555797631E+002
+1.02734557596E+007, +1.89635553276E+000, +2.80952709947E+002
+1.04402337229E+007, +2.12683480073E+000, +2.85529798964E+002
+1.06070116861E+007, +1.92618075604E+000, +2.90584854841E+002
+1.07737896494E+007, +2.22550635626E+000, +2.95710384040E+002
+1.09405676127E+007, +2.47655379402E+000, +3.00666455150E+002
+1.11073455760E+007, +2.21727621199E+000, +3.05707273285E+002
+1.12741235392E+007, +1.89699449970E+000, +3.10810388980E+002
+1.14409015025E+007, +2.29785204943E+000, +3.15900091546E+002
+1.16076794658E+007, +2.30170531337E+000, +3.21425369617E+002
+1.17744574290E+007, +2.28813600280E+000, +3.26447637959E+002
+1.19412353923E+007, +1.92124639630E+000, +3.31626249869E+002
+1.21080133556E+007, +2.00531932985E+000, +3.37498479975E+002
+1.22747913189E+007, +2.29059397127E+000, +3.42436237548E+002
+1.24415692821E+007, +1.38653919033E+000, +3.47496211585E+002
+1.26083472454E+007, +1.14226848042E+000, +3.53486200042E+002
+1.27751252087E+007, +1.80725839508E+000, +3.57761267402E+002
+1.29419031720E+007, +1.38506733581E+000, +3.63193539615E+002
+1.31086811352E+007, +2.12580838154E+000, +3.68859462632E+002
+1.32754590985E+007, +1.61522690061E+000, +3.74979294612E+002
+1.34422370618E+007, +1.39021436406E+000, +3.79690231196E+002
+1.36090150250E+007, +2.21433414985E+000, +3.85630797657E+002
+1.37757929883E+007, +1.87586363907E+000, +3.90010299762E+002
+1.39425709516E+007, +1.88265892094E+000, +3.96059383091E+002
+1.41093489149E+007, +1.66669502658E+000, +4.01821078523E+002
+1.42761268781E+007, +2.45116231482E+000, +4.07165444354E+002
+1.44429048414E+007, +2.44332706277E+000, +4.12553582489E+002
+1.46096828047E+007, +1.95835005318E+000, +4.19487524322E+002
+1.47764607679E+007, +1.83890292743E+000, +4.24109727993E+002
+1.49432387312E+007, +1.49631156762E+000, +4.30101804259E+002
+1.51100166945E+007, +2.04204179402E+000, +4.36021440878E+002
+1.52767946578E+007, +1.90214737164E+000, +4.41355927425E+002
+1.54435726210E+007, +1.35608100193E+000, +4.47109039653E+002
+1.56103505843E+007, +2.38283283875E+000, +4.53219788329E+002
+1.57771285476E+007, +1.89518029724E+000, +4.58266042508E+002
+1.59439065109E+007, +1.23201125938E+000, +4.63968470087E+002
+1.61106844741E+007, +1.33712080545E+000, +4.71127404724E+002
+1.62774624374E+007, +2.54324434730E+000, +4.77343766030E+002
+1.64442404007E+007, +1.23076063813E+000, +4.83274239524E+002
+1.66110183639E+007, +2.09432675462E+000, +4.89602334704E+002
+1.67777963272E+007, +1.95176665651E+000, +4.95619860015E+002
+1.69445742905E+007, +2.14483094466E+000, +5.01937656763E+002
+1.71113522538E+007, -1.13706108934E+000, +5.06798968500E+002
+1.72781302170E+007, +1.18083314466E+000, +5.14345345207E+002
+1.74449081803E+007, +2.56176244447E-001, +5.20069064641E+002
+1.76116861436E+007, +1.78940649827E+000, +5.27038480158E+002
+1.77784641068E+007, +1.13314180654E+000, +5.32925445321E+002
+1.79452420701E+007, +1.98479936777E+000, +5.39335611121E+002
+1.81120200334E+007, +2.70103566495E+000, +5.44651871722E+002
+1.82787979967E+007, +1.75524981595E+000, +5.53000462298E+002
+1.84455759599E+007, +2.57458445807E+000, +5.59738361713E+002
+1.86123539232E+007, +3.02151644439E+000, +5.66849287598E+002
+1.87791318865E+007, +2.32021399126E+000, +5.73780574220E+002
+1.89459098497E+007, +2.71085978063E+000, +5.81251496845E+002
+1.91126878130E+007, +2.36086787317E+000, +5.87096555848E+002
+1.92794657763E+007, +2.59344767681E+000, +5.94919938764E+002
+1.94462437396E+007, +2.03211276359E+000, +6.02914141281E+002
+1.96130217028E+007, +2.82009651116E+000, +6.09549414030E+002
+1.97797996661E+007, +3.68124356029E+000, +6.15550413801E+002
+1.99465776294E+007, +1.32108396410E+000, +6.22933216724E+002
+2.01133555927E+007, +2.70457410899E+000, +6.30538873543E+002
+2.02801335559E+007, +3.09116476751E+000, +6.38608384236E+002
+2.04469115192E+007, +3.92149289824E+000, +6.45377310055E+002
+2.06136894825E+007, +3.92332781258E+000, +6.53258779825E+002
+2.07804674457E+007, +5.02241124549E+000, +6.59951589804E+002
+2.09472454090E+007, +2.65818021778E+000, +6.70254765108E+002
+2.11140233723E+007, +3.46246874305E+000, +6.73924552226E+002
+2.12808013356E+007, +4.33081995559E+000, +6.82351758661E+002
+2.14475792988E+007, +4.65172689044E+000, +6.92350611808E+002
+2.16143572621E+007, +7.17184148226E+000, +6.99369537323E+002
+2.17811352254E+007, +5.80866676052E+000, +7.06681678072E+002
+2.19479131886E+007, +7.49186892379E+000, +7.16357340468E+002
+2.21146911519E+007, +7.74558970505E+000, +7.23214716434E+002
+2.22814691152E+007, +5.04224313419E+000, +7.32241107766E+002
+2.24482470785E+007, +8.50967948848E+000, +7.42687824278E+002
+2.26150250417E+007, +8.14808252792E+000, +7.48593914943E+002
+2.27818030050E+007, +8.48509499009E+000, +7.58735327650E+002
+2.29485809683E+007, +1.35370076102E+001, +7.65636390321E+002
+2.31153589316E+007, +8.37770831342E+000, +7.77672751703E+002
+2.32821368948E+007, +1.21731087086E+001, +7.84279305183E+002
+2.34489148581E+007, +9.53843583252E+000, +7.92951755479E+002
+2.36156928214E+007, +1.37351497402E+001, +8.01915809238E+002
+2.37824707846E+007, +1.09276556536E+001, +8.12595005161E+002
+2.39492487479E+007, +1.21613436440E+001, +8.17501727188E+002
+2.41160267112E+007, +1.36162929045E+001, +8.27265576114E+002
+2.42828046745E+007, +9.44162683131E+000, +8.39321931563E+002
+2.44495826377E+007, +1.93055020372E+001, +8.51465446669E+002
+2.46163606010E+007, +1.54367846743E+001, +8.56925997647E+002
+2.47831385643E+007, +1.73849656197E+001, +8.68607919333E+002
+2.49499165275E+007, +2.24652369732E+001, +8.73612435469E+002
+2.51166944908E+007, +2.04586886022E+001, +8.84929456527E+002
+2.52834724541E+007, +1.91795199112E+001, +8.95721144616E+002
+2.54502504174E+007, +2.31054194453E+001, +9.08536856626E+002
+2.56170283806E+007, +1.99034804950E+001, +9.17976432573E+002
+2.57838063439E+007, +2.18114711575E+001, +9.33028347740E+002
+2.59505843072E+007, +2.59302569817E+001, +9.41912322020E+002
+2.61173622705E+007, +2.65720495032E+001, +9.50714342477E+002
+2.62841402337E+007, +2.19560809495E+001, +9.61849949545E+002
+2.64509181970E+007, +2.34951635240E+001, +9.69505076253E+002
+2.66176961603E+007, +2.68283483595E+001, +9.88442335867E+002
+2.67844741235E+007, +2.72527410273E+001, +9.93980023690E+002
+2.69512520868E+007, +2.90368749729E+001, +1.00408760568E+003
+2.71180300501E+007, +2.76545908191E+001, +1.00788827119E+003
+2.72848080134E+007, +2.73960578069E+001, +1.03144768128E+003
+2.74515859766E+007, +3.44582604165E+001, +1.03818483727E+003
+2.76183639399E+007, +3.16111104436E+001, +1.05102676171E+003
+2.77851419032E+007, +2.95235621547E+001, +1.06076384859E+003
+2.79519198664E+007, +3.02389524622E+001, +1.07678479652E+003
+2.81186978297E+007, +3.70384008656E+001, +1.08104055446E+003
+2.82854757930E+007, +3.55285226124E+001, +1.09557999228E+003
+2.84522537563E+007, +2.96735824233E+001, +1.11188671246E+003
+2.86190317195E+007, +3.36982909534E+001, +1.12877948872E+003
+2.87858096828E+007, +4.33933985330E+001, +1.13995839457E+003
+2.89525876461E+007, +3.90606271720E+001, +1.15046535498E+003
+2.91193656093E+007, +3.57249637324E+001, +1.16145430070E+003
+2.92861435726E+007, +3.55600461433E+001, +1.17260081914E+003
+2.94529215359E+007, +4.42298619034E+001, +1.19488686993E+003
+2.96196994992E+007, +4.68235220778E+001, +1.20462252415E+003
+2.97864774624E+007, +4.65911662003E+001, +1.22343815332E+003
+2.99532554257E+007, +4.90461771632E+001, +1.23907578023E+003
+3.01200333890E+007, +4.98836641382E+001, +1.25218267464E+003
+3.02868113523E+007, +5.17853579657E+001, +1.27421484712E+003
+3.04535893155E+007, +5.06098629719E+001, +1.28924225071E+003
+3.06203672788E+007, +4.98380008160E+001, +1.30381251116E+003
+3.07871452421E+007, +5.28118354415E+001, +1.31747269144E+003
+3.09539232053E+007, +5.28278217378E+001, +1.33422045142E+003
+3.11207011686E+007, +5.21068257337E+001, +1.35684289149E+003
+3.12874791319E+007, +5.95891139966E+001, +1.36273663630E+003
+3.14542570952E+007, +6.03832188014E+001, +1.38417957100E+003
+3.16210350584E+007, +5.80535337516E+001, +1.39846918115E+003
+3.17878130217E+007, +5.60568942099E+001, +1.41997594499E+003
+3.19545909850E+007, +6.21322820761E+001, +1.44120444503E+003
+3.21213689482E+007, +5.58339350343E+001, +1.46002416009E+003
+3.22881469115E+007, +5.64824846671E+001, +1.47038070294E+003
+3.24549248748E+007, +6.87455167287E+001, +1.49869127076E+003
+3.26217028381E+007, +5.23464430691E+001, +1.52076033832E+003
+3.27884808013E+007, +6.02526468880E+001, +1.55060252952E+003
+3.29552587646E+007, +7.26249872941E+001, +1.56138044009E+003
+3.31220367279E+007, +8.21037859870E+001, +1.58224604808E+003
+3.32888146912E+007, +7.05644208165E+001, +1.61461323852E+003
+3.34555926544E+007, +5.64698409356E+001, +1.62836502183E+003
+3.36223706177E+007, +7.67711614222E+001, +1.64856980911E+003
+3.37891485810E+007, +7.36337737343E+001, +1.67051886254E+003
+3.39559265442E+007, +7.92338183472E+001, +1.70225799187E+003
+3.41227045075E+007, +8.01277670849E+001, +1.72029490471E+003
+3.42894824708E+007, +7.95725824365E+001, +1.75211452885E+003
+3.44562604341E+007, +8.33841962132E+001, +1.77584665869E+003
+3.46230383973E+007, +8.31389013473E+001, +1.81902406607E+003
+3.47898163606E+007, +8.67284553500E+001, +1.82997155787E+003
+3.49565943239E+007, +7.76085482020E+001, +1.87802126598E+003
+3.51233722871E+007, +8.75108399899E+001, +1.89257584882E+003
+3.52901502504E+007, +9.22921155557E+001, +1.90143870405E+003
+3.54569282137E+007, +1.05237098299E+002, +1.94882873429E+003
+3.56237061770E+007, +7.94315983528E+001, +1.99108520012E+003
+3.57904841402E+007, +9.13885199056E+001, +2.03946845714E+003
+3.59572621035E+007, +1.12958192312E+002, +2.06717474434E+003
+3.61240400668E+007, +1.24727215840E+002, +2.09587507086E+003
+3.62908180301E+007, +1.19283852497E+002, +2.15849267875E+003
+3.64575959933E+007, +1.14993957044E+002, +2.18463088166E+003
+3.66243739566E+007, +1.26221879916E+002, +2.22385425910E+003
+3.67911519199E+007, +1.29965034401E+002, +2.28234685909E+003
+3.69579298831E+007, +1.05018400254E+002, +2.29096659691E+003
+3.71247078464E+007, +1.25597961747E+002, +2.35880092725E+003
+3.72914858097E+007, +1.34533103690E+002, +2.43650716516E+003
+3.74582637730E+007, +1.46136416179E+002, +2.49296757981E+003
+3.76250417362E+007, +1.50506934268E+002, +2.52242895547E+003
+3.77918196995E+007, +1.35622531804E+002, +2.54017800733E+003
+3.79585976628E+007, +1.57341989007E+002, +2.58438339358E+003
+3.81253756260E+007, +1.73087684168E+002, +2.68673925384E+003
+3.82921535893E+007, +1.98655925900E+002, +2.71602321899E+003
+3.84589315526E+007, +2.13620872590E+002, +2.81578320560E+003
+3.86257095159E+007, +2.07787748593E+002, +2.89495141645E+003
+3.87924874791E+007, +1.95216503726E+002, +2.94190634118E+003
+3.89592654424E+007, +2.43475860185E+002, +3.02190402772E+003
+3.91260434057E+007, +2.40952868210E+002, +3.09735980287E+003
+3.92928213689E+007, +2.80302856110E+002, +3.17843842861E+003
+3.94595993322E+007, +2.77881731978E+002, +3.27915486368E+003
+3.96263772955E+007, +2.93301106787E+002, +3.35803792042E+003
+3.97931552588E+007, +3.39115689794E+002, +3.45089263061E+003
+3.99599332220E+007, +3.44143039031E+002, +3.52366903990E+003
+4.01267111853E+007, +3.49232491715E+002, +3.70829445185E+003
+4.02934891486E+007, +3.46973258741E+002, +3.75170145812E+003
+4.04602671119E+007, +4.19160437826E+002, +3.84736178892E+003
+4.06270450751E+007, +4.85783917383E+002, +4.03397198911E+003
+4.07938230384E+007, +5.29263966248E+002, +4.19514032367E+003
+4.09606010017E+007, +5.59475626659E+002, +4.27513007750E+003
+4.11273789649E+007, +5.85641102945E+002, +4.43734917208E+003
+4.12941569282E+007, +6.08911162761E+002, +4.58099154809E+003
+4.14609348915E+007, +7.09133511209E+002, +4.91904664795E+003
+4.16277128548E+007, +8.35521116500E+002, +5.00408621043E+003
+4.17944908180E+007, +8.37383282468E+002, +5.13801968186E+003
+4.19612687813E+007, +9.30776182979E+002, +5.38252873695E+003
+4.21280467446E+007, +8.98494297957E+002, +5.66586583740E+003
+4.22948247078E+007, +1.21558927349E+003, +5.91044818798E+003
+4.24616026711E+007, +1.36952294160E+003, +6.08447142153E+003
+4.26283806344E+007, +1.50558761574E+003, +6.36964630232E+003
+4.27951585977E+007, +1.48373658307E+003, +7.03066161721E+003
+4.29619365609E+007, +1.84642626976E+003, +7.08679112239E+003
+4.31287145242E+007, +2.34459009613E+003, +7.61754525579E+003
+4.32954924875E+007, +2.50744848338E+003, +8.10748695468E+003
+4.34622704508E+007, +2.73763312124E+003, +8.62537092871E+003
+4.36290484140E+007, +3.69076590268E+003, +8.75254506556E+003
+4.37958263773E+007, +3.95113550975E+003, +9.66271512314E+003
+4.39626043406E+007, +4.72643393913E+003, +1.02203286806E+004
+4.41293823038E+007, +6.17724612069E+003, +1.06997008462E+004
+4.42961602671E+007, +6.76791002495E+003, +1.18361101623E+004
+4.44629382304E+007, +8.09843212366E+003, +1.22972311322E+004
+4.46297161937E+007, +1.06146450625E+004, +1.23861721931E+004
+4.47964941569E+007, +1.31835604593E+004, +1.20733608247E+004
+4.49632721202E+007, +1.69116431072E+004, +1.21175251906E+004
+4.51300500835E+007, +1.83722051352E+004, +1.11050918536E+004
+4.52968280467E+007, +2.05941508037E+004, +4.23973014936E+003
+4.54636060100E+007, +2.31569830307E+004, -2.52372453849E+003
+4.56303839733E+007, +2.29433361433E+004, -5.79247962543E+003
+4.57971619366E+007, +1.89044107897E+004, -7.99324265268E+003
+4.59639398998E+007, +1.56197999422E+004, -1.17555585268E+004
+4.61307178631E+007, +1.35006762851E+004, -1.04635555912E+004
+4.62974958264E+007, +1.15025011139E+004, -9.62546717312E+003
+4.64642737896E+007, +8.84048513301E+003, -1.02305897346E+004
+4.66310517529E+007, +7.02376022885E+003, -1.00535601236E+004
+4.67978297162E+007, +6.51887907764E+003, -8.58338224971E+003
+4.69646076795E+007, +5.60056241698E+003, -8.32597551921E+003
+4.71313856427E+007, +4.73153365919E+003, -7.83884394438E+003
+4.72981636060E+007, +4.08881039604E+003, -7.50217258772E+003
+4.74649415693E+007, +3.97097560174E+003, -7.18678368266E+003
+4.76317195326E+007, +3.77057025648E+003, -6.47157902895E+003
+4.77984974958E+007, +3.31268168406E+003, -6.19351475254E+003
+4.79652754591E+007, +2.97426667061E+003, -5.86747736391E+003
+4.81320534224E+007, +2.86455983394E+003, -5.57693329363E+003
+4.82988313856E+007, +2.63834591217E+003, -5.37216096530E+003
+4.84656093489E+007, +2.53672696892E+003, -5.17135237165E+003
+4.86323873122E+007, +2.42163395334E+003, -4.85636821010E+003
+4.87991652755E+007, +2.22105231412E+003, -4.65389240102E+003
+4.89659432387E+007, +2.18526085696E+003, -4.54634673151E+003
+4.91327212020E+007, +1.98645554492E+003, -4.33731836641E+003
+4.92994991653E+007, +2.03449799064E+003, -4.06710108945E+003
+4.94662771285E+007, +1.89193208391E+003, -3.99626406632E+003
+4.96330550918E+007, +1.90494538625E+003, -3.82847573309E+003
+4.97998330551E+007, +1.82889735591E+003, -3.77206556737E+003
+4.99666110184E+007, +1.71826342467E+003, -3.70180395269E+003
+5.01333889816E+007, +1.70421890394E+003, -3.59235848855E+003
+5.03001669449E+007, +1.63178748868E+003, -3.55647639632E+003
+5.04669449082E+007, +1.50129892348E+003, -3.40561258281E+003
+5.06337228715E+007, +1.50607090614E+003, -3.38703934984E+003
+5.08005008347E+007, +1.45576163776E+003, -3.33611368199E+003
+5.09672787980E+007, +1.48124267746E+003, -3.25227938418E+003
+5.11340567613E+007, +1.35337061180E+003, -3.20399757992E+003
+5.13008347245E+007, +1.23946295970E+003, -3.14182473644E+003
+5.14676126878E+007, +1.18566653537E+003, -3.14384432525E+003
+5.16343906511E+007, +1.15496908739E+003, -3.03975371255E+003
+5.18011686144E+007, +1.09275204229E+003, -2.99538968378E+003
+5.19679465776E+007, +1.05946557341E+003, -2.92583400343E+003
+5.21347245409E+007, +9.53607312126E+002, -2.84544366006E+003
+5.23015025042E+007, +8.88617648413E+002, -2.75924037295E+003
+5.24682804674E+007, +8.20016593203E+002, -2.72861582257E+003
+5.26350584307E+007, +7.95510043682E+002, -2.66353978911E+003
+5.28018363940E+007, +7.52025136332E+002, -2.62293718496E+003
+5.29686143573E+007, +6.90536639627E+002, -2.52167022336E+003
+5.31353923205E+007, +6.73114096633E+002, -2.46250173504E+003
+5.33021702838E+007, +6.52467883870E+002, -2.43199285399E+003
+5.34689482471E+007, +6.61074734261E+002, -2.36062156203E+003
