"# Channel 1"
"# Trace 1"
Frequency, Formatted Data, Formatted Data
+1.00000000000E+005, +3.85261971337E-001, +2.58029491284E+000
+2.66777963272E+005, +3.93618616958E-001, +6.84703191875E+000
+4.33555926544E+005, +4.58219750276E-001, +1.11162391274E+001
+6.00333889816E+005, +5.28935348938E-001, +1.52991151886E+001
+7.67111853088E+005, +6.07052208869E-001, +1.95455141733E+001
+9.33889816361E+005, +6.44745975161E-001, +2.37103253360E+001
+1.10066777963E+006, +6.17345839675E-001, +2.79340603400E+001
+1.26744574290E+006, +6.80003141621E-001, +3.21030166312E+001
+1.43422370618E+006, +6.34862415933E-001, +3.63680217378E+001
+1.60100166945E+006, +7.39293460593E-001, +4.04458756257E+001
+1.76777963272E+006, +7.29887714692E-001, +4.45975972484E+001
+1.93455759599E+006, +7.51470252454E-001, +4.87228910542E+001
+2.10133555927E+006, +7.69943981129E-001, +5.29106245977E+001
+2.26811352254E+006, +8.61533100972E-001, +5.71093761274E+001
+2.43489148581E+006, +8.02926842493E-001, +6.14399730873E+001
+2.60166944908E+006, +7.93677225060E-001, +6.55027091717E+001
+2.76844741235E+006, +7.66702728656E-001, +6.97726407012E+001
+2.93522537563E+006, +7.25910544531E-001, +7.40114835257E+001
+3.10200333890E+006, +9.58166024699E-001, +7.79622842441E+001
+3.26878130217E+006, +6.53153646457E-001, +8.24061672350E+001
+3.43555926544E+006, +7.87030440396E-001, +8.65641673966E+001
+3.60233722871E+006, +8.45129619065E-001, +9.09085201602E+001
+3.76911519199E+006, +7.78869309223E-001, +9.52518761060E+001
+3.93589315526E+006, +6.99239402558E-001, +9.91623567177E+001
+4.10267111853E+006, +8.41753469533E-001, +1.03726029227E+002
+4.26944908180E+006, +7.99960216160E-001, +1.08028585762E+002
+4.43622704508E+006, +7.95383882747E-001, +1.11956045828E+002
+4.60300500835E+006, +8.82201114290E-001, +1.16453337144E+002
+4.76978297162E+006, +5.37561352217E-001, +1.20645184379E+002
+4.93656093489E+006, +8.90920810777E-001, +1.25180485033E+002
+5.10333889816E+006, +8.83427899919E-001, +1.29152144330E+002
+5.27011686144E+006, +1.20438940128E+000, +1.33790153846E+002
+5.43689482471E+006, +8.95588965786E-001, +1.38020558692E+002
+5.60367278798E+006, +1.05644000956E+000, +1.42380683950E+002
+5.77045075125E+006, +8.70157778204E-001, +1.46487310919E+002
+5.93722871452E+006, +1.20866298430E+000, +1.50952911228E+002
+6.10400667780E+006, +9.89214883863E-001, +1.55509423722E+002
+6.27078464107E+006, +1.39654382673E+000, +1.59664818868E+002
+6.43756260434E+006, +1.16845008005E+000, +1.64044526534E+002
+6.60434056761E+006, +1.45741857095E+000, +1.68531498849E+002
+6.77111853088E+006, +1.66545381415E+000, +1.72645713421E+002
+6.93789649416E+006, +1.46026669368E+000, +1.77189560413E+002
+7.10467445743E+006, +1.39545003919E+000, +1.81637793310E+002
+7.27145242070E+006, +1.57151981463E+000, +1.85824927300E+002
+7.43823038397E+006, +1.64476867132E+000, +1.90195388184E+002
+7.60500834725E+006, +1.47674956685E+000, +1.94657517653E+002
+7.77178631052E+006, +1.78023236930E+000, +1.99233145052E+002
+7.93856427379E+006, +1.73452395473E+000, +2.03414799480E+002
+8.10534223706E+006, +1.69773663668E+000, +2.08009036889E+002
+8.27212020033E+006, +1.72212642321E+000, +2.12397527880E+002
+8.43889816361E+006, +1.41637535886E+000, +2.17197150684E+002
+8.60567612688E+006, +1.27152771498E+000, +2.21735568475E+002
+8.77245409015E+006, +1.14018068786E+000, +2.26042045587E+002
+8.93923205342E+006, +1.57749343867E+000, +2.30650045752E+002
+9.10601001669E+006, +1.37369401775E+000, +2.35572423694E+002
+9.27278797997E+006, +1.49846011762E+000, +2.39750761286E+002
+9.43956594324E+006, +1.19707334162E+000, +2.44311352776E+002
+9.60634390651E+006, +8.82707169187E-001, +2.49229225498E+002
+9.77312186978E+006, +1.08074504728E+000, +2.53670411270E+002
+9.93989983306E+006, +1.35813709634E+000, +2.58508221526E+002
+1.01066777963E+007, +9.55192906337E-001, +2.62806544513E+002
+1.02734557596E+007, +8.29560611390E-001, +2.68084683006E+002
+1.04402337229E+007, +8.52168192378E-001, +2.72579839462E+002
+1.06070116861E+007, +7.08162532145E-001, +2.77213275208E+002
+1.07737896494E+007, +7.75933954456E-001, +2.82162163696E+002
+1.09405676127E+007, +7.07302083731E-001, +2.87141615910E+002
+1.11073455760E+007, +5.75974625796E-001, +2.92139858197E+002
+1.12741235392E+007, +8.47648260628E-001, +2.96363284951E+002
+1.14409015025E+007, +9.62049070056E-001, +3.01708393109E+002
+1.16076794658E+007, +1.07407478048E+000, +3.06193565818E+002
+1.17744574290E+007, +5.53660044414E-001, +3.12093746965E+002
+1.19412353923E+007, +2.23082123781E-001, +3.16610924204E+002
+1.21080133556E+007, +2.18803599388E-001, +3.21423438964E+002
+1.22747913189E+007, +3.52623552780E-001, +3.26658460535E+002
+1.24415692821E+007, +5.00928611435E-001, +3.31711261456E+002
+1.26083472454E+007, +3.76448617409E-001, +3.36871231364E+002
+1.27751252087E+007, +1.34343627101E-001, +3.41731303667E+002
+1.29419031720E+007, -4.80393163279E-001, +3.46451188745E+002
+1.31086811352E+007, -2.55600171151E-001, +3.51582754740E+002
+1.32754590985E+007, +1.21004613300E-001, +3.56524372119E+002
+1.34422370618E+007, +2.13710157320E-001, +3.61927348786E+002
+1.36090150250E+007, +6.83894557997E-001, +3.67653819440E+002
+1.37757929883E+007, -4.66995274811E-001, +3.72422807471E+002
+1.39425709516E+007, +1.80437086488E-001, +3.77436724116E+002
+1.41093489149E+007, -2.48760223860E-001, +3.83124231607E+002
+1.42761268781E+007, +2.45740489111E-001, +3.88768279122E+002
+1.44429048414E+007, -1.36151032045E-001, +3.94173145092E+002
+1.46096828047E+007, -6.17204993341E-001, +4.00047888428E+002
+1.47764607679E+007, +4.86098248194E-001, +4.04539985323E+002
+1.49432387312E+007, +1.92231267510E-001, +4.10431008282E+002
+1.51100166945E+007, +1.37885040750E-001, +4.15965615320E+002
+1.52767946578E+007, -7.51254506468E-002, +4.21822956625E+002
+1.54435726210E+007, +4.42514936644E-001, +4.27790985759E+002
+1.56103505843E+007, +2.21147753049E-001, +4.32347421010E+002
+1.57771285476E+007, +3.70851066086E-001, +4.38338210430E+002
+1.59439065109E+007, +1.15506240738E+000, +4.43796558424E+002
+1.61106844741E+007, -3.67497459254E-001, +4.50050812169E+002
+1.62774624374E+007, +1.92984722432E+000, +4.55061308089E+002
+1.64442404007E+007, +2.31477187362E-001, +4.60326848164E+002
+1.66110183639E+007, +8.30334237471E-001, +4.66180060357E+002
+1.67777963272E+007, +1.49834071763E+000, +4.73737199417E+002
+1.69445742905E+007, +1.41480862378E+000, +4.78275835529E+002
+1.71113522538E+007, -1.16003168428E+000, +4.84029313223E+002
+1.72781302170E+007, +1.06232488391E-001, +4.90488311267E+002
+1.74449081803E+007, -1.53561864272E+000, +4.96076559122E+002
+1.76116861436E+007, -6.35485856667E-001, +5.02973787751E+002
+1.77784641068E+007, -4.68904549089E-001, +5.08006182912E+002
+1.79452420701E+007, +7.84520311646E-001, +5.13907283042E+002
+1.81120200334E+007, +4.12625754133E-001, +5.19154172356E+002
+1.82787979967E+007, -3.80730885149E-001, +5.27267083733E+002
+1.84455759599E+007, +1.68629822678E+000, +5.33353126111E+002
+1.86123539232E+007, +9.42303409304E-001, +5.39918855317E+002
+1.87791318865E+007, -7.45355690994E-001, +5.46026871199E+002
+1.89459098497E+007, -1.43170249962E-001, +5.53802753140E+002
+1.91126878130E+007, +1.01130870003E+000, +5.60003181045E+002
+1.92794657763E+007, +3.72717964163E-001, +5.66224444985E+002
+1.94462437396E+007, +9.79497591710E-001, +5.74089236155E+002
+1.96130217028E+007, -7.55990925938E-001, +5.80557483450E+002
+1.97797996661E+007, +1.84737012910E+000, +5.85762826960E+002
+1.99465776294E+007, -6.03744166724E-001, +5.92965835974E+002
+2.01133555927E+007, -6.35817285648E-001, +6.01173232841E+002
+2.02801335559E+007, +5.93193759888E-001, +6.08063272273E+002
+2.04469115192E+007, +1.06193710804E+000, +6.13727697023E+002
+2.06136894825E+007, +6.16807943854E-001, +6.21055476653E+002
+2.07804674457E+007, -1.16900377838E-001, +6.31003892518E+002
+2.09472454090E+007, -6.07375461362E-002, +6.39931339745E+002
+2.11140233723E+007, +7.57098219748E-001, +6.44419400850E+002
+2.12808013356E+007, +1.08599462152E+000, +6.50264435831E+002
+2.14475792988E+007, +1.42925057689E+000, +6.59660420921E+002
+2.16143572621E+007, +2.66390950054E+000, +6.65305519949E+002
+2.17811352254E+007, +4.95725344278E-001, +6.71974607869E+002
+2.19479131886E+007, +2.47807920442E+000, +6.83061873211E+002
+2.21146911519E+007, +4.28016485276E+000, +6.88441071912E+002
+2.22814691152E+007, +2.32562498055E+000, +6.95885839117E+002
+2.24482470785E+007, +3.66439900393E+000, +7.05581924204E+002
+2.26150250417E+007, +6.85974615745E+000, +7.13920908220E+002
+2.27818030050E+007, +6.83745820670E+000, +7.22820082977E+002
+2.29485809683E+007, +9.30364501573E+000, +7.30743293954E+002
+2.31153589316E+007, +4.96283616772E+000, +7.39824826491E+002
+2.32821368948E+007, +8.45427064583E+000, +7.45359707769E+002
+2.34489148581E+007, +1.02049044032E+001, +7.52099932073E+002
+2.36156928214E+007, +1.18411490817E+001, +7.64065216369E+002
+2.37824707846E+007, +1.16429465152E+001, +7.71463388887E+002
+2.39492487479E+007, +8.70921961778E+000, +7.79862112055E+002
+2.41160267112E+007, +1.04892692717E+001, +7.87957294580E+002
+2.42828046745E+007, +9.77954589191E+000, +7.95436255715E+002
+2.44495826377E+007, +1.54810706471E+001, +8.09172260156E+002
+2.46163606010E+007, +1.12392883440E+001, +8.14350834930E+002
+2.47831385643E+007, +1.17333450061E+001, +8.23594749616E+002
+2.49499165275E+007, +1.36377658742E+001, +8.33589291850E+002
+2.51166944908E+007, +1.63145749559E+001, +8.45133219894E+002
+2.52834724541E+007, +1.61670685520E+001, +8.52585184410E+002
+2.54502504174E+007, +1.55400230307E+001, +8.64643187836E+002
+2.56170283806E+007, +1.71984507879E+001, +8.70139633841E+002
+2.57838063439E+007, +1.67889715796E+001, +8.84016778272E+002
+2.59505843072E+007, +1.55858936406E+001, +8.94194184277E+002
+2.61173622705E+007, +1.91410119132E+001, +9.05693415737E+002
+2.62841402337E+007, +1.63757630184E+001, +9.07958000543E+002
+2.64509181970E+007, +1.92603308606E+001, +9.25156103062E+002
+2.66176961603E+007, +2.24413351758E+001, +9.35858489889E+002
+2.67844741235E+007, +2.02590174165E+001, +9.43659739985E+002
+2.69512520868E+007, +2.35390730673E+001, +9.57054539055E+002
+2.71180300501E+007, +2.20073629187E+001, +9.61035053100E+002
+2.72848080134E+007, +2.46408085209E+001, +9.78979833556E+002
+2.74515859766E+007, +2.73579250054E+001, +9.87943668019E+002
+2.76183639399E+007, +2.37684088038E+001, +9.97342161081E+002
+2.77851419032E+007, +2.05660211002E+001, +1.00947111491E+003
+2.79519198664E+007, +2.77068191141E+001, +1.02228892328E+003
+2.81186978297E+007, +2.92625335313E+001, +1.03077495992E+003
+2.82854757930E+007, +3.21378618198E+001, +1.04313739262E+003
+2.84522537563E+007, +2.63223995933E+001, +1.05740132131E+003
+2.86190317195E+007, +2.76136108553E+001, +1.06546755088E+003
+2.87858096828E+007, +3.28897594615E+001, +1.08212753896E+003
+2.89525876461E+007, +3.49568452765E+001, +1.08849399972E+003
+2.91193656093E+007, +2.83714251513E+001, +1.09897922737E+003
+2.92861435726E+007, +2.70786042970E+001, +1.11361411769E+003
+2.94529215359E+007, +3.58512833092E+001, +1.13096654462E+003
+2.96196994992E+007, +4.14982324417E+001, +1.14255032331E+003
+2.97864774624E+007, +3.93439970684E+001, +1.15852005939E+003
+2.99532554257E+007, +4.10822557186E+001, +1.17375991556E+003
+3.01200333890E+007, +3.84478960427E+001, +1.18713647131E+003
+3.02868113523E+007, +4.12889767035E+001, +1.20310381405E+003
+3.04535893155E+007, +4.14214384144E+001, +1.21950638733E+003
+3.06203672788E+007, +4.45122138099E+001, +1.23205803666E+003
+3.07871452421E+007, +4.26321374022E+001, +1.24196540094E+003
+3.09539232053E+007, +4.46501355104E+001, +1.26022305595E+003
+3.11207011686E+007, +4.29421304623E+001, +1.28134256282E+003
+3.12874791319E+007, +4.53396267570E+001, +1.29063112373E+003
+3.14542570952E+007, +4.53499237742E+001, +1.30644627739E+003
+3.16210350584E+007, +4.18011492579E+001, +1.32956963474E+003
+3.17878130217E+007, +3.86904682918E+001, +1.33953974104E+003
+3.19545909850E+007, +4.33406947436E+001, +1.36488884894E+003
+3.21213689482E+007, +3.36286886951E+001, +1.38057685826E+003
+3.22881469115E+007, +4.28502212796E+001, +1.39998116950E+003
+3.24549248748E+007, +4.30440088029E+001, +1.42148584654E+003
+3.26217028381E+007, +3.41086468897E+001, +1.43647306758E+003
+3.27884808013E+007, +4.95135879872E+001, +1.46205830339E+003
+3.29552587646E+007, +4.93882016926E+001, +1.46780873497E+003
+3.31220367279E+007, +5.56493555460E+001, +1.48550150704E+003
+3.32888146912E+007, +4.96639393603E+001, +1.53035526173E+003
+3.34555926544E+007, +4.70429763449E+001, +1.53962213819E+003
+3.36223706177E+007, +5.50907893825E+001, +1.55230449244E+003
+3.37891485810E+007, +4.86406889468E+001, +1.57905704964E+003
+3.39559265442E+007, +5.62344106936E+001, +1.60920631289E+003
+3.41227045075E+007, +4.60492739137E+001, +1.62549845238E+003
+3.42894824708E+007, +4.91068733935E+001, +1.66275343273E+003
+3.44562604341E+007, +6.20632106399E+001, +1.67605134696E+003
+3.46230383973E+007, +6.30489603219E+001, +1.72712451603E+003
+3.47898163606E+007, +5.93455833495E+001, +1.72825143609E+003
+3.49565943239E+007, +6.99634775424E+001, +1.75798669149E+003
+3.51233722871E+007, +7.54075545698E+001, +1.79351603232E+003
+3.52901502504E+007, +7.70725642001E+001, +1.80907659122E+003
+3.54569282137E+007, +7.70613626095E+001, +1.85346926069E+003
+3.56237061770E+007, +6.67849257463E+001, +1.88580707502E+003
+3.57904841402E+007, +6.76031732108E+001, +1.92984547235E+003
+3.59572621035E+007, +8.57412899157E+001, +1.95997293480E+003
+3.61240400668E+007, +8.37999177417E+001, +1.97899376604E+003
+3.62908180301E+007, +9.94754754609E+001, +2.05663979429E+003
+3.64575959933E+007, +9.56122197444E+001, +2.04920380626E+003
+3.66243739566E+007, +1.15415835898E+002, +2.09019895117E+003
+3.67911519199E+007, +1.07290644554E+002, +2.14000088736E+003
+3.69579298831E+007, +8.58605477155E+001, +2.17337092807E+003
+3.71247078464E+007, +1.02525703369E+002, +2.21954728701E+003
+3.72914858097E+007, +1.27344451074E+002, +2.28483724259E+003
+3.74582637730E+007, +1.27093784784E+002, +2.32194610747E+003
+3.76250417362E+007, +1.34153788627E+002, +2.34542547700E+003
+3.77918196995E+007, +1.22686723653E+002, +2.40440551949E+003
+3.79585976628E+007, +1.41867035377E+002, +2.44290469944E+003
+3.81253756260E+007, +1.59672225649E+002, +2.50007621551E+003
+3.82921535893E+007, +1.56069449912E+002, +2.60351653972E+003
+3.84589315526E+007, +1.69591149895E+002, +2.64989508637E+003
+3.86257095159E+007, +1.75167462324E+002, +2.70996102961E+003
+3.87924874791E+007, +1.89962531399E+002, +2.75502912989E+003
+3.89592654424E+007, +2.08578781610E+002, +2.81841398455E+003
+3.91260434057E+007, +2.45878198523E+002, +2.90869458533E+003
+3.92928213689E+007, +2.56841906521E+002, +2.96053744577E+003
+3.94595993322E+007, +2.18585752037E+002, +3.06451002081E+003
+3.96263772955E+007, +2.75105711859E+002, +3.13966883414E+003
+3.97931552588E+007, +2.53051634874E+002, +3.18585491522E+003
+3.99599332220E+007, +2.92296046880E+002, +3.28816336319E+003
+4.01267111853E+007, +3.16612859958E+002, +3.44112884899E+003
+4.02934891486E+007, +3.06246145068E+002, +3.44887713891E+003
+4.04602671119E+007, +3.39688509063E+002, +3.55070323355E+003
+4.06270450751E+007, +4.06980770630E+002, +3.67496551671E+003
+4.07938230384E+007, +4.41374221163E+002, +3.82513409808E+003
+4.09606010017E+007, +4.88492222262E+002, +3.91643010057E+003
+4.11273789649E+007, +5.45047676892E+002, +4.05528914635E+003
+4.12941569282E+007, +5.62703977841E+002, +4.24523269938E+003
+4.14609348915E+007, +6.08197885479E+002, +4.37307156744E+003
+4.16277128548E+007, +6.98866075732E+002, +4.47453001695E+003
+4.17944908180E+007, +6.40320223720E+002, +4.55971322931E+003
+4.19612687813E+007, +8.53768979231E+002, +4.83652636653E+003
+4.21280467446E+007, +7.32736976488E+002, +5.03785076669E+003
+4.22948247078E+007, +9.19019615671E+002, +5.23480709585E+003
+4.24616026711E+007, +1.08967744416E+003, +5.39732380965E+003
+4.26283806344E+007, +1.25525761925E+003, +5.67140956503E+003
+4.27951585977E+007, +1.05590697033E+003, +6.15802347928E+003
+4.29619365609E+007, +1.41001789179E+003, +6.20674126682E+003
+4.31287145242E+007, +1.57516057922E+003, +6.66088904848E+003
+4.32954924875E+007, +1.88118437293E+003, +6.89351901358E+003
+4.34622704508E+007, +1.91103890292E+003, +7.66127609061E+003
+4.36290484140E+007, +2.37763868201E+003, +7.49572816112E+003
+4.37958263773E+007, +2.70015770733E+003, +8.75724615647E+003
+4.39626043406E+007, +3.25384971400E+003, +8.89824089907E+003
+4.41293823038E+007, +4.53738945753E+003, +9.50963855871E+003
+4.42961602671E+007, +4.77139179732E+003, +1.03624303444E+004
+4.44629382304E+007, +5.79172951247E+003, +1.06385609009E+004
+4.46297161937E+007, +7.37012596265E+003, +1.12616462787E+004
+4.47964941569E+007, +8.67348226515E+003, +1.14609228831E+004
+4.49632721202E+007, +1.09599475354E+004, +1.27497170672E+004
+4.51300500835E+007, +1.31795571387E+004, +1.21211906780E+004
+4.52968280467E+007, +1.69249592612E+004, +9.57401857632E+003
+4.54636060100E+007, +2.13343448510E+004, +6.21330715369E+003
+4.56303839733E+007, +2.47624605211E+004, +2.80903492539E+003
+4.57971619366E+007, +2.36676775678E+004, -2.02299619315E+003
+4.59639398998E+007, +1.95861479821E+004, -1.01908481606E+004
+4.61307178631E+007, +1.75236115469E+004, -1.07218946825E+004
+4.62974958264E+007, +1.42392291712E+004, -8.90159121906E+003
+4.64642737896E+007, +1.24587255487E+004, -1.04203557284E+004
+4.66310517529E+007, +9.72806950468E+003, -1.04992466619E+004
+4.67978297162E+007, +8.42258429110E+003, -8.55686510797E+003
+4.69646076795E+007, +6.95419112533E+003, -8.96941631051E+003
+4.71313856427E+007, +5.57448358148E+003, -8.20717888343E+003
+4.72981636060E+007, +5.27342592340E+003, -7.87962069086E+003
+4.74649415693E+007, +4.67457301219E+003, -7.59208875889E+003
+4.76317195326E+007, +4.47463186758E+003, -6.84810803309E+003
+4.77984974958E+007, +3.82039410738E+003, -6.37619481784E+003
+4.79652754591E+007, +3.47758592517E+003, -6.19162340846E+003
+4.81320534224E+007, +3.32478715108E+003, -5.89156726959E+003
+4.82988313856E+007, +3.07634555579E+003, -5.54140744334E+003
+4.84656093489E+007, +2.79058956902E+003, -5.22605413581E+003
+4.86323873122E+007, +2.71952948902E+003, -5.05570646168E+003
+4.87991652755E+007, +2.53904160275E+003, -4.82157862593E+003
+4.89659432387E+007, +2.46638164669E+003, -4.68805550149E+003
+4.91327212020E+007, +2.18610188979E+003, -4.45053714509E+003
+4.92994991653E+007, +2.23198869303E+003, -4.34464777633E+003
+4.94662771285E+007, +2.12430654249E+003, -4.12270906312E+003
+4.96330550918E+007, +2.05472099199E+003, -3.99578762135E+003
+4.97998330551E+007, +2.00770287832E+003, -3.90887638445E+003
+4.99666110184E+007, +1.89531206706E+003, -3.76565702707E+003
+5.01333889816E+007, +1.81518810322E+003, -3.74649798724E+003
+5.03001669449E+007, +1.69291704753E+003, -3.70179017123E+003
+5.04669449082E+007, +1.64797604081E+003, -3.53658995134E+003
+5.06337228715E+007, +1.59598255871E+003, -3.47227510878E+003
+5.08005008347E+007, +1.50172819395E+003, -3.43315005542E+003
+5.09672787980E+007, +1.50866613359E+003, -3.33386386395E+003
+5.11340567613E+007, +1.37415356763E+003, -3.25929852566E+003
+5.13008347245E+007, +1.30093674474E+003, -3.22452215698E+003
+5.14676126878E+007, +1.25566271092E+003, -3.18600757682E+003
+5.16343906511E+007, +1.20903634974E+003, -3.04820483476E+003
+5.18011686144E+007, +1.12339440664E+003, -3.04225555770E+003
+5.19679465776E+007, +1.06277545153E+003, -2.94491239681E+003
+5.21347245409E+007, +9.75444741192E+002, -2.88287243991E+003
+5.23015025042E+007, +9.18963412984E+002, -2.76646480038E+003
+5.24682804674E+007, +8.68071486057E+002, -2.75722570029E+003
+5.26350584307E+007, +8.38097325427E+002, -2.68106135855E+003
+5.28018363940E+007, +8.09815943191E+002, -2.62399014432E+003
+5.29686143573E+007, +7.60282322860E+002, -2.54654657712E+003
+5.31353923205E+007, +7.48500332831E+002, -2.51250334703E+003
+5.33021702838E+007, +6.73035892173E+002, -2.42260482038E+003
+5.34689482471E+007, +6.58894154727E+002, -2.35774259794E+003
