"# Channel 1"
"# Trace 1"
Frequency, Formatted Data, Formatted Data
+1.00000000000E+005, +1.06056994367E+001, +2.46044568492E+000
+2.25031289111E+005, +1.06131501779E+001, +5.48627927382E+000
+3.50062578223E+005, +1.06064235220E+001, +8.53796757828E+000
+4.75093867334E+005, +1.05953737446E+001, +1.15825246785E+001
+6.00125156446E+005, +1.06140483248E+001, +1.46107811062E+001
+7.25156445557E+005, +1.06543602956E+001, +1.76980610285E+001
+8.50187734668E+005, +1.06161445253E+001, +2.07083059349E+001
+9.75219023780E+005, +1.06232015153E+001, +2.37680297440E+001
+1.10025031289E+006, +1.06117835920E+001, +2.67883702257E+001
+1.22528160200E+006, +1.06589944759E+001, +2.98009863879E+001
+1.35031289111E+006, +1.06279172139E+001, +3.28138500627E+001
+1.47534418023E+006, +1.06403090247E+001, +3.58799102137E+001
+1.60037546934E+006, +1.06108154576E+001, +3.88882924285E+001
+1.72540675845E+006, +1.06468587819E+001, +4.19867979857E+001
+1.85043804756E+006, +1.05962526091E+001, +4.49675222891E+001
+1.97546933667E+006, +1.06849078046E+001, +4.80323680964E+001
+2.10050062578E+006, +1.06330198990E+001, +5.11302389150E+001
+2.22553191489E+006, +1.06565674857E+001, +5.41668586115E+001
+2.35056320401E+006, +1.07171975180E+001, +5.72047943771E+001
+2.47559449312E+006, +1.06889429646E+001, +6.01773996941E+001
+2.60062578223E+006, +1.07136071336E+001, +6.33110680013E+001
+2.72565707134E+006, +1.06925231415E+001, +6.62078653698E+001
+2.85068836045E+006, +1.06302236886E+001, +6.94283836622E+001
+2.97571964956E+006, +1.07285053067E+001, +7.24493668471E+001
+3.10075093867E+006, +1.07819666644E+001, +7.54960003763E+001
+3.22578222778E+006, +1.06573499955E+001, +7.87150655395E+001
+3.35081351690E+006, +1.07757902053E+001, +8.18033642307E+001
+3.47584480601E+006, +1.08009420939E+001, +8.49010136609E+001
+3.60087609512E+006, +1.08246927521E+001, +8.80381177416E+001
+3.72590738423E+006, +1.08117066226E+001, +9.10801280483E+001
+3.85093867334E+006, +1.08239728859E+001, +9.40925198692E+001
+3.97596996245E+006, +1.07921677917E+001, +9.74108098707E+001
+4.10100125156E+006, +1.11905035245E+001, +1.00502459601E+002
+4.22603254068E+006, +1.09883682122E+001, +1.03220741374E+002
+4.35106382979E+006, +1.07843604145E+001, +1.06409118664E+002
+4.47609511890E+006, +1.09520625336E+001, +1.09674735231E+002
+4.60112640801E+006, +1.09935679616E+001, +1.12952828449E+002
+4.72615769712E+006, +1.11091030947E+001, +1.15892326013E+002
+4.85118898623E+006, +1.12234506367E+001, +1.19095500590E+002
+4.97622027534E+006, +1.10048455389E+001, +1.22281997912E+002
+5.10125156446E+006, +1.12018575924E+001, +1.25356368508E+002
+5.22628285357E+006, +1.12671311380E+001, +1.28330047681E+002
+5.35131414268E+006, +1.11099599718E+001, +1.31879446816E+002
+5.47634543179E+006, +1.16418159673E+001, +1.34721324273E+002
+5.60137672090E+006, +1.11638274184E+001, +1.38260222425E+002
+5.72640801001E+006, +1.13713693300E+001, +1.41477296184E+002
+5.85143929912E+006, +1.14934516438E+001, +1.44382473756E+002
+5.97647058824E+006, +1.14749655748E+001, +1.48210356873E+002
+6.10150187735E+006, +1.13539294283E+001, +1.51027692494E+002
+6.22653316646E+006, +1.13682311808E+001, +1.53641501883E+002
+6.35156445557E+006, +1.15447234570E+001, +1.57324443270E+002
+6.47659574468E+006, +1.17402942785E+001, +1.60620893986E+002
+6.60162703379E+006, +1.21463095772E+001, +1.63885776517E+002
+6.72665832290E+006, +1.19062194487E+001, +1.66979329553E+002
+6.85168961202E+006, +1.18686179254E+001, +1.70416268629E+002
+6.97672090113E+006, +1.16895544223E+001, +1.73457853724E+002
+7.10175219024E+006, +1.19841979801E+001, +1.77019445849E+002
+7.22678347935E+006, +1.19304335729E+001, +1.80273338049E+002
+7.35181476846E+006, +1.20638694881E+001, +1.83938904906E+002
+7.47684605757E+006, +1.20767527786E+001, +1.86410868619E+002
+7.60187734668E+006, +1.18022834976E+001, +1.90187883839E+002
+7.72690863579E+006, +1.22064405936E+001, +1.93751288008E+002
+7.85193992491E+006, +1.26240151594E+001, +1.96643277994E+002
+7.97697121402E+006, +1.23669741258E+001, +2.00218474922E+002
+8.10200250313E+006, +1.25640329362E+001, +2.03850594862E+002
+8.22703379224E+006, +1.28942730933E+001, +2.07339200885E+002
+8.35206508135E+006, +1.29361591825E+001, +2.10669314177E+002
+8.47709637046E+006, +1.33510899893E+001, +2.13676209588E+002
+8.60212765957E+006, +1.25378829185E+001, +2.17448954980E+002
+8.72715894869E+006, +1.34317835201E+001, +2.20314515120E+002
+8.85219023780E+006, +1.25797746311E+001, +2.23815535548E+002
+8.97722152691E+006, +1.28129179738E+001, +2.27526557734E+002
+9.10225281602E+006, +1.31225238287E+001, +2.31091402271E+002
+9.22728410513E+006, +1.32103929715E+001, +2.34289301695E+002
+9.35231539424E+006, +1.30482358031E+001, +2.37557325896E+002
+9.47734668335E+006, +1.31797254210E+001, +2.41274708768E+002
+9.60237797247E+006, +1.30490788703E+001, +2.44678940447E+002
+9.72740926158E+006, +1.30918350685E+001, +2.48232496609E+002
+9.85244055069E+006, +1.35923194607E+001, +2.51959733087E+002
+9.97747183980E+006, +1.34601169600E+001, +2.55346178139E+002
+1.01025031289E+007, +1.36074631283E+001, +2.58897828068E+002
+1.02275344180E+007, +1.32094098262E+001, +2.62757695387E+002
+1.03525657071E+007, +1.36114947943E+001, +2.66133849809E+002
+1.04775969962E+007, +1.36420014226E+001, +2.69747626469E+002
+1.06026282854E+007, +1.37413786737E+001, +2.73479997797E+002
+1.07276595745E+007, +1.40426818105E+001, +2.77159297031E+002
+1.08526908636E+007, +1.37629483670E+001, +2.80558254447E+002
+1.09777221527E+007, +1.43319433262E+001, +2.84395743054E+002
+1.11027534418E+007, +1.43126045438E+001, +2.88356860795E+002
+1.12277847309E+007, +1.40331001158E+001, +2.92430459549E+002
+1.13528160200E+007, +1.41943736433E+001, +2.95971272895E+002
+1.14778473091E+007, +1.48176188867E+001, +2.99145326326E+002
+1.16028785982E+007, +1.42787621521E+001, +3.03083170939E+002
+1.17279098874E+007, +1.46250641162E+001, +3.07905935740E+002
+1.18529411765E+007, +1.43080622152E+001, +3.11119584146E+002
+1.19779724656E+007, +1.45473488580E+001, +3.14261301904E+002
+1.21030037547E+007, +1.38550689811E+001, +3.18509889816E+002
+1.22280350438E+007, +1.42905054260E+001, +3.22571803492E+002
+1.23530663329E+007, +1.41818918226E+001, +3.26264180179E+002
+1.24780976220E+007, +1.48568834662E+001, +3.30168328210E+002
+1.26031289111E+007, +1.49693013583E+001, +3.33728539345E+002
+1.27281602003E+007, +1.52250081979E+001, +3.37862281512E+002
+1.28531914894E+007, +1.51676119167E+001, +3.42334700204E+002
+1.29782227785E+007, +1.58830207476E+001, +3.46123468799E+002
+1.31032540676E+007, +1.60531594697E+001, +3.49824951488E+002
+1.32282853567E+007, +1.54172600609E+001, +3.54861350831E+002
+1.33533166458E+007, +1.54505201941E+001, +3.58404599294E+002
+1.34783479349E+007, +1.55330321270E+001, +3.62139376961E+002
+1.36033792240E+007, +1.53568022418E+001, +3.67513348268E+002
+1.37284105131E+007, +1.56162690146E+001, +3.70088735185E+002
+1.38534418023E+007, +1.58790539736E+001, +3.74754330706E+002
+1.39784730914E+007, +1.62478545112E+001, +3.79571957075E+002
+1.41035043805E+007, +1.59157880436E+001, +3.83474573689E+002
+1.42285356696E+007, +1.49247923690E+001, +3.87567166225E+002
+1.43535669587E+007, +1.58953863761E+001, +3.91990508258E+002
+1.44785982478E+007, +1.58235803380E+001, +3.96274733029E+002
+1.46036295369E+007, +1.66557797433E+001, +4.00888355982E+002
+1.47286608260E+007, +1.57966149367E+001, +4.04844604121E+002
+1.48536921151E+007, +1.74116574129E+001, +4.08650457249E+002
+1.49787234043E+007, +1.62622018676E+001, +4.14947448582E+002
+1.51037546934E+007, +1.69704101417E+001, +4.18821689502E+002
+1.52287859825E+007, +1.84645225559E+001, +4.24084034500E+002
+1.53538172716E+007, +1.77830731893E+001, +4.26608831634E+002
+1.54788485607E+007, +1.73932561430E+001, +4.32922862027E+002
+1.56038798498E+007, +1.82067061992E+001, +4.36722050664E+002
+1.57289111389E+007, +1.77093424466E+001, +4.40632509587E+002
+1.58539424280E+007, +1.76459827842E+001, +4.46317113642E+002
+1.59789737171E+007, +1.76775362539E+001, +4.50021676278E+002
+1.61040050063E+007, +1.79446587187E+001, +4.55279950188E+002
+1.62290362954E+007, +1.81330375687E+001, +4.60159537084E+002
+1.63540675845E+007, +1.72350109280E+001, +4.66200081300E+002
+1.64790988736E+007, +1.81139140159E+001, +4.69243583676E+002
+1.66041301627E+007, +1.86232541302E+001, +4.76392952617E+002
+1.67291614518E+007, +1.88389881367E+001, +4.80085691093E+002
+1.68541927409E+007, +1.86974938738E+001, +4.84346858395E+002
+1.69792240300E+007, +1.95462958652E+001, +4.90763622193E+002
+1.71042553191E+007, +1.72406889347E+001, +4.95018085837E+002
+1.72292866083E+007, +1.72672556791E+001, +4.99855020362E+002
+1.73543178974E+007, +2.14057961907E+001, +5.05678675577E+002
+1.74793491865E+007, +1.89444778792E+001, +5.10779875629E+002
+1.76043804756E+007, +1.86758131042E+001, +5.14727455450E+002
+1.77294117647E+007, +1.94043153828E+001, +5.22516861812E+002
+1.78544430538E+007, +1.84274234482E+001, +5.26754503482E+002
+1.79794743429E+007, +2.03242140860E+001, +5.32462365751E+002
+1.81045056320E+007, +1.96174520665E+001, +5.37817455652E+002
+1.82295369212E+007, +2.16143754300E+001, +5.41913375127E+002
+1.83545682103E+007, +2.14622334737E+001, +5.48866592427E+002
+1.84795994994E+007, +2.00487270475E+001, +5.53956650764E+002
+1.86046307885E+007, +2.14065140228E+001, +5.59148678111E+002
+1.87296620776E+007, +1.97642890748E+001, +5.65131058630E+002
+1.88546933667E+007, +2.46018623669E+001, +5.71849228845E+002
+1.89797246558E+007, +2.19959335588E+001, +5.80587918786E+002
+1.91047559449E+007, +2.23888497328E+001, +5.82509668110E+002
+1.92297872340E+007, +2.36609785858E+001, +5.88398385622E+002
+1.93548185232E+007, +2.27958280325E+001, +5.95009061854E+002
+1.94798498123E+007, +2.40502765073E+001, +6.02364362431E+002
+1.96048811014E+007, +2.38909140563E+001, +6.08161017289E+002
+1.97299123905E+007, +2.43453610941E+001, +6.13981935607E+002
+1.98549436796E+007, +2.63098412797E+001, +6.18815018965E+002
+1.99799749687E+007, +2.53329713027E+001, +6.28549705274E+002
+2.01050062578E+007, +2.39793869531E+001, +6.33559221596E+002
+2.02300375469E+007, +2.70508885658E+001, +6.39167798635E+002
+2.03550688360E+007, +2.79046607627E+001, +6.46319830162E+002
+2.04801001252E+007, +2.54755820248E+001, +6.54266467763E+002
+2.06051314143E+007, +2.87329045784E+001, +6.58395904790E+002
+2.07301627034E+007, +2.98976181549E+001, +6.67064269565E+002
+2.08551939925E+007, +2.98443116317E+001, +6.73877173640E+002
+2.09802252816E+007, +2.74127877973E+001, +6.78795802673E+002
+2.11052565707E+007, +2.86662842934E+001, +6.87714108213E+002
+2.12302878598E+007, +3.26904523125E+001, +6.92541173207E+002
+2.13553191489E+007, +3.15504818990E+001, +7.01145448827E+002
+2.14803504380E+007, +3.05438790451E+001, +7.10024173981E+002
+2.16053817272E+007, +3.40236694156E+001, +7.18617448070E+002
+2.17304130163E+007, +3.42642660233E+001, +7.24771047648E+002
+2.18554443054E+007, +3.70909873714E+001, +7.30566664801E+002
+2.19804755945E+007, +3.96113413236E+001, +7.39444270733E+002
+2.21055068836E+007, +3.80765531374E+001, +7.42823166438E+002
+2.22305381727E+007, +3.89187338341E+001, +7.56048028301E+002
+2.23555694618E+007, +3.93835863006E+001, +7.61209230659E+002
+2.24806007509E+007, +4.32874660540E+001, +7.65107129205E+002
+2.26056320401E+007, +4.19304390065E+001, +7.76596717214E+002
+2.27306633292E+007, +4.89561077198E+001, +7.82457503051E+002
+2.28556946183E+007, +4.84463659833E+001, +7.92357381524E+002
+2.29807259074E+007, +5.02869132849E+001, +7.94864607016E+002
+2.31057571965E+007, +4.84801005682E+001, +8.02948664093E+002
+2.32307884856E+007, +5.05378397099E+001, +8.13085196526E+002
+2.33558197747E+007, +5.38006485120E+001, +8.19891628159E+002
+2.34808510638E+007, +5.01685654832E+001, +8.22616675616E+002
+2.36058823529E+007, +5.10190101161E+001, +8.35531036999E+002
+2.37309136421E+007, +5.41315101318E+001, +8.45335949701E+002
+2.38559449312E+007, +5.48988572710E+001, +8.47319737730E+002
+2.39809762203E+007, +5.76098539668E+001, +8.57688812054E+002
+2.41060075094E+007, +5.69921406999E+001, +8.64018149781E+002
+2.42310387985E+007, +5.25579383434E+001, +8.69298061034E+002
+2.43560700876E+007, +5.36391760870E+001, +8.84118187685E+002
+2.44811013767E+007, +5.99461537017E+001, +8.89959879549E+002
+2.46061326658E+007, +5.63498165332E+001, +9.00743225354E+002
+2.47311639549E+007, +5.79578094455E+001, +9.10948988705E+002
+2.48561952441E+007, +5.61983617816E+001, +9.20594168532E+002
+2.49812265332E+007, +5.63293803317E+001, +9.31266373474E+002
+2.51062578223E+007, +5.68102638627E+001, +9.41185178276E+002
+2.52312891114E+007, +5.87824736879E+001, +9.48552922740E+002
+2.53563204005E+007, +5.70611925190E+001, +9.54477681232E+002
+2.54813516896E+007, +5.78684046858E+001, +9.72120121678E+002
+2.56063829787E+007, +5.64669451498E+001, +9.83649689406E+002
+2.57314142678E+007, +5.97147732564E+001, +9.94266041688E+002
+2.58564455569E+007, +6.35065299311E+001, +1.00263974824E+003
+2.59814768461E+007, +6.26259213322E+001, +1.01148475783E+003
+2.61065081352E+007, +6.07989415577E+001, +1.02960589278E+003
+2.62315394243E+007, +6.37818017735E+001, +1.04360275807E+003
+2.63565707134E+007, +6.22863318091E+001, +1.04902668629E+003
+2.64816020025E+007, +6.48393901323E+001, +1.06860883389E+003
+2.66066332916E+007, +5.59109810469E+001, +1.07723492783E+003
+2.67316645807E+007, +6.23605691475E+001, +1.08878574880E+003
+2.68566958698E+007, +7.42319302562E+001, +1.10330778891E+003
+2.69817271589E+007, +7.70063396747E+001, +1.11552241418E+003
+2.71067584481E+007, +6.81079953163E+001, +1.12496056727E+003
+2.72317897372E+007, +6.18626906623E+001, +1.14793194023E+003
+2.73568210263E+007, +6.53094854885E+001, +1.16038109733E+003
+2.74818523154E+007, +7.31537818150E+001, +1.16737522315E+003
+2.76068836045E+007, +7.21178661928E+001, +1.19210941270E+003
+2.77319148936E+007, +8.22416716884E+001, +1.20718826339E+003
+2.78569461827E+007, +8.81585929581E+001, +1.21898871434E+003
+2.79819774718E+007, +8.13107987447E+001, +1.22811654686E+003
+2.81070087610E+007, +8.26411114970E+001, +1.24731565998E+003
+2.82320400501E+007, +8.84919643374E+001, +1.26889703794E+003
+2.83570713392E+007, +8.28533575856E+001, +1.27486013572E+003
+2.84821026283E+007, +9.60113106399E+001, +1.30040163755E+003
+2.86071339174E+007, +8.05869989045E+001, +1.32129112414E+003
+2.87321652065E+007, +7.49954297660E+001, +1.31907921451E+003
+2.88571964956E+007, +9.17464597191E+001, +1.36443081417E+003
+2.89822277847E+007, +1.12992951163E+002, +1.37320829189E+003
+2.91072590738E+007, +1.03333935372E+002, +1.36992169790E+003
+2.92322903630E+007, +8.76890012025E+001, +1.39416770205E+003
+2.93573216521E+007, +9.35081282150E+001, +1.43201114017E+003
+2.94823529412E+007, +1.14079202551E+002, +1.43974411568E+003
+2.96073842303E+007, +1.06692478842E+002, +1.48633352810E+003
+2.97324155194E+007, +1.04530984135E+002, +1.49796187434E+003
+2.98574468085E+007, +1.16572720864E+002, +1.50981658746E+003
+2.99824780976E+007, +1.36735338529E+002, +1.51140090988E+003
+3.01075093867E+007, +1.18485615683E+002, +1.55858087963E+003
+3.02325406758E+007, +1.07248278970E+002, +1.57781813851E+003
+3.03575719650E+007, +1.13811927851E+002, +1.59205566213E+003
+3.04826032541E+007, +1.20503137738E+002, +1.60627053522E+003
+3.06076345432E+007, +1.23639275337E+002, +1.65238451339E+003
+3.07326658323E+007, +1.28536967982E+002, +1.66632007111E+003
+3.08576971214E+007, +1.43857837345E+002, +1.69503949538E+003
+3.09827284105E+007, +1.53247708853E+002, +1.72892819060E+003
+3.11077596996E+007, +1.61237526267E+002, +1.73203927062E+003
+3.12327909887E+007, +1.56910464271E+002, +1.77581674168E+003
+3.13578222778E+007, +1.55009851894E+002, +1.81919095354E+003
+3.14828535670E+007, +1.62949561511E+002, +1.84737932779E+003
+3.16078848561E+007, +1.81705691608E+002, +1.88779151491E+003
+3.17329161452E+007, +1.67391837713E+002, +1.93056401142E+003
+3.18579474343E+007, +2.05611139566E+002, +1.93951723990E+003
+3.19829787234E+007, +1.65594449228E+002, +1.98187129129E+003
+3.21080100125E+007, +2.01975566122E+002, +2.01783426117E+003
+3.22330413016E+007, +2.00839533759E+002, +2.05199026857E+003
+3.23580725907E+007, +1.88370187757E+002, +2.08345096820E+003
+3.24831038798E+007, +2.55914126390E+002, +2.09897800118E+003
+3.26081351690E+007, +2.46874614247E+002, +2.20987646590E+003
+3.27331664581E+007, +2.01659812335E+002, +2.23276761444E+003
+3.28581977472E+007, +2.26175503990E+002, +2.28148788894E+003
+3.29832290363E+007, +2.56269238576E+002, +2.29892734400E+003
+3.31082603254E+007, +3.00487248163E+002, +2.37402772630E+003
+3.32332916145E+007, +3.14267587580E+002, +2.41898593472E+003
+3.33583229036E+007, +2.82252867645E+002, +2.45846075060E+003
+3.34833541927E+007, +3.30735066213E+002, +2.48562860730E+003
+3.36083854819E+007, +3.51885888528E+002, +2.58051192615E+003
+3.37334167710E+007, +3.48232980181E+002, +2.58919167440E+003
+3.38584480601E+007, +3.54655106616E+002, +2.67721652752E+003
+3.39834793492E+007, +4.05951561425E+002, +2.72340770969E+003
+3.41085106383E+007, +3.82158569701E+002, +2.79501725621E+003
+3.42335419274E+007, +4.29583012262E+002, +2.85866332208E+003
+3.43585732165E+007, +4.79413477612E+002, +2.90568507406E+003
+3.44836045056E+007, +4.74926447392E+002, +3.00087673474E+003
+3.46086357947E+007, +5.63091636959E+002, +3.02871010474E+003
+3.47336670839E+007, +5.35187980095E+002, +3.20886581428E+003
+3.48586983730E+007, +5.74003067009E+002, +3.22407901775E+003
+3.49837296621E+007, +6.45439725972E+002, +3.34294726836E+003
+3.51087609512E+007, +6.24195422200E+002, +3.39752577239E+003
+3.52337922403E+007, +6.62453719045E+002, +3.52955394785E+003
+3.53588235294E+007, +7.52963402343E+002, +3.56527249998E+003
+3.54838548185E+007, +8.59396164185E+002, +3.72251187232E+003
+3.56088861076E+007, +8.14756903180E+002, +3.88427181274E+003
+3.57339173967E+007, +9.31844719729E+002, +3.90707822051E+003
+3.58589486859E+007, +9.60024452338E+002, +4.05076926266E+003
+3.59839799750E+007, +1.00466181801E+003, +4.25659673064E+003
+3.61090112641E+007, +1.21405637894E+003, +4.37434774904E+003
+3.62340425532E+007, +1.30386851080E+003, +4.40709964229E+003
+3.63590738423E+007, +1.28184457940E+003, +4.60414233736E+003
+3.64841051314E+007, +1.45848657125E+003, +4.78418726146E+003
+3.66091364205E+007, +1.70360625914E+003, +4.93074176581E+003
+3.67341677096E+007, +1.84101144120E+003, +5.09488981155E+003
+3.68591989987E+007, +1.75094263896E+003, +5.31832415333E+003
+3.69842302879E+007, +2.26526798298E+003, +5.48502839609E+003
+3.71092615770E+007, +2.49771734245E+003, +5.67630889943E+003
+3.72342928661E+007, +2.57727022907E+003, +5.79516814851E+003
+3.73593241552E+007, +2.99850381158E+003, +6.03631861080E+003
+3.74843554443E+007, +3.34607976886E+003, +6.35167137056E+003
+3.76093867334E+007, +3.49436553715E+003, +6.58609460822E+003
+3.77344180225E+007, +3.98678517986E+003, +6.59144465441E+003
+3.78594493116E+007, +4.65682936107E+003, +6.72409437805E+003
+3.79844806008E+007, +5.16359136829E+003, +6.86485184368E+003
+3.81095118899E+007, +5.84336536332E+003, +6.88013315580E+003
+3.82345431790E+007, +6.40880917735E+003, +7.00979835818E+003
+3.83595744681E+007, +7.14039606770E+003, +6.93992917820E+003
+3.84846057572E+007, +7.95742637814E+003, +6.82033367461E+003
+3.86096370463E+007, +8.82621593264E+003, +6.57537523043E+003
+3.87346683354E+007, +9.10313600613E+003, +6.35093397686E+003
+3.88596996245E+007, +1.07300003762E+004, +6.03134013941E+003
+3.89847309136E+007, +1.08120509546E+004, +5.19148264279E+003
+3.91097622028E+007, +1.17166333006E+004, +3.56661692750E+003
+3.92347934919E+007, +1.17906529787E+004, +3.68207541512E+003
+3.93598247810E+007, +1.25112921701E+004, +1.93592819863E+003
+3.94848560701E+007, +1.38311263367E+004, -2.81871558471E+002
+3.96098873592E+007, +1.32439845012E+004, -1.57395493704E+003
+3.97349186483E+007, +1.24815299577E+004, -1.89425803274E+003
+3.98599499374E+007, +1.14458385515E+004, -3.70020404912E+003
+3.99849812265E+007, +1.06948548458E+004, -4.48933532732E+003
+4.01100125156E+007, +1.01364342019E+004, -4.48115102282E+003
