"# Channel 1"
"# Trace 1"
Frequency, Formatted Data, Formatted Data
+1.00000000000E+005, +5.82720779299E+001, +2.31476586228E+000
+2.66777963272E+005, +5.81947772409E+001, +7.23205304357E+000
+4.33555926544E+005, +5.81739066965E+001, +1.17409795591E+001
+6.00333889816E+005, +5.81617370588E+001, +1.62596236062E+001
+7.67111853088E+005, +5.82674527099E+001, +2.06944484810E+001
+9.33889816361E+005, +5.82463678452E+001, +2.52562584266E+001
+1.10066777963E+006, +5.82951979131E+001, +2.99481465326E+001
+1.26744574290E+006, +5.83203174702E+001, +3.44263730421E+001
+1.43422370618E+006, +5.82545475944E+001, +3.89960116040E+001
+1.60100166945E+006, +5.83039121779E+001, +4.34783396913E+001
+1.76777963272E+006, +5.82724798081E+001, +4.79356168069E+001
+1.93455759599E+006, +5.82960075294E+001, +5.25648276568E+001
+2.10133555927E+006, +5.82322887053E+001, +5.70709217119E+001
+2.26811352254E+006, +5.82829185115E+001, +6.15833851090E+001
+2.43489148581E+006, +5.84937778497E+001, +6.62296580015E+001
+2.60166944908E+006, +5.82928582862E+001, +7.06015401535E+001
+2.76844741235E+006, +5.84520435438E+001, +7.53372560145E+001
+2.93522537563E+006, +5.83568734442E+001, +7.98702027214E+001
+3.10200333890E+006, +5.84359803599E+001, +8.43179782022E+001
+3.26878130217E+006, +5.84821968162E+001, +8.90995784803E+001
+3.43555926544E+006, +5.85060415222E+001, +9.34797426829E+001
+3.60233722871E+006, +5.87835546815E+001, +9.80722927174E+001
+3.76911519199E+006, +5.88236955191E+001, +1.02689269600E+002
+3.93589315526E+006, +5.84679822136E+001, +1.07122677282E+002
+4.10267111853E+006, +5.85863208982E+001, +1.12080532569E+002
+4.26944908180E+006, +5.88372600249E+001, +1.16772906461E+002
+4.43622704508E+006, +5.86965785324E+001, +1.20903275716E+002
+4.60300500835E+006, +5.89677529339E+001, +1.25906965827E+002
+4.76978297162E+006, +5.87349797165E+001, +1.30559088472E+002
+4.93656093489E+006, +5.90353493968E+001, +1.35221248421E+002
+5.10333889816E+006, +5.91892579409E+001, +1.39691190092E+002
+5.27011686144E+006, +5.96259687825E+001, +1.44625230755E+002
+5.43689482471E+006, +5.93182348486E+001, +1.49533482774E+002
+5.60367278798E+006, +5.96249515257E+001, +1.54061409092E+002
+5.77045075125E+006, +5.94209868925E+001, +1.58091874504E+002
+5.93722871452E+006, +5.99293805540E+001, +1.62695861714E+002
+6.10400667780E+006, +6.00520637713E+001, +1.67720885925E+002
+6.27078464107E+006, +6.01450888544E+001, +1.72404187445E+002
+6.43756260434E+006, +6.02356195156E+001, +1.77182818455E+002
+6.60434056761E+006, +6.03804054822E+001, +1.81791711025E+002
+6.77111853088E+006, +6.06777576555E+001, +1.86490580427E+002
+6.93789649416E+006, +6.06374167035E+001, +1.91250525187E+002
+7.10467445743E+006, +6.07219979009E+001, +1.96169105557E+002
+7.27145242070E+006, +6.08878197439E+001, +2.00654380717E+002
+7.43823038397E+006, +6.09831200799E+001, +2.05350633519E+002
+7.60500834725E+006, +6.10665697684E+001, +2.10283192778E+002
+7.77178631052E+006, +6.12091874495E+001, +2.15198047703E+002
+7.93856427379E+006, +6.12132131926E+001, +2.19924757137E+002
+8.10534223706E+006, +6.14512722590E+001, +2.24737222438E+002
+8.27212020033E+006, +6.15817963282E+001, +2.29426416436E+002
+8.43889816361E+006, +6.15601702646E+001, +2.34752545806E+002
+8.60567612688E+006, +6.15257803182E+001, +2.39948014386E+002
+8.77245409015E+006, +6.14300292707E+001, +2.44601174190E+002
+8.93923205342E+006, +6.19080190601E+001, +2.49715995224E+002
+9.10601001669E+006, +6.15125942988E+001, +2.54723027672E+002
+9.27278797997E+006, +6.21025829443E+001, +2.59465672549E+002
+9.43956594324E+006, +6.21898524514E+001, +2.64594297212E+002
+9.60634390651E+006, +6.18233155321E+001, +2.70025401812E+002
+9.77312186978E+006, +6.21961181335E+001, +2.74794348490E+002
+9.93989983306E+006, +6.26425217267E+001, +2.80007184865E+002
+1.01066777963E+007, +6.19386263954E+001, +2.85259060710E+002
+1.02734557596E+007, +6.29919225365E+001, +2.90620953882E+002
+1.04402337229E+007, +6.25437182577E+001, +2.95824599306E+002
+1.06070116861E+007, +6.26376928902E+001, +3.00527527750E+002
+1.07737896494E+007, +6.31882699919E+001, +3.06174542656E+002
+1.09405676127E+007, +6.40688652170E+001, +3.11311286760E+002
+1.11073455760E+007, +6.38906065009E+001, +3.16649362364E+002
+1.12741235392E+007, +6.34825449382E+001, +3.21413292219E+002
+1.14409015025E+007, +6.38584428922E+001, +3.27192868020E+002
+1.16076794658E+007, +6.39757536401E+001, +3.32402866103E+002
+1.17744574290E+007, +6.44693421383E+001, +3.38880814633E+002
+1.19412353923E+007, +6.44838499935E+001, +3.43395220771E+002
+1.21080133556E+007, +6.40253465369E+001, +3.49203892413E+002
+1.22747913189E+007, +6.53546323011E+001, +3.55575853834E+002
+1.24415692821E+007, +6.44802866325E+001, +3.60809370981E+002
+1.26083472454E+007, +6.49394998256E+001, +3.66106816633E+002
+1.27751252087E+007, +6.52133416810E+001, +3.71310559632E+002
+1.29419031720E+007, +6.50170474305E+001, +3.77199770041E+002
+1.31086811352E+007, +6.59502158390E+001, +3.82423099039E+002
+1.32754590985E+007, +6.66466906992E+001, +3.88098008401E+002
+1.34422370618E+007, +6.58494581946E+001, +3.93811891279E+002
+1.36090150250E+007, +6.69085066320E+001, +4.00225911424E+002
+1.37757929883E+007, +6.67913143385E+001, +4.05245237836E+002
+1.39425709516E+007, +6.77219200588E+001, +4.11197592125E+002
+1.41093489149E+007, +6.80854991201E+001, +4.16685968636E+002
+1.42761268781E+007, +6.79965511186E+001, +4.23363361593E+002
+1.44429048414E+007, +6.77255562435E+001, +4.28702171852E+002
+1.46096828047E+007, +6.83591008381E+001, +4.35210125593E+002
+1.47764607679E+007, +6.92300792819E+001, +4.40504665609E+002
+1.49432387312E+007, +6.88068305703E+001, +4.47384947627E+002
+1.51100166945E+007, +6.92157770586E+001, +4.53546637421E+002
+1.52767946578E+007, +7.00296346244E+001, +4.59014402784E+002
+1.54435726210E+007, +7.02846587203E+001, +4.64496010130E+002
+1.56103505843E+007, +7.10262253173E+001, +4.71587073309E+002
+1.57771285476E+007, +7.23178795727E+001, +4.77772615695E+002
+1.59439065109E+007, +7.09959796326E+001, +4.83348094853E+002
+1.61106844741E+007, +7.21883738240E+001, +4.89067652696E+002
+1.62774624374E+007, +7.26034783010E+001, +4.95177528430E+002
+1.64442404007E+007, +7.23253593315E+001, +5.02604042974E+002
+1.66110183639E+007, +7.32215758124E+001, +5.08370582242E+002
+1.67777963272E+007, +7.43359831408E+001, +5.14715943425E+002
+1.69445742905E+007, +7.47646686269E+001, +5.21401958660E+002
+1.71113522538E+007, +7.24723086118E+001, +5.27489471559E+002
+1.72781302170E+007, +7.47906789981E+001, +5.36038111114E+002
+1.74449081803E+007, +7.30660177297E+001, +5.40971187322E+002
+1.76116861436E+007, +7.50790254474E+001, +5.47830968987E+002
+1.77784641068E+007, +7.39330430301E+001, +5.54551522242E+002
+1.79452420701E+007, +7.42945402551E+001, +5.61230812896E+002
+1.81120200334E+007, +7.67780247088E+001, +5.66396575918E+002
+1.82787979967E+007, +7.83704185659E+001, +5.75052073679E+002
+1.84455759599E+007, +7.90318476844E+001, +5.83534761841E+002
+1.86123539232E+007, +7.90129808116E+001, +5.89061466550E+002
+1.87791318865E+007, +7.77730058919E+001, +5.96625637484E+002
+1.89459098497E+007, +7.87051806797E+001, +6.05259275000E+002
+1.91126878130E+007, +8.02768446669E+001, +6.11251086072E+002
+1.92794657763E+007, +7.94555682194E+001, +6.19984406133E+002
+1.94462437396E+007, +8.15004648235E+001, +6.26653001819E+002
+1.96130217028E+007, +8.21246219606E+001, +6.33495097232E+002
+1.97797996661E+007, +8.23411443613E+001, +6.41856672228E+002
+1.99465776294E+007, +8.05913538481E+001, +6.50146782101E+002
+2.01133555927E+007, +8.22956614327E+001, +6.57062952717E+002
+2.02801335559E+007, +8.34432022014E+001, +6.67090636079E+002
+2.04469115192E+007, +8.56536314711E+001, +6.74505730225E+002
+2.06136894825E+007, +8.65882356911E+001, +6.78832900663E+002
+2.07804674457E+007, +8.75947671794E+001, +6.89652948500E+002
+2.09472454090E+007, +8.69080049069E+001, +7.00225830617E+002
+2.11140233723E+007, +8.92589667855E+001, +7.05581790471E+002
+2.12808013356E+007, +8.92377540730E+001, +7.12026307365E+002
+2.14475792988E+007, +9.17277349657E+001, +7.24021436095E+002
+2.16143572621E+007, +9.51593045648E+001, +7.30255995202E+002
+2.17811352254E+007, +9.21153900742E+001, +7.35717777989E+002
+2.19479131886E+007, +9.64876237380E+001, +7.48949492966E+002
+2.21146911519E+007, +9.57861909492E+001, +7.52168298296E+002
+2.22814691152E+007, +9.60373343743E+001, +7.62772108988E+002
+2.24482470785E+007, +9.74620892911E+001, +7.74958283714E+002
+2.26150250417E+007, +9.93081602090E+001, +7.81659938225E+002
+2.27818030050E+007, +1.00288980848E+002, +7.91226095876E+002
+2.29485809683E+007, +1.08186075105E+002, +7.98491281549E+002
+2.31153589316E+007, +1.02034877004E+002, +8.12438431606E+002
+2.32821368948E+007, +1.04300231688E+002, +8.16445228154E+002
+2.34489148581E+007, +1.07068084932E+002, +8.27874495463E+002
+2.36156928214E+007, +1.11350541616E+002, +8.40707354425E+002
+2.37824707846E+007, +1.09512351503E+002, +8.49903037061E+002
+2.39492487479E+007, +1.09441046654E+002, +8.55105439713E+002
+2.41160267112E+007, +1.12863221961E+002, +8.64118174516E+002
+2.42828046745E+007, +1.10915015488E+002, +8.76862757624E+002
+2.44495826377E+007, +1.19679052034E+002, +8.89017335537E+002
+2.46163606010E+007, +1.16382300993E+002, +8.94261155801E+002
+2.47831385643E+007, +1.17328680785E+002, +9.10185629345E+002
+2.49499165275E+007, +1.23504621135E+002, +9.16771177247E+002
+2.51166944908E+007, +1.26578825814E+002, +9.25845645838E+002
+2.52834724541E+007, +1.25024064322E+002, +9.38701606718E+002
+2.54502504174E+007, +1.28610014616E+002, +9.51869449441E+002
+2.56170283806E+007, +1.28737602204E+002, +9.57074191749E+002
+2.57838063439E+007, +1.33270431476E+002, +9.74226009208E+002
+2.59505843072E+007, +1.38053580272E+002, +9.85798891190E+002
+2.61173622705E+007, +1.37681690643E+002, +9.93479981162E+002
+2.62841402337E+007, +1.39005040757E+002, +1.00912852888E+003
+2.64509181970E+007, +1.41585218885E+002, +1.01669566600E+003
+2.66176961603E+007, +1.45188295887E+002, +1.03348738023E+003
+2.67844741235E+007, +1.42521814413E+002, +1.04085945616E+003
+2.69512520868E+007, +1.48505707251E+002, +1.05597113487E+003
+2.71180300501E+007, +1.51942675699E+002, +1.06019543640E+003
+2.72848080134E+007, +1.58954520519E+002, +1.07729401139E+003
+2.74515859766E+007, +1.60964796313E+002, +1.09032168375E+003
+2.76183639399E+007, +1.55002693836E+002, +1.10100848133E+003
+2.77851419032E+007, +1.55894494625E+002, +1.11303756638E+003
+2.79519198664E+007, +1.63886741340E+002, +1.12684285009E+003
+2.81186978297E+007, +1.66055354825E+002, +1.13419509466E+003
+2.82854757930E+007, +1.72889038347E+002, +1.14958132495E+003
+2.84522537563E+007, +1.60509753086E+002, +1.17101626569E+003
+2.86190317195E+007, +1.66776957686E+002, +1.18301578572E+003
+2.87858096828E+007, +1.77968452865E+002, +1.19513214317E+003
+2.89525876461E+007, +1.76633991932E+002, +1.20791024805E+003
+2.91193656093E+007, +1.73395720940E+002, +1.21948179685E+003
+2.92861435726E+007, +1.79316907525E+002, +1.23271957273E+003
+2.94529215359E+007, +1.83825029284E+002, +1.24544469544E+003
+2.96196994992E+007, +1.85368630742E+002, +1.26313936631E+003
+2.97864774624E+007, +1.98331301275E+002, +1.27522871463E+003
+2.99532554257E+007, +2.01516502646E+002, +1.30063240697E+003
+3.01200333890E+007, +1.98587793010E+002, +1.31772589431E+003
+3.02868113523E+007, +2.04072598670E+002, +1.33793253489E+003
+3.04535893155E+007, +2.00292711322E+002, +1.34916539391E+003
+3.06203672788E+007, +2.13059794654E+002, +1.36019692656E+003
+3.07871452421E+007, +2.12073189539E+002, +1.38775939826E+003
+3.09539232053E+007, +2.13995983145E+002, +1.39782276476E+003
+3.11207011686E+007, +2.13321474469E+002, +1.43441218710E+003
+3.12874791319E+007, +2.20687629975E+002, +1.43731867692E+003
+3.14542570952E+007, +2.28951367126E+002, +1.44885365706E+003
+3.16210350584E+007, +2.28123820316E+002, +1.48470289403E+003
+3.17878130217E+007, +2.27349584309E+002, +1.50294104681E+003
+3.19545909850E+007, +2.39839879574E+002, +1.52613178717E+003
+3.21213689482E+007, +2.33606963487E+002, +1.55291719115E+003
+3.22881469115E+007, +2.38586620372E+002, +1.56422938058E+003
+3.24549248748E+007, +2.44497057705E+002, +1.59148587017E+003
+3.26217028381E+007, +2.45759411823E+002, +1.61507474172E+003
+3.27884808013E+007, +2.58524976025E+002, +1.63221678893E+003
+3.29552587646E+007, +2.61966045154E+002, +1.64673023831E+003
+3.31220367279E+007, +2.84731218667E+002, +1.67319752485E+003
+3.32888146912E+007, +2.77731975936E+002, +1.72196610688E+003
+3.34555926544E+007, +2.74970516038E+002, +1.73009792196E+003
+3.36223706177E+007, +2.99158216095E+002, +1.75635142076E+003
+3.37891485810E+007, +2.85790989919E+002, +1.76932568517E+003
+3.39559265442E+007, +3.18554839604E+002, +1.81791679355E+003
+3.41227045075E+007, +3.00544926676E+002, +1.83351924588E+003
+3.42894824708E+007, +3.15160005627E+002, +1.86935686511E+003
+3.44562604341E+007, +3.28041913867E+002, +1.90250597345E+003
+3.46230383973E+007, +3.43810593491E+002, +1.95300637981E+003
+3.47898163606E+007, +3.49746916456E+002, +1.94818953132E+003
+3.49565943239E+007, +3.71344797971E+002, +1.99935772054E+003
+3.51233722871E+007, +3.57353961664E+002, +2.04260437468E+003
+3.52901502504E+007, +3.64531175977E+002, +2.04914395050E+003
+3.54569282137E+007, +3.88643485064E+002, +2.10244317961E+003
+3.56237061770E+007, +3.88110332157E+002, +2.14908958368E+003
+3.57904841402E+007, +3.83793813735E+002, +2.18857350751E+003
+3.59572621035E+007, +4.10288458975E+002, +2.22077442155E+003
+3.61240400668E+007, +4.30090576428E+002, +2.25556026775E+003
+3.62908180301E+007, +4.67460245690E+002, +2.32236128815E+003
+3.64575959933E+007, +4.45380009442E+002, +2.37490457715E+003
+3.66243739566E+007, +4.65202220281E+002, +2.37494542476E+003
+3.67911519199E+007, +4.95344594795E+002, +2.47003093929E+003
+3.69579298831E+007, +5.14134359510E+002, +2.47770331065E+003
+3.71247078464E+007, +5.13257642271E+002, +2.56327184672E+003
+3.72914858097E+007, +5.51575168089E+002, +2.62125991908E+003
+3.74582637730E+007, +6.18679178839E+002, +2.70159363561E+003
+3.76250417362E+007, +5.90772069292E+002, +2.70546318875E+003
+3.77918196995E+007, +6.21491840009E+002, +2.76606667299E+003
+3.79585976628E+007, +6.46858432076E+002, +2.81731825260E+003
+3.81253756260E+007, +6.66655341966E+002, +2.88087384601E+003
+3.82921535893E+007, +7.40287198746E+002, +3.01022645692E+003
+3.84589315526E+007, +7.77695441675E+002, +3.05114133373E+003
+3.86257095159E+007, +7.83873112462E+002, +3.14444664875E+003
+3.87924874791E+007, +7.85026136312E+002, +3.24815152256E+003
+3.89592654424E+007, +8.86461482291E+002, +3.27830849115E+003
+3.91260434057E+007, +9.41417881732E+002, +3.40742848021E+003
+3.92928213689E+007, +9.60208452450E+002, +3.46961914486E+003
+3.94595993322E+007, +1.04352505700E+003, +3.59363476660E+003
+3.96263772955E+007, +1.05758073202E+003, +3.72150895980E+003
+3.97931552588E+007, +1.07700092983E+003, +3.76362634457E+003
+3.99599332220E+007, +1.25890725483E+003, +3.81983188330E+003
+4.01267111853E+007, +1.31514013794E+003, +4.01830435976E+003
+4.02934891486E+007, +1.28805865854E+003, +4.07648369165E+003
+4.04602671119E+007, +1.43843345882E+003, +4.25515946248E+003
+4.06270450751E+007, +1.49894577660E+003, +4.31302180444E+003
+4.07938230384E+007, +1.68463641145E+003, +4.51099689497E+003
+4.09606010017E+007, +1.76113119349E+003, +4.61959795753E+003
+4.11273789649E+007, +1.91125105818E+003, +4.73898343502E+003
+4.12941569282E+007, +2.09799497557E+003, +5.00216258692E+003
+4.14609348915E+007, +2.38155561792E+003, +5.25428754473E+003
+4.16277128548E+007, +2.49541490264E+003, +5.31995107104E+003
+4.17944908180E+007, +2.60758566206E+003, +5.43253818561E+003
+4.19612687813E+007, +2.92018664804E+003, +5.62732658691E+003
+4.21280467446E+007, +3.19431153245E+003, +5.98773540622E+003
+4.22948247078E+007, +3.68305917696E+003, +6.05886249881E+003
+4.24616026711E+007, +4.08447077066E+003, +6.10940632857E+003
+4.26283806344E+007, +4.35524944980E+003, +6.32688744644E+003
+4.27951585977E+007, +4.72201281442E+003, +7.27824403960E+003
+4.29619365609E+007, +5.27385155655E+003, +6.61694634782E+003
+4.31287145242E+007, +6.50678281638E+003, +6.70323743122E+003
+4.32954924875E+007, +6.90448593306E+003, +7.02650998852E+003
+4.34622704508E+007, +7.83734047646E+003, +7.05283681363E+003
+4.36290484140E+007, +8.57200002429E+003, +6.12143790662E+003
+4.37958263773E+007, +9.70932011099E+003, +6.64549699016E+003
+4.39626043406E+007, +1.04892324808E+004, +5.85128772500E+003
+4.41293823038E+007, +1.18635561669E+004, +3.93239706052E+003
+4.42961602671E+007, +1.23464511306E+004, +3.76596921303E+003
+4.44629382304E+007, +1.32008814713E+004, +2.48186186691E+003
+4.46297161937E+007, +1.35509546790E+004, +1.41545903479E+003
+4.47964941569E+007, +1.41159689096E+004, -6.61816093409E+002
+4.49632721202E+007, +1.35910055065E+004, -2.07024165984E+003
+4.51300500835E+007, +1.28316132119E+004, -2.73850350800E+003
+4.52968280467E+007, +1.14803589516E+004, -3.89854789646E+003
+4.54636060100E+007, +9.84316511537E+003, -5.57692656856E+003
+4.56303839733E+007, +9.16968272921E+003, -6.48397727326E+003
+4.57971619366E+007, +8.33812228999E+003, -6.50002181312E+003
+4.59639398998E+007, +7.02642444546E+003, -6.97206425301E+003
+4.61307178631E+007, +6.67077541890E+003, -6.33772377311E+003
+4.62974958264E+007, +5.66117482338E+003, -6.12963105780E+003
+4.64642737896E+007, +5.35855255338E+003, -6.36756930314E+003
+4.66310517529E+007, +4.58258976155E+003, -6.02790477491E+003
+4.67978297162E+007, +4.46855657666E+003, -5.72239457579E+003
+4.69646076795E+007, +3.86067136479E+003, -5.81682909310E+003
+4.71313856427E+007, +3.66638801373E+003, -5.43388584902E+003
+4.72981636060E+007, +3.15565026666E+003, -5.15192146604E+003
+4.74649415693E+007, +2.98063667630E+003, -4.97865545587E+003
+4.76317195326E+007, +2.85953412312E+003, -4.78607604354E+003
+4.77984974958E+007, +2.58241252049E+003, -4.63157352620E+003
+4.79652754591E+007, +2.50702933644E+003, -4.46256805653E+003
+4.81320534224E+007, +2.36438472052E+003, -4.32999909512E+003
+4.82988313856E+007, +2.17380581856E+003, -4.10028815245E+003
+4.84656093489E+007, +2.09345086720E+003, -4.01196277946E+003
+4.86323873122E+007, +2.02344413194E+003, -3.90697702756E+003
+4.87991652755E+007, +1.82091116083E+003, -3.72135590372E+003
+4.89659432387E+007, +1.77185784702E+003, -3.66542566893E+003
+4.91327212020E+007, +1.65776883090E+003, -3.55729729582E+003
+4.92994991653E+007, +1.67810379209E+003, -3.44529951426E+003
+4.94662771285E+007, +1.58204469358E+003, -3.32455200426E+003
+4.96330550918E+007, +1.57474488196E+003, -3.21852587649E+003
+4.97998330551E+007, +1.48863289350E+003, -3.17376011138E+003
+4.99666110184E+007, +1.45249370711E+003, -3.09100127976E+003
+5.01333889816E+007, +1.39138298245E+003, -3.05261766822E+003
+5.03001669449E+007, +1.35260229421E+003, -3.03116848910E+003
+5.04669449082E+007, +1.29854466020E+003, -2.93880623872E+003
+5.06337228715E+007, +1.24892962382E+003, -2.86155393217E+003
+5.08005008347E+007, +1.21615969912E+003, -2.85649339526E+003
+5.09672787980E+007, +1.19417097910E+003, -2.81183727512E+003
+5.11340567613E+007, +1.14455206934E+003, -2.73899204843E+003
+5.13008347245E+007, +1.06217535773E+003, -2.73611502165E+003
+5.14676126878E+007, +1.03739685091E+003, -2.67976801311E+003
+5.16343906511E+007, +1.00601845476E+003, -2.62123706954E+003
+5.18011686144E+007, +9.65874051063E+002, -2.58279181153E+003
+5.19679465776E+007, +9.12295108089E+002, -2.54636809455E+003
+5.21347245409E+007, +8.82686988500E+002, -2.47705273788E+003
+5.23015025042E+007, +8.03628908033E+002, -2.41810479046E+003
+5.24682804674E+007, +7.64110921028E+002, -2.40871738633E+003
+5.26350584307E+007, +7.39915604699E+002, -2.37160592994E+003
+5.28018363940E+007, +6.74102234327E+002, -2.33555008306E+003
+5.29686143573E+007, +6.44523023310E+002, -2.25716213942E+003
+5.31353923205E+007, +6.24610744654E+002, -2.23720340144E+003
+5.33021702838E+007, +5.77312182533E+002, -2.21421946452E+003
+5.34689482471E+007, +5.34219182513E+002, -2.13176302461E+003
