"# Channel 1"
"# Trace 1"
Frequency, Formatted Data, Formatted Data
+1.00000000000E+005, +1.02649205763E+002, +2.67866143460E+000
+3.18898623279E+005, +1.02706728814E+002, +8.93684897079E+000
+5.37797246558E+005, +1.02661449801E+002, +1.51569808097E+001
+7.56695869837E+005, +1.02695543369E+002, +2.12454442044E+001
+9.75594493116E+005, +1.02774485807E+002, +2.74038056436E+001
+1.19449311640E+006, +1.02706564020E+002, +3.34238448631E+001
+1.41339173967E+006, +1.02607469089E+002, +3.95600148184E+001
+1.63229036295E+006, +1.02644022216E+002, +4.56968991118E+001
+1.85118898623E+006, +1.02792988660E+002, +5.17591178456E+001
+2.07008760951E+006, +1.02785409028E+002, +5.79413612336E+001
+2.28898623279E+006, +1.03039060468E+002, +6.42976056133E+001
+2.50788485607E+006, +1.02810553756E+002, +6.99593945618E+001
+2.72678347935E+006, +1.02889303872E+002, +7.64160834519E+001
+2.94568210263E+006, +1.02863581405E+002, +8.25275644539E+001
+3.16458072591E+006, +1.02773659496E+002, +8.88777211438E+001
+3.38347934919E+006, +1.03343475131E+002, +9.48233019369E+001
+3.60237797247E+006, +1.03401996024E+002, +1.00931779168E+002
+3.82127659574E+006, +1.03397619504E+002, +1.07117499176E+002
+4.04017521902E+006, +1.03815538426E+002, +1.13543623850E+002
+4.25907384230E+006, +1.03402763946E+002, +1.19600751166E+002
+4.47797246558E+006, +1.03840228746E+002, +1.25292365407E+002
+4.69687108886E+006, +1.03812144120E+002, +1.32074393200E+002
+4.91576971214E+006, +1.04156832972E+002, +1.38214127045E+002
+5.13466833542E+006, +1.04119356307E+002, +1.44696789576E+002
+5.35356695870E+006, +1.04625865962E+002, +1.50587436528E+002
+5.57246558198E+006, +1.04212518944E+002, +1.56892095521E+002
+5.79136420526E+006, +1.05104156064E+002, +1.63184010711E+002
+6.01026282854E+006, +1.05158548798E+002, +1.69215412723E+002
+6.22916145181E+006, +1.05882800600E+002, +1.75829071743E+002
+6.44806007509E+006, +1.05704700122E+002, +1.82080788488E+002
+6.66695869837E+006, +1.05972972785E+002, +1.88409635947E+002
+6.88585732165E+006, +1.06087816390E+002, +1.95086795725E+002
+7.10475594493E+006, +1.06453763542E+002, +2.01167310121E+002
+7.32365456821E+006, +1.06964133610E+002, +2.07637708216E+002
+7.54255319149E+006, +1.06999406240E+002, +2.13808971382E+002
+7.76145181477E+006, +1.07509618336E+002, +2.20487573623E+002
+7.98035043805E+006, +1.07823404094E+002, +2.27013954289E+002
+8.19924906133E+006, +1.07929583888E+002, +2.33385767121E+002
+8.41814768461E+006, +1.08791252402E+002, +2.39870144039E+002
+8.63704630788E+006, +1.08727631803E+002, +2.46164410041E+002
+8.85594493116E+006, +1.09468825298E+002, +2.52948973822E+002
+9.07484355444E+006, +1.09380189421E+002, +2.59454342401E+002
+9.29374217772E+006, +1.09925448469E+002, +2.66603061593E+002
+9.51264080100E+006, +1.10373828536E+002, +2.73190383436E+002
+9.73153942428E+006, +1.11297563586E+002, +2.80024365227E+002
+9.95043804756E+006, +1.10832186645E+002, +2.86501398247E+002
+1.01693366708E+007, +1.11220881668E+002, +2.93505925913E+002
+1.03882352941E+007, +1.11799618145E+002, +2.99806857324E+002
+1.06071339174E+007, +1.11765841834E+002, +3.07051498925E+002
+1.08260325407E+007, +1.12277938745E+002, +3.13818898463E+002
+1.10449311640E+007, +1.13035846525E+002, +3.20610376673E+002
+1.12638297872E+007, +1.13250467990E+002, +3.28061378578E+002
+1.14827284105E+007, +1.14066468928E+002, +3.35021329730E+002
+1.17016270338E+007, +1.14274098761E+002, +3.41476782120E+002
+1.19205256571E+007, +1.15065425003E+002, +3.48716933858E+002
+1.21394242804E+007, +1.15799224692E+002, +3.56299670002E+002
+1.23583229036E+007, +1.16423323043E+002, +3.62796170031E+002
+1.25772215269E+007, +1.16598371991E+002, +3.70892538394E+002
+1.27961201502E+007, +1.17309164733E+002, +3.77497928116E+002
+1.30150187735E+007, +1.16991328864E+002, +3.85222690430E+002
+1.32339173967E+007, +1.18723236045E+002, +3.92521981270E+002
+1.34528160200E+007, +1.18040528615E+002, +3.99611539578E+002
+1.36717146433E+007, +1.18393456816E+002, +4.08245376784E+002
+1.38906132666E+007, +1.19883967524E+002, +4.15942710198E+002
+1.41095118899E+007, +1.21106640072E+002, +4.23153529340E+002
+1.43284105131E+007, +1.20282903945E+002, +4.31224194913E+002
+1.45473091364E+007, +1.22224358716E+002, +4.37748765991E+002
+1.47662077597E+007, +1.22180069517E+002, +4.44700564790E+002
+1.49851063830E+007, +1.23832405699E+002, +4.53643146462E+002
+1.52040050063E+007, +1.24621100747E+002, +4.63426710354E+002
+1.54229036295E+007, +1.25502944175E+002, +4.69810817620E+002
+1.56418022528E+007, +1.24459316317E+002, +4.78551621541E+002
+1.58607008761E+007, +1.26034981080E+002, +4.85910480209E+002
+1.60795994994E+007, +1.27270096347E+002, +4.94833365846E+002
+1.62984981227E+007, +1.27746069916E+002, +5.02414101877E+002
+1.65173967459E+007, +1.27284610578E+002, +5.11094517705E+002
+1.67362953692E+007, +1.29058788688E+002, +5.20148992096E+002
+1.69551939925E+007, +1.30895530094E+002, +5.25037639508E+002
+1.71740926158E+007, +1.28173544952E+002, +5.38550513361E+002
+1.73929912390E+007, +1.29987234788E+002, +5.45656274478E+002
+1.76118898623E+007, +1.33159798081E+002, +5.53214193694E+002
+1.78307884856E+007, +1.34110844021E+002, +5.61518244178E+002
+1.80496871089E+007, +1.33777316494E+002, +5.71125295070E+002
+1.82685857322E+007, +1.35190969664E+002, +5.79797195637E+002
+1.84874843554E+007, +1.38225040828E+002, +5.88917578584E+002
+1.87063829787E+007, +1.36233458622E+002, +5.96761837384E+002
+1.89252816020E+007, +1.40145955056E+002, +6.09995995729E+002
+1.91441802253E+007, +1.39681084229E+002, +6.15069888183E+002
+1.93630788486E+007, +1.39179387719E+002, +6.26808542796E+002
+1.95819774718E+007, +1.43162978783E+002, +6.36295642238E+002
+1.98008760951E+007, +1.45926166371E+002, +6.44782900044E+002
+2.00197747184E+007, +1.44512355859E+002, +6.56139851263E+002
+2.02386733417E+007, +1.46305364022E+002, +6.64862813833E+002
+2.04575719650E+007, +1.48470550346E+002, +6.72620528260E+002
+2.06764705882E+007, +1.49236250663E+002, +6.84986774898E+002
+2.08953692115E+007, +1.53208073527E+002, +6.97940504857E+002
+2.11142678348E+007, +1.53153468405E+002, +7.04658327118E+002
+2.13331664581E+007, +1.54849264374E+002, +7.20581076172E+002
+2.15520650814E+007, +1.56167351849E+002, +7.24849404136E+002
+2.17709637046E+007, +1.55276792376E+002, +7.37922674268E+002
+2.19898623279E+007, +1.59884103562E+002, +7.50765348046E+002
+2.22087609512E+007, +1.58938494137E+002, +7.58584893682E+002
+2.24276595745E+007, +1.68241819344E+002, +7.70508621875E+002
+2.26465581977E+007, +1.67617798137E+002, +7.80986208735E+002
+2.28654568210E+007, +1.70739643027E+002, +7.93323088637E+002
+2.30843554443E+007, +1.70606903753E+002, +8.03390979310E+002
+2.33032540676E+007, +1.74356991036E+002, +8.14834651029E+002
+2.35221526909E+007, +1.75762151388E+002, +8.26351475348E+002
+2.37410513141E+007, +1.79633039662E+002, +8.36932152303E+002
+2.39599499374E+007, +1.78698784421E+002, +8.48504742982E+002
+2.41788485607E+007, +1.81226313725E+002, +8.62239554288E+002
+2.43977471840E+007, +1.87542952843E+002, +8.73013193367E+002
+2.46166458073E+007, +1.88835193631E+002, +8.88718017924E+002
+2.48355444305E+007, +1.88741339263E+002, +8.97981521596E+002
+2.50544430538E+007, +1.95766537002E+002, +9.08207676508E+002
+2.52733416771E+007, +1.99530305332E+002, +9.19354127179E+002
+2.54922403004E+007, +1.93813454044E+002, +9.37659139663E+002
+2.57111389237E+007, +2.02684339586E+002, +9.49982677114E+002
+2.59300375469E+007, +2.02949403332E+002, +9.65301301487E+002
+2.61489361702E+007, +2.08185294304E+002, +9.75848767460E+002
+2.63678347935E+007, +2.05611704687E+002, +9.91213809370E+002
+2.65867334168E+007, +2.13523590618E+002, +1.00197325662E+003
+2.68056320401E+007, +2.10306137815E+002, +1.01950874010E+003
+2.70245306633E+007, +2.14072622176E+002, +1.03333902845E+003
+2.72434292866E+007, +2.18259287479E+002, +1.04373654294E+003
+2.74623279099E+007, +2.19618492038E+002, +1.06296242182E+003
+2.76812265332E+007, +2.24257432450E+002, +1.07912488434E+003
+2.79001251564E+007, +2.26166246401E+002, +1.09702188410E+003
+2.81190237797E+007, +2.35049417194E+002, +1.10429221836E+003
+2.83379224030E+007, +2.30433381122E+002, +1.12325244207E+003
+2.85568210263E+007, +2.32791683955E+002, +1.14540955585E+003
+2.87757196496E+007, +2.34666335670E+002, +1.16599929200E+003
+2.89946182728E+007, +2.40494896662E+002, +1.18872459996E+003
+2.92135168961E+007, +2.43674855877E+002, +1.20951745124E+003
+2.94324155194E+007, +2.55132995557E+002, +1.23359201935E+003
+2.96513141427E+007, +2.52319007887E+002, +1.24340293691E+003
+2.98702127660E+007, +2.58205537156E+002, +1.26080221727E+003
+3.00891113892E+007, +2.64426517173E+002, +1.28158532435E+003
+3.03080100125E+007, +2.71038423831E+002, +1.29325345293E+003
+3.05269086358E+007, +2.80679505662E+002, +1.31778769833E+003
+3.07458072591E+007, +2.81743965226E+002, +1.33381229553E+003
+3.09647058824E+007, +2.81062648187E+002, +1.36060095585E+003
+3.11836045056E+007, +2.94943902367E+002, +1.38026366777E+003
+3.14025031289E+007, +2.86922532660E+002, +1.40818801325E+003
+3.16214017522E+007, +2.97994460964E+002, +1.42434596936E+003
+3.18403003755E+007, +3.05785484882E+002, +1.46796846051E+003
+3.20591989987E+007, +3.02055952158E+002, +1.47359185532E+003
+3.22780976220E+007, +3.22146341804E+002, +1.50262557540E+003
+3.24969962453E+007, +3.17530195665E+002, +1.53532189425E+003
+3.27158948686E+007, +3.33583681022E+002, +1.54512756795E+003
+3.29347934919E+007, +3.27816166082E+002, +1.58541163793E+003
+3.31536921151E+007, +3.49237909767E+002, +1.59650853270E+003
+3.33725907384E+007, +3.63150089533E+002, +1.64150232049E+003
+3.35914893617E+007, +3.70330316172E+002, +1.67673773121E+003
+3.38103879850E+007, +3.59026497528E+002, +1.70829656503E+003
+3.40292866083E+007, +3.79135197864E+002, +1.72878460087E+003
+3.42481852315E+007, +3.93741150671E+002, +1.74695073551E+003
+3.44670838548E+007, +4.07940351137E+002, +1.80042489309E+003
+3.46859824781E+007, +4.13936704312E+002, +1.83395536970E+003
+3.49048811014E+007, +4.35423459613E+002, +1.87010660740E+003
+3.51237797247E+007, +4.48551948752E+002, +1.90289326488E+003
+3.53426783479E+007, +4.42717874944E+002, +1.93411681974E+003
+3.55615769712E+007, +4.77486752925E+002, +1.97515322492E+003
+3.57804755945E+007, +5.01303517990E+002, +1.99136053400E+003
+3.59993742178E+007, +4.83101714743E+002, +2.07666533384E+003
+3.62182728411E+007, +5.14687807762E+002, +2.07562990133E+003
+3.64371714643E+007, +5.32741852643E+002, +2.10976653751E+003
+3.66560700876E+007, +5.30425507270E+002, +2.18608407796E+003
+3.68749687109E+007, +5.76199130772E+002, +2.25731136371E+003
+3.70938673342E+007, +5.90115811804E+002, +2.28811366651E+003
+3.73127659574E+007, +5.78867571572E+002, +2.32078834584E+003
+3.75316645807E+007, +6.14035745156E+002, +2.38281461723E+003
+3.77505632040E+007, +6.43348027281E+002, +2.42997316461E+003
+3.79694618273E+007, +6.97853520629E+002, +2.48807868841E+003
+3.81883604506E+007, +6.97636909193E+002, +2.55517071568E+003
+3.84072590738E+007, +6.99176678113E+002, +2.64066054513E+003
+3.86261576971E+007, +7.48342224812E+002, +2.66152086572E+003
+3.88450563204E+007, +7.93704693749E+002, +2.72310811989E+003
+3.90639549437E+007, +8.82972468644E+002, +2.69879874510E+003
+3.92828535670E+007, +8.78868413373E+002, +2.87825820670E+003
+3.95017521902E+007, +9.39486597404E+002, +2.93362754357E+003
+3.97206508135E+007, +9.76436179108E+002, +2.99332236386E+003
+3.99395494368E+007, +1.00046983422E+003, +3.09227893175E+003
+4.01584480601E+007, +1.08455831361E+003, +3.13139420258E+003
+4.03773466834E+007, +1.19730828115E+003, +3.28383290476E+003
+4.05962453066E+007, +1.21472319453E+003, +3.38541790693E+003
+4.08151439299E+007, +1.29031576980E+003, +3.45809775748E+003
+4.10340425532E+007, +1.31743525026E+003, +3.62744417572E+003
+4.12529411765E+007, +1.37959985072E+003, +3.61248029877E+003
+4.14718397997E+007, +1.47337107712E+003, +3.79009940703E+003
+4.16907384230E+007, +1.62806847102E+003, +3.93460194201E+003
+4.19096370463E+007, +1.72923362022E+003, +4.04352388432E+003
+4.21285356696E+007, +1.81859762599E+003, +4.14409630039E+003
+4.23474342929E+007, +2.03750694167E+003, +4.34472855359E+003
+4.25663329161E+007, +2.05889882238E+003, +4.35641517703E+003
+4.27852315394E+007, +2.25558745131E+003, +4.55493527774E+003
+4.30041301627E+007, +2.54300574811E+003, +4.68898886107E+003
+4.32230287860E+007, +2.78033474531E+003, +4.85063668240E+003
+4.34419274093E+007, +3.03815726111E+003, +5.10474142119E+003
+4.36608260325E+007, +3.15280600737E+003, +5.10944150595E+003
+4.38797246558E+007, +3.51239817132E+003, +5.34644551605E+003
+4.40986232791E+007, +3.88771154084E+003, +5.58531639168E+003
+4.43175219024E+007, +4.11076415339E+003, +5.68620871055E+003
+4.45364205257E+007, +4.95114701165E+003, +5.77832857639E+003
+4.47553191489E+007, +5.11460405416E+003, +5.86305372740E+003
+4.49742177722E+007, +5.56690119378E+003, +6.15285059502E+003
+4.51931163955E+007, +6.05580311898E+003, +5.72711810688E+003
+4.54120150188E+007, +6.48596002241E+003, +5.99425885915E+003
+4.56309136421E+007, +7.72657858229E+003, +5.48391001787E+003
+4.58498122653E+007, +7.81306491844E+003, +5.35794133016E+003
+4.60687108886E+007, +9.77092481031E+003, +5.81932310673E+003
+4.62876095119E+007, +9.70636352619E+003, +4.39633985992E+003
+4.65065081352E+007, +1.07316304063E+004, +3.59148041456E+003
+4.67254067584E+007, +1.09949657057E+004, +3.03487116955E+003
+4.69443053817E+007, +1.19256468429E+004, +2.39882216915E+003
+4.71632040050E+007, +1.20500988901E+004, +2.20278944741E+002
+4.73821026283E+007, +1.21395807437E+004, -5.79459269312E+002
+4.76010012516E+007, +1.22165022403E+004, -1.58372481759E+003
+4.78198998748E+007, +1.15107550845E+004, -2.94474712585E+003
+4.80387984981E+007, +1.04776974226E+004, -3.63416671160E+003
+4.82576971214E+007, +9.97451864051E+003, -4.59275602975E+003
+4.84765957447E+007, +9.27947796272E+003, -4.63554080827E+003
+4.86954943680E+007, +8.79768175597E+003, -5.76260344287E+003
+4.89143929912E+007, +7.97081042089E+003, -5.70121129788E+003
+4.91332916145E+007, +6.79454470828E+003, -5.70500116281E+003
+4.93521902378E+007, +6.19258130953E+003, -6.02135021301E+003
+4.95710888611E+007, +5.59001590523E+003, -5.89152839989E+003
+4.97899874844E+007, +5.45799801202E+003, -5.92524569626E+003
+5.00088861076E+007, +4.76846237934E+003, -5.97097731028E+003
+5.02277847309E+007, +4.20335679982E+003, -5.63272019494E+003
+5.04466833542E+007, +4.00473095569E+003, -5.46304372736E+003
+5.06655819775E+007, +3.41218407958E+003, -5.39003939515E+003
+5.08844806008E+007, +3.33446995808E+003, -5.26938063026E+003
+5.11033792240E+007, +2.84144345404E+003, -5.17607624478E+003
+5.13222778473E+007, +2.52195546830E+003, -5.07417757078E+003
+5.15411764706E+007, +2.45236059917E+003, -4.71763488341E+003
+5.17600750939E+007, +2.24068002722E+003, -4.66150436694E+003
+5.19789737171E+007, +2.04637701526E+003, -4.42848098931E+003
+5.21978723404E+007, +1.91690277379E+003, -4.33618937051E+003
+5.24167709637E+007, +1.76242212411E+003, -4.32390916817E+003
+5.26356695870E+007, +1.76562484945E+003, -4.03802433861E+003
+5.28545682103E+007, +1.59517555957E+003, -3.92183674488E+003
+5.30734668335E+007, +1.44012847533E+003, -3.77709780105E+003
+5.32923654568E+007, +1.32200357108E+003, -3.71213189386E+003
+5.35112640801E+007, +1.32821278898E+003, -3.60401041220E+003
+5.37301627034E+007, +1.18364527273E+003, -3.48645911867E+003
+5.39490613267E+007, +1.14686160452E+003, -3.38372885211E+003
+5.41679599499E+007, +1.08635465817E+003, -3.32741552992E+003
+5.43868585732E+007, +1.03230687822E+003, -3.22469198879E+003
+5.46057571965E+007, +9.59659263843E+002, -3.10907352770E+003
+5.48246558198E+007, +9.05582446662E+002, -3.07462415635E+003
+5.50435544431E+007, +8.90901853698E+002, -2.94740311590E+003
+5.52624530663E+007, +8.30138087770E+002, -2.84844156331E+003
+5.54813516896E+007, +8.31440801195E+002, -2.83706893078E+003
+5.57002503129E+007, +7.90342162326E+002, -2.73396469013E+003
+5.59191489362E+007, +7.51938823781E+002, -2.66987040717E+003
+5.61380475594E+007, +7.15659792508E+002, -2.62011457951E+003
+5.63569461827E+007, +6.79477237668E+002, -2.52168943562E+003
+5.65758448060E+007, +6.93481061494E+002, -2.50196334837E+003
+5.67947434293E+007, +6.40493875336E+002, -2.43142263273E+003
+5.70136420526E+007, +6.32199975316E+002, -2.37855895142E+003
+5.72325406758E+007, +6.02059066901E+002, -2.33556243732E+003
+5.74514392991E+007, +5.58113457074E+002, -2.28217486281E+003
+5.76703379224E+007, +5.72716753418E+002, -2.25154576590E+003
+5.78892365457E+007, +5.34214546090E+002, -2.19531495360E+003
+5.81081351690E+007, +5.50299990363E+002, -2.11988551139E+003
+5.83270337922E+007, +5.17042232517E+002, -2.11240096367E+003
+5.85459324155E+007, +5.00718247673E+002, -2.06126037276E+003
+5.87648310388E+007, +4.95418771959E+002, -2.01300518701E+003
+5.89837296621E+007, +4.81109215582E+002, -1.97242946695E+003
+5.92026282854E+007, +4.78335630975E+002, -1.92965294658E+003
+5.94215269086E+007, +4.49836642891E+002, -1.91669664789E+003
+5.96404255319E+007, +4.24765474217E+002, -1.87573791421E+003
+5.98593241552E+007, +4.39721786468E+002, -1.82831660699E+003
+6.00782227785E+007, +4.18221910030E+002, -1.80393452786E+003
+6.02971214018E+007, +4.04829387132E+002, -1.76447776886E+003
+6.05160200250E+007, +4.08175475640E+002, -1.73807997930E+003
+6.07349186483E+007, +4.00190056999E+002, -1.70416256101E+003
+6.09538172716E+007, +3.79634463715E+002, -1.67344351438E+003
+6.11727158949E+007, +3.78661238863E+002, -1.63796601201E+003
+6.13916145181E+007, +3.61667466693E+002, -1.62165904896E+003
+6.16105131414E+007, +3.64146002182E+002, -1.60579251657E+003
+6.18294117647E+007, +3.54093287703E+002, -1.57887736223E+003
+6.20483103880E+007, +3.42836264660E+002, -1.55532001264E+003
+6.22672090113E+007, +3.38563126225E+002, -1.51153206818E+003
+6.24861076345E+007, +3.40691504558E+002, -1.49600971091E+003
+6.27050062578E+007, +3.31944887623E+002, -1.46895141285E+003
+6.29239048811E+007, +3.03563290477E+002, -1.45293556062E+003
+6.31428035044E+007, +3.09176885615E+002, -1.42735124799E+003
+6.33617021277E+007, +3.10405010259E+002, -1.40259082717E+003
+6.35806007509E+007, +2.98871262223E+002, -1.37724923093E+003
+6.37994993742E+007, +2.91600616487E+002, -1.35341340297E+003
+6.40183979975E+007, +2.96617128940E+002, -1.33430361732E+003
+6.42372966208E+007, +2.83334837308E+002, -1.31061661987E+003
+6.44561952441E+007, +2.81391477012E+002, -1.28819591665E+003
+6.46750938673E+007, +2.78216914361E+002, -1.26780607828E+003
+6.48939924906E+007, +2.77094675170E+002, -1.24299378321E+003
+6.51128911139E+007, +2.69640141216E+002, -1.22376964812E+003
+6.53317897372E+007, +2.77490362434E+002, -1.20084201439E+003
+6.55506883605E+007, +2.71058056050E+002, -1.18994586180E+003
+6.57695869837E+007, +2.62181399483E+002, -1.17280857333E+003
+6.59884856070E+007, +2.64706719039E+002, -1.15040963933E+003
+6.62073842303E+007, +2.57797559730E+002, -1.13142286913E+003
+6.64262828536E+007, +2.59396269909E+002, -1.12368228976E+003
+6.66451814768E+007, +2.55361606244E+002, -1.10253567829E+003
+6.68640801001E+007, +2.55058760953E+002, -1.08335195275E+003
+6.70829787234E+007, +2.54072334655E+002, -1.07095499992E+003
+6.73018773467E+007, +2.55481930265E+002, -1.05727237586E+003
+6.75207759700E+007, +2.55684692780E+002, -1.03870246831E+003
+6.77396745932E+007, +2.50921246046E+002, -1.03011758927E+003
+6.79585732165E+007, +2.55155271539E+002, -1.01394926891E+003
+6.81774718398E+007, +2.47350024975E+002, -9.98950330330E+002
+6.83963704631E+007, +2.46311973202E+002, -9.85644954086E+002
+6.86152690864E+007, +2.47818387208E+002, -9.69980045687E+002
+6.88341677096E+007, +2.45783257668E+002, -9.61348797125E+002
+6.90530663329E+007, +2.45553664089E+002, -9.43418965435E+002
+6.92719649562E+007, +2.42500709279E+002, -9.32432468737E+002
+6.94908635795E+007, +2.44031302006E+002, -9.15606363845E+002
+6.97097622028E+007, +2.38189714126E+002, -9.03959610505E+002
+6.99286608260E+007, +2.38666135762E+002, -8.88875322421E+002
+7.01475594493E+007, +2.35484093713E+002, -8.76905311200E+002
