"# Channel 1"
"# Trace 1"
Frequency, Formatted Data, Formatted Data
+1.00000000000E+005, +3.65599999458E+001, +2.84031033789E+000
+2.66777963272E+005, +3.64981440769E+001, +7.91298279372E+000
+4.33555926544E+005, +3.65010817945E+001, +1.28925784125E+001
+6.00333889816E+005, +3.65280949090E+001, +1.77899340244E+001
+7.67111853088E+005, +3.65514022671E+001, +2.27268664205E+001
+9.33889816361E+005, +3.65948981756E+001, +2.76782034191E+001
+1.10066777963E+006, +3.65758110762E+001, +3.27165169413E+001
+1.26744574290E+006, +3.66060855330E+001, +3.76003404720E+001
+1.43422370618E+006, +3.65615469107E+001, +4.26588279931E+001
+1.60100166945E+006, +3.66093645645E+001, +4.75077108169E+001
+1.76777963272E+006, +3.65969712202E+001, +5.25226301500E+001
+1.93455759599E+006, +3.65572493452E+001, +5.74924981361E+001
+2.10133555927E+006, +3.65960203583E+001, +6.24005037633E+001
+2.26811352254E+006, +3.66086205555E+001, +6.73156838038E+001
+2.43489148581E+006, +3.66396137509E+001, +7.24527367594E+001
+2.60166944908E+006, +3.65914973495E+001, +7.72835038821E+001
+2.76844741235E+006, +3.66008680233E+001, +8.23808816410E+001
+2.93522537563E+006, +3.66329409723E+001, +8.73793133148E+001
+3.10200333890E+006, +3.66768274363E+001, +9.22510510904E+001
+3.26878130217E+006, +3.65511173568E+001, +9.73805315966E+001
+3.43555926544E+006, +3.66898837819E+001, +1.02327517200E+002
+3.60233722871E+006, +3.68888603635E+001, +1.07472753453E+002
+3.76911519199E+006, +3.69317537254E+001, +1.12678867732E+002
+3.93589315526E+006, +3.68317962924E+001, +1.17532601274E+002
+4.10267111853E+006, +3.67233393947E+001, +1.22722120847E+002
+4.26944908180E+006, +3.69481635687E+001, +1.28066577187E+002
+4.43622704508E+006, +3.68795487309E+001, +1.32654921483E+002
+4.60300500835E+006, +3.70276662845E+001, +1.37948779880E+002
+4.76978297162E+006, +3.67737061299E+001, +1.42890542117E+002
+4.93656093489E+006, +3.72410808544E+001, +1.48124090496E+002
+5.10333889816E+006, +3.70662281461E+001, +1.53183210606E+002
+5.27011686144E+006, +3.76942120406E+001, +1.58646008879E+002
+5.43689482471E+006, +3.72679132263E+001, +1.63709324705E+002
+5.60367278798E+006, +3.78858528230E+001, +1.68888426757E+002
+5.77045075125E+006, +3.75342664229E+001, +1.74053153867E+002
+5.93722871452E+006, +3.78949530583E+001, +1.78904266114E+002
+6.10400667780E+006, +3.78573093424E+001, +1.84446338979E+002
+6.27078464107E+006, +3.81645609145E+001, +1.89381827417E+002
+6.43756260434E+006, +3.83627693742E+001, +1.94503987162E+002
+6.60434056761E+006, +3.84643052303E+001, +1.99739568157E+002
+6.77111853088E+006, +3.88784523972E+001, +2.04929800423E+002
+6.93789649416E+006, +3.86800108753E+001, +2.10496734382E+002
+7.10467445743E+006, +3.89112121720E+001, +2.15476464287E+002
+7.27145242070E+006, +3.89829072110E+001, +2.20834011236E+002
+7.43823038397E+006, +3.91080118356E+001, +2.25912201751E+002
+7.60500834725E+006, +3.91228871806E+001, +2.31503717194E+002
+7.77178631052E+006, +3.93437468170E+001, +2.36833590238E+002
+7.93856427379E+006, +3.91529359275E+001, +2.42044196318E+002
+8.10534223706E+006, +3.95150036677E+001, +2.47583542399E+002
+8.27212020033E+006, +3.94535693357E+001, +2.52536801239E+002
+8.43889816361E+006, +3.92239492317E+001, +2.58504715506E+002
+8.60567612688E+006, +3.94846862564E+001, +2.64261385027E+002
+8.77245409015E+006, +3.95317514142E+001, +2.69331485015E+002
+8.93923205342E+006, +3.97829797393E+001, +2.75000792047E+002
+9.10601001669E+006, +3.96170845205E+001, +2.80748667168E+002
+9.27278797997E+006, +3.98974510558E+001, +2.86262682966E+002
+9.43956594324E+006, +3.97479476941E+001, +2.92089944381E+002
+9.60634390651E+006, +3.96380120444E+001, +2.97667365347E+002
+9.77312186978E+006, +4.00184697553E+001, +3.03632632603E+002
+9.93989983306E+006, +4.02143584965E+001, +3.08935168789E+002
+1.01066777963E+007, +3.94642862924E+001, +3.14737886443E+002
+1.02734557596E+007, +4.00078077573E+001, +3.21024784928E+002
+1.04402337229E+007, +4.01121466313E+001, +3.26292876547E+002
+1.06070116861E+007, +4.01610808985E+001, +3.32401101947E+002
+1.07737896494E+007, +4.05201950037E+001, +3.38347541054E+002
+1.09405676127E+007, +4.11666097054E+001, +3.44016117146E+002
+1.11073455760E+007, +4.11617131769E+001, +3.50106534296E+002
+1.12741235392E+007, +4.11763236958E+001, +3.56369955027E+002
+1.14409015025E+007, +4.18335615086E+001, +3.62100004640E+002
+1.16076794658E+007, +4.21732282364E+001, +3.68053286860E+002
+1.17744574290E+007, +4.13636381938E+001, +3.74248102919E+002
+1.19412353923E+007, +4.13471690314E+001, +3.80441766374E+002
+1.21080133556E+007, +4.16665085154E+001, +3.87542667602E+002
+1.22747913189E+007, +4.21710390622E+001, +3.93474693557E+002
+1.24415692821E+007, +4.14763837901E+001, +3.99703541937E+002
+1.26083472454E+007, +4.19310730677E+001, +4.05417605779E+002
+1.27751252087E+007, +4.22394168235E+001, +4.11577321143E+002
+1.29419031720E+007, +4.18981370762E+001, +4.18862011120E+002
+1.31086811352E+007, +4.24241649791E+001, +4.24597422240E+002
+1.32754590985E+007, +4.32749849332E+001, +4.31782726716E+002
+1.34422370618E+007, +4.32261994863E+001, +4.37259922780E+002
+1.36090150250E+007, +4.41619976467E+001, +4.44129644550E+002
+1.37757929883E+007, +4.43826915698E+001, +4.51788296839E+002
+1.39425709516E+007, +4.40182914731E+001, +4.58225738516E+002
+1.41093489149E+007, +4.46154460637E+001, +4.63968814895E+002
+1.42761268781E+007, +4.53381425370E+001, +4.71916282297E+002
+1.44429048414E+007, +4.52898258636E+001, +4.77505739424E+002
+1.46096828047E+007, +4.58818514973E+001, +4.85154423185E+002
+1.47764607679E+007, +4.67706331464E+001, +4.90749225411E+002
+1.49432387312E+007, +4.57530496968E+001, +4.98756951518E+002
+1.51100166945E+007, +4.66569422221E+001, +5.06445803145E+002
+1.52767946578E+007, +4.68321041582E+001, +5.12415620997E+002
+1.54435726210E+007, +4.72501289059E+001, +5.20372193105E+002
+1.56103505843E+007, +4.75148900277E+001, +5.26745301790E+002
+1.57771285476E+007, +4.72466736047E+001, +5.33666838187E+002
+1.59439065109E+007, +4.69433650925E+001, +5.41132807874E+002
+1.61106844741E+007, +4.76191872382E+001, +5.47872990914E+002
+1.62774624374E+007, +4.87336492228E+001, +5.55493501660E+002
+1.64442404007E+007, +4.78058239736E+001, +5.64535417977E+002
+1.66110183639E+007, +4.80872964188E+001, +5.71079952514E+002
+1.67777963272E+007, +4.93846071531E+001, +5.78743557150E+002
+1.69445742905E+007, +5.03482531371E+001, +5.86425711391E+002
+1.71113522538E+007, +4.79291130386E+001, +5.94160159385E+002
+1.72781302170E+007, +4.96203578875E+001, +6.04196903447E+002
+1.74449081803E+007, +4.72256278016E+001, +6.10413560322E+002
+1.76116861436E+007, +5.04354309815E+001, +6.19890477225E+002
+1.77784641068E+007, +4.98016548512E+001, +6.25117568125E+002
+1.79452420701E+007, +5.08978210301E+001, +6.33881060353E+002
+1.81120200334E+007, +5.17890383319E+001, +6.39520737247E+002
+1.82787979967E+007, +5.33274237866E+001, +6.52283492246E+002
+1.84455759599E+007, +5.28164841263E+001, +6.57880056949E+002
+1.86123539232E+007, +5.32199411356E+001, +6.67985512015E+002
+1.87791318865E+007, +5.41416376860E+001, +6.76863517553E+002
+1.89459098497E+007, +5.30876264902E+001, +6.87582179443E+002
+1.91126878130E+007, +5.35971268883E+001, +6.92228453821E+002
+1.92794657763E+007, +5.54153031246E+001, +7.01925672612E+002
+1.94462437396E+007, +5.86503943779E+001, +7.12277398970E+002
+1.96130217028E+007, +5.69468197840E+001, +7.23425797487E+002
+1.97797996661E+007, +6.00314864958E+001, +7.28078411043E+002
+1.99465776294E+007, +5.56453061160E+001, +7.40564279529E+002
+2.01133555927E+007, +5.94727397118E+001, +7.49620517392E+002
+2.02801335559E+007, +6.00709673569E+001, +7.58231627477E+002
+2.04469115192E+007, +6.15334385466E+001, +7.69791699317E+002
+2.06136894825E+007, +6.25713791873E+001, +7.80167652482E+002
+2.07804674457E+007, +6.34643278433E+001, +7.90869131919E+002
+2.09472454090E+007, +6.29982223315E+001, +8.05014432546E+002
+2.11140233723E+007, +6.42860135255E+001, +8.09896703913E+002
+2.12808013356E+007, +6.78435895049E+001, +8.21554839953E+002
+2.14475792988E+007, +6.88913192919E+001, +8.32821392995E+002
+2.16143572621E+007, +6.94328910228E+001, +8.39843266620E+002
+2.17811352254E+007, +6.79423914939E+001, +8.49050754777E+002
+2.19479131886E+007, +7.42537251954E+001, +8.60233295331E+002
+2.21146911519E+007, +7.41884483554E+001, +8.69806419388E+002
+2.22814691152E+007, +7.47148333766E+001, +8.81335289822E+002
+2.24482470785E+007, +7.80708861772E+001, +8.98352660360E+002
+2.26150250417E+007, +8.24932715140E+001, +9.03276175131E+002
+2.27818030050E+007, +7.85064315438E+001, +9.17953273499E+002
+2.29485809683E+007, +8.65544985097E+001, +9.26401368589E+002
+2.31153589316E+007, +8.34029903214E+001, +9.41715662408E+002
+2.32821368948E+007, +8.92882751938E+001, +9.53984791766E+002
+2.34489148581E+007, +9.18722329164E+001, +9.64142731671E+002
+2.36156928214E+007, +9.01998875594E+001, +9.73353363863E+002
+2.37824707846E+007, +9.16810564982E+001, +9.91485142039E+002
+2.39492487479E+007, +9.40895162373E+001, +1.00035467074E+003
+2.41160267112E+007, +9.86594331590E+001, +1.01083387647E+003
+2.42828046745E+007, +9.42089389815E+001, +1.02735090058E+003
+2.44495826377E+007, +1.05910333670E+002, +1.03908305207E+003
+2.46163606010E+007, +1.00956639214E+002, +1.04995043122E+003
+2.47831385643E+007, +1.02638156127E+002, +1.06824693647E+003
+2.49499165275E+007, +1.11362685094E+002, +1.07408078858E+003
+2.51166944908E+007, +1.10530915328E+002, +1.09016521770E+003
+2.52834724541E+007, +1.11604754741E+002, +1.10673333241E+003
+2.54502504174E+007, +1.14685015856E+002, +1.11572559914E+003
+2.56170283806E+007, +1.11965812377E+002, +1.13446987205E+003
+2.57838063439E+007, +1.21394847639E+002, +1.14780426913E+003
+2.59505843072E+007, +1.23100650880E+002, +1.16493778406E+003
+2.61173622705E+007, +1.27444695077E+002, +1.17645900664E+003
+2.62841402337E+007, +1.24396577115E+002, +1.19648445992E+003
+2.64509181970E+007, +1.21671349268E+002, +1.21418083930E+003
+2.66176961603E+007, +1.32161074680E+002, +1.23614615868E+003
+2.67844741235E+007, +1.33036805195E+002, +1.25180435436E+003
+2.69512520868E+007, +1.30807758708E+002, +1.26764287206E+003
+2.71180300501E+007, +1.44071364462E+002, +1.26962282327E+003
+2.72848080134E+007, +1.40829951273E+002, +1.29764929608E+003
+2.74515859766E+007, +1.47781949638E+002, +1.31003078936E+003
+2.76183639399E+007, +1.45358603517E+002, +1.32369229077E+003
+2.77851419032E+007, +1.55304427102E+002, +1.34547568330E+003
+2.79519198664E+007, +1.59018559119E+002, +1.36665980840E+003
+2.81186978297E+007, +1.62481542739E+002, +1.37959231480E+003
+2.82854757930E+007, +1.75453807434E+002, +1.40583086669E+003
+2.84522537563E+007, +1.57160644753E+002, +1.42433713741E+003
+2.86190317195E+007, +1.67617245595E+002, +1.44285158091E+003
+2.87858096828E+007, +1.88433187022E+002, +1.47447608156E+003
+2.89525876461E+007, +1.86863317310E+002, +1.48160854233E+003
+2.91193656093E+007, +1.81172387026E+002, +1.49316163876E+003
+2.92861435726E+007, +1.84530084318E+002, +1.52409842723E+003
+2.94529215359E+007, +2.04979292016E+002, +1.54828787380E+003
+2.96196994992E+007, +2.09368112165E+002, +1.57536020404E+003
+2.97864774624E+007, +2.14832526225E+002, +1.58573904124E+003
+2.99532554257E+007, +2.22879970917E+002, +1.61587868740E+003
+3.01200333890E+007, +2.16616292610E+002, +1.65224496484E+003
+3.02868113523E+007, +2.33247143394E+002, +1.66249461011E+003
+3.04535893155E+007, +2.35674442350E+002, +1.69683388851E+003
+3.06203672788E+007, +2.34203681935E+002, +1.71155089482E+003
+3.07871452421E+007, +2.35722655774E+002, +1.74011713603E+003
+3.09539232053E+007, +2.60051399408E+002, +1.76079637412E+003
+3.11207011686E+007, +2.45482336552E+002, +1.81164508602E+003
+3.12874791319E+007, +2.57819642744E+002, +1.81484656393E+003
+3.14542570952E+007, +2.62586334075E+002, +1.85122676508E+003
+3.16210350584E+007, +2.63615654161E+002, +1.89132725096E+003
+3.17878130217E+007, +2.83540606494E+002, +1.92982768163E+003
+3.19545909850E+007, +2.97985102298E+002, +1.94801570362E+003
+3.21213689482E+007, +2.70421236800E+002, +1.99699319415E+003
+3.22881469115E+007, +2.95758032936E+002, +2.00129775214E+003
+3.24549248748E+007, +3.19322033831E+002, +2.06319753118E+003
+3.26217028381E+007, +3.01989381890E+002, +2.08586815979E+003
+3.27884808013E+007, +3.44425551559E+002, +2.14256520869E+003
+3.29552587646E+007, +3.38608788394E+002, +2.15314075180E+003
+3.31220367279E+007, +3.54943824127E+002, +2.19500384680E+003
+3.32888146912E+007, +3.63591215867E+002, +2.26130569047E+003
+3.34555926544E+007, +3.49639914297E+002, +2.33235547998E+003
+3.36223706177E+007, +3.81329690199E+002, +2.34440801424E+003
+3.37891485810E+007, +3.79756928866E+002, +2.39336339349E+003
+3.39559265442E+007, +4.01524542896E+002, +2.47345753019E+003
+3.41227045075E+007, +4.02515290386E+002, +2.48168894488E+003
+3.42894824708E+007, +4.57723401415E+002, +2.55924733773E+003
+3.44562604341E+007, +4.33198151085E+002, +2.57613832367E+003
+3.46230383973E+007, +4.78746369607E+002, +2.69187805085E+003
+3.47898163606E+007, +4.88408143040E+002, +2.68582439398E+003
+3.49565943239E+007, +5.53674767190E+002, +2.75853090560E+003
+3.51233722871E+007, +5.37331705755E+002, +2.86717413431E+003
+3.52901502504E+007, +5.44113109804E+002, +2.89874561727E+003
+3.54569282137E+007, +5.85794789981E+002, +2.99300325635E+003
+3.56237061770E+007, +5.65031759941E+002, +3.03396196503E+003
+3.57904841402E+007, +5.90341516211E+002, +3.13872539734E+003
+3.59572621035E+007, +6.61663980835E+002, +3.20467934476E+003
+3.61240400668E+007, +6.94426653762E+002, +3.32497685502E+003
+3.62908180301E+007, +7.55867777541E+002, +3.38520757371E+003
+3.64575959933E+007, +7.78900072068E+002, +3.49120891291E+003
+3.66243739566E+007, +8.35661531671E+002, +3.56403065053E+003
+3.67911519199E+007, +8.88616220800E+002, +3.73811856728E+003
+3.69579298831E+007, +8.58025728690E+002, +3.86696589679E+003
+3.71247078464E+007, +9.75397271472E+002, +3.93288721204E+003
+3.72914858097E+007, +1.09853701328E+003, +4.17126259336E+003
+3.74582637730E+007, +1.24280518319E+003, +4.26205819161E+003
+3.76250417362E+007, +1.21012401193E+003, +4.30635114575E+003
+3.77918196995E+007, +1.26388382566E+003, +4.55419894062E+003
+3.79585976628E+007, +1.31858439938E+003, +4.74915844590E+003
+3.81253756260E+007, +1.56462111810E+003, +4.84293710438E+003
+3.82921535893E+007, +1.67564057606E+003, +5.05553781308E+003
+3.84589315526E+007, +1.77430862102E+003, +5.30593645696E+003
+3.86257095159E+007, +1.98335202739E+003, +5.44820637663E+003
+3.87924874791E+007, +2.08713673713E+003, +5.62761061977E+003
+3.89592654424E+007, +2.35689453772E+003, +5.99493283458E+003
+3.91260434057E+007, +2.70997957934E+003, +6.36620522167E+003
+3.92928213689E+007, +2.93632821350E+003, +6.44468946545E+003
+3.94595993322E+007, +3.39267094540E+003, +6.85318070511E+003
+3.96263772955E+007, +3.67086874580E+003, +6.95515758155E+003
+3.97931552588E+007, +3.93855871002E+003, +7.42297407205E+003
+3.99599332220E+007, +4.72095602059E+003, +7.68893494307E+003
+4.01267111853E+007, +5.61800707639E+003, +7.78315951714E+003
+4.02934891486E+007, +5.43804386513E+003, +7.82157008750E+003
+4.04602671119E+007, +6.26418703818E+003, +7.86247269593E+003
+4.06270450751E+007, +7.87848847675E+003, +8.18736663925E+003
+4.07938230384E+007, +8.50474186012E+003, +7.94832303556E+003
+4.09606010017E+007, +1.02530963340E+004, +8.40779834033E+003
+4.11273789649E+007, +1.12531867399E+004, +8.11319802219E+003
+4.12941569282E+007, +1.31417438606E+004, +7.58859102335E+003
+4.14609348915E+007, +1.55108121399E+004, +4.99677508769E+003
+4.16277128548E+007, +1.57968945189E+004, +3.96775151696E+003
+4.17944908180E+007, +1.60818354364E+004, +2.66878376901E+003
+4.19612687813E+007, +1.75884822738E+004, -3.50403762109E+002
+4.21280467446E+007, +1.65826925148E+004, -2.67261669074E+003
+4.22948247078E+007, +1.54954735221E+004, -4.34501091525E+003
+4.24616026711E+007, +1.43660976464E+004, -5.54238884620E+003
+4.26283806344E+007, +1.22293093029E+004, -7.03302205923E+003
+4.27951585977E+007, +1.03844583473E+004, -9.27327965844E+003
+4.29619365609E+007, +9.80340593970E+003, -7.34737137372E+003
+4.31287145242E+007, +7.96512993420E+003, -8.25191245061E+003
+4.32954924875E+007, +7.24826310142E+003, -7.84270267371E+003
+4.34622704508E+007, +5.68484688054E+003, -8.13425013298E+003
+4.36290484140E+007, +5.37851585747E+003, -7.45079833216E+003
+4.37958263773E+007, +4.55144272852E+003, -7.42552163371E+003
+4.39626043406E+007, +4.00433251018E+003, -7.04566541524E+003
+4.41293823038E+007, +3.53033495129E+003, -6.44110323487E+003
+4.42961602671E+007, +3.32736752247E+003, -6.39459169782E+003
+4.44629382304E+007, +3.05429621397E+003, -6.24304638997E+003
+4.46297161937E+007, +2.68611914622E+003, -5.91654195675E+003
+4.47964941569E+007, +2.34381254802E+003, -5.69018402034E+003
+4.49632721202E+007, +2.04960268648E+003, -5.37905862012E+003
+4.51300500835E+007, +2.10461827422E+003, -5.18808326086E+003
+4.52968280467E+007, +1.85494434577E+003, -4.91481819994E+003
+4.54636060100E+007, +1.64566837311E+003, -4.58041864835E+003
+4.56303839733E+007, +1.48812172815E+003, -4.52805140621E+003
+4.57971619366E+007, +1.42785299535E+003, -4.29626993127E+003
+4.59639398998E+007, +1.21783594669E+003, -4.05560587867E+003
+4.61307178631E+007, +1.28833124194E+003, -3.97236170806E+003
+4.62974958264E+007, +1.15575470892E+003, -3.85305964679E+003
+4.64642737896E+007, +1.08536302699E+003, -3.71340671223E+003
+4.66310517529E+007, +9.76175324169E+002, -3.63865404991E+003
+4.67978297162E+007, +1.05782835150E+003, -3.49055412222E+003
+4.69646076795E+007, +9.22247098414E+002, -3.31452243941E+003
+4.71313856427E+007, +8.96192148640E+002, -3.21817888092E+003
+4.72981636060E+007, +8.17503667590E+002, -3.14718292057E+003
+4.74649415693E+007, +8.08910937136E+002, -3.05326710749E+003
+4.76317195326E+007, +8.58321608080E+002, -2.98023255001E+003
+4.77984974958E+007, +8.15831663865E+002, -2.86606806840E+003
+4.79652754591E+007, +7.72529061963E+002, -2.77826287636E+003
+4.81320534224E+007, +7.58107288944E+002, -2.71870320832E+003
+4.82988313856E+007, +7.48633270517E+002, -2.64509752446E+003
+4.84656093489E+007, +6.79892108523E+002, -2.58392740789E+003
+4.86323873122E+007, +7.24545349069E+002, -2.51002233094E+003
+4.87991652755E+007, +6.80979592098E+002, -2.46764510285E+003
+4.89659432387E+007, +6.88583014589E+002, -2.40659076243E+003
+4.91327212020E+007, +6.40456248188E+002, -2.34498275468E+003
+4.92994991653E+007, +6.60016586072E+002, -2.30194795043E+003
+4.94662771285E+007, +6.40129611472E+002, -2.22427663525E+003
+4.96330550918E+007, +6.40659288637E+002, -2.19768965318E+003
+4.97998330551E+007, +6.31789480770E+002, -2.16460168477E+003
+4.99666110184E+007, +6.38693062228E+002, -2.10949645460E+003
+5.01333889816E+007, +5.95678948466E+002, -2.07621440337E+003
+5.03001669449E+007, +5.97588456132E+002, -2.05837179025E+003
+5.04669449082E+007, +5.86068618325E+002, -2.00090634372E+003
+5.06337228715E+007, +5.94970515438E+002, -1.96696976311E+003
+5.08005008347E+007, +5.76145002398E+002, -1.95176075312E+003
+5.09672787980E+007, +5.79966561476E+002, -1.92980380142E+003
+5.11340567613E+007, +5.42868754576E+002, -1.89326922120E+003
+5.13008347245E+007, +5.33514587325E+002, -1.89593964619E+003
+5.14676126878E+007, +5.23285029138E+002, -1.85863069904E+003
+5.16343906511E+007, +5.19311187608E+002, -1.82980224300E+003
+5.18011686144E+007, +4.84086932523E+002, -1.81569283878E+003
+5.19679465776E+007, +4.67628608329E+002, -1.80260253932E+003
+5.21347245409E+007, +4.37865497721E+002, -1.74772573407E+003
+5.23015025042E+007, +4.25977057871E+002, -1.72765851899E+003
+5.24682804674E+007, +4.02980864273E+002, -1.70216332980E+003
+5.26350584307E+007, +3.95824705743E+002, -1.67595281902E+003
+5.28018363940E+007, +3.63769447743E+002, -1.65443978794E+003
+5.29686143573E+007, +3.49347786519E+002, -1.61419734026E+003
+5.31353923205E+007, +3.39463478957E+002, -1.60093265551E+003
+5.33021702838E+007, +3.29053891010E+002, -1.57059330507E+003
+5.34689482471E+007, +3.06131064985E+002, -1.53992761751E+003
