"# Channel 1"
"# Trace 1"
Frequency, Formatted Data, Formatted Data
+1.00000000000E+006, +1.14667263882E+001, +2.81318505041E+001
+1.16527545910E+006, +1.15121457538E+001, +3.27809039805E+001
+1.33055091820E+006, +1.15400143646E+001, +3.73216349639E+001
+1.49582637730E+006, +1.14772264659E+001, +4.19839532118E+001
+1.66110183639E+006, +1.15037548124E+001, +4.66110460707E+001
+1.82637729549E+006, +1.15131064386E+001, +5.11817682295E+001
+1.99165275459E+006, +1.15098775670E+001, +5.58460135440E+001
+2.15692821369E+006, +1.15319530627E+001, +6.05040359831E+001
+2.32220367279E+006, +1.14269945226E+001, +6.51686427854E+001
+2.48747913189E+006, +1.14445848946E+001, +6.97621561945E+001
+2.65275459098E+006, +1.13315025152E+001, +7.44396985874E+001
+2.81803005008E+006, +1.14317041717E+001, +7.91846601459E+001
+2.98330550918E+006, +1.12392158223E+001, +8.36529313039E+001
+3.14858096828E+006, +1.14142951964E+001, +8.82571027246E+001
+3.31385642738E+006, +1.15676560002E+001, +9.30013827839E+001
+3.47913188648E+006, +1.13459863215E+001, +9.77027646042E+001
+3.64440734558E+006, +1.14337993219E+001, +1.02382851553E+002
+3.80968280467E+006, +1.16783784120E+001, +1.06878771663E+002
+3.97495826377E+006, +1.17128960322E+001, +1.11516975533E+002
+4.14023372287E+006, +1.18189488236E+001, +1.16664348108E+002
+4.30550918197E+006, +1.16511898939E+001, +1.20585727456E+002
+4.47078464107E+006, +1.15481951099E+001, +1.25578077348E+002
+4.63606010017E+006, +1.12829308395E+001, +1.30244064226E+002
+4.80133555927E+006, +1.15924913863E+001, +1.35096790371E+002
+4.96661101836E+006, +1.16379126572E+001, +1.39685508067E+002
+5.13188647746E+006, +1.17308431661E+001, +1.44407938182E+002
+5.29716193656E+006, +1.17170914783E+001, +1.48990640687E+002
+5.46243739566E+006, +1.17362985948E+001, +1.53786540741E+002
+5.62771285476E+006, +1.19900875487E+001, +1.58502889547E+002
+5.79298831386E+006, +1.21018765571E+001, +1.63536903996E+002
+5.95826377295E+006, +1.21253600162E+001, +1.68076728725E+002
+6.12353923205E+006, +1.28462450957E+001, +1.72451107063E+002
+6.28881469115E+006, +1.22965978666E+001, +1.77315453119E+002
+6.45409015025E+006, +1.25931720227E+001, +1.82046662784E+002
+6.61936560935E+006, +1.24765049608E+001, +1.86820759356E+002
+6.78464106845E+006, +1.27287070427E+001, +1.91544333101E+002
+6.94991652755E+006, +1.29647517510E+001, +1.96311196577E+002
+7.11519198664E+006, +1.29078890918E+001, +2.00967104482E+002
+7.28046744574E+006, +1.29912792998E+001, +2.05973671051E+002
+7.44574290484E+006, +1.33883514522E+001, +2.10424745736E+002
+7.61101836394E+006, +1.31872507009E+001, +2.15203194421E+002
+7.77629382304E+006, +1.34653068372E+001, +2.20052597592E+002
+7.94156928214E+006, +1.30796881617E+001, +2.24851621055E+002
+8.10684474124E+006, +1.29935072056E+001, +2.29204104078E+002
+8.27212020033E+006, +1.33194098480E+001, +2.33939864719E+002
+8.43739565943E+006, +1.34096255079E+001, +2.39032048237E+002
+8.60267111853E+006, +1.30219325591E+001, +2.43606866905E+002
+8.76794657763E+006, +1.36428462843E+001, +2.48438529363E+002
+8.93322203673E+006, +1.33813774118E+001, +2.53679347759E+002
+9.09849749583E+006, +1.33207401169E+001, +2.58286901388E+002
+9.26377295492E+006, +1.32341493877E+001, +2.63447451664E+002
+9.42904841402E+006, +1.33811471659E+001, +2.68091556875E+002
+9.59432387312E+006, +1.34097889537E+001, +2.72822429409E+002
+9.75959933222E+006, +1.28411617197E+001, +2.77727928200E+002
+9.92487479132E+006, +1.33558112172E+001, +2.82180028070E+002
+1.00901502504E+007, +1.36101838023E+001, +2.87493684604E+002
+1.02554257095E+007, +1.30021849851E+001, +2.92161984185E+002
+1.04207011686E+007, +1.31362915214E+001, +2.97362472206E+002
+1.05859766277E+007, +1.30934475848E+001, +3.02469300136E+002
+1.07512520868E+007, +1.36538248931E+001, +3.07427728223E+002
+1.09165275459E+007, +1.34129004374E+001, +3.12391987189E+002
+1.10818030050E+007, +1.38930224785E+001, +3.17860614570E+002
+1.12470784641E+007, +1.34082493893E+001, +3.21735773119E+002
+1.14123539232E+007, +1.31376827681E+001, +3.26947438165E+002
+1.15776293823E+007, +1.40270163730E+001, +3.32479099591E+002
+1.17429048414E+007, +1.38491676167E+001, +3.36913923767E+002
+1.19081803005E+007, +1.33839514453E+001, +3.42571329887E+002
+1.20734557596E+007, +1.37949385930E+001, +3.47404827871E+002
+1.22387312187E+007, +1.33515444274E+001, +3.52685171828E+002
+1.24040066778E+007, +1.40563990509E+001, +3.57388718918E+002
+1.25692821369E+007, +1.35333925640E+001, +3.62481172410E+002
+1.27345575960E+007, +1.46131821953E+001, +3.67538722532E+002
+1.28998330551E+007, +1.39298796709E+001, +3.73321567874E+002
+1.30651085142E+007, +1.33214623464E+001, +3.78013724292E+002
+1.32303839733E+007, +1.50813622051E+001, +3.83252667635E+002
+1.33956594324E+007, +1.42860200065E+001, +3.88751668937E+002
+1.35609348915E+007, +1.45841429967E+001, +3.93228063346E+002
+1.37262103506E+007, +1.38374726999E+001, +3.98157623637E+002
+1.38914858097E+007, +1.42158043466E+001, +4.03818850145E+002
+1.40567612688E+007, +1.45674351559E+001, +4.09264269018E+002
+1.42220367279E+007, +1.38407465565E+001, +4.14510900477E+002
+1.43873121870E+007, +1.49699088801E+001, +4.20871659023E+002
+1.45525876461E+007, +1.48759167940E+001, +4.25133830949E+002
+1.47178631052E+007, +1.54981540522E+001, +4.30421051136E+002
+1.48831385643E+007, +1.47914240381E+001, +4.35544454676E+002
+1.50484140234E+007, +1.49382178440E+001, +4.41522646574E+002
+1.52136894825E+007, +1.39730728658E+001, +4.45735733419E+002
+1.53789649416E+007, +1.49798996261E+001, +4.51636012704E+002
+1.55442404007E+007, +1.49770312277E+001, +4.58064383121E+002
+1.57095158598E+007, +1.45505262226E+001, +4.62500789025E+002
+1.58747913189E+007, +1.57937729508E+001, +4.68051199933E+002
+1.60400667780E+007, +1.53474548695E+001, +4.72887398557E+002
+1.62053422371E+007, +1.54808351424E+001, +4.79094081290E+002
+1.63706176962E+007, +1.58478570740E+001, +4.84205592714E+002
+1.65358931553E+007, +1.63753538812E+001, +4.88065991301E+002
+1.67011686144E+007, +1.65344110121E+001, +4.94670517618E+002
+1.68664440735E+007, +1.59847256102E+001, +4.99382861263E+002
+1.70317195326E+007, +1.42897209749E+001, +5.07262673999E+002
+1.71969949917E+007, +1.40764424440E+001, +5.12327906452E+002
+1.73622704508E+007, +1.61717031360E+001, +5.18284796328E+002
+1.75275459098E+007, +1.48375277778E+001, +5.22571846635E+002
+1.76928213689E+007, +1.54803788560E+001, +5.30676219940E+002
+1.78580968280E+007, +1.58338816779E+001, +5.34751344391E+002
+1.80233722871E+007, +1.67146952787E+001, +5.40901760744E+002
+1.81886477462E+007, +1.58274929073E+001, +5.46976328897E+002
+1.83539232053E+007, +1.82336210505E+001, +5.50558491018E+002
+1.85191986644E+007, +1.78096823367E+001, +5.58992435132E+002
+1.86844741235E+007, +1.64268897892E+001, +5.61751814441E+002
+1.88497495826E+007, +1.63030689941E+001, +5.69878403434E+002
+1.90150250417E+007, +1.59705590471E+001, +5.77066505159E+002
+1.91803005008E+007, +1.64651838000E+001, +5.82898641316E+002
+1.93455759599E+007, +1.71908630412E+001, +5.86638414729E+002
+1.95108514190E+007, +1.99274778487E+001, +5.93363211453E+002
+1.96761268781E+007, +1.95994846319E+001, +6.01518078162E+002
+1.98414023372E+007, +1.88373381671E+001, +6.06833000745E+002
+2.00066777963E+007, +1.68552766709E+001, +6.12308027221E+002
+2.01719532554E+007, +1.80562564816E+001, +6.16893014184E+002
+2.03372287145E+007, +2.01823573667E+001, +6.24830742045E+002
+2.05025041736E+007, +1.97738028881E+001, +6.31321691695E+002
+2.06677796327E+007, +1.85131839321E+001, +6.38839460462E+002
+2.08330550918E+007, +1.90131235940E+001, +6.43434731567E+002
+2.09983305509E+007, +1.89824495838E+001, +6.49282964790E+002
+2.11636060100E+007, +1.90013186832E+001, +6.56269992911E+002
+2.13288814691E+007, +1.94120626731E+001, +6.62283010590E+002
+2.14941569282E+007, +2.04244494777E+001, +6.67394064780E+002
+2.16594323873E+007, +2.09019710861E+001, +6.75149551906E+002
+2.18247078464E+007, +2.24352709026E+001, +6.82876543848E+002
+2.19899833055E+007, +2.04544315259E+001, +6.91949523474E+002
+2.21552587646E+007, +2.09086388931E+001, +6.93604020337E+002
+2.23205342237E+007, +2.30938767526E+001, +7.03370463751E+002
+2.24858096828E+007, +2.24306395355E+001, +7.10917688786E+002
+2.26510851419E+007, +2.53183835249E+001, +7.14057256561E+002
+2.28163606010E+007, +2.43400029113E+001, +7.21427886812E+002
+2.29816360601E+007, +2.42881853393E+001, +7.27074019237E+002
+2.31469115192E+007, +2.81327014821E+001, +7.36687723998E+002
+2.33121869783E+007, +2.87478113547E+001, +7.44659782668E+002
+2.34774624374E+007, +3.04752653895E+001, +7.49568868203E+002
+2.36427378965E+007, +2.81956365082E+001, +7.56850926115E+002
+2.38080133556E+007, +2.91363944877E+001, +7.62832968767E+002
+2.39732888147E+007, +2.92821559809E+001, +7.68944014725E+002
+2.41385642738E+007, +3.07677881182E+001, +7.77069342172E+002
+2.43038397329E+007, +2.91834481903E+001, +7.88235900788E+002
+2.44691151920E+007, +3.13470738452E+001, +7.94272645335E+002
+2.46343906511E+007, +3.08609310784E+001, +7.98402888559E+002
+2.47996661102E+007, +2.93457721859E+001, +8.05404818434E+002
+2.49649415693E+007, +3.08142106081E+001, +8.14346424601E+002
+2.51302170284E+007, +3.21285273127E+001, +8.19919146644E+002
+2.52954924875E+007, +3.24750533558E+001, +8.28715365617E+002
+2.54607679466E+007, +3.20084851066E+001, +8.34538781882E+002
+2.56260434057E+007, +3.42295403220E+001, +8.41943308278E+002
+2.57913188648E+007, +3.27719197739E+001, +8.46573115745E+002
+2.59565943239E+007, +3.79912296411E+001, +8.53934403008E+002
+2.61218697830E+007, +3.67424739067E+001, +8.64767648769E+002
+2.62871452421E+007, +3.81348499653E+001, +8.72588364751E+002
+2.64524207012E+007, +3.49916575662E+001, +8.81589218301E+002
+2.66176961603E+007, +3.92396300879E+001, +8.88243202525E+002
+2.67829716194E+007, +3.86116481474E+001, +8.94683585538E+002
+2.69482470785E+007, +3.60006152787E+001, +9.05753084188E+002
+2.71135225376E+007, +4.38520129211E+001, +9.16082076499E+002
+2.72787979967E+007, +4.53168660454E+001, +9.21145697745E+002
+2.74440734558E+007, +4.11131498133E+001, +9.29300999103E+002
+2.76093489149E+007, +3.89152761078E+001, +9.37740497634E+002
+2.77746243740E+007, +4.50997243800E+001, +9.43497575207E+002
+2.79398998331E+007, +4.07531575612E+001, +9.57184856696E+002
+2.81051752922E+007, +4.94906288319E+001, +9.57675982574E+002
+2.82704507513E+007, +4.57068628282E+001, +9.70444723276E+002
+2.84357262104E+007, +4.83355014148E+001, +9.79135332685E+002
+2.86010016694E+007, +4.44483844277E+001, +9.90727945317E+002
+2.87662771285E+007, +4.68647176015E+001, +9.99006674617E+002
+2.89315525876E+007, +4.97725881509E+001, +1.00638482131E+003
+2.90968280467E+007, +5.00848173343E+001, +1.01476683574E+003
+2.92621035058E+007, +4.84678509637E+001, +1.02422258489E+003
+2.94273789649E+007, +5.21520360770E+001, +1.03439429358E+003
+2.95926544240E+007, +4.84732040100E+001, +1.04299562805E+003
+2.97579298831E+007, +5.37787626130E+001, +1.05119882991E+003
+2.99232053422E+007, +5.40280137478E+001, +1.06478306542E+003
+3.00884808013E+007, +5.55602483047E+001, +1.07523071021E+003
+3.02537562604E+007, +5.54569583538E+001, +1.08091081362E+003
+3.04190317195E+007, +6.11939238301E+001, +1.08574002773E+003
+3.05843071786E+007, +5.26531044487E+001, +1.09455591644E+003
+3.07495826377E+007, +5.64435290243E+001, +1.10740369534E+003
+3.09148580968E+007, +6.10974528810E+001, +1.11925824195E+003
+3.10801335559E+007, +6.29188025903E+001, +1.13145942330E+003
+3.12454090150E+007, +5.82964327387E+001, +1.13842979842E+003
+3.14106844741E+007, +6.04457561736E+001, +1.14529303247E+003
+3.15759599332E+007, +6.37572335877E+001, +1.16111959031E+003
+3.17412353923E+007, +6.77058362176E+001, +1.17438735795E+003
+3.19065108514E+007, +6.57644250725E+001, +1.18389298635E+003
+3.20717863105E+007, +6.06215109094E+001, +1.19294262276E+003
+3.22370617696E+007, +6.83958290802E+001, +1.20454063834E+003
+3.24023372287E+007, +7.06153255045E+001, +1.21239138963E+003
+3.25676126878E+007, +7.02642434361E+001, +1.22915396577E+003
+3.27328881469E+007, +6.87081673800E+001, +1.23188539910E+003
+3.28981636060E+007, +6.56643078394E+001, +1.24610702107E+003
+3.30634390651E+007, +7.42344906784E+001, +1.25626988732E+003
+3.32287145242E+007, +7.40948804308E+001, +1.28021274972E+003
+3.33939899833E+007, +6.80937922246E+001, +1.28711174190E+003
+3.35592654424E+007, +7.90040927238E+001, +1.30214087279E+003
+3.37245409015E+007, +8.28718666802E+001, +1.30857639559E+003
+3.38898163606E+007, +7.10882034813E+001, +1.32546129462E+003
+3.40550918197E+007, +7.90763311590E+001, +1.34040978100E+003
+3.42203672788E+007, +7.75534595901E+001, +1.34905951342E+003
+3.43856427379E+007, +8.14106228481E+001, +1.36564077567E+003
+3.45509181970E+007, +7.29897437329E+001, +1.37966438466E+003
+3.47161936561E+007, +9.24235099783E+001, +1.38832782609E+003
+3.48814691152E+007, +8.64144668653E+001, +1.40390587620E+003
+3.50467445743E+007, +8.98772186801E+001, +1.41470675424E+003
+3.52120200334E+007, +9.48444868254E+001, +1.41768780042E+003
+3.53772954925E+007, +9.03187755629E+001, +1.44377716745E+003
+3.55425709516E+007, +9.59264039890E+001, +1.45780470858E+003
+3.57078464107E+007, +9.97620878071E+001, +1.47057302023E+003
+3.58731218698E+007, +9.60068370293E+001, +1.48998086155E+003
+3.60383973289E+007, +1.02860661406E+002, +1.50540330389E+003
+3.62036727880E+007, +9.72622071127E+001, +1.52203863296E+003
+3.63689482471E+007, +1.15499277109E+002, +1.53937809020E+003
+3.65342237062E+007, +9.94472895409E+001, +1.54666741710E+003
+3.66994991653E+007, +1.02228849481E+002, +1.57718599208E+003
+3.68647746244E+007, +1.15379916019E+002, +1.59000903978E+003
+3.70300500835E+007, +1.05552426123E+002, +1.59931391527E+003
+3.71953255426E+007, +1.12911649165E+002, +1.63892744467E+003
+3.73606010017E+007, +1.12707627364E+002, +1.65565331257E+003
+3.75258764608E+007, +1.25644593908E+002, +1.68384294027E+003
+3.76911519199E+007, +1.20675549378E+002, +1.69149048891E+003
+3.78564273790E+007, +1.17559190505E+002, +1.71053091646E+003
+3.80217028381E+007, +1.21382072030E+002, +1.72845090984E+003
+3.81869782972E+007, +1.24211780349E+002, +1.74670012506E+003
+3.83522537563E+007, +1.18144630877E+002, +1.77445291506E+003
+3.85175292154E+007, +1.37058240412E+002, +1.79149311411E+003
+3.86828046745E+007, +1.31042827565E+002, +1.81886682015E+003
+3.88480801336E+007, +1.43568387956E+002, +1.84639546184E+003
+3.90133555927E+007, +1.52203401877E+002, +1.87197298456E+003
+3.91786310518E+007, +1.40810642795E+002, +1.90206330296E+003
+3.93439065109E+007, +1.39263683853E+002, +1.93450141547E+003
+3.95091819699E+007, +1.73530280632E+002, +1.94305484357E+003
+3.96744574290E+007, +1.78011941047E+002, +1.96650486147E+003
+3.98397328881E+007, +1.62173636849E+002, +1.99498236213E+003
+4.00050083472E+007, +1.78157795837E+002, +2.03255204849E+003
+4.01702838063E+007, +1.70047774057E+002, +2.03961398901E+003
+4.03355592654E+007, +1.71130184212E+002, +2.07122857544E+003
+4.05008347245E+007, +1.99177621761E+002, +2.13426271110E+003
+4.06661101836E+007, +1.84341518410E+002, +2.13716139718E+003
+4.08313856427E+007, +2.00462845555E+002, +2.19820811847E+003
+4.09966611018E+007, +1.93938829358E+002, +2.20300570433E+003
+4.11619365609E+007, +2.11037772020E+002, +2.23122411891E+003
+4.13272120200E+007, +2.30607318772E+002, +2.27967352258E+003
+4.14924874791E+007, +2.35300841726E+002, +2.29344036052E+003
+4.16577629382E+007, +2.26973837121E+002, +2.34857158057E+003
+4.18230383973E+007, +2.47212748384E+002, +2.36936987446E+003
+4.19883138564E+007, +2.21778638541E+002, +2.44254908711E+003
+4.21535893155E+007, +2.53461287456E+002, +2.47675330641E+003
+4.23188647746E+007, +2.70592983987E+002, +2.53048148865E+003
+4.24841402337E+007, +2.54509457672E+002, +2.60091625517E+003
+4.26494156928E+007, +2.57027923360E+002, +2.61096436706E+003
+4.28146911519E+007, +3.21672719443E+002, +2.63046003934E+003
+4.29799666110E+007, +3.07664847750E+002, +2.72128084273E+003
+4.31452420701E+007, +3.18724866470E+002, +2.80090681212E+003
+4.33105175292E+007, +3.42729740122E+002, +2.83784798539E+003
+4.34757929883E+007, +3.31296606934E+002, +2.91843919767E+003
+4.36410684474E+007, +3.42727107391E+002, +2.97346819362E+003
+4.38063439065E+007, +3.90201953348E+002, +3.05006327243E+003
+4.39716193656E+007, +4.30384625517E+002, +3.06101421109E+003
+4.41368948247E+007, +3.97804036379E+002, +3.18118028480E+003
+4.43021702838E+007, +4.57035504191E+002, +3.25747442817E+003
+4.44674457429E+007, +4.87871649784E+002, +3.34646947135E+003
+4.46327212020E+007, +5.20364133553E+002, +3.43653622492E+003
+4.47979966611E+007, +5.08390076138E+002, +3.50394341482E+003
+4.49632721202E+007, +6.30209082502E+002, +3.61958885699E+003
+4.51285475793E+007, +6.32240769722E+002, +3.72507515468E+003
+4.52938230384E+007, +7.54865627622E+002, +3.91495288763E+003
+4.54590984975E+007, +6.58176916181E+002, +3.94404387630E+003
+4.56243739566E+007, +8.11713098791E+002, +4.07818844385E+003
+4.57896494157E+007, +9.19851644588E+002, +4.11015494995E+003
+4.59549248748E+007, +9.40508065815E+002, +4.38128063811E+003
+4.61202003339E+007, +9.50646578043E+002, +4.53238845943E+003
+4.62854757930E+007, +1.22341972323E+003, +4.60700519450E+003
+4.64507512521E+007, +1.32819926836E+003, +4.79416421628E+003
+4.66160267112E+007, +1.53801665029E+003, +4.96017385590E+003
+4.67813021703E+007, +1.69633791254E+003, +5.09907802323E+003
+4.69465776294E+007, +1.75365661876E+003, +5.17329855460E+003
+4.71118530885E+007, +2.06958778736E+003, +5.38269849153E+003
+4.72771285476E+007, +2.17712054624E+003, +5.67847069209E+003
+4.74424040067E+007, +2.63582468197E+003, +5.74920747459E+003
+4.76076794658E+007, +3.04134138748E+003, +5.98029338872E+003
+4.77729549249E+007, +3.21789436584E+003, +6.20643332476E+003
+4.79382303840E+007, +3.62869998595E+003, +6.24101003584E+003
+4.81035058431E+007, +4.28647812280E+003, +6.20645216022E+003
+4.82687813022E+007, +4.57274130714E+003, +6.14863331818E+003
+4.84340567613E+007, +5.14892828136E+003, +6.26183974391E+003
+4.85993322204E+007, +5.86516252364E+003, +6.13725259179E+003
+4.87646076795E+007, +6.03346882710E+003, +5.91312638107E+003
+4.89298831386E+007, +6.70490728027E+003, +5.94234558433E+003
+4.90951585977E+007, +7.06585012621E+003, +5.41902310397E+003
+4.92604340568E+007, +7.73614584247E+003, +4.83013159601E+003
+4.94257095159E+007, +7.75439650955E+003, +4.33173246389E+003
+4.95909849750E+007, +8.41577737993E+003, +3.97429880205E+003
+4.97562604341E+007, +8.43394745271E+003, +3.56803568728E+003
+4.99215358932E+007, +9.09811183484E+003, +2.73123364118E+003
+5.00868113523E+007, +8.90722340800E+003, +2.36737892726E+003
+5.02520868114E+007, +8.68555312280E+003, +1.46037374934E+003
+5.04173622705E+007, +8.87970059207E+003, +1.24012234070E+003
+5.05826377295E+007, +8.76134202181E+003, +1.11500452246E+003
+5.07479131886E+007, +8.73231696092E+003, +5.08305656875E+002
+5.09131886477E+007, +9.07205670403E+003, +6.18033012480E+001
+5.10784641068E+007, +8.54763332474E+003, -2.67826069715E+002
+5.12437395659E+007, +8.68701145991E+003, -1.19716613681E+003
+5.14090150250E+007, +8.53086343228E+003, -9.25970484638E+002
+5.15742904841E+007, +8.55964053833E+003, -1.57695074551E+003
+5.17395659432E+007, +8.41927663015E+003, -2.21846737247E+003
+5.19048414023E+007, +7.91181835301E+003, -2.76369544026E+003
+5.20701168614E+007, +7.64502297170E+003, -3.37885568867E+003
+5.22353923205E+007, +7.46511827348E+003, -3.81366644656E+003
+5.24006677796E+007, +7.22423192381E+003, -4.23947957856E+003
+5.25659432387E+007, +6.40685799189E+003, -4.46460234770E+003
+5.27312186978E+007, +6.02210610195E+003, -4.86386287985E+003
+5.28964941569E+007, +5.31615260555E+003, -4.97878463121E+003
+5.30617696160E+007, +4.80128357001E+003, -5.24064702793E+003
+5.32270450751E+007, +4.30881104367E+003, -5.00311847939E+003
+5.33923205342E+007, +3.82673509929E+003, -4.95576949392E+003
+5.35575959933E+007, +3.35889939501E+003, -4.90684635483E+003
+5.37228714524E+007, +2.79381038861E+003, -4.55390246282E+003
+5.38881469115E+007, +2.76782913375E+003, -4.56470944633E+003
