"# Channel 1"
"# Trace 1"
Frequency, Formatted Data, Formatted Data
+1.00000000000E+006, +1.14702112956E+001, +2.81194439679E+001
+1.16527545910E+006, +1.15022535187E+001, +3.27607741284E+001
+1.33055091820E+006, +1.14956233266E+001, +3.73001606570E+001
+1.49582637730E+006, +1.15150403319E+001, +4.20275298176E+001
+1.66110183639E+006, +1.15042261729E+001, +4.66157464890E+001
+1.82637729549E+006, +1.14828883830E+001, +5.11897241710E+001
+1.99165275459E+006, +1.15294085354E+001, +5.58429694585E+001
+2.15692821369E+006, +1.14872295523E+001, +6.04979330509E+001
+2.32220367279E+006, +1.13738380109E+001, +6.51670029053E+001
+2.48747913189E+006, +1.14356044590E+001, +6.97898868215E+001
+2.65275459098E+006, +1.14083854219E+001, +7.44705731133E+001
+2.81803005008E+006, +1.14423056619E+001, +7.91324580851E+001
+2.98330550918E+006, +1.13661599351E+001, +8.36152178931E+001
+3.14858096828E+006, +1.14056208413E+001, +8.82503733469E+001
+3.31385642738E+006, +1.15507915424E+001, +9.28676032024E+001
+3.47913188648E+006, +1.14558191083E+001, +9.77663131570E+001
+3.64440734558E+006, +1.13480091614E+001, +1.02377019262E+002
+3.80968280467E+006, +1.16977206603E+001, +1.06918576242E+002
+3.97495826377E+006, +1.17222967405E+001, +1.11582195436E+002
+4.14023372287E+006, +1.17541203432E+001, +1.16605336092E+002
+4.30550918197E+006, +1.16562699669E+001, +1.20654316866E+002
+4.47078464107E+006, +1.14228620484E+001, +1.25729783860E+002
+4.63606010017E+006, +1.13799351871E+001, +1.30274239232E+002
+4.80133555927E+006, +1.15560812451E+001, +1.35130496366E+002
+4.96661101836E+006, +1.14479987858E+001, +1.39821748363E+002
+5.13188647746E+006, +1.16216517142E+001, +1.44409134139E+002
+5.29716193656E+006, +1.16796444600E+001, +1.48978155561E+002
+5.46243739566E+006, +1.18092367025E+001, +1.53910943724E+002
+5.62771285476E+006, +1.19757344218E+001, +1.58502976024E+002
+5.79298831386E+006, +1.22299770975E+001, +1.63409324109E+002
+5.95826377295E+006, +1.22575974106E+001, +1.68147617409E+002
+6.12353923205E+006, +1.25472767248E+001, +1.72640433397E+002
+6.28881469115E+006, +1.22214579504E+001, +1.77343341603E+002
+6.45409015025E+006, +1.25698982141E+001, +1.82031769351E+002
+6.61936560935E+006, +1.25515217891E+001, +1.86915546333E+002
+6.78464106845E+006, +1.27008898691E+001, +1.91609110298E+002
+6.94991652755E+006, +1.27067782263E+001, +1.96240880095E+002
+7.11519198664E+006, +1.28329401171E+001, +2.00880228905E+002
+7.28046744574E+006, +1.31051656542E+001, +2.05826971119E+002
+7.44574290484E+006, +1.31984032329E+001, +2.10461755479E+002
+7.61101836394E+006, +1.32407100687E+001, +2.15056414893E+002
+7.77629382304E+006, +1.33362189059E+001, +2.19803046968E+002
+7.94156928214E+006, +1.29735314228E+001, +2.24529466677E+002
+8.10684474124E+006, +1.30634764195E+001, +2.29232745578E+002
+8.27212020033E+006, +1.33279047993E+001, +2.34142867762E+002
+8.43739565943E+006, +1.32076953052E+001, +2.39344441346E+002
+8.60267111853E+006, +1.29638886701E+001, +2.44004706348E+002
+8.76794657763E+006, +1.34626217531E+001, +2.48486900826E+002
+8.93322203673E+006, +1.32185952085E+001, +2.54043852035E+002
+9.09849749583E+006, +1.33906776500E+001, +2.58356810181E+002
+9.26377295492E+006, +1.34895859688E+001, +2.63368117601E+002
+9.42904841402E+006, +1.35294487616E+001, +2.67986239841E+002
+9.59432387312E+006, +1.34540248040E+001, +2.73037298630E+002
+9.75959933222E+006, +1.29736100424E+001, +2.77919184015E+002
+9.92487479132E+006, +1.31161345639E+001, +2.82751052640E+002
+1.00901502504E+007, +1.30594896177E+001, +2.87706404164E+002
+1.02554257095E+007, +1.31628997851E+001, +2.92030560272E+002
+1.04207011686E+007, +1.33964452650E+001, +2.96849783877E+002
+1.05859766277E+007, +1.35747251162E+001, +3.02899242206E+002
+1.07512520868E+007, +1.35610193921E+001, +3.07545382596E+002
+1.09165275459E+007, +1.34563729786E+001, +3.12292057976E+002
+1.10818030050E+007, +1.37861143774E+001, +3.17607931320E+002
+1.12470784641E+007, +1.39443362901E+001, +3.21944080497E+002
+1.14123539232E+007, +1.33364664745E+001, +3.26773637371E+002
+1.15776293823E+007, +1.38166390108E+001, +3.32530598815E+002
+1.17429048414E+007, +1.33389933718E+001, +3.37150539745E+002
+1.19081803005E+007, +1.37381790505E+001, +3.42645101776E+002
+1.20734557596E+007, +1.35108094666E+001, +3.47998126588E+002
+1.22387312187E+007, +1.32079217228E+001, +3.52426612563E+002
+1.24040066778E+007, +1.38371217393E+001, +3.57760694736E+002
+1.25692821369E+007, +1.35597980850E+001, +3.62454089729E+002
+1.27345575960E+007, +1.38489025297E+001, +3.67550537547E+002
+1.28998330551E+007, +1.38975803747E+001, +3.73289169094E+002
+1.30651085142E+007, +1.37430767023E+001, +3.77833707660E+002
+1.32303839733E+007, +1.44871353080E+001, +3.83825095324E+002
+1.33956594324E+007, +1.39882390897E+001, +3.89834098030E+002
+1.35609348915E+007, +1.51932395524E+001, +3.93987957600E+002
+1.37262103506E+007, +1.40867091976E+001, +3.98653022876E+002
+1.38914858097E+007, +1.48456071592E+001, +4.03852370649E+002
+1.40567612688E+007, +1.38011779528E+001, +4.09482744520E+002
+1.42220367279E+007, +1.47353614526E+001, +4.13696370813E+002
+1.43873121870E+007, +1.42366061807E+001, +4.20710090722E+002
+1.45525876461E+007, +1.41152913088E+001, +4.25400943434E+002
+1.47178631052E+007, +1.47115296313E+001, +4.30360668596E+002
+1.48831385643E+007, +1.48778946607E+001, +4.35409192569E+002
+1.50484140234E+007, +1.44848952798E+001, +4.41028349641E+002
+1.52136894825E+007, +1.43219850623E+001, +4.46707380785E+002
+1.53789649416E+007, +1.55751839168E+001, +4.51761922871E+002
+1.55442404007E+007, +1.44262369006E+001, +4.56694789690E+002
+1.57095158598E+007, +1.47929765869E+001, +4.63298421021E+002
+1.58747913189E+007, +1.55597680497E+001, +4.68516578158E+002
+1.60400667780E+007, +1.48928717645E+001, +4.72674907841E+002
+1.62053422371E+007, +1.41810808182E+001, +4.78494291820E+002
+1.63706176962E+007, +1.45645791305E+001, +4.83553285562E+002
+1.65358931553E+007, +1.44794837816E+001, +4.90009067228E+002
+1.67011686144E+007, +1.69199354144E+001, +4.93819801416E+002
+1.68664440735E+007, +1.51029835698E+001, +5.00335364343E+002
+1.70317195326E+007, +1.39968820072E+001, +5.07027459991E+002
+1.71969949917E+007, +1.27804909529E+001, +5.12934108481E+002
+1.73622704508E+007, +1.47095387259E+001, +5.19044640450E+002
+1.75275459098E+007, +1.41913620111E+001, +5.23499962376E+002
+1.76928213689E+007, +1.49462158739E+001, +5.30539353038E+002
+1.78580968280E+007, +1.60884253624E+001, +5.36249577182E+002
+1.80233722871E+007, +1.67787838771E+001, +5.41209747566E+002
+1.81886477462E+007, +1.51727703402E+001, +5.47794896135E+002
+1.83539232053E+007, +1.78716237894E+001, +5.52367557248E+002
+1.85191986644E+007, +1.78118172658E+001, +5.58738378040E+002
+1.86844741235E+007, +1.60796454365E+001, +5.63449435778E+002
+1.88497495826E+007, +1.61203992824E+001, +5.70914755252E+002
+1.90150250417E+007, +1.66602527164E+001, +5.77523121139E+002
+1.91803005008E+007, +1.70623550614E+001, +5.82155525681E+002
+1.93455759599E+007, +1.69527393982E+001, +5.86525710736E+002
+1.95108514190E+007, +1.92329734860E+001, +5.93528365492E+002
+1.96761268781E+007, +1.84552289516E+001, +6.00328490347E+002
+1.98414023372E+007, +1.93331629923E+001, +6.06787436677E+002
+2.00066777963E+007, +1.86840665016E+001, +6.10726269860E+002
+2.01719532554E+007, +1.93132476981E+001, +6.18694547878E+002
+2.03372287145E+007, +2.02557102205E+001, +6.26704792795E+002
+2.05025041736E+007, +1.72746986870E+001, +6.30498324696E+002
+2.06677796327E+007, +2.03856531553E+001, +6.36939897048E+002
+2.08330550918E+007, +1.97167845302E+001, +6.43589125022E+002
+2.09983305509E+007, +2.04623349884E+001, +6.51048056992E+002
+2.11636060100E+007, +1.90257155888E+001, +6.55430829115E+002
+2.13288814691E+007, +2.06882873607E+001, +6.61302259387E+002
+2.14941569282E+007, +2.03993829221E+001, +6.68763092989E+002
+2.16594323873E+007, +2.03385237013E+001, +6.77006307348E+002
+2.18247078464E+007, +2.22943829239E+001, +6.82237324368E+002
+2.19899833055E+007, +2.09356120122E+001, +6.89975807550E+002
+2.21552587646E+007, +1.95731068015E+001, +6.96972221791E+002
+2.23205342237E+007, +2.17507331324E+001, +7.02388391196E+002
+2.24858096828E+007, +2.23192776792E+001, +7.09270727698E+002
+2.26510851419E+007, +2.44576107554E+001, +7.14595225471E+002
+2.28163606010E+007, +2.38092910955E+001, +7.23175863910E+002
+2.29816360601E+007, +2.25074503412E+001, +7.28073568127E+002
+2.31469115192E+007, +2.78155925568E+001, +7.35353160006E+002
+2.33121869783E+007, +2.87040043836E+001, +7.44457733382E+002
+2.34774624374E+007, +2.75928892194E+001, +7.51363034463E+002
+2.36427378965E+007, +2.85209952364E+001, +7.56757614492E+002
+2.38080133556E+007, +2.86838962200E+001, +7.64145431370E+002
+2.39732888147E+007, +3.06245898072E+001, +7.72759228069E+002
+2.41385642738E+007, +3.16420199844E+001, +7.77568170908E+002
+2.43038397329E+007, +2.84670261676E+001, +7.86635488867E+002
+2.44691151920E+007, +3.24211219125E+001, +7.91167147221E+002
+2.46343906511E+007, +3.01939257018E+001, +7.99934012756E+002
+2.47996661102E+007, +3.09994070844E+001, +8.05039136155E+002
+2.49649415693E+007, +3.20553518933E+001, +8.14349569288E+002
+2.51302170284E+007, +3.23728328577E+001, +8.19981682177E+002
+2.52954924875E+007, +3.43513377630E+001, +8.28524754630E+002
+2.54607679466E+007, +3.59414520482E+001, +8.35943182233E+002
+2.56260434057E+007, +3.75140445051E+001, +8.40786715308E+002
+2.57913188648E+007, +3.33439109439E+001, +8.51329111561E+002
+2.59565943239E+007, +3.92375059554E+001, +8.53553022725E+002
+2.61218697830E+007, +3.83954159282E+001, +8.62538955518E+002
+2.62871452421E+007, +4.08691098541E+001, +8.69876605893E+002
+2.64524207012E+007, +3.69282065328E+001, +8.80094808431E+002
+2.66176961603E+007, +4.01319859133E+001, +8.89504037208E+002
+2.67829716194E+007, +3.67422194485E+001, +8.93860006564E+002
+2.69482470785E+007, +3.96349171092E+001, +9.06286411575E+002
+2.71135225376E+007, +4.06131341589E+001, +9.11839691557E+002
+2.72787979967E+007, +4.50484616019E+001, +9.23510570824E+002
+2.74440734558E+007, +4.47110758290E+001, +9.24405238808E+002
+2.76093489149E+007, +4.81113072930E+001, +9.31548912973E+002
+2.77746243740E+007, +4.40976121427E+001, +9.45707315721E+002
+2.79398998331E+007, +4.49639132009E+001, +9.51307404187E+002
+2.81051752922E+007, +4.72272506431E+001, +9.55199732840E+002
+2.82704507513E+007, +4.64385841185E+001, +9.69180512301E+002
+2.84357262104E+007, +5.14805430809E+001, +9.78626034018E+002
+2.86010016694E+007, +5.08181662690E+001, +9.86016026835E+002
+2.87662771285E+007, +4.77090271353E+001, +9.97056734574E+002
+2.89315525876E+007, +4.82175549193E+001, +1.00459207103E+003
+2.90968280467E+007, +5.31271998386E+001, +1.01157223943E+003
+2.92621035058E+007, +5.08875294743E+001, +1.01669504850E+003
+2.94273789649E+007, +5.12447354680E+001, +1.03045647505E+003
+2.95926544240E+007, +4.82974383671E+001, +1.03656861155E+003
+2.97579298831E+007, +5.43224897296E+001, +1.05043760648E+003
+2.99232053422E+007, +5.43011325762E+001, +1.06192294542E+003
+3.00884808013E+007, +5.63522098040E+001, +1.05833439673E+003
+3.02537562604E+007, +5.43896974374E+001, +1.07564400315E+003
+3.04190317195E+007, +5.71410331586E+001, +1.08241624431E+003
+3.05843071786E+007, +5.78917071482E+001, +1.08748470899E+003
+3.07495826377E+007, +5.34066144500E+001, +1.10398653494E+003
+3.09148580968E+007, +5.58896039834E+001, +1.10681086708E+003
+3.10801335559E+007, +5.92267728979E+001, +1.12269232576E+003
+3.12454090150E+007, +5.71621418916E+001, +1.13226868492E+003
+3.14106844741E+007, +5.70356562249E+001, +1.14081133485E+003
+3.15759599332E+007, +6.33543223749E+001, +1.15671429488E+003
+3.17412353923E+007, +6.17491959470E+001, +1.16729894076E+003
+3.19065108514E+007, +6.29166026801E+001, +1.17721474662E+003
+3.20717863105E+007, +5.74029362038E+001, +1.18178022600E+003
+3.22370617696E+007, +6.43802574167E+001, +1.19938296820E+003
+3.24023372287E+007, +5.89222695856E+001, +1.21324141435E+003
+3.25676126878E+007, +6.20794340365E+001, +1.22227394802E+003
+3.27328881469E+007, +6.57648162211E+001, +1.22902444941E+003
+3.28981636060E+007, +6.39838781295E+001, +1.23773255106E+003
+3.30634390651E+007, +6.50167613955E+001, +1.25634987450E+003
+3.32287145242E+007, +6.77828188410E+001, +1.28205166347E+003
+3.33939899833E+007, +6.72116485075E+001, +1.28222554377E+003
+3.35592654424E+007, +6.57912441708E+001, +1.29314808731E+003
+3.37245409015E+007, +6.72262285131E+001, +1.30609100050E+003
+3.38898163606E+007, +6.50592213813E+001, +1.31771526655E+003
+3.40550918197E+007, +6.74975261136E+001, +1.33304870127E+003
+3.42203672788E+007, +7.39079193461E+001, +1.34462241567E+003
+3.43856427379E+007, +6.99112646498E+001, +1.36013781139E+003
+3.45509181970E+007, +6.48458219509E+001, +1.37733456098E+003
+3.47161936561E+007, +7.05132921358E+001, +1.38823805429E+003
+3.48814691152E+007, +8.31632124814E+001, +1.39513724996E+003
+3.50467445743E+007, +7.63851288235E+001, +1.41022001042E+003
+3.52120200334E+007, +8.99519975354E+001, +1.42126953365E+003
+3.53772954925E+007, +7.80287013813E+001, +1.43526735993E+003
+3.55425709516E+007, +7.23612839789E+001, +1.46282257233E+003
+3.57078464107E+007, +8.55798674393E+001, +1.47009053867E+003
+3.58731218698E+007, +8.28141110338E+001, +1.49122565877E+003
+3.60383973289E+007, +8.03024831771E+001, +1.50870620095E+003
+3.62036727880E+007, +7.48816033823E+001, +1.52651952128E+003
+3.63689482471E+007, +9.31500218358E+001, +1.53800963843E+003
+3.65342237062E+007, +8.80543901857E+001, +1.55416929990E+003
+3.66994991653E+007, +8.48751422799E+001, +1.58120969873E+003
+3.68647746244E+007, +9.81411961156E+001, +1.59551880911E+003
+3.70300500835E+007, +9.03821209043E+001, +1.61193457464E+003
+3.71953255426E+007, +9.32545803381E+001, +1.64101311059E+003
+3.73606010017E+007, +9.71964157745E+001, +1.65967965341E+003
+3.75258764608E+007, +9.62063093873E+001, +1.70316337231E+003
+3.76911519199E+007, +9.14531668667E+001, +1.69341204422E+003
+3.78564273790E+007, +8.66740994154E+001, +1.72983761485E+003
+3.80217028381E+007, +1.01637629843E+002, +1.74259981791E+003
+3.81869782972E+007, +1.04622527683E+002, +1.76376607467E+003
+3.83522537563E+007, +1.00941811714E+002, +1.79468483634E+003
+3.85175292154E+007, +1.08371393714E+002, +1.80197672723E+003
+3.86828046745E+007, +1.12573981340E+002, +1.81556427630E+003
+3.88480801336E+007, +1.15493041844E+002, +1.85562786887E+003
+3.90133555927E+007, +1.23904736422E+002, +1.88198341428E+003
+3.91786310518E+007, +1.26723122549E+002, +1.93138266693E+003
+3.93439065109E+007, +1.23027497598E+002, +1.94695532317E+003
+3.95091819699E+007, +1.57546000810E+002, +1.95982246659E+003
+3.96744574290E+007, +1.45433524164E+002, +1.98236179975E+003
+3.98397328881E+007, +1.23095595596E+002, +2.01792438309E+003
+4.00050083472E+007, +1.41137452725E+002, +2.05843648661E+003
+4.01702838063E+007, +1.41803788578E+002, +2.08033632107E+003
+4.03355592654E+007, +1.57427308138E+002, +2.10783165531E+003
+4.05008347245E+007, +1.65263672678E+002, +2.14473039854E+003
+4.06661101836E+007, +1.76732215426E+002, +2.16127588458E+003
+4.08313856427E+007, +1.73166746298E+002, +2.21161002038E+003
+4.09966611018E+007, +1.90644219835E+002, +2.23246272283E+003
+4.11619365609E+007, +1.95344837005E+002, +2.25743386126E+003
+4.13272120200E+007, +2.16275462997E+002, +2.30495309693E+003
+4.14924874791E+007, +2.16259569597E+002, +2.33185614285E+003
+4.16577629382E+007, +2.16239449594E+002, +2.40901596891E+003
+4.18230383973E+007, +2.22889480640E+002, +2.41647127147E+003
+4.19883138564E+007, +2.09225200198E+002, +2.45982907081E+003
+4.21535893155E+007, +2.26893586483E+002, +2.50257261251E+003
+4.23188647746E+007, +2.67185085189E+002, +2.52915934406E+003
+4.24841402337E+007, +2.64866958900E+002, +2.62255749505E+003
+4.26494156928E+007, +2.33508494898E+002, +2.65758368442E+003
+4.28146911519E+007, +3.18539446969E+002, +2.69886825594E+003
+4.29799666110E+007, +3.08909371708E+002, +2.78499105777E+003
+4.31452420701E+007, +3.08694913318E+002, +2.88861886101E+003
+4.33105175292E+007, +3.02484857642E+002, +2.90513692953E+003
+4.34757929883E+007, +3.11229274487E+002, +2.97228145950E+003
+4.36410684474E+007, +3.25541460395E+002, +3.00760970740E+003
+4.38063439065E+007, +3.48952227616E+002, +3.09313904191E+003
+4.39716193656E+007, +4.35116266843E+002, +3.14679401024E+003
+4.41368948247E+007, +3.98639536622E+002, +3.23646416128E+003
+4.43021702838E+007, +4.49216598924E+002, +3.31098989390E+003
+4.44674457429E+007, +4.59295794015E+002, +3.42361199873E+003
+4.46327212020E+007, +5.05275205525E+002, +3.48121121205E+003
+4.47979966611E+007, +4.86252813484E+002, +3.58262054557E+003
+4.49632721202E+007, +5.78499447973E+002, +3.71469698532E+003
+4.51285475793E+007, +5.94291839330E+002, +3.83443779410E+003
+4.52938230384E+007, +6.80665488154E+002, +3.92918901658E+003
+4.54590984975E+007, +6.55620945322E+002, +4.01454910615E+003
+4.56243739566E+007, +8.50200888928E+002, +4.18662528483E+003
+4.57896494157E+007, +8.76692173468E+002, +4.28862937235E+003
+4.59549248748E+007, +9.48193307693E+002, +4.52349867364E+003
+4.61202003339E+007, +1.05547995278E+003, +4.69224935649E+003
+4.62854757930E+007, +1.25224768483E+003, +4.84033352305E+003
+4.64507512521E+007, +1.32576020953E+003, +4.89076006901E+003
+4.66160267112E+007, +1.50836962813E+003, +5.07954386132E+003
+4.67813021703E+007, +1.70809995071E+003, +5.27627729906E+003
+4.69465776294E+007, +1.91488052940E+003, +5.41668461734E+003
+4.71118530885E+007, +2.14058486021E+003, +5.51989488915E+003
+4.72771285476E+007, +2.54431294307E+003, +5.75919940588E+003
+4.74424040067E+007, +2.87443003598E+003, +6.03227266272E+003
+4.76076794658E+007, +3.06851045605E+003, +6.09217103221E+003
+4.77729549249E+007, +3.44464095184E+003, +6.45284166520E+003
+4.79382303840E+007, +3.87810241499E+003, +6.41969070576E+003
+4.81035058431E+007, +4.63470312193E+003, +6.66059121039E+003
+4.82687813022E+007, +4.81900331047E+003, +6.41372121182E+003
+4.84340567613E+007, +5.70892906140E+003, +6.37436298279E+003
+4.85993322204E+007, +6.18278604756E+003, +6.09857818961E+003
+4.87646076795E+007, +6.78143783413E+003, +5.96650687499E+003
+4.89298831386E+007, +7.20396052717E+003, +5.43696505606E+003
+4.90951585977E+007, +7.35198291265E+003, +5.17434783932E+003
+4.92604340568E+007, +7.89793270377E+003, +4.72883877055E+003
+4.94257095159E+007, +8.04480808729E+003, +4.11929526170E+003
+4.95909849750E+007, +8.62989841337E+003, +3.64232586961E+003
+4.97562604341E+007, +8.52110609265E+003, +2.99528539111E+003
+4.99215358932E+007, +9.14384934049E+003, +2.64143007980E+003
+5.00868113523E+007, +9.06415297698E+003, +1.62778985641E+003
+5.02520868114E+007, +9.19256613840E+003, +9.78669935857E+002
+5.04173622705E+007, +9.20172665026E+003, +8.97164736691E+002
+5.05826377295E+007, +9.22359088966E+003, +9.76903955164E+002
+5.07479131886E+007, +8.74156709948E+003, +2.10531006005E+002
+5.09131886477E+007, +9.46036039558E+003, -3.90141271721E+002
+5.10784641068E+007, +8.58994848145E+003, -7.84898911832E+002
+5.12437395659E+007, +8.87732996296E+003, -1.07638820476E+003
+5.14090150250E+007, +8.64202109608E+003, -1.68328558178E+003
+5.15742904841E+007, +8.63824986058E+003, -2.45197604672E+003
+5.17395659432E+007, +8.44651270345E+003, -2.69853760554E+003
+5.19048414023E+007, +7.74264987852E+003, -3.12691785482E+003
+5.20701168614E+007, +7.65652162742E+003, -4.01157977479E+003
+5.22353923205E+007, +6.88928394552E+003, -4.50393650645E+003
+5.24006677796E+007, +6.84511212966E+003, -4.73972284674E+003
+5.25659432387E+007, +6.01167382136E+003, -4.78332253724E+003
+5.27312186978E+007, +5.47203951619E+003, -4.96935149706E+003
+5.28964941569E+007, +4.72140997534E+003, -5.00338212560E+003
+5.30617696160E+007, +4.30335853898E+003, -5.24351386042E+003
+5.32270450751E+007, +4.06927266318E+003, -4.93598278866E+003
+5.33923205342E+007, +3.42317449240E+003, -5.11911043560E+003
+5.35575959933E+007, +3.13468054841E+003, -4.74395486409E+003
+5.37228714524E+007, +2.71933220300E+003, -4.58836990009E+003
+5.38881469115E+007, +2.57839030163E+003, -4.48417397704E+003
