"# Channel 1"
"# Trace 1"
Frequency, Formatted Data, Formatted Data
+1.00000000000E+005, +1.25602828709E+001, +2.79046150169E+000
+2.66777963272E+005, +1.25541921234E+001, +7.49082757910E+000
+4.33555926544E+005, +1.25560188866E+001, +1.21740773317E+001
+6.00333889816E+005, +1.25781805614E+001, +1.68286575266E+001
+7.67111853088E+005, +1.26240193688E+001, +2.15241886633E+001
+9.33889816361E+005, +1.26046001739E+001, +2.61454698483E+001
+1.10066777963E+006, +1.25612388449E+001, +3.09224659002E+001
+1.26744574290E+006, +1.26320414521E+001, +3.55488633002E+001
+1.43422370618E+006, +1.25757576214E+001, +4.03155069847E+001
+1.60100166945E+006, +1.26239252853E+001, +4.48521126509E+001
+1.76777963272E+006, +1.26372160992E+001, +4.95591332816E+001
+1.93455759599E+006, +1.26191777906E+001, +5.41805177285E+001
+2.10133555927E+006, +1.26066466414E+001, +5.88692550754E+001
+2.26811352254E+006, +1.26735763254E+001, +6.35846059225E+001
+2.43489148581E+006, +1.26166910532E+001, +6.83970850961E+001
+2.60166944908E+006, +1.26834343929E+001, +7.29578818069E+001
+2.76844741235E+006, +1.26251022957E+001, +7.77992728471E+001
+2.93522537563E+006, +1.25859374498E+001, +8.24222011934E+001
+3.10200333890E+006, +1.28577859404E+001, +8.70579009303E+001
+3.26878130217E+006, +1.25374284285E+001, +9.19614086957E+001
+3.43555926544E+006, +1.27370433413E+001, +9.65551083294E+001
+3.60233722871E+006, +1.28888202982E+001, +1.01434219815E+002
+3.76911519199E+006, +1.28863866483E+001, +1.06304598176E+002
+3.93589315526E+006, +1.30424269223E+001, +1.10754713217E+002
+4.10267111853E+006, +1.17659937388E+001, +1.14555798706E+002
+4.26944908180E+006, +1.25371028935E+001, +1.21271115767E+002
+4.43622704508E+006, +1.29050091327E+001, +1.25329567174E+002
+4.60300500835E+006, +1.30410572569E+001, +1.30361396982E+002
+4.76978297162E+006, +1.28506930799E+001, +1.35006296197E+002
+4.93656093489E+006, +1.31085212826E+001, +1.39999430476E+002
+5.10333889816E+006, +1.31975729206E+001, +1.44637600437E+002
+5.27011686144E+006, +1.37098300335E+001, +1.49823287217E+002
+5.43689482471E+006, +1.32586976749E+001, +1.54470816824E+002
+5.60367278798E+006, +1.34383473419E+001, +1.59751729262E+002
+5.77045075125E+006, +1.35924702166E+001, +1.64124629716E+002
+5.93722871452E+006, +1.37914122661E+001, +1.68979739648E+002
+6.10400667780E+006, +1.38622031911E+001, +1.74045188315E+002
+6.27078464107E+006, +1.41884771244E+001, +1.78930767856E+002
+6.43756260434E+006, +1.41516522111E+001, +1.83830313392E+002
+6.60434056761E+006, +1.43856484717E+001, +1.88598675077E+002
+6.77111853088E+006, +1.47695764533E+001, +1.93431531660E+002
+6.93789649416E+006, +1.46709221345E+001, +1.98587000627E+002
+7.10467445743E+006, +1.44015485048E+001, +2.03273082698E+002
+7.27145242070E+006, +1.47092428879E+001, +2.08320218322E+002
+7.43823038397E+006, +1.49026247924E+001, +2.13163524663E+002
+7.60500834725E+006, +1.48430565183E+001, +2.18257547516E+002
+7.77178631052E+006, +1.49383449697E+001, +2.23599829906E+002
+7.93856427379E+006, +1.49737383639E+001, +2.28231997190E+002
+8.10534223706E+006, +1.49485405354E+001, +2.33440344670E+002
+8.27212020033E+006, +1.48992607571E+001, +2.38579188593E+002
+8.43889816361E+006, +1.48244582361E+001, +2.43651032515E+002
+8.60567612688E+006, +1.46471815049E+001, +2.49240565093E+002
+8.77245409015E+006, +1.48729668245E+001, +2.53802519717E+002
+8.93923205342E+006, +1.49734613869E+001, +2.59357448390E+002
+9.10601001669E+006, +1.48185144698E+001, +2.64898027386E+002
+9.27278797997E+006, +1.51154646895E+001, +2.70025907793E+002
+9.43956594324E+006, +1.49652737928E+001, +2.74977306529E+002
+9.60634390651E+006, +1.51150628684E+001, +2.80341377928E+002
+9.77312186978E+006, +1.51343964509E+001, +2.85984630992E+002
+9.93989983306E+006, +1.56293746482E+001, +2.91698722050E+002
+1.01066777963E+007, +1.49046660935E+001, +2.96836288555E+002
+1.02734557596E+007, +1.55126366168E+001, +3.02339088782E+002
+1.04402337229E+007, +1.49193518034E+001, +3.07587206061E+002
+1.06070116861E+007, +1.48217621953E+001, +3.13417417267E+002
+1.07737896494E+007, +1.52488468302E+001, +3.19061328012E+002
+1.09405676127E+007, +1.54717194329E+001, +3.24311383211E+002
+1.11073455760E+007, +1.56124784613E+001, +3.30232188243E+002
+1.12741235392E+007, +1.56859839253E+001, +3.35358578336E+002
+1.14409015025E+007, +1.60807958891E+001, +3.41578581830E+002
+1.16076794658E+007, +1.65636519967E+001, +3.47289340729E+002
+1.17744574290E+007, +1.63760717788E+001, +3.53552254470E+002
+1.19412353923E+007, +1.63955569852E+001, +3.58786823661E+002
+1.21080133556E+007, +1.60187395695E+001, +3.65211123742E+002
+1.22747913189E+007, +1.63935960907E+001, +3.70675557658E+002
+1.24415692821E+007, +1.65800879349E+001, +3.76461540478E+002
+1.26083472454E+007, +1.66319480521E+001, +3.82632737879E+002
+1.27751252087E+007, +1.68022807203E+001, +3.88785624610E+002
+1.29419031720E+007, +1.62064430381E+001, +3.94645976886E+002
+1.31086811352E+007, +1.65370985706E+001, +4.00348473519E+002
+1.32754590985E+007, +1.73062632882E+001, +4.06780689689E+002
+1.34422370618E+007, +1.70769265696E+001, +4.12695616786E+002
+1.36090150250E+007, +1.80827373801E+001, +4.18921201233E+002
+1.37757929883E+007, +1.77567894373E+001, +4.25216615851E+002
+1.39425709516E+007, +1.84130508621E+001, +4.31815238534E+002
+1.41093489149E+007, +1.89867723311E+001, +4.37818839357E+002
+1.42761268781E+007, +1.90025821641E+001, +4.43419793646E+002
+1.44429048414E+007, +1.97238568400E+001, +4.49903761736E+002
+1.46096828047E+007, +1.94458407198E+001, +4.57079143419E+002
+1.47764607679E+007, +2.04450667241E+001, +4.62201312665E+002
+1.49432387312E+007, +1.92594722692E+001, +4.69035640511E+002
+1.51100166945E+007, +1.92275870137E+001, +4.75730630041E+002
+1.52767946578E+007, +1.98747836547E+001, +4.82154727624E+002
+1.54435726210E+007, +2.02084273179E+001, +4.89075418406E+002
+1.56103505843E+007, +2.08477400392E+001, +4.96352343642E+002
+1.57771285476E+007, +1.98434760955E+001, +5.02981189676E+002
+1.59439065109E+007, +2.09692747655E+001, +5.09781723775E+002
+1.61106844741E+007, +2.04763306333E+001, +5.16376411482E+002
+1.62774624374E+007, +2.09252128913E+001, +5.22324540666E+002
+1.64442404007E+007, +2.02655835210E+001, +5.30623902553E+002
+1.66110183639E+007, +2.17281258936E+001, +5.35843268191E+002
+1.67777963272E+007, +2.12345780817E+001, +5.46199970287E+002
+1.69445742905E+007, +2.24849122327E+001, +5.52888692412E+002
+1.71113522538E+007, +1.83990230939E+001, +5.58145600767E+002
+1.72781302170E+007, +2.13239177890E+001, +5.66755457659E+002
+1.74449081803E+007, +1.94526168064E+001, +5.73725029991E+002
+1.76116861436E+007, +2.24919294444E+001, +5.82450713088E+002
+1.77784641068E+007, +2.18976796055E+001, +5.90519137199E+002
+1.79452420701E+007, +2.32905121499E+001, +5.97890670967E+002
+1.81120200334E+007, +2.35734193734E+001, +6.01344404551E+002
+1.82787979967E+007, +2.38236977222E+001, +6.11629247723E+002
+1.84455759599E+007, +2.41648576159E+001, +6.20038641797E+002
+1.86123539232E+007, +2.49007976060E+001, +6.29061771843E+002
+1.87791318865E+007, +2.50048630936E+001, +6.35450866780E+002
+1.89459098497E+007, +2.43858938628E+001, +6.44906076520E+002
+1.91126878130E+007, +2.59213545601E+001, +6.53494714524E+002
+1.92794657763E+007, +2.59927008642E+001, +6.61672111998E+002
+1.94462437396E+007, +2.82065465980E+001, +6.71025887137E+002
+1.96130217028E+007, +2.68948274114E+001, +6.80479479665E+002
+1.97797996661E+007, +2.72375536833E+001, +6.87169288980E+002
+1.99465776294E+007, +2.51112129769E+001, +6.96827087773E+002
+2.01133555927E+007, +2.71258921145E+001, +7.04357208617E+002
+2.02801335559E+007, +2.80097571111E+001, +7.14141524326E+002
+2.04469115192E+007, +2.99470729286E+001, +7.22713143877E+002
+2.06136894825E+007, +3.08350140887E+001, +7.34008636009E+002
+2.07804674457E+007, +3.18898391977E+001, +7.43409606604E+002
+2.09472454090E+007, +3.00649356156E+001, +7.55752313050E+002
+2.11140233723E+007, +3.30811101516E+001, +7.61312382142E+002
+2.12808013356E+007, +3.48374748514E+001, +7.71157592167E+002
+2.14475792988E+007, +3.55685429985E+001, +7.82254028403E+002
+2.16143572621E+007, +3.73406211580E+001, +7.89291503867E+002
+2.17811352254E+007, +3.61643251662E+001, +8.02006846707E+002
+2.19479131886E+007, +4.17833005623E+001, +8.11531161607E+002
+2.21146911519E+007, +4.27032659826E+001, +8.18295296895E+002
+2.22814691152E+007, +4.13155469180E+001, +8.29659587053E+002
+2.24482470785E+007, +4.40668808316E+001, +8.42743859047E+002
+2.26150250417E+007, +4.86936380762E+001, +8.51370041737E+002
+2.27818030050E+007, +4.63008824953E+001, +8.64814466001E+002
+2.29485809683E+007, +5.37383313351E+001, +8.74664546851E+002
+2.31153589316E+007, +4.81175233493E+001, +8.85293526302E+002
+2.32821368948E+007, +5.22844012606E+001, +8.95073862411E+002
+2.34489148581E+007, +5.38135883585E+001, +9.05108516795E+002
+2.36156928214E+007, +5.82145365074E+001, +9.19414159000E+002
+2.37824707846E+007, +5.95058270971E+001, +9.32042613578E+002
+2.39492487479E+007, +5.75637898695E+001, +9.39602887626E+002
+2.41160267112E+007, +6.38930662112E+001, +9.53700326377E+002
+2.42828046745E+007, +5.91441187516E+001, +9.61463545202E+002
+2.44495826377E+007, +6.48503725815E+001, +9.80619552158E+002
+2.46163606010E+007, +6.48072034519E+001, +9.87055131681E+002
+2.47831385643E+007, +6.87926536964E+001, +1.00161479104E+003
+2.49499165275E+007, +7.13937171587E+001, +1.01071920367E+003
+2.51166944908E+007, +7.53314379606E+001, +1.02382135274E+003
+2.52834724541E+007, +7.65539065907E+001, +1.03643342301E+003
+2.54502504174E+007, +8.00885557739E+001, +1.05495560934E+003
+2.56170283806E+007, +7.96174603225E+001, +1.06537418951E+003
+2.57838063439E+007, +7.96559389266E+001, +1.07790032723E+003
+2.59505843072E+007, +8.53371101067E+001, +1.09231914514E+003
+2.61173622705E+007, +8.76738800500E+001, +1.11066540162E+003
+2.62841402337E+007, +8.69154660870E+001, +1.12122561085E+003
+2.64509181970E+007, +8.91379138036E+001, +1.13096844387E+003
+2.66176961603E+007, +9.35993314510E+001, +1.15382801672E+003
+2.67844741235E+007, +9.40361618567E+001, +1.16832257099E+003
+2.69512520868E+007, +9.44454568119E+001, +1.18206847100E+003
+2.71180300501E+007, +9.89390712024E+001, +1.19171849080E+003
+2.72848080134E+007, +1.04346024859E+002, +1.20842708384E+003
+2.74515859766E+007, +1.06048869761E+002, +1.22823471681E+003
+2.76183639399E+007, +1.09358683064E+002, +1.23628425135E+003
+2.77851419032E+007, +1.10767169254E+002, +1.25374091788E+003
+2.79519198664E+007, +1.19266262340E+002, +1.26878816308E+003
+2.81186978297E+007, +1.17490306919E+002, +1.28954705842E+003
+2.82854757930E+007, +1.20614240725E+002, +1.30283521757E+003
+2.84522537563E+007, +1.16306837936E+002, +1.32063281679E+003
+2.86190317195E+007, +1.14429693195E+002, +1.33272001716E+003
+2.87858096828E+007, +1.31205090927E+002, +1.35213691960E+003
+2.89525876461E+007, +1.31444117912E+002, +1.36963832893E+003
+2.91193656093E+007, +1.27795161217E+002, +1.38195527781E+003
+2.92861435726E+007, +1.27101778544E+002, +1.41491435665E+003
+2.94529215359E+007, +1.37015241863E+002, +1.42643962789E+003
+2.96196994992E+007, +1.40147338780E+002, +1.45422772216E+003
+2.97864774624E+007, +1.46298412206E+002, +1.46366965740E+003
+2.99532554257E+007, +1.41537778590E+002, +1.48811081106E+003
+3.01200333890E+007, +1.49139416406E+002, +1.51734115473E+003
+3.02868113523E+007, +1.37892565981E+002, +1.53749136482E+003
+3.04535893155E+007, +1.43618525327E+002, +1.56748771208E+003
+3.06203672788E+007, +1.56842548698E+002, +1.59128501347E+003
+3.07871452421E+007, +1.49201846724E+002, +1.61283802524E+003
+3.09539232053E+007, +1.65184932974E+002, +1.63993581423E+003
+3.11207011686E+007, +1.59377257892E+002, +1.67410714461E+003
+3.12874791319E+007, +1.55286197361E+002, +1.68113485259E+003
+3.14542570952E+007, +1.63956587245E+002, +1.72408723902E+003
+3.16210350584E+007, +1.58305791915E+002, +1.77104062268E+003
+3.17878130217E+007, +1.58144271806E+002, +1.80131116933E+003
+3.19545909850E+007, +1.77224543351E+002, +1.82976406462E+003
+3.21213689482E+007, +1.71836566378E+002, +1.85902387057E+003
+3.22881469115E+007, +1.71836282019E+002, +1.87484164764E+003
+3.24549248748E+007, +1.83826628764E+002, +1.92786807173E+003
+3.26217028381E+007, +1.82135218822E+002, +1.95484021010E+003
+3.27884808013E+007, +1.78723277881E+002, +1.99380971767E+003
+3.29552587646E+007, +2.15318037661E+002, +2.01780715790E+003
+3.31220367279E+007, +2.07915464456E+002, +2.04463433063E+003
+3.32888146912E+007, +2.20133015940E+002, +2.13204107618E+003
+3.34555926544E+007, +1.98660301336E+002, +2.17015186168E+003
+3.36223706177E+007, +2.31177143711E+002, +2.19065449996E+003
+3.37891485810E+007, +2.28685263224E+002, +2.24698970967E+003
+3.39559265442E+007, +2.42298243634E+002, +2.31747078765E+003
+3.41227045075E+007, +2.72706740195E+002, +2.33806217728E+003
+3.42894824708E+007, +2.39400678807E+002, +2.41805964077E+003
+3.44562604341E+007, +2.38438772263E+002, +2.45368243507E+003
+3.46230383973E+007, +2.86301299151E+002, +2.52013294892E+003
+3.47898163606E+007, +2.85293158062E+002, +2.56015277377E+003
+3.49565943239E+007, +3.13828548487E+002, +2.62213648853E+003
+3.51233722871E+007, +3.25614815297E+002, +2.71043546125E+003
+3.52901502504E+007, +3.33610358414E+002, +2.73376633745E+003
+3.54569282137E+007, +3.36106231416E+002, +2.83851598586E+003
+3.56237061770E+007, +3.27946626785E+002, +2.89557163280E+003
+3.57904841402E+007, +3.66042370042E+002, +2.98577042912E+003
+3.59572621035E+007, +4.28113982197E+002, +3.09237358826E+003
+3.61240400668E+007, +3.98656178752E+002, +3.16095107234E+003
+3.62908180301E+007, +4.60467535639E+002, +3.27210307178E+003
+3.64575959933E+007, +4.70481697395E+002, +3.35993585837E+003
+3.66243739566E+007, +5.03449223268E+002, +3.44469110521E+003
+3.67911519199E+007, +5.68243600159E+002, +3.60956185832E+003
+3.69579298831E+007, +5.36613017054E+002, +3.71396010551E+003
+3.71247078464E+007, +6.06255980107E+002, +3.85630361112E+003
+3.72914858097E+007, +6.65740828933E+002, +4.03037978332E+003
+3.74582637730E+007, +8.19925859464E+002, +4.24720946560E+003
+3.76250417362E+007, +8.15544118146E+002, +4.27102431436E+003
+3.77918196995E+007, +7.87936750752E+002, +4.45757340129E+003
+3.79585976628E+007, +8.87119788204E+002, +4.60365948224E+003
+3.81253756260E+007, +1.06354339615E+003, +4.82383941355E+003
+3.82921535893E+007, +1.21273502871E+003, +5.02334852733E+003
+3.84589315526E+007, +1.24448139128E+003, +5.23000419934E+003
+3.86257095159E+007, +1.29441214877E+003, +5.65101112344E+003
+3.87924874791E+007, +1.53407489882E+003, +5.93069413997E+003
+3.89592654424E+007, +1.70194976094E+003, +6.10504625534E+003
+3.91260434057E+007, +2.01131487202E+003, +6.40684849012E+003
+3.92928213689E+007, +2.30172901728E+003, +6.82079337979E+003
+3.94595993322E+007, +2.49464723647E+003, +7.03560111650E+003
+3.96263772955E+007, +2.63498734251E+003, +7.74232257412E+003
+3.97931552588E+007, +2.96523442000E+003, +7.84880321654E+003
+3.99599332220E+007, +3.42148586835E+003, +8.49282097504E+003
+4.01267111853E+007, +4.43257047861E+003, +8.76005153544E+003
+4.02934891486E+007, +5.19516425655E+003, +9.74885047978E+003
+4.04602671119E+007, +5.98293587308E+003, +9.52970918265E+003
+4.06270450751E+007, +7.44028691936E+003, +1.01913670518E+004
+4.07938230384E+007, +8.44954248395E+003, +1.08669685429E+004
+4.09606010017E+007, +1.09738892304E+004, +9.76144537984E+003
+4.11273789649E+007, +1.27178171850E+004, +1.04097348309E+004
+4.12941569282E+007, +1.61714314236E+004, +9.41884881324E+003
+4.14609348915E+007, +1.88271219293E+004, +5.26292097105E+003
+4.16277128548E+007, +1.99293964546E+004, +4.20955349292E+003
+4.17944908180E+007, +2.03787732069E+004, -1.36181917585E+002
+4.19612687813E+007, +2.05795079003E+004, -3.62394035598E+003
+4.21280467446E+007, +1.81718911154E+004, -6.30595079368E+003
+4.22948247078E+007, +1.48373565801E+004, -8.94057615645E+003
+4.24616026711E+007, +1.30782307407E+004, -8.93526470105E+003
+4.26283806344E+007, +9.90301632063E+003, -8.81491515697E+003
+4.27951585977E+007, +7.97670853497E+003, -9.86002374158E+003
+4.29619365609E+007, +7.55262245645E+003, -8.27746487200E+003
+4.31287145242E+007, +6.17263457151E+003, -8.66756836716E+003
+4.32954924875E+007, +5.73692724991E+003, -8.30220993314E+003
+4.34622704508E+007, +4.89631982301E+003, -8.06925454423E+003
+4.36290484140E+007, +3.95655156739E+003, -7.46766106561E+003
+4.37958263773E+007, +3.32773103839E+003, -6.84601121833E+003
+4.39626043406E+007, +3.20139519816E+003, -6.74809575733E+003
+4.41293823038E+007, +2.64224243563E+003, -6.21448131479E+003
+4.42961602671E+007, +2.56772786978E+003, -6.01509634123E+003
+4.44629382304E+007, +2.31532547688E+003, -5.81968124583E+003
+4.46297161937E+007, +2.12241828393E+003, -5.38792532381E+003
+4.47964941569E+007, +1.82194121278E+003, -5.23968420180E+003
+4.49632721202E+007, +1.64179003267E+003, -4.99331171725E+003
+4.51300500835E+007, +1.62510436032E+003, -4.92254789605E+003
+4.52968280467E+007, +1.47093328217E+003, -4.52948770650E+003
+4.54636060100E+007, +1.26677013945E+003, -4.27685236423E+003
+4.56303839733E+007, +1.20114437492E+003, -4.11524720631E+003
+4.57971619366E+007, +1.12123369711E+003, -3.95636120048E+003
+4.59639398998E+007, +1.01525806819E+003, -3.72616978527E+003
+4.61307178631E+007, +1.02049216870E+003, -3.68635197179E+003
+4.62974958264E+007, +1.00963686864E+003, -3.47161074538E+003
+4.64642737896E+007, +9.35034192903E+002, -3.40147907783E+003
+4.66310517529E+007, +8.79574309607E+002, -3.29674122297E+003
+4.67978297162E+007, +9.10954616236E+002, -3.15436179833E+003
+4.69646076795E+007, +8.32368459362E+002, -3.03686494032E+003
+4.71313856427E+007, +8.27607178530E+002, -2.95725866908E+003
+4.72981636060E+007, +7.75566729908E+002, -2.85546794615E+003
+4.74649415693E+007, +7.17922053127E+002, -2.81607146607E+003
+4.76317195326E+007, +7.82533254552E+002, -2.70190888924E+003
+4.77984974958E+007, +7.21418985348E+002, -2.60858299332E+003
+4.79652754591E+007, +7.06850062613E+002, -2.55162637582E+003
+4.81320534224E+007, +7.07923215369E+002, -2.47683160322E+003
+4.82988313856E+007, +7.04191126914E+002, -2.40699792282E+003
+4.84656093489E+007, +6.94846160588E+002, -2.35392208279E+003
+4.86323873122E+007, +6.90655598437E+002, -2.29160759344E+003
+4.87991652755E+007, +6.65018146954E+002, -2.23064648287E+003
+4.89659432387E+007, +6.63838231164E+002, -2.18243916123E+003
+4.91327212020E+007, +6.41018638749E+002, -2.13282192605E+003
+4.92994991653E+007, +6.52748630388E+002, -2.10571397079E+003
+4.94662771285E+007, +6.33628594038E+002, -2.05761410067E+003
+4.96330550918E+007, +6.46631804016E+002, -2.01927739569E+003
+4.97998330551E+007, +6.33078636894E+002, -1.98292968133E+003
+4.99666110184E+007, +6.12959955581E+002, -1.94167741307E+003
+5.01333889816E+007, +6.12254236664E+002, -1.94778602933E+003
+5.03001669449E+007, +5.89874848179E+002, -1.90648024888E+003
+5.04669449082E+007, +5.97139169041E+002, -1.86926201584E+003
+5.06337228715E+007, +5.87442711422E+002, -1.84922528917E+003
+5.08005008347E+007, +5.71489302914E+002, -1.83241082755E+003
+5.09672787980E+007, +5.62176515511E+002, -1.80825957989E+003
+5.11340567613E+007, +5.46016894550E+002, -1.77200061024E+003
+5.13008347245E+007, +5.19253836474E+002, -1.75278328348E+003
+5.14676126878E+007, +5.16444016638E+002, -1.74153446983E+003
+5.16343906511E+007, +4.95462768070E+002, -1.70880088261E+003
+5.18011686144E+007, +4.72742552336E+002, -1.69979554543E+003
+5.19679465776E+007, +4.52466537374E+002, -1.66418610523E+003
+5.21347245409E+007, +4.33767471769E+002, -1.63552525944E+003
+5.23015025042E+007, +4.21622910051E+002, -1.58461835498E+003
+5.24682804674E+007, +3.98358286862E+002, -1.57668821127E+003
+5.26350584307E+007, +3.76690218640E+002, -1.54400418643E+003
+5.28018363940E+007, +3.49230603381E+002, -1.53130975250E+003
+5.29686143573E+007, +3.45228779030E+002, -1.48435389634E+003
+5.31353923205E+007, +3.38968983518E+002, -1.47000353491E+003
+5.33021702838E+007, +3.25738166784E+002, -1.43619483014E+003
+5.34689482471E+007, +3.20041373393E+002, -1.40545839836E+003
