"# Channel 1"
"# Trace 1"
Frequency, Formatted Data, Formatted Data
+1.00000000000E+005, +5.96472192032E+001, +2.70354758345E+000
+2.25031289111E+005, +5.94352656701E+001, +6.67181936911E+000
+3.50062578223E+005, +5.95096465509E+001, +1.04320364638E+001
+4.75093867334E+005, +5.95437253502E+001, +1.40316100702E+001
+6.00125156446E+005, +5.94862312118E+001, +1.77558335948E+001
+7.25156445557E+005, +5.95005413752E+001, +2.14397708885E+001
+8.50187734668E+005, +5.95557572541E+001, +2.51465880834E+001
+9.75219023780E+005, +5.96400564924E+001, +2.88222446246E+001
+1.10025031289E+006, +5.96682473063E+001, +3.25075191915E+001
+1.22528160200E+006, +5.96558944681E+001, +3.61759559386E+001
+1.35031289111E+006, +5.96295098684E+001, +3.97714035586E+001
+1.47534418023E+006, +5.96359686232E+001, +4.35816481464E+001
+1.60037546934E+006, +5.96212048266E+001, +4.73727082626E+001
+1.72540675845E+006, +5.97093727785E+001, +5.09276570289E+001
+1.85043804756E+006, +5.97164019730E+001, +5.45830364053E+001
+1.97546933667E+006, +5.96846207246E+001, +5.83426510071E+001
+2.10050062578E+006, +5.96734491674E+001, +6.20705332354E+001
+2.22553191489E+006, +5.97222173911E+001, +6.59418629410E+001
+2.35056320401E+006, +5.95447486796E+001, +6.96107948404E+001
+2.47559449312E+006, +5.97855289815E+001, +7.32900405662E+001
+2.60062578223E+006, +5.97255511281E+001, +7.69913991686E+001
+2.72565707134E+006, +5.95324909683E+001, +8.04563454238E+001
+2.85068836045E+006, +5.99677234369E+001, +8.45061542568E+001
+2.97571964956E+006, +5.96882550022E+001, +8.81107632046E+001
+3.10075093867E+006, +5.96426598382E+001, +9.17775645664E+001
+3.22578222778E+006, +5.97845462412E+001, +9.54868144630E+001
+3.35081351690E+006, +6.02107968750E+001, +9.92997937553E+001
+3.47584480601E+006, +5.99567030099E+001, +1.02804185409E+002
+3.60087609512E+006, +6.00803285414E+001, +1.07018232396E+002
+3.72590738423E+006, +6.00621520159E+001, +1.10556021845E+002
+3.85093867334E+006, +6.02691857810E+001, +1.14354944670E+002
+3.97596996245E+006, +6.03786219822E+001, +1.18164134421E+002
+4.10100125156E+006, +6.03391011701E+001, +1.22078071564E+002
+4.22603254068E+006, +6.02939668629E+001, +1.25425027970E+002
+4.35106382979E+006, +6.01139168788E+001, +1.29311110633E+002
+4.47609511890E+006, +6.02683172704E+001, +1.32974660687E+002
+4.60112640801E+006, +6.02764378089E+001, +1.37004962506E+002
+4.72615769712E+006, +6.05104241152E+001, +1.40741875819E+002
+4.85118898623E+006, +6.05278050585E+001, +1.44411793187E+002
+4.97622027534E+006, +6.05292733158E+001, +1.48605874182E+002
+5.10125156446E+006, +6.09014331393E+001, +1.52306742998E+002
+5.22628285357E+006, +6.12688324238E+001, +1.56012964945E+002
+5.35131414268E+006, +6.09926133819E+001, +1.59795277375E+002
+5.47634543179E+006, +6.06909076564E+001, +1.63988251609E+002
+5.60137672090E+006, +6.09794577084E+001, +1.67310752156E+002
+5.72640801001E+006, +6.07140599436E+001, +1.71618824880E+002
+5.85143929912E+006, +6.11255586783E+001, +1.75438831535E+002
+5.97647058824E+006, +6.15123002120E+001, +1.79263995419E+002
+6.10150187735E+006, +6.08862498717E+001, +1.82908683445E+002
+6.22653316646E+006, +6.14541394435E+001, +1.87156957026E+002
+6.35156445557E+006, +6.15889005254E+001, +1.90925632986E+002
+6.47659574468E+006, +6.17753413937E+001, +1.94645613435E+002
+6.60162703379E+006, +6.19290072477E+001, +1.99080747828E+002
+6.72665832290E+006, +6.22690037528E+001, +2.02675127383E+002
+6.85168961202E+006, +6.21626180219E+001, +2.06739650367E+002
+6.97672090113E+006, +6.22531920581E+001, +2.10392057114E+002
+7.10175219024E+006, +6.25774227789E+001, +2.14526387207E+002
+7.22678347935E+006, +6.24150732567E+001, +2.18569764587E+002
+7.35181476846E+006, +6.25476662759E+001, +2.22643236767E+002
+7.47684605757E+006, +6.27144698263E+001, +2.26707130979E+002
+7.60187734668E+006, +6.27320687765E+001, +2.30483413020E+002
+7.72690863579E+006, +6.27162343285E+001, +2.34917652577E+002
+7.85193992491E+006, +6.31411212584E+001, +2.38915230598E+002
+7.97697121402E+006, +6.32331272236E+001, +2.42539465659E+002
+8.10200250313E+006, +6.32308552517E+001, +2.46687856665E+002
+8.22703379224E+006, +6.32403527524E+001, +2.50879090553E+002
+8.35206508135E+006, +6.37551944843E+001, +2.55037830413E+002
+8.47709637046E+006, +6.37939854341E+001, +2.59331454754E+002
+8.60212765957E+006, +6.36391483349E+001, +2.63532102891E+002
+8.72715894869E+006, +6.40655059594E+001, +2.67502062942E+002
+8.85219023780E+006, +6.41600023969E+001, +2.71080952631E+002
+8.97722152691E+006, +6.42751890940E+001, +2.75810090798E+002
+9.10225281602E+006, +6.45639394099E+001, +2.80278126082E+002
+9.22728410513E+006, +6.44321925819E+001, +2.84327378878E+002
+9.35231539424E+006, +6.49503297009E+001, +2.88336639493E+002
+9.47734668335E+006, +6.51393665146E+001, +2.92876305117E+002
+9.60237797247E+006, +6.55988249982E+001, +2.96778693874E+002
+9.72740926158E+006, +6.52285773796E+001, +3.01087734951E+002
+9.85244055069E+006, +6.50028196844E+001, +3.04720647481E+002
+9.97747183980E+006, +6.54868913365E+001, +3.10073556446E+002
+1.01025031289E+007, +6.48625063286E+001, +3.14107334417E+002
+1.02275344180E+007, +6.52539469573E+001, +3.18657384706E+002
+1.03525657071E+007, +6.57592919435E+001, +3.22164494894E+002
+1.04775969962E+007, +6.55112440229E+001, +3.26626470934E+002
+1.06026282854E+007, +6.57737267414E+001, +3.31416400814E+002
+1.07276595745E+007, +6.59412727577E+001, +3.35086758570E+002
+1.08526908636E+007, +6.60269257983E+001, +3.39428179519E+002
+1.09777221527E+007, +6.64340389185E+001, +3.44439414167E+002
+1.11027534418E+007, +6.62775522187E+001, +3.49488759847E+002
+1.12277847309E+007, +6.69488462838E+001, +3.53088381678E+002
+1.13528160200E+007, +6.65490706906E+001, +3.57711751086E+002
+1.14778473091E+007, +6.71921738098E+001, +3.62437095520E+002
+1.16028785982E+007, +6.77703245019E+001, +3.67496933765E+002
+1.17279098874E+007, +6.74840093613E+001, +3.72118618164E+002
+1.18529411765E+007, +6.72610176990E+001, +3.76032687065E+002
+1.19779724656E+007, +6.78449491985E+001, +3.81929966187E+002
+1.21030037547E+007, +6.83927317965E+001, +3.85914453713E+002
+1.22280350438E+007, +6.88806023522E+001, +3.89977117175E+002
+1.23530663329E+007, +6.83314418986E+001, +3.94183351393E+002
+1.24780976220E+007, +6.86663327399E+001, +3.99084466825E+002
+1.26031289111E+007, +6.88857441928E+001, +4.04481139629E+002
+1.27281602003E+007, +6.87888301862E+001, +4.08468644176E+002
+1.28531914894E+007, +6.96745371859E+001, +4.13995078839E+002
+1.29782227785E+007, +6.90258591448E+001, +4.18562782834E+002
+1.31032540676E+007, +6.95431396953E+001, +4.22696220525E+002
+1.32282853567E+007, +6.99035038463E+001, +4.29246314489E+002
+1.33533166458E+007, +6.95683186085E+001, +4.34665979824E+002
+1.34783479349E+007, +7.02113647400E+001, +4.37730996873E+002
+1.36033792240E+007, +6.95918538254E+001, +4.43255748033E+002
+1.37284105131E+007, +7.13721351216E+001, +4.48937912808E+002
+1.38534418023E+007, +7.10687626656E+001, +4.53397035169E+002
+1.39784730914E+007, +7.23171887769E+001, +4.59120277842E+002
+1.41035043805E+007, +7.19779781969E+001, +4.63739840538E+002
+1.42285356696E+007, +7.07343074087E+001, +4.68704569488E+002
+1.43535669587E+007, +7.06468539102E+001, +4.74508583045E+002
+1.44785982478E+007, +7.33008016724E+001, +4.78716789670E+002
+1.46036295369E+007, +7.33730215616E+001, +4.85224085585E+002
+1.47286608260E+007, +7.25021381902E+001, +4.89512170086E+002
+1.48536921151E+007, +7.31755065575E+001, +4.94742547629E+002
+1.49787234043E+007, +7.36058032556E+001, +5.01800190386E+002
+1.51037546934E+007, +7.24684566538E+001, +5.04498636608E+002
+1.52287859825E+007, +7.48588306519E+001, +5.10152555216E+002
+1.53538172716E+007, +7.26878486322E+001, +5.16876929848E+002
+1.54788485607E+007, +7.46914866269E+001, +5.20514229124E+002
+1.56038798498E+007, +7.58586483553E+001, +5.27230927113E+002
+1.57289111389E+007, +7.41184531162E+001, +5.31685058284E+002
+1.58539424280E+007, +7.47665630335E+001, +5.37367432818E+002
+1.59789737171E+007, +7.60708053917E+001, +5.43635618626E+002
+1.61040050063E+007, +7.57496289311E+001, +5.47546841803E+002
+1.62290362954E+007, +7.69444547177E+001, +5.54696675715E+002
+1.63540675845E+007, +7.63932076594E+001, +5.59645050779E+002
+1.64790988736E+007, +7.57529336791E+001, +5.66631356899E+002
+1.66041301627E+007, +7.95148300078E+001, +5.72696680360E+002
+1.67291614518E+007, +7.67686819546E+001, +5.76240593342E+002
+1.68541927409E+007, +7.82918439639E+001, +5.83503648093E+002
+1.69792240300E+007, +7.95639848471E+001, +5.88223856623E+002
+1.71042553191E+007, +7.61517911857E+001, +5.95898566559E+002
+1.72292866083E+007, +7.82936742164E+001, +6.01232527688E+002
+1.73543178974E+007, +7.86014165873E+001, +6.08729397158E+002
+1.74793491865E+007, +7.98973328184E+001, +6.14293860614E+002
+1.76043804756E+007, +8.12938458443E+001, +6.19490083786E+002
+1.77294117647E+007, +8.14874102538E+001, +6.26384108826E+002
+1.78544430538E+007, +7.98719299464E+001, +6.31079511302E+002
+1.79794743429E+007, +8.03710072778E+001, +6.38403721978E+002
+1.81045056320E+007, +8.09368921179E+001, +6.44445703270E+002
+1.82295369212E+007, +8.36353786159E+001, +6.51366560209E+002
+1.83545682103E+007, +8.07082233965E+001, +6.57776456079E+002
+1.84795994994E+007, +8.26732341356E+001, +6.65433971478E+002
+1.86046307885E+007, +8.46472302028E+001, +6.70198728133E+002
+1.87296620776E+007, +8.41965527369E+001, +6.76909765324E+002
+1.88546933667E+007, +8.25030201874E+001, +6.82536686734E+002
+1.89797246558E+007, +8.53377940597E+001, +6.90362833716E+002
+1.91047559449E+007, +8.70856919081E+001, +6.97997781738E+002
+1.92297872340E+007, +8.83730572490E+001, +7.08117118608E+002
+1.93548185232E+007, +8.64350777045E+001, +7.12091408091E+002
+1.94798498123E+007, +8.80080140743E+001, +7.17724973375E+002
+1.96048811014E+007, +8.57402857571E+001, +7.28802775630E+002
+1.97299123905E+007, +9.20859272077E+001, +7.32225186447E+002
+1.98549436796E+007, +9.24397078206E+001, +7.37846668589E+002
+1.99799749687E+007, +9.28667097977E+001, +7.45983462810E+002
+2.01050062578E+007, +8.98968499934E+001, +7.54777749483E+002
+2.02300375469E+007, +8.95883947199E+001, +7.59827740776E+002
+2.03550688360E+007, +9.16449934785E+001, +7.65911953291E+002
+2.04801001252E+007, +9.09372029780E+001, +7.77578287622E+002
+2.06051314143E+007, +9.38471991383E+001, +7.82484384630E+002
+2.07301627034E+007, +9.36986874306E+001, +7.91967396651E+002
+2.08551939925E+007, +9.60424758814E+001, +8.00649341145E+002
+2.09802252816E+007, +9.45137478055E+001, +8.07505947724E+002
+2.11052565707E+007, +9.60191405865E+001, +8.15904239747E+002
+2.12302878598E+007, +9.61341082809E+001, +8.25085222968E+002
+2.13553191489E+007, +9.63523461566E+001, +8.30941149966E+002
+2.14803504380E+007, +1.00859447582E+002, +8.38247595510E+002
+2.16053817272E+007, +1.00973427952E+002, +8.50834029577E+002
+2.17304130163E+007, +1.01132794546E+002, +8.57078216762E+002
+2.18554443054E+007, +1.03238232833E+002, +8.66499183682E+002
+2.19804755945E+007, +1.03159828721E+002, +8.76588891875E+002
+2.21055068836E+007, +1.07154897394E+002, +8.83368033848E+002
+2.22305381727E+007, +1.05104443879E+002, +8.90166433998E+002
+2.23555694618E+007, +1.08519558361E+002, +9.01296782900E+002
+2.24806007509E+007, +1.11788850845E+002, +9.10362504338E+002
+2.26056320401E+007, +1.09582718151E+002, +9.18801903612E+002
+2.27306633292E+007, +1.12034243235E+002, +9.23603498469E+002
+2.28556946183E+007, +1.11668649557E+002, +9.34394089817E+002
+2.29807259074E+007, +1.17037479838E+002, +9.41968755835E+002
+2.31057571965E+007, +1.13075278512E+002, +9.51115212806E+002
+2.32307884856E+007, +1.20655743939E+002, +9.65197795046E+002
+2.33558197747E+007, +1.22927534739E+002, +9.67749622323E+002
+2.34808510638E+007, +1.27892344024E+002, +9.80648375579E+002
+2.36058823529E+007, +1.26833523515E+002, +9.86924132275E+002
+2.37309136421E+007, +1.29175043743E+002, +9.97207393347E+002
+2.38559449312E+007, +1.31107858329E+002, +1.00478919413E+003
+2.39809762203E+007, +1.28410624366E+002, +1.01570962459E+003
+2.41060075094E+007, +1.33513598862E+002, +1.02148033922E+003
+2.42310387985E+007, +1.33537427012E+002, +1.03142904098E+003
+2.43560700876E+007, +1.36272449569E+002, +1.03875355799E+003
+2.44811013767E+007, +1.33260635048E+002, +1.04814318976E+003
+2.46061326658E+007, +1.34498209616E+002, +1.06221061717E+003
+2.47311639549E+007, +1.41220747790E+002, +1.07120527048E+003
+2.48561952441E+007, +1.38080499741E+002, +1.07821455254E+003
+2.49812265332E+007, +1.40862853348E+002, +1.09161595436E+003
+2.51062578223E+007, +1.41331558280E+002, +1.10445359380E+003
+2.52312891114E+007, +1.39852363481E+002, +1.11102801015E+003
+2.53563204005E+007, +1.37208586983E+002, +1.12304063699E+003
+2.54813516896E+007, +1.41122395766E+002, +1.13293081743E+003
+2.56063829787E+007, +1.46160493736E+002, +1.15744644140E+003
+2.57314142678E+007, +1.50926334553E+002, +1.16010557816E+003
+2.58564455569E+007, +1.39809020675E+002, +1.17660114830E+003
+2.59814768461E+007, +1.45753068980E+002, +1.18188306313E+003
+2.61065081352E+007, +1.37923452089E+002, +1.20103545252E+003
+2.62315394243E+007, +1.53258535551E+002, +1.20661711384E+003
+2.63565707134E+007, +1.47191599358E+002, +1.23114814669E+003
+2.64816020025E+007, +1.47197616608E+002, +1.23455750573E+003
+2.66066332916E+007, +1.61238730456E+002, +1.25281422530E+003
+2.67316645807E+007, +1.53273922151E+002, +1.26061241504E+003
+2.68566958698E+007, +1.56224395822E+002, +1.27856608631E+003
+2.69817271589E+007, +1.55895870159E+002, +1.29708165840E+003
+2.71067584481E+007, +1.60847024951E+002, +1.30610677873E+003
+2.72317897372E+007, +1.74070405365E+002, +1.32886278977E+003
+2.73568210263E+007, +1.65223029824E+002, +1.32764516566E+003
+2.74818523154E+007, +1.66542074870E+002, +1.34581941889E+003
+2.76068836045E+007, +1.73147491597E+002, +1.35543740454E+003
+2.77319148936E+007, +1.76526181686E+002, +1.37868161344E+003
+2.78569461827E+007, +1.73805588906E+002, +1.39180179657E+003
+2.79819774718E+007, +1.80993655516E+002, +1.40466306348E+003
+2.81070087610E+007, +1.81112044190E+002, +1.41387209429E+003
+2.82320400501E+007, +1.76262660485E+002, +1.43207538271E+003
+2.83570713392E+007, +1.80308607298E+002, +1.45373177230E+003
+2.84821026283E+007, +1.81335468875E+002, +1.46635434683E+003
+2.86071339174E+007, +1.77645275338E+002, +1.48921418929E+003
+2.87321652065E+007, +1.83492178223E+002, +1.51117173685E+003
+2.88571964956E+007, +1.85241107941E+002, +1.53600860719E+003
+2.89822277847E+007, +1.90931773870E+002, +1.54983182744E+003
+2.91072590738E+007, +1.98645322328E+002, +1.56630224298E+003
+2.92322903630E+007, +1.93719182795E+002, +1.58233802378E+003
+2.93573216521E+007, +2.15782216919E+002, +1.60760232988E+003
+2.94823529412E+007, +1.88646618770E+002, +1.62710749650E+003
+2.96073842303E+007, +2.01106841718E+002, +1.64302326222E+003
+2.97324155194E+007, +2.16954602593E+002, +1.67781995512E+003
+2.98574468085E+007, +2.11749970032E+002, +1.68578254704E+003
+2.99824780976E+007, +2.19170872816E+002, +1.71152339134E+003
+3.01075093867E+007, +2.21499474394E+002, +1.73489694436E+003
+3.02325406758E+007, +2.32097709176E+002, +1.76084605178E+003
+3.03575719650E+007, +2.37466500231E+002, +1.78986395714E+003
+3.04826032541E+007, +2.33157843284E+002, +1.79429091901E+003
+3.06076345432E+007, +2.47635898707E+002, +1.82506648645E+003
+3.07326658323E+007, +2.52603936506E+002, +1.84854376716E+003
+3.08576971214E+007, +2.47206105904E+002, +1.87296701468E+003
+3.09827284105E+007, +2.60018631947E+002, +1.89348597527E+003
+3.11077596996E+007, +2.63999856598E+002, +1.93704792939E+003
+3.12327909887E+007, +2.63124833934E+002, +1.94581685428E+003
+3.13578222778E+007, +2.55016309633E+002, +1.99841647622E+003
+3.14828535670E+007, +2.74287569585E+002, +1.99763848908E+003
+3.16078848561E+007, +2.85249574298E+002, +2.03008081794E+003
+3.17329161452E+007, +2.68307273875E+002, +2.06799608099E+003
+3.18579474343E+007, +2.95076792897E+002, +2.08877116853E+003
+3.19829787234E+007, +3.00822458860E+002, +2.11878498739E+003
+3.21080100125E+007, +3.15417016861E+002, +2.16531324748E+003
+3.22330413016E+007, +3.14110870746E+002, +2.19617843365E+003
+3.23580725907E+007, +3.28061459177E+002, +2.23336164489E+003
+3.24831038798E+007, +3.23034420292E+002, +2.26407079950E+003
+3.26081351690E+007, +3.31061158173E+002, +2.29943442545E+003
+3.27331664581E+007, +3.57445198141E+002, +2.33647982692E+003
+3.28581977472E+007, +3.85508673114E+002, +2.36022799439E+003
+3.29832290363E+007, +3.54315764695E+002, +2.38546002531E+003
+3.31082603254E+007, +4.05428771159E+002, +2.45160892136E+003
+3.32332916145E+007, +4.30750620570E+002, +2.47900917969E+003
+3.33583229036E+007, +4.17118677351E+002, +2.53875888568E+003
+3.34833541927E+007, +4.23014328484E+002, +2.59938480209E+003
+3.36083854819E+007, +4.48775515195E+002, +2.64750709221E+003
+3.37334167710E+007, +4.23612471340E+002, +2.66803555425E+003
+3.38584480601E+007, +4.46901726374E+002, +2.72858626469E+003
+3.39834793492E+007, +4.71102072495E+002, +2.77162916105E+003
+3.41085106383E+007, +5.03439559410E+002, +2.78501408738E+003
+3.42335419274E+007, +4.97000951661E+002, +2.89781309748E+003
+3.43585732165E+007, +5.23415815744E+002, +2.93382398521E+003
+3.44836045056E+007, +5.62917736173E+002, +2.93685919213E+003
+3.46086357947E+007, +5.93089639708E+002, +2.99535787441E+003
+3.47336670839E+007, +6.07646661440E+002, +3.07882905581E+003
+3.48586983730E+007, +6.19508854596E+002, +3.16650314053E+003
+3.49837296621E+007, +6.63309933331E+002, +3.23716641209E+003
+3.51087609512E+007, +6.58285991421E+002, +3.24665905623E+003
+3.52337922403E+007, +7.07587855986E+002, +3.36057142682E+003
+3.53588235294E+007, +6.68223434649E+002, +3.40829490353E+003
+3.54838548185E+007, +8.00399817472E+002, +3.46982377851E+003
+3.56088861076E+007, +7.46242781211E+002, +3.54052291075E+003
+3.57339173967E+007, +7.58896882365E+002, +3.61715283068E+003
+3.58589486859E+007, +8.63905346311E+002, +3.72412506533E+003
+3.59839799750E+007, +8.71326384443E+002, +3.82619191623E+003
+3.61090112641E+007, +9.62138372730E+002, +3.92345911225E+003
+3.62340425532E+007, +1.01784786207E+003, +4.03755272548E+003
+3.63590738423E+007, +9.99299573375E+002, +4.09805693831E+003
+3.64841051314E+007, +1.05167721791E+003, +4.21002638845E+003
+3.66091364205E+007, +1.12600507906E+003, +4.36805921499E+003
+3.67341677096E+007, +1.26274652825E+003, +4.38873545269E+003
+3.68591989987E+007, +1.27524858182E+003, +4.63105279288E+003
+3.69842302879E+007, +1.29221933781E+003, +4.80931244508E+003
+3.71092615770E+007, +1.33452999734E+003, +4.83906240892E+003
+3.72342928661E+007, +1.37271729440E+003, +5.04119536373E+003
+3.73593241552E+007, +1.52226308410E+003, +5.23183033233E+003
+3.74843554443E+007, +1.61464535263E+003, +5.24938333352E+003
+3.76093867334E+007, +1.80317370910E+003, +5.46964594873E+003
+3.77344180225E+007, +1.83850237351E+003, +5.54551830472E+003
+3.78594493116E+007, +1.91968856299E+003, +5.86390551871E+003
+3.79844806008E+007, +2.22240782474E+003, +6.03091005382E+003
+3.81095118899E+007, +2.34646543069E+003, +6.51117835457E+003
+3.82345431790E+007, +2.59090047416E+003, +6.32638627666E+003
+3.83595744681E+007, +2.84077848222E+003, +6.63067996157E+003
+3.84846057572E+007, +3.07701600317E+003, +6.98107316468E+003
+3.86096370463E+007, +3.16078376187E+003, +7.37304530501E+003
+3.87346683354E+007, +3.74331066628E+003, +7.66941156819E+003
+3.88596996245E+007, +3.83207975139E+003, +7.75095891162E+003
+3.89847309136E+007, +4.38314507412E+003, +7.90423292429E+003
+3.91097622028E+007, +5.13494339109E+003, +8.48732615167E+003
+3.92347934919E+007, +5.80594716650E+003, +8.55853119439E+003
+3.93598247810E+007, +6.04744041797E+003, +9.00981725302E+003
+3.94848560701E+007, +7.30226291008E+003, +9.27552949035E+003
+3.96098873592E+007, +7.35209126911E+003, +9.18577791440E+003
+3.97349186483E+007, +8.54354327278E+003, +9.08756547064E+003
+3.98599499374E+007, +1.00336370396E+004, +8.66924297549E+003
+3.99849812265E+007, +1.12837549118E+004, +8.98399110769E+003
+4.01100125156E+007, +1.21122766962E+004, +7.74387093098E+003
