"# Channel 1"
"# Trace 1"
Frequency, Formatted Data, Formatted Data
+1.00000000000E+005, +9.81971501376E-001, +3.01499421663E+000
+2.66777963272E+005, +9.58370334832E-001, +8.02905328521E+000
+4.33555926544E+005, +9.99743414651E-001, +1.30444116937E+001
+6.00333889816E+005, +1.07514824254E+000, +1.79974977857E+001
+7.67111853088E+005, +1.12227549137E+000, +2.30156901102E+001
+9.33889816361E+005, +1.19944695424E+000, +2.79392515205E+001
+1.10066777963E+006, +1.14900097965E+000, +3.29526121254E+001
+1.26744574290E+006, +1.26919698522E+000, +3.78403706073E+001
+1.43422370618E+006, +1.25358995299E+000, +4.28922041045E+001
+1.60100166945E+006, +1.39786349504E+000, +4.77087279106E+001
+1.76777963272E+006, +1.40902496356E+000, +5.26480457402E+001
+1.93455759599E+006, +1.40905930206E+000, +5.74488734772E+001
+2.10133555927E+006, +1.50658324247E+000, +6.23999923404E+001
+2.26811352254E+006, +1.57616063148E+000, +6.73413344750E+001
+2.43489148581E+006, +1.48205606221E+000, +7.23920979636E+001
+2.60166944908E+006, +1.60428283066E+000, +7.72142560058E+001
+2.76844741235E+006, +1.46023053110E+000, +8.22937870911E+001
+2.93522537563E+006, +1.59061174360E+000, +8.71818975150E+001
+3.10200333890E+006, +1.63864607505E+000, +9.19020605619E+001
+3.26878130217E+006, +1.42722741495E+000, +9.72106767935E+001
+3.43555926544E+006, +1.62158771035E+000, +1.02013027646E+002
+3.60233722871E+006, +1.72067411070E+000, +1.07118862535E+002
+3.76911519199E+006, +1.54268701937E+000, +1.12201486476E+002
+3.93589315526E+006, +1.43403330512E+000, +1.16922109188E+002
+4.10267111853E+006, +1.62994430664E+000, +1.22223738125E+002
+4.26944908180E+006, +1.65572500313E+000, +1.27444180824E+002
+4.43622704508E+006, +1.53382645281E+000, +1.32063916285E+002
+4.60300500835E+006, +1.83296061281E+000, +1.37310308935E+002
+4.76978297162E+006, +1.50474170799E+000, +1.42045783109E+002
+4.93656093489E+006, +1.84589395715E+000, +1.47257771062E+002
+5.10333889816E+006, +1.75514238588E+000, +1.52398029396E+002
+5.27011686144E+006, +2.21054844635E+000, +1.57685753086E+002
+5.43689482471E+006, +1.70914271733E+000, +1.62666158792E+002
+5.60367278798E+006, +1.93277142658E+000, +1.68045278293E+002
+5.77045075125E+006, +1.93663452531E+000, +1.72888106627E+002
+5.93722871452E+006, +2.27960633229E+000, +1.77952517925E+002
+6.10400667780E+006, +2.15248187107E+000, +1.83455069822E+002
+6.27078464107E+006, +2.44312706834E+000, +1.88317151059E+002
+6.43756260434E+006, +2.52362572241E+000, +1.93680778605E+002
+6.60434056761E+006, +2.77003950882E+000, +1.98627354936E+002
+6.77111853088E+006, +2.86390257013E+000, +2.03814182863E+002
+6.93789649416E+006, +2.87907752161E+000, +2.08978716957E+002
+7.10467445743E+006, +2.53439560738E+000, +2.14167240410E+002
+7.27145242070E+006, +2.81746656762E+000, +2.19220424750E+002
+7.43823038397E+006, +3.08994253386E+000, +2.24231386788E+002
+7.60500834725E+006, +3.07282261760E+000, +2.29882023256E+002
+7.77178631052E+006, +3.16343387717E+000, +2.35334103305E+002
+7.93856427379E+006, +2.93163494826E+000, +2.40056980881E+002
+8.10534223706E+006, +3.09947110564E+000, +2.45752367632E+002
+8.27212020033E+006, +3.14453632740E+000, +2.51233012901E+002
+8.43889816361E+006, +2.79526927705E+000, +2.56699918813E+002
+8.60567612688E+006, +2.82320400157E+000, +2.62046690909E+002
+8.77245409015E+006, +2.57587383900E+000, +2.67063397307E+002
+8.93923205342E+006, +2.88293675594E+000, +2.72813960220E+002
+9.10601001669E+006, +2.51126368797E+000, +2.78398245175E+002
+9.27278797997E+006, +2.55573700605E+000, +2.83730553650E+002
+9.43956594324E+006, +2.38892030204E+000, +2.89132103217E+002
+9.60634390651E+006, +2.36981858054E+000, +2.94690917685E+002
+9.77312186978E+006, +2.21728310881E+000, +3.00140937145E+002
+9.93989983306E+006, +2.57315509006E+000, +3.06267637031E+002
+1.01066777963E+007, +2.07979451434E+000, +3.11081832590E+002
+1.02734557596E+007, +2.16768163320E+000, +3.17154341993E+002
+1.04402337229E+007, +1.58287830885E+000, +3.22643038156E+002
+1.06070116861E+007, +1.94492396750E+000, +3.28785119018E+002
+1.07737896494E+007, +1.91004484637E+000, +3.34209889852E+002
+1.09405676127E+007, +2.23660135313E+000, +3.40483810168E+002
+1.11073455760E+007, +2.15286306335E+000, +3.46127035728E+002
+1.12741235392E+007, +1.75220447512E+000, +3.51727226786E+002
+1.14409015025E+007, +2.13245523269E+000, +3.57827491697E+002
+1.16076794658E+007, +2.36692275544E+000, +3.63567077634E+002
+1.17744574290E+007, +2.13047848712E+000, +3.70406988821E+002
+1.19412353923E+007, +2.06473235134E+000, +3.76149899683E+002
+1.21080133556E+007, +1.00866710903E+000, +3.82029262060E+002
+1.22747913189E+007, +1.90996963740E+000, +3.88120500996E+002
+1.24415692821E+007, +1.71956539344E+000, +3.93879218784E+002
+1.26083472454E+007, +1.81381463078E+000, +4.00780153676E+002
+1.27751252087E+007, +1.79000724625E+000, +4.06402327332E+002
+1.29419031720E+007, +9.39367882357E-001, +4.13032379018E+002
+1.31086811352E+007, +1.91319055948E+000, +4.19263306396E+002
+1.32754590985E+007, +1.34619611939E+000, +4.24828356975E+002
+1.34422370618E+007, +1.01692456177E+000, +4.31604586207E+002
+1.36090150250E+007, +2.33965161136E+000, +4.37960037443E+002
+1.37757929883E+007, +1.53770232123E+000, +4.44804265984E+002
+1.39425709516E+007, +1.89957504039E+000, +4.51260838450E+002
+1.41093489149E+007, +1.37713722977E+000, +4.57389732302E+002
+1.42761268781E+007, +2.96695098966E+000, +4.64703909547E+002
+1.44429048414E+007, +2.08742596974E+000, +4.70430281807E+002
+1.46096828047E+007, +1.68182342256E+000, +4.77797677424E+002
+1.47764607679E+007, +2.12914987411E+000, +4.83256457147E+002
+1.49432387312E+007, +1.45733192716E+000, +4.90245452765E+002
+1.51100166945E+007, +2.17622268461E+000, +4.96680039467E+002
+1.52767946578E+007, +2.24408033931E+000, +5.02955009384E+002
+1.54435726210E+007, +1.95095371265E+000, +5.11455302653E+002
+1.56103505843E+007, +3.14742505780E+000, +5.18703164035E+002
+1.57771285476E+007, +2.43530316012E+000, +5.23869991980E+002
+1.59439065109E+007, +9.71196068809E-001, +5.32026618150E+002
+1.61106844741E+007, +1.69256297743E+000, +5.39159137954E+002
+1.62774624374E+007, +1.29322943556E+000, +5.45575493591E+002
+1.64442404007E+007, +9.57743443219E-001, +5.52689312115E+002
+1.66110183639E+007, +2.56468766641E+000, +5.60841469873E+002
+1.67777963272E+007, +2.29574935447E+000, +5.69856315718E+002
+1.69445742905E+007, +3.72470587872E+000, +5.75215758064E+002
+1.71113522538E+007, -2.08617055062E+000, +5.82444836269E+002
+1.72781302170E+007, +1.33944085437E-001, +5.91377226175E+002
+1.74449081803E+007, -7.60215629758E-001, +5.97264077145E+002
+1.76116861436E+007, +1.81036374251E+000, +6.06303607583E+002
+1.77784641068E+007, -1.16153172277E+000, +6.13298513273E+002
+1.79452420701E+007, +1.23767858470E+000, +6.20014420831E+002
+1.81120200334E+007, +1.85393498385E+000, +6.28602021765E+002
+1.82787979967E+007, +2.19746451865E+000, +6.38441223065E+002
+1.84455759599E+007, +3.59287209996E+000, +6.46542321537E+002
+1.86123539232E+007, +3.71907560747E+000, +6.53969839343E+002
+1.87791318865E+007, +2.18713999105E+000, +6.62891114034E+002
+1.89459098497E+007, +2.10493415412E+000, +6.72294896329E+002
+1.91126878130E+007, +2.92442785841E+000, +6.78650632351E+002
+1.92794657763E+007, +1.85219563615E+000, +6.89035370977E+002
+1.94462437396E+007, +1.80011348208E+000, +6.96900256482E+002
+1.96130217028E+007, +2.83593007877E+000, +7.06203730297E+002
+1.97797996661E+007, +3.24416787355E+000, +7.11615838659E+002
+1.99465776294E+007, +5.37676823378E-002, +7.19855782201E+002
+2.01133555927E+007, +3.06852046120E+000, +7.31594784917E+002
+2.02801335559E+007, +3.43157359572E+000, +7.42111700306E+002
+2.04469115192E+007, +4.57463792371E+000, +7.52296197457E+002
+2.06136894825E+007, +4.43350998942E+000, +7.61066160047E+002
+2.07804674457E+007, +4.72552167634E+000, +7.72990172905E+002
+2.09472454090E+007, +3.02777914119E+000, +7.81647276138E+002
+2.11140233723E+007, +4.01111719101E+000, +7.91168854384E+002
+2.12808013356E+007, +5.26987438807E+000, +7.98572826387E+002
+2.14475792988E+007, +6.42280772981E+000, +8.10848484751E+002
+2.16143572621E+007, +6.93123622825E+000, +8.18704742475E+002
+2.17811352254E+007, +7.36565299548E+000, +8.25311224814E+002
+2.19479131886E+007, +9.19325373694E+000, +8.40258667436E+002
+2.21146911519E+007, +1.12386950673E+001, +8.43781539042E+002
+2.22814691152E+007, +9.21011919181E+000, +8.60207975898E+002
+2.24482470785E+007, +1.14979735962E+001, +8.74235350109E+002
+2.26150250417E+007, +1.59373580242E+001, +8.82833183145E+002
+2.27818030050E+007, +1.25447667569E+001, +8.95480621383E+002
+2.29485809683E+007, +2.09346356261E+001, +9.03441371865E+002
+2.31153589316E+007, +1.45062973573E+001, +9.18198997163E+002
+2.32821368948E+007, +1.84773052040E+001, +9.26421753358E+002
+2.34489148581E+007, +1.53737944258E+001, +9.35015334667E+002
+2.36156928214E+007, +2.27690332248E+001, +9.49980586448E+002
+2.37824707846E+007, +1.87486567144E+001, +9.56549150288E+002
+2.39492487479E+007, +1.71727864706E+001, +9.68626155181E+002
+2.41160267112E+007, +2.04418803763E+001, +9.84744730512E+002
+2.42828046745E+007, +2.28823868056E+001, +9.91592866859E+002
+2.44495826377E+007, +2.41433891543E+001, +1.01021288353E+003
+2.46163606010E+007, +2.65021863174E+001, +1.01865524855E+003
+2.47831385643E+007, +2.26402003861E+001, +1.03326934342E+003
+2.49499165275E+007, +2.99506052138E+001, +1.04516854904E+003
+2.51166944908E+007, +3.03603507818E+001, +1.05477848875E+003
+2.52834724541E+007, +3.28778601863E+001, +1.07283749410E+003
+2.54502504174E+007, +3.06036727878E+001, +1.08801982177E+003
+2.56170283806E+007, +3.15094905934E+001, +1.10090069171E+003
+2.57838063439E+007, +3.32752281408E+001, +1.11542329914E+003
+2.59505843072E+007, +3.63494538047E+001, +1.12933485021E+003
+2.61173622705E+007, +3.81914133754E+001, +1.13949252590E+003
+2.62841402337E+007, +3.73244019209E+001, +1.15588012448E+003
+2.64509181970E+007, +3.32535946165E+001, +1.17347654384E+003
+2.66176961603E+007, +4.13207930650E+001, +1.18545999165E+003
+2.67844741235E+007, +4.21914236970E+001, +1.20077284812E+003
+2.69512520868E+007, +4.06930846458E+001, +1.22007085775E+003
+2.71180300501E+007, +4.71856589477E+001, +1.22330280025E+003
+2.72848080134E+007, +4.80980286621E+001, +1.25287435651E+003
+2.74515859766E+007, +5.19533853976E+001, +1.26518952710E+003
+2.76183639399E+007, +4.34834994851E+001, +1.27688337974E+003
+2.77851419032E+007, +4.77883103845E+001, +1.29484772352E+003
+2.79519198664E+007, +5.52975910091E+001, +1.31316722626E+003
+2.81186978297E+007, +5.90328621566E+001, +1.32736246909E+003
+2.82854757930E+007, +5.39079866736E+001, +1.34877377802E+003
+2.84522537563E+007, +4.56820501343E+001, +1.37464004915E+003
+2.86190317195E+007, +5.14678280037E+001, +1.38365615315E+003
+2.87858096828E+007, +6.86042535411E+001, +1.41006648857E+003
+2.89525876461E+007, +6.46717305168E+001, +1.41922018347E+003
+2.91193656093E+007, +5.21751415624E+001, +1.43139758865E+003
+2.92861435726E+007, +6.42192708257E+001, +1.45059378231E+003
+2.94529215359E+007, +7.52556103019E+001, +1.47950152831E+003
+2.96196994992E+007, +7.37203103566E+001, +1.50585754619E+003
+2.97864774624E+007, +7.87052198670E+001, +1.51826531836E+003
+2.99532554257E+007, +8.80353174508E+001, +1.55240186388E+003
+3.01200333890E+007, +7.69772547614E+001, +1.56085401128E+003
+3.02868113523E+007, +7.56889042413E+001, +1.58892057955E+003
+3.04535893155E+007, +7.99122380194E+001, +1.62515852382E+003
+3.06203672788E+007, +8.98680784138E+001, +1.64048848101E+003
+3.07871452421E+007, +8.31458065242E+001, +1.65530626123E+003
+3.09539232053E+007, +9.25400209709E+001, +1.69085823213E+003
+3.11207011686E+007, +8.75829293307E+001, +1.73506110891E+003
+3.12874791319E+007, +1.02100418302E+002, +1.73911100122E+003
+3.14542570952E+007, +9.33604236562E+001, +1.77147681590E+003
+3.16210350584E+007, +9.97188047171E+001, +1.80057288028E+003
+3.17878130217E+007, +9.51961569059E+001, +1.81963571826E+003
+3.19545909850E+007, +1.17122604668E+002, +1.85839196771E+003
+3.21213689482E+007, +1.01880702064E+002, +1.89079334154E+003
+3.22881469115E+007, +9.08235232616E+001, +1.90980047898E+003
+3.24549248748E+007, +1.10982806924E+002, +1.95737363786E+003
+3.26217028381E+007, +9.71093057608E+001, +1.99083496173E+003
+3.27884808013E+007, +1.19161163748E+002, +2.02022342140E+003
+3.29552587646E+007, +1.23020793847E+002, +2.03579928074E+003
+3.31220367279E+007, +1.24336077142E+002, +2.07448153082E+003
+3.32888146912E+007, +1.17909747086E+002, +2.12893898152E+003
+3.34555926544E+007, +1.27242941297E+002, +2.15427791676E+003
+3.36223706177E+007, +1.50337550469E+002, +2.18736514473E+003
+3.37891485810E+007, +1.19902103161E+002, +2.22813574358E+003
+3.39559265442E+007, +1.42891061281E+002, +2.28278336555E+003
+3.41227045075E+007, +1.39589605680E+002, +2.32384877221E+003
+3.42894824708E+007, +1.63690022013E+002, +2.37248439332E+003
+3.44562604341E+007, +1.64901163583E+002, +2.41024549992E+003
+3.46230383973E+007, +1.64990958555E+002, +2.47847999701E+003
+3.47898163606E+007, +1.49697440254E+002, +2.51592521834E+003
+3.49565943239E+007, +2.04570326528E+002, +2.58457503688E+003
+3.51233722871E+007, +1.99341848029E+002, +2.62220756894E+003
+3.52901502504E+007, +2.00551068315E+002, +2.69644775826E+003
+3.54569282137E+007, +2.19164111173E+002, +2.75646761381E+003
+3.56237061770E+007, +1.82982849613E+002, +2.81109540487E+003
+3.57904841402E+007, +2.15881933421E+002, +2.90140458938E+003
+3.59572621035E+007, +2.39090982649E+002, +2.96120762469E+003
+3.61240400668E+007, +2.68351974144E+002, +3.03068256607E+003
+3.62908180301E+007, +2.52212282387E+002, +3.17732840350E+003
+3.64575959933E+007, +2.29035115287E+002, +3.21612979414E+003
+3.66243739566E+007, +3.12768458074E+002, +3.28753771804E+003
+3.67911519199E+007, +3.47288032908E+002, +3.38055350231E+003
+3.69579298831E+007, +3.13070904302E+002, +3.46082809439E+003
+3.71247078464E+007, +3.43943686775E+002, +3.56633427467E+003
+3.72914858097E+007, +3.93613590024E+002, +3.77467165687E+003
+3.74582637730E+007, +3.85891303155E+002, +3.92654692721E+003
+3.76250417362E+007, +3.94684343861E+002, +3.98985924508E+003
+3.77918196995E+007, +4.15306403662E+002, +4.04623784477E+003
+3.79585976628E+007, +4.69488035940E+002, +4.20284936411E+003
+3.81253756260E+007, +5.16921561669E+002, +4.42534422195E+003
+3.82921535893E+007, +5.48641401178E+002, +4.52567341058E+003
+3.84589315526E+007, +6.42381711931E+002, +4.70316249992E+003
+3.86257095159E+007, +5.70257472335E+002, +4.91983889503E+003
+3.87924874791E+007, +5.64136245515E+002, +5.21754684855E+003
+3.89592654424E+007, +7.97724822892E+002, +5.35970662999E+003
+3.91260434057E+007, +8.61801540295E+002, +5.62642375427E+003
+3.92928213689E+007, +9.36124938816E+002, +5.92610937336E+003
+3.94595993322E+007, +1.03282693445E+003, +6.41286702388E+003
+3.96263772955E+007, +1.17769353818E+003, +6.57057894248E+003
+3.97931552588E+007, +1.33071351170E+003, +6.98443538720E+003
+3.99599332220E+007, +1.42343214489E+003, +7.16859518193E+003
+4.01267111853E+007, +1.78813784194E+003, +7.63718649919E+003
+4.02934891486E+007, +1.81302898142E+003, +8.09992279800E+003
+4.04602671119E+007, +2.30769916297E+003, +8.31155129182E+003
+4.06270450751E+007, +2.94316638481E+003, +9.30665518023E+003
+4.07938230384E+007, +3.34148893413E+003, +9.98549083610E+003
+4.09606010017E+007, +4.06535077801E+003, +1.06011152066E+004
+4.11273789649E+007, +4.78870115219E+003, +1.10816067633E+004
+4.12941569282E+007, +6.42405059145E+003, +1.26587332404E+004
+4.14609348915E+007, +8.39692260977E+003, +1.36916208525E+004
+4.16277128548E+007, +9.18504954125E+003, +1.26576002921E+004
+4.17944908180E+007, +1.04883451366E+004, +1.48624764294E+004
+4.19612687813E+007, +1.63448976565E+004, +1.53758910536E+004
+4.21280467446E+007, +1.84461427988E+004, +1.39218459637E+004
+4.22948247078E+007, +2.45285265024E+004, +1.17841007277E+004
+4.24616026711E+007, +2.50128041452E+004, +7.07155139052E+003
+4.26283806344E+007, +2.54992497005E+004, +1.30938872943E+003
+4.27951585977E+007, +2.85434380107E+004, -8.65620096340E+003
+4.29619365609E+007, +2.19438542538E+004, -9.37751206852E+003
+4.31287145242E+007, +1.81058595983E+004, -1.25483571688E+004
+4.32954924875E+007, +1.52681852217E+004, -1.34017735487E+004
+4.34622704508E+007, +1.10747729688E+004, -1.37099948631E+004
+4.36290484140E+007, +9.40125340661E+003, -1.20387034460E+004
+4.37958263773E+007, +7.34875627969E+003, -1.20765369409E+004
+4.39626043406E+007, +6.88132208182E+003, -1.05191315050E+004
+4.41293823038E+007, +5.17447966398E+003, -9.72752784184E+003
+4.42961602671E+007, +3.84783155602E+003, -9.18166405443E+003
+4.44629382304E+007, +3.78885489960E+003, -8.76271890602E+003
+4.46297161937E+007, +3.27714919021E+003, -8.30230502470E+003
+4.47964941569E+007, +2.75928098591E+003, -7.85659146572E+003
+4.49632721202E+007, +2.33760656815E+003, -7.20917931500E+003
+4.51300500835E+007, +2.19703896128E+003, -7.06417265036E+003
+4.52968280467E+007, +2.12732094454E+003, -6.27836406004E+003
+4.54636060100E+007, +1.82478720963E+003, -6.02785591027E+003
+4.56303839733E+007, +1.64619255929E+003, -5.64874625318E+003
+4.57971619366E+007, +1.56615346605E+003, -5.38221950538E+003
+4.59639398998E+007, +1.24068955695E+003, -5.10633707921E+003
+4.61307178631E+007, +1.35276695607E+003, -4.82430401422E+003
+4.62974958264E+007, +1.26297186016E+003, -4.61720804094E+003
+4.64642737896E+007, +1.16673871709E+003, -4.51126518964E+003
+4.66310517529E+007, +1.05013907245E+003, -4.27922763196E+003
+4.67978297162E+007, +1.15744266323E+003, -4.14791997108E+003
+4.69646076795E+007, +1.04915230470E+003, -3.90676934944E+003
+4.71313856427E+007, +9.54712945048E+002, -3.82381860132E+003
+4.72981636060E+007, +9.00661812538E+002, -3.63826553551E+003
+4.74649415693E+007, +8.75070972689E+002, -3.56367067753E+003
+4.76317195326E+007, +8.80401990840E+002, -3.40581395655E+003
+4.77984974958E+007, +8.97188380449E+002, -3.27279675863E+003
+4.79652754591E+007, +8.73902739255E+002, -3.20718749515E+003
+4.81320534224E+007, +8.53330610422E+002, -3.09572090506E+003
+4.82988313856E+007, +8.25554395841E+002, -3.00697667452E+003
+4.84656093489E+007, +7.99961371262E+002, -2.94829944801E+003
+4.86323873122E+007, +8.35019114993E+002, -2.85886451987E+003
+4.87991652755E+007, +7.67861709191E+002, -2.76806005751E+003
+4.89659432387E+007, +8.11749271080E+002, -2.73552712297E+003
+4.91327212020E+007, +7.65298639761E+002, -2.65460138166E+003
+4.92994991653E+007, +7.78011084528E+002, -2.61013164410E+003
+4.94662771285E+007, +7.69634524924E+002, -2.54148608685E+003
+4.96330550918E+007, +7.66055620218E+002, -2.50805710538E+003
+4.97998330551E+007, +7.59766910893E+002, -2.46711261417E+003
+4.99666110184E+007, +7.47608893683E+002, -2.41792850235E+003
+5.01333889816E+007, +7.21665037658E+002, -2.40230344406E+003
+5.03001669449E+007, +7.00965036765E+002, -2.35908053825E+003
+5.04669449082E+007, +6.75417881357E+002, -2.30290333453E+003
+5.06337228715E+007, +6.82321724307E+002, -2.28417357998E+003
+5.08005008347E+007, +6.10558109848E+002, -2.27075758300E+003
+5.09672787980E+007, +6.25302275776E+002, -2.24570165623E+003
+5.11340567613E+007, +5.84607253719E+002, -2.18419035262E+003
+5.13008347245E+007, +5.41064324256E+002, -2.16032827411E+003
+5.14676126878E+007, +5.29304588591E+002, -2.14258663530E+003
+5.16343906511E+007, +5.15149941740E+002, -2.09357457302E+003
+5.18011686144E+007, +4.85884285742E+002, -2.06745027909E+003
+5.19679465776E+007, +4.46901405747E+002, -2.03381125595E+003
+5.21347245409E+007, +4.27230026332E+002, -1.98220774280E+003
+5.23015025042E+007, +4.04228953135E+002, -1.92035144675E+003
+5.24682804674E+007, +3.96536956838E+002, -1.91611853534E+003
+5.26350584307E+007, +3.64971379845E+002, -1.87608692447E+003
+5.28018363940E+007, +3.45131423770E+002, -1.84118848684E+003
+5.29686143573E+007, +3.21125745989E+002, -1.80003260715E+003
+5.31353923205E+007, +3.05142235508E+002, -1.76680594660E+003
+5.33021702838E+007, +2.88602107660E+002, -1.71922859954E+003
+5.34689482471E+007, +2.84039966717E+002, -1.67321045776E+003
