"# Channel 1"
"# Trace 1"
Frequency, Formatted Data, Formatted Data
+1.00000000000E+005, +8.80247974986E+000, +3.02900417075E+000
+2.25031289111E+005, +8.74218309940E+000, +6.74024046868E+000
+3.50062578223E+005, +8.77465346615E+000, +1.05359286299E+001
+4.75093867334E+005, +8.80274686074E+000, +1.42219113561E+001
+6.00125156446E+005, +8.77745268469E+000, +1.79578750850E+001
+7.25156445557E+005, +8.77487501126E+000, +2.17521235829E+001
+8.50187734668E+005, +8.77668933039E+000, +2.54592189979E+001
+9.75219023780E+005, +8.77478824047E+000, +2.91983358948E+001
+1.10025031289E+006, +8.77464659530E+000, +3.28814472087E+001
+1.22528160200E+006, +8.75987646050E+000, +3.66307784085E+001
+1.35031289111E+006, +8.74163523628E+000, +4.04101954316E+001
+1.47534418023E+006, +8.74411183704E+000, +4.41066359758E+001
+1.60037546934E+006, +8.75729082557E+000, +4.78149892752E+001
+1.72540675845E+006, +8.66746454954E+000, +5.15764293646E+001
+1.85043804756E+006, +8.77625511829E+000, +5.52683376208E+001
+1.97546933667E+006, +8.81455657582E+000, +5.90605816246E+001
+2.10050062578E+006, +8.74334052143E+000, +6.26424176545E+001
+2.22553191489E+006, +8.72481122627E+000, +6.63441485078E+001
+2.35056320401E+006, +8.82308107465E+000, +7.01898927826E+001
+2.47559449312E+006, +8.67539525697E+000, +7.38132767593E+001
+2.60062578223E+006, +8.64209874859E+000, +7.76508033566E+001
+2.72565707134E+006, +8.63559229257E+000, +8.12671742436E+001
+2.85068836045E+006, +8.65914431385E+000, +8.50620494063E+001
+2.97571964956E+006, +8.76274469586E+000, +8.89111637671E+001
+3.10075093867E+006, +8.65665121300E+000, +9.26291775351E+001
+3.22578222778E+006, +8.79048835138E+000, +9.63665746560E+001
+3.35081351690E+006, +8.82580904883E+000, +1.00067445717E+002
+3.47584480601E+006, +8.87594666432E+000, +1.03990953063E+002
+3.60087609512E+006, +8.69982072974E+000, +1.07742604729E+002
+3.72590738423E+006, +8.70641523749E+000, +1.11539405141E+002
+3.85093867334E+006, +8.86319207458E+000, +1.15252896817E+002
+3.97596996245E+006, +8.74473701747E+000, +1.18827550391E+002
+4.10100125156E+006, +8.93564800971E+000, +1.22831156063E+002
+4.22603254068E+006, +8.67078439642E+000, +1.26512698026E+002
+4.35106382979E+006, +8.60889046112E+000, +1.30048420424E+002
+4.47609511890E+006, +8.49465448526E+000, +1.33809606870E+002
+4.60112640801E+006, +8.43538218168E+000, +1.37572380406E+002
+4.72615769712E+006, +8.80211304452E+000, +1.41479234855E+002
+4.85118898623E+006, +8.79876246002E+000, +1.45095819902E+002
+4.97622027534E+006, +8.60028764912E+000, +1.49127800028E+002
+5.10125156446E+006, +8.94238263214E+000, +1.52879255329E+002
+5.22628285357E+006, +8.86581141020E+000, +1.56805831891E+002
+5.35131414268E+006, +8.47919338376E+000, +1.60490196678E+002
+5.47634543179E+006, +8.91029920667E+000, +1.63974341587E+002
+5.60137672090E+006, +8.91734469879E+000, +1.68273678896E+002
+5.72640801001E+006, +9.11995336227E+000, +1.71891103778E+002
+5.85143929912E+006, +9.37422026803E+000, +1.75637440689E+002
+5.97647058824E+006, +9.36599236553E+000, +1.79681224358E+002
+6.10150187735E+006, +9.03423477028E+000, +1.83149474396E+002
+6.22653316646E+006, +9.27475648653E+000, +1.87063966157E+002
+6.35156445557E+006, +9.17846295060E+000, +1.90852374814E+002
+6.47659574468E+006, +9.10132211070E+000, +1.94823334706E+002
+6.60162703379E+006, +9.46442655916E+000, +1.98413657402E+002
+6.72665832290E+006, +9.38447196300E+000, +2.02441610440E+002
+6.85168961202E+006, +9.64869945481E+000, +2.06271179862E+002
+6.97672090113E+006, +9.54843646404E+000, +2.09981820897E+002
+7.10175219024E+006, +9.77178527893E+000, +2.13807132204E+002
+7.22678347935E+006, +9.61077142468E+000, +2.17634555604E+002
+7.35181476846E+006, +9.77761570061E+000, +2.21754890921E+002
+7.47684605757E+006, +9.79118091854E+000, +2.25325778899E+002
+7.60187734668E+006, +9.90051263625E+000, +2.29190116520E+002
+7.72690863579E+006, +1.00540918514E+001, +2.33051939681E+002
+7.85193992491E+006, +9.67053186157E+000, +2.37046640099E+002
+7.97697121402E+006, +9.87515190685E+000, +2.40806162590E+002
+8.10200250313E+006, +1.01312752958E+001, +2.44853944865E+002
+8.22703379224E+006, +9.84986490428E+000, +2.48887887546E+002
+8.35206508135E+006, +1.05173806891E+001, +2.52480764456E+002
+8.47709637046E+006, +1.01048971658E+001, +2.56555249403E+002
+8.60212765957E+006, +1.00624007311E+001, +2.60183867805E+002
+8.72715894869E+006, +1.01187219049E+001, +2.64555165918E+002
+8.85219023780E+006, +1.03223575385E+001, +2.67512989192E+002
+8.97722152691E+006, +1.02196696100E+001, +2.72064723513E+002
+9.10225281602E+006, +1.02667226150E+001, +2.75795588946E+002
+9.22728410513E+006, +1.02742042628E+001, +2.79731231188E+002
+9.35231539424E+006, +1.04161370074E+001, +2.83618795211E+002
+9.47734668335E+006, +1.08027060995E+001, +2.87795946707E+002
+9.60237797247E+006, +1.03030405990E+001, +2.91539301870E+002
+9.72740926158E+006, +1.06063517035E+001, +2.95366334849E+002
+9.85244055069E+006, +1.09033741153E+001, +2.99128449659E+002
+9.97747183980E+006, +1.01088282354E+001, +3.03467394869E+002
+1.01025031289E+007, +1.01747537406E+001, +3.06822246164E+002
+1.02275344180E+007, +1.04492881140E+001, +3.11604626615E+002
+1.03525657071E+007, +1.07145012760E+001, +3.15157052125E+002
+1.04775969962E+007, +1.05229634841E+001, +3.19227664815E+002
+1.06026282854E+007, +1.10147474817E+001, +3.22774316693E+002
+1.07276595745E+007, +1.09788913171E+001, +3.27148935189E+002
+1.08526908636E+007, +1.02141739870E+001, +3.31012232733E+002
+1.09777221527E+007, +1.08651164468E+001, +3.34692486482E+002
+1.11027534418E+007, +1.05479370825E+001, +3.39113774097E+002
+1.12277847309E+007, +1.12004283101E+001, +3.42910404163E+002
+1.13528160200E+007, +1.01706379629E+001, +3.46968813578E+002
+1.14778473091E+007, +1.11434112020E+001, +3.50837019044E+002
+1.16028785982E+007, +1.08161454575E+001, +3.54140005878E+002
+1.17279098874E+007, +1.06036666166E+001, +3.59671917526E+002
+1.18529411765E+007, +1.11500410924E+001, +3.62853593845E+002
+1.19779724656E+007, +1.06581125235E+001, +3.67118060955E+002
+1.21030037547E+007, +1.03727164395E+001, +3.70948935373E+002
+1.22280350438E+007, +1.12543306649E+001, +3.75627213767E+002
+1.23530663329E+007, +1.07189092658E+001, +3.79988308835E+002
+1.24780976220E+007, +1.11368582998E+001, +3.83551244995E+002
+1.26031289111E+007, +1.08495970179E+001, +3.87253317717E+002
+1.27281602003E+007, +1.10302383831E+001, +3.90758652846E+002
+1.28531914894E+007, +1.08484143542E+001, +3.93960646847E+002
+1.29782227785E+007, +1.10844146288E+001, +3.99296740155E+002
+1.31032540676E+007, +1.10873698139E+001, +4.04076267324E+002
+1.32282853567E+007, +1.19581085577E+001, +4.07247705562E+002
+1.33533166458E+007, +1.15973908373E+001, +4.12502576412E+002
+1.34783479349E+007, +1.06165729632E+001, +4.16371804437E+002
+1.36033792240E+007, +1.15072740963E+001, +4.20722722953E+002
+1.37284105131E+007, +1.13367851494E+001, +4.25031259166E+002
+1.38534418023E+007, +1.11580991092E+001, +4.30327823381E+002
+1.39784730914E+007, +1.21364053273E+001, +4.33294819877E+002
+1.41035043805E+007, +1.16677776582E+001, +4.38291264997E+002
+1.42285356696E+007, +1.21583331055E+001, +4.41644787076E+002
+1.43535669587E+007, +1.26329721589E+001, +4.45637421471E+002
+1.44785982478E+007, +1.22124026547E+001, +4.50292963684E+002
+1.46036295369E+007, +1.16711722513E+001, +4.53194470060E+002
+1.47286608260E+007, +1.10296509266E+001, +4.58304029966E+002
+1.48536921151E+007, +1.21027672345E+001, +4.62548540962E+002
+1.49787234043E+007, +1.27087589053E+001, +4.65773481089E+002
+1.51037546934E+007, +1.23952327450E+001, +4.70130867438E+002
+1.52287859825E+007, +1.26324179810E+001, +4.76343418673E+002
+1.53538172716E+007, +1.16096495640E+001, +4.78791662733E+002
+1.54788485607E+007, +1.10470686919E+001, +4.83325262688E+002
+1.56038798498E+007, +1.20581652264E+001, +4.87248979525E+002
+1.57289111389E+007, +1.17232505542E+001, +4.92387027762E+002
+1.58539424280E+007, +1.23256454629E+001, +4.96115122688E+002
+1.59789737171E+007, +1.27636582219E+001, +5.00425984693E+002
+1.61040050063E+007, +1.27502542955E+001, +5.05343912527E+002
+1.62290362954E+007, +1.20455467162E+001, +5.09130561963E+002
+1.63540675845E+007, +1.22115300107E+001, +5.14390829286E+002
+1.64790988736E+007, +1.38345356374E+001, +5.18767841431E+002
+1.66041301627E+007, +1.45671733224E+001, +5.23343353188E+002
+1.67291614518E+007, +1.22011457442E+001, +5.26282250440E+002
+1.68541927409E+007, +1.17903784812E+001, +5.31829856228E+002
+1.69792240300E+007, +1.37279230898E+001, +5.36190298889E+002
+1.71042553191E+007, +9.87660532516E+000, +5.40180880083E+002
+1.72292866083E+007, +1.05018047309E+001, +5.46645945989E+002
+1.73543178974E+007, +1.30972618250E+001, +5.49542544991E+002
+1.74793491865E+007, +1.24220759305E+001, +5.53886012506E+002
+1.76043804756E+007, +1.10052677120E+001, +5.59268787636E+002
+1.77294117647E+007, +1.07480965271E+001, +5.64253312492E+002
+1.78544430538E+007, +1.11028002464E+001, +5.67738243063E+002
+1.79794743429E+007, +1.12021565203E+001, +5.72253550415E+002
+1.81045056320E+007, +1.05403962465E+001, +5.80025766986E+002
+1.82295369212E+007, +1.21775980233E+001, +5.81289873604E+002
+1.83545682103E+007, +1.05513940344E+001, +5.88233709181E+002
+1.84795994994E+007, +1.40644418045E+001, +5.91880964757E+002
+1.86046307885E+007, +1.21613501729E+001, +5.97130164332E+002
+1.87296620776E+007, +1.26275414529E+001, +5.98871043941E+002
+1.88546933667E+007, +1.26366012661E+001, +6.04639188206E+002
+1.89797246558E+007, +1.39806603081E+001, +6.10925416395E+002
+1.91047559449E+007, +1.46873224680E+001, +6.12832585033E+002
+1.92297872340E+007, +1.10288392492E+001, +6.17997630856E+002
+1.93548185232E+007, +1.33286488197E+001, +6.24849352408E+002
+1.94798498123E+007, +1.25710090898E+001, +6.30756057996E+002
+1.96048811014E+007, +1.58395364466E+001, +6.35646886169E+002
+1.97299123905E+007, +1.47937137318E+001, +6.40010375799E+002
+1.98549436796E+007, +1.58926341134E+001, +6.43195893089E+002
+1.99799749687E+007, +1.55249734476E+001, +6.49971723343E+002
+2.01050062578E+007, +1.59969578647E+001, +6.55450851355E+002
+2.02300375469E+007, +1.42321961534E+001, +6.57634258234E+002
+2.03550688360E+007, +1.42980153361E+001, +6.61604630665E+002
+2.04801001252E+007, +1.43309500370E+001, +6.68546259351E+002
+2.06051314143E+007, +1.53210372001E+001, +6.73205165780E+002
+2.07301627034E+007, +1.54758303939E+001, +6.80279828619E+002
+2.08551939925E+007, +1.63251465854E+001, +6.83631419651E+002
+2.09802252816E+007, +1.69508969434E+001, +6.88781930642E+002
+2.11052565707E+007, +1.33019394793E+001, +6.92841555632E+002
+2.12302878598E+007, +1.63605010950E+001, +7.00384548453E+002
+2.13553191489E+007, +1.33622857892E+001, +7.05015966949E+002
+2.14803504380E+007, +1.50304041582E+001, +7.08355079828E+002
+2.16053817272E+007, +1.93546441668E+001, +7.16119068511E+002
+2.17304130163E+007, +1.67893642121E+001, +7.19431692574E+002
+2.18554443054E+007, +1.60276593802E+001, +7.25072512718E+002
+2.19804755945E+007, +1.75195585548E+001, +7.31895468209E+002
+2.21055068836E+007, +1.91298942513E+001, +7.36586824937E+002
+2.22305381727E+007, +1.77023042835E+001, +7.41197058849E+002
+2.23555694618E+007, +1.98503528856E+001, +7.47994962885E+002
+2.24806007509E+007, +1.94500767919E+001, +7.54288215560E+002
+2.26056320401E+007, +2.13531578807E+001, +7.58827643925E+002
+2.27306633292E+007, +1.83050520958E+001, +7.63990923833E+002
+2.28556946183E+007, +2.13419802014E+001, +7.70770701572E+002
+2.29807259074E+007, +2.23525189635E+001, +7.74264365254E+002
+2.31057571965E+007, +2.00466036000E+001, +7.78745938682E+002
+2.32307884856E+007, +2.21395973790E+001, +7.85037038343E+002
+2.33558197747E+007, +2.35774716137E+001, +7.93645426923E+002
+2.34808510638E+007, +2.34791943358E+001, +7.94128107132E+002
+2.36058823529E+007, +2.34907095582E+001, +8.02697576578E+002
+2.37309136421E+007, +2.33681414398E+001, +8.09595562827E+002
+2.38559449312E+007, +2.54065206584E+001, +8.11905511005E+002
+2.39809762203E+007, +2.95271213491E+001, +8.22373707087E+002
+2.41060075094E+007, +2.34201406231E+001, +8.26127209580E+002
+2.42310387985E+007, +2.77526173657E+001, +8.30663456638E+002
+2.43560700876E+007, +2.52008284255E+001, +8.31926719953E+002
+2.44811013767E+007, +2.79055978213E+001, +8.40191573603E+002
+2.46061326658E+007, +3.17416488125E+001, +8.46506506184E+002
+2.47311639549E+007, +2.67301054598E+001, +8.50650173702E+002
+2.48561952441E+007, +3.01403007266E+001, +8.60662595934E+002
+2.49812265332E+007, +2.80507243294E+001, +8.62080875450E+002
+2.51062578223E+007, +2.90344685782E+001, +8.70282679038E+002
+2.52312891114E+007, +3.06075306735E+001, +8.70631050145E+002
+2.53563204005E+007, +2.81592284383E+001, +8.82120529544E+002
+2.54813516896E+007, +2.85355975507E+001, +8.88267949482E+002
+2.56063829787E+007, +3.03679782748E+001, +8.89693255225E+002
+2.57314142678E+007, +3.14921655085E+001, +8.97754451075E+002
+2.58564455569E+007, +3.18685143148E+001, +9.03405832593E+002
+2.59814768461E+007, +3.32540052473E+001, +9.09036724579E+002
+2.61065081352E+007, +3.11902230832E+001, +9.16493912803E+002
+2.62315394243E+007, +3.72879933935E+001, +9.27347291155E+002
+2.63565707134E+007, +3.42898325110E+001, +9.28178679592E+002
+2.64816020025E+007, +3.58863562661E+001, +9.34996686945E+002
+2.66066332916E+007, +3.54098297548E+001, +9.41831991271E+002
+2.67316645807E+007, +3.39283831947E+001, +9.46616703056E+002
+2.68566958698E+007, +3.57472436340E+001, +9.54036431671E+002
+2.69817271589E+007, +3.28949558522E+001, +9.63689833747E+002
+2.71067584481E+007, +4.02027761728E+001, +9.62677266420E+002
+2.72317897372E+007, +3.82317432085E+001, +9.73727378960E+002
+2.73568210263E+007, +4.19066626299E+001, +9.76820060530E+002
+2.74818523154E+007, +3.95719057015E+001, +9.85133580359E+002
+2.76068836045E+007, +4.45845572278E+001, +9.89142334996E+002
+2.77319148936E+007, +3.96772389447E+001, +9.97823975637E+002
+2.78569461827E+007, +3.76265329483E+001, +1.00327114028E+003
+2.79819774718E+007, +4.19656082179E+001, +1.00856032083E+003
+2.81070087610E+007, +4.23730836310E+001, +1.01922694939E+003
+2.82320400501E+007, +4.29279107500E+001, +1.02694373856E+003
+2.83570713392E+007, +4.20839895583E+001, +1.02817480698E+003
+2.84821026283E+007, +4.61984882416E+001, +1.03699320976E+003
+2.86071339174E+007, +3.94322269517E+001, +1.04771188976E+003
+2.87321652065E+007, +4.75940543335E+001, +1.05279053042E+003
+2.88571964956E+007, +4.19517292157E+001, +1.05759598128E+003
+2.89822277847E+007, +4.74165034014E+001, +1.06168280148E+003
+2.91072590738E+007, +4.30962500615E+001, +1.06575835012E+003
+2.92322903630E+007, +4.11695987536E+001, +1.08394376646E+003
+2.93573216521E+007, +4.96508828844E+001, +1.08356349512E+003
+2.94823529412E+007, +4.54373542450E+001, +1.09860005733E+003
+2.96073842303E+007, +4.30597740485E+001, +1.10302470149E+003
+2.97324155194E+007, +4.63724809233E+001, +1.10421970838E+003
+2.98574468085E+007, +4.92973482477E+001, +1.11499863956E+003
+2.99824780976E+007, +5.48051097086E+001, +1.11499267061E+003
+3.01075093867E+007, +5.28224475733E+001, +1.13047873070E+003
+3.02325406758E+007, +4.81230703357E+001, +1.13749494919E+003
+3.03575719650E+007, +4.97809192396E+001, +1.14820493656E+003
+3.04826032541E+007, +4.57592048528E+001, +1.15008249105E+003
+3.06076345432E+007, +4.64708973274E+001, +1.15784532121E+003
+3.07326658323E+007, +4.65309128048E+001, +1.16963655235E+003
+3.08576971214E+007, +5.12181573626E+001, +1.17402711324E+003
+3.09827284105E+007, +4.83704012069E+001, +1.18812786917E+003
+3.11077596996E+007, +4.35800150868E+001, +1.19558431038E+003
+3.12327909887E+007, +5.17212706641E+001, +1.19882467333E+003
+3.13578222778E+007, +4.78195226839E+001, +1.21454282895E+003
+3.14828535670E+007, +4.76189080241E+001, +1.21576298385E+003
+3.16078848561E+007, +4.86606383299E+001, +1.23104599641E+003
+3.17329161452E+007, +5.47649296840E+001, +1.23090733322E+003
+3.18579474343E+007, +5.52193622344E+001, +1.24229667565E+003
+3.19829787234E+007, +4.87469510018E+001, +1.25097009895E+003
+3.21080100125E+007, +5.92612741231E+001, +1.25415108000E+003
+3.22330413016E+007, +5.44485245691E+001, +1.26555908854E+003
+3.23580725907E+007, +4.81366614575E+001, +1.27655303482E+003
+3.24831038798E+007, +6.33873895678E+001, +1.28415001731E+003
+3.26081351690E+007, +6.39557497130E+001, +1.29736175901E+003
+3.27331664581E+007, +5.28471754466E+001, +1.30388401938E+003
+3.28581977472E+007, +5.53121037170E+001, +1.30973053100E+003
+3.29832290363E+007, +5.09682153781E+001, +1.32581505473E+003
+3.31082603254E+007, +5.83056126019E+001, +1.33370632236E+003
+3.32332916145E+007, +5.53225558329E+001, +1.33983757026E+003
+3.33583229036E+007, +5.49018131325E+001, +1.35738956764E+003
+3.34833541927E+007, +6.38221853716E+001, +1.35873684479E+003
+3.36083854819E+007, +5.56702307858E+001, +1.37918326785E+003
+3.37334167710E+007, +5.51256826255E+001, +1.37447003091E+003
+3.38584480601E+007, +5.70361529784E+001, +1.38852267680E+003
+3.39834793492E+007, +5.70617599492E+001, +1.40250340902E+003
+3.41085106383E+007, +6.48402569589E+001, +1.41414895326E+003
+3.42335419274E+007, +6.80139282317E+001, +1.42582774544E+003
+3.43585732165E+007, +6.82262810300E+001, +1.43678809304E+003
+3.44836045056E+007, +5.96558994567E+001, +1.44201072630E+003
+3.46086357947E+007, +6.88036525601E+001, +1.45503017584E+003
+3.47336670839E+007, +5.74788941685E+001, +1.46365557262E+003
+3.48586983730E+007, +6.48918705661E+001, +1.47391563619E+003
+3.49837296621E+007, +6.74623349908E+001, +1.47818391449E+003
+3.51087609512E+007, +5.65978652789E+001, +1.50925590596E+003
+3.52337922403E+007, +7.01470847471E+001, +1.51408343239E+003
+3.53588235294E+007, +6.93782112326E+001, +1.53651607295E+003
+3.54838548185E+007, +7.24315990067E+001, +1.53785589708E+003
+3.56088861076E+007, +7.22724698748E+001, +1.56318474215E+003
+3.57339173967E+007, +6.07050795726E+001, +1.56276384030E+003
+3.58589486859E+007, +8.05404557077E+001, +1.57956740954E+003
+3.59839799750E+007, +6.98999457538E+001, +1.58835094186E+003
+3.61090112641E+007, +6.05969272023E+001, +1.60923330032E+003
+3.62340425532E+007, +6.71071147924E+001, +1.62208752544E+003
+3.63590738423E+007, +8.59693265900E+001, +1.62068463647E+003
+3.64841051314E+007, +6.22496056538E+001, +1.64907320351E+003
+3.66091364205E+007, +8.23154468047E+001, +1.65576979374E+003
+3.67341677096E+007, +7.58385102418E+001, +1.69314287382E+003
+3.68591989987E+007, +6.90723402759E+001, +1.71177889183E+003
+3.69842302879E+007, +7.06342780038E+001, +1.70715945740E+003
+3.71092615770E+007, +8.50605651491E+001, +1.72783936596E+003
+3.72342928661E+007, +6.85561867399E+001, +1.75145226204E+003
+3.73593241552E+007, +6.67589741708E+001, +1.74653644988E+003
+3.74843554443E+007, +8.79258993375E+001, +1.79167327430E+003
+3.76093867334E+007, +7.17902175300E+001, +1.78218812723E+003
+3.77344180225E+007, +7.44924910077E+001, +1.80973468894E+003
+3.78594493116E+007, +7.30125756894E+001, +1.81939915910E+003
+3.79844806008E+007, +8.61755876867E+001, +1.83937394090E+003
+3.81095118899E+007, +7.09264430995E+001, +1.86415381090E+003
+3.82345431790E+007, +9.50877584702E+001, +1.89786256869E+003
+3.83595744681E+007, +8.38149182163E+001, +1.89346067677E+003
+3.84846057572E+007, +1.00422950742E+002, +1.90939891827E+003
+3.86096370463E+007, +7.46514064487E+001, +1.94986112551E+003
+3.87346683354E+007, +9.18623032119E+001, +1.93223910593E+003
+3.88596996245E+007, +1.07877214660E+002, +1.97258817673E+003
+3.89847309136E+007, +1.09572664220E+002, +2.00512487135E+003
+3.91097622028E+007, +8.43155093826E+001, +2.02289522582E+003
+3.92347934919E+007, +1.11014904566E+002, +2.04883068260E+003
+3.93598247810E+007, +9.65566140865E+001, +2.07353195642E+003
+3.94848560701E+007, +1.27890887735E+002, +2.09667427552E+003
+3.96098873592E+007, +9.30223089876E+001, +2.12628887843E+003
+3.97349186483E+007, +1.16243760738E+002, +2.14004099633E+003
+3.98599499374E+007, +1.14878223708E+002, +2.18117528243E+003
+3.99849812265E+007, +1.14102626562E+002, +2.19668682435E+003
+4.01100125156E+007, +1.25880598556E+002, +2.20484883126E+003
