"# Channel 1"
"# Trace 1"
Frequency, Formatted Data, Formatted Data
+1.00000000000E+005, +5.06953686834E+001, +2.91546088680E+000
+2.25031289111E+005, +5.06231131703E+001, +6.95175939566E+000
+3.50062578223E+005, +5.06585162149E+001, +1.09489547261E+001
+4.75093867334E+005, +5.07122982430E+001, +1.47737924972E+001
+6.00125156446E+005, +5.08980468960E+001, +1.86286438686E+001
+7.25156445557E+005, +5.08084503907E+001, +2.25472508350E+001
+8.50187734668E+005, +5.08709801238E+001, +2.63868884084E+001
+9.75219023780E+005, +5.10674214293E+001, +3.02543313403E+001
+1.10025031289E+006, +5.11594173511E+001, +3.41377307899E+001
+1.22528160200E+006, +5.11048419430E+001, +3.77442508410E+001
+1.35031289111E+006, +5.12180235715E+001, +4.16087152725E+001
+1.47534418023E+006, +5.12727855343E+001, +4.56439613463E+001
+1.60037546934E+006, +5.12663754782E+001, +4.93225184123E+001
+1.72540675845E+006, +5.14841863492E+001, +5.31715404896E+001
+1.85043804756E+006, +5.12494163672E+001, +5.72030518266E+001
+1.97546933667E+006, +5.15131266111E+001, +6.07894693581E+001
+2.10050062578E+006, +5.15825039272E+001, +6.48824270460E+001
+2.22553191489E+006, +5.15526030133E+001, +6.84961766570E+001
+2.35056320401E+006, +5.16394551218E+001, +7.22154547491E+001
+2.47559449312E+006, +5.15455447448E+001, +7.62483816441E+001
+2.60062578223E+006, +5.19336551672E+001, +8.02687863596E+001
+2.72565707134E+006, +5.19749589798E+001, +8.40326059604E+001
+2.85068836045E+006, +5.21230334685E+001, +8.76576436806E+001
+2.97571964956E+006, +5.22557128241E+001, +9.17797962188E+001
+3.10075093867E+006, +5.21851678335E+001, +9.55491392542E+001
+3.22578222778E+006, +5.21882664367E+001, +9.93853433005E+001
+3.35081351690E+006, +5.24329089848E+001, +1.03368202014E+002
+3.47584480601E+006, +5.23860928608E+001, +1.07148366354E+002
+3.60087609512E+006, +5.24885342199E+001, +1.11036923685E+002
+3.72590738423E+006, +5.37186060302E+001, +1.15388517495E+002
+3.85093867334E+006, +5.28285208973E+001, +1.18464658920E+002
+3.97596996245E+006, +5.26370311859E+001, +1.22626423755E+002
+4.10100125156E+006, +5.29350221783E+001, +1.26325820662E+002
+4.22603254068E+006, +5.27639346319E+001, +1.30350870668E+002
+4.35106382979E+006, +5.35684615844E+001, +1.34150981349E+002
+4.47609511890E+006, +5.32851633327E+001, +1.38343310062E+002
+4.60112640801E+006, +5.34148548280E+001, +1.42075956831E+002
+4.72615769712E+006, +5.35697411292E+001, +1.45814975806E+002
+4.85118898623E+006, +5.38541288298E+001, +1.49826006777E+002
+4.97622027534E+006, +5.38750825657E+001, +1.53726410207E+002
+5.10125156446E+006, +5.42710814186E+001, +1.57684244386E+002
+5.22628285357E+006, +5.45716676998E+001, +1.61964036087E+002
+5.35131414268E+006, +5.48671322497E+001, +1.65691534964E+002
+5.47634543179E+006, +5.51060440807E+001, +1.69955106217E+002
+5.60137672090E+006, +5.47874146026E+001, +1.73717656733E+002
+5.72640801001E+006, +5.51583121107E+001, +1.77166720850E+002
+5.85143929912E+006, +5.53694483979E+001, +1.81625519555E+002
+5.97647058824E+006, +5.58607662061E+001, +1.85509147778E+002
+6.10150187735E+006, +5.59245854564E+001, +1.89767063982E+002
+6.22653316646E+006, +5.59052001750E+001, +1.93739341429E+002
+6.35156445557E+006, +5.60320675677E+001, +1.97463583492E+002
+6.47659574468E+006, +5.60771108669E+001, +2.01663325359E+002
+6.60162703379E+006, +5.62722976479E+001, +2.05609847655E+002
+6.72665832290E+006, +5.67309521855E+001, +2.09658188735E+002
+6.85168961202E+006, +5.69083825867E+001, +2.13717376566E+002
+6.97672090113E+006, +5.72323193227E+001, +2.17630772713E+002
+7.10175219024E+006, +5.78739616045E+001, +2.21841617110E+002
+7.22678347935E+006, +5.75381366341E+001, +2.25684776233E+002
+7.35181476846E+006, +5.76406239285E+001, +2.29854938066E+002
+7.47684605757E+006, +5.83712710215E+001, +2.33782848779E+002
+7.60187734668E+006, +5.79240226397E+001, +2.37994935857E+002
+7.72690863579E+006, +5.84562201350E+001, +2.41948439815E+002
+7.85193992491E+006, +5.89725386307E+001, +2.46068165154E+002
+7.97697121402E+006, +5.88478455026E+001, +2.50028626332E+002
+8.10200250313E+006, +5.90749096179E+001, +2.54342613589E+002
+8.22703379224E+006, +5.92366496582E+001, +2.58795775258E+002
+8.35206508135E+006, +5.96254204348E+001, +2.62785744577E+002
+8.47709637046E+006, +6.00412895440E+001, +2.66971515990E+002
+8.60212765957E+006, +6.02683392308E+001, +2.71235949415E+002
+8.72715894869E+006, +6.04305934653E+001, +2.75102017467E+002
+8.85219023780E+006, +6.10391499903E+001, +2.78627233948E+002
+8.97722152691E+006, +6.11337640860E+001, +2.83736594000E+002
+9.10225281602E+006, +6.11630087237E+001, +2.87677269233E+002
+9.22728410513E+006, +6.17528577770E+001, +2.92423351680E+002
+9.35231539424E+006, +6.15832070059E+001, +2.96776784594E+002
+9.47734668335E+006, +6.14766960462E+001, +3.00614919895E+002
+9.60237797247E+006, +6.19185642086E+001, +3.04788413685E+002
+9.72740926158E+006, +6.21010475806E+001, +3.08477546699E+002
+9.85244055069E+006, +6.19108319520E+001, +3.13490677926E+002
+9.97747183980E+006, +6.17429424880E+001, +3.17707671404E+002
+1.01025031289E+007, +6.27870435977E+001, +3.22020869051E+002
+1.02275344180E+007, +6.23862085800E+001, +3.25800002582E+002
+1.03525657071E+007, +6.31560382417E+001, +3.31390685759E+002
+1.04775969962E+007, +6.36355465280E+001, +3.35276850983E+002
+1.06026282854E+007, +6.36501003637E+001, +3.39374290067E+002
+1.07276595745E+007, +6.44716932760E+001, +3.43933218120E+002
+1.08526908636E+007, +6.52640703787E+001, +3.48405539323E+002
+1.09777221527E+007, +6.50437435697E+001, +3.52566843507E+002
+1.11027534418E+007, +6.52786661179E+001, +3.57633929548E+002
+1.12277847309E+007, +6.61228322747E+001, +3.61639180180E+002
+1.13528160200E+007, +6.59400724885E+001, +3.65597255281E+002
+1.14778473091E+007, +6.65463947433E+001, +3.70414212245E+002
+1.16028785982E+007, +6.72393238408E+001, +3.74622963697E+002
+1.17279098874E+007, +6.61120543282E+001, +3.79404081268E+002
+1.18529411765E+007, +6.78003287330E+001, +3.83991137788E+002
+1.19779724656E+007, +6.76358282742E+001, +3.88914978959E+002
+1.21030037547E+007, +6.75543452403E+001, +3.93448539431E+002
+1.22280350438E+007, +6.77093173017E+001, +3.97267471215E+002
+1.23530663329E+007, +6.87147473208E+001, +4.03594959063E+002
+1.24780976220E+007, +6.91004314153E+001, +4.06617654404E+002
+1.26031289111E+007, +6.92270185120E+001, +4.11763167915E+002
+1.27281602003E+007, +6.94003221484E+001, +4.16499503665E+002
+1.28531914894E+007, +7.01535364147E+001, +4.21120584669E+002
+1.29782227785E+007, +6.96928705424E+001, +4.26413494931E+002
+1.31032540676E+007, +7.11688733795E+001, +4.30715240676E+002
+1.32282853567E+007, +7.07826506374E+001, +4.35561232280E+002
+1.33533166458E+007, +7.16694452509E+001, +4.39863368638E+002
+1.34783479349E+007, +7.18722990755E+001, +4.44884574229E+002
+1.36033792240E+007, +7.17867773678E+001, +4.49574173408E+002
+1.37284105131E+007, +7.26682148602E+001, +4.53246927567E+002
+1.38534418023E+007, +7.32000216548E+001, +4.58258638088E+002
+1.39784730914E+007, +7.37184037855E+001, +4.64076828012E+002
+1.41035043805E+007, +7.31898770593E+001, +4.68846583452E+002
+1.42285356696E+007, +7.48453209210E+001, +4.73149244660E+002
+1.43535669587E+007, +7.47800620695E+001, +4.78255478751E+002
+1.44785982478E+007, +7.46247700749E+001, +4.83497947520E+002
+1.46036295369E+007, +7.60851973538E+001, +4.89731254514E+002
+1.47286608260E+007, +7.51923098290E+001, +4.94485885973E+002
+1.48536921151E+007, +7.75320973842E+001, +4.99434168892E+002
+1.49787234043E+007, +7.65051124616E+001, +5.02824365621E+002
+1.51037546934E+007, +7.87803815650E+001, +5.08585557972E+002
+1.52287859825E+007, +7.81785130547E+001, +5.12909258884E+002
+1.53538172716E+007, +7.94803870709E+001, +5.19100678580E+002
+1.54788485607E+007, +8.01407606946E+001, +5.25823751394E+002
+1.56038798498E+007, +8.01401786631E+001, +5.29555203212E+002
+1.57289111389E+007, +7.79801407918E+001, +5.33070121970E+002
+1.58539424280E+007, +8.00125028362E+001, +5.40477856067E+002
+1.59789737171E+007, +8.05196718846E+001, +5.45898209968E+002
+1.61040050063E+007, +8.23297581757E+001, +5.50787768026E+002
+1.62290362954E+007, +8.21886659390E+001, +5.56152607756E+002
+1.63540675845E+007, +8.24381470612E+001, +5.60778958524E+002
+1.64790988736E+007, +8.36914263428E+001, +5.64694596363E+002
+1.66041301627E+007, +8.34238950131E+001, +5.71444868058E+002
+1.67291614518E+007, +8.40397122525E+001, +5.77519520725E+002
+1.68541927409E+007, +8.43823206047E+001, +5.81764598182E+002
+1.69792240300E+007, +8.49367391813E+001, +5.86599460963E+002
+1.71042553191E+007, +8.44399961269E+001, +5.93042319468E+002
+1.72292866083E+007, +8.57476059491E+001, +6.00184081008E+002
+1.73543178974E+007, +8.49600331035E+001, +6.06212901483E+002
+1.74793491865E+007, +8.65589271675E+001, +6.10363217575E+002
+1.76043804756E+007, +8.52665340237E+001, +6.16436474536E+002
+1.77294117647E+007, +8.86896429928E+001, +6.22918756782E+002
+1.78544430538E+007, +8.73625955467E+001, +6.27440911338E+002
+1.79794743429E+007, +8.91536218285E+001, +6.32322512331E+002
+1.81045056320E+007, +9.04240309057E+001, +6.38629553932E+002
+1.82295369212E+007, +9.04321617571E+001, +6.45540179865E+002
+1.83545682103E+007, +9.26998411505E+001, +6.51759530406E+002
+1.84795994994E+007, +9.41019127861E+001, +6.55044591118E+002
+1.86046307885E+007, +9.48786741749E+001, +6.62841158418E+002
+1.87296620776E+007, +9.34066874182E+001, +6.71620744123E+002
+1.88546933667E+007, +9.63903795085E+001, +6.73990856085E+002
+1.89797246558E+007, +9.68917252886E+001, +6.79945022499E+002
+1.91047559449E+007, +9.86206846237E+001, +6.88429112956E+002
+1.92297872340E+007, +9.56095811812E+001, +6.94015907022E+002
+1.93548185232E+007, +9.80698410907E+001, +7.00671258640E+002
+1.94798498123E+007, +9.82211753537E+001, +7.06074746888E+002
+1.96048811014E+007, +1.01251300388E+002, +7.11475035552E+002
+1.97299123905E+007, +1.01004365837E+002, +7.20187328956E+002
+1.98549436796E+007, +1.00078807911E+002, +7.22731224026E+002
+1.99799749687E+007, +1.02589048436E+002, +7.31023969293E+002
+2.01050062578E+007, +1.03302767891E+002, +7.38503769090E+002
+2.02300375469E+007, +1.04751285203E+002, +7.45209534357E+002
+2.03550688360E+007, +1.02324705788E+002, +7.48490874858E+002
+2.04801001252E+007, +1.07872276691E+002, +7.57214591356E+002
+2.06051314143E+007, +1.07880733729E+002, +7.63498160076E+002
+2.07301627034E+007, +1.08076141872E+002, +7.68284867522E+002
+2.08551939925E+007, +1.08476426577E+002, +7.77727848474E+002
+2.09802252816E+007, +1.08347003815E+002, +7.86452475961E+002
+2.11052565707E+007, +1.14406434446E+002, +7.91822833775E+002
+2.12302878598E+007, +1.11960197901E+002, +7.98583961599E+002
+2.13553191489E+007, +1.11602372119E+002, +8.03843591930E+002
+2.14803504380E+007, +1.13344452705E+002, +8.07105502127E+002
+2.16053817272E+007, +1.15463476067E+002, +8.20896369287E+002
+2.17304130163E+007, +1.18440045004E+002, +8.22746513701E+002
+2.18554443054E+007, +1.18788485205E+002, +8.30935038118E+002
+2.19804755945E+007, +1.21220175528E+002, +8.39136984861E+002
+2.21055068836E+007, +1.22450482075E+002, +8.47110576354E+002
+2.22305381727E+007, +1.22638794748E+002, +8.54590825392E+002
+2.23555694618E+007, +1.24666875362E+002, +8.59981166617E+002
+2.24806007509E+007, +1.24027286550E+002, +8.65980507002E+002
+2.26056320401E+007, +1.24160320929E+002, +8.73130863627E+002
+2.27306633292E+007, +1.26412033826E+002, +8.83851236632E+002
+2.28556946183E+007, +1.30741020049E+002, +8.91564486696E+002
+2.29807259074E+007, +1.33947723657E+002, +8.97210423547E+002
+2.31057571965E+007, +1.33602515748E+002, +9.05696554966E+002
+2.32307884856E+007, +1.30590276042E+002, +9.14455785411E+002
+2.33558197747E+007, +1.31653821789E+002, +9.24192308337E+002
+2.34808510638E+007, +1.35040503883E+002, +9.27553217222E+002
+2.36058823529E+007, +1.37384031322E+002, +9.39472091366E+002
+2.37309136421E+007, +1.37628556221E+002, +9.45729479231E+002
+2.38559449312E+007, +1.41574822561E+002, +9.58060992484E+002
+2.39809762203E+007, +1.46033472014E+002, +9.61764100850E+002
+2.41060075094E+007, +1.46243668487E+002, +9.74996620100E+002
+2.42310387985E+007, +1.51564308145E+002, +9.73125155194E+002
+2.43560700876E+007, +1.52383661043E+002, +9.82178569275E+002
+2.44811013767E+007, +1.56354041230E+002, +9.94251579545E+002
+2.46061326658E+007, +1.57112258334E+002, +9.98411407803E+002
+2.47311639549E+007, +1.56974040104E+002, +1.01130598539E+003
+2.48561952441E+007, +1.55779429790E+002, +1.01272894719E+003
+2.49812265332E+007, +1.58317678027E+002, +1.03023818800E+003
+2.51062578223E+007, +1.58081403756E+002, +1.03093279418E+003
+2.52312891114E+007, +1.69062397478E+002, +1.04557369497E+003
+2.53563204005E+007, +1.69940144259E+002, +1.04616033479E+003
+2.54813516896E+007, +1.70718962810E+002, +1.05668818211E+003
+2.56063829787E+007, +1.74812905233E+002, +1.06510259702E+003
+2.57314142678E+007, +1.65789293829E+002, +1.07966711352E+003
+2.58564455569E+007, +1.79123053576E+002, +1.08361782678E+003
+2.59814768461E+007, +1.76102338650E+002, +1.09502488319E+003
+2.61065081352E+007, +1.75403098313E+002, +1.10750324494E+003
+2.62315394243E+007, +1.81970345022E+002, +1.11562057687E+003
+2.63565707134E+007, +1.78999239018E+002, +1.11697380205E+003
+2.64816020025E+007, +1.91300242941E+002, +1.12937449930E+003
+2.66066332916E+007, +1.90538682705E+002, +1.13485263252E+003
+2.67316645807E+007, +1.92506616514E+002, +1.14577180990E+003
+2.68566958698E+007, +1.91656680693E+002, +1.15732579364E+003
+2.69817271589E+007, +1.96720733392E+002, +1.16485582714E+003
+2.71067584481E+007, +1.91882772832E+002, +1.18164069568E+003
+2.72317897372E+007, +1.96112048938E+002, +1.18675670382E+003
+2.73568210263E+007, +2.03870813379E+002, +1.19892985032E+003
+2.74818523154E+007, +2.02660640488E+002, +1.20866503466E+003
+2.76068836045E+007, +2.09294023282E+002, +1.21797218031E+003
+2.77319148936E+007, +2.00644822089E+002, +1.22706060927E+003
+2.78569461827E+007, +2.03726466384E+002, +1.24308900437E+003
+2.79819774718E+007, +2.08147720227E+002, +1.25068503625E+003
+2.81070087610E+007, +2.12960894854E+002, +1.26047148562E+003
+2.82320400501E+007, +2.16315072809E+002, +1.27030315760E+003
+2.83570713392E+007, +2.16402690264E+002, +1.28822360703E+003
+2.84821026283E+007, +2.23940437848E+002, +1.30361689208E+003
+2.86071339174E+007, +2.21211617199E+002, +1.30276131271E+003
+2.87321652065E+007, +2.27402646061E+002, +1.32517935807E+003
+2.88571964956E+007, +2.24725074968E+002, +1.33359473865E+003
+2.89822277847E+007, +2.30431104989E+002, +1.34901365328E+003
+2.91072590738E+007, +2.29925080012E+002, +1.36906006153E+003
+2.92322903630E+007, +2.37959012240E+002, +1.38199973442E+003
+2.93573216521E+007, +2.40170665265E+002, +1.36878912095E+003
+2.94823529412E+007, +2.35324693618E+002, +1.40150216256E+003
+2.96073842303E+007, +2.38782657868E+002, +1.41739100675E+003
+2.97324155194E+007, +2.43025934347E+002, +1.42649948277E+003
+2.98574468085E+007, +2.40446748748E+002, +1.43877250672E+003
+2.99824780976E+007, +2.66033442997E+002, +1.44486315428E+003
+3.01075093867E+007, +2.59606323327E+002, +1.46954494575E+003
+3.02325406758E+007, +2.60990429264E+002, +1.48077625034E+003
+3.03575719650E+007, +2.61313943063E+002, +1.49975797847E+003
+3.04826032541E+007, +2.74484321858E+002, +1.51250484526E+003
+3.06076345432E+007, +2.66552254023E+002, +1.52181487393E+003
+3.07326658323E+007, +2.74402016552E+002, +1.54703545710E+003
+3.08576971214E+007, +2.79584482740E+002, +1.56389657027E+003
+3.09827284105E+007, +2.80876322256E+002, +1.56408731914E+003
+3.11077596996E+007, +2.86568351647E+002, +1.58491791524E+003
+3.12327909887E+007, +2.84866329455E+002, +1.59940236536E+003
+3.13578222778E+007, +2.94516269489E+002, +1.62275891613E+003
+3.14828535670E+007, +3.07042610175E+002, +1.62104501238E+003
+3.16078848561E+007, +3.12629584000E+002, +1.65389253046E+003
+3.17329161452E+007, +3.06587128465E+002, +1.66105488284E+003
+3.18579474343E+007, +2.91720673421E+002, +1.68051187079E+003
+3.19829787234E+007, +3.15302246698E+002, +1.69786121897E+003
+3.21080100125E+007, +3.11186230017E+002, +1.73497649656E+003
+3.22330413016E+007, +3.28452683774E+002, +1.74259412801E+003
+3.23580725907E+007, +3.35538031590E+002, +1.75393591734E+003
+3.24831038798E+007, +3.39498723651E+002, +1.77963065879E+003
+3.26081351690E+007, +3.52310364689E+002, +1.80578325474E+003
+3.27331664581E+007, +3.48390600176E+002, +1.81102428163E+003
+3.28581977472E+007, +3.45937496737E+002, +1.81242086389E+003
+3.29832290363E+007, +3.72435763330E+002, +1.85127527823E+003
+3.31082603254E+007, +3.55992674720E+002, +1.86788873070E+003
+3.32332916145E+007, +3.99826419782E+002, +1.89204602733E+003
+3.33583229036E+007, +3.81906397219E+002, +1.92144157432E+003
+3.34833541927E+007, +3.91276051616E+002, +1.94322661707E+003
+3.36083854819E+007, +3.92873522356E+002, +1.96043949052E+003
+3.37334167710E+007, +4.10562633041E+002, +1.97684136780E+003
+3.38584480601E+007, +4.16732525266E+002, +2.01836442188E+003
+3.39834793492E+007, +4.13777545171E+002, +2.02402897529E+003
+3.41085106383E+007, +4.26835490519E+002, +2.04242653121E+003
+3.42335419274E+007, +4.38472498752E+002, +2.05918961869E+003
+3.43585732165E+007, +4.46871440840E+002, +2.09420870346E+003
+3.44836045056E+007, +4.50865285528E+002, +2.11745152811E+003
+3.46086357947E+007, +4.67937142885E+002, +2.12996298541E+003
+3.47336670839E+007, +4.83335073586E+002, +2.14702750365E+003
+3.48586983730E+007, +4.75702188982E+002, +2.21385360454E+003
+3.49837296621E+007, +4.88218222357E+002, +2.24739656823E+003
+3.51087609512E+007, +5.16795943932E+002, +2.24085180404E+003
+3.52337922403E+007, +5.23904139111E+002, +2.28207481123E+003
+3.53588235294E+007, +5.49909612999E+002, +2.30288445332E+003
+3.54838548185E+007, +5.61543619275E+002, +2.34852159913E+003
+3.56088861076E+007, +5.62433911698E+002, +2.35977010577E+003
+3.57339173967E+007, +5.34262831906E+002, +2.34858845192E+003
+3.58589486859E+007, +5.76820527314E+002, +2.38006730854E+003
+3.59839799750E+007, +6.14412769939E+002, +2.43355980991E+003
+3.61090112641E+007, +6.05526704490E+002, +2.48133864131E+003
+3.62340425532E+007, +6.14302837292E+002, +2.50984202053E+003
+3.63590738423E+007, +6.35573323083E+002, +2.53906812105E+003
+3.64841051314E+007, +6.20549818519E+002, +2.56727825806E+003
+3.66091364205E+007, +6.67882747511E+002, +2.58025620363E+003
+3.67341677096E+007, +7.05849570147E+002, +2.61647411467E+003
+3.68591989987E+007, +6.77851344731E+002, +2.66118017318E+003
+3.69842302879E+007, +7.26250661912E+002, +2.73815874705E+003
+3.71092615770E+007, +7.11399937559E+002, +2.74647582875E+003
+3.72342928661E+007, +7.81933518678E+002, +2.76787242108E+003
+3.73593241552E+007, +7.55579321160E+002, +2.82600449309E+003
+3.74843554443E+007, +7.93228523618E+002, +2.86343474764E+003
+3.76093867334E+007, +8.68297374860E+002, +2.91442423576E+003
+3.77344180225E+007, +8.55181879253E+002, +2.92994148186E+003
+3.78594493116E+007, +9.05734836737E+002, +2.97587120853E+003
+3.79844806008E+007, +9.21486072638E+002, +3.02660192597E+003
+3.81095118899E+007, +8.78634107248E+002, +3.07477813097E+003
+3.82345431790E+007, +9.84383619169E+002, +3.14406924863E+003
+3.83595744681E+007, +9.49877414579E+002, +3.12053792284E+003
+3.84846057572E+007, +9.77233023942E+002, +3.17826162671E+003
+3.86096370463E+007, +1.07065627605E+003, +3.28187964305E+003
+3.87346683354E+007, +1.12947369797E+003, +3.32780282060E+003
+3.88596996245E+007, +1.16448566701E+003, +3.38990461847E+003
+3.89847309136E+007, +1.16020977818E+003, +3.38549291571E+003
+3.91097622028E+007, +1.29092066362E+003, +3.47841969188E+003
+3.92347934919E+007, +1.24632719504E+003, +3.54937466543E+003
+3.93598247810E+007, +1.36692631669E+003, +3.53468159102E+003
+3.94848560701E+007, +1.34158816332E+003, +3.62092908992E+003
+3.96098873592E+007, +1.41318097447E+003, +3.62365258522E+003
+3.97349186483E+007, +1.46521728577E+003, +3.77979370785E+003
+3.98599499374E+007, +1.53181820268E+003, +3.80225843393E+003
+3.99849812265E+007, +1.60125590034E+003, +3.97131822393E+003
+4.01100125156E+007, +1.63414434558E+003, +4.00671559559E+003
