"# Channel 1"
"# Trace 1"
Frequency, Formatted Data, Formatted Data
+1.00000000000E+005, +8.10033787944E+002, -2.97145017675E+003
+2.87609511890E+005, +1.48780674217E+002, -1.10321501701E+003
+4.75219023780E+005, +8.50363556654E+001, -6.67907188890E+002
+6.62828535670E+005, +6.99594316422E+001, -4.81397757433E+002
+8.50438047559E+005, +6.05150676196E+001, -3.74354176174E+002
+1.03804755945E+006, +5.85996349839E+001, -3.05164728092E+002
+1.22565707134E+006, +5.59965976663E+001, -2.61005244088E+002
+1.41326658323E+006, +5.52089639784E+001, -2.26470838734E+002
+1.60087609512E+006, +5.44779542307E+001, -1.99796159618E+002
+1.78848560701E+006, +5.37151711926E+001, -1.79220817015E+002
+1.97609511890E+006, +5.31888888812E+001, -1.61953441097E+002
+2.16370463079E+006, +5.24355158205E+001, -1.47883892062E+002
+2.35131414268E+006, +5.19708153923E+001, -1.36454164044E+002
+2.53892365457E+006, +5.16184819445E+001, -1.26521443455E+002
+2.72653316646E+006, +5.16365131569E+001, -1.17919899751E+002
+2.91414267835E+006, +5.15239298048E+001, -1.10387334847E+002
+3.10175219024E+006, +5.10464139249E+001, -1.03671127754E+002
+3.28936170213E+006, +5.07611373208E+001, -9.77434644311E+001
+3.47697121402E+006, +5.07198857670E+001, -9.25042674173E+001
+3.66458072591E+006, +5.07646889286E+001, -8.76600942517E+001
+3.85219023780E+006, +5.05968659630E+001, -8.38386787645E+001
+4.03979974969E+006, +5.06946836389E+001, -7.99321177709E+001
+4.22740926158E+006, +5.05175111185E+001, -7.64162929034E+001
+4.41501877347E+006, +5.05129766322E+001, -7.31196332560E+001
+4.60262828536E+006, +5.05477102406E+001, -7.01296652298E+001
+4.79023779725E+006, +5.04469857702E+001, -6.75270507880E+001
+4.97784730914E+006, +5.03711744573E+001, -6.48668395279E+001
+5.16545682103E+006, +5.01844645107E+001, -6.25843023174E+001
+5.35306633292E+006, +5.03094309729E+001, -6.04471946946E+001
+5.54067584481E+006, +5.01330031520E+001, -5.84117566156E+001
+5.72828535670E+006, +5.01595354688E+001, -5.64658403654E+001
+5.91589486859E+006, +5.01340846901E+001, -5.46797015987E+001
+6.10350438048E+006, +5.00732326440E+001, -5.31237480785E+001
+6.29111389237E+006, +5.00554132388E+001, -5.14978825063E+001
+6.47872340426E+006, +5.00438305603E+001, -5.00202175772E+001
+6.66633291615E+006, +4.99417474894E+001, -4.86500730418E+001
+6.85394242804E+006, +4.99811798691E+001, -4.73155695751E+001
+7.04155193992E+006, +4.99012576595E+001, -4.61685016946E+001
+7.22916145181E+006, +4.99407863531E+001, -4.48872501445E+001
+7.41677096370E+006, +4.98496473983E+001, -4.37543525145E+001
+7.60438047559E+006, +4.98611426945E+001, -4.27565652111E+001
+7.79198998748E+006, +4.98487466576E+001, -4.17400252368E+001
+7.97959949937E+006, +4.98617694623E+001, -4.08223754450E+001
+8.16720901126E+006, +4.98392888069E+001, -3.98230113716E+001
+8.35481852315E+006, +4.98235681277E+001, -3.89609248547E+001
+8.54242803504E+006, +4.98138675440E+001, -3.80382561005E+001
+8.73003754693E+006, +4.98189688001E+001, -3.73373509253E+001
+8.91764705882E+006, +4.97334364116E+001, -3.65722584910E+001
+9.10525657071E+006, +4.97949638160E+001, -3.58075811464E+001
+9.29286608260E+006, +4.98300679080E+001, -3.51204262906E+001
+9.48047559449E+006, +4.97795416608E+001, -3.44451594561E+001
+9.66808510638E+006, +4.97579626582E+001, -3.37918011897E+001
+9.85569461827E+006, +4.97442169521E+001, -3.31768284710E+001
+1.00433041302E+007, +4.97472030698E+001, -3.25492480014E+001
+1.02309136421E+007, +4.97342785553E+001, -3.19895548367E+001
+1.04185231539E+007, +4.97356342173E+001, -3.14050713849E+001
+1.06061326658E+007, +4.97055786281E+001, -3.09006632917E+001
+1.07937421777E+007, +4.97117501239E+001, -3.03786089785E+001
+1.09813516896E+007, +4.96941322181E+001, -2.98446097744E+001
+1.11689612015E+007, +4.96849692247E+001, -2.93923667048E+001
+1.13565707134E+007, +4.96801920306E+001, -2.89149122288E+001
+1.15441802253E+007, +4.96979746713E+001, -2.84888452794E+001
+1.17317897372E+007, +4.96745496800E+001, -2.80329537063E+001
+1.19193992491E+007, +4.96590356292E+001, -2.75881745326E+001
+1.21070087610E+007, +4.96456788312E+001, -2.71893288161E+001
+1.22946182728E+007, +4.96601662228E+001, -2.67892374390E+001
+1.24822277847E+007, +4.96344380699E+001, -2.63866500168E+001
+1.26698372966E+007, +4.96621945735E+001, -2.60110393610E+001
+1.28574468085E+007, +4.96372341239E+001, -2.56708629528E+001
+1.30450563204E+007, +4.96350051918E+001, -2.53102058501E+001
+1.32326658323E+007, +4.96237075077E+001, -2.49784346168E+001
+1.34202753442E+007, +4.96285836569E+001, -2.46145955761E+001
+1.36078848561E+007, +4.96359853607E+001, -2.43089511692E+001
+1.37954943680E+007, +4.96075304899E+001, -2.40098447929E+001
+1.39831038798E+007, +4.96174031233E+001, -2.36734024307E+001
+1.41707133917E+007, +4.96169468797E+001, -2.33829272368E+001
+1.43583229036E+007, +4.96076704432E+001, -2.31106128736E+001
+1.45459324155E+007, +4.95983299341E+001, -2.28120363862E+001
+1.47335419274E+007, +4.95950203989E+001, -2.25376387416E+001
+1.49211514393E+007, +4.95883169532E+001, -2.22699744384E+001
+1.51087609512E+007, +4.95837800290E+001, -2.20165051936E+001
+1.52963704631E+007, +4.95916943040E+001, -2.17484906738E+001
+1.54839799750E+007, +4.95656172742E+001, -2.15107787796E+001
+1.56715894869E+007, +4.95852160830E+001, -2.12684800722E+001
+1.58591989987E+007, +4.95785305849E+001, -2.10357689049E+001
+1.60468085106E+007, +4.95672273109E+001, -2.08174513446E+001
+1.62344180225E+007, +4.95615678278E+001, -2.05787197822E+001
+1.64220275344E+007, +4.95493914492E+001, -2.03747065594E+001
+1.66096370463E+007, +4.95588889430E+001, -2.01378924739E+001
+1.67972465582E+007, +4.95513804045E+001, -1.99434620119E+001
+1.69848560701E+007, +4.95480003191E+001, -1.97412009416E+001
+1.71724655820E+007, +4.95555726653E+001, -1.95434803140E+001
+1.73600750939E+007, +4.95386714178E+001, -1.93637380368E+001
+1.75476846058E+007, +4.95323255561E+001, -1.91512105635E+001
+1.77352941176E+007, +4.95403714372E+001, -1.89584238517E+001
+1.79229036295E+007, +4.95175139224E+001, -1.87849055689E+001
+1.81105131414E+007, +4.95578049728E+001, -1.86089484387E+001
+1.82981226533E+007, +4.95138831846E+001, -1.84498993139E+001
+1.84857321652E+007, +4.95064945655E+001, -1.82620411130E+001
+1.86733416771E+007, +4.95328487099E+001, -1.81121159066E+001
+1.88609511890E+007, +4.95030747652E+001, -1.79495475745E+001
+1.90485607009E+007, +4.95001471301E+001, -1.77874823036E+001
+1.92361702128E+007, +4.95010259854E+001, -1.76279558625E+001
+1.94237797247E+007, +4.94894520421E+001, -1.74775596784E+001
+1.96113892365E+007, +4.94941784388E+001, -1.73203489945E+001
+1.97989987484E+007, +4.94986916090E+001, -1.71711859120E+001
+1.99866082603E+007, +4.94983366267E+001, -1.70406213446E+001
+2.01742177722E+007, +4.94981266507E+001, -1.68984589749E+001
+2.03618272841E+007, +4.94855231069E+001, -1.67373155756E+001
+2.05494367960E+007, +4.94882852980E+001, -1.66251781441E+001
+2.07370463079E+007, +4.94757358278E+001, -1.64997421427E+001
+2.09246558198E+007, +4.94581540163E+001, -1.63541157708E+001
+2.11122653317E+007, +4.94515890066E+001, -1.62353830929E+001
+2.12998748436E+007, +4.94500075945E+001, -1.61194724771E+001
+2.14874843554E+007, +4.94509057202E+001, -1.60027739181E+001
+2.16750938673E+007, +4.94364351418E+001, -1.58575857534E+001
+2.18627033792E+007, +4.94272699586E+001, -1.57554725716E+001
+2.20503128911E+007, +4.94438416167E+001, -1.56323966549E+001
+2.22379224030E+007, +4.94357328579E+001, -1.55304826933E+001
+2.24255319149E+007, +4.94163351666E+001, -1.54137278174E+001
+2.26131414268E+007, +4.94074483828E+001, -1.53158657127E+001
+2.28007509387E+007, +4.94198300246E+001, -1.51943427550E+001
+2.29883604506E+007, +4.93909210367E+001, -1.50842180635E+001
+2.31759699625E+007, +4.93954495026E+001, -1.49970884555E+001
+2.33635794743E+007, +4.93665813023E+001, -1.48890097987E+001
+2.35511889862E+007, +4.93751299291E+001, -1.47831303007E+001
+2.37387984981E+007, +4.93561574816E+001, -1.46725256154E+001
+2.39264080100E+007, +4.93212970035E+001, -1.45640020689E+001
+2.41140175219E+007, +4.93309748022E+001, -1.44711947711E+001
+2.43016270338E+007, +4.93028129122E+001, -1.43772416705E+001
+2.44892365457E+007, +4.93024354624E+001, -1.42632648108E+001
+2.46768460576E+007, +4.92910057271E+001, -1.41459285996E+001
+2.48644555695E+007, +4.92744915520E+001, -1.40524334939E+001
+2.50520650814E+007, +4.92680218754E+001, -1.39235313171E+001
+2.52396745932E+007, +4.92748279296E+001, -1.38340298719E+001
+2.54272841051E+007, +4.92782588479E+001, -1.37319079976E+001
+2.56148936170E+007, +4.92886492683E+001, -1.36340666241E+001
+2.58025031289E+007, +4.92928555959E+001, -1.35387020210E+001
+2.59901126408E+007, +4.93015994415E+001, -1.34531347123E+001
+2.61777221527E+007, +4.93139788943E+001, -1.33512093746E+001
+2.63653316646E+007, +4.93193566212E+001, -1.32915187401E+001
+2.65529411765E+007, +4.93342143268E+001, -1.32064588066E+001
+2.67405506884E+007, +4.93285284750E+001, -1.31326944840E+001
+2.69281602003E+007, +4.93397671899E+001, -1.30606382933E+001
+2.71157697121E+007, +4.93429481265E+001, -1.29798890863E+001
+2.73033792240E+007, +4.93498776551E+001, -1.29114536616E+001
+2.74909887359E+007, +4.93613304709E+001, -1.28341286310E+001
+2.76785982478E+007, +4.93770606266E+001, -1.27685314148E+001
+2.78662077597E+007, +4.93715226449E+001, -1.27157204503E+001
+2.80538172716E+007, +4.93645183451E+001, -1.26486261633E+001
+2.82414267835E+007, +4.93640349062E+001, -1.25802756449E+001
+2.84290362954E+007, +4.93720184861E+001, -1.25253023831E+001
+2.86166458073E+007, +4.93748242885E+001, -1.24484982589E+001
+2.88042553191E+007, +4.93734071986E+001, -1.24101944181E+001
+2.89918648310E+007, +4.93660876699E+001, -1.23470244454E+001
+2.91794743429E+007, +4.93731908914E+001, -1.22873618332E+001
+2.93670838548E+007, +4.93691015145E+001, -1.22415102993E+001
+2.95546933667E+007, +4.93621262119E+001, -1.21980363218E+001
+2.97423028786E+007, +4.93721662100E+001, -1.21177670307E+001
+2.99299123905E+007, +4.93719105860E+001, -1.20628963126E+001
+3.01175219024E+007, +4.93663942142E+001, -1.20114070716E+001
+3.03051314143E+007, +4.93612483351E+001, -1.19695236695E+001
+3.04927409262E+007, +4.93623375524E+001, -1.19144761670E+001
+3.06803504380E+007, +4.93691243121E+001, -1.18574642730E+001
+3.08679599499E+007, +4.93597008246E+001, -1.18109995431E+001
+3.10555694618E+007, +4.93499942582E+001, -1.17656250000E+001
+3.12431789737E+007, +4.93572101206E+001, -1.17160759400E+001
+3.14307884856E+007, +4.93452235308E+001, -1.16700366496E+001
+3.16183979975E+007, +4.93512514221E+001, -1.16143002881E+001
+3.18060075094E+007, +4.93398003388E+001, -1.15706010911E+001
+3.19936170213E+007, +4.93411984424E+001, -1.15329830251E+001
+3.21812265332E+007, +4.93441276272E+001, -1.14860072549E+001
+3.23688360451E+007, +4.93341507773E+001, -1.14374726508E+001
+3.25564455569E+007, +4.93275431999E+001, -1.13941098568E+001
+3.27440550688E+007, +4.93244708080E+001, -1.13536550334E+001
+3.29316645807E+007, +4.93108008677E+001, -1.13030705580E+001
+3.31192740926E+007, +4.93113647673E+001, -1.12702336306E+001
+3.33068836045E+007, +4.93298930874E+001, -1.12189954122E+001
+3.34944931164E+007, +4.92987672435E+001, -1.11826133221E+001
+3.36821026283E+007, +4.93053399307E+001, -1.11408797427E+001
+3.38697121402E+007, +4.92953307375E+001, -1.11092925053E+001
+3.40573216521E+007, +4.92891279383E+001, -1.10649246915E+001
+3.42449311640E+007, +4.92804712660E+001, -1.10288650573E+001
+3.44325406758E+007, +4.92835820531E+001, -1.09927102021E+001
+3.46201501877E+007, +4.92699333524E+001, -1.09589831535E+001
+3.48077596996E+007, +4.92714598654E+001, -1.09015985537E+001
+3.49953692115E+007, +4.92658544307E+001, -1.08700085395E+001
+3.51829787234E+007, +4.92617371414E+001, -1.08401241577E+001
+3.53705882353E+007, +4.92531600629E+001, -1.07929369122E+001
+3.55581977472E+007, +4.92512438780E+001, -1.07654362583E+001
+3.57458072591E+007, +4.92511011396E+001, -1.07285719163E+001
+3.59334167710E+007, +4.92524319222E+001, -1.06869469294E+001
+3.61210262829E+007, +4.92473191670E+001, -1.06558005167E+001
+3.63086357947E+007, +4.92388669322E+001, -1.06260978761E+001
+3.64962453066E+007, +4.92343873467E+001, -1.06075837751E+001
+3.66838548185E+007, +4.92258126642E+001, -1.05775122787E+001
+3.68714643304E+007, +4.92310558850E+001, -1.05430496500E+001
+3.70590738423E+007, +4.92292286911E+001, -1.04993474998E+001
+3.72466833542E+007, +4.92253313801E+001, -1.04893553846E+001
+3.74342928661E+007, +4.92136063969E+001, -1.04482779572E+001
+3.76219023780E+007, +4.92119516252E+001, -1.04219373524E+001
+3.78095118899E+007, +4.91974815419E+001, -1.03933337276E+001
+3.79971214018E+007, +4.92018884907E+001, -1.03819562468E+001
+3.81847309136E+007, +4.91932730212E+001, -1.03495634984E+001
+3.83723404255E+007, +4.92032316506E+001, -1.03221772733E+001
+3.85599499374E+007, +4.91886533707E+001, -1.02993054841E+001
+3.87475594493E+007, +4.91835941042E+001, -1.02781498331E+001
+3.89351689612E+007, +4.91696253219E+001, -1.02581902872E+001
+3.91227784731E+007, +4.91649423661E+001, -1.02286103239E+001
+3.93103879850E+007, +4.91600360624E+001, -1.02137323525E+001
+3.94979974969E+007, +4.91478117095E+001, -1.01997843638E+001
+3.96856070088E+007, +4.91460280890E+001, -1.01752264958E+001
+3.98732165207E+007, +4.91211521536E+001, -1.01502769441E+001
+4.00608260325E+007, +4.91193891930E+001, -1.01418800750E+001
+4.02484355444E+007, +4.91052052613E+001, -1.01054321351E+001
+4.04360450563E+007, +4.90840054793E+001, -1.01000146679E+001
+4.06236545682E+007, +4.90741593844E+001, -1.00705224252E+001
+4.08112640801E+007, +4.90672689168E+001, -1.00537758633E+001
+4.09988735920E+007, +4.90518681029E+001, -1.00292045098E+001
+4.11864831039E+007, +4.90415442646E+001, -1.00069554277E+001
+4.13740926158E+007, +4.90339293854E+001, -9.97761179480E+000
+4.15617021277E+007, +4.90213873585E+001, -9.97329851420E+000
+4.17493116395E+007, +4.90050473359E+001, -9.94269950323E+000
+4.19369211514E+007, +4.90018999837E+001, -9.91803230591E+000
+4.21245306633E+007, +4.89931354929E+001, -9.89386579540E+000
+4.23121401752E+007, +4.89803098205E+001, -9.87505001196E+000
+4.24997496871E+007, +4.89762142031E+001, -9.85174168288E+000
+4.26873591990E+007, +4.89657810192E+001, -9.81795860798E+000
+4.28749687109E+007, +4.89604974759E+001, -9.80545640855E+000
+4.30625782228E+007, +4.89606703585E+001, -9.78142237921E+000
+4.32501877347E+007, +4.89542638361E+001, -9.76565373090E+000
+4.34377972466E+007, +4.89400991971E+001, -9.74822360297E+000
+4.36254067584E+007, +4.89438337100E+001, -9.74533490994E+000
+4.38130162703E+007, +4.89390727430E+001, -9.72386917031E+000
+4.40006257822E+007, +4.89271378390E+001, -9.70112518776E+000
+4.41882352941E+007, +4.89239275217E+001, -9.68869010438E+000
+4.43758448060E+007, +4.89169762314E+001, -9.67618162485E+000
+4.45634543179E+007, +4.89175848227E+001, -9.67118307896E+000
+4.47510638298E+007, +4.88929404360E+001, -9.65573786545E+000
+4.49386733417E+007, +4.88927819012E+001, -9.64269560662E+000
+4.51262828536E+007, +4.88765011088E+001, -9.63586486635E+000
+4.53138923655E+007, +4.88709488561E+001, -9.62583105695E+000
+4.55015018773E+007, +4.88551832797E+001, -9.61036689628E+000
+4.56891113892E+007, +4.88485289506E+001, -9.59677046737E+000
+4.58767209011E+007, +4.88328629870E+001, -9.60220456550E+000
+4.60643304130E+007, +4.88161984340E+001, -9.59764606599E+000
+4.62519399249E+007, +4.88104775912E+001, -9.57239258156E+000
+4.64395494368E+007, +4.88050762154E+001, -9.56690678292E+000
+4.66271589487E+007, +4.87789060698E+001, -9.54675313048E+000
+4.68147684606E+007, +4.87678716403E+001, -9.52838881368E+000
+4.70023779725E+007, +4.87557444167E+001, -9.51465531004E+000
+4.71899874844E+007, +4.87334784934E+001, -9.50618705694E+000
+4.73775969962E+007, +4.87391246234E+001, -9.49302549659E+000
+4.75652065081E+007, +4.87272544085E+001, -9.48270445362E+000
+4.77528160200E+007, +4.87181741171E+001, -9.47711662389E+000
+4.79404255319E+007, +4.87105513375E+001, -9.46427708640E+000
+4.81280350438E+007, +4.86965931566E+001, -9.45009538561E+000
+4.83156445557E+007, +4.86905799778E+001, -9.43400059099E+000
+4.85032540676E+007, +4.86846245351E+001, -9.43467983409E+000
+4.86908635795E+007, +4.86811805051E+001, -9.43220977699E+000
+4.88784730914E+007, +4.86691822959E+001, -9.42215578003E+000
+4.90660826033E+007, +4.86639894910E+001, -9.42343857368E+000
+4.92536921151E+007, +4.86485482240E+001, -9.42445283988E+000
+4.94413016270E+007, +4.86459828629E+001, -9.41466122721E+000
+4.96289111389E+007, +4.86269692059E+001, -9.41979598323E+000
+4.98165206508E+007, +4.86097704757E+001, -9.42332787111E+000
+5.00041301627E+007, +4.85936614099E+001, -9.42171474262E+000
+5.01917396746E+007, +4.85658326009E+001, -9.40396327888E+000
+5.03793491865E+007, +4.85544452936E+001, -9.40104910848E+000
+5.05669586984E+007, +4.85372779134E+001, -9.40275120061E+000
+5.07545682103E+007, +4.85272488501E+001, -9.38882222869E+000
+5.09421777222E+007, +4.85181187180E+001, -9.37625774942E+000
+5.11297872340E+007, +4.85026108816E+001, -9.37732399040E+000
+5.13173967459E+007, +4.84856431016E+001, -9.36425294698E+000
+5.15050062578E+007, +4.84731192224E+001, -9.35897287881E+000
+5.16926157697E+007, +4.84774119563E+001, -9.34999731839E+000
+5.18802252816E+007, +4.84507605680E+001, -9.34472542669E+000
+5.20678347935E+007, +4.84449941776E+001, -9.34562459695E+000
+5.22554443054E+007, +4.84413230115E+001, -9.34509579821E+000
+5.24430538173E+007, +4.84275106099E+001, -9.33487829089E+000
+5.26306633292E+007, +4.84292185313E+001, -9.32762508440E+000
+5.28182728411E+007, +4.84035491876E+001, -9.32373024050E+000
+5.30058823529E+007, +4.84056563882E+001, -9.32563651980E+000
+5.31934918648E+007, +4.83998154741E+001, -9.31329510405E+000
+5.33811013767E+007, +4.83933164362E+001, -9.32604944682E+000
+5.35687108886E+007, +4.83840283858E+001, -9.32033408535E+000
+5.37563204005E+007, +4.83723242845E+001, -9.33142162340E+000
+5.39439299124E+007, +4.83740470199E+001, -9.34537012218E+000
+5.41315394243E+007, +4.83666591729E+001, -9.34685636803E+000
+5.43191489362E+007, +4.83535480237E+001, -9.35976665204E+000
+5.45067584481E+007, +4.83370864823E+001, -9.36035324627E+000
+5.46943679599E+007, +4.83183682618E+001, -9.37556326002E+000
+5.48819774718E+007, +4.83111867679E+001, -9.38906242253E+000
+5.50695869837E+007, +4.82761681075E+001, -9.39871096952E+000
+5.52571964956E+007, +4.82527572499E+001, -9.38980094075E+000
+5.54448060075E+007, +4.82372722072E+001, -9.39531192605E+000
+5.56324155194E+007, +4.82202815052E+001, -9.38976771662E+000
+5.58200250313E+007, +4.82094449288E+001, -9.39021916485E+000
+5.60076345432E+007, +4.82145257212E+001, -9.38958297630E+000
+5.61952440551E+007, +4.81925711485E+001, -9.38908721190E+000
+5.63828535670E+007, +4.81997412038E+001, -9.39556168360E+000
+5.65704630788E+007, +4.81939248579E+001, -9.40460423178E+000
+5.67580725907E+007, +4.82032936155E+001, -9.41438661109E+000
+5.69456821026E+007, +4.82005514255E+001, -9.43163241829E+000
+5.71332916145E+007, +4.81951917469E+001, -9.45471640010E+000
+5.73209011264E+007, +4.81883050776E+001, -9.46729590632E+000
+5.75085106383E+007, +4.81791079184E+001, -9.50022580587E+000
+5.76961201502E+007, +4.81646544940E+001, -9.51114908443E+000
+5.78837296621E+007, +4.81652184798E+001, -9.54342817587E+000
+5.80713391740E+007, +4.81494521820E+001, -9.56167220708E+000
+5.82589486859E+007, +4.81349901815E+001, -9.59499377221E+000
+5.84465581977E+007, +4.81178293510E+001, -9.63808312434E+000
+5.86341677096E+007, +4.81059020781E+001, -9.66140601763E+000
+5.88217772215E+007, +4.80932085632E+001, -9.69648447258E+000
+5.90093867334E+007, +4.80748821412E+001, -9.72242089611E+000
+5.91969962453E+007, +4.80479390334E+001, -9.75314880432E+000
+5.93846057572E+007, +4.80323242029E+001, -9.78705288153E+000
+5.95722152691E+007, +4.80149941428E+001, -9.82338720964E+000
+5.97598247810E+007, +4.79856732307E+001, -9.85878166064E+000
+5.99474342929E+007, +4.79594657467E+001, -9.89009761749E+000
+6.01350438048E+007, +4.79403783255E+001, -9.92559180245E+000
