"# Channel 1"
"# Trace 1"
Frequency, Formatted Data, Formatted Data
+1.00000000000E+005, +2.27239015023E-001, +2.72649477129E+000
+2.66777963272E+005, +2.57307294712E-001, +7.19063032447E+000
+4.33555926544E+005, +2.98147168220E-001, +1.16497575259E+001
+6.00333889816E+005, +3.74181138812E-001, +1.60625565300E+001
+7.67111853088E+005, +4.05747866209E-001, +2.05223782914E+001
+9.33889816361E+005, +4.52614555167E-001, +2.48990342560E+001
+1.10066777963E+006, +3.95599755838E-001, +2.93458223183E+001
+1.26744574290E+006, +4.46047589505E-001, +3.37460442166E+001
+1.43422370618E+006, +4.04668052640E-001, +3.82431158549E+001
+1.60100166945E+006, +4.92058043337E-001, +4.25743312274E+001
+1.76777963272E+006, +5.10894027358E-001, +4.70084107074E+001
+1.93455759599E+006, +4.77068100090E-001, +5.13193822546E+001
+2.10133555927E+006, +4.82053794566E-001, +5.57428593844E+001
+2.26811352254E+006, +5.19905226213E-001, +6.02072709155E+001
+2.43489148581E+006, +5.23649511481E-001, +6.46964771418E+001
+2.60166944908E+006, +5.43236561083E-001, +6.90861959219E+001
+2.76844741235E+006, +4.29306633358E-001, +7.36195519581E+001
+2.93522537563E+006, +4.74659693161E-001, +7.79862668287E+001
+3.10200333890E+006, +6.15848910793E-001, +8.23064335300E+001
+3.26878130217E+006, +3.35461907153E-001, +8.70018816264E+001
+3.43555926544E+006, +5.08886788393E-001, +9.14029026575E+001
+3.60233722871E+006, +5.68890254968E-001, +9.59980437975E+001
+3.76911519199E+006, +5.46464211360E-001, +1.00588553765E+002
+3.93589315526E+006, +7.20487228492E-001, +1.04743611512E+002
+4.10267111853E+006, -2.89093381397E-001, +1.08256522905E+002
+4.26944908180E+006, +9.53020080698E-002, +1.14534418211E+002
+4.43622704508E+006, +5.64493687837E-001, +1.18506117084E+002
+4.60300500835E+006, +4.26504307534E-001, +1.23221700400E+002
+4.76978297162E+006, +3.58200871311E-001, +1.27627595071E+002
+4.93656093489E+006, +5.64501454208E-001, +1.32020395525E+002
+5.10333889816E+006, +4.78621790777E-001, +1.36560050498E+002
+5.27011686144E+006, +9.27176861700E-001, +1.41608520852E+002
+5.43689482471E+006, +6.98260312636E-001, +1.46068507743E+002
+5.60367278798E+006, +6.95880417736E-001, +1.50811483768E+002
+5.77045075125E+006, +8.16442840929E-001, +1.55083036519E+002
+5.93722871452E+006, +9.91637186919E-001, +1.59547124077E+002
+6.10400667780E+006, +9.85155419981E-001, +1.64561862484E+002
+6.27078464107E+006, +1.22678511033E+000, +1.68934761883E+002
+6.43756260434E+006, +1.28011268853E+000, +1.73586763394E+002
+6.60434056761E+006, +1.46670153114E+000, +1.78107119930E+002
+6.77111853088E+006, +1.72218414318E+000, +1.82823974766E+002
+6.93789649416E+006, +1.58945757560E+000, +1.87419556952E+002
+7.10467445743E+006, +1.29242066016E+000, +1.91920139454E+002
+7.27145242070E+006, +1.42850335666E+000, +1.96573389642E+002
+7.43823038397E+006, +1.63866482964E+000, +2.01026132650E+002
+7.60500834725E+006, +1.41911289542E+000, +2.05891096559E+002
+7.77178631052E+006, +1.61025926056E+000, +2.10858463083E+002
+7.93856427379E+006, +1.40330469587E+000, +2.15206919093E+002
+8.10534223706E+006, +1.43295590866E+000, +2.20056407977E+002
+8.27212020033E+006, +1.36670522454E+000, +2.25101179074E+002
+8.43889816361E+006, +1.08854423985E+000, +2.29905339365E+002
+8.60567612688E+006, +1.00762861674E+000, +2.34608495927E+002
+8.77245409015E+006, +1.11404879855E+000, +2.39444066992E+002
+8.93923205342E+006, +9.82432771275E-001, +2.44341559696E+002
+9.10601001669E+006, +7.35055503470E-001, +2.49540986405E+002
+9.27278797997E+006, +6.98835690451E-001, +2.54309063743E+002
+9.43956594324E+006, +5.05331587676E-001, +2.58993882852E+002
+9.60634390651E+006, +8.69790590877E-001, +2.64324209948E+002
+9.77312186978E+006, +5.39170921580E-001, +2.69087309489E+002
+9.93989983306E+006, +5.63669324510E-001, +2.74474606119E+002
+1.01066777963E+007, +8.06444311293E-002, +2.79256198091E+002
+1.02734557596E+007, +4.59928884645E-001, +2.84922771294E+002
+1.04402337229E+007, +1.69819680974E-001, +2.89464573987E+002
+1.06070116861E+007, -6.58499483232E-004, +2.94660115110E+002
+1.07737896494E+007, +4.12920915316E-001, +3.00422289796E+002
+1.09405676127E+007, +2.59785647837E-001, +3.05141701859E+002
+1.11073455760E+007, +2.74879018000E-001, +3.11156963094E+002
+1.12741235392E+007, +1.62787708635E-001, +3.16077046643E+002
+1.14409015025E+007, +3.14063359740E-001, +3.21339866513E+002
+1.16076794658E+007, +4.40054137674E-001, +3.26858341082E+002
+1.17744574290E+007, -1.03208673818E-002, +3.32248543004E+002
+1.19412353923E+007, +1.93988147368E-001, +3.37827776552E+002
+1.21080133556E+007, -5.04383858123E-001, +3.43758801365E+002
+1.22747913189E+007, +1.02064643936E-001, +3.48936268737E+002
+1.24415692821E+007, -4.06716139324E-001, +3.54435717391E+002
+1.26083472454E+007, -7.29500318066E-001, +3.60355545873E+002
+1.27751252087E+007, -5.88107749674E-002, +3.65023503467E+002
+1.29419031720E+007, -4.15339275418E-001, +3.70897703127E+002
+1.31086811352E+007, -6.00538529148E-003, +3.76805905543E+002
+1.32754590985E+007, +1.79090890683E-001, +3.81830004553E+002
+1.34422370618E+007, -1.16515439603E-001, +3.87902340009E+002
+1.36090150250E+007, +1.91440741130E-001, +3.93574537203E+002
+1.37757929883E+007, +1.07251728020E-001, +3.99109874176E+002
+1.39425709516E+007, +3.67694724177E-001, +4.04528252956E+002
+1.41093489149E+007, +7.94632163441E-001, +4.11164176757E+002
+1.42761268781E+007, +1.23370053939E+000, +4.16553874748E+002
+1.44429048414E+007, +8.76452752329E-001, +4.22271585299E+002
+1.46096828047E+007, -4.22807547541E-002, +4.28328013647E+002
+1.47764607679E+007, -2.13954861000E-001, +4.33688666835E+002
+1.49432387312E+007, +5.14473347414E-001, +4.40346227266E+002
+1.51100166945E+007, -2.75133300290E-001, +4.46613369634E+002
+1.52767946578E+007, +2.58104571626E-001, +4.52712458938E+002
+1.54435726210E+007, +3.53485419281E-001, +4.58855271044E+002
+1.56103505843E+007, +7.84470193807E-001, +4.65607724918E+002
+1.57771285476E+007, +2.67119462909E-001, +4.71138388731E+002
+1.59439065109E+007, +2.03874506186E-001, +4.78690256730E+002
+1.61106844741E+007, -3.73843736853E-002, +4.83564018810E+002
+1.62774624374E+007, +7.46905712133E-001, +4.89961451561E+002
+1.64442404007E+007, -2.15491680806E-001, +4.96272180246E+002
+1.66110183639E+007, +7.34507122530E-001, +5.04374681668E+002
+1.67777963272E+007, +7.86328763935E-001, +5.10849314834E+002
+1.69445742905E+007, +1.28310444014E+000, +5.17222851138E+002
+1.71113522538E+007, -1.64901144973E+000, +5.23693053466E+002
+1.72781302170E+007, -2.63709372472E-001, +5.30942301147E+002
+1.74449081803E+007, -1.84339991699E+000, +5.37531374393E+002
+1.76116861436E+007, +1.02507545794E+000, +5.45742608253E+002
+1.77784641068E+007, +1.52626575410E-002, +5.49964270138E+002
+1.79452420701E+007, +1.47333359723E+000, +5.58606166450E+002
+1.81120200334E+007, +2.04379504471E+000, +5.63788425777E+002
+1.82787979967E+007, +2.89466158464E+000, +5.71143652418E+002
+1.84455759599E+007, +1.16586490635E+000, +5.78945131811E+002
+1.86123539232E+007, +3.35072874348E+000, +5.85584780891E+002
+1.87791318865E+007, +2.54437084367E+000, +5.94784926723E+002
+1.89459098497E+007, +2.28885357073E+000, +6.02393402052E+002
+1.91126878130E+007, +4.63486180005E+000, +6.06726208226E+002
+1.92794657763E+007, +3.63129825170E+000, +6.17213952224E+002
+1.94462437396E+007, +4.12581873800E+000, +6.26067472467E+002
+1.96130217028E+007, +3.47778520263E+000, +6.33146629291E+002
+1.97797996661E+007, +4.69381713789E+000, +6.39291273843E+002
+1.99465776294E+007, +2.54403835062E+000, +6.47242423326E+002
+2.01133555927E+007, +1.27683050178E+000, +6.55579649958E+002
+2.02801335559E+007, +4.97940060210E+000, +6.65208427856E+002
+2.04469115192E+007, +5.35526000601E+000, +6.71993090177E+002
+2.06136894825E+007, +6.48910739132E+000, +6.80654780870E+002
+2.07804674457E+007, +6.41521603966E+000, +6.90136931149E+002
+2.09472454090E+007, +4.24229990814E+000, +6.99213329872E+002
+2.11140233723E+007, +5.18813083852E+000, +7.02911249029E+002
+2.12808013356E+007, +5.13659657353E+000, +7.11745989765E+002
+2.14475792988E+007, +8.46921966771E+000, +7.23141236692E+002
+2.16143572621E+007, +9.36505185832E+000, +7.29973017349E+002
+2.17811352254E+007, +7.42444015219E+000, +7.37148150741E+002
+2.19479131886E+007, +9.49550928719E+000, +7.46376327529E+002
+2.21146911519E+007, +1.06567676072E+001, +7.55348459885E+002
+2.22814691152E+007, +7.62995969009E+000, +7.67648104985E+002
+2.24482470785E+007, +9.08684850587E+000, +7.76455545393E+002
+2.26150250417E+007, +1.37039028145E+001, +7.82416707170E+002
+2.27818030050E+007, +1.13809797147E+001, +7.94014669323E+002
+2.29485809683E+007, +1.81943473993E+001, +8.02431724609E+002
+2.31153589316E+007, +1.09093088988E+001, +8.18175345549E+002
+2.32821368948E+007, +1.76117812179E+001, +8.24430084804E+002
+2.34489148581E+007, +1.64518247717E+001, +8.31185297825E+002
+2.36156928214E+007, +1.91949522807E+001, +8.47253580364E+002
+2.37824707846E+007, +1.90958023276E+001, +8.54706992291E+002
+2.39492487479E+007, +1.69559566543E+001, +8.61837621596E+002
+2.41160267112E+007, +1.87183514329E+001, +8.73530570667E+002
+2.42828046745E+007, +1.87037528203E+001, +8.82161885333E+002
+2.44495826377E+007, +2.35985049547E+001, +8.95795519648E+002
+2.46163606010E+007, +2.37767279906E+001, +9.04006146436E+002
+2.47831385643E+007, +2.24966439486E+001, +9.16294021821E+002
+2.49499165275E+007, +2.84318233303E+001, +9.29500782497E+002
+2.51166944908E+007, +2.96657020231E+001, +9.34852482856E+002
+2.52834724541E+007, +2.98218489615E+001, +9.51347302421E+002
+2.54502504174E+007, +3.34676001388E+001, +9.60935423195E+002
+2.56170283806E+007, +3.22183014633E+001, +9.72221492124E+002
+2.57838063439E+007, +3.26840863970E+001, +9.87459115339E+002
+2.59505843072E+007, +3.67964235702E+001, +9.99553010518E+002
+2.61173622705E+007, +3.45719930680E+001, +1.01027803902E+003
+2.62841402337E+007, +3.55485551663E+001, +1.02184601130E+003
+2.64509181970E+007, +3.21504676311E+001, +1.02817611795E+003
+2.66176961603E+007, +3.54777921992E+001, +1.04805499383E+003
+2.67844741235E+007, +3.92037061985E+001, +1.06100156537E+003
+2.69512520868E+007, +4.19414338404E+001, +1.06872619960E+003
+2.71180300501E+007, +3.88065542857E+001, +1.07868757823E+003
+2.72848080134E+007, +4.66955606521E+001, +1.09777142146E+003
+2.74515859766E+007, +5.27323402475E+001, +1.10785336928E+003
+2.76183639399E+007, +4.29620908596E+001, +1.12018937385E+003
+2.77851419032E+007, +4.36360695699E+001, +1.13059166457E+003
+2.79519198664E+007, +4.90450121511E+001, +1.14188927710E+003
+2.81186978297E+007, +5.29955130429E+001, +1.15560114824E+003
+2.82854757930E+007, +5.41751796576E+001, +1.17102598099E+003
+2.84522537563E+007, +4.37061629851E+001, +1.19230568349E+003
+2.86190317195E+007, +5.03959721729E+001, +1.19480490852E+003
+2.87858096828E+007, +6.23865012976E+001, +1.21336245086E+003
+2.89525876461E+007, +4.96869871131E+001, +1.23223172345E+003
+2.91193656093E+007, +4.79252022663E+001, +1.23766129175E+003
+2.92861435726E+007, +4.58735180603E+001, +1.25890707377E+003
+2.94529215359E+007, +5.50719660424E+001, +1.27952596646E+003
+2.96196994992E+007, +5.91427125671E+001, +1.29219748751E+003
+2.97864774624E+007, +5.41613608757E+001, +1.31442051144E+003
+2.99532554257E+007, +5.67810310596E+001, +1.32782891472E+003
+3.01200333890E+007, +5.51336606346E+001, +1.35306407278E+003
+3.02868113523E+007, +5.86901831549E+001, +1.36851032748E+003
+3.04535893155E+007, +5.53925115148E+001, +1.39692210679E+003
+3.06203672788E+007, +6.40517203168E+001, +1.40840168097E+003
+3.07871452421E+007, +5.80526258717E+001, +1.43290335363E+003
+3.09539232053E+007, +5.31436335681E+001, +1.44590896192E+003
+3.11207011686E+007, +5.20739890184E+001, +1.48089085158E+003
+3.12874791319E+007, +5.50072345816E+001, +1.48396466384E+003
+3.14542570952E+007, +5.80701834268E+001, +1.51735669663E+003
+3.16210350584E+007, +5.36411948402E+001, +1.54210953550E+003
+3.17878130217E+007, +5.53361707349E+001, +1.57179766858E+003
+3.19545909850E+007, +7.01063039343E+001, +1.58836252150E+003
+3.21213689482E+007, +4.75537091320E+001, +1.61777431227E+003
+3.22881469115E+007, +6.12902321382E+001, +1.63576479911E+003
+3.24549248748E+007, +6.64524056275E+001, +1.67187345028E+003
+3.26217028381E+007, +6.53568848284E+001, +1.69365387782E+003
+3.27884808013E+007, +7.28123914668E+001, +1.71781832372E+003
+3.29552587646E+007, +5.67679991945E+001, +1.73971326326E+003
+3.31220367279E+007, +7.91590841964E+001, +1.77269419426E+003
+3.32888146912E+007, +7.37927976420E+001, +1.82034018769E+003
+3.34555926544E+007, +6.56932150505E+001, +1.84707919931E+003
+3.36223706177E+007, +7.72910001260E+001, +1.87053687794E+003
+3.37891485810E+007, +6.36111212501E+001, +1.88725359023E+003
+3.39559265442E+007, +6.96485170385E+001, +1.95304009445E+003
+3.41227045075E+007, +7.75948316503E+001, +1.96615306491E+003
+3.42894824708E+007, +7.01873635932E+001, +2.00847694798E+003
+3.44562604341E+007, +8.87222858960E+001, +2.03985523144E+003
+3.46230383973E+007, +7.85204472077E+001, +2.09493415490E+003
+3.47898163606E+007, +8.87801267399E+001, +2.11860370481E+003
+3.49565943239E+007, +1.18076594743E+002, +2.15969212812E+003
+3.51233722871E+007, +9.14680493687E+001, +2.21446481657E+003
+3.52901502504E+007, +9.75289928540E+001, +2.23546989708E+003
+3.54569282137E+007, +1.03665238488E+002, +2.31212266759E+003
+3.56237061770E+007, +1.00150702208E+002, +2.35322575550E+003
+3.57904841402E+007, +9.79355908379E+001, +2.39540481412E+003
+3.59572621035E+007, +1.27261228721E+002, +2.46662440653E+003
+3.61240400668E+007, +1.22216979711E+002, +2.48692737710E+003
+3.62908180301E+007, +1.41216861871E+002, +2.57727998815E+003
+3.64575959933E+007, +1.16327478089E+002, +2.63304879129E+003
+3.66243739566E+007, +1.29900080137E+002, +2.65571473493E+003
+3.67911519199E+007, +1.68461192984E+002, +2.77534536000E+003
+3.69579298831E+007, +1.43657682949E+002, +2.83683041403E+003
+3.71247078464E+007, +1.13823532739E+002, +2.91667813477E+003
+3.72914858097E+007, +1.42317580201E+002, +2.99762763492E+003
+3.74582637730E+007, +2.09006272609E+002, +3.11963878538E+003
+3.76250417362E+007, +1.93242375332E+002, +3.12746822494E+003
+3.77918196995E+007, +1.56994810501E+002, +3.25517103421E+003
+3.79585976628E+007, +1.75290176879E+002, +3.34462208658E+003
+3.81253756260E+007, +2.29855088488E+002, +3.43094129638E+003
+3.82921535893E+007, +2.67121143370E+002, +3.50154809415E+003
+3.84589315526E+007, +2.53983124587E+002, +3.66252413506E+003
+3.86257095159E+007, +2.46810962097E+002, +3.75642497485E+003
+3.87924874791E+007, +2.34447585906E+002, +3.95140585848E+003
+3.89592654424E+007, +3.18544358780E+002, +4.00281260464E+003
+3.91260434057E+007, +3.38106358536E+002, +4.24662010657E+003
+3.92928213689E+007, +3.66264976007E+002, +4.32157008501E+003
+3.94595993322E+007, +3.32453267994E+002, +4.52074491930E+003
+3.96263772955E+007, +3.85309548401E+002, +4.65421416177E+003
+3.97931552588E+007, +4.13736308625E+002, +4.87271034168E+003
+3.99599332220E+007, +5.07615817134E+002, +5.07391682880E+003
+4.01267111853E+007, +4.30568464845E+002, +5.31519237378E+003
+4.02934891486E+007, +4.91062322720E+002, +5.44958229022E+003
+4.04602671119E+007, +5.49195894755E+002, +5.76515567499E+003
+4.06270450751E+007, +6.59261860171E+002, +6.15665924536E+003
+4.07938230384E+007, +7.18223112365E+002, +6.42131177131E+003
+4.09606010017E+007, +8.51954540704E+002, +6.77744475344E+003
+4.11273789649E+007, +9.98153035550E+002, +7.19755344616E+003
+4.12941569282E+007, +1.35165764494E+003, +7.71069079612E+003
+4.14609348915E+007, +1.41682528494E+003, +8.59201711542E+003
+4.16277128548E+007, +1.89831251640E+003, +8.70176701871E+003
+4.17944908180E+007, +1.75240376570E+003, +9.44565445972E+003
+4.19612687813E+007, +2.34031574865E+003, +1.04875523729E+004
+4.21280467446E+007, +2.47023115085E+003, +1.18659915080E+004
+4.22948247078E+007, +3.34062386633E+003, +1.28323007790E+004
+4.24616026711E+007, +5.16840588730E+003, +1.30499827127E+004
+4.26283806344E+007, +6.12840028299E+003, +1.48719358583E+004
+4.27951585977E+007, +8.22663847094E+003, +1.86886884520E+004
+4.29619365609E+007, +1.19767102788E+004, +1.76447590552E+004
+4.31287145242E+007, +1.76447149267E+004, +2.13230656886E+004
+4.32954924875E+007, +2.36786307189E+004, +2.19478013317E+004
+4.34622704508E+007, +4.52507772434E+004, +2.07114374098E+004
+4.36290484140E+007, +3.52280199000E+004, +1.00890242343E+004
+4.37958263773E+007, +4.16126002199E+004, -1.08661536714E+004
+4.39626043406E+007, +3.23053487620E+004, -1.41305825756E+004
+4.41293823038E+007, +2.07022752464E+004, -1.87574216025E+004
+4.42961602671E+007, +1.54327519496E+004, -1.95509666829E+004
+4.44629382304E+007, +1.13873202347E+004, -1.79959127572E+004
+4.46297161937E+007, +9.14937768904E+003, -1.64001333660E+004
+4.47964941569E+007, +7.01277568099E+003, -1.50915869200E+004
+4.49632721202E+007, +4.27998390813E+003, -1.32118260777E+004
+4.51300500835E+007, +4.38757772639E+003, -1.26448019426E+004
+4.52968280467E+007, +3.33667042677E+003, -1.12605119158E+004
+4.54636060100E+007, +2.61916527875E+003, -9.94237711618E+003
+4.56303839733E+007, +2.42232425631E+003, -8.95921470971E+003
+4.57971619366E+007, +2.16965519785E+003, -8.26963431620E+003
+4.59639398998E+007, +1.54012805651E+003, -7.68989439106E+003
+4.61307178631E+007, +1.55560985179E+003, -7.10366824829E+003
+4.62974958264E+007, +1.45399213879E+003, -6.65693141767E+003
+4.64642737896E+007, +1.14340083432E+003, -6.44261317715E+003
+4.66310517529E+007, +1.12761808512E+003, -5.92829912766E+003
+4.67978297162E+007, +1.16911046748E+003, -5.69031763645E+003
+4.69646076795E+007, +9.55782793008E+002, -5.36175239417E+003
+4.71313856427E+007, +9.06097497448E+002, -5.12376180451E+003
+4.72981636060E+007, +8.29532344501E+002, -4.89024475683E+003
+4.74649415693E+007, +7.63107702649E+002, -4.70879183577E+003
+4.76317195326E+007, +7.55435927410E+002, -4.41925059863E+003
+4.77984974958E+007, +7.58078056575E+002, -4.24374820413E+003
+4.79652754591E+007, +6.78394726154E+002, -4.07466079904E+003
+4.81320534224E+007, +6.87366104732E+002, -3.97325859388E+003
+4.82988313856E+007, +6.41943866057E+002, -3.77495509695E+003
+4.84656093489E+007, +6.30623546209E+002, -3.67979601853E+003
+4.86323873122E+007, +6.10640177864E+002, -3.53381020488E+003
+4.87991652755E+007, +6.08861259137E+002, -3.39609274414E+003
+4.89659432387E+007, +5.55636110632E+002, -3.30638553777E+003
+4.91327212020E+007, +5.60110160132E+002, -3.19628468873E+003
+4.92994991653E+007, +5.49891112058E+002, -3.12099445878E+003
+4.94662771285E+007, +5.46451427556E+002, -3.02264013007E+003
+4.96330550918E+007, +5.27593002705E+002, -2.93306817599E+003
+4.97998330551E+007, +5.51397481009E+002, -2.87250494863E+003
+4.99666110184E+007, +5.18193969070E+002, -2.78429243039E+003
+5.01333889816E+007, +4.82414230613E+002, -2.73309689799E+003
+5.03001669449E+007, +4.45234200979E+002, -2.69037221734E+003
+5.04669449082E+007, +4.44859706094E+002, -2.61080400409E+003
+5.06337228715E+007, +4.30157940315E+002, -2.53435617649E+003
+5.08005008347E+007, +4.27748273525E+002, -2.50084692577E+003
+5.09672787980E+007, +4.18875002493E+002, -2.46216190644E+003
+5.11340567613E+007, +3.81907631578E+002, -2.39063834729E+003
+5.13008347245E+007, +3.46697626649E+002, -2.31154356404E+003
+5.14676126878E+007, +3.44960246684E+002, -2.29661722809E+003
+5.16343906511E+007, +3.56341622645E+002, -2.23153192288E+003
+5.18011686144E+007, +3.23781588534E+002, -2.20226726616E+003
+5.19679465776E+007, +2.97255450741E+002, -2.14286276471E+003
+5.21347245409E+007, +2.82222746901E+002, -2.08056428770E+003
+5.23015025042E+007, +2.88800746424E+002, -2.00748464187E+003
+5.24682804674E+007, +2.67875513389E+002, -1.96754124374E+003
+5.26350584307E+007, +2.65906957608E+002, -1.93420225394E+003
+5.28018363940E+007, +2.28271661179E+002, -1.88382305195E+003
+5.29686143573E+007, +2.32951045310E+002, -1.84860790737E+003
+5.31353923205E+007, +2.40273452472E+002, -1.81694738808E+003
+5.33021702838E+007, +2.35048833080E+002, -1.78555932467E+003
+5.34689482471E+007, +2.24299373212E+002, -1.73492338544E+003
