"# Channel 1"
"# Trace 1"
Frequency, Formatted Data, Formatted Data
+1.00000000000E+005, +1.01580378342E+000, +2.95787452364E+000
+2.25031289111E+005, +1.04973643850E+000, +6.62797955650E+000
+3.50062578223E+005, +1.08614765905E+000, +1.02779269725E+001
+4.75093867334E+005, +1.12951949054E+000, +1.39247404671E+001
+6.00125156446E+005, +1.16051045018E+000, +1.75614293295E+001
+7.25156445557E+005, +1.21723127481E+000, +2.11899968399E+001
+8.50187734668E+005, +1.26262535423E+000, +2.48025125566E+001
+9.75219023780E+005, +1.31414494130E+000, +2.84208987735E+001
+1.10025031289E+006, +1.38703228648E+000, +3.20582944244E+001
+1.22528160200E+006, +1.43463040220E+000, +3.56520774693E+001
+1.35031289111E+006, +1.47699128361E+000, +3.92673351178E+001
+1.47534418023E+006, +1.52410043658E+000, +4.28311514455E+001
+1.60037546934E+006, +1.57597645216E+000, +4.64246263096E+001
+1.72540675845E+006, +1.59787475710E+000, +5.00403323941E+001
+1.85043804756E+006, +1.65491438866E+000, +5.36235158051E+001
+1.97546933667E+006, +1.68888169663E+000, +5.71961862358E+001
+2.10050062578E+006, +1.73471326101E+000, +6.08145842405E+001
+2.22553191489E+006, +1.80560331614E+000, +6.43895154445E+001
+2.35056320401E+006, +1.81492209154E+000, +6.79443031192E+001
+2.47559449312E+006, +1.84165982839E+000, +7.15905449097E+001
+2.60062578223E+006, +1.94039132150E+000, +7.51631128732E+001
+2.72565707134E+006, +1.90372682894E+000, +7.87458731156E+001
+2.85068836045E+006, +2.00843099152E+000, +8.23139068521E+001
+2.97571964956E+006, +1.96657588821E+000, +8.59095309339E+001
+3.10075093867E+006, +1.99039837620E+000, +8.94949185141E+001
+3.22578222778E+006, +2.10489377735E+000, +9.30929369471E+001
+3.35081351690E+006, +2.10774065338E+000, +9.67993926032E+001
+3.47584480601E+006, +2.10212896977E+000, +1.00279321881E+002
+3.60087609512E+006, +2.12286323794E+000, +1.04007400750E+002
+3.72590738423E+006, +2.02090709072E+000, +1.07591781422E+002
+3.85093867334E+006, +1.69923024392E+000, +1.11382166334E+002
+3.97596996245E+006, +1.47882670008E+000, +1.15250025664E+002
+4.10100125156E+006, +5.69390905939E+000, +1.18210500519E+002
+4.22603254068E+006, +2.38447951413E+000, +1.21532223426E+002
+4.35106382979E+006, +2.38605102468E+000, +1.25592566819E+002
+4.47609511890E+006, +2.04371198308E+000, +1.29310138570E+002
+4.60112640801E+006, +2.22195362018E+000, +1.32958017124E+002
+4.72615769712E+006, +2.32722641195E+000, +1.36718217217E+002
+4.85118898623E+006, +2.24660044151E+000, +1.40340500822E+002
+4.97622027534E+006, +2.30759449467E+000, +1.43930725229E+002
+5.10125156446E+006, +2.28971630867E+000, +1.47384377267E+002
+5.22628285357E+006, +2.14974942234E+000, +1.51151753980E+002
+5.35131414268E+006, +2.32687398405E+000, +1.55002261442E+002
+5.47634543179E+006, +2.36887459687E+000, +1.58709202606E+002
+5.60137672090E+006, +2.25930269966E+000, +1.62360325706E+002
+5.72640801001E+006, +2.35940799743E+000, +1.66015692125E+002
+5.85143929912E+006, +2.34084571352E+000, +1.69749960855E+002
+5.97647058824E+006, +2.37918439956E+000, +1.73369240334E+002
+6.10150187735E+006, +2.19656537182E+000, +1.77216159619E+002
+6.22653316646E+006, +2.16086633886E+000, +1.80916055610E+002
+6.35156445557E+006, +2.17993407233E+000, +1.84810652353E+002
+6.47659574468E+006, +2.21603516733E+000, +1.88552333884E+002
+6.60162703379E+006, +2.46755915937E+000, +1.92380258242E+002
+6.72665832290E+006, +2.49112598913E+000, +1.96168391505E+002
+6.85168961202E+006, +2.40342180703E+000, +2.00323672465E+002
+6.97672090113E+006, +2.34273627430E+000, +2.03929013016E+002
+7.10175219024E+006, +2.63692488791E+000, +2.07658870037E+002
+7.22678347935E+006, +2.72456399096E+000, +2.11511924463E+002
+7.35181476846E+006, +2.49722658340E+000, +2.15491778517E+002
+7.47684605757E+006, +2.63002830409E+000, +2.18983733268E+002
+7.60187734668E+006, +2.74587025398E+000, +2.22767282025E+002
+7.72690863579E+006, +2.90909276798E+000, +2.26690345700E+002
+7.85193992491E+006, +3.06808344067E+000, +2.30706249116E+002
+7.97697121402E+006, +2.63493099116E+000, +2.34558263877E+002
+8.10200250313E+006, +3.00329032277E+000, +2.38298427656E+002
+8.22703379224E+006, +3.05826559084E+000, +2.42034919937E+002
+8.35206508135E+006, +3.12702694568E+000, +2.45960257269E+002
+8.47709637046E+006, +2.66663095139E+000, +2.49801659135E+002
+8.60212765957E+006, +3.15847367547E+000, +2.53181847571E+002
+8.72715894869E+006, +3.16369811834E+000, +2.57251363517E+002
+8.85219023780E+006, +3.50841013705E+000, +2.61089321114E+002
+8.97722152691E+006, +3.77930080138E+000, +2.64634434535E+002
+9.10225281602E+006, +3.42807143383E+000, +2.68475432329E+002
+9.22728410513E+006, +3.51614851500E+000, +2.72870741071E+002
+9.35231539424E+006, +2.88881609435E+000, +2.76840154927E+002
+9.47734668335E+006, +3.54026438528E+000, +2.80090239473E+002
+9.60237797247E+006, +3.82221237004E+000, +2.83649455506E+002
+9.72740926158E+006, +4.05916302390E+000, +2.86854895523E+002
+9.85244055069E+006, +4.52376202864E+000, +2.90362201765E+002
+9.97747183980E+006, +4.70026847488E+000, +2.93912194067E+002
+1.01025031289E+007, +4.34789911403E+000, +2.97529700627E+002
+1.02275344180E+007, +4.77989669465E+000, +3.00842288541E+002
+1.03525657071E+007, +4.72575689953E+000, +3.05095942240E+002
+1.04775969962E+007, +4.73602741408E+000, +3.08758156304E+002
+1.06026282854E+007, +4.40477334624E+000, +3.12803537959E+002
+1.07276595745E+007, +4.49527063641E+000, +3.17070137262E+002
+1.08526908636E+007, +4.37090700176E+000, +3.21672709865E+002
+1.09777221527E+007, +4.05222294297E+000, +3.25896322417E+002
+1.11027534418E+007, +4.00382675597E+000, +3.31090389556E+002
+1.12277847309E+007, +4.00700164019E+000, +3.35466738295E+002
+1.13528160200E+007, +3.44837129084E+000, +3.40817507530E+002
+1.14778473091E+007, +3.01377241406E+000, +3.45654767347E+002
+1.16028785982E+007, +2.55307489470E+000, +3.50117335374E+002
+1.17279098874E+007, +2.83959896351E+000, +3.53729924813E+002
+1.18529411765E+007, +2.63556893707E+000, +3.57937723491E+002
+1.19779724656E+007, +2.66226497354E+000, +3.62259041930E+002
+1.21030037547E+007, +3.45980836960E+000, +3.67030159578E+002
+1.22280350438E+007, +2.47348427578E+000, +3.70416402158E+002
+1.23530663329E+007, +2.78736566863E+000, +3.75437965211E+002
+1.24780976220E+007, +2.76836553958E+000, +3.79959847463E+002
+1.26031289111E+007, +2.36985035132E+000, +3.84422434286E+002
+1.27281602003E+007, +2.52530012256E+000, +3.88446005935E+002
+1.28531914894E+007, +2.58846633365E+000, +3.92545014970E+002
+1.29782227785E+007, +2.25321939631E+000, +3.96323078155E+002
+1.31032540676E+007, +2.19298567033E+000, +4.01355142612E+002
+1.32282853567E+007, +2.34768313285E+000, +4.05735276791E+002
+1.33533166458E+007, +1.95998941314E+000, +4.10217438675E+002
+1.34783479349E+007, +3.03958438740E+000, +4.14263269217E+002
+1.36033792240E+007, +2.27123954958E+000, +4.19254747348E+002
+1.37284105131E+007, +2.25738055599E+000, +4.24100036096E+002
+1.38534418023E+007, +3.33107925383E+000, +4.28774732376E+002
+1.39784730914E+007, +2.86991066460E+000, +4.33393936213E+002
+1.41035043805E+007, +2.23962601498E+000, +4.38334096772E+002
+1.42285356696E+007, +2.43758865057E+000, +4.41683143659E+002
+1.43535669587E+007, +2.24971434412E+000, +4.46835759365E+002
+1.44785982478E+007, +2.03589979823E+000, +4.51318107366E+002
+1.46036295369E+007, +2.17090652594E+000, +4.55818785449E+002
+1.47286608260E+007, +1.63545792359E+000, +4.60669566103E+002
+1.48536921151E+007, +1.97698509450E+000, +4.65599295595E+002
+1.49787234043E+007, +2.09535667883E+000, +4.69919549083E+002
+1.51037546934E+007, +1.46961912947E+000, +4.74752504692E+002
+1.52287859825E+007, +1.70261640699E+000, +4.80142784891E+002
+1.53538172716E+007, +1.92883267114E+000, +4.85314584295E+002
+1.54788485607E+007, +2.03026167836E+000, +4.90350243405E+002
+1.56038798498E+007, +2.30061135709E+000, +4.95196892649E+002
+1.57289111389E+007, +2.26671594619E+000, +5.01008780784E+002
+1.58539424280E+007, +2.08981966943E+000, +5.04944985292E+002
+1.59789737171E+007, +1.61472037447E+000, +5.10209790915E+002
+1.61040050063E+007, +1.49793994516E+000, +5.15413805148E+002
+1.62290362954E+007, +2.42540863651E+000, +5.19338668031E+002
+1.63540675845E+007, +1.88715538696E+000, +5.25108150360E+002
+1.64790988736E+007, +2.98380439199E+000, +5.31141368110E+002
+1.66041301627E+007, +2.63071107493E+000, +5.36211449709E+002
+1.67291614518E+007, +2.24907544861E+000, +5.41282072636E+002
+1.68541927409E+007, +1.93121482398E+000, +5.46015701343E+002
+1.69792240300E+007, +2.73509429600E+000, +5.52228453004E+002
+1.71042553191E+007, +2.22105691768E+000, +5.57199012270E+002
+1.72292866083E+007, +1.99886770143E+000, +5.61851882368E+002
+1.73543178974E+007, +1.76353693354E+000, +5.68161338892E+002
+1.74793491865E+007, +3.83840505040E-001, +5.71297354623E+002
+1.76043804756E+007, +1.40671289718E+000, +5.77943237706E+002
+1.77294117647E+007, +1.11114731433E+000, +5.83696379035E+002
+1.78544430538E+007, +1.67395395496E+000, +5.89158065543E+002
+1.79794743429E+007, +2.41440570272E+000, +5.94429706299E+002
+1.81045056320E+007, +3.13824914646E-001, +6.00918636138E+002
+1.82295369212E+007, +1.92640363353E+000, +6.05587011187E+002
+1.83545682103E+007, +6.04552101978E-002, +6.12252043004E+002
+1.84795994994E+007, +1.81533762204E+000, +6.17784319476E+002
+1.86046307885E+007, +1.36593766706E+000, +6.22608520969E+002
+1.87296620776E+007, +1.20792317336E+000, +6.28020338828E+002
+1.88546933667E+007, +1.73402240867E+000, +6.34230245673E+002
+1.89797246558E+007, +1.80196857195E+000, +6.41908342765E+002
+1.91047559449E+007, +1.65636274441E+000, +6.46191494560E+002
+1.92297872340E+007, +3.79503980695E+000, +6.52001401484E+002
+1.93548185232E+007, +2.88255046727E+000, +6.59626819773E+002
+1.94798498123E+007, +2.13746075356E+000, +6.63304347230E+002
+1.96048811014E+007, +1.67415335976E+000, +6.71479014139E+002
+1.97299123905E+007, +2.89631211758E+000, +6.76401906591E+002
+1.98549436796E+007, +2.99416590342E+000, +6.84387729769E+002
+1.99799749687E+007, +3.15633791466E+000, +6.90232155148E+002
+2.01050062578E+007, +1.92257122568E+000, +6.95187628358E+002
+2.02300375469E+007, +3.64237213590E+000, +7.02002188572E+002
+2.03550688360E+007, +2.69960899787E+000, +7.08793191488E+002
+2.04801001252E+007, +3.46255113750E+000, +7.14664356492E+002
+2.06051314143E+007, +2.69381604092E+000, +7.22400044702E+002
+2.07301627034E+007, +2.42236299796E+000, +7.28594429843E+002
+2.08551939925E+007, +5.66354445493E+000, +7.34000826380E+002
+2.09802252816E+007, +2.38151945201E+000, +7.41029263971E+002
+2.11052565707E+007, +4.09635414420E+000, +7.49487991084E+002
+2.12302878598E+007, +1.83830725530E+000, +7.56629869518E+002
+2.13553191489E+007, +4.22389718301E+000, +7.62643475272E+002
+2.14803504380E+007, +2.82310979416E+000, +7.70439217286E+002
+2.16053817272E+007, +3.15224228539E+000, +7.75976787845E+002
+2.17304130163E+007, +4.63999105033E+000, +7.84616808097E+002
+2.18554443054E+007, +5.87244181655E+000, +7.91949324736E+002
+2.19804755945E+007, +3.87729668242E+000, +7.98289666494E+002
+2.21055068836E+007, +6.62949747014E+000, +8.08047300044E+002
+2.22305381727E+007, +6.66971029122E+000, +8.13602602436E+002
+2.23555694618E+007, +4.60116747345E+000, +8.21737776477E+002
+2.24806007509E+007, +5.67282560283E+000, +8.28492063496E+002
+2.26056320401E+007, +7.43200962966E+000, +8.37972699214E+002
+2.27306633292E+007, +8.11324015743E+000, +8.44625303347E+002
+2.28556946183E+007, +9.43803866877E+000, +8.54074337672E+002
+2.29807259074E+007, +6.58282921258E+000, +8.61853800757E+002
+2.31057571965E+007, +1.03595190849E+001, +8.69535577607E+002
+2.32307884856E+007, +1.03817913911E+001, +8.78811424215E+002
+2.33558197747E+007, +1.01863477195E+001, +8.79478939450E+002
+2.34808510638E+007, +1.25728172613E+001, +8.92623509232E+002
+2.36058823529E+007, +1.10007017036E+001, +8.99679037905E+002
+2.37309136421E+007, +1.40667931006E+001, +9.05356190936E+002
+2.38559449312E+007, +1.59344552468E+001, +9.15693577972E+002
+2.39809762203E+007, +1.50987451138E+001, +9.19916274977E+002
+2.41060075094E+007, +1.84149371917E+001, +9.28605021011E+002
+2.42310387985E+007, +1.56578756585E+001, +9.39630473928E+002
+2.43560700876E+007, +2.09797276402E+001, +9.51956846954E+002
+2.44811013767E+007, +2.34022590196E+001, +9.51503584624E+002
+2.46061326658E+007, +1.80132013942E+001, +9.59336994542E+002
+2.47311639549E+007, +2.07584043260E+001, +9.65964045488E+002
+2.48561952441E+007, +1.87688315641E+001, +9.71782923556E+002
+2.49812265332E+007, +1.79727094528E+001, +9.84067420181E+002
+2.51062578223E+007, +1.72928226298E+001, +9.87611579320E+002
+2.52312891114E+007, +1.46907260142E+001, +9.95844953224E+002
+2.53563204005E+007, +1.55620301157E+001, +1.00768759871E+003
+2.54813516896E+007, +1.47961870447E+001, +1.01891660552E+003
+2.56063829787E+007, +1.43973286326E+001, +1.02527727448E+003
+2.57314142678E+007, +1.41639599315E+001, +1.03521213357E+003
+2.58564455569E+007, +1.49983706043E+001, +1.04665778738E+003
+2.59814768461E+007, +1.48082434937E+001, +1.05205399398E+003
+2.61065081352E+007, +1.25521149598E+001, +1.06639240758E+003
+2.62315394243E+007, +1.07175806141E+001, +1.07512571535E+003
+2.63565707134E+007, +1.24266753751E+001, +1.08974319094E+003
+2.64816020025E+007, +1.22432975864E+001, +1.09956819566E+003
+2.66066332916E+007, +1.13325465926E+001, +1.11168939966E+003
+2.67316645807E+007, +5.81522006990E+000, +1.11939934740E+003
+2.68566958698E+007, +1.45689848662E+001, +1.13168900233E+003
+2.69817271589E+007, +1.37645347973E+001, +1.13738161906E+003
+2.71067584481E+007, +1.25941129040E+001, +1.14983845342E+003
+2.72317897372E+007, +1.50875319661E+001, +1.16351843373E+003
+2.73568210263E+007, +1.20073029980E+001, +1.17633008544E+003
+2.74818523154E+007, +1.19641449923E+001, +1.18331620340E+003
+2.76068836045E+007, +1.32537763518E+001, +1.19945950395E+003
+2.77319148936E+007, +1.49473706058E+001, +1.20861243704E+003
+2.78569461827E+007, +1.66072302675E+001, +1.22004705377E+003
+2.79819774718E+007, +2.30979820316E+001, +1.23327128272E+003
+2.81070087610E+007, +1.98699124813E+001, +1.24655382491E+003
+2.82320400501E+007, +1.89082582182E+001, +1.25484680683E+003
+2.83570713392E+007, +1.96585669208E+001, +1.26308686201E+003
+2.84821026283E+007, +1.85006422166E+001, +1.28055568148E+003
+2.86071339174E+007, +1.36687374955E+001, +1.29922529049E+003
+2.87321652065E+007, +1.96650159139E+001, +1.30710895522E+003
+2.88571964956E+007, +1.25637630952E+001, +1.32319355024E+003
+2.89822277847E+007, +1.36098721978E+001, +1.33502023479E+003
+2.91072590738E+007, +1.27818455937E+001, +1.34920583318E+003
+2.92322903630E+007, +1.08288115882E+001, +1.36391860902E+003
+2.93573216521E+007, +1.20682980077E+001, +1.37424330699E+003
+2.94823529412E+007, +1.26946199065E+001, +1.39923274037E+003
+2.96073842303E+007, +1.39451373207E+001, +1.40928345764E+003
+2.97324155194E+007, +1.49708885562E+001, +1.42518456774E+003
+2.98574468085E+007, +2.40719729936E+001, +1.43984291644E+003
+2.99824780976E+007, +2.69059686095E+001, +1.45464530403E+003
+3.01075093867E+007, +2.29734641692E+001, +1.47723585527E+003
+3.02325406758E+007, +2.19129720828E+001, +1.48744697295E+003
+3.03575719650E+007, +2.26029301395E+001, +1.50469591615E+003
+3.04826032541E+007, +3.27986399125E+001, +1.51730233627E+003
+3.06076345432E+007, +2.34733649563E+001, +1.54508897653E+003
+3.07326658323E+007, +2.52899440065E+001, +1.56541407433E+003
+3.08576971214E+007, +2.82903167745E+001, +1.57651905771E+003
+3.09827284105E+007, +2.41285833656E+001, +1.58620329703E+003
+3.11077596996E+007, +2.94450921647E+001, +1.61700885376E+003
+3.12327909887E+007, +3.54382004812E+001, +1.62563446657E+003
+3.13578222778E+007, +3.77236488804E+001, +1.64230085171E+003
+3.14828535670E+007, +3.46203607093E+001, +1.66402341680E+003
+3.16078848561E+007, +3.46407025572E+001, +1.69282337130E+003
+3.17329161452E+007, +4.01254543016E+001, +1.70517157326E+003
+3.18579474343E+007, +3.74262213967E+001, +1.72656596626E+003
+3.19829787234E+007, +4.35252443954E+001, +1.75849867302E+003
+3.21080100125E+007, +5.06150275663E+001, +1.77959202869E+003
+3.22330413016E+007, +4.50859117137E+001, +1.81097974863E+003
+3.23580725907E+007, +5.09088573256E+001, +1.82433882666E+003
+3.24831038798E+007, +4.23680866822E+001, +1.84496252296E+003
+3.26081351690E+007, +4.85089895198E+001, +1.86596317582E+003
+3.27331664581E+007, +4.50894240735E+001, +1.89777714207E+003
+3.28581977472E+007, +5.66293161282E+001, +1.92088450192E+003
+3.29832290363E+007, +5.63324516636E+001, +1.93703239460E+003
+3.31082603254E+007, +5.60304252115E+001, +1.95646988525E+003
+3.32332916145E+007, +6.35425778034E+001, +1.99589496265E+003
+3.33583229036E+007, +5.47594877433E+001, +2.00530402096E+003
+3.34833541927E+007, +5.62789282248E+001, +2.05043449169E+003
+3.36083854819E+007, +5.85239734250E+001, +2.08583347261E+003
+3.37334167710E+007, +8.09364012751E+001, +2.09432351718E+003
+3.38584480601E+007, +5.83938240051E+001, +2.14280526791E+003
+3.39834793492E+007, +8.64058909496E+001, +2.16441691497E+003
+3.41085106383E+007, +6.18652275137E+001, +2.18077685778E+003
+3.42335419274E+007, +8.50137653585E+001, +2.22861783969E+003
+3.43585732165E+007, +1.05192327936E+002, +2.24583626211E+003
+3.44836045056E+007, +8.54213209908E+001, +2.28074815758E+003
+3.46086357947E+007, +1.23327691481E+002, +2.33100386001E+003
+3.47336670839E+007, +9.59174017859E+001, +2.36106014068E+003
+3.48586983730E+007, +1.20705277889E+002, +2.38518850673E+003
+3.49837296621E+007, +1.14882395819E+002, +2.41198025932E+003
+3.51087609512E+007, +1.20933288507E+002, +2.47275395561E+003
+3.52337922403E+007, +1.37968452862E+002, +2.50320602934E+003
+3.53588235294E+007, +1.06504624141E+002, +2.54549334740E+003
+3.54838548185E+007, +1.33711449686E+002, +2.59554607942E+003
+3.56088861076E+007, +1.31749270412E+002, +2.64818845352E+003
+3.57339173967E+007, +1.25421404794E+002, +2.70576078360E+003
+3.58589486859E+007, +1.44946863627E+002, +2.70218952093E+003
+3.59839799750E+007, +1.68156865087E+002, +2.78193260868E+003
+3.61090112641E+007, +1.62665477045E+002, +2.80361543538E+003
+3.62340425532E+007, +1.70488528920E+002, +2.87071756921E+003
+3.63590738423E+007, +2.19196921571E+002, +2.91143116213E+003
+3.64841051314E+007, +2.04521328593E+002, +2.96676286431E+003
+3.66091364205E+007, +2.08551522212E+002, +3.05680521140E+003
+3.67341677096E+007, +1.95299456262E+002, +3.06629479447E+003
+3.68591989987E+007, +2.43431089888E+002, +3.14592829952E+003
+3.69842302879E+007, +2.10473780320E+002, +3.23104640554E+003
+3.71092615770E+007, +2.19764959162E+002, +3.27975488779E+003
+3.72342928661E+007, +3.05299629972E+002, +3.32912178316E+003
+3.73593241552E+007, +2.73904287215E+002, +3.41576019137E+003
+3.74843554443E+007, +2.94167241613E+002, +3.48058122363E+003
+3.76093867334E+007, +3.11161539225E+002, +3.57534343231E+003
+3.77344180225E+007, +2.83233423987E+002, +3.65771912463E+003
+3.78594493116E+007, +3.16441985344E+002, +3.73503796068E+003
+3.79844806008E+007, +3.32616850993E+002, +3.85214092313E+003
+3.81095118899E+007, +3.85619062460E+002, +3.97066714190E+003
+3.82345431790E+007, +4.32075797653E+002, +4.02413352352E+003
+3.83595744681E+007, +4.16720701999E+002, +4.18315070897E+003
+3.84846057572E+007, +4.51998469359E+002, +4.19277664161E+003
+3.86096370463E+007, +4.59189298496E+002, +4.39424570099E+003
+3.87346683354E+007, +5.26411569689E+002, +4.43490812782E+003
+3.88596996245E+007, +5.34077259706E+002, +4.61095522149E+003
+3.89847309136E+007, +6.32543777109E+002, +4.79747204479E+003
+3.91097622028E+007, +6.51282754798E+002, +4.86361525769E+003
+3.92347934919E+007, +6.68377541893E+002, +5.07799019206E+003
+3.93598247810E+007, +7.28237366499E+002, +5.05446451886E+003
+3.94848560701E+007, +8.27526920942E+002, +5.41604826091E+003
+3.96098873592E+007, +8.87211995013E+002, +5.51854711021E+003
+3.97349186483E+007, +1.08380132249E+003, +5.84452545284E+003
+3.98599499374E+007, +1.02750985478E+003, +5.83355611737E+003
+3.99849812265E+007, +1.23338596281E+003, +6.13746223343E+003
+4.01100125156E+007, +1.14973874488E+003, +6.29123500194E+003
