"# Channel 1"
"# Trace 1"
Frequency, Formatted Data, Formatted Data
+1.00000000000E+005, +6.48204421597E+001, +2.55438561184E+000
+2.66777963272E+005, +6.46853969438E+001, +8.03631560048E+000
+4.33555926544E+005, +6.46962035214E+001, +1.31419342994E+001
+6.00333889816E+005, +6.46821365073E+001, +1.82264125116E+001
+7.67111853088E+005, +6.47080392567E+001, +2.32279439055E+001
+9.33889816361E+005, +6.47738789700E+001, +2.83360228305E+001
+1.10066777963E+006, +6.49050577426E+001, +3.36654256482E+001
+1.26744574290E+006, +6.47848573099E+001, +3.87025976367E+001
+1.43422370618E+006, +6.48750496506E+001, +4.38757557314E+001
+1.60100166945E+006, +6.47878772113E+001, +4.87585105735E+001
+1.76777963272E+006, +6.50063302890E+001, +5.39882773294E+001
+1.93455759599E+006, +6.48173532316E+001, +5.91203045706E+001
+2.10133555927E+006, +6.47646493199E+001, +6.42398404572E+001
+2.26811352254E+006, +6.49513212120E+001, +6.91186595584E+001
+2.43489148581E+006, +6.49852955998E+001, +7.44588416731E+001
+2.60166944908E+006, +6.48956819293E+001, +7.95178734809E+001
+2.76844741235E+006, +6.48850417666E+001, +8.46795971935E+001
+2.93522537563E+006, +6.50399682795E+001, +8.97369078117E+001
+3.10200333890E+006, +6.51146451571E+001, +9.48063410079E+001
+3.26878130217E+006, +6.51224722943E+001, +1.00264284457E+002
+3.43555926544E+006, +6.52655016854E+001, +1.05107572341E+002
+3.60233722871E+006, +6.53675148984E+001, +1.10340895874E+002
+3.76911519199E+006, +6.55401308904E+001, +1.15735564254E+002
+3.93589315526E+006, +6.53425056908E+001, +1.20682416301E+002
+4.10267111853E+006, +6.51492726981E+001, +1.26122706089E+002
+4.26944908180E+006, +6.57037040838E+001, +1.31640688295E+002
+4.43622704508E+006, +6.56898917534E+001, +1.36415349366E+002
+4.60300500835E+006, +6.58333491631E+001, +1.41714193739E+002
+4.76978297162E+006, +6.57317083140E+001, +1.47041483848E+002
+4.93656093489E+006, +6.61462828145E+001, +1.52267817365E+002
+5.10333889816E+006, +6.58008130065E+001, +1.57277997189E+002
+5.27011686144E+006, +6.65887604701E+001, +1.62512005347E+002
+5.43689482471E+006, +6.64496824287E+001, +1.67974730562E+002
+5.60367278798E+006, +6.66874411427E+001, +1.73626513007E+002
+5.77045075125E+006, +6.63691111136E+001, +1.78578519318E+002
+5.93722871452E+006, +6.67645650995E+001, +1.83553481730E+002
+6.10400667780E+006, +6.72138312262E+001, +1.89160956015E+002
+6.27078464107E+006, +6.74101473031E+001, +1.94377426322E+002
+6.43756260434E+006, +6.75560385343E+001, +1.99610480451E+002
+6.60434056761E+006, +6.75554208047E+001, +2.05040462047E+002
+6.77111853088E+006, +6.78055157366E+001, +2.10221267954E+002
+6.93789649416E+006, +6.81943904325E+001, +2.15654317986E+002
+7.10467445743E+006, +6.79767953915E+001, +2.21069434276E+002
+7.27145242070E+006, +6.83835684991E+001, +2.26245954510E+002
+7.43823038397E+006, +6.82560980072E+001, +2.31443789841E+002
+7.60500834725E+006, +6.84374089870E+001, +2.37123846551E+002
+7.77178631052E+006, +6.88064706745E+001, +2.42888682585E+002
+7.93856427379E+006, +6.88935313464E+001, +2.48219536869E+002
+8.10534223706E+006, +6.87782672258E+001, +2.53604988473E+002
+8.27212020033E+006, +6.91907367994E+001, +2.59353278959E+002
+8.43889816361E+006, +6.92505830572E+001, +2.65333759551E+002
+8.60567612688E+006, +6.92883299751E+001, +2.70949899621E+002
+8.77245409015E+006, +6.90715732470E+001, +2.75943319846E+002
+8.93923205342E+006, +6.94140007879E+001, +2.82268232439E+002
+9.10601001669E+006, +6.97254412957E+001, +2.88146433680E+002
+9.27278797997E+006, +6.98521797516E+001, +2.93503217128E+002
+9.43956594324E+006, +7.00044340088E+001, +2.99283522924E+002
+9.60634390651E+006, +7.00236372476E+001, +3.05286658646E+002
+9.77312186978E+006, +7.00338801450E+001, +3.11149825777E+002
+9.93989983306E+006, +7.07778458251E+001, +3.17240629183E+002
+1.01066777963E+007, +7.05412714422E+001, +3.23142268015E+002
+1.02734557596E+007, +7.08466448083E+001, +3.29396915578E+002
+1.04402337229E+007, +7.06191208655E+001, +3.35002490190E+002
+1.06070116861E+007, +7.03582709233E+001, +3.41108986008E+002
+1.07737896494E+007, +7.15278664606E+001, +3.47570180821E+002
+1.09405676127E+007, +7.26059438503E+001, +3.52655235646E+002
+1.11073455760E+007, +7.15675819217E+001, +3.59276987033E+002
+1.12741235392E+007, +7.15871802469E+001, +3.65479405660E+002
+1.14409015025E+007, +7.25783373692E+001, +3.71570273812E+002
+1.16076794658E+007, +7.33253810769E+001, +3.77535367185E+002
+1.17744574290E+007, +7.30166811066E+001, +3.84033252630E+002
+1.19412353923E+007, +7.31530684562E+001, +3.90317157877E+002
+1.21080133556E+007, +7.31344957754E+001, +3.96756647564E+002
+1.22747913189E+007, +7.41065173088E+001, +4.03467347229E+002
+1.24415692821E+007, +7.35467627466E+001, +4.10288145831E+002
+1.26083472454E+007, +7.43063328646E+001, +4.17135074950E+002
+1.27751252087E+007, +7.45087225188E+001, +4.22902972094E+002
+1.29419031720E+007, +7.45762289137E+001, +4.29265639776E+002
+1.31086811352E+007, +7.56696289060E+001, +4.35350186778E+002
+1.32754590985E+007, +7.50067474308E+001, +4.43054627509E+002
+1.34422370618E+007, +7.52491336742E+001, +4.49695278646E+002
+1.36090150250E+007, +7.71227929219E+001, +4.55312175057E+002
+1.37757929883E+007, +7.62137732076E+001, +4.62476229338E+002
+1.39425709516E+007, +7.72148462598E+001, +4.68978019445E+002
+1.41093489149E+007, +7.78181973287E+001, +4.76402875049E+002
+1.42761268781E+007, +7.84261598494E+001, +4.82749642167E+002
+1.44429048414E+007, +7.91615071074E+001, +4.89587787825E+002
+1.46096828047E+007, +7.90930226430E+001, +4.97871379992E+002
+1.47764607679E+007, +7.96447732579E+001, +5.03146419279E+002
+1.49432387312E+007, +8.01073329078E+001, +5.11100040328E+002
+1.51100166945E+007, +8.03774064591E+001, +5.17836567018E+002
+1.52767946578E+007, +8.02569593428E+001, +5.24697026674E+002
+1.54435726210E+007, +8.07284622107E+001, +5.32076894148E+002
+1.56103505843E+007, +8.28172950322E+001, +5.39860168959E+002
+1.57771285476E+007, +8.13792484530E+001, +5.45875771444E+002
+1.59439065109E+007, +8.29279184658E+001, +5.54764518529E+002
+1.61106844741E+007, +8.35807020359E+001, +5.62082331770E+002
+1.62774624374E+007, +8.49369031345E+001, +5.68779453874E+002
+1.64442404007E+007, +8.21305707344E+001, +5.77188608828E+002
+1.66110183639E+007, +8.46743574555E+001, +5.83699900632E+002
+1.67777963272E+007, +8.52953768114E+001, +5.94864453063E+002
+1.69445742905E+007, +8.78312914595E+001, +6.00331812171E+002
+1.71113522538E+007, +8.08275452586E+001, +6.09036811631E+002
+1.72781302170E+007, +8.69892878016E+001, +6.19120913054E+002
+1.74449081803E+007, +8.33843599916E+001, +6.25762219236E+002
+1.76116861436E+007, +8.86808957322E+001, +6.33070434887E+002
+1.77784641068E+007, +8.82489190322E+001, +6.41650862032E+002
+1.79452420701E+007, +8.88944496404E+001, +6.49467572727E+002
+1.81120200334E+007, +8.94933383729E+001, +6.56829725981E+002
+1.82787979967E+007, +9.11188235724E+001, +6.65143806986E+002
+1.84455759599E+007, +9.23306175726E+001, +6.74209951001E+002
+1.86123539232E+007, +9.19238085411E+001, +6.81262286611E+002
+1.87791318865E+007, +9.24439112879E+001, +6.93700418749E+002
+1.89459098497E+007, +9.40280748869E+001, +7.01600888354E+002
+1.91126878130E+007, +9.41031851110E+001, +7.11653684512E+002
+1.92794657763E+007, +9.53175573382E+001, +7.18810469115E+002
+1.94462437396E+007, +9.81642817729E+001, +7.32499235787E+002
+1.96130217028E+007, +9.56406567975E+001, +7.39782101978E+002
+1.97797996661E+007, +9.91774301027E+001, +7.46384965765E+002
+1.99465776294E+007, +9.66082020948E+001, +7.57471976982E+002
+2.01133555927E+007, +9.91267839299E+001, +7.68414518337E+002
+2.02801335559E+007, +1.00479904470E+002, +7.76446011740E+002
+2.04469115192E+007, +1.04782168876E+002, +7.87477987488E+002
+2.06136894825E+007, +1.07486327487E+002, +7.99461665255E+002
+2.07804674457E+007, +1.07521361231E+002, +8.09695683605E+002
+2.09472454090E+007, +1.07402755413E+002, +8.24424510984E+002
+2.11140233723E+007, +1.08769228058E+002, +8.29626257876E+002
+2.12808013356E+007, +1.09646005784E+002, +8.39886431049E+002
+2.14475792988E+007, +1.12737736631E+002, +8.50180672124E+002
+2.16143572621E+007, +1.14825788551E+002, +8.59167998271E+002
+2.17811352254E+007, +1.14591981267E+002, +8.68700035504E+002
+2.19479131886E+007, +1.20747042075E+002, +8.84608733897E+002
+2.21146911519E+007, +1.20921115788E+002, +8.89784158910E+002
+2.22814691152E+007, +1.22019689554E+002, +9.03757055412E+002
+2.24482470785E+007, +1.27884887453E+002, +9.15615535904E+002
+2.26150250417E+007, +1.28245469713E+002, +9.24035599230E+002
+2.27818030050E+007, +1.28725097049E+002, +9.38284605907E+002
+2.29485809683E+007, +1.36010719464E+002, +9.45913079656E+002
+2.31153589316E+007, +1.30918677243E+002, +9.65959763913E+002
+2.32821368948E+007, +1.38353408216E+002, +9.71416905134E+002
+2.34489148581E+007, +1.37390297737E+002, +9.82920128351E+002
+2.36156928214E+007, +1.45476038935E+002, +9.98396712869E+002
+2.37824707846E+007, +1.44225989022E+002, +1.00754445091E+003
+2.39492487479E+007, +1.45886141404E+002, +1.01667743971E+003
+2.41160267112E+007, +1.47004834577E+002, +1.03395812529E+003
+2.42828046745E+007, +1.49302758011E+002, +1.04811479353E+003
+2.44495826377E+007, +1.61306877924E+002, +1.06148092012E+003
+2.46163606010E+007, +1.58920223364E+002, +1.07634564305E+003
+2.47831385643E+007, +1.60146075891E+002, +1.08996615424E+003
+2.49499165275E+007, +1.70218937237E+002, +1.10030024971E+003
+2.51166944908E+007, +1.69200568493E+002, +1.11318114871E+003
+2.52834724541E+007, +1.71887147432E+002, +1.12476652651E+003
+2.54502504174E+007, +1.76705643501E+002, +1.14565922119E+003
+2.56170283806E+007, +1.71696136522E+002, +1.15343753540E+003
+2.57838063439E+007, +1.80918691438E+002, +1.17230499044E+003
+2.59505843072E+007, +1.88576639908E+002, +1.18901662842E+003
+2.61173622705E+007, +1.85023594477E+002, +1.20133297597E+003
+2.62841402337E+007, +1.86764723027E+002, +1.20919734868E+003
+2.64509181970E+007, +1.88882332610E+002, +1.23766187716E+003
+2.66176961603E+007, +1.96011166340E+002, +1.25401880507E+003
+2.67844741235E+007, +1.99911464913E+002, +1.26678075804E+003
+2.69512520868E+007, +1.99822197596E+002, +1.28383359583E+003
+2.71180300501E+007, +2.04105648521E+002, +1.29610054460E+003
+2.72848080134E+007, +2.10658875336E+002, +1.31308912121E+003
+2.74515859766E+007, +2.22440404609E+002, +1.33194276928E+003
+2.76183639399E+007, +2.04991904197E+002, +1.35548308552E+003
+2.77851419032E+007, +2.26778682638E+002, +1.36483205000E+003
+2.79519198664E+007, +2.22135867292E+002, +1.38044346663E+003
+2.81186978297E+007, +2.33686346357E+002, +1.39896140389E+003
+2.82854757930E+007, +2.48880347870E+002, +1.42505262581E+003
+2.84522537563E+007, +2.41895607096E+002, +1.43981172412E+003
+2.86190317195E+007, +2.40413846800E+002, +1.46292262725E+003
+2.87858096828E+007, +2.60576760605E+002, +1.48020314402E+003
+2.89525876461E+007, +2.67533074195E+002, +1.50138186182E+003
+2.91193656093E+007, +2.58882108858E+002, +1.51852038246E+003
+2.92861435726E+007, +2.62137233140E+002, +1.53987567531E+003
+2.94529215359E+007, +2.70326903917E+002, +1.56520534433E+003
+2.96196994992E+007, +2.84220175161E+002, +1.57951608428E+003
+2.97864774624E+007, +2.84459691681E+002, +1.60716405205E+003
+2.99532554257E+007, +3.03974604183E+002, +1.64004867571E+003
+3.01200333890E+007, +2.98740754863E+002, +1.66351003528E+003
+3.02868113523E+007, +3.04374255066E+002, +1.68133507855E+003
+3.04535893155E+007, +3.20144852542E+002, +1.71124713035E+003
+3.06203672788E+007, +3.35775211179E+002, +1.74241630247E+003
+3.07871452421E+007, +3.37616966088E+002, +1.75522518731E+003
+3.09539232053E+007, +3.30065189852E+002, +1.79482403342E+003
+3.11207011686E+007, +3.50861586093E+002, +1.84008042699E+003
+3.12874791319E+007, +3.53559999124E+002, +1.83445691110E+003
+3.14542570952E+007, +3.64239105434E+002, +1.87395025359E+003
+3.16210350584E+007, +3.73133910737E+002, +1.91181060642E+003
+3.17878130217E+007, +3.85451928365E+002, +1.94891119903E+003
+3.19545909850E+007, +3.86229941690E+002, +1.96250336811E+003
+3.21213689482E+007, +3.91194523744E+002, +2.02624348440E+003
+3.22881469115E+007, +4.12227167297E+002, +2.04399217863E+003
+3.24549248748E+007, +4.15011883930E+002, +2.07792951515E+003
+3.26217028381E+007, +4.22459152135E+002, +2.12592723197E+003
+3.27884808013E+007, +4.33273991901E+002, +2.17266217554E+003
+3.29552587646E+007, +4.58478100301E+002, +2.15741894255E+003
+3.31220367279E+007, +4.67677459373E+002, +2.19939775951E+003
+3.32888146912E+007, +4.90184207071E+002, +2.27257905012E+003
+3.34555926544E+007, +4.78392829166E+002, +2.32849373439E+003
+3.36223706177E+007, +5.03282361368E+002, +2.36063005963E+003
+3.37891485810E+007, +5.11092156151E+002, +2.38414066101E+003
+3.39559265442E+007, +5.40866495389E+002, +2.47462978052E+003
+3.41227045075E+007, +5.52590637151E+002, +2.48420490311E+003
+3.42894824708E+007, +5.70648135956E+002, +2.56202133387E+003
+3.44562604341E+007, +6.01821520643E+002, +2.61835702123E+003
+3.46230383973E+007, +6.09827020191E+002, +2.69335938786E+003
+3.47898163606E+007, +6.39959503928E+002, +2.70585899997E+003
+3.49565943239E+007, +6.95223584889E+002, +2.78502842349E+003
+3.51233722871E+007, +7.17114111317E+002, +2.84932474535E+003
+3.52901502504E+007, +6.81914775076E+002, +2.85343000252E+003
+3.54569282137E+007, +7.90062532642E+002, +2.96813869863E+003
+3.56237061770E+007, +7.81666146452E+002, +3.04897128213E+003
+3.57904841402E+007, +7.96126575625E+002, +3.14932757860E+003
+3.59572621035E+007, +8.72130544312E+002, +3.16966936990E+003
+3.61240400668E+007, +8.94073232763E+002, +3.27170199607E+003
+3.62908180301E+007, +9.90000751761E+002, +3.44668957096E+003
+3.64575959933E+007, +9.99581224623E+002, +3.49106989387E+003
+3.66243739566E+007, +1.08238385470E+003, +3.54978193371E+003
+3.67911519199E+007, +1.17694043728E+003, +3.67301334777E+003
+3.69579298831E+007, +1.11450784040E+003, +3.72612002381E+003
+3.71247078464E+007, +1.29382586818E+003, +3.94694037156E+003
+3.72914858097E+007, +1.30301312238E+003, +4.08322504531E+003
+3.74582637730E+007, +1.50030010075E+003, +4.19501722430E+003
+3.76250417362E+007, +1.55985578413E+003, +4.24304836697E+003
+3.77918196995E+007, +1.66692048177E+003, +4.34058374740E+003
+3.79585976628E+007, +1.73452210969E+003, +4.56359771062E+003
+3.81253756260E+007, +1.96955566969E+003, +4.64274803772E+003
+3.82921535893E+007, +2.07359070312E+003, +4.87699376257E+003
+3.84589315526E+007, +2.28911260443E+003, +5.11662966863E+003
+3.86257095159E+007, +2.40720974948E+003, +5.23145037269E+003
+3.87924874791E+007, +2.50003422642E+003, +5.50917910493E+003
+3.89592654424E+007, +2.99754677288E+003, +5.60934189604E+003
+3.91260434057E+007, +3.46088412973E+003, +5.85604993433E+003
+3.92928213689E+007, +3.67804358182E+003, +5.78859271423E+003
+3.94595993322E+007, +4.14404127874E+003, +6.19117220740E+003
+3.96263772955E+007, +4.42358625885E+003, +6.28152791759E+003
+3.97931552588E+007, +4.72202381178E+003, +6.50464225413E+003
+3.99599332220E+007, +5.17252578312E+003, +6.67434192656E+003
+4.01267111853E+007, +6.07714155326E+003, +6.64032774898E+003
+4.02934891486E+007, +6.42120973050E+003, +7.05017395026E+003
+4.04602671119E+007, +7.04100116748E+003, +6.66706658183E+003
+4.06270450751E+007, +8.32584462274E+003, +6.45442148882E+003
+4.07938230384E+007, +8.97907396679E+003, +6.46707349812E+003
+4.09606010017E+007, +1.01386006641E+004, +6.18061085578E+003
+4.11273789649E+007, +1.09830407726E+004, +5.54485384329E+003
+4.12941569282E+007, +1.22087004208E+004, +4.30398773743E+003
+4.14609348915E+007, +1.26871072873E+004, +2.83336145746E+003
+4.16277128548E+007, +1.31541243700E+004, +2.01560785927E+003
+4.17944908180E+007, +1.38089896402E+004, +1.01877737622E+003
+4.19612687813E+007, +1.32943009788E+004, -8.55001665108E+002
+4.21280467446E+007, +1.32044100205E+004, -3.06565907441E+003
+4.22948247078E+007, +1.27960336792E+004, -3.77559080713E+003
+4.24616026711E+007, +1.13851250729E+004, -4.70858433257E+003
+4.26283806344E+007, +1.03250690787E+004, -4.76143632434E+003
+4.27951585977E+007, +9.21277977806E+003, -7.08530793923E+003
+4.29619365609E+007, +8.12353763938E+003, -6.21509389934E+003
+4.31287145242E+007, +7.75048605525E+003, -6.70650660331E+003
+4.32954924875E+007, +6.82684076181E+003, -6.47758487884E+003
+4.34622704508E+007, +6.01440349747E+003, -6.86277034832E+003
+4.36290484140E+007, +5.68534088914E+003, -6.59433784345E+003
+4.37958263773E+007, +4.44026517173E+003, -6.53681773629E+003
+4.39626043406E+007, +4.45764836414E+003, -6.03436925942E+003
+4.41293823038E+007, +3.83631345941E+003, -5.77417849061E+003
+4.42961602671E+007, +3.64171199134E+003, -5.81743812694E+003
+4.44629382304E+007, +3.18867564815E+003, -5.59808170947E+003
+4.46297161937E+007, +2.91347533606E+003, -5.29596562979E+003
+4.47964941569E+007, +2.65179276183E+003, -5.19720973099E+003
+4.49632721202E+007, +2.33615687386E+003, -5.01054181247E+003
+4.51300500835E+007, +2.37777126168E+003, -4.92162440601E+003
+4.52968280467E+007, +2.12542246506E+003, -4.65643358010E+003
+4.54636060100E+007, +1.92876964416E+003, -4.42250281212E+003
+4.56303839733E+007, +1.69605066276E+003, -4.24333404474E+003
+4.57971619366E+007, +1.62237657944E+003, -4.13391199782E+003
+4.59639398998E+007, +1.46975232884E+003, -3.87893758925E+003
+4.61307178631E+007, +1.43059267337E+003, -3.78677152380E+003
+4.62974958264E+007, +1.39255815949E+003, -3.67339002298E+003
+4.64642737896E+007, +1.29547482919E+003, -3.58781214425E+003
+4.66310517529E+007, +1.20106958773E+003, -3.46992368073E+003
+4.67978297162E+007, +1.24553970797E+003, -3.33613956203E+003
+4.69646076795E+007, +1.12699329261E+003, -3.25398643183E+003
+4.71313856427E+007, +1.11955837564E+003, -3.14114928298E+003
+4.72981636060E+007, +1.01461370627E+003, -3.04088831396E+003
+4.74649415693E+007, +9.82649362111E+002, -3.00395431108E+003
+4.76317195326E+007, +9.91717533229E+002, -2.87630924347E+003
+4.77984974958E+007, +9.55125861184E+002, -2.78488482399E+003
+4.79652754591E+007, +9.27212362417E+002, -2.72018928949E+003
+4.81320534224E+007, +8.95900812755E+002, -2.68978729793E+003
+4.82988313856E+007, +8.44069181630E+002, -2.61119906337E+003
+4.84656093489E+007, +8.52945702675E+002, -2.55328280210E+003
+4.86323873122E+007, +8.41736463299E+002, -2.47847709567E+003
+4.87991652755E+007, +8.01729729646E+002, -2.43626712871E+003
+4.89659432387E+007, +7.76608608239E+002, -2.38242578699E+003
+4.91327212020E+007, +7.65836877867E+002, -2.31984303438E+003
+4.92994991653E+007, +7.55470344057E+002, -2.29242167219E+003
+4.94662771285E+007, +7.65976142774E+002, -2.23318269869E+003
+4.96330550918E+007, +7.34778920532E+002, -2.19728179121E+003
+4.97998330551E+007, +7.25369985800E+002, -2.14798094156E+003
+4.99666110184E+007, +7.16884047444E+002, -2.10636379129E+003
+5.01333889816E+007, +6.96890405961E+002, -2.09722059511E+003
+5.03001669449E+007, +6.83134151887E+002, -2.06950588349E+003
+5.04669449082E+007, +6.73879129766E+002, -2.02972469969E+003
+5.06337228715E+007, +6.60295421390E+002, -2.00310676200E+003
+5.08005008347E+007, +6.19838615987E+002, -2.01045967653E+003
+5.09672787980E+007, +6.20701478354E+002, -1.97111617221E+003
+5.11340567613E+007, +5.92459917229E+002, -1.93259892535E+003
+5.13008347245E+007, +5.60566787281E+002, -1.91385125798E+003
+5.14676126878E+007, +5.54914589253E+002, -1.89732706354E+003
+5.16343906511E+007, +5.26381562891E+002, -1.85787925099E+003
+5.18011686144E+007, +4.99754082143E+002, -1.84309439963E+003
+5.19679465776E+007, +4.91733867008E+002, -1.79443137254E+003
+5.21347245409E+007, +4.50621977286E+002, -1.77627705883E+003
+5.23015025042E+007, +4.35811087149E+002, -1.72511884028E+003
+5.24682804674E+007, +4.04689998373E+002, -1.70574043185E+003
+5.26350584307E+007, +3.94150608324E+002, -1.68164175964E+003
+5.28018363940E+007, +3.70798470650E+002, -1.63712709581E+003
+5.29686143573E+007, +3.55282809471E+002, -1.61220584905E+003
+5.31353923205E+007, +3.51604708493E+002, -1.60064440534E+003
+5.33021702838E+007, +3.22881602387E+002, -1.56326634122E+003
+5.34689482471E+007, +3.17262500871E+002, -1.51661405114E+003
