"# Channel 1"
"# Trace 1"
Frequency, Formatted Data, Formatted Data
+1.00000000000E+006, +3.33862395073E+001, +2.96259657098E+001
+1.16527545910E+006, +3.34217527002E+001, +3.44690839686E+001
+1.33055091820E+006, +3.33975020474E+001, +3.92957452931E+001
+1.49582637730E+006, +3.33267692154E+001, +4.42399390424E+001
+1.66110183639E+006, +3.33651985216E+001, +4.91061650816E+001
+1.82637729549E+006, +3.33138526462E+001, +5.40041152734E+001
+1.99165275459E+006, +3.33276487841E+001, +5.88627306064E+001
+2.15692821369E+006, +3.33324907879E+001, +6.37240299762E+001
+2.32220367279E+006, +3.32668940575E+001, +6.86562782184E+001
+2.48747913189E+006, +3.33379898902E+001, +7.35523863191E+001
+2.65275459098E+006, +3.32430279218E+001, +7.85327522087E+001
+2.81803005008E+006, +3.31896289531E+001, +8.33531664886E+001
+2.98330550918E+006, +3.30109864764E+001, +8.81450704962E+001
+3.14858096828E+006, +3.31576368446E+001, +9.29821015478E+001
+3.31385642738E+006, +3.34196136809E+001, +9.78861747519E+001
+3.47913188648E+006, +3.32462920656E+001, +1.03045140235E+002
+3.64440734558E+006, +3.32249075218E+001, +1.07823341907E+002
+3.80968280467E+006, +3.34155244986E+001, +1.12600514380E+002
+3.97495826377E+006, +3.34316061301E+001, +1.17330279653E+002
+4.14023372287E+006, +3.30519411224E+001, +1.22829470104E+002
+4.30550918197E+006, +3.34066176608E+001, +1.27253300596E+002
+4.47078464107E+006, +3.34179127060E+001, +1.32723564561E+002
+4.63606010017E+006, +3.31413012444E+001, +1.37243326965E+002
+4.80133555927E+006, +3.31829554866E+001, +1.42489920716E+002
+4.96661101836E+006, +3.33616651676E+001, +1.47210141678E+002
+5.13188647746E+006, +3.33707134673E+001, +1.52257257746E+002
+5.29716193656E+006, +3.29805273554E+001, +1.56812029014E+002
+5.46243739566E+006, +3.35895044142E+001, +1.62143881546E+002
+5.62771285476E+006, +3.37059803211E+001, +1.66940499833E+002
+5.79298831386E+006, +3.39449442884E+001, +1.72061507319E+002
+5.95826377295E+006, +3.39207040750E+001, +1.77135573067E+002
+6.12353923205E+006, +3.43756073944E+001, +1.81728638756E+002
+6.28881469115E+006, +3.41755105338E+001, +1.86825822229E+002
+6.45409015025E+006, +3.42653605676E+001, +1.91639706873E+002
+6.61936560935E+006, +3.42083357771E+001, +1.96686295111E+002
+6.78464106845E+006, +3.43376258579E+001, +2.01765662322E+002
+6.94991652755E+006, +3.44014718905E+001, +2.06515125917E+002
+7.11519198664E+006, +3.45720472800E+001, +2.11479251726E+002
+7.28046744574E+006, +3.46571969614E+001, +2.16582004855E+002
+7.44574290484E+006, +3.47068434433E+001, +2.21542554220E+002
+7.61101836394E+006, +3.47811905248E+001, +2.26714512781E+002
+7.77629382304E+006, +3.48722177065E+001, +2.31472354942E+002
+7.94156928214E+006, +3.44867283674E+001, +2.36491089998E+002
+8.10684474124E+006, +3.43317637485E+001, +2.41352375175E+002
+8.27212020033E+006, +3.47863072037E+001, +2.46509706215E+002
+8.43739565943E+006, +3.48555829600E+001, +2.52126065084E+002
+8.60267111853E+006, +3.44701501501E+001, +2.56763644316E+002
+8.76794657763E+006, +3.48148625208E+001, +2.61839473614E+002
+8.93322203673E+006, +3.49162306977E+001, +2.67639253851E+002
+9.09849749583E+006, +3.48130042641E+001, +2.72467402155E+002
+9.26377295492E+006, +3.44506210964E+001, +2.78082399607E+002
+9.42904841402E+006, +3.52139757109E+001, +2.82490033523E+002
+9.59432387312E+006, +3.47279391279E+001, +2.87509570790E+002
+9.75959933222E+006, +3.41459939404E+001, +2.93228506534E+002
+9.92487479132E+006, +3.48989034838E+001, +2.97787042550E+002
+1.00901502504E+007, +3.50169475160E+001, +3.03578602027E+002
+1.02554257095E+007, +3.42594802734E+001, +3.08333227610E+002
+1.04207011686E+007, +3.42907724172E+001, +3.13506286150E+002
+1.05859766277E+007, +3.48214217825E+001, +3.19066749843E+002
+1.07512520868E+007, +3.51172450777E+001, +3.24138623618E+002
+1.09165275459E+007, +3.47074767279E+001, +3.29579813856E+002
+1.10818030050E+007, +3.52189512819E+001, +3.35429887709E+002
+1.12470784641E+007, +3.48891184133E+001, +3.40295189249E+002
+1.14123539232E+007, +3.48941015678E+001, +3.45707486059E+002
+1.15776293823E+007, +3.54674052945E+001, +3.50994339099E+002
+1.17429048414E+007, +3.51674474103E+001, +3.57033358741E+002
+1.19081803005E+007, +3.53599648604E+001, +3.62420038305E+002
+1.20734557596E+007, +3.51729974991E+001, +3.67295383832E+002
+1.22387312187E+007, +3.52725698649E+001, +3.72944023029E+002
+1.24040066778E+007, +3.59001078313E+001, +3.77651656105E+002
+1.25692821369E+007, +3.49681985509E+001, +3.83751807504E+002
+1.27345575960E+007, +3.54891747981E+001, +3.88210217601E+002
+1.28998330551E+007, +3.53447191094E+001, +3.95114258647E+002
+1.30651085142E+007, +3.51297332134E+001, +4.00382247261E+002
+1.32303839733E+007, +3.69864759973E+001, +4.05887510593E+002
+1.33956594324E+007, +3.59384052363E+001, +4.11754404942E+002
+1.35609348915E+007, +3.66489923693E+001, +4.16492659645E+002
+1.37262103506E+007, +3.63198198621E+001, +4.21633873364E+002
+1.38914858097E+007, +3.69041253368E+001, +4.26814888429E+002
+1.40567612688E+007, +3.71717517036E+001, +4.32733687421E+002
+1.42220367279E+007, +3.68688038005E+001, +4.38596921348E+002
+1.43873121870E+007, +3.68725369786E+001, +4.44668924010E+002
+1.45525876461E+007, +3.71949537369E+001, +4.49540041866E+002
+1.47178631052E+007, +3.73647385177E+001, +4.55591526738E+002
+1.48831385643E+007, +3.74037115561E+001, +4.59318210236E+002
+1.50484140234E+007, +3.72783453697E+001, +4.67052152597E+002
+1.52136894825E+007, +3.66589446798E+001, +4.72023527061E+002
+1.53789649416E+007, +3.73433917251E+001, +4.78646741456E+002
+1.55442404007E+007, +3.64359914065E+001, +4.83345704157E+002
+1.57095158598E+007, +3.66627192688E+001, +4.90287277054E+002
+1.58747913189E+007, +3.84517647757E+001, +4.95245765801E+002
+1.60400667780E+007, +3.68694075415E+001, +5.00230286086E+002
+1.62053422371E+007, +3.68771790877E+001, +5.07256972005E+002
+1.63706176962E+007, +3.80706122858E+001, +5.12622805009E+002
+1.65358931553E+007, +3.80765771443E+001, +5.18157444162E+002
+1.67011686144E+007, +3.90348924337E+001, +5.24271568222E+002
+1.68664440735E+007, +3.80233556969E+001, +5.29369992172E+002
+1.70317195326E+007, +3.67925606995E+001, +5.35922991979E+002
+1.71969949917E+007, +3.65809151475E+001, +5.44795946780E+002
+1.73622704508E+007, +3.84534632109E+001, +5.49961185524E+002
+1.75275459098E+007, +3.77915253352E+001, +5.55582301574E+002
+1.76928213689E+007, +3.91180760642E+001, +5.61460569631E+002
+1.78580968280E+007, +3.98136679563E+001, +5.67408201205E+002
+1.80233722871E+007, +3.96584458304E+001, +5.73529368501E+002
+1.81886477462E+007, +4.11058278091E+001, +5.79505184387E+002
+1.83539232053E+007, +4.19863385512E+001, +5.85614874705E+002
+1.85191986644E+007, +4.16412907670E+001, +5.93776011283E+002
+1.86844741235E+007, +4.04454645431E+001, +5.96428372701E+002
+1.88497495826E+007, +4.15359250505E+001, +6.05903919555E+002
+1.90150250417E+007, +4.09595760256E+001, +6.12419180979E+002
+1.91803005008E+007, +4.13873511699E+001, +6.18360380774E+002
+1.93455759599E+007, +4.29226807442E+001, +6.21187223644E+002
+1.95108514190E+007, +4.37670244812E+001, +6.31242771424E+002
+1.96761268781E+007, +4.23307055002E+001, +6.36541286746E+002
+1.98414023372E+007, +4.50880472641E+001, +6.42697859423E+002
+2.00066777963E+007, +4.33815233657E+001, +6.48197247290E+002
+2.01719532554E+007, +4.45077217751E+001, +6.55105761906E+002
+2.03372287145E+007, +4.76078225952E+001, +6.62239627588E+002
+2.05025041736E+007, +4.56621855672E+001, +6.70747443805E+002
+2.06677796327E+007, +4.85929831850E+001, +6.75847810367E+002
+2.08330550918E+007, +4.52986787124E+001, +6.82848317119E+002
+2.09983305509E+007, +4.69445809180E+001, +6.88835660142E+002
+2.11636060100E+007, +4.55293700443E+001, +6.94434071970E+002
+2.13288814691E+007, +4.85816543217E+001, +7.01464865107E+002
+2.14941569282E+007, +4.71611425039E+001, +7.09959814326E+002
+2.16594323873E+007, +4.71753324362E+001, +7.15783086769E+002
+2.18247078464E+007, +4.69851370616E+001, +7.25021402965E+002
+2.19899833055E+007, +4.84548535896E+001, +7.31722945728E+002
+2.21552587646E+007, +4.89651608771E+001, +7.36708732777E+002
+2.23205342237E+007, +5.10045954908E+001, +7.44201461161E+002
+2.24858096828E+007, +5.08396858333E+001, +7.52340245796E+002
+2.26510851419E+007, +5.34958657422E+001, +7.58854840423E+002
+2.28163606010E+007, +5.19440084095E+001, +7.68285838710E+002
+2.29816360601E+007, +5.25640114451E+001, +7.72906211858E+002
+2.31469115192E+007, +5.91942685325E+001, +7.80702508712E+002
+2.33121869783E+007, +5.85546076987E+001, +7.87425813821E+002
+2.34774624374E+007, +5.88417101531E+001, +7.94689827716E+002
+2.36427378965E+007, +6.01240709115E+001, +8.03981894706E+002
+2.38080133556E+007, +6.12236025050E+001, +8.08853401819E+002
+2.39732888147E+007, +6.48996873202E+001, +8.19761475520E+002
+2.41385642738E+007, +6.03047006100E+001, +8.26689737128E+002
+2.43038397329E+007, +6.26796930295E+001, +8.34697988750E+002
+2.44691151920E+007, +6.55781877009E+001, +8.38625289913E+002
+2.46343906511E+007, +6.40400297951E+001, +8.48859772629E+002
+2.47996661102E+007, +6.61740908551E+001, +8.57935359818E+002
+2.49649415693E+007, +6.70256501153E+001, +8.68330209229E+002
+2.51302170284E+007, +6.92450497571E+001, +8.70942308659E+002
+2.52954924875E+007, +7.28513933165E+001, +8.77798146502E+002
+2.54607679466E+007, +7.36904790579E+001, +8.86093971718E+002
+2.56260434057E+007, +7.78863756687E+001, +8.89997385339E+002
+2.57913188648E+007, +7.34535653110E+001, +9.01263215445E+002
+2.59565943239E+007, +8.03836823200E+001, +9.08343912587E+002
+2.61218697830E+007, +7.90084300965E+001, +9.13870856703E+002
+2.62871452421E+007, +8.42731051349E+001, +9.21981867252E+002
+2.64524207012E+007, +8.40159867739E+001, +9.29665893856E+002
+2.66176961603E+007, +8.48344193477E+001, +9.37932604052E+002
+2.67829716194E+007, +8.21801641483E+001, +9.45850302756E+002
+2.69482470785E+007, +9.01978128448E+001, +9.54056304623E+002
+2.71135225376E+007, +8.94566478253E+001, +9.59927771920E+002
+2.72787979967E+007, +9.50160522954E+001, +9.67618855448E+002
+2.74440734558E+007, +9.11415150933E+001, +9.72764840237E+002
+2.76093489149E+007, +9.08612570679E+001, +9.74647667170E+002
+2.77746243740E+007, +9.10305630444E+001, +9.85602360173E+002
+2.79398998331E+007, +9.07236471273E+001, +9.97352375637E+002
+2.81051752922E+007, +9.75442495388E+001, +9.97749089730E+002
+2.82704507513E+007, +9.73735947624E+001, +1.00687239968E+003
+2.84357262104E+007, +9.21505009911E+001, +1.01080842722E+003
+2.86010016694E+007, +8.96957577171E+001, +1.02188398337E+003
+2.87662771285E+007, +9.35691358663E+001, +1.02759641746E+003
+2.89315525876E+007, +9.33783783066E+001, +1.03816848556E+003
+2.90968280467E+007, +9.84487586003E+001, +1.04873257298E+003
+2.92621035058E+007, +8.80833329363E+001, +1.05054090473E+003
+2.94273789649E+007, +9.26069143581E+001, +1.06475005825E+003
+2.95926544240E+007, +8.85769132134E+001, +1.07497252970E+003
+2.97579298831E+007, +9.20951263397E+001, +1.08957530742E+003
+2.99232053422E+007, +9.25655341953E+001, +1.09506301474E+003
+3.00884808013E+007, +9.19933686754E+001, +1.10532608191E+003
+3.02537562604E+007, +8.80381919084E+001, +1.11323186745E+003
+3.04190317195E+007, +9.38531475607E+001, +1.13110932659E+003
+3.05843071786E+007, +9.17881813927E+001, +1.13108489260E+003
+3.07495826377E+007, +8.99388110488E+001, +1.14783096612E+003
+3.09148580968E+007, +8.52036503134E+001, +1.15457346984E+003
+3.10801335559E+007, +9.49835435027E+001, +1.16977854422E+003
+3.12454090150E+007, +8.85550316941E+001, +1.18040359623E+003
+3.14106844741E+007, +9.04629584419E+001, +1.19104792148E+003
+3.15759599332E+007, +9.50538165353E+001, +1.19584096632E+003
+3.17412353923E+007, +9.23187822604E+001, +1.21103195528E+003
+3.19065108514E+007, +9.92055185780E+001, +1.23260948660E+003
+3.20717863105E+007, +8.77985991865E+001, +1.23601601008E+003
+3.22370617696E+007, +9.57343705159E+001, +1.24392601842E+003
+3.24023372287E+007, +9.17472692676E+001, +1.26268438687E+003
+3.25676126878E+007, +9.71428594851E+001, +1.27165108723E+003
+3.27328881469E+007, +9.58914705913E+001, +1.27517503303E+003
+3.28981636060E+007, +9.47755783147E+001, +1.29082209148E+003
+3.30634390651E+007, +9.44886012011E+001, +1.30837072221E+003
+3.32287145242E+007, +9.54044012044E+001, +1.33223055556E+003
+3.33939899833E+007, +1.05247191462E+002, +1.33716647319E+003
+3.35592654424E+007, +1.04506182737E+002, +1.35146139009E+003
+3.37245409015E+007, +1.00401245028E+002, +1.35561712463E+003
+3.38898163606E+007, +9.65510877309E+001, +1.37439797124E+003
+3.40550918197E+007, +9.44201895762E+001, +1.39165413661E+003
+3.42203672788E+007, +1.05885111823E+002, +1.39609240513E+003
+3.43856427379E+007, +1.11092564536E+002, +1.41926141125E+003
+3.45509181970E+007, +9.85759278655E+001, +1.43409576719E+003
+3.47161936561E+007, +1.01000646844E+002, +1.44807626868E+003
+3.48814691152E+007, +1.16384448238E+002, +1.45766117099E+003
+3.50467445743E+007, +1.19045269586E+002, +1.47470594891E+003
+3.52120200334E+007, +1.17144718596E+002, +1.48893126370E+003
+3.53772954925E+007, +1.21074942598E+002, +1.50702838618E+003
+3.55425709516E+007, +1.10785615390E+002, +1.52975792479E+003
+3.57078464107E+007, +1.14400519075E+002, +1.54626431083E+003
+3.58731218698E+007, +1.23209986813E+002, +1.55757782747E+003
+3.60383973289E+007, +1.04805529448E+002, +1.58213395110E+003
+3.62036727880E+007, +1.18896529385E+002, +1.59214837374E+003
+3.63689482471E+007, +1.21216555932E+002, +1.60504773355E+003
+3.65342237062E+007, +1.16354477641E+002, +1.62509439464E+003
+3.66994991653E+007, +1.21423334478E+002, +1.65496925715E+003
+3.68647746244E+007, +1.33210469832E+002, +1.65940358440E+003
+3.70300500835E+007, +1.27287667210E+002, +1.70292140363E+003
+3.71953255426E+007, +1.35483320715E+002, +1.71940678375E+003
+3.73606010017E+007, +1.42154814469E+002, +1.73905516844E+003
+3.75258764608E+007, +1.28639888989E+002, +1.77182818783E+003
+3.76911519199E+007, +1.35413124887E+002, +1.77145639416E+003
+3.78564273790E+007, +1.24752331748E+002, +1.79329642888E+003
+3.80217028381E+007, +1.41356336106E+002, +1.81901928419E+003
+3.81869782972E+007, +1.39201353979E+002, +1.83498681394E+003
+3.83522537563E+007, +1.42121657953E+002, +1.86255955384E+003
+3.85175292154E+007, +1.57726779736E+002, +1.88570045395E+003
+3.86828046745E+007, +1.43765802163E+002, +1.91339147836E+003
+3.88480801336E+007, +1.72612241932E+002, +1.95769737447E+003
+3.90133555927E+007, +1.59212608849E+002, +1.97717132918E+003
+3.91786310518E+007, +1.74261048117E+002, +2.03282868210E+003
+3.93439065109E+007, +1.77989493111E+002, +2.02835117446E+003
+3.95091819699E+007, +1.84199594394E+002, +2.06951562997E+003
+3.96744574290E+007, +1.94685918259E+002, +2.07221379172E+003
+3.98397328881E+007, +1.66480348849E+002, +2.12243737042E+003
+4.00050083472E+007, +2.07482960113E+002, +2.15318517563E+003
+4.01702838063E+007, +1.79469858578E+002, +2.17305693751E+003
+4.03355592654E+007, +2.03091986288E+002, +2.18971341068E+003
+4.05008347245E+007, +2.15491013790E+002, +2.27107640486E+003
+4.06661101836E+007, +2.16619591490E+002, +2.27818222755E+003
+4.08313856427E+007, +2.25201447371E+002, +2.31854422890E+003
+4.09966611018E+007, +2.28482380526E+002, +2.34063305884E+003
+4.11619365609E+007, +2.60321875792E+002, +2.37820758323E+003
+4.13272120200E+007, +2.86293269144E+002, +2.43012417656E+003
+4.14924874791E+007, +2.74076136991E+002, +2.45089466813E+003
+4.16577629382E+007, +2.79717576239E+002, +2.50211391573E+003
+4.18230383973E+007, +2.82122626418E+002, +2.52047234106E+003
+4.19883138564E+007, +2.86952124012E+002, +2.57898399674E+003
+4.21535893155E+007, +3.03221635783E+002, +2.62729195206E+003
+4.23188647746E+007, +3.42749472121E+002, +2.67753301724E+003
+4.24841402337E+007, +3.42767286900E+002, +2.77102936913E+003
+4.26494156928E+007, +3.29311715885E+002, +2.76021289744E+003
+4.28146911519E+007, +4.00514784173E+002, +2.83199832640E+003
+4.29799666110E+007, +3.79141685111E+002, +2.87770521375E+003
+4.31452420701E+007, +3.76751807935E+002, +2.98412266247E+003
+4.33105175292E+007, +4.12442246801E+002, +2.99380346251E+003
+4.34757929883E+007, +4.35879053828E+002, +3.04987489323E+003
+4.36410684474E+007, +4.49858062214E+002, +3.14715739675E+003
+4.38063439065E+007, +4.99250680563E+002, +3.20271031172E+003
+4.39716193656E+007, +5.38452814745E+002, +3.26387736190E+003
+4.41368948247E+007, +5.11060182210E+002, +3.35209801431E+003
+4.43021702838E+007, +5.76155517573E+002, +3.44714036145E+003
+4.44674457429E+007, +6.06710383638E+002, +3.52352370610E+003
+4.46327212020E+007, +5.76274926243E+002, +3.60228703231E+003
+4.47979966611E+007, +6.36984339987E+002, +3.69805523334E+003
+4.49632721202E+007, +7.49371675859E+002, +3.82280842996E+003
+4.51285475793E+007, +7.31866013846E+002, +3.91596093780E+003
+4.52938230384E+007, +8.49933794193E+002, +4.06331860019E+003
+4.54590984975E+007, +7.54062107056E+002, +4.09040286836E+003
+4.56243739566E+007, +1.01972266319E+003, +4.26697530330E+003
+4.57896494157E+007, +9.81167655746E+002, +4.27819209964E+003
+4.59549248748E+007, +1.03701185576E+003, +4.53129909205E+003
+4.61202003339E+007, +1.12563836088E+003, +4.61147338164E+003
+4.62854757930E+007, +1.30256205259E+003, +4.84183889064E+003
+4.64507512521E+007, +1.48647147500E+003, +4.91469017622E+003
+4.66160267112E+007, +1.57407363969E+003, +5.17568250135E+003
+4.67813021703E+007, +1.87164849645E+003, +5.27373755029E+003
+4.69465776294E+007, +1.86486107251E+003, +5.35534946215E+003
+4.71118530885E+007, +2.28814143313E+003, +5.64581875383E+003
+4.72771285476E+007, +2.43946198869E+003, +5.67162102040E+003
+4.74424040067E+007, +2.79775787142E+003, +5.88228249693E+003
+4.76076794658E+007, +2.91056502911E+003, +6.11046574399E+003
+4.77729549249E+007, +3.17773145229E+003, +6.38246554728E+003
+4.79382303840E+007, +3.64911051088E+003, +6.26661348134E+003
+4.81035058431E+007, +4.35807171004E+003, +6.57476129967E+003
+4.82687813022E+007, +4.54084624086E+003, +6.36564282195E+003
+4.84340567613E+007, +5.32488714972E+003, +6.59598637530E+003
+4.85993322204E+007, +5.78784756735E+003, +6.58273630048E+003
+4.87646076795E+007, +6.24387514101E+003, +6.28606459861E+003
+4.89298831386E+007, +6.83928766447E+003, +6.11544955750E+003
+4.90951585977E+007, +7.07577621762E+003, +5.84290894651E+003
+4.92604340568E+007, +7.90403340427E+003, +5.49008822872E+003
+4.94257095159E+007, +8.24031627512E+003, +5.19494650237E+003
+4.95909849750E+007, +8.56760357728E+003, +4.74478484183E+003
+4.97562604341E+007, +8.77043483112E+003, +4.34412238679E+003
+4.99215358932E+007, +9.84738470285E+003, +3.22660484986E+003
+5.00868113523E+007, +1.00509931303E+004, +2.81353570526E+003
+5.02520868114E+007, +9.94141798886E+003, +1.60321683292E+003
+5.04173622705E+007, +9.94655318761E+003, +1.46423935958E+003
+5.05826377295E+007, +1.01141548212E+004, +1.23255137578E+003
+5.07479131886E+007, +1.00478642859E+004, +6.90069654315E+002
+5.09131886477E+007, +9.98579544695E+003, +4.27999613459E+001
+5.10784641068E+007, +9.19678203846E+003, -7.95014404174E+002
+5.12437395659E+007, +9.63227996667E+003, -9.61591483780E+002
+5.14090150250E+007, +9.47762778889E+003, -1.74307780003E+003
+5.15742904841E+007, +9.29557425695E+003, -1.81854903006E+003
+5.17395659432E+007, +8.74425039739E+003, -2.66157832058E+003
+5.19048414023E+007, +8.50920883744E+003, -3.28980605599E+003
+5.20701168614E+007, +8.23183675661E+003, -3.56004191038E+003
+5.22353923205E+007, +7.81401267173E+003, -4.23564910233E+003
+5.24006677796E+007, +7.67265740628E+003, -4.68582100353E+003
+5.25659432387E+007, +6.72681520374E+003, -4.90857162027E+003
+5.27312186978E+007, +6.21857154006E+003, -5.00470499390E+003
+5.28964941569E+007, +5.53650984329E+003, -5.33015932973E+003
+5.30617696160E+007, +5.23153643677E+003, -5.33897463180E+003
+5.32270450751E+007, +4.67164975982E+003, -5.40450193059E+003
+5.33923205342E+007, +4.02774960496E+003, -5.38507367955E+003
+5.35575959933E+007, +3.61872536140E+003, -5.26159971398E+003
+5.37228714524E+007, +3.22938633978E+003, -5.04864082108E+003
+5.38881469115E+007, +3.15853675879E+003, -4.90945822098E+003
