"# Channel 1"
"# Trace 1"
Frequency, Formatted Data, Formatted Data
+1.00000000000E+005, +5.03112098102E+001, +3.43457186151E+000
+3.18898623279E+005, +5.04943007014E+001, +9.47389455798E+000
+5.37797246558E+005, +5.05684287653E+001, +1.59947069275E+001
+7.56695869837E+005, +5.05903290724E+001, +2.24494324188E+001
+9.75594493116E+005, +5.06483558370E+001, +2.88307091808E+001
+1.19449311640E+006, +5.07115170089E+001, +3.51450539045E+001
+1.41339173967E+006, +5.05430564846E+001, +4.16741439250E+001
+1.63229036295E+006, +5.06824463073E+001, +4.80358345132E+001
+1.85118898623E+006, +5.07176662633E+001, +5.45587151374E+001
+2.07008760951E+006, +5.07629256044E+001, +6.10187960917E+001
+2.28898623279E+006, +5.08720163286E+001, +6.75758995723E+001
+2.50788485607E+006, +5.09653258388E+001, +7.37945382708E+001
+2.72678347935E+006, +5.08126175891E+001, +8.04005083675E+001
+2.94568210263E+006, +5.09895658238E+001, +8.68945720356E+001
+3.16458072591E+006, +5.07531947421E+001, +9.33017638715E+001
+3.38347934919E+006, +5.11029821607E+001, +9.98765185997E+001
+3.60237797247E+006, +5.12019325008E+001, +1.06120935239E+002
+3.82127659574E+006, +5.11655406817E+001, +1.12598312996E+002
+4.04017521902E+006, +5.15053979908E+001, +1.19091075708E+002
+4.25907384230E+006, +5.12997556773E+001, +1.25669409704E+002
+4.47797246558E+006, +5.16320083455E+001, +1.32350634075E+002
+4.69687108886E+006, +5.14315753083E+001, +1.39056360438E+002
+4.91576971214E+006, +5.14141960877E+001, +1.45442935481E+002
+5.13466833542E+006, +5.15144344370E+001, +1.52078425712E+002
+5.35356695870E+006, +5.17969276474E+001, +1.58568426219E+002
+5.57246558198E+006, +5.16743539240E+001, +1.65139361076E+002
+5.79136420526E+006, +5.23107298130E+001, +1.71914020571E+002
+6.01026282854E+006, +5.21509941817E+001, +1.78443901936E+002
+6.22916145181E+006, +5.26431336493E+001, +1.85184248026E+002
+6.44806007509E+006, +5.24335057033E+001, +1.91568813219E+002
+6.66695869837E+006, +5.27756509151E+001, +1.98636378949E+002
+6.88585732165E+006, +5.28459511172E+001, +2.05392832917E+002
+7.10475594493E+006, +5.34910623556E+001, +2.12111233290E+002
+7.32365456821E+006, +5.34762633408E+001, +2.18878895264E+002
+7.54255319149E+006, +5.36349697903E+001, +2.25313290606E+002
+7.76145181477E+006, +5.38398491363E+001, +2.32511779291E+002
+7.98035043805E+006, +5.42104035089E+001, +2.39442329158E+002
+8.19924906133E+006, +5.41990489603E+001, +2.46109426623E+002
+8.41814768461E+006, +5.48618944230E+001, +2.52916209495E+002
+8.63704630788E+006, +5.47275109131E+001, +2.59635192544E+002
+8.85594493116E+006, +5.47781365768E+001, +2.67031359650E+002
+9.07484355444E+006, +5.42784464051E+001, +2.73924092741E+002
+9.29374217772E+006, +5.51276031852E+001, +2.81123533079E+002
+9.51264080100E+006, +5.51101205241E+001, +2.87866204534E+002
+9.73153942428E+006, +5.58397837242E+001, +2.95783424164E+002
+9.95043804756E+006, +5.56192462567E+001, +3.02157253981E+002
+1.01693366708E+007, +5.59719412748E+001, +3.09477538419E+002
+1.03882352941E+007, +5.60368572826E+001, +3.16518340565E+002
+1.06071339174E+007, +5.62192577938E+001, +3.23639184681E+002
+1.08260325407E+007, +5.60877107230E+001, +3.31183465568E+002
+1.10449311640E+007, +5.64586531042E+001, +3.38436915084E+002
+1.12638297872E+007, +5.67127708586E+001, +3.46575958627E+002
+1.14827284105E+007, +5.77496718098E+001, +3.52790862787E+002
+1.17016270338E+007, +5.77188499013E+001, +3.61015851553E+002
+1.19205256571E+007, +5.77027728092E+001, +3.68314444851E+002
+1.21394242804E+007, +5.83078294881E+001, +3.75897208132E+002
+1.23583229036E+007, +5.88921363068E+001, +3.83529863417E+002
+1.25772215269E+007, +5.81973590101E+001, +3.91076063040E+002
+1.27961201502E+007, +5.93685927226E+001, +3.98612179915E+002
+1.30150187735E+007, +5.86004126023E+001, +4.06572883359E+002
+1.32339173967E+007, +5.90755705710E+001, +4.13725533749E+002
+1.34528160200E+007, +5.89224654792E+001, +4.22101966261E+002
+1.36717146433E+007, +5.96215772297E+001, +4.29203527922E+002
+1.38906132666E+007, +6.06267920405E+001, +4.39249443973E+002
+1.41095118899E+007, +6.00329238907E+001, +4.47339871053E+002
+1.43284105131E+007, +5.93179994976E+001, +4.55430924591E+002
+1.45473091364E+007, +6.10689488779E+001, +4.63621756436E+002
+1.47662077597E+007, +6.13498797599E+001, +4.69892016375E+002
+1.49851063830E+007, +6.20562661632E+001, +4.80225735995E+002
+1.52040050063E+007, +6.23715349091E+001, +4.89030881015E+002
+1.54229036295E+007, +6.21484515379E+001, +4.96595695267E+002
+1.56418022528E+007, +6.21026300397E+001, +5.05250169070E+002
+1.58607008761E+007, +6.21071479282E+001, +5.13947493041E+002
+1.60795994994E+007, +6.30975081061E+001, +5.23745692934E+002
+1.62984981227E+007, +6.37776207697E+001, +5.31427526142E+002
+1.65173967459E+007, +6.56325325708E+001, +5.41317172376E+002
+1.67362953692E+007, +6.29279536402E+001, +5.48999819307E+002
+1.69551939925E+007, +6.53807323366E+001, +5.55887059781E+002
+1.71740926158E+007, +6.21210267031E+001, +5.67800761053E+002
+1.73929912390E+007, +6.30515882525E+001, +5.76376428678E+002
+1.76118898623E+007, +6.35722370257E+001, +5.85523026860E+002
+1.78307884856E+007, +6.74380856672E+001, +5.94849002961E+002
+1.80496871089E+007, +6.71505486434E+001, +6.03820818454E+002
+1.82685857322E+007, +6.90709085040E+001, +6.15585313676E+002
+1.84874843554E+007, +6.82081384580E+001, +6.24418307523E+002
+1.87063829787E+007, +6.79727581697E+001, +6.33613611469E+002
+1.89252816020E+007, +6.85481931557E+001, +6.46257798123E+002
+1.91441802253E+007, +7.02077722781E+001, +6.51958837896E+002
+1.93630788486E+007, +6.88616902411E+001, +6.65851891708E+002
+1.95819774718E+007, +7.39069545870E+001, +6.72746055076E+002
+1.98008760951E+007, +7.15299420443E+001, +6.85002643542E+002
+2.00197747184E+007, +7.20687367252E+001, +6.95291117108E+002
+2.02386733417E+007, +7.19721156307E+001, +7.04471376344E+002
+2.04575719650E+007, +7.37046921903E+001, +7.16315905205E+002
+2.06764705882E+007, +7.40253268911E+001, +7.28140806623E+002
+2.08953692115E+007, +7.69136439250E+001, +7.41544220749E+002
+2.11142678348E+007, +7.49908765368E+001, +7.48145019898E+002
+2.13331664581E+007, +7.85757608356E+001, +7.64022394128E+002
+2.15520650814E+007, +8.00898184573E+001, +7.70599523679E+002
+2.17709637046E+007, +7.97250284075E+001, +7.82238071011E+002
+2.19898623279E+007, +8.27083571759E+001, +7.98773640265E+002
+2.22087609512E+007, +7.91898463601E+001, +8.07178687426E+002
+2.24276595745E+007, +8.80628561036E+001, +8.22120925929E+002
+2.26465581977E+007, +8.24806233647E+001, +8.31567263122E+002
+2.28654568210E+007, +9.01861685359E+001, +8.44430701109E+002
+2.30843554443E+007, +9.07364206738E+001, +8.58338371887E+002
+2.33032540676E+007, +9.37355957468E+001, +8.69095064290E+002
+2.35221526909E+007, +9.24797725330E+001, +8.85323311494E+002
+2.37410513141E+007, +9.27134921228E+001, +8.91597736221E+002
+2.39599499374E+007, +9.44102268528E+001, +9.08545786886E+002
+2.41788485607E+007, +9.69093636693E+001, +9.20272900054E+002
+2.43977471840E+007, +1.00188461446E+002, +9.37856247446E+002
+2.46166458073E+007, +1.01954216205E+002, +9.50329291297E+002
+2.48355444305E+007, +1.04133168764E+002, +9.62929017190E+002
+2.50544430538E+007, +1.08993985487E+002, +9.69661665502E+002
+2.52733416771E+007, +1.14816611146E+002, +9.91234674942E+002
+2.54922403004E+007, +1.05123561660E+002, +1.00476885040E+003
+2.57111389237E+007, +1.09724989772E+002, +1.01523903052E+003
+2.59300375469E+007, +1.08842585325E+002, +1.02921701021E+003
+2.61489361702E+007, +1.08604443104E+002, +1.04655583711E+003
+2.63678347935E+007, +1.07378757577E+002, +1.06077615959E+003
+2.65867334168E+007, +1.14446697100E+002, +1.08174700605E+003
+2.68056320401E+007, +1.20817182551E+002, +1.09350977244E+003
+2.70245306633E+007, +1.14533605786E+002, +1.11098589923E+003
+2.72434292866E+007, +1.15398732551E+002, +1.11875481679E+003
+2.74623279099E+007, +1.16329738999E+002, +1.13891791035E+003
+2.76812265332E+007, +1.15843516238E+002, +1.16375873378E+003
+2.79001251564E+007, +1.22537956734E+002, +1.17776612679E+003
+2.81190237797E+007, +1.27558032547E+002, +1.19759946934E+003
+2.83379224030E+007, +1.25010126307E+002, +1.20904965578E+003
+2.85568210263E+007, +1.18375777879E+002, +1.22636470238E+003
+2.87757196496E+007, +1.23716715726E+002, +1.26075144875E+003
+2.89946182728E+007, +1.25975104094E+002, +1.28219464244E+003
+2.92135168961E+007, +1.26124784532E+002, +1.30811602520E+003
+2.94324155194E+007, +1.36760795170E+002, +1.32151406008E+003
+2.96513141427E+007, +1.25041068205E+002, +1.34923596788E+003
+2.98702127660E+007, +1.28947857065E+002, +1.35905373904E+003
+3.00891113892E+007, +1.31164469441E+002, +1.39190510869E+003
+3.03080100125E+007, +1.45589273275E+002, +1.41599104876E+003
+3.05269086358E+007, +1.45898927979E+002, +1.42937636641E+003
+3.07458072591E+007, +1.46814670177E+002, +1.44963399199E+003
+3.09647058824E+007, +1.54296755711E+002, +1.47897661177E+003
+3.11836045056E+007, +1.54562442720E+002, +1.50010216309E+003
+3.14025031289E+007, +1.58139094022E+002, +1.53228295795E+003
+3.16214017522E+007, +1.64401628492E+002, +1.55347471315E+003
+3.18403003755E+007, +1.59927023246E+002, +1.61533621009E+003
+3.20591989987E+007, +1.68157264579E+002, +1.61500416955E+003
+3.22780976220E+007, +1.57054472561E+002, +1.65185331980E+003
+3.24969962453E+007, +1.63808809036E+002, +1.68061863475E+003
+3.27158948686E+007, +1.69151286861E+002, +1.71177136400E+003
+3.29347934919E+007, +1.73549340636E+002, +1.74213604342E+003
+3.31536921151E+007, +1.84875523327E+002, +1.75243169555E+003
+3.33725907384E+007, +1.87944526176E+002, +1.81279034848E+003
+3.35914893617E+007, +1.87612228535E+002, +1.84624422818E+003
+3.38103879850E+007, +1.91419153323E+002, +1.87208150112E+003
+3.40292866083E+007, +1.87237582829E+002, +1.90749294984E+003
+3.42481852315E+007, +2.26237839866E+002, +1.95177701242E+003
+3.44670838548E+007, +2.22496361728E+002, +1.99542470399E+003
+3.46859824781E+007, +2.20657353431E+002, +2.02838167876E+003
+3.49048811014E+007, +2.51403508135E+002, +2.07262119769E+003
+3.51237797247E+007, +2.42818490244E+002, +2.11943461749E+003
+3.53426783479E+007, +2.62164893508E+002, +2.19141912873E+003
+3.55615769712E+007, +2.48667310243E+002, +2.22777523304E+003
+3.57804755945E+007, +2.68669785073E+002, +2.22996409222E+003
+3.59993742178E+007, +2.68861856687E+002, +2.35466426455E+003
+3.62182728411E+007, +2.89023748124E+002, +2.36174703310E+003
+3.64371714643E+007, +2.89278469094E+002, +2.38882357517E+003
+3.66560700876E+007, +2.96438081677E+002, +2.50683751970E+003
+3.68749687109E+007, +3.08273556927E+002, +2.58564141465E+003
+3.70938673342E+007, +3.41654558706E+002, +2.61934708850E+003
+3.73127659574E+007, +3.31214950230E+002, +2.69698829758E+003
+3.75316645807E+007, +3.61083645671E+002, +2.75674144284E+003
+3.77505632040E+007, +3.85299751549E+002, +2.86438907145E+003
+3.79694618273E+007, +4.30501934940E+002, +2.88301594985E+003
+3.81883604506E+007, +3.69099155438E+002, +3.01621152820E+003
+3.84072590738E+007, +4.08194982971E+002, +3.08342451382E+003
+3.86261576971E+007, +4.12855152746E+002, +3.19333218761E+003
+3.88450563204E+007, +4.55227389851E+002, +3.25477477156E+003
+3.90639549437E+007, +5.83736390930E+002, +3.31307881244E+003
+3.92828535670E+007, +5.79816892938E+002, +3.50715398546E+003
+3.95017521902E+007, +5.87352759556E+002, +3.55813672043E+003
+3.97206508135E+007, +6.25876569613E+002, +3.73986754212E+003
+3.99395494368E+007, +7.10891179771E+002, +3.79442585984E+003
+4.01584480601E+007, +7.82522385009E+002, +3.95045925438E+003
+4.03773466834E+007, +7.91870193031E+002, +4.17110560977E+003
+4.05962453066E+007, +7.64480690983E+002, +4.32371935622E+003
+4.08151439299E+007, +9.82979363092E+002, +4.40287685034E+003
+4.10340425532E+007, +9.27097268794E+002, +4.58079629567E+003
+4.12529411765E+007, +1.01097715172E+003, +4.87941398043E+003
+4.14718397997E+007, +1.19499060990E+003, +5.08247920807E+003
+4.16907384230E+007, +1.29411222095E+003, +5.27372706903E+003
+4.19096370463E+007, +1.29268649074E+003, +5.48869481990E+003
+4.21285356696E+007, +1.67760858021E+003, +5.67556268493E+003
+4.23474342929E+007, +1.69988940034E+003, +6.32633809545E+003
+4.25663329161E+007, +2.01054304789E+003, +6.20164731395E+003
+4.27852315394E+007, +2.08927239378E+003, +6.95158726450E+003
+4.30041301627E+007, +2.74995481017E+003, +7.06075773049E+003
+4.32230287860E+007, +3.01237444752E+003, +7.64367594830E+003
+4.34419274093E+007, +3.09903982523E+003, +8.07612212452E+003
+4.36608260325E+007, +3.50030339698E+003, +8.19428306331E+003
+4.38797246558E+007, +4.28261130182E+003, +8.94772926086E+003
+4.40986232791E+007, +5.13496128112E+003, +9.27623614528E+003
+4.43175219024E+007, +6.16867453443E+003, +9.85141593936E+003
+4.45364205257E+007, +8.22080171628E+003, +1.00304310385E+004
+4.47553191489E+007, +9.21266458480E+003, +1.06576931840E+004
+4.49742177722E+007, +1.15399223326E+004, +1.15382446560E+004
+4.51931163955E+007, +1.26783868515E+004, +1.20057931184E+004
+4.54120150188E+007, +1.50105501806E+004, +1.13722831599E+004
+4.56309136421E+007, +1.76810656688E+004, +8.86610951790E+003
+4.58498122653E+007, +1.97728380114E+004, +5.97692630163E+003
+4.60687108886E+007, +2.19586522170E+004, +1.89257360498E+003
+4.62876095119E+007, +2.13665910341E+004, -4.67553175922E+003
+4.65065081352E+007, +1.87923041026E+004, -6.11390848263E+003
+4.67254067584E+007, +1.77648239066E+004, -8.60990686047E+003
+4.69443053817E+007, +1.54065427654E+004, -9.62012360833E+003
+4.71632040050E+007, +1.28533603682E+004, -1.07824682012E+004
+4.73821026283E+007, +1.06234517382E+004, -1.05924767773E+004
+4.76010012516E+007, +8.17799179527E+003, -1.05176615766E+004
+4.78198998748E+007, +6.86112581072E+003, -1.05540783505E+004
+4.80387984981E+007, +5.94916958638E+003, -9.12962887938E+003
+4.82576971214E+007, +5.25934464692E+003, -8.76292746604E+003
+4.84765957447E+007, +4.56536163206E+003, -8.20329039012E+003
+4.86954943680E+007, +3.73805989119E+003, -8.25447098913E+003
+4.89143929912E+007, +3.38949391739E+003, -7.46365657034E+003
+4.91332916145E+007, +2.99851734897E+003, -7.03930488596E+003
+4.93521902378E+007, +2.71750279851E+003, -6.84683922933E+003
+4.95710888611E+007, +2.56225473713E+003, -6.11503438443E+003
+4.97899874844E+007, +2.27624559843E+003, -6.17143375946E+003
+5.00088861076E+007, +2.14018576947E+003, -5.99830516074E+003
+5.02277847309E+007, +1.91947640563E+003, -5.54814268302E+003
+5.04466833542E+007, +1.67591326375E+003, -5.05263479010E+003
+5.06655819775E+007, +1.55473901922E+003, -5.04149601716E+003
+5.08844806008E+007, +1.42272878255E+003, -4.87814340975E+003
+5.11033792240E+007, +1.33599216676E+003, -4.59286541109E+003
+5.13222778473E+007, +1.31592138946E+003, -4.41471909201E+003
+5.15411764706E+007, +1.19470913522E+003, -4.31565018192E+003
+5.17600750939E+007, +1.08481332230E+003, -4.13793236140E+003
+5.19789737171E+007, +9.83702338137E+002, -3.92558421280E+003
+5.21978723404E+007, +9.63535040300E+002, -3.88569107922E+003
+5.24167709637E+007, +8.59977869293E+002, -3.71788162996E+003
+5.26356695870E+007, +8.88261073757E+002, -3.61976942720E+003
+5.28545682103E+007, +8.11194072209E+002, -3.41699969298E+003
+5.30734668335E+007, +7.65232304403E+002, -3.34021809935E+003
+5.32923654568E+007, +6.74538653145E+002, -3.25897632318E+003
+5.35112640801E+007, +6.72492979261E+002, -3.13965588838E+003
+5.37301627034E+007, +6.35085789918E+002, -3.04431323954E+003
+5.39490613267E+007, +5.92391015751E+002, -2.95372170853E+003
+5.41679599499E+007, +5.89629646607E+002, -2.89484569356E+003
+5.43868585732E+007, +5.80470364823E+002, -2.79516385432E+003
+5.46057571965E+007, +5.25972152300E+002, -2.71303982278E+003
+5.48246558198E+007, +5.19693644723E+002, -2.66248653954E+003
+5.50435544431E+007, +4.79096204943E+002, -2.53937642940E+003
+5.52624530663E+007, +4.76469228165E+002, -2.48798085919E+003
+5.54813516896E+007, +4.58074721588E+002, -2.46398940983E+003
+5.57002503129E+007, +4.78274303499E+002, -2.38503012597E+003
+5.59191489362E+007, +4.64304809375E+002, -2.32875498464E+003
+5.61380475594E+007, +4.41906787403E+002, -2.27044454557E+003
+5.63569461827E+007, +4.24919666996E+002, -2.18960931376E+003
+5.65758448060E+007, +4.27193260609E+002, -2.15078198486E+003
+5.67947434293E+007, +4.13675126392E+002, -2.09989955050E+003
+5.70136420526E+007, +4.29209303185E+002, -2.04836633071E+003
+5.72325406758E+007, +4.11123164527E+002, -2.02052589112E+003
+5.74514392991E+007, +3.90604195795E+002, -1.97915554437E+003
+5.76703379224E+007, +4.04722310222E+002, -1.93734823708E+003
+5.78892365457E+007, +3.80370597617E+002, -1.89408911536E+003
+5.81081351690E+007, +4.01505046718E+002, -1.85545573841E+003
+5.83270337922E+007, +3.84877737610E+002, -1.81668369879E+003
+5.85459324155E+007, +3.82639251357E+002, -1.78475077188E+003
+5.87648310388E+007, +3.63186590116E+002, -1.76290576564E+003
+5.89837296621E+007, +3.72407694502E+002, -1.71895619621E+003
+5.92026282854E+007, +3.70544057779E+002, -1.68721980355E+003
+5.94215269086E+007, +3.53771136160E+002, -1.66215293828E+003
+5.96404255319E+007, +3.44678201651E+002, -1.63423136622E+003
+5.98593241552E+007, +3.55375445600E+002, -1.59780380241E+003
+6.00782227785E+007, +3.44550587391E+002, -1.57243972952E+003
+6.02971214018E+007, +3.47773560994E+002, -1.54720948703E+003
+6.05160200250E+007, +3.35985243223E+002, -1.52556179235E+003
+6.07349186483E+007, +3.45777663183E+002, -1.50197314536E+003
+6.09538172716E+007, +3.19819242134E+002, -1.46546671981E+003
+6.11727158949E+007, +3.35970840637E+002, -1.43745885291E+003
+6.13916145181E+007, +3.23629528335E+002, -1.43010060150E+003
+6.16105131414E+007, +3.21195839775E+002, -1.41174680498E+003
+6.18294117647E+007, +3.14742426944E+002, -1.39385519154E+003
+6.20483103880E+007, +3.09525918715E+002, -1.36716261317E+003
+6.22672090113E+007, +3.04342351822E+002, -1.35273715805E+003
+6.24861076345E+007, +3.03531144657E+002, -1.32877683702E+003
+6.27050062578E+007, +3.04383177638E+002, -1.30803759019E+003
+6.29239048811E+007, +2.81130785696E+002, -1.29005290135E+003
+6.31428035044E+007, +2.78881108991E+002, -1.27638101277E+003
+6.33617021277E+007, +2.76250359216E+002, -1.25158626628E+003
+6.35806007509E+007, +2.70274941698E+002, -1.22571112239E+003
+6.37994993742E+007, +2.67126299066E+002, -1.21131984139E+003
+6.40183979975E+007, +2.62813824435E+002, -1.19040384441E+003
+6.42372966208E+007, +2.55825834179E+002, -1.17230650897E+003
+6.44561952441E+007, +2.54139214948E+002, -1.15333207914E+003
+6.46750938673E+007, +2.45435317382E+002, -1.12959845769E+003
+6.48939924906E+007, +2.47843945848E+002, -1.11109096812E+003
+6.51128911139E+007, +2.40647811117E+002, -1.09326484849E+003
+6.53317897372E+007, +2.47728167689E+002, -1.07158009908E+003
+6.55506883605E+007, +2.43062230377E+002, -1.05414794795E+003
+6.57695869837E+007, +2.38325045094E+002, -1.03851886331E+003
+6.59884856070E+007, +2.40856124693E+002, -1.02103478030E+003
+6.62073842303E+007, +2.36010099110E+002, -1.00179040818E+003
+6.64262828536E+007, +2.38368994380E+002, -9.87642521936E+002
+6.66451814768E+007, +2.37707983252E+002, -9.72808085722E+002
+6.68640801001E+007, +2.35981008696E+002, -9.58587444240E+002
+6.70829787234E+007, +2.36953143443E+002, -9.45219678131E+002
+6.73018773467E+007, +2.39525686646E+002, -9.29422672312E+002
+6.75207759700E+007, +2.40215164767E+002, -9.12481337650E+002
+6.77396745932E+007, +2.37829092059E+002, -9.01198223610E+002
+6.79585732165E+007, +2.40104872959E+002, -8.86963189563E+002
+6.81774718398E+007, +2.36035532126E+002, -8.76534627465E+002
+6.83963704631E+007, +2.39254761401E+002, -8.63659074405E+002
+6.86152690864E+007, +2.38237821412E+002, -8.47419693268E+002
+6.88341677096E+007, +2.36444830096E+002, -8.35951158832E+002
+6.90530663329E+007, +2.38502905893E+002, -8.23620780227E+002
+6.92719649562E+007, +2.38831504318E+002, -8.11078659929E+002
+6.94908635795E+007, +2.35297388553E+002, -7.98012984274E+002
+6.97097622028E+007, +2.35347979339E+002, -7.86857303092E+002
+6.99286608260E+007, +2.34892634130E+002, -7.75162461604E+002
+7.01475594493E+007, +2.34411797482E+002, -7.64962637419E+002
