"# Channel 1"
"# Trace 1"
Frequency, Formatted Data, Formatted Data
+1.00000000000E+005, +4.08448649707E-001, +2.90960751009E+000
+2.66777963272E+005, +4.38522532898E-001, +7.71123165779E+000
+4.33555926544E+005, +4.88848622088E-001, +1.25296555668E+001
+6.00333889816E+005, +5.74178154482E-001, +1.72366203641E+001
+7.67111853088E+005, +6.68387478530E-001, +2.20149490747E+001
+9.33889816361E+005, +7.10731349329E-001, +2.67040576966E+001
+1.10066777963E+006, +6.66329738907E-001, +3.14632462680E+001
+1.26744574290E+006, +7.40349218162E-001, +3.61603458203E+001
+1.43422370618E+006, +6.91929005586E-001, +4.09517412556E+001
+1.60100166945E+006, +8.49170582104E-001, +4.55587202345E+001
+1.76777963272E+006, +7.85236936755E-001, +5.02872306405E+001
+1.93455759599E+006, +8.16830770904E-001, +5.48796045552E+001
+2.10133555927E+006, +8.44094395947E-001, +5.96038541661E+001
+2.26811352254E+006, +8.74371192362E-001, +6.44069981578E+001
+2.43489148581E+006, +8.44722978854E-001, +6.92257685529E+001
+2.60166944908E+006, +8.45068889341E-001, +7.38050938825E+001
+2.76844741235E+006, +8.24850912298E-001, +7.87132225850E+001
+2.93522537563E+006, +7.38702110119E-001, +8.33666824406E+001
+3.10200333890E+006, +1.05052157432E+000, +8.79983184628E+001
+3.26878130217E+006, +6.86972854445E-001, +9.29635241574E+001
+3.43555926544E+006, +8.38115398608E-001, +9.76301873078E+001
+3.60233722871E+006, +1.02543325139E+000, +1.02510908244E+002
+3.76911519199E+006, +8.62007278471E-001, +1.07432553763E+002
+3.93589315526E+006, +7.89800547334E-001, +1.11857319457E+002
+4.10267111853E+006, +1.01755159188E+000, +1.17069928110E+002
+4.26944908180E+006, +7.27591384958E-001, +1.21929603834E+002
+4.43622704508E+006, +8.04416439692E-001, +1.26401281512E+002
+4.60300500835E+006, +7.84118406650E-001, +1.31556536106E+002
+4.76978297162E+006, +6.67866072565E-001, +1.36224077444E+002
+4.93656093489E+006, +9.18633652502E-001, +1.41076245934E+002
+5.10333889816E+006, +9.86101713723E-001, +1.45904885047E+002
+5.27011686144E+006, +1.14452506579E+000, +1.50927920511E+002
+5.43689482471E+006, +7.93910143387E-001, +1.55858244923E+002
+5.60367278798E+006, +1.22597464767E+000, +1.61011100582E+002
+5.77045075125E+006, +1.04773707416E+000, +1.65546210762E+002
+5.93722871452E+006, +1.43072893385E+000, +1.70606661642E+002
+6.10400667780E+006, +1.26781809125E+000, +1.75806436808E+002
+6.27078464107E+006, +1.52657348047E+000, +1.80513108047E+002
+6.43756260434E+006, +1.54133227527E+000, +1.85585751948E+002
+6.60434056761E+006, +1.64906940787E+000, +1.90448520753E+002
+6.77111853088E+006, +2.11668761883E+000, +1.95031892210E+002
+6.93789649416E+006, +1.69176495623E+000, +2.00250524221E+002
+7.10467445743E+006, +1.65779281243E+000, +2.05301101297E+002
+7.27145242070E+006, +2.03052512467E+000, +2.10074256809E+002
+7.43823038397E+006, +1.88531753318E+000, +2.14961450902E+002
+7.60500834725E+006, +1.77090232693E+000, +2.20266394537E+002
+7.77178631052E+006, +1.95850089265E+000, +2.25316297560E+002
+7.93856427379E+006, +1.78555715154E+000, +2.30277648190E+002
+8.10534223706E+006, +1.79406655271E+000, +2.35288955216E+002
+8.27212020033E+006, +1.92785796742E+000, +2.40437447607E+002
+8.43889816361E+006, +1.67321515418E+000, +2.45722118917E+002
+8.60567612688E+006, +1.40588625270E+000, +2.51170046687E+002
+8.77245409015E+006, +1.44414712886E+000, +2.56113045444E+002
+8.93923205342E+006, +1.76821570823E+000, +2.61193956916E+002
+9.10601001669E+006, +1.39097992031E+000, +2.66611987392E+002
+9.27278797997E+006, +1.55080755058E+000, +2.71714328334E+002
+9.43956594324E+006, +1.25666118249E+000, +2.76935012217E+002
+9.60634390651E+006, +1.33714714359E+000, +2.82420131180E+002
+9.77312186978E+006, +1.17437720323E+000, +2.87466236372E+002
+9.93989983306E+006, +1.54561198331E+000, +2.93303290676E+002
+1.01066777963E+007, +1.13134453076E+000, +2.98266333436E+002
+1.02734557596E+007, +1.05262930459E+000, +3.03841635192E+002
+1.04402337229E+007, +3.95392386792E-001, +3.09748500914E+002
+1.06070116861E+007, +7.93185004864E-001, +3.14847391437E+002
+1.07737896494E+007, +9.24863097183E-001, +3.20809396400E+002
+1.09405676127E+007, +1.50242472285E+000, +3.26356005240E+002
+1.11073455760E+007, +8.61664635020E-001, +3.31963631831E+002
+1.12741235392E+007, +1.13109280977E+000, +3.37350671480E+002
+1.14409015025E+007, +1.18962715489E+000, +3.43466603549E+002
+1.16076794658E+007, +1.25195829490E+000, +3.48831580714E+002
+1.17744574290E+007, +1.22092861679E+000, +3.55030740040E+002
+1.19412353923E+007, +9.26895721024E-001, +3.60508349620E+002
+1.21080133556E+007, -3.96348933081E-001, +3.66428117786E+002
+1.22747913189E+007, +4.94511731731E-001, +3.71888997703E+002
+1.24415692821E+007, +4.00167741453E-001, +3.78022594898E+002
+1.26083472454E+007, +6.18856181834E-002, +3.84450631602E+002
+1.27751252087E+007, +1.13458370412E-001, +3.89519507829E+002
+1.29419031720E+007, -1.50408817823E-001, +3.95837359418E+002
+1.31086811352E+007, +1.04542643733E+000, +4.01162122110E+002
+1.32754590985E+007, +3.99296948354E-001, +4.07813772692E+002
+1.34422370618E+007, +1.42794988532E-001, +4.14041753160E+002
+1.36090150250E+007, +7.36854226246E-001, +4.19505916562E+002
+1.37757929883E+007, -4.17719860536E-002, +4.25862561608E+002
+1.39425709516E+007, +1.12204621003E-001, +4.32344302400E+002
+1.41093489149E+007, +2.52332197152E-001, +4.38668791018E+002
+1.42761268781E+007, +6.18332336102E-001, +4.45139065257E+002
+1.44429048414E+007, +3.32154983516E-001, +4.51605803020E+002
+1.46096828047E+007, +7.17328705052E-001, +4.58164405404E+002
+1.47764607679E+007, +4.81177045995E-001, +4.64092415886E+002
+1.49432387312E+007, +1.54682610761E-001, +4.71195734797E+002
+1.51100166945E+007, +3.25544477481E-001, +4.77506922597E+002
+1.52767946578E+007, +3.77311979923E-001, +4.83486226964E+002
+1.54435726210E+007, +7.79145461482E-001, +4.90224162824E+002
+1.56103505843E+007, +1.89980034799E+000, +4.97403698571E+002
+1.57771285476E+007, +7.16344790357E-001, +5.03494712770E+002
+1.59439065109E+007, +1.24841091440E+000, +5.09546727078E+002
+1.61106844741E+007, +1.80777410718E+000, +5.18616304124E+002
+1.62774624374E+007, +2.40074931204E+000, +5.23396964545E+002
+1.64442404007E+007, +1.06567116455E+000, +5.30369429676E+002
+1.66110183639E+007, +8.10076359408E-001, +5.37589257399E+002
+1.67777963272E+007, +1.44784225754E+000, +5.45042641333E+002
+1.69445742905E+007, +1.77708974465E+000, +5.51515393101E+002
+1.71113522538E+007, -6.52474077814E-001, +5.58661699437E+002
+1.72781302170E+007, -2.27695087960E-001, +5.66471200600E+002
+1.74449081803E+007, -1.34686755710E+000, +5.72266395562E+002
+1.76116861436E+007, +1.32142966619E+000, +5.79785889511E+002
+1.77784641068E+007, -1.99199857801E-002, +5.86775911876E+002
+1.79452420701E+007, +2.06515091376E+000, +5.94089515671E+002
+1.81120200334E+007, -1.02195486807E-001, +6.01103830070E+002
+1.82787979967E+007, +7.97815881594E-001, +6.11382320394E+002
+1.84455759599E+007, +1.55698590372E+000, +6.18293993383E+002
+1.86123539232E+007, +2.79790364008E+000, +6.26275088116E+002
+1.87791318865E+007, +5.12825840280E-001, +6.34816018734E+002
+1.89459098497E+007, +1.97424910609E-002, +6.41869375628E+002
+1.91126878130E+007, +2.08819302405E+000, +6.48690680152E+002
+1.92794657763E+007, +2.61863362196E-001, +6.59373568325E+002
+1.94462437396E+007, +3.62426511290E+000, +6.67953087679E+002
+1.96130217028E+007, +2.68460270575E+000, +6.76563798255E+002
+1.97797996661E+007, +2.19183118238E+000, +6.82161353676E+002
+1.99465776294E+007, -3.79041790264E-001, +6.91455199052E+002
+2.01133555927E+007, +1.34244382438E+000, +7.00448690653E+002
+2.02801335559E+007, +1.12718652095E+000, +7.10542993805E+002
+2.04469115192E+007, +3.27836846780E+000, +7.17468059851E+002
+2.06136894825E+007, +4.23718653060E+000, +7.27242914727E+002
+2.07804674457E+007, +3.50160045285E+000, +7.38500088594E+002
+2.09472454090E+007, +1.00959470724E-001, +7.49351025648E+002
+2.11140233723E+007, +5.09951763906E+000, +7.55358939474E+002
+2.12808013356E+007, +1.93025341257E+000, +7.63657298046E+002
+2.14475792988E+007, +2.05780152846E+000, +7.74014341325E+002
+2.16143572621E+007, +4.82419989729E+000, +7.82796383838E+002
+2.17811352254E+007, +4.56137290771E+000, +7.93279457816E+002
+2.19479131886E+007, +7.78253530166E+000, +8.05924234711E+002
+2.21146911519E+007, +8.05704913257E+000, +8.09341147950E+002
+2.22814691152E+007, +3.24486136300E+000, +8.23567820542E+002
+2.24482470785E+007, +6.48791039935E+000, +8.34897147268E+002
+2.26150250417E+007, +9.92001781257E+000, +8.43589726278E+002
+2.27818030050E+007, +6.50774106775E+000, +8.55364889043E+002
+2.29485809683E+007, +1.46724577612E+001, +8.65916394247E+002
+2.31153589316E+007, +1.11509971169E+001, +8.79488715623E+002
+2.32821368948E+007, +1.28424354166E+001, +8.88918340356E+002
+2.34489148581E+007, +1.33892025270E+001, +8.95690873301E+002
+2.36156928214E+007, +1.60158638984E+001, +9.09526967546E+002
+2.37824707846E+007, +1.65999916288E+001, +9.22270252416E+002
+2.39492487479E+007, +1.27095372915E+001, +9.28715395696E+002
+2.41160267112E+007, +1.91996399722E+001, +9.42926972849E+002
+2.42828046745E+007, +1.57213611964E+001, +9.55510301797E+002
+2.44495826377E+007, +2.14103470839E+001, +9.64111194079E+002
+2.46163606010E+007, +2.21049611187E+001, +9.76036481389E+002
+2.47831385643E+007, +1.66728362864E+001, +9.89483038143E+002
+2.49499165275E+007, +2.48743045733E+001, +1.00145104571E+003
+2.51166944908E+007, +2.73721100608E+001, +1.01192303579E+003
+2.52834724541E+007, +2.32145174748E+001, +1.02493922921E+003
+2.54502504174E+007, +2.83150681981E+001, +1.04158481456E+003
+2.56170283806E+007, +2.88460193934E+001, +1.05360234331E+003
+2.57838063439E+007, +2.66920646900E+001, +1.07256280361E+003
+2.59505843072E+007, +2.89052170353E+001, +1.08026600137E+003
+2.61173622705E+007, +2.78449673695E+001, +1.09531385597E+003
+2.62841402337E+007, +3.43903512177E+001, +1.10483850806E+003
+2.64509181970E+007, +3.29898521226E+001, +1.11921137313E+003
+2.66176961603E+007, +3.42438737368E+001, +1.14070179257E+003
+2.67844741235E+007, +3.39204131154E+001, +1.14803392499E+003
+2.69512520868E+007, +3.87022542372E+001, +1.16680160729E+003
+2.71180300501E+007, +3.68127958559E+001, +1.17427774284E+003
+2.72848080134E+007, +4.36233794337E+001, +1.19728089445E+003
+2.74515859766E+007, +4.61429436351E+001, +1.20604819332E+003
+2.76183639399E+007, +3.63388120239E+001, +1.22443575451E+003
+2.77851419032E+007, +4.25884725099E+001, +1.23156366164E+003
+2.79519198664E+007, +4.83366108455E+001, +1.25183212880E+003
+2.81186978297E+007, +4.97240947663E+001, +1.26464975213E+003
+2.82854757930E+007, +4.75837102893E+001, +1.28464267004E+003
+2.84522537563E+007, +3.93302890080E+001, +1.30334363530E+003
+2.86190317195E+007, +4.17234113229E+001, +1.32113239365E+003
+2.87858096828E+007, +6.40351622081E+001, +1.34090197924E+003
+2.89525876461E+007, +5.81668623992E+001, +1.34971890806E+003
+2.91193656093E+007, +5.41529785565E+001, +1.36258324218E+003
+2.92861435726E+007, +5.23700989193E+001, +1.38644812110E+003
+2.94529215359E+007, +6.21863987898E+001, +1.40540755454E+003
+2.96196994992E+007, +6.68283554867E+001, +1.43269553379E+003
+2.97864774624E+007, +6.65072861827E+001, +1.44580739982E+003
+2.99532554257E+007, +7.38981464932E+001, +1.47402336765E+003
+3.01200333890E+007, +6.75688067167E+001, +1.48865193544E+003
+3.02868113523E+007, +6.10564038681E+001, +1.51431098213E+003
+3.04535893155E+007, +6.04510194337E+001, +1.53391542109E+003
+3.06203672788E+007, +7.67657076749E+001, +1.56029252819E+003
+3.07871452421E+007, +6.97771908108E+001, +1.58460773415E+003
+3.09539232053E+007, +8.06014247365E+001, +1.60490364906E+003
+3.11207011686E+007, +6.94245986927E+001, +1.64683522420E+003
+3.12874791319E+007, +7.34456395310E+001, +1.64521979158E+003
+3.14542570952E+007, +7.98965550315E+001, +1.68048455622E+003
+3.16210350584E+007, +7.62209400192E+001, +1.70193965151E+003
+3.17878130217E+007, +6.88549450857E+001, +1.73153696903E+003
+3.19545909850E+007, +9.01102150649E+001, +1.75726291372E+003
+3.21213689482E+007, +7.62355698763E+001, +1.79178111175E+003
+3.22881469115E+007, +7.07701937426E+001, +1.80807344042E+003
+3.24549248748E+007, +8.45447788060E+001, +1.86041135280E+003
+3.26217028381E+007, +8.69940348048E+001, +1.89184566718E+003
+3.27884808013E+007, +8.92920902026E+001, +1.91405607041E+003
+3.29552587646E+007, +1.10107054497E+002, +1.94826758978E+003
+3.31220367279E+007, +1.04492314538E+002, +1.96649447493E+003
+3.32888146912E+007, +1.08061943869E+002, +2.02919071168E+003
+3.34555926544E+007, +9.17629751159E+001, +2.06342907418E+003
+3.36223706177E+007, +1.10763497996E+002, +2.07837013673E+003
+3.37891485810E+007, +9.69712873008E+001, +2.11715711149E+003
+3.39559265442E+007, +1.01859368859E+002, +2.16662195531E+003
+3.41227045075E+007, +1.10907688255E+002, +2.20360813870E+003
+3.42894824708E+007, +1.11606914039E+002, +2.25697871354E+003
+3.44562604341E+007, +1.14439097662E+002, +2.31711625566E+003
+3.46230383973E+007, +1.22613802168E+002, +2.36110192572E+003
+3.47898163606E+007, +1.41020428547E+002, +2.38602854400E+003
+3.49565943239E+007, +1.52161890311E+002, +2.45528109078E+003
+3.51233722871E+007, +1.57248398723E+002, +2.52324453214E+003
+3.52901502504E+007, +1.36935842787E+002, +2.52964708356E+003
+3.54569282137E+007, +1.48483806988E+002, +2.62294240424E+003
+3.56237061770E+007, +1.64276043309E+002, +2.66548408676E+003
+3.57904841402E+007, +1.61375199879E+002, +2.76358957536E+003
+3.59572621035E+007, +1.89442027893E+002, +2.82380561515E+003
+3.61240400668E+007, +1.87730133513E+002, +2.91374483356E+003
+3.62908180301E+007, +2.39001926925E+002, +2.98734904009E+003
+3.64575959933E+007, +1.82110342718E+002, +3.07253478064E+003
+3.66243739566E+007, +2.40342556318E+002, +3.11356973095E+003
+3.67911519199E+007, +2.71431978893E+002, +3.23677345359E+003
+3.69579298831E+007, +2.13676358384E+002, +3.30105764389E+003
+3.71247078464E+007, +2.54117331445E+002, +3.38911348612E+003
+3.72914858097E+007, +2.72523939457E+002, +3.54282706577E+003
+3.74582637730E+007, +2.92308420481E+002, +3.66973386101E+003
+3.76250417362E+007, +3.35679103883E+002, +3.72954152286E+003
+3.77918196995E+007, +3.36003853934E+002, +3.84241281943E+003
+3.79585976628E+007, +3.94004657889E+002, +3.95337086279E+003
+3.81253756260E+007, +4.36706594495E+002, +4.14844262977E+003
+3.82921535893E+007, +4.79025401222E+002, +4.27309282570E+003
+3.84589315526E+007, +5.18458590946E+002, +4.41897259755E+003
+3.86257095159E+007, +4.73969921424E+002, +4.62336417534E+003
+3.87924874791E+007, +5.66188812949E+002, +4.80789972197E+003
+3.89592654424E+007, +6.26145372984E+002, +4.94549324880E+003
+3.91260434057E+007, +7.82590890531E+002, +5.25657776033E+003
+3.92928213689E+007, +7.61465720661E+002, +5.35498244079E+003
+3.94595993322E+007, +8.02666299867E+002, +5.75981023605E+003
+3.96263772955E+007, +8.93068780831E+002, +5.84483070257E+003
+3.97931552588E+007, +9.47555750453E+002, +6.18254792890E+003
+3.99599332220E+007, +1.23089007861E+003, +6.45599449174E+003
+4.01267111853E+007, +1.47124524098E+003, +6.87195416261E+003
+4.02934891486E+007, +1.30372732694E+003, +7.13282269164E+003
+4.04602671119E+007, +1.79300326940E+003, +7.52296895629E+003
+4.06270450751E+007, +2.25315912757E+003, +7.92137647848E+003
+4.07938230384E+007, +2.36083892443E+003, +8.26197992992E+003
+4.09606010017E+007, +2.66187825332E+003, +9.02410688260E+003
+4.11273789649E+007, +2.99386832679E+003, +9.71855371245E+003
+4.12941569282E+007, +3.86176088912E+003, +1.09932704707E+004
+4.14609348915E+007, +5.33135823699E+003, +1.20899418810E+004
+4.16277128548E+007, +6.43069668001E+003, +1.23613881245E+004
+4.17944908180E+007, +6.28950296961E+003, +1.30592946164E+004
+4.19612687813E+007, +9.86926342756E+003, +1.62271258596E+004
+4.21280467446E+007, +1.21956250396E+004, +1.70989309388E+004
+4.22948247078E+007, +1.63701082415E+004, +1.49418724986E+004
+4.24616026711E+007, +2.02398548714E+004, +1.50237949650E+004
+4.26283806344E+007, +2.54790938542E+004, +9.93077082015E+003
+4.27951585977E+007, +3.65138445453E+004, +1.28697684710E+003
+4.29619365609E+007, +2.61517193853E+004, -3.88954091203E+002
+4.31287145242E+007, +2.68087542387E+004, -1.09816741805E+004
+4.32954924875E+007, +2.17464255643E+004, -1.54199265311E+004
+4.34622704508E+007, +1.63715930437E+004, -1.56054297972E+004
+4.36290484140E+007, +1.27395452093E+004, -1.44237741111E+004
+4.37958263773E+007, +8.96987498672E+003, -1.45782436216E+004
+4.39626043406E+007, +8.64010525083E+003, -1.31538497121E+004
+4.41293823038E+007, +5.71911150386E+003, -1.07341753324E+004
+4.42961602671E+007, +4.78947904452E+003, -1.12352048542E+004
+4.44629382304E+007, +4.17768000807E+003, -9.90732949705E+003
+4.46297161937E+007, +3.59578133935E+003, -9.08506562545E+003
+4.47964941569E+007, +2.98875444008E+003, -8.61963265043E+003
+4.49632721202E+007, +2.68525335119E+003, -8.19311817167E+003
+4.51300500835E+007, +2.32247014947E+003, -7.78233278906E+003
+4.52968280467E+007, +2.13001310381E+003, -7.06478396130E+003
+4.54636060100E+007, +1.77114635934E+003, -6.37346628300E+003
+4.56303839733E+007, +1.58483964407E+003, -6.18364340508E+003
+4.57971619366E+007, +1.55915141874E+003, -5.78944901634E+003
+4.59639398998E+007, +1.22952152169E+003, -5.30291198307E+003
+4.61307178631E+007, +1.26882738316E+003, -5.19728208639E+003
+4.62974958264E+007, +1.22134886548E+003, -4.85846932031E+003
+4.64642737896E+007, +9.70037791768E+002, -4.71384614068E+003
+4.66310517529E+007, +1.02819189581E+003, -4.46542288977E+003
+4.67978297162E+007, +1.06050929291E+003, -4.30042881696E+003
+4.69646076795E+007, +8.74959755081E+002, -4.11719583804E+003
+4.71313856427E+007, +8.83999660697E+002, -3.96609621123E+003
+4.72981636060E+007, +8.53682559128E+002, -3.76620572163E+003
+4.74649415693E+007, +7.84403121061E+002, -3.66777032777E+003
+4.76317195326E+007, +8.18938856963E+002, -3.54496052305E+003
+4.77984974958E+007, +7.91966494590E+002, -3.36724273695E+003
+4.79652754591E+007, +7.74259449079E+002, -3.29078501855E+003
+4.81320534224E+007, +7.50696523677E+002, -3.19919658196E+003
+4.82988313856E+007, +7.43687146073E+002, -3.10000828208E+003
+4.84656093489E+007, +7.33135116737E+002, -3.02625522377E+003
+4.86323873122E+007, +7.06617429329E+002, -2.91663651330E+003
+4.87991652755E+007, +6.93748716220E+002, -2.80731639667E+003
+4.89659432387E+007, +6.71285317621E+002, -2.77407065711E+003
+4.91327212020E+007, +6.73003690323E+002, -2.66929551301E+003
+4.92994991653E+007, +6.62498112381E+002, -2.62932854413E+003
+4.94662771285E+007, +6.52149001700E+002, -2.55609110510E+003
+4.96330550918E+007, +6.51696126589E+002, -2.47584305128E+003
+4.97998330551E+007, +6.51413263173E+002, -2.45955202491E+003
+4.99666110184E+007, +6.33680676588E+002, -2.38449202140E+003
+5.01333889816E+007, +6.26462338409E+002, -2.34513523723E+003
+5.03001669449E+007, +6.09532608313E+002, -2.31209992454E+003
+5.04669449082E+007, +6.11195040335E+002, -2.25124374680E+003
+5.06337228715E+007, +6.00022595123E+002, -2.22115518231E+003
+5.08005008347E+007, +5.71547583431E+002, -2.20185084158E+003
+5.09672787980E+007, +5.99791257759E+002, -2.16820877676E+003
+5.11340567613E+007, +5.67220431797E+002, -2.10742491243E+003
+5.13008347245E+007, +5.28376282475E+002, -2.09758241015E+003
+5.14676126878E+007, +5.35113239065E+002, -2.06403048108E+003
+5.16343906511E+007, +5.12782910623E+002, -2.02880425191E+003
+5.18011686144E+007, +4.92303503388E+002, -2.02109278381E+003
+5.19679465776E+007, +4.70334803106E+002, -1.97349024359E+003
+5.21347245409E+007, +4.45928108889E+002, -1.93605623064E+003
+5.23015025042E+007, +4.22018017703E+002, -1.89099567615E+003
+5.24682804674E+007, +3.88596460270E+002, -1.87941265407E+003
+5.26350584307E+007, +3.81878423327E+002, -1.85068790351E+003
+5.28018363940E+007, +3.51197929653E+002, -1.80129526419E+003
+5.29686143573E+007, +3.34414138034E+002, -1.75850405106E+003
+5.31353923205E+007, +3.39882753834E+002, -1.73876609678E+003
+5.33021702838E+007, +2.99273060300E+002, -1.71553195321E+003
+5.34689482471E+007, +2.94001318836E+002, -1.66915260492E+003
