"# Channel 1"
"# Trace 1"
Frequency, Formatted Data, Formatted Data
+1.00000000000E+005, +2.14946984825E-001, +2.73216699483E+000
+2.66777963272E+005, +2.59406228285E-001, +7.20178229115E+000
+4.33555926544E+005, +2.91745240542E-001, +1.16620462978E+001
+6.00333889816E+005, +3.53069400466E-001, +1.60635560481E+001
+7.67111853088E+005, +4.27684086518E-001, +2.05192310326E+001
+9.33889816361E+005, +4.41149290907E-001, +2.49061261242E+001
+1.10066777963E+006, +3.84263152898E-001, +2.93650721418E+001
+1.26744574290E+006, +4.61704028019E-001, +3.37336318921E+001
+1.43422370618E+006, +3.79595508961E-001, +3.82524751939E+001
+1.60100166945E+006, +5.02841173070E-001, +4.25512909517E+001
+1.76777963272E+006, +4.82831830828E-001, +4.70066623844E+001
+1.93455759599E+006, +4.88876735449E-001, +5.13061086043E+001
+2.10133555927E+006, +4.96402359537E-001, +5.57619179209E+001
+2.26811352254E+006, +5.52804417187E-001, +6.02428716286E+001
+2.43489148581E+006, +4.70047269066E-001, +6.47391244995E+001
+2.60166944908E+006, +4.48591299114E-001, +6.90597364656E+001
+2.76844741235E+006, +4.42647984922E-001, +7.36193252392E+001
+2.93522537563E+006, +4.36250039415E-001, +7.79774789262E+001
+3.10200333890E+006, +6.31995551617E-001, +8.22818654543E+001
+3.26878130217E+006, +4.20792846391E-001, +8.69310462441E+001
+3.43555926544E+006, +4.65519567602E-001, +9.13796541126E+001
+3.60233722871E+006, +5.30479975749E-001, +9.59545978103E+001
+3.76911519199E+006, +5.27124012921E-001, +1.00600491539E+002
+3.93589315526E+006, +6.77091084419E-001, +1.04701102417E+002
+4.10267111853E+006, -3.13911584919E-001, +1.08300271220E+002
+4.26944908180E+006, +2.67568734471E-001, +1.14467486609E+002
+4.43622704508E+006, +2.86387685747E-001, +1.18512676437E+002
+4.60300500835E+006, +5.02468887012E-001, +1.23287891717E+002
+4.76978297162E+006, +3.94304217276E-001, +1.27579511528E+002
+4.93656093489E+006, +6.85871793265E-001, +1.32280054606E+002
+5.10333889816E+006, +6.18863229162E-001, +1.36605272625E+002
+5.27011686144E+006, +1.04207697864E+000, +1.41367533942E+002
+5.43689482471E+006, +4.16613112546E-001, +1.46043900895E+002
+5.60367278798E+006, +8.51800458427E-001, +1.50906843929E+002
+5.77045075125E+006, +6.44854833634E-001, +1.55089985126E+002
+5.93722871452E+006, +8.88753928968E-001, +1.59570515031E+002
+6.10400667780E+006, +8.36131616039E-001, +1.64535504702E+002
+6.27078464107E+006, +1.15867534770E+000, +1.68868363880E+002
+6.43756260434E+006, +1.21947862568E+000, +1.73563502495E+002
+6.60434056761E+006, +1.32703672315E+000, +1.78169321521E+002
+6.77111853088E+006, +1.56748315688E+000, +1.82647285833E+002
+6.93789649416E+006, +1.41665651197E+000, +1.87388516765E+002
+7.10467445743E+006, +1.38424763265E+000, +1.91967053970E+002
+7.27145242070E+006, +1.45475398432E+000, +1.96476494716E+002
+7.43823038397E+006, +1.44699553779E+000, +2.01079006958E+002
+7.60500834725E+006, +1.50756745621E+000, +2.05761453760E+002
+7.77178631052E+006, +1.60437800832E+000, +2.10915488192E+002
+7.93856427379E+006, +1.38952150491E+000, +2.15400605047E+002
+8.10534223706E+006, +1.45267308471E+000, +2.20104543561E+002
+8.27212020033E+006, +1.50481264118E+000, +2.24921440478E+002
+8.43889816361E+006, +1.27798910634E+000, +2.29864919206E+002
+8.60567612688E+006, +5.70396833899E-001, +2.34955119330E+002
+8.77245409015E+006, +6.71421756506E-001, +2.39310115010E+002
+8.93923205342E+006, +9.06948332694E-001, +2.44244122457E+002
+9.10601001669E+006, +6.14385821607E-001, +2.49660873442E+002
+9.27278797997E+006, +8.11257650701E-001, +2.54143063659E+002
+9.43956594324E+006, +4.21906328724E-001, +2.59347634133E+002
+9.60634390651E+006, +4.58228440386E-001, +2.64183787110E+002
+9.77312186978E+006, +1.34567952457E-001, +2.69149980473E+002
+9.93989983306E+006, +4.67475465953E-001, +2.74462769137E+002
+1.01066777963E+007, +1.28440254188E-001, +2.79248665951E+002
+1.02734557596E+007, +1.73214724736E-001, +2.85084064316E+002
+1.04402337229E+007, -9.73445944451E-003, +2.89967814363E+002
+1.06070116861E+007, +8.66578387239E-002, +2.95106695215E+002
+1.07737896494E+007, -6.62036012947E-002, +3.00648056714E+002
+1.09405676127E+007, +4.42666787601E-001, +3.05707407961E+002
+1.11073455760E+007, +2.83072670446E-001, +3.10824244394E+002
+1.12741235392E+007, +1.71668433871E-001, +3.15940636823E+002
+1.14409015025E+007, +2.26182587638E-001, +3.21412787019E+002
+1.16076794658E+007, +1.41578278501E-001, +3.26676718241E+002
+1.17744574290E+007, +8.29305012166E-002, +3.31965453511E+002
+1.19412353923E+007, -1.44208076843E-001, +3.37838419760E+002
+1.21080133556E+007, -4.31314065528E-001, +3.43321701545E+002
+1.22747913189E+007, -3.18797145487E-001, +3.48693381524E+002
+1.24415692821E+007, -5.04620689569E-001, +3.54005326952E+002
+1.26083472454E+007, -6.52637037576E-001, +3.59640143177E+002
+1.27751252087E+007, -3.70650772343E-001, +3.65005087651E+002
+1.29419031720E+007, -3.19798385871E-001, +3.70990333602E+002
+1.31086811352E+007, -5.32642952631E-002, +3.76408852081E+002
+1.32754590985E+007, -5.54700363900E-001, +3.82022506312E+002
+1.34422370618E+007, -1.86258330118E-001, +3.87490705797E+002
+1.36090150250E+007, +3.38545976548E-001, +3.93689464558E+002
+1.37757929883E+007, +2.19660392660E-002, +3.99290664547E+002
+1.39425709516E+007, +6.95401384030E-002, +4.04249053108E+002
+1.41093489149E+007, +4.57218611520E-001, +4.10814082420E+002
+1.42761268781E+007, +6.78477075291E-001, +4.16913264660E+002
+1.44429048414E+007, +1.36673256689E-001, +4.22006752330E+002
+1.46096828047E+007, +3.83841693304E-001, +4.28667026659E+002
+1.47764607679E+007, +5.37271886010E-001, +4.33965677815E+002
+1.49432387312E+007, -9.10290233543E-002, +4.40461031165E+002
+1.51100166945E+007, -2.88612373641E-001, +4.47026657744E+002
+1.52767946578E+007, +1.34116894838E-002, +4.52695358861E+002
+1.54435726210E+007, -2.86254235172E-001, +4.58800709871E+002
+1.56103505843E+007, +7.08463364488E-002, +4.65439670980E+002
+1.57771285476E+007, +2.70142664811E-001, +4.70332285027E+002
+1.59439065109E+007, +2.90124905401E-001, +4.77509260419E+002
+1.61106844741E+007, +4.65221848432E-002, +4.84065516243E+002
+1.62774624374E+007, -1.54681413353E-002, +4.90254698357E+002
+1.64442404007E+007, +1.22269929755E-001, +4.96421969464E+002
+1.66110183639E+007, +1.39089018887E+000, +5.04127818937E+002
+1.67777963272E+007, +6.05172893784E-001, +5.10851376147E+002
+1.69445742905E+007, +8.05113468676E-001, +5.16824315729E+002
+1.71113522538E+007, -2.79866282170E+000, +5.23124035909E+002
+1.72781302170E+007, -1.49478045493E-001, +5.30141627339E+002
+1.74449081803E+007, -1.33400399570E+000, +5.37720153437E+002
+1.76116861436E+007, +1.24526552121E+000, +5.45189344794E+002
+1.77784641068E+007, +3.46213869358E-002, +5.50980546318E+002
+1.79452420701E+007, +1.78184851045E+000, +5.57653089392E+002
+1.81120200334E+007, +2.23562863272E+000, +5.63516170204E+002
+1.82787979967E+007, +2.52900482439E+000, +5.71973107564E+002
+1.84455759599E+007, +2.53652234046E+000, +5.79612486144E+002
+1.86123539232E+007, +2.60774106202E+000, +5.86737893907E+002
+1.87791318865E+007, +1.92157539926E+000, +5.92343209477E+002
+1.89459098497E+007, +2.07325901200E+000, +6.01083672336E+002
+1.91126878130E+007, +3.23132709920E+000, +6.07647931478E+002
+1.92794657763E+007, +2.63578427320E+000, +6.15755972255E+002
+1.94462437396E+007, +4.68135025894E+000, +6.26000549871E+002
+1.96130217028E+007, +2.09850234188E+000, +6.32925871999E+002
+1.97797996661E+007, +4.20368544434E+000, +6.38740741210E+002
+1.99465776294E+007, +2.20038340255E+000, +6.44211279029E+002
+2.01133555927E+007, +3.31476161547E+000, +6.55176375545E+002
+2.02801335559E+007, +4.29650743824E+000, +6.62650607365E+002
+2.04469115192E+007, +5.95549212261E+000, +6.71349659015E+002
+2.06136894825E+007, +6.41153066805E+000, +6.78577801032E+002
+2.07804674457E+007, +4.87877938054E+000, +6.89788087786E+002
+2.09472454090E+007, +4.76333756713E+000, +6.96289456733E+002
+2.11140233723E+007, +5.98294914592E+000, +7.03760627460E+002
+2.12808013356E+007, +6.10003458519E+000, +7.10892093606E+002
+2.14475792988E+007, +8.57302083402E+000, +7.21459862734E+002
+2.16143572621E+007, +9.02167306722E+000, +7.29472373906E+002
+2.17811352254E+007, +6.50933624176E+000, +7.37073537282E+002
+2.19479131886E+007, +8.31742027850E+000, +7.50581066942E+002
+2.21146911519E+007, +1.09033328447E+001, +7.55122901877E+002
+2.22814691152E+007, +6.98145661717E+000, +7.68686312539E+002
+2.24482470785E+007, +1.13366879861E+001, +7.76007784955E+002
+2.26150250417E+007, +1.24067421137E+001, +7.86019598607E+002
+2.27818030050E+007, +1.24165616077E+001, +7.94237089404E+002
+2.29485809683E+007, +1.73983835877E+001, +8.02253927446E+002
+2.31153589316E+007, +1.50630757124E+001, +8.14433030963E+002
+2.32821368948E+007, +1.57975910235E+001, +8.24409228096E+002
+2.34489148581E+007, +1.80576350239E+001, +8.31650603726E+002
+2.36156928214E+007, +1.86819430368E+001, +8.44981438155E+002
+2.37824707846E+007, +1.63354365905E+001, +8.55032898148E+002
+2.39492487479E+007, +1.84670672737E+001, +8.62008145502E+002
+2.41160267112E+007, +2.30837538634E+001, +8.78086686582E+002
+2.42828046745E+007, +1.90437003897E+001, +8.84855045578E+002
+2.44495826377E+007, +2.56983779134E+001, +8.97336189032E+002
+2.46163606010E+007, +2.38251862695E+001, +9.07451602970E+002
+2.47831385643E+007, +2.17197730417E+001, +9.17328811026E+002
+2.49499165275E+007, +3.00085020591E+001, +9.28233770331E+002
+2.51166944908E+007, +2.63458313954E+001, +9.34898922953E+002
+2.52834724541E+007, +2.78675192340E+001, +9.46475571715E+002
+2.54502504174E+007, +3.13033893531E+001, +9.60322044526E+002
+2.56170283806E+007, +2.99213051449E+001, +9.68997073240E+002
+2.57838063439E+007, +3.40239598390E+001, +9.87203041366E+002
+2.59505843072E+007, +3.72258884780E+001, +1.00204845544E+003
+2.61173622705E+007, +3.85691965814E+001, +1.00554627184E+003
+2.62841402337E+007, +3.56620415441E+001, +1.02079967828E+003
+2.64509181970E+007, +3.87382088317E+001, +1.03500573377E+003
+2.66176961603E+007, +3.72561047109E+001, +1.04893302690E+003
+2.67844741235E+007, +3.88079555892E+001, +1.05739447862E+003
+2.69512520868E+007, +4.00156283998E+001, +1.06849826931E+003
+2.71180300501E+007, +4.56256068371E+001, +1.07479934792E+003
+2.72848080134E+007, +4.38225199711E+001, +1.08954601997E+003
+2.74515859766E+007, +4.45504346129E+001, +1.10746974058E+003
+2.76183639399E+007, +4.54188656742E+001, +1.11701029915E+003
+2.77851419032E+007, +4.60636872136E+001, +1.12815952061E+003
+2.79519198664E+007, +4.86120996335E+001, +1.13933677836E+003
+2.81186978297E+007, +5.04643324152E+001, +1.15178690976E+003
+2.82854757930E+007, +5.13242606744E+001, +1.16298757188E+003
+2.84522537563E+007, +4.12595469073E+001, +1.18193968082E+003
+2.86190317195E+007, +4.38869799621E+001, +1.19716620051E+003
+2.87858096828E+007, +5.42079943277E+001, +1.21376685989E+003
+2.89525876461E+007, +5.31571649270E+001, +1.22411465443E+003
+2.91193656093E+007, +4.14166051517E+001, +1.23881862916E+003
+2.92861435726E+007, +4.67203886941E+001, +1.25363192328E+003
+2.94529215359E+007, +5.71388211174E+001, +1.27406956946E+003
+2.96196994992E+007, +6.16491009026E+001, +1.29088403509E+003
+2.97864774624E+007, +6.03017886693E+001, +1.30897021172E+003
+2.99532554257E+007, +6.33620352065E+001, +1.33606581975E+003
+3.01200333890E+007, +5.73640022344E+001, +1.35090224293E+003
+3.02868113523E+007, +5.76905413904E+001, +1.36318290365E+003
+3.04535893155E+007, +5.23998080263E+001, +1.38261147795E+003
+3.06203672788E+007, +5.57762055256E+001, +1.40567174854E+003
+3.07871452421E+007, +5.29508381782E+001, +1.42061758897E+003
+3.09539232053E+007, +6.27694467180E+001, +1.44139980484E+003
+3.11207011686E+007, +5.07273004319E+001, +1.46944378394E+003
+3.12874791319E+007, +5.20222217453E+001, +1.48540523673E+003
+3.14542570952E+007, +6.40449759124E+001, +1.50969425093E+003
+3.16210350584E+007, +5.61685189507E+001, +1.54563990244E+003
+3.17878130217E+007, +5.10886842406E+001, +1.55428531274E+003
+3.19545909850E+007, +6.06179738659E+001, +1.57242325049E+003
+3.21213689482E+007, +4.84448245613E+001, +1.61117399346E+003
+3.22881469115E+007, +5.45490860713E+001, +1.62340775001E+003
+3.24549248748E+007, +5.88921424274E+001, +1.66209381434E+003
+3.26217028381E+007, +5.80159690052E+001, +1.68139084498E+003
+3.27884808013E+007, +5.36707040808E+001, +1.70315651358E+003
+3.29552587646E+007, +5.89128177344E+001, +1.73320419256E+003
+3.31220367279E+007, +7.06441040839E+001, +1.76207233348E+003
+3.32888146912E+007, +6.41432423360E+001, +1.81639395524E+003
+3.34555926544E+007, +5.50493431184E+001, +1.82896406503E+003
+3.36223706177E+007, +7.81027762978E+001, +1.85705326077E+003
+3.37891485810E+007, +7.33673819437E+001, +1.88488391714E+003
+3.39559265442E+007, +6.91652211746E+001, +1.92287750270E+003
+3.41227045075E+007, +7.12432024974E+001, +1.95234965394E+003
+3.42894824708E+007, +6.96779877144E+001, +1.99324548048E+003
+3.44562604341E+007, +6.89049421283E+001, +2.04129874009E+003
+3.46230383973E+007, +9.09096906882E+001, +2.08494587159E+003
+3.47898163606E+007, +8.26819314969E+001, +2.10921643625E+003
+3.49565943239E+007, +1.16383959775E+002, +2.17166874583E+003
+3.51233722871E+007, +8.31758513853E+001, +2.19699562440E+003
+3.52901502504E+007, +8.54072890673E+001, +2.21279719619E+003
+3.54569282137E+007, +1.02525341538E+002, +2.29836528964E+003
+3.56237061770E+007, +8.48834013782E+001, +2.32223670903E+003
+3.57904841402E+007, +8.48639682419E+001, +2.36732285915E+003
+3.59572621035E+007, +1.03512353821E+002, +2.43165028545E+003
+3.61240400668E+007, +1.12002965925E+002, +2.47252371685E+003
+3.62908180301E+007, +1.44195192722E+002, +2.57004638199E+003
+3.64575959933E+007, +1.09538558756E+002, +2.61279814239E+003
+3.66243739566E+007, +1.48306433139E+002, +2.66113286616E+003
+3.67911519199E+007, +1.26488861040E+002, +2.74511332426E+003
+3.69579298831E+007, +1.24510850392E+002, +2.78431449924E+003
+3.71247078464E+007, +1.29293528400E+002, +2.87008673797E+003
+3.72914858097E+007, +1.46494544797E+002, +2.96894849995E+003
+3.74582637730E+007, +1.72205833924E+002, +3.03539563521E+003
+3.76250417362E+007, +2.10440972586E+002, +3.10725169623E+003
+3.77918196995E+007, +1.77662183927E+002, +3.18850639648E+003
+3.79585976628E+007, +1.50839406475E+002, +3.30139902992E+003
+3.81253756260E+007, +2.27837076507E+002, +3.39482320355E+003
+3.82921535893E+007, +2.40529859434E+002, +3.44857957770E+003
+3.84589315526E+007, +2.75872753828E+002, +3.66293598498E+003
+3.86257095159E+007, +2.59573591049E+002, +3.72230620174E+003
+3.87924874791E+007, +2.64447419183E+002, +3.86009478482E+003
+3.89592654424E+007, +2.72617689695E+002, +3.92147474179E+003
+3.91260434057E+007, +3.23452150322E+002, +4.10755317116E+003
+3.92928213689E+007, +2.95144464422E+002, +4.28679120552E+003
+3.94595993322E+007, +2.60570812829E+002, +4.47795586946E+003
+3.96263772955E+007, +2.48280674048E+002, +4.64950348792E+003
+3.97931552588E+007, +3.10097938741E+002, +4.75521560560E+003
+3.99599332220E+007, +4.33647842440E+002, +4.98481067645E+003
+4.01267111853E+007, +5.31333709737E+002, +5.28385506984E+003
+4.02934891486E+007, +5.54454206588E+002, +5.42173354235E+003
+4.04602671119E+007, +5.77315455130E+002, +5.69555624756E+003
+4.06270450751E+007, +7.30327180443E+002, +5.95317744310E+003
+4.07938230384E+007, +8.56306888912E+002, +6.32318303834E+003
+4.09606010017E+007, +9.91493880945E+002, +6.77879418484E+003
+4.11273789649E+007, +1.17375897645E+003, +6.96421073401E+003
+4.12941569282E+007, +1.21242520710E+003, +7.52932823988E+003
+4.14609348915E+007, +1.45761076877E+003, +8.08118916343E+003
+4.16277128548E+007, +1.50620737065E+003, +8.44283582372E+003
+4.17944908180E+007, +1.71655374141E+003, +8.86462918175E+003
+4.19612687813E+007, +2.19734431856E+003, +9.91884384245E+003
+4.21280467446E+007, +2.52851321478E+003, +1.09074703166E+004
+4.22948247078E+007, +3.15347365364E+003, +1.17832376939E+004
+4.24616026711E+007, +4.30681037362E+003, +1.25685613206E+004
+4.26283806344E+007, +5.60367503636E+003, +1.42202459003E+004
+4.27951585977E+007, +5.69363869667E+003, +1.74730683630E+004
+4.29619365609E+007, +1.05012542611E+004, +1.66197843623E+004
+4.31287145242E+007, +1.45517624006E+004, +1.95357708911E+004
+4.32954924875E+007, +1.97314962803E+004, +2.08488432495E+004
+4.34622704508E+007, +2.97981650140E+004, +2.55585062713E+004
+4.36290484140E+007, +3.16982906325E+004, +1.52458356087E+004
+4.37958263773E+007, +4.25359402577E+004, -6.02981944755E+003
+4.39626043406E+007, +4.17831844230E+004, -1.64954372309E+004
+4.41293823038E+007, +2.13084661656E+004, -1.93421303463E+004
+4.42961602671E+007, +1.80610316202E+004, -1.95161678388E+004
+4.44629382304E+007, +1.27245337687E+004, -2.07254953817E+004
+4.46297161937E+007, +9.89885066105E+003, -1.75843010240E+004
+4.47964941569E+007, +7.99136770328E+003, -1.66323021720E+004
+4.49632721202E+007, +4.79064735964E+003, -1.34087540404E+004
+4.51300500835E+007, +4.96932099544E+003, -1.32936087332E+004
+4.52968280467E+007, +4.01778929866E+003, -1.14341462978E+004
+4.54636060100E+007, +2.60341442683E+003, -1.02737647811E+004
+4.56303839733E+007, +2.20270878193E+003, -9.40905623222E+003
+4.57971619366E+007, +2.17016473378E+003, -8.93736830350E+003
+4.59639398998E+007, +1.54547723280E+003, -7.61906240669E+003
+4.61307178631E+007, +1.75055529996E+003, -7.42860177889E+003
+4.62974958264E+007, +1.58428533683E+003, -6.84845098541E+003
+4.64642737896E+007, +1.22275653629E+003, -6.47665027437E+003
+4.66310517529E+007, +1.01754423700E+003, -6.10848725901E+003
+4.67978297162E+007, +1.12627538702E+003, -5.98871262460E+003
+4.69646076795E+007, +9.48243498849E+002, -5.46191542078E+003
+4.71313856427E+007, +9.47657871839E+002, -5.24952043247E+003
+4.72981636060E+007, +7.62329469513E+002, -4.96685799188E+003
+4.74649415693E+007, +7.40766235865E+002, -4.76034970570E+003
+4.76317195326E+007, +8.37766341303E+002, -4.60841674111E+003
+4.77984974958E+007, +7.44303179683E+002, -4.36741590347E+003
+4.79652754591E+007, +6.85766386350E+002, -4.16268439161E+003
+4.81320534224E+007, +7.17298107222E+002, -4.02988934427E+003
+4.82988313856E+007, +6.53010752167E+002, -3.88050345558E+003
+4.84656093489E+007, +6.50220018462E+002, -3.76504813073E+003
+4.86323873122E+007, +6.33518859196E+002, -3.59461666947E+003
+4.87991652755E+007, +5.74704142928E+002, -3.48202845090E+003
+4.89659432387E+007, +5.56257167588E+002, -3.37344086358E+003
+4.91327212020E+007, +5.35021069950E+002, -3.22385120002E+003
+4.92994991653E+007, +5.39520317920E+002, -3.17787468258E+003
+4.94662771285E+007, +5.35708471249E+002, -3.05890115692E+003
+4.96330550918E+007, +5.45948700959E+002, -2.97872863001E+003
+4.97998330551E+007, +5.27700628487E+002, -2.91736876546E+003
+4.99666110184E+007, +5.29611720555E+002, -2.84901096441E+003
+5.01333889816E+007, +4.96381618512E+002, -2.77219679451E+003
+5.03001669449E+007, +4.74153823343E+002, -2.69652215459E+003
+5.04669449082E+007, +4.55547155920E+002, -2.61500628506E+003
+5.06337228715E+007, +4.56189598381E+002, -2.56312642875E+003
+5.08005008347E+007, +4.24626328794E+002, -2.53553434795E+003
+5.09672787980E+007, +4.43610844821E+002, -2.46952584028E+003
+5.11340567613E+007, +4.13805944025E+002, -2.39466400824E+003
+5.13008347245E+007, +3.72623991386E+002, -2.34455626880E+003
+5.14676126878E+007, +3.79793907976E+002, -2.30710646390E+003
+5.16343906511E+007, +3.62075392294E+002, -2.23606466646E+003
+5.18011686144E+007, +3.31458300672E+002, -2.17338965583E+003
+5.19679465776E+007, +3.24540016529E+002, -2.14568746573E+003
+5.21347245409E+007, +3.09386141308E+002, -2.07760587847E+003
+5.23015025042E+007, +3.11617017106E+002, -2.02466231771E+003
+5.24682804674E+007, +2.88846969413E+002, -1.99667676011E+003
+5.26350584307E+007, +2.89847991768E+002, -1.94606402718E+003
+5.28018363940E+007, +2.66102720570E+002, -1.90818332500E+003
+5.29686143573E+007, +2.62996817102E+002, -1.86035162993E+003
+5.31353923205E+007, +2.69142105010E+002, -1.83488624055E+003
+5.33021702838E+007, +2.53541768283E+002, -1.79189909188E+003
+5.34689482471E+007, +2.51045672729E+002, -1.75054476164E+003
