"# Channel 1"
"# Trace 1"
Frequency, Formatted Data, Formatted Data
+1.00000000000E+005, +7.11157210522E-001, +3.19807345160E+000
+2.87609511890E+005, +6.33249151941E-001, +8.69419470541E+000
+4.75219023780E+005, +7.74267166660E-001, +1.43239867963E+001
+6.62828535670E+005, +7.65594611652E-001, +1.99725983320E+001
+8.50438047559E+005, +8.05820619334E-001, +2.55556139938E+001
+1.03804755945E+006, +9.01504873492E-001, +3.11251121811E+001
+1.22565707134E+006, +9.40915430401E-001, +3.66982262136E+001
+1.41326658323E+006, +1.00774523078E+000, +4.22655523313E+001
+1.60087609512E+006, +1.03735821743E+000, +4.78795676305E+001
+1.78848560701E+006, +1.11741372336E+000, +5.34626728797E+001
+1.97609511890E+006, +1.08883672651E+000, +5.89986230898E+001
+2.16370463079E+006, +1.26391165437E+000, +6.46971652577E+001
+2.35131414268E+006, +1.19134791999E+000, +7.00696827371E+001
+2.53892365457E+006, +1.24837583737E+000, +7.57803638605E+001
+2.72653316646E+006, +1.28720527477E+000, +8.13527459382E+001
+2.91414267835E+006, +1.30233194546E+000, +8.67926298502E+001
+3.10175219024E+006, +1.46072879260E+000, +9.24116543944E+001
+3.28936170213E+006, +1.38048105454E+000, +9.80561986310E+001
+3.47697121402E+006, +1.48506546706E+000, +1.03685373352E+002
+3.66458072591E+006, +1.49811514411E+000, +1.09288674917E+002
+3.85219023780E+006, +1.65970626338E+000, +1.14809911936E+002
+4.03979974969E+006, +1.59642150190E+000, +1.20246017535E+002
+4.22740926158E+006, +1.58552421691E+000, +1.25979408849E+002
+4.41501877347E+006, +1.82811969043E+000, +1.31641490008E+002
+4.60262828536E+006, +1.72106835414E+000, +1.37221988762E+002
+4.79023779725E+006, +1.80312469446E+000, +1.42971344193E+002
+4.97784730914E+006, +1.85388349542E+000, +1.48537491348E+002
+5.16545682103E+006, +2.00796266503E+000, +1.53996138209E+002
+5.35306633292E+006, +2.23216016304E+000, +1.59703921384E+002
+5.54067584481E+006, +1.97549921905E+000, +1.65158113600E+002
+5.72828535670E+006, +2.22948864160E+000, +1.70806607558E+002
+5.91589486859E+006, +2.33405068879E+000, +1.76434670756E+002
+6.10350438048E+006, +2.15829610823E+000, +1.82073035365E+002
+6.29111389237E+006, +2.50123301781E+000, +1.87789506473E+002
+6.47872340426E+006, +2.58117980016E+000, +1.93505046218E+002
+6.66633291615E+006, +2.67930743323E+000, +1.99246178852E+002
+6.85394242804E+006, +2.94539676139E+000, +2.04809022697E+002
+7.04155193992E+006, +2.84031751851E+000, +2.10618844023E+002
+7.22916145181E+006, +2.99424588271E+000, +2.16268115113E+002
+7.41677096370E+006, +3.20655922406E+000, +2.21894720515E+002
+7.60438047559E+006, +3.19424288777E+000, +2.27540161987E+002
+7.79198998748E+006, +3.29320628988E+000, +2.33284914967E+002
+7.97959949937E+006, +3.40491715466E+000, +2.38994374667E+002
+8.16720901126E+006, +3.36801302996E+000, +2.44659640923E+002
+8.35481852315E+006, +3.53033947568E+000, +2.50438916396E+002
+8.54242803504E+006, +3.50647001792E+000, +2.56330584850E+002
+8.73003754693E+006, +3.77836397351E+000, +2.61925120543E+002
+8.91764705882E+006, +3.82849719766E+000, +2.67811003522E+002
+9.10525657071E+006, +3.98022240640E+000, +2.73602820899E+002
+9.29286608260E+006, +4.40980560770E+000, +2.79214439275E+002
+9.48047559449E+006, +4.27867206365E+000, +2.85198414705E+002
+9.66808510638E+006, +4.48622706844E+000, +2.90852605907E+002
+9.85569461827E+006, +4.59642355554E+000, +2.96588455964E+002
+1.00433041302E+007, +4.49545183222E+000, +3.02494882277E+002
+1.02309136421E+007, +4.58364781198E+000, +3.08119254968E+002
+1.04185231539E+007, +4.63054630045E+000, +3.13738225880E+002
+1.06061326658E+007, +4.90046853641E+000, +3.19728908160E+002
+1.07937421777E+007, +4.80061006923E+000, +3.25846933917E+002
+1.09813516896E+007, +5.18008219909E+000, +3.31735295914E+002
+1.11689612015E+007, +5.53960161877E+000, +3.37309226812E+002
+1.13565707134E+007, +5.10543094434E+000, +3.43475842571E+002
+1.15441802253E+007, +5.35089472045E+000, +3.49342256163E+002
+1.17317897372E+007, +5.33635156555E+000, +3.54770788098E+002
+1.19193992491E+007, +5.80229243764E+000, +3.61053980366E+002
+1.21070087610E+007, +5.75617568325E+000, +3.66621286968E+002
+1.22946182728E+007, +6.12596995905E+000, +3.72597440139E+002
+1.24822277847E+007, +5.80127190524E+000, +3.79105909775E+002
+1.26698372966E+007, +6.44920465855E+000, +3.84893998587E+002
+1.28574468085E+007, +6.14357911001E+000, +3.90905517540E+002
+1.30450563204E+007, +6.34764834091E+000, +3.96940392070E+002
+1.32326658323E+007, +6.69720469792E+000, +4.02539176923E+002
+1.34202753442E+007, +6.79735706757E+000, +4.08702334352E+002
+1.36078848561E+007, +7.28613541567E+000, +4.14860351884E+002
+1.37954943680E+007, +7.18700510136E+000, +4.20737359941E+002
+1.39831038798E+007, +7.14485891315E+000, +4.27144803524E+002
+1.41707133917E+007, +7.15336184509E+000, +4.33009989711E+002
+1.43583229036E+007, +7.24152967386E+000, +4.39020968322E+002
+1.45459324155E+007, +7.61281158433E+000, +4.45056413098E+002
+1.47335419274E+007, +7.88472563661E+000, +4.51377707239E+002
+1.49211514393E+007, +7.90161359308E+000, +4.57410415791E+002
+1.51087609512E+007, +7.64124137146E+000, +4.63188501890E+002
+1.52963704631E+007, +8.45545317102E+000, +4.69576603187E+002
+1.54839799750E+007, +8.17152394078E+000, +4.75825990359E+002
+1.56715894869E+007, +8.52766986632E+000, +4.82256251691E+002
+1.58591989987E+007, +8.78949795084E+000, +4.88134801164E+002
+1.60468085106E+007, +8.49235066413E+000, +4.94707552604E+002
+1.62344180225E+007, +9.06201411422E+000, +5.00602517875E+002
+1.64220275344E+007, +9.53691166939E+000, +5.06796980622E+002
+1.66096370463E+007, +9.40997177506E+000, +5.13421236264E+002
+1.67972465582E+007, +9.83142203523E+000, +5.19866860148E+002
+1.69848560701E+007, +9.64216098289E+000, +5.25622852780E+002
+1.71724655820E+007, +8.71255041124E+000, +5.32051437428E+002
+1.73600750939E+007, +9.56060211835E+000, +5.39222973009E+002
+1.75476846058E+007, +9.69403192990E+000, +5.45283249206E+002
+1.77352941176E+007, +1.03854412373E+001, +5.51710716941E+002
+1.79229036295E+007, +1.08254662100E+001, +5.58351256854E+002
+1.81105131414E+007, +1.06035152215E+001, +5.64602160596E+002
+1.82981226533E+007, +1.03752335008E+001, +5.70945874010E+002
+1.84857321652E+007, +1.16831447139E+001, +5.77224570620E+002
+1.86733416771E+007, +1.12972950104E+001, +5.84392971920E+002
+1.88609511890E+007, +1.14364123904E+001, +5.90410597889E+002
+1.90485607009E+007, +1.21430044436E+001, +5.96852959065E+002
+1.92361702128E+007, +1.24093216460E+001, +6.04198085429E+002
+1.94237797247E+007, +1.26723089762E+001, +6.09672086328E+002
+1.96113892365E+007, +1.26557474673E+001, +6.17038212025E+002
+1.97989987484E+007, +1.34807787439E+001, +6.23733683875E+002
+1.99866082603E+007, +1.26527038596E+001, +6.29345657638E+002
+2.01742177722E+007, +1.30721823692E+001, +6.37294673751E+002
+2.03618272841E+007, +1.42512034859E+001, +6.43488917852E+002
+2.05494367960E+007, +1.40436673795E+001, +6.49709918346E+002
+2.07370463079E+007, +1.43113895150E+001, +6.56756235707E+002
+2.09246558198E+007, +1.48677021749E+001, +6.64316880040E+002
+2.11122653317E+007, +1.46162174466E+001, +6.70460077045E+002
+2.12998748436E+007, +1.41921348758E+001, +6.77149810818E+002
+2.14874843554E+007, +1.53708843385E+001, +6.83985324875E+002
+2.16750938673E+007, +1.48733584059E+001, +6.91000997036E+002
+2.18627033792E+007, +1.57669187537E+001, +6.98321464782E+002
+2.20503128911E+007, +1.58328308597E+001, +7.03906707221E+002
+2.22379224030E+007, +1.66046124648E+001, +7.11358972684E+002
+2.24255319149E+007, +1.73447286549E+001, +7.18788162223E+002
+2.26131414268E+007, +1.68901697427E+001, +7.24724512517E+002
+2.28007509387E+007, +1.71744464869E+001, +7.32483608859E+002
+2.29883604506E+007, +1.80570112267E+001, +7.38990801447E+002
+2.31759699625E+007, +1.76132806805E+001, +7.46841754039E+002
+2.33635794743E+007, +1.87589599059E+001, +7.53898885470E+002
+2.35511889862E+007, +1.92490196480E+001, +7.60636926315E+002
+2.37387984981E+007, +1.98003538449E+001, +7.68008482103E+002
+2.39264080100E+007, +1.95022205860E+001, +7.75051616489E+002
+2.41140175219E+007, +2.03061779062E+001, +7.82787959406E+002
+2.43016270338E+007, +1.91484687597E+001, +7.89976914299E+002
+2.44892365457E+007, +2.10672699422E+001, +7.96750394654E+002
+2.46768460576E+007, +2.02149290451E+001, +8.03796884976E+002
+2.48644555695E+007, +2.13962723150E+001, +8.10585160160E+002
+2.50520650814E+007, +2.21088332777E+001, +8.20129402186E+002
+2.52396745932E+007, +2.16992652180E+001, +8.26011150775E+002
+2.54272841051E+007, +2.29504980020E+001, +8.33897391460E+002
+2.56148936170E+007, +2.20734289336E+001, +8.40538162327E+002
+2.58025031289E+007, +2.47027831597E+001, +8.48643843275E+002
+2.59901126408E+007, +2.42616157616E+001, +8.56323439285E+002
+2.61777221527E+007, +2.50918636931E+001, +8.64221004228E+002
+2.63653316646E+007, +2.45346351366E+001, +8.72345518520E+002
+2.65529411765E+007, +2.53435653536E+001, +8.80664349294E+002
+2.67405506884E+007, +2.54655199845E+001, +8.86285312216E+002
+2.69281602003E+007, +2.50826765173E+001, +8.95296348935E+002
+2.71157697121E+007, +2.69170811115E+001, +9.04135346818E+002
+2.73033792240E+007, +2.65690685540E+001, +9.09451484856E+002
+2.74909887359E+007, +2.64258897147E+001, +9.19320292783E+002
+2.76785982478E+007, +2.72626816376E+001, +9.25209966307E+002
+2.78662077597E+007, +2.65701594180E+001, +9.34962378516E+002
+2.80538172716E+007, +2.90056314790E+001, +9.42027845853E+002
+2.82414267835E+007, +2.92322147411E+001, +9.50389529232E+002
+2.84290362954E+007, +2.84637183599E+001, +9.58161439724E+002
+2.86166458073E+007, +3.03474027182E+001, +9.64479644657E+002
+2.88042553191E+007, +3.00762502861E+001, +9.72507255194E+002
+2.89918648310E+007, +3.11467467270E+001, +9.81883832683E+002
+2.91794743429E+007, +3.04371461366E+001, +9.90709579955E+002
+2.93670838548E+007, +3.21129477416E+001, +1.00043207469E+003
+2.95546933667E+007, +3.05351953085E+001, +1.00698478634E+003
+2.97423028786E+007, +3.16250358930E+001, +1.01468969025E+003
+2.99299123905E+007, +3.24301673568E+001, +1.02402979001E+003
+3.01175219024E+007, +3.25497001355E+001, +1.03202570171E+003
+3.03051314143E+007, +3.42892457761E+001, +1.04173856169E+003
+3.04927409262E+007, +3.31034147256E+001, +1.04959232581E+003
+3.06803504380E+007, +3.62528662579E+001, +1.05740467944E+003
+3.08679599499E+007, +3.39523245222E+001, +1.06596619248E+003
+3.10555694618E+007, +3.60164453508E+001, +1.07345837387E+003
+3.12431789737E+007, +3.44173833622E+001, +1.08699615699E+003
+3.14307884856E+007, +3.79631885216E+001, +1.09158416749E+003
+3.16183979975E+007, +3.66478040684E+001, +1.10165697609E+003
+3.18060075094E+007, +3.83101765267E+001, +1.10996807778E+003
+3.19936170213E+007, +3.78917238899E+001, +1.12325984282E+003
+3.21812265332E+007, +3.89879001389E+001, +1.12803490191E+003
+3.23688360451E+007, +4.14702093630E+001, +1.13656818130E+003
+3.25564455569E+007, +4.03912407050E+001, +1.14634104212E+003
+3.27440550688E+007, +4.23336109714E+001, +1.15617851347E+003
+3.29316645807E+007, +4.00782828856E+001, +1.16402996386E+003
+3.31192740926E+007, +3.95140760985E+001, +1.17421205472E+003
+3.33068836045E+007, +4.09023684560E+001, +1.18154100167E+003
+3.34944931164E+007, +4.23581028471E+001, +1.19469395150E+003
+3.36821026283E+007, +4.10280342888E+001, +1.20121340149E+003
+3.38697121402E+007, +4.32549298598E+001, +1.21170232379E+003
+3.40573216521E+007, +4.26530263898E+001, +1.22402929238E+003
+3.42449311640E+007, +4.44470271167E+001, +1.23254369937E+003
+3.44325406758E+007, +4.33909296183E+001, +1.24144557832E+003
+3.46201501877E+007, +4.68291431452E+001, +1.25259205225E+003
+3.48077596996E+007, +4.62754572699E+001, +1.26256413177E+003
+3.49953692115E+007, +4.52749872062E+001, +1.27200019767E+003
+3.51829787234E+007, +4.72720578511E+001, +1.28078045215E+003
+3.53705882353E+007, +4.75461980126E+001, +1.29029354699E+003
+3.55581977472E+007, +5.04991396551E+001, +1.30254687727E+003
+3.57458072591E+007, +4.84576642914E+001, +1.31358841934E+003
+3.59334167710E+007, +5.14756112048E+001, +1.32077586321E+003
+3.61210262829E+007, +5.26439497990E+001, +1.33036981343E+003
+3.63086357947E+007, +5.01667849573E+001, +1.34343447036E+003
+3.64962453066E+007, +5.68852964651E+001, +1.35386571267E+003
+3.66838548185E+007, +5.38248789188E+001, +1.36190957309E+003
+3.68714643304E+007, +5.47658980650E+001, +1.37524086978E+003
+3.70590738423E+007, +5.36840694217E+001, +1.38583242518E+003
+3.72466833542E+007, +5.53331946283E+001, +1.39708026787E+003
+3.74342928661E+007, +5.53519698177E+001, +1.40443024188E+003
+3.76219023780E+007, +5.72691520814E+001, +1.41805862159E+003
+3.78095118899E+007, +6.11530324966E+001, +1.42813106882E+003
+3.79971214018E+007, +5.99381195126E+001, +1.43750349502E+003
+3.81847309136E+007, +6.06234201499E+001, +1.45210869731E+003
+3.83723404255E+007, +6.22253654239E+001, +1.46210045210E+003
+3.85599499374E+007, +6.05006444786E+001, +1.47070497567E+003
+3.87475594493E+007, +6.51738812230E+001, +1.48565506325E+003
+3.89351689612E+007, +6.40460775539E+001, +1.49523829885E+003
+3.91227784731E+007, +6.24778043814E+001, +1.50382614430E+003
+3.93103879850E+007, +6.73886276253E+001, +1.51346212754E+003
+3.94979974969E+007, +6.68509706948E+001, +1.52987055677E+003
+3.96856070088E+007, +6.84759160722E+001, +1.54548595384E+003
+3.98732165207E+007, +6.81152822948E+001, +1.55857935401E+003
+4.00608260325E+007, +6.68691032681E+001, +1.56866556329E+003
+4.02484355444E+007, +7.09771892697E+001, +1.58151201522E+003
+4.04360450563E+007, +6.98591075163E+001, +1.59065839956E+003
+4.06236545682E+007, +7.05142441986E+001, +1.61072471119E+003
+4.08112640801E+007, +7.43825207846E+001, +1.62194609021E+003
+4.09988735920E+007, +7.24955889594E+001, +1.63250909062E+003
+4.11864831039E+007, +7.99729273389E+001, +1.64207197957E+003
+4.13740926158E+007, +7.35873354366E+001, +1.65558761480E+003
+4.15617021277E+007, +7.59723634631E+001, +1.67221280423E+003
+4.17493116395E+007, +7.46597756542E+001, +1.68697605843E+003
+4.19369211514E+007, +8.02741213569E+001, +1.69944730097E+003
+4.21245306633E+007, +8.16356871514E+001, +1.70931769265E+003
+4.23121401752E+007, +8.03342149246E+001, +1.72515298568E+003
+4.24997496871E+007, +8.43589635716E+001, +1.73552131147E+003
+4.26873591990E+007, +8.32012681819E+001, +1.74836641943E+003
+4.28749687109E+007, +8.68389570234E+001, +1.76666365983E+003
+4.30625782228E+007, +8.57965270313E+001, +1.77939276219E+003
+4.32501877347E+007, +8.25906259198E+001, +1.78942768965E+003
+4.34377972466E+007, +9.19285732734E+001, +1.81253385935E+003
+4.36254067584E+007, +9.34882101983E+001, +1.81781383211E+003
+4.38130162703E+007, +9.00563538514E+001, +1.83716840272E+003
+4.40006257822E+007, +9.01009715908E+001, +1.85044937586E+003
+4.41882352941E+007, +9.76420594062E+001, +1.86620161685E+003
+4.43758448060E+007, +9.49464909675E+001, +1.87912621886E+003
+4.45634543179E+007, +9.86741570968E+001, +1.89857264663E+003
+4.47510638298E+007, +9.32877647830E+001, +1.91021586037E+003
+4.49386733417E+007, +9.99219733880E+001, +1.92791708142E+003
+4.51262828536E+007, +9.75127378823E+001, +1.94294476477E+003
+4.53138923655E+007, +9.26826818533E+001, +1.96251175005E+003
+4.55015018773E+007, +9.74191168464E+001, +1.96994200971E+003
+4.56891113892E+007, +1.04442589682E+002, +1.98798759306E+003
+4.58767209011E+007, +1.01447582838E+002, +1.99656372618E+003
+4.60643304130E+007, +9.84431264236E+001, +2.01848220430E+003
+4.62519399249E+007, +1.08356427987E+002, +2.04027987286E+003
+4.64395494368E+007, +1.09392808459E+002, +2.05676763439E+003
+4.66271589487E+007, +1.09538522033E+002, +2.07468387560E+003
+4.68147684606E+007, +1.08573566437E+002, +2.09628108480E+003
+4.70023779725E+007, +1.21113474398E+002, +2.10927691554E+003
+4.71899874844E+007, +1.15780793598E+002, +2.12033327387E+003
+4.73775969962E+007, +1.17888784546E+002, +2.14249102037E+003
+4.75652065081E+007, +1.23381964093E+002, +2.16032099423E+003
+4.77528160200E+007, +1.11765378368E+002, +2.17846679648E+003
+4.79404255319E+007, +1.27274800487E+002, +2.19661851509E+003
+4.81280350438E+007, +1.27964706761E+002, +2.22082278048E+003
+4.83156445557E+007, +1.28461134673E+002, +2.23217875980E+003
+4.85032540676E+007, +1.24022988598E+002, +2.25578595578E+003
+4.86908635795E+007, +1.33073435306E+002, +2.27142453459E+003
+4.88784730914E+007, +1.29826420384E+002, +2.29227739671E+003
+4.90660826033E+007, +1.37753088170E+002, +2.31176121360E+003
+4.92536921151E+007, +1.37771709146E+002, +2.32980539859E+003
+4.94413016270E+007, +1.44525547345E+002, +2.35061083137E+003
+4.96289111389E+007, +1.47430080203E+002, +2.37839770664E+003
+4.98165206508E+007, +1.52787732609E+002, +2.40025897854E+003
+5.00041301627E+007, +1.53394310340E+002, +2.41287834823E+003
+5.01917396746E+007, +1.60363789039E+002, +2.43763712205E+003
+5.03793491865E+007, +1.57802578231E+002, +2.45923838900E+003
+5.05669586984E+007, +1.58809461995E+002, +2.48329348333E+003
+5.07545682103E+007, +1.56804148344E+002, +2.50816543467E+003
+5.09421777222E+007, +1.65447371368E+002, +2.52252805500E+003
+5.11297872340E+007, +1.75077283939E+002, +2.55017947251E+003
+5.13173967459E+007, +1.85926749274E+002, +2.57153590525E+003
+5.15050062578E+007, +1.82049401106E+002, +2.59587494247E+003
+5.16926157697E+007, +1.79086983529E+002, +2.62005825080E+003
+5.18802252816E+007, +1.81330330180E+002, +2.64643785316E+003
+5.20678347935E+007, +1.85806847696E+002, +2.65731583470E+003
+5.22554443054E+007, +2.01640780542E+002, +2.69085656945E+003
+5.24430538173E+007, +1.85151025852E+002, +2.72181689841E+003
+5.26306633292E+007, +2.00512302709E+002, +2.73740835818E+003
+5.28182728411E+007, +2.03051472631E+002, +2.76946262753E+003
+5.30058823529E+007, +2.07531236180E+002, +2.80207435600E+003
+5.31934918648E+007, +2.03647725054E+002, +2.83602223114E+003
+5.33811013767E+007, +2.18306651275E+002, +2.85560043061E+003
+5.35687108886E+007, +2.09386273454E+002, +2.89022711831E+003
+5.37563204005E+007, +2.41253469251E+002, +2.91278847987E+003
+5.39439299124E+007, +2.17356284709E+002, +2.94845081813E+003
+5.41315394243E+007, +2.08258027067E+002, +2.97625371435E+003
+5.43191489362E+007, +2.47952381011E+002, +3.00885672893E+003
+5.45067584481E+007, +2.29680763353E+002, +3.02215109958E+003
+5.46943679599E+007, +2.39023734961E+002, +3.05465980869E+003
+5.48819774718E+007, +2.48583857443E+002, +3.06718842209E+003
+5.50695869837E+007, +2.62678760293E+002, +3.12110889354E+003
+5.52571964956E+007, +2.60132086387E+002, +3.14936363908E+003
+5.54448060075E+007, +2.62747933954E+002, +3.18908732492E+003
+5.56324155194E+007, +2.67061730364E+002, +3.23314532263E+003
+5.58200250313E+007, +2.79113685972E+002, +3.24413991951E+003
+5.60076345432E+007, +2.81915931197E+002, +3.28106147537E+003
+5.61952440551E+007, +2.89880925878E+002, +3.32841746829E+003
+5.63828535670E+007, +2.92295956911E+002, +3.33981024699E+003
+5.65704630788E+007, +2.90894639967E+002, +3.39886045692E+003
+5.67580725907E+007, +3.17834611878E+002, +3.43068568171E+003
+5.69456821026E+007, +3.14967853292E+002, +3.45721503935E+003
+5.71332916145E+007, +3.25680888186E+002, +3.50120568648E+003
+5.73209011264E+007, +3.20745602912E+002, +3.52225539029E+003
+5.75085106383E+007, +3.20194407116E+002, +3.59443498249E+003
+5.76961201502E+007, +3.37557436366E+002, +3.61059957973E+003
+5.78837296621E+007, +3.55819823056E+002, +3.66120268343E+003
+5.80713391740E+007, +3.55780138638E+002, +3.67691554315E+003
+5.82589486859E+007, +3.51738423442E+002, +3.75464254437E+003
+5.84465581977E+007, +3.78235591067E+002, +3.79317250734E+003
+5.86341677096E+007, +3.74171888469E+002, +3.84287984136E+003
+5.88217772215E+007, +3.94927679421E+002, +3.88569279184E+003
+5.90093867334E+007, +3.91607364337E+002, +3.92761019074E+003
+5.91969962453E+007, +3.95378052402E+002, +3.96131178950E+003
+5.93846057572E+007, +4.11356858436E+002, +4.02452278685E+003
+5.95722152691E+007, +4.45025028333E+002, +4.07106999782E+003
+5.97598247810E+007, +4.49347493515E+002, +4.14408771101E+003
+5.99474342929E+007, +4.70752963138E+002, +4.17183739704E+003
+6.01350438048E+007, +4.53239568647E+002, +4.24119256125E+003
