"# Channel 1"
"# Trace 1"
Frequency, Formatted Data, Formatted Data
+1.00000000000E+005, +1.26930573325E+001, +2.81032041000E+000
+2.66777963272E+005, +1.26730922198E+001, +7.50448690291E+000
+4.33555926544E+005, +1.26861189305E+001, +1.22163074661E+001
+6.00333889816E+005, +1.27039870440E+001, +1.68569390745E+001
+7.67111853088E+005, +1.27634560879E+001, +2.15674428291E+001
+9.33889816361E+005, +1.27599446440E+001, +2.61822614221E+001
+1.10066777963E+006, +1.27090378603E+001, +3.09551419971E+001
+1.26744574290E+006, +1.27742418731E+001, +3.55720226347E+001
+1.43422370618E+006, +1.27110125863E+001, +4.03767546621E+001
+1.60100166945E+006, +1.27665139055E+001, +4.49282680031E+001
+1.76777963272E+006, +1.27756628303E+001, +4.96440783003E+001
+1.93455759599E+006, +1.27532059677E+001, +5.42187554865E+001
+2.10133555927E+006, +1.27575407992E+001, +5.89054484784E+001
+2.26811352254E+006, +1.28309761235E+001, +6.36217971397E+001
+2.43489148581E+006, +1.28291259214E+001, +6.84760309759E+001
+2.60166944908E+006, +1.28228769972E+001, +7.30347575222E+001
+2.76844741235E+006, +1.28253734392E+001, +7.79244089190E+001
+2.93522537563E+006, +1.28080812996E+001, +8.25996680319E+001
+3.10200333890E+006, +1.29666453873E+001, +8.71392212856E+001
+3.26878130217E+006, +1.27701870629E+001, +9.20678589701E+001
+3.43555926544E+006, +1.29569135087E+001, +9.67141776731E+001
+3.60233722871E+006, +1.30829822344E+001, +1.01541498501E+002
+3.76911519199E+006, +1.32110611948E+001, +1.06481950934E+002
+3.93589315526E+006, +1.31495574364E+001, +1.10913975851E+002
+4.10267111853E+006, +1.23041500090E+001, +1.15043674696E+002
+4.26944908180E+006, +1.29073367636E+001, +1.21429674129E+002
+4.43622704508E+006, +1.31228459210E+001, +1.25524696991E+002
+4.60300500835E+006, +1.33858171263E+001, +1.30638432363E+002
+4.76978297162E+006, +1.30725693995E+001, +1.35123221714E+002
+4.93656093489E+006, +1.35184258381E+001, +1.40169606626E+002
+5.10333889816E+006, +1.35172570849E+001, +1.44621514789E+002
+5.27011686144E+006, +1.36927943902E+001, +1.49819746017E+002
+5.43689482471E+006, +1.35291408375E+001, +1.54506933737E+002
+5.60367278798E+006, +1.38090296313E+001, +1.59807065885E+002
+5.77045075125E+006, +1.38259023814E+001, +1.64463176527E+002
+5.93722871452E+006, +1.40240896246E+001, +1.69000690305E+002
+6.10400667780E+006, +1.41722524474E+001, +1.74084403360E+002
+6.27078464107E+006, +1.47645938774E+001, +1.78928577428E+002
+6.43756260434E+006, +1.46839929590E+001, +1.83829181270E+002
+6.60434056761E+006, +1.48566755951E+001, +1.88662024352E+002
+6.77111853088E+006, +1.52386034475E+001, +1.93648054487E+002
+6.93789649416E+006, +1.52231014640E+001, +1.98578766696E+002
+7.10467445743E+006, +1.50300436234E+001, +2.03420450787E+002
+7.27145242070E+006, +1.51766365680E+001, +2.08037558842E+002
+7.43823038397E+006, +1.52666553071E+001, +2.12868336997E+002
+7.60500834725E+006, +1.53001392864E+001, +2.18044575293E+002
+7.77178631052E+006, +1.54747507874E+001, +2.23412670275E+002
+7.93856427379E+006, +1.55168695102E+001, +2.27960680341E+002
+8.10534223706E+006, +1.53512885244E+001, +2.33159656804E+002
+8.27212020033E+006, +1.55735951866E+001, +2.38119141407E+002
+8.43889816361E+006, +1.54112314678E+001, +2.43644637024E+002
+8.60567612688E+006, +1.52204683012E+001, +2.48915385474E+002
+8.77245409015E+006, +1.53073642425E+001, +2.53424910298E+002
+8.93923205342E+006, +1.55795288489E+001, +2.59072621559E+002
+9.10601001669E+006, +1.53364695576E+001, +2.64375791146E+002
+9.27278797997E+006, +1.57053748907E+001, +2.69117469430E+002
+9.43956594324E+006, +1.53412798542E+001, +2.74447310296E+002
+9.60634390651E+006, +1.55127584205E+001, +2.80143637222E+002
+9.77312186978E+006, +1.55533655925E+001, +2.85443087291E+002
+9.93989983306E+006, +1.57892570740E+001, +2.90758248824E+002
+1.01066777963E+007, +1.54228100310E+001, +2.95950288386E+002
+1.02734557596E+007, +1.55268015761E+001, +3.01958743084E+002
+1.04402337229E+007, +1.50544321077E+001, +3.07122916203E+002
+1.06070116861E+007, +1.56660853140E+001, +3.12648926424E+002
+1.07737896494E+007, +1.58198040890E+001, +3.18388270800E+002
+1.09405676127E+007, +1.61963826700E+001, +3.24028434691E+002
+1.11073455760E+007, +1.63885520606E+001, +3.29136775085E+002
+1.12741235392E+007, +1.63904231039E+001, +3.35241852084E+002
+1.14409015025E+007, +1.67846975838E+001, +3.40439232460E+002
+1.16076794658E+007, +1.63460256900E+001, +3.46877445069E+002
+1.17744574290E+007, +1.65061451500E+001, +3.52216701216E+002
+1.19412353923E+007, +1.68746719989E+001, +3.57819474283E+002
+1.21080133556E+007, +1.61488240865E+001, +3.64245769939E+002
+1.22747913189E+007, +1.71669888517E+001, +3.69768472538E+002
+1.24415692821E+007, +1.62015186242E+001, +3.75585164940E+002
+1.26083472454E+007, +1.66169100278E+001, +3.81081304707E+002
+1.27751252087E+007, +1.74616020842E+001, +3.86623906882E+002
+1.29419031720E+007, +1.67427289083E+001, +3.93397728645E+002
+1.31086811352E+007, +1.78101898666E+001, +3.98973445543E+002
+1.32754590985E+007, +1.76749106810E+001, +4.04762445238E+002
+1.34422370618E+007, +1.75447707001E+001, +4.11538683865E+002
+1.36090150250E+007, +1.86108737002E+001, +4.16867985813E+002
+1.37757929883E+007, +1.76233208319E+001, +4.23242218969E+002
+1.39425709516E+007, +1.85234672123E+001, +4.29757293595E+002
+1.41093489149E+007, +1.88133462212E+001, +4.35520135921E+002
+1.42761268781E+007, +1.97702848497E+001, +4.42315882472E+002
+1.44429048414E+007, +1.96533381919E+001, +4.47842030675E+002
+1.46096828047E+007, +1.92676641755E+001, +4.54867276301E+002
+1.47764607679E+007, +1.96857558137E+001, +4.61341833558E+002
+1.49432387312E+007, +1.86773679703E+001, +4.68311689021E+002
+1.51100166945E+007, +1.95417609498E+001, +4.74623781858E+002
+1.52767946578E+007, +2.08780948187E+001, +4.80018334972E+002
+1.54435726210E+007, +1.96381628297E+001, +4.87286747531E+002
+1.56103505843E+007, +2.01986634981E+001, +4.94357931726E+002
+1.57771285476E+007, +2.01846375063E+001, +4.98698286405E+002
+1.59439065109E+007, +2.05872725187E+001, +5.06548836040E+002
+1.61106844741E+007, +2.15237060642E+001, +5.14022089435E+002
+1.62774624374E+007, +2.14341924301E+001, +5.20687254251E+002
+1.64442404007E+007, +2.06876538217E+001, +5.26298308127E+002
+1.66110183639E+007, +2.16114267764E+001, +5.34095973287E+002
+1.67777963272E+007, +2.23717026237E+001, +5.42644399706E+002
+1.69445742905E+007, +2.30348007962E+001, +5.49145430070E+002
+1.71113522538E+007, +1.95568603791E+001, +5.54980077132E+002
+1.72781302170E+007, +2.34589761259E+001, +5.64097281859E+002
+1.74449081803E+007, +2.15252434728E+001, +5.70732333553E+002
+1.76116861436E+007, +2.23270733058E+001, +5.79733190404E+002
+1.77784641068E+007, +2.41508842315E+001, +5.84607480379E+002
+1.79452420701E+007, +2.52648242209E+001, +5.93761346927E+002
+1.81120200334E+007, +2.57099084634E+001, +5.99050183632E+002
+1.82787979967E+007, +2.64694110000E+001, +6.09165233456E+002
+1.84455759599E+007, +2.65279068574E+001, +6.17093482071E+002
+1.86123539232E+007, +2.73014913104E+001, +6.24473689909E+002
+1.87791318865E+007, +2.53285719047E+001, +6.31468710266E+002
+1.89459098497E+007, +2.62335959640E+001, +6.38925146903E+002
+1.91126878130E+007, +2.77753238518E+001, +6.44789572602E+002
+1.92794657763E+007, +2.70630444584E+001, +6.56681638728E+002
+1.94462437396E+007, +2.85872367501E+001, +6.64504174678E+002
+1.96130217028E+007, +2.86371680395E+001, +6.73790095870E+002
+1.97797996661E+007, +2.98735538576E+001, +6.79455720012E+002
+1.99465776294E+007, +2.93346559115E+001, +6.86849267166E+002
+2.01133555927E+007, +2.98035903402E+001, +6.98238624534E+002
+2.02801335559E+007, +3.08731958242E+001, +7.09386633783E+002
+2.04469115192E+007, +3.11379364656E+001, +7.18598658603E+002
+2.06136894825E+007, +3.37487779564E+001, +7.24206712018E+002
+2.07804674457E+007, +3.46312152104E+001, +7.33382149413E+002
+2.09472454090E+007, +3.21322874434E+001, +7.45593706412E+002
+2.11140233723E+007, +3.57588040337E+001, +7.52269536396E+002
+2.12808013356E+007, +3.45561152024E+001, +7.60024243407E+002
+2.14475792988E+007, +3.56612428206E+001, +7.70634135110E+002
+2.16143572621E+007, +3.70725440334E+001, +7.78046347370E+002
+2.17811352254E+007, +3.44668280337E+001, +7.86547460242E+002
+2.19479131886E+007, +4.04067391996E+001, +7.98457236738E+002
+2.21146911519E+007, +4.27066614461E+001, +8.05802580019E+002
+2.22814691152E+007, +4.05063193153E+001, +8.20816740538E+002
+2.24482470785E+007, +4.17457584647E+001, +8.29422122455E+002
+2.26150250417E+007, +4.53354846418E+001, +8.39429147209E+002
+2.27818030050E+007, +4.37008135301E+001, +8.49843890837E+002
+2.29485809683E+007, +5.06437711218E+001, +8.59604959517E+002
+2.31153589316E+007, +4.61548208081E+001, +8.71132281272E+002
+2.32821368948E+007, +5.25412488844E+001, +8.82838634868E+002
+2.34489148581E+007, +5.05005184341E+001, +8.91723510401E+002
+2.36156928214E+007, +5.37869741464E+001, +9.02272824858E+002
+2.37824707846E+007, +5.62167418541E+001, +9.14124190431E+002
+2.39492487479E+007, +5.31319908405E+001, +9.22121221142E+002
+2.41160267112E+007, +5.92149492138E+001, +9.37452684475E+002
+2.42828046745E+007, +5.32040792089E+001, +9.49411091012E+002
+2.44495826377E+007, +6.23175912114E+001, +9.63520955102E+002
+2.46163606010E+007, +6.22033808091E+001, +9.75007177963E+002
+2.47831385643E+007, +6.42559011160E+001, +9.85334461384E+002
+2.49499165275E+007, +6.84297846055E+001, +9.92284254697E+002
+2.51166944908E+007, +7.32699130182E+001, +1.00895170820E+003
+2.52834724541E+007, +7.09678129379E+001, +1.02028318378E+003
+2.54502504174E+007, +7.24478872864E+001, +1.03006467643E+003
+2.56170283806E+007, +7.36418155546E+001, +1.04555907723E+003
+2.57838063439E+007, +7.89596708352E+001, +1.05860446782E+003
+2.59505843072E+007, +8.16341534075E+001, +1.07534462181E+003
+2.61173622705E+007, +8.21367834535E+001, +1.08111859056E+003
+2.62841402337E+007, +7.98182954928E+001, +1.10248134706E+003
+2.64509181970E+007, +8.46810744108E+001, +1.11705135631E+003
+2.66176961603E+007, +9.13981761212E+001, +1.13097668200E+003
+2.67844741235E+007, +8.99952131894E+001, +1.13942739684E+003
+2.69512520868E+007, +9.24914618168E+001, +1.15641520960E+003
+2.71180300501E+007, +9.94519217797E+001, +1.16557054247E+003
+2.72848080134E+007, +9.82372146528E+001, +1.17821132366E+003
+2.74515859766E+007, +1.00632585796E+002, +1.19560926439E+003
+2.76183639399E+007, +1.01514348894E+002, +1.21164805045E+003
+2.77851419032E+007, +1.00803287701E+002, +1.22679069437E+003
+2.79519198664E+007, +1.04648886175E+002, +1.23968412919E+003
+2.81186978297E+007, +1.12331788929E+002, +1.25009150913E+003
+2.82854757930E+007, +1.09387158926E+002, +1.26801279978E+003
+2.84522537563E+007, +1.04925271650E+002, +1.29447848475E+003
+2.86190317195E+007, +1.13582174995E+002, +1.30652297032E+003
+2.87858096828E+007, +1.20863723997E+002, +1.32497609007E+003
+2.89525876461E+007, +1.16418564769E+002, +1.33977230601E+003
+2.91193656093E+007, +1.09221139882E+002, +1.34937626752E+003
+2.92861435726E+007, +1.15421559906E+002, +1.37009697615E+003
+2.94529215359E+007, +1.21954941110E+002, +1.39786449350E+003
+2.96196994992E+007, +1.20911217997E+002, +1.39949858696E+003
+2.97864774624E+007, +1.31032781562E+002, +1.43127513100E+003
+2.99532554257E+007, +1.35288326017E+002, +1.45896735113E+003
+3.01200333890E+007, +1.29116811564E+002, +1.47572913254E+003
+3.02868113523E+007, +1.32506910497E+002, +1.50960364853E+003
+3.04535893155E+007, +1.32159041671E+002, +1.53053908202E+003
+3.06203672788E+007, +1.41047597952E+002, +1.55547390494E+003
+3.07871452421E+007, +1.35583449993E+002, +1.57537523913E+003
+3.09539232053E+007, +1.45099430365E+002, +1.59141175127E+003
+3.11207011686E+007, +1.41786470095E+002, +1.62992008041E+003
+3.12874791319E+007, +1.54437524315E+002, +1.64699944673E+003
+3.14542570952E+007, +1.50013175498E+002, +1.67510491764E+003
+3.16210350584E+007, +1.52863168414E+002, +1.71284297574E+003
+3.17878130217E+007, +1.52223288862E+002, +1.73269645448E+003
+3.19545909850E+007, +1.66782010127E+002, +1.77511775983E+003
+3.21213689482E+007, +1.48207261525E+002, +1.79573341773E+003
+3.22881469115E+007, +1.58448995408E+002, +1.81349705956E+003
+3.24549248748E+007, +1.71858863642E+002, +1.85897402385E+003
+3.26217028381E+007, +1.71474903490E+002, +1.89226405127E+003
+3.27884808013E+007, +1.75169359395E+002, +1.91587013286E+003
+3.29552587646E+007, +1.95861807432E+002, +1.93746589222E+003
+3.31220367279E+007, +2.06099170185E+002, +1.98820224108E+003
+3.32888146912E+007, +1.91698767086E+002, +2.03672072729E+003
+3.34555926544E+007, +1.85152503712E+002, +2.06801451243E+003
+3.36223706177E+007, +2.25614047620E+002, +2.10849212541E+003
+3.37891485810E+007, +2.17580126756E+002, +2.14006292133E+003
+3.39559265442E+007, +2.24519305768E+002, +2.19510283473E+003
+3.41227045075E+007, +2.25993690338E+002, +2.22403124573E+003
+3.42894824708E+007, +2.38404471448E+002, +2.27222619958E+003
+3.44562604341E+007, +2.39246061476E+002, +2.31487814921E+003
+3.46230383973E+007, +2.84344355047E+002, +2.38623508866E+003
+3.47898163606E+007, +2.87730379814E+002, +2.41459869849E+003
+3.49565943239E+007, +2.94558022862E+002, +2.46758831424E+003
+3.51233722871E+007, +3.19460160722E+002, +2.53849357862E+003
+3.52901502504E+007, +3.19926513138E+002, +2.58545768145E+003
+3.54569282137E+007, +3.26065549865E+002, +2.63381907096E+003
+3.56237061770E+007, +3.48898666722E+002, +2.71814763502E+003
+3.57904841402E+007, +3.45013759590E+002, +2.77491232979E+003
+3.59572621035E+007, +4.05802550328E+002, +2.86685609002E+003
+3.61240400668E+007, +3.84284231375E+002, +2.91898291567E+003
+3.62908180301E+007, +4.51427912767E+002, +2.99655585359E+003
+3.64575959933E+007, +4.30595702478E+002, +3.09404316175E+003
+3.66243739566E+007, +4.85688001686E+002, +3.13711918052E+003
+3.67911519199E+007, +5.03961528113E+002, +3.30938511980E+003
+3.69579298831E+007, +5.05205094029E+002, +3.29230824565E+003
+3.71247078464E+007, +5.18991903878E+002, +3.47182182467E+003
+3.72914858097E+007, +5.97241846861E+002, +3.57597769591E+003
+3.74582637730E+007, +6.76858468901E+002, +3.75377111446E+003
+3.76250417362E+007, +6.95064070764E+002, +3.75931322637E+003
+3.77918196995E+007, +6.18679405079E+002, +3.93173665888E+003
+3.79585976628E+007, +7.33796752358E+002, +4.08482936319E+003
+3.81253756260E+007, +8.21907394777E+002, +4.27500947320E+003
+3.82921535893E+007, +9.87635071775E+002, +4.29473925416E+003
+3.84589315526E+007, +9.76097731890E+002, +4.51943268491E+003
+3.86257095159E+007, +9.87024146052E+002, +4.75695702631E+003
+3.87924874791E+007, +1.07641499115E+003, +4.98770506371E+003
+3.89592654424E+007, +1.21176551278E+003, +5.09402548000E+003
+3.91260434057E+007, +1.34747820247E+003, +5.49525537634E+003
+3.92928213689E+007, +1.61583397569E+003, +5.58430640731E+003
+3.94595993322E+007, +1.62277273790E+003, +5.92459664313E+003
+3.96263772955E+007, +1.68111609268E+003, +6.18982638907E+003
+3.97931552588E+007, +1.99184925256E+003, +6.51317112872E+003
+3.99599332220E+007, +2.12173259731E+003, +7.05787727014E+003
+4.01267111853E+007, +2.59042172162E+003, +7.18450197969E+003
+4.02934891486E+007, +2.99000567476E+003, +7.60655798267E+003
+4.04602671119E+007, +3.29586631829E+003, +7.47911007507E+003
+4.06270450751E+007, +3.94402469180E+003, +8.24069915964E+003
+4.07938230384E+007, +4.72283916876E+003, +8.65226943486E+003
+4.09606010017E+007, +5.67615003988E+003, +8.66146225861E+003
+4.11273789649E+007, +6.65588112189E+003, +9.34979290392E+003
+4.12941569282E+007, +7.82288255288E+003, +1.00356152530E+004
+4.14609348915E+007, +1.04295983557E+004, +1.02998190788E+004
+4.16277128548E+007, +1.09434749336E+004, +9.58473313274E+003
+4.17944908180E+007, +1.30676845484E+004, +9.66792509629E+003
+4.19612687813E+007, +1.68678420745E+004, +8.18079582958E+003
+4.21280467446E+007, +1.90413378776E+004, +6.00292365466E+003
+4.22948247078E+007, +2.02036138269E+004, +4.02466653010E+003
+4.24616026711E+007, +1.95300347860E+004, -2.98264984896E+002
+4.26283806344E+007, +1.95424643919E+004, -3.97489690465E+003
+4.27951585977E+007, +1.72445887557E+004, -8.38689229287E+003
+4.29619365609E+007, +1.55009441486E+004, -6.99080142011E+003
+4.31287145242E+007, +1.32084314670E+004, -9.39220354885E+003
+4.32954924875E+007, +1.17472501216E+004, -9.82111883454E+003
+4.34622704508E+007, +8.55580314667E+003, -1.00453189129E+004
+4.36290484140E+007, +8.15132120607E+003, -9.34680834105E+003
+4.37958263773E+007, +6.49226997912E+003, -9.58691850877E+003
+4.39626043406E+007, +5.86684715762E+003, -8.61383697893E+003
+4.41293823038E+007, +4.80009001914E+003, -8.00686058947E+003
+4.42961602671E+007, +4.15545034250E+003, -7.85102216849E+003
+4.44629382304E+007, +3.78549645690E+003, -7.56789080034E+003
+4.46297161937E+007, +3.37143834750E+003, -6.83589767220E+003
+4.47964941569E+007, +2.91163688105E+003, -6.61602604235E+003
+4.49632721202E+007, +2.35898237905E+003, -6.25805889173E+003
+4.51300500835E+007, +2.42939339821E+003, -6.07822299050E+003
+4.52968280467E+007, +2.02412743417E+003, -5.60088176032E+003
+4.54636060100E+007, +1.83755446850E+003, -5.30655757736E+003
+4.56303839733E+007, +1.53525352750E+003, -5.06125602263E+003
+4.57971619366E+007, +1.49342961699E+003, -4.88060860420E+003
+4.59639398998E+007, +1.28626696511E+003, -4.55742845953E+003
+4.61307178631E+007, +1.34244445696E+003, -4.40256890751E+003
+4.62974958264E+007, +1.30352297446E+003, -4.27023856230E+003
+4.64642737896E+007, +1.19840896313E+003, -4.15958030269E+003
+4.66310517529E+007, +1.05640130486E+003, -3.92035235645E+003
+4.67978297162E+007, +1.12085971036E+003, -3.85178549401E+003
+4.69646076795E+007, +9.15571879177E+002, -3.70208626726E+003
+4.71313856427E+007, +9.34788443500E+002, -3.53165063132E+003
+4.72981636060E+007, +8.39177562897E+002, -3.39279656197E+003
+4.74649415693E+007, +7.93490359569E+002, -3.27188003333E+003
+4.76317195326E+007, +8.02466323115E+002, -3.18679616044E+003
+4.77984974958E+007, +7.60880813934E+002, -3.07328221246E+003
+4.79652754591E+007, +7.21585494232E+002, -2.98609638142E+003
+4.81320534224E+007, +7.09638910144E+002, -2.90809516434E+003
+4.82988313856E+007, +6.71685949290E+002, -2.81211549356E+003
+4.84656093489E+007, +6.69030136950E+002, -2.76581311181E+003
+4.86323873122E+007, +6.98796796935E+002, -2.65531818075E+003
+4.87991652755E+007, +6.62582773778E+002, -2.60377889361E+003
+4.89659432387E+007, +6.21719422242E+002, -2.52311737230E+003
+4.91327212020E+007, +6.04549710367E+002, -2.45375825089E+003
+4.92994991653E+007, +6.33206609352E+002, -2.42189749372E+003
+4.94662771285E+007, +5.95418076134E+002, -2.33659574107E+003
+4.96330550918E+007, +5.97741158173E+002, -2.29845349598E+003
+4.97998330551E+007, +5.63788363468E+002, -2.25506585241E+003
+4.99666110184E+007, +5.69591819799E+002, -2.19858726127E+003
+5.01333889816E+007, +5.20971499274E+002, -2.16100156096E+003
+5.03001669449E+007, +5.01245747363E+002, -2.11669853470E+003
+5.04669449082E+007, +4.97015948207E+002, -2.07850933604E+003
+5.06337228715E+007, +5.00864268367E+002, -2.02940546717E+003
+5.08005008347E+007, +4.60273845829E+002, -2.01546724277E+003
+5.09672787980E+007, +4.41849867022E+002, -1.95893287284E+003
+5.11340567613E+007, +4.29754812219E+002, -1.90762245560E+003
+5.13008347245E+007, +4.14318139234E+002, -1.88522765085E+003
+5.14676126878E+007, +4.06542333059E+002, -1.84259938589E+003
+5.16343906511E+007, +4.02043860814E+002, -1.79305321243E+003
+5.18011686144E+007, +3.79999436845E+002, -1.78104638348E+003
+5.19679465776E+007, +3.75944381345E+002, -1.74140747930E+003
+5.21347245409E+007, +3.65319316499E+002, -1.68715118805E+003
+5.23015025042E+007, +3.57008799462E+002, -1.64378192645E+003
+5.24682804674E+007, +3.36777450513E+002, -1.62630885895E+003
+5.26350584307E+007, +3.40367046092E+002, -1.58945947140E+003
+5.28018363940E+007, +3.21172355975E+002, -1.55584811872E+003
+5.29686143573E+007, +3.19434466100E+002, -1.54194710306E+003
+5.31353923205E+007, +3.08126358342E+002, -1.51082586881E+003
+5.33021702838E+007, +3.10507574001E+002, -1.48402766125E+003
+5.34689482471E+007, +2.97074181457E+002, -1.44125752313E+003
