"# Channel 1"
"# Trace 1"
Frequency, Formatted Data, Formatted Data
+1.00000000000E+005, +1.38650557358E+002, +1.38745942303E+000
+2.25031289111E+005, +1.38331530192E+002, +6.63336572958E+000
+3.50062578223E+005, +1.38110647908E+002, +1.07789259405E+001
+4.75093867334E+005, +1.38331321357E+002, +1.42211656680E+001
+6.00125156446E+005, +1.38418642970E+002, +1.81066336479E+001
+7.25156445557E+005, +1.38432680641E+002, +2.15256110094E+001
+8.50187734668E+005, +1.38226348153E+002, +2.57887605088E+001
+9.75219023780E+005, +1.38590819395E+002, +2.92785375636E+001
+1.10025031289E+006, +1.38480391522E+002, +3.28200101797E+001
+1.22528160200E+006, +1.38751456976E+002, +3.65611168106E+001
+1.35031289111E+006, +1.38703848274E+002, +4.02577640470E+001
+1.47534418023E+006, +1.38956477025E+002, +4.38859871682E+001
+1.60037546934E+006, +1.39227290116E+002, +4.74043834354E+001
+1.72540675845E+006, +1.39199290271E+002, +5.12159434378E+001
+1.85043804756E+006, +1.38671593967E+002, +5.49961753738E+001
+1.97546933667E+006, +1.39225770830E+002, +5.85290856851E+001
+2.10050062578E+006, +1.39536301187E+002, +6.25546469552E+001
+2.22553191489E+006, +1.39094684480E+002, +6.60302304440E+001
+2.35056320401E+006, +1.39413108223E+002, +6.98915038716E+001
+2.47559449312E+006, +1.39831526235E+002, +7.34285981696E+001
+2.60062578223E+006, +1.39373965597E+002, +7.70628911282E+001
+2.72565707134E+006, +1.40024345670E+002, +8.08722681379E+001
+2.85068836045E+006, +1.39639113562E+002, +8.43088943488E+001
+2.97571964956E+006, +1.39749206625E+002, +8.80267729157E+001
+3.10075093867E+006, +1.39888595190E+002, +9.16821184366E+001
+3.22578222778E+006, +1.39890086446E+002, +9.54445866735E+001
+3.35081351690E+006, +1.40113048813E+002, +9.91947430006E+001
+3.47584480601E+006, +1.40100115770E+002, +1.02680127639E+002
+3.60087609512E+006, +1.40281766938E+002, +1.06442824764E+002
+3.72590738423E+006, +1.40240337953E+002, +1.10059977078E+002
+3.85093867334E+006, +1.40485353823E+002, +1.14391329916E+002
+3.97596996245E+006, +1.40564920416E+002, +1.18087040332E+002
+4.10100125156E+006, +1.40503504852E+002, +1.21322668221E+002
+4.22603254068E+006, +1.40918480561E+002, +1.25484212122E+002
+4.35106382979E+006, +1.40593795540E+002, +1.28737290106E+002
+4.47609511890E+006, +1.41408084920E+002, +1.32459530127E+002
+4.60112640801E+006, +1.41333059865E+002, +1.36511767371E+002
+4.72615769712E+006, +1.41577070066E+002, +1.40233670137E+002
+4.85118898623E+006, +1.41517666894E+002, +1.43731769627E+002
+4.97622027534E+006, +1.41554475741E+002, +1.47863954990E+002
+5.10125156446E+006, +1.42097333351E+002, +1.51284166972E+002
+5.22628285357E+006, +1.42155059884E+002, +1.55278893635E+002
+5.35131414268E+006, +1.42082499083E+002, +1.58473640909E+002
+5.47634543179E+006, +1.42811750964E+002, +1.62745000625E+002
+5.60137672090E+006, +1.42023342715E+002, +1.66372218213E+002
+5.72640801001E+006, +1.42895757570E+002, +1.69618995974E+002
+5.85143929912E+006, +1.43491474841E+002, +1.73699186674E+002
+5.97647058824E+006, +1.43344243264E+002, +1.77473786201E+002
+6.10150187735E+006, +1.43491725254E+002, +1.81193510841E+002
+6.22653316646E+006, +1.43650553240E+002, +1.84993196205E+002
+6.35156445557E+006, +1.44012363201E+002, +1.88870968327E+002
+6.47659574468E+006, +1.43702205148E+002, +1.92718169424E+002
+6.60162703379E+006, +1.44516447830E+002, +1.96710966128E+002
+6.72665832290E+006, +1.44643223418E+002, +2.00147638448E+002
+6.85168961202E+006, +1.45086574137E+002, +2.03769542354E+002
+6.97672090113E+006, +1.45113067929E+002, +2.08238493475E+002
+7.10175219024E+006, +1.45278073396E+002, +2.11750386676E+002
+7.22678347935E+006, +1.45866597461E+002, +2.15754467110E+002
+7.35181476846E+006, +1.46494346466E+002, +2.19965708904E+002
+7.47684605757E+006, +1.46293946769E+002, +2.23656081201E+002
+7.60187734668E+006, +1.46168004642E+002, +2.27813076171E+002
+7.72690863579E+006, +1.46517935092E+002, +2.31632091005E+002
+7.85193992491E+006, +1.47069192318E+002, +2.35154762614E+002
+7.97697121402E+006, +1.47522136684E+002, +2.39345480282E+002
+8.10200250313E+006, +1.48033095181E+002, +2.43139541449E+002
+8.22703379224E+006, +1.47857890998E+002, +2.47187686186E+002
+8.35206508135E+006, +1.48690798806E+002, +2.51668743204E+002
+8.47709637046E+006, +1.48478837481E+002, +2.55824736905E+002
+8.60212765957E+006, +1.48960056896E+002, +2.59386221990E+002
+8.72715894869E+006, +1.49041879449E+002, +2.63738038159E+002
+8.85219023780E+006, +1.48953831832E+002, +2.67873395905E+002
+8.97722152691E+006, +1.49614943218E+002, +2.71402194604E+002
+9.10225281602E+006, +1.50129702523E+002, +2.76194024317E+002
+9.22728410513E+006, +1.50419946598E+002, +2.79060883425E+002
+9.35231539424E+006, +1.50778616938E+002, +2.83914204205E+002
+9.47734668335E+006, +1.50414383163E+002, +2.87569242813E+002
+9.60237797247E+006, +1.51510880904E+002, +2.92261977731E+002
+9.72740926158E+006, +1.52196358021E+002, +2.96181321525E+002
+9.85244055069E+006, +1.52252952873E+002, +3.00367470338E+002
+9.97747183980E+006, +1.52277550796E+002, +3.04427449456E+002
+1.01025031289E+007, +1.51906089827E+002, +3.08762008776E+002
+1.02275344180E+007, +1.53528310284E+002, +3.12908010674E+002
+1.03525657071E+007, +1.53391315765E+002, +3.17556672934E+002
+1.04775969962E+007, +1.53986838014E+002, +3.21711830853E+002
+1.06026282854E+007, +1.54829134572E+002, +3.25813841035E+002
+1.07276595745E+007, +1.54453707765E+002, +3.30004523121E+002
+1.08526908636E+007, +1.54759650687E+002, +3.34309506560E+002
+1.09777221527E+007, +1.55838456278E+002, +3.38283856497E+002
+1.11027534418E+007, +1.55901200923E+002, +3.43428664305E+002
+1.12277847309E+007, +1.56192480395E+002, +3.47303014194E+002
+1.13528160200E+007, +1.57269671320E+002, +3.51571940826E+002
+1.14778473091E+007, +1.57360447393E+002, +3.55398892111E+002
+1.16028785982E+007, +1.57594877115E+002, +3.61771884442E+002
+1.17279098874E+007, +1.58808325141E+002, +3.65159581948E+002
+1.18529411765E+007, +1.59350404450E+002, +3.69961959262E+002
+1.19779724656E+007, +1.58081758850E+002, +3.73591141042E+002
+1.21030037547E+007, +1.59822499597E+002, +3.78119843370E+002
+1.22280350438E+007, +1.59968910561E+002, +3.83555074302E+002
+1.23530663329E+007, +1.60564319804E+002, +3.87536980412E+002
+1.24780976220E+007, +1.61120190772E+002, +3.91876643419E+002
+1.26031289111E+007, +1.61216912780E+002, +3.97431407976E+002
+1.27281602003E+007, +1.61966617092E+002, +4.02491433260E+002
+1.28531914894E+007, +1.62216588173E+002, +4.05769900755E+002
+1.29782227785E+007, +1.63650196816E+002, +4.11583649361E+002
+1.31032540676E+007, +1.63676999025E+002, +4.15333119787E+002
+1.32282853567E+007, +1.62764596361E+002, +4.20399286517E+002
+1.33533166458E+007, +1.65068299689E+002, +4.24903258682E+002
+1.34783479349E+007, +1.66015024346E+002, +4.29338558573E+002
+1.36033792240E+007, +1.66165008609E+002, +4.34153630103E+002
+1.37284105131E+007, +1.66433181428E+002, +4.39080366821E+002
+1.38534418023E+007, +1.67425040888E+002, +4.44287870426E+002
+1.39784730914E+007, +1.66391623734E+002, +4.48819543428E+002
+1.41035043805E+007, +1.69760329575E+002, +4.53741519970E+002
+1.42285356696E+007, +1.69516100665E+002, +4.57461977967E+002
+1.43535669587E+007, +1.70219324661E+002, +4.63786120676E+002
+1.44785982478E+007, +1.71006373134E+002, +4.68104069445E+002
+1.46036295369E+007, +1.72914428747E+002, +4.72906597824E+002
+1.47286608260E+007, +1.72497344354E+002, +4.78967009204E+002
+1.48536921151E+007, +1.72461649596E+002, +4.83855665316E+002
+1.49787234043E+007, +1.73913090149E+002, +4.87388514163E+002
+1.51037546934E+007, +1.73066051164E+002, +4.93660083113E+002
+1.52287859825E+007, +1.73431330243E+002, +4.99612533184E+002
+1.53538172716E+007, +1.76301167514E+002, +5.04098315620E+002
+1.54788485607E+007, +1.75680158495E+002, +5.08755216470E+002
+1.56038798498E+007, +1.78216203436E+002, +5.13345946552E+002
+1.57289111389E+007, +1.76358934354E+002, +5.19614586033E+002
+1.58539424280E+007, +1.78222749299E+002, +5.22134868263E+002
+1.59789737171E+007, +1.79029184549E+002, +5.29931013691E+002
+1.61040050063E+007, +1.80328363801E+002, +5.34996930662E+002
+1.62290362954E+007, +1.81416072845E+002, +5.40837222361E+002
+1.63540675845E+007, +1.82725217749E+002, +5.45526254054E+002
+1.64790988736E+007, +1.83243211657E+002, +5.53985291796E+002
+1.66041301627E+007, +1.82204464630E+002, +5.57227083736E+002
+1.67291614518E+007, +1.82819730064E+002, +5.64540197610E+002
+1.68541927409E+007, +1.83994070399E+002, +5.67507917402E+002
+1.69792240300E+007, +1.84441561754E+002, +5.73069642632E+002
+1.71042553191E+007, +1.83751621114E+002, +5.81880486608E+002
+1.72292866083E+007, +1.86419540067E+002, +5.87932814067E+002
+1.73543178974E+007, +1.86988510359E+002, +5.92078698363E+002
+1.74793491865E+007, +1.87187648714E+002, +5.97187004015E+002
+1.76043804756E+007, +1.90759010837E+002, +6.03737338203E+002
+1.77294117647E+007, +1.89783750654E+002, +6.10451968616E+002
+1.78544430538E+007, +1.90440402248E+002, +6.13912614741E+002
+1.79794743429E+007, +1.92832063703E+002, +6.22093444204E+002
+1.81045056320E+007, +1.94179125374E+002, +6.27338461860E+002
+1.82295369212E+007, +1.94137484285E+002, +6.31212650507E+002
+1.83545682103E+007, +1.96150919731E+002, +6.39145510264E+002
+1.84795994994E+007, +1.97089473940E+002, +6.45042165900E+002
+1.86046307885E+007, +1.97086971195E+002, +6.50925185468E+002
+1.87296620776E+007, +1.97951869174E+002, +6.57619686432E+002
+1.88546933667E+007, +1.99754671796E+002, +6.63370849047E+002
+1.89797246558E+007, +2.01843274796E+002, +6.70441445718E+002
+1.91047559449E+007, +2.04681761486E+002, +6.77175002291E+002
+1.92297872340E+007, +2.03312209450E+002, +6.83120377042E+002
+1.93548185232E+007, +2.05577173992E+002, +6.87296256474E+002
+1.94798498123E+007, +2.08062278681E+002, +6.94360801423E+002
+1.96048811014E+007, +2.08093970737E+002, +7.05073886930E+002
+1.97299123905E+007, +2.11454597283E+002, +7.07848806831E+002
+1.98549436796E+007, +2.11708804515E+002, +7.18482493181E+002
+1.99799749687E+007, +2.08574047476E+002, +7.22500560123E+002
+2.01050062578E+007, +2.14321565504E+002, +7.27549857686E+002
+2.02300375469E+007, +2.17546663379E+002, +7.37513946802E+002
+2.03550688360E+007, +2.14887335756E+002, +7.44886236045E+002
+2.04801001252E+007, +2.18814717285E+002, +7.52169239283E+002
+2.06051314143E+007, +2.16403618931E+002, +7.58819128835E+002
+2.07301627034E+007, +2.20256565832E+002, +7.63674099835E+002
+2.08551939925E+007, +2.23134408839E+002, +7.70935710504E+002
+2.09802252816E+007, +2.21468194848E+002, +7.74777390820E+002
+2.11052565707E+007, +2.21684231616E+002, +7.82030450384E+002
+2.12302878598E+007, +2.26399012539E+002, +7.96608085971E+002
+2.13553191489E+007, +2.28433652076E+002, +7.97308985941E+002
+2.14803504380E+007, +2.30718048332E+002, +8.08895243732E+002
+2.16053817272E+007, +2.33196395780E+002, +8.13149182652E+002
+2.17304130163E+007, +2.36844015811E+002, +8.19117124535E+002
+2.18554443054E+007, +2.34531824354E+002, +8.30329383009E+002
+2.19804755945E+007, +2.34080018976E+002, +8.41044866886E+002
+2.21055068836E+007, +2.38031480037E+002, +8.48962857895E+002
+2.22305381727E+007, +2.45647555599E+002, +8.52816715077E+002
+2.23555694618E+007, +2.39100666877E+002, +8.63599159240E+002
+2.24806007509E+007, +2.41822517981E+002, +8.66517181045E+002
+2.26056320401E+007, +2.46654331232E+002, +8.83049536678E+002
+2.27306633292E+007, +2.43921777927E+002, +8.85410529258E+002
+2.28556946183E+007, +2.48861748894E+002, +8.96059380566E+002
+2.29807259074E+007, +2.52337373995E+002, +9.06726594864E+002
+2.31057571965E+007, +2.54726606337E+002, +9.12939615897E+002
+2.32307884856E+007, +2.60073698931E+002, +9.23145253535E+002
+2.33558197747E+007, +2.60449980214E+002, +9.26235592289E+002
+2.34808510638E+007, +2.60224512064E+002, +9.35679132062E+002
+2.36058823529E+007, +2.66505966480E+002, +9.46715926177E+002
+2.37309136421E+007, +2.64393962715E+002, +9.60643546676E+002
+2.38559449312E+007, +2.69876507359E+002, +9.66981722094E+002
+2.39809762203E+007, +2.76116514989E+002, +9.70884522258E+002
+2.41060075094E+007, +2.68790434402E+002, +9.84366368052E+002
+2.42310387985E+007, +2.80790727558E+002, +9.93371733603E+002
+2.43560700876E+007, +2.77212473294E+002, +1.00394512056E+003
+2.44811013767E+007, +2.80211036441E+002, +1.00542235223E+003
+2.46061326658E+007, +2.87209697542E+002, +1.02092141527E+003
+2.47311639549E+007, +2.87606300602E+002, +1.02869228606E+003
+2.48561952441E+007, +2.87849066996E+002, +1.03936170991E+003
+2.49812265332E+007, +2.88659178054E+002, +1.05221333080E+003
+2.51062578223E+007, +2.97792443678E+002, +1.06341173843E+003
+2.52312891114E+007, +3.02741656310E+002, +1.06631646465E+003
+2.53563204005E+007, +2.96896070000E+002, +1.08068247072E+003
+2.54813516896E+007, +3.03378156940E+002, +1.09892893788E+003
+2.56063829787E+007, +3.01943453439E+002, +1.10744184487E+003
+2.57314142678E+007, +3.04546018986E+002, +1.11640416591E+003
+2.58564455569E+007, +3.08638117198E+002, +1.12174648019E+003
+2.59814768461E+007, +3.23719535998E+002, +1.14326721132E+003
+2.61065081352E+007, +3.23705354399E+002, +1.14995835830E+003
+2.62315394243E+007, +3.28162285791E+002, +1.16959205830E+003
+2.63565707134E+007, +3.31987702465E+002, +1.17349282268E+003
+2.64816020025E+007, +3.37851654097E+002, +1.18105995372E+003
+2.66066332916E+007, +3.41178940730E+002, +1.19286368303E+003
+2.67316645807E+007, +3.47468444019E+002, +1.20164060441E+003
+2.68566958698E+007, +3.48365434237E+002, +1.22801446414E+003
+2.69817271589E+007, +3.48739965808E+002, +1.23446620889E+003
+2.71067584481E+007, +3.52213824863E+002, +1.24585413633E+003
+2.72317897372E+007, +3.54196961623E+002, +1.26906086453E+003
+2.73568210263E+007, +3.57455881860E+002, +1.27501549501E+003
+2.74818523154E+007, +3.65145329417E+002, +1.28827209919E+003
+2.76068836045E+007, +3.76782435952E+002, +1.29532387043E+003
+2.77319148936E+007, +3.73700245150E+002, +1.31121485547E+003
+2.78569461827E+007, +3.90316660213E+002, +1.31762548624E+003
+2.79819774718E+007, +3.85410240092E+002, +1.33477947167E+003
+2.81070087610E+007, +4.00039741030E+002, +1.36100575455E+003
+2.82320400501E+007, +4.03099579259E+002, +1.36584948945E+003
+2.83570713392E+007, +4.11773567913E+002, +1.37563635905E+003
+2.84821026283E+007, +4.16633850367E+002, +1.39884585265E+003
+2.86071339174E+007, +4.14916586582E+002, +1.40407697994E+003
+2.87321652065E+007, +4.30835272385E+002, +1.42651656571E+003
+2.88571964956E+007, +4.24651944250E+002, +1.44554962677E+003
+2.89822277847E+007, +4.29501537651E+002, +1.45636259461E+003
+2.91072590738E+007, +4.39502096526E+002, +1.48300776021E+003
+2.92322903630E+007, +4.40719388383E+002, +1.49025524654E+003
+2.93573216521E+007, +4.48045980106E+002, +1.50197449278E+003
+2.94823529412E+007, +4.51173262391E+002, +1.51615688866E+003
+2.96073842303E+007, +4.63721416675E+002, +1.52738278129E+003
+2.97324155194E+007, +4.69407208253E+002, +1.55489577996E+003
+2.98574468085E+007, +4.73707421763E+002, +1.57067967891E+003
+2.99824780976E+007, +4.77111408143E+002, +1.60241189354E+003
+3.01075093867E+007, +4.84040699009E+002, +1.61804775023E+003
+3.02325406758E+007, +5.01681093170E+002, +1.63975809522E+003
+3.03575719650E+007, +5.08163736294E+002, +1.64910629645E+003
+3.04826032541E+007, +5.07154916649E+002, +1.66269678002E+003
+3.06076345432E+007, +5.27071784016E+002, +1.68813414475E+003
+3.07326658323E+007, +5.40569669042E+002, +1.71948162650E+003
+3.08576971214E+007, +5.61493261705E+002, +1.74131107022E+003
+3.09827284105E+007, +5.50196304416E+002, +1.74444341315E+003
+3.11077596996E+007, +5.80419443886E+002, +1.79410916597E+003
+3.12327909887E+007, +5.71989694350E+002, +1.79349114170E+003
+3.13578222778E+007, +5.69216867925E+002, +1.81421779123E+003
+3.14828535670E+007, +5.96290480260E+002, +1.82742850196E+003
+3.16078848561E+007, +6.03342687168E+002, +1.87852943211E+003
+3.17329161452E+007, +6.13956093925E+002, +1.89131231284E+003
+3.18579474343E+007, +6.43039335857E+002, +1.91376784869E+003
+3.19829787234E+007, +6.42782619711E+002, +1.93861018524E+003
+3.21080100125E+007, +6.67628316220E+002, +1.96136594078E+003
+3.22330413016E+007, +6.66287540895E+002, +2.02555868394E+003
+3.23580725907E+007, +7.03289807446E+002, +2.02535844317E+003
+3.24831038798E+007, +7.14594875324E+002, +2.07328014749E+003
+3.26081351690E+007, +7.17155165720E+002, +2.11007534010E+003
+3.27331664581E+007, +7.16847407471E+002, +2.09699120527E+003
+3.28581977472E+007, +7.57694753716E+002, +2.13482456466E+003
+3.29832290363E+007, +7.76406404899E+002, +2.17629090443E+003
+3.31082603254E+007, +7.74158855853E+002, +2.19614702594E+003
+3.32332916145E+007, +8.07151063566E+002, +2.20865238124E+003
+3.33583229036E+007, +8.12747212609E+002, +2.24050988544E+003
+3.34833541927E+007, +8.27726851845E+002, +2.28612157997E+003
+3.36083854819E+007, +8.76886971354E+002, +2.31750314112E+003
+3.37334167710E+007, +8.79818346233E+002, +2.36644868029E+003
+3.38584480601E+007, +9.02765532403E+002, +2.36330088409E+003
+3.39834793492E+007, +9.21250436820E+002, +2.46225414664E+003
+3.41085106383E+007, +9.73825455257E+002, +2.46007362790E+003
+3.42335419274E+007, +1.00123741176E+003, +2.52042315546E+003
+3.43585732165E+007, +1.01528704915E+003, +2.54455751110E+003
+3.44836045056E+007, +1.02046520315E+003, +2.57518742708E+003
+3.46086357947E+007, +1.06580367278E+003, +2.60230960074E+003
+3.47336670839E+007, +1.12470239893E+003, +2.70846620622E+003
+3.48586983730E+007, +1.11209798886E+003, +2.69772380350E+003
+3.49837296621E+007, +1.22159328938E+003, +2.74606680834E+003
+3.51087609512E+007, +1.18018708357E+003, +2.83612466280E+003
+3.52337922403E+007, +1.26961716580E+003, +2.87007081695E+003
+3.53588235294E+007, +1.31032083793E+003, +2.88472860262E+003
+3.54838548185E+007, +1.37608964936E+003, +2.93723141234E+003
+3.56088861076E+007, +1.38772561316E+003, +2.97286292918E+003
+3.57339173967E+007, +1.42308101176E+003, +3.03037330107E+003
+3.58589486859E+007, +1.48144588705E+003, +3.13354272582E+003
+3.59839799750E+007, +1.49777110077E+003, +3.17076774059E+003
+3.61090112641E+007, +1.61950053234E+003, +3.13391553917E+003
+3.62340425532E+007, +1.64493066204E+003, +3.25158336209E+003
+3.63590738423E+007, +1.67658837558E+003, +3.32319096518E+003
+3.64841051314E+007, +1.79254964380E+003, +3.38823161765E+003
+3.66091364205E+007, +1.86368420478E+003, +3.44998396980E+003
+3.67341677096E+007, +1.96161297982E+003, +3.44389602423E+003
+3.68591989987E+007, +2.04364933811E+003, +3.58084125221E+003
+3.69842302879E+007, +2.09735753360E+003, +3.55902253402E+003
+3.71092615770E+007, +2.24886506465E+003, +3.72027515277E+003
+3.72342928661E+007, +2.21617939155E+003, +3.70281428731E+003
+3.73593241552E+007, +2.38399271917E+003, +3.78537547447E+003
+3.74843554443E+007, +2.42210146023E+003, +3.84756114686E+003
+3.76093867334E+007, +2.59753646423E+003, +3.82577133304E+003
+3.77344180225E+007, +2.73637383021E+003, +3.94216728633E+003
+3.78594493116E+007, +2.83027407427E+003, +3.93342316801E+003
+3.79844806008E+007, +2.95892074262E+003, +4.15602664368E+003
+3.81095118899E+007, +3.12110129744E+003, +4.14843120330E+003
+3.82345431790E+007, +3.37665982069E+003, +4.02973893153E+003
+3.83595744681E+007, +3.39273678116E+003, +4.30166935180E+003
+3.84846057572E+007, +3.65841365422E+003, +4.25281002722E+003
+3.86096370463E+007, +3.80085088539E+003, +4.40959938030E+003
+3.87346683354E+007, +3.89518773720E+003, +4.10390551882E+003
+3.88596996245E+007, +4.60452453624E+003, +4.26525085767E+003
+3.89847309136E+007, +4.66625372214E+003, +4.24047003873E+003
+3.91097622028E+007, +4.64646067748E+003, +4.25692186376E+003
+3.92347934919E+007, +4.86236312648E+003, +4.18229095869E+003
+3.93598247810E+007, +5.18503227532E+003, +4.28066103352E+003
+3.94848560701E+007, +5.48069766064E+003, +4.46291114398E+003
+3.96098873592E+007, +5.83985166689E+003, +3.95880429459E+003
+3.97349186483E+007, +6.05556968339E+003, +4.02981654223E+003
+3.98599499374E+007, +6.33363582069E+003, +4.06993964925E+003
+3.99849812265E+007, +6.60443599638E+003, +3.69301379691E+003
+4.01100125156E+007, +7.16406489103E+003, +3.60753748954E+003
