"# Channel 1"
"# Trace 1"
Frequency, Formatted Data, Formatted Data
+1.00000000000E+005, +5.42513396561E+002, -2.07594863062E+001
+2.25031289111E+005, +5.37246327465E+002, +5.54805664585E+000
+3.50062578223E+005, +5.32928804602E+002, +8.71661827016E+000
+4.75093867334E+005, +5.35480983395E+002, +1.36127398336E+001
+6.00125156446E+005, +5.34973211812E+002, +1.63240754259E+001
+7.25156445557E+005, +5.32426286359E+002, +1.93415938941E+001
+8.50187734668E+005, +5.34456432080E+002, +2.56616169723E+001
+9.75219023780E+005, +5.38255836783E+002, +2.92927376745E+001
+1.10025031289E+006, +5.34664871651E+002, +2.86452834287E+001
+1.22528160200E+006, +5.36754453690E+002, +3.33123905198E+001
+1.35031289111E+006, +5.36225409200E+002, +3.75143387743E+001
+1.47534418023E+006, +5.37152631062E+002, +4.16806993705E+001
+1.60037546934E+006, +5.41810679602E+002, +4.62273595767E+001
+1.72540675845E+006, +5.39631268629E+002, +4.67342840784E+001
+1.85043804756E+006, +5.37623587042E+002, +5.09124242772E+001
+1.97546933667E+006, +5.41709966173E+002, +5.72931574018E+001
+2.10050062578E+006, +5.39876450305E+002, +5.62159536873E+001
+2.22553191489E+006, +5.43489090573E+002, +6.17931478550E+001
+2.35056320401E+006, +5.43737941368E+002, +6.66586002814E+001
+2.47559449312E+006, +5.43753502684E+002, +6.73035129727E+001
+2.60062578223E+006, +5.39749669612E+002, +7.35392181818E+001
+2.72565707134E+006, +5.44326636608E+002, +7.58186710272E+001
+2.85068836045E+006, +5.43232417855E+002, +7.72819087814E+001
+2.97571964956E+006, +5.41252231640E+002, +8.16737343962E+001
+3.10075093867E+006, +5.42237894283E+002, +8.11888633144E+001
+3.22578222778E+006, +5.42688605978E+002, +9.02130052807E+001
+3.35081351690E+006, +5.40187448684E+002, +9.01075812749E+001
+3.47584480601E+006, +5.42938718920E+002, +9.59325478934E+001
+3.60087609512E+006, +5.42263389202E+002, +9.79438111786E+001
+3.72590738423E+006, +5.39695648084E+002, +1.01769056018E+002
+3.85093867334E+006, +5.39791547693E+002, +1.04135053579E+002
+3.97596996245E+006, +5.38705373324E+002, +1.10008865215E+002
+4.10100125156E+006, +5.47353126344E+002, +1.20450125028E+002
+4.22603254068E+006, +5.46315473231E+002, +1.13573594990E+002
+4.35106382979E+006, +5.44905001033E+002, +1.19651453591E+002
+4.47609511890E+006, +5.41983777900E+002, +1.18743015572E+002
+4.60112640801E+006, +5.45783981001E+002, +1.23359698556E+002
+4.72615769712E+006, +5.44502557625E+002, +1.29594543954E+002
+4.85118898623E+006, +5.44111202850E+002, +1.32883798657E+002
+4.97622027534E+006, +5.45551150452E+002, +1.36829981016E+002
+5.10125156446E+006, +5.49148681460E+002, +1.40169802055E+002
+5.22628285357E+006, +5.47559579609E+002, +1.42585099112E+002
+5.35131414268E+006, +5.45990752226E+002, +1.46674265474E+002
+5.47634543179E+006, +5.46534025250E+002, +1.43463346576E+002
+5.60137672090E+006, +5.46447085587E+002, +1.52048479747E+002
+5.72640801001E+006, +5.45555231987E+002, +1.52590052077E+002
+5.85143929912E+006, +5.50068842427E+002, +1.57567308892E+002
+5.97647058824E+006, +5.50042474360E+002, +1.60088090196E+002
+6.10150187735E+006, +5.51108548656E+002, +1.65051830407E+002
+6.22653316646E+006, +5.48922097520E+002, +1.65978677553E+002
+6.35156445557E+006, +5.49333142524E+002, +1.71300806728E+002
+6.47659574468E+006, +5.49959709447E+002, +1.75688486992E+002
+6.60162703379E+006, +5.50656682066E+002, +1.78299715751E+002
+6.72665832290E+006, +5.51314924717E+002, +1.79979391636E+002
+6.85168961202E+006, +5.51697675258E+002, +1.82565502394E+002
+6.97672090113E+006, +5.54672450524E+002, +1.86562064272E+002
+7.10175219024E+006, +5.53125170184E+002, +1.89593568243E+002
+7.22678347935E+006, +5.54975637778E+002, +1.93751758961E+002
+7.35181476846E+006, +5.56366468168E+002, +1.95312334014E+002
+7.47684605757E+006, +5.55395391072E+002, +2.01737389921E+002
+7.60187734668E+006, +5.58773222822E+002, +2.02916777510E+002
+7.72690863579E+006, +5.59116860429E+002, +2.10503666732E+002
+7.85193992491E+006, +5.56816902454E+002, +2.11376117749E+002
+7.97697121402E+006, +5.60309735219E+002, +2.12354333571E+002
+8.10200250313E+006, +5.60662037603E+002, +2.16136271302E+002
+8.22703379224E+006, +5.62366796955E+002, +2.22626818608E+002
+8.35206508135E+006, +5.63621486223E+002, +2.25783079094E+002
+8.47709637046E+006, +5.63036365211E+002, +2.29525651428E+002
+8.60212765957E+006, +5.65445494785E+002, +2.32503659833E+002
+8.72715894869E+006, +5.67090143978E+002, +2.37250243224E+002
+8.85219023780E+006, +5.67140297143E+002, +2.39339352615E+002
+8.97722152691E+006, +5.68520893026E+002, +2.42332450489E+002
+9.10225281602E+006, +5.73030935568E+002, +2.47726704126E+002
+9.22728410513E+006, +5.71813429298E+002, +2.50600523391E+002
+9.35231539424E+006, +5.72466811625E+002, +2.55559464996E+002
+9.47734668335E+006, +5.70969904259E+002, +2.59938684910E+002
+9.60237797247E+006, +5.76657646035E+002, +2.62079256106E+002
+9.72740926158E+006, +5.76581319352E+002, +2.63290747591E+002
+9.85244055069E+006, +5.79525273147E+002, +2.68308862279E+002
+9.97747183980E+006, +5.81365137298E+002, +2.70268246665E+002
+1.01025031289E+007, +5.80963401315E+002, +2.77759277264E+002
+1.02275344180E+007, +5.84007758409E+002, +2.78718369603E+002
+1.03525657071E+007, +5.84005644331E+002, +2.82496710022E+002
+1.04775969962E+007, +5.86494475707E+002, +2.85588675808E+002
+1.06026282854E+007, +5.87637939237E+002, +2.91208448038E+002
+1.07276595745E+007, +5.89492708316E+002, +2.94177756089E+002
+1.08526908636E+007, +5.91392695995E+002, +2.98758691987E+002
+1.09777221527E+007, +5.91014224059E+002, +2.99627910804E+002
+1.11027534418E+007, +5.91998684944E+002, +3.05615346293E+002
+1.12277847309E+007, +5.95707140090E+002, +3.09108691668E+002
+1.13528160200E+007, +5.97827246886E+002, +3.13057431803E+002
+1.14778473091E+007, +5.98751168654E+002, +3.15772377527E+002
+1.16028785982E+007, +6.01545933349E+002, +3.19922792002E+002
+1.17279098874E+007, +6.02502400860E+002, +3.22411388959E+002
+1.18529411765E+007, +6.08415783030E+002, +3.26079889736E+002
+1.19779724656E+007, +6.04684834684E+002, +3.31463830028E+002
+1.21030037547E+007, +6.06527151755E+002, +3.33666764562E+002
+1.22280350438E+007, +6.10614773024E+002, +3.37097103543E+002
+1.23530663329E+007, +6.10628873907E+002, +3.41682097439E+002
+1.24780976220E+007, +6.12571676095E+002, +3.44490174099E+002
+1.26031289111E+007, +6.15390268070E+002, +3.52120213848E+002
+1.27281602003E+007, +6.17160348750E+002, +3.54160716947E+002
+1.28531914894E+007, +6.18602972910E+002, +3.58332670268E+002
+1.29782227785E+007, +6.21884142512E+002, +3.59334549612E+002
+1.31032540676E+007, +6.23531797439E+002, +3.64666708778E+002
+1.32282853567E+007, +6.28637744158E+002, +3.69988072031E+002
+1.33533166458E+007, +6.28408372448E+002, +3.69651012841E+002
+1.34783479349E+007, +6.31330743535E+002, +3.76154888858E+002
+1.36033792240E+007, +6.32528235363E+002, +3.81573893949E+002
+1.37284105131E+007, +6.36504470342E+002, +3.85092474220E+002
+1.38534418023E+007, +6.35987913181E+002, +3.88827846852E+002
+1.39784730914E+007, +6.40938139626E+002, +3.95854637924E+002
+1.41035043805E+007, +6.41965607404E+002, +3.93646068314E+002
+1.42285356696E+007, +6.44178482348E+002, +3.96888445036E+002
+1.43535669587E+007, +6.44976118220E+002, +4.03428931008E+002
+1.44785982478E+007, +6.45213903439E+002, +4.04541800370E+002
+1.46036295369E+007, +6.49351975480E+002, +4.07420406135E+002
+1.47286608260E+007, +6.54261186634E+002, +4.14730122683E+002
+1.48536921151E+007, +6.57288928702E+002, +4.22925007394E+002
+1.49787234043E+007, +6.57587582774E+002, +4.21087999179E+002
+1.51037546934E+007, +6.60825305439E+002, +4.29182872101E+002
+1.52287859825E+007, +6.64116329330E+002, +4.34588809929E+002
+1.53538172716E+007, +6.65161454422E+002, +4.36108784220E+002
+1.54788485607E+007, +6.71235405456E+002, +4.40522682049E+002
+1.56038798498E+007, +6.69322634508E+002, +4.42800265604E+002
+1.57289111389E+007, +6.71948278478E+002, +4.48995126920E+002
+1.58539424280E+007, +6.72390686824E+002, +4.51558080343E+002
+1.59789737171E+007, +6.76920385755E+002, +4.58728027976E+002
+1.61040050063E+007, +6.83842663088E+002, +4.61664442224E+002
+1.62290362954E+007, +6.88775947743E+002, +4.61963081089E+002
+1.63540675845E+007, +6.93259670232E+002, +4.66883690457E+002
+1.64790988736E+007, +6.94722248395E+002, +4.73356957041E+002
+1.66041301627E+007, +6.96598072175E+002, +4.79228388842E+002
+1.67291614518E+007, +7.02454965457E+002, +4.81308107664E+002
+1.68541927409E+007, +7.00611671533E+002, +4.86096305085E+002
+1.69792240300E+007, +7.04338342643E+002, +4.92187534204E+002
+1.71042553191E+007, +7.09302647284E+002, +5.02378388053E+002
+1.72292866083E+007, +7.11809729875E+002, +4.99484770300E+002
+1.73543178974E+007, +7.18278118329E+002, +5.04949290363E+002
+1.74793491865E+007, +7.18573808967E+002, +5.07284457840E+002
+1.76043804756E+007, +7.26583232702E+002, +5.15037807156E+002
+1.77294117647E+007, +7.27233581958E+002, +5.17561715461E+002
+1.78544430538E+007, +7.28868038090E+002, +5.26748847535E+002
+1.79794743429E+007, +7.31932851023E+002, +5.24775963542E+002
+1.81045056320E+007, +7.35594882960E+002, +5.29747851596E+002
+1.82295369212E+007, +7.42462723888E+002, +5.36018894644E+002
+1.83545682103E+007, +7.39524830657E+002, +5.39681759515E+002
+1.84795994994E+007, +7.44287481472E+002, +5.45572515510E+002
+1.86046307885E+007, +7.50979010395E+002, +5.47900626132E+002
+1.87296620776E+007, +7.52286200345E+002, +5.50365377833E+002
+1.88546933667E+007, +7.58328721825E+002, +5.54062225888E+002
+1.89797246558E+007, +7.64212863800E+002, +5.59422564270E+002
+1.91047559449E+007, +7.64605358547E+002, +5.61758561833E+002
+1.92297872340E+007, +7.71652085253E+002, +5.69572693796E+002
+1.93548185232E+007, +7.73773076772E+002, +5.72976093321E+002
+1.94798498123E+007, +7.78101233905E+002, +5.73864612325E+002
+1.96048811014E+007, +7.79545362226E+002, +5.81485798756E+002
+1.97299123905E+007, +7.84760252467E+002, +5.83980503288E+002
+1.98549436796E+007, +7.97984794015E+002, +5.92154034987E+002
+1.99799749687E+007, +7.97842347311E+002, +5.97987769995E+002
+2.01050062578E+007, +8.03806771712E+002, +6.02287049248E+002
+2.02300375469E+007, +8.04897236688E+002, +6.02305316218E+002
+2.03550688360E+007, +8.07004026124E+002, +6.11106864686E+002
+2.04801001252E+007, +8.18445649880E+002, +6.12199698963E+002
+2.06051314143E+007, +8.20724603739E+002, +6.16829604145E+002
+2.07301627034E+007, +8.28849096218E+002, +6.21461927001E+002
+2.08551939925E+007, +8.34259358178E+002, +6.22140642446E+002
+2.09802252816E+007, +8.31390555848E+002, +6.30674456294E+002
+2.11052565707E+007, +8.35294353049E+002, +6.36737094900E+002
+2.12302878598E+007, +8.53676905085E+002, +6.42167679957E+002
+2.13553191489E+007, +8.44496499780E+002, +6.40605387989E+002
+2.14803504380E+007, +8.60783712256E+002, +6.49889776950E+002
+2.16053817272E+007, +8.60015675030E+002, +6.52667763937E+002
+2.17304130163E+007, +8.70289945701E+002, +6.55801726182E+002
+2.18554443054E+007, +8.65986523121E+002, +6.61942127116E+002
+2.19804755945E+007, +8.78216296410E+002, +6.73653346080E+002
+2.21055068836E+007, +8.90274873833E+002, +6.68703143642E+002
+2.22305381727E+007, +8.90279422461E+002, +6.76122866216E+002
+2.23555694618E+007, +8.97129320455E+002, +6.82209668463E+002
+2.24806007509E+007, +8.96459748983E+002, +6.81732355336E+002
+2.26056320401E+007, +9.08146785810E+002, +6.89647347800E+002
+2.27306633292E+007, +9.15485183053E+002, +6.98577816290E+002
+2.28556946183E+007, +9.19609861972E+002, +7.00148037947E+002
+2.29807259074E+007, +9.29814101194E+002, +7.02883486158E+002
+2.31057571965E+007, +9.38371716612E+002, +7.07354713544E+002
+2.32307884856E+007, +9.47300524688E+002, +7.09720965989E+002
+2.33558197747E+007, +9.45196895455E+002, +7.17346480700E+002
+2.34808510638E+007, +9.51223201774E+002, +7.24995314504E+002
+2.36058823529E+007, +9.68958888766E+002, +7.27950322438E+002
+2.37309136421E+007, +9.69518345118E+002, +7.34082144234E+002
+2.38559449312E+007, +9.80293801460E+002, +7.31726501309E+002
+2.39809762203E+007, +9.86892360324E+002, +7.36501263230E+002
+2.41060075094E+007, +9.93546323816E+002, +7.50506358799E+002
+2.42310387985E+007, +9.98288345628E+002, +7.47772654860E+002
+2.43560700876E+007, +1.00654243767E+003, +7.56448017594E+002
+2.44811013767E+007, +1.01641111581E+003, +7.54712456936E+002
+2.46061326658E+007, +1.01979733915E+003, +7.62994808841E+002
+2.47311639549E+007, +1.02931019300E+003, +7.67087359058E+002
+2.48561952441E+007, +1.04105045458E+003, +7.65274652770E+002
+2.49812265332E+007, +1.05054526402E+003, +7.80579498439E+002
+2.51062578223E+007, +1.05908241901E+003, +7.73520753142E+002
+2.52312891114E+007, +1.06529387718E+003, +7.77212792887E+002
+2.53563204005E+007, +1.06607347173E+003, +7.79223169955E+002
+2.54813516896E+007, +1.08269630463E+003, +7.91338447728E+002
+2.56063829787E+007, +1.09416542022E+003, +8.01092046823E+002
+2.57314142678E+007, +1.10252320616E+003, +8.10257265920E+002
+2.58564455569E+007, +1.10588314226E+003, +8.06253096434E+002
+2.59814768461E+007, +1.12911548660E+003, +8.03748863105E+002
+2.61065081352E+007, +1.13414761343E+003, +8.10249737941E+002
+2.62315394243E+007, +1.14722959726E+003, +8.11509225384E+002
+2.63565707134E+007, +1.15487921945E+003, +8.20603555987E+002
+2.64816020025E+007, +1.16870721565E+003, +8.21044489498E+002
+2.66066332916E+007, +1.17179928315E+003, +8.27141834473E+002
+2.67316645807E+007, +1.17262254827E+003, +8.26037050176E+002
+2.68566958698E+007, +1.19120475854E+003, +8.36702313641E+002
+2.69817271589E+007, +1.20622953338E+003, +8.41189581091E+002
+2.71067584481E+007, +1.20911073226E+003, +8.33267136260E+002
+2.72317897372E+007, +1.22944925249E+003, +8.44529110015E+002
+2.73568210263E+007, +1.22889363563E+003, +8.54231720690E+002
+2.74818523154E+007, +1.25479450170E+003, +8.52162008574E+002
+2.76068836045E+007, +1.25785934180E+003, +8.47703400123E+002
+2.77319148936E+007, +1.27071278132E+003, +8.61030472185E+002
+2.78569461827E+007, +1.26904776172E+003, +8.53146955179E+002
+2.79819774718E+007, +1.28481648449E+003, +8.76672635562E+002
+2.81070087610E+007, +1.31602137812E+003, +8.72013824799E+002
+2.82320400501E+007, +1.32640457606E+003, +8.69754906257E+002
+2.83570713392E+007, +1.33080192736E+003, +8.65432431653E+002
+2.84821026283E+007, +1.33376677737E+003, +8.77282148800E+002
+2.86071339174E+007, +1.35748781790E+003, +8.79025172983E+002
+2.87321652065E+007, +1.36609542986E+003, +8.73018903259E+002
+2.88571964956E+007, +1.38293819325E+003, +8.93693683914E+002
+2.89822277847E+007, +1.40267732196E+003, +8.94249267953E+002
+2.91072590738E+007, +1.41669377303E+003, +8.92976302683E+002
+2.92322903630E+007, +1.42347155074E+003, +8.98449649026E+002
+2.93573216521E+007, +1.45341314354E+003, +8.98943712307E+002
+2.94823529412E+007, +1.45439163008E+003, +8.92713069255E+002
+2.96073842303E+007, +1.46189803838E+003, +9.05939836767E+002
+2.97324155194E+007, +1.47324783912E+003, +8.94703591462E+002
+2.98574468085E+007, +1.50866839404E+003, +9.21432849953E+002
+2.99824780976E+007, +1.52817435253E+003, +9.18485335882E+002
+3.01075093867E+007, +1.54402257886E+003, +9.16343848016E+002
+3.02325406758E+007, +1.55708873809E+003, +8.93448923650E+002
+3.03575719650E+007, +1.57048355845E+003, +9.16789090330E+002
+3.04826032541E+007, +1.57218186076E+003, +9.11499912396E+002
+3.06076345432E+007, +1.60119504974E+003, +9.06734533549E+002
+3.07326658323E+007, +1.64014587971E+003, +9.00132833880E+002
+3.08576971214E+007, +1.65021773885E+003, +8.99490826015E+002
+3.09827284105E+007, +1.67337218574E+003, +9.00741671266E+002
+3.11077596996E+007, +1.69598829096E+003, +8.98129142565E+002
+3.12327909887E+007, +1.69543725597E+003, +9.12326809875E+002
+3.13578222778E+007, +1.71010894027E+003, +9.21087102830E+002
+3.14828535670E+007, +1.72067744031E+003, +8.83300765253E+002
+3.16078848561E+007, +1.75571315983E+003, +8.97133440280E+002
+3.17329161452E+007, +1.78545799132E+003, +9.03337143649E+002
+3.18579474343E+007, +1.79147709248E+003, +8.83288283187E+002
+3.19829787234E+007, +1.83647394096E+003, +8.88953562802E+002
+3.21080100125E+007, +1.83270892016E+003, +8.79887217413E+002
+3.22330413016E+007, +1.87470649114E+003, +8.88617190490E+002
+3.23580725907E+007, +1.88419901062E+003, +8.68578479595E+002
+3.24831038798E+007, +1.92875121636E+003, +8.54181812529E+002
+3.26081351690E+007, +1.94067737761E+003, +8.64432732293E+002
+3.27331664581E+007, +1.95876700916E+003, +8.78883313928E+002
+3.28581977472E+007, +1.97574674632E+003, +8.47530222660E+002
+3.29832290363E+007, +2.00910287101E+003, +8.44425784013E+002
+3.31082603254E+007, +2.00626277189E+003, +8.37787364826E+002
+3.32332916145E+007, +2.03760312201E+003, +8.33540393878E+002
+3.33583229036E+007, +2.04087585252E+003, +8.44687035327E+002
+3.34833541927E+007, +2.07055766357E+003, +8.04887816055E+002
+3.36083854819E+007, +2.09838526494E+003, +7.79722286318E+002
+3.37334167710E+007, +2.14490333090E+003, +7.87721059914E+002
+3.38584480601E+007, +2.14212587389E+003, +7.82692465228E+002
+3.39834793492E+007, +2.17459748237E+003, +7.88657296704E+002
+3.41085106383E+007, +2.17894484209E+003, +7.52084461213E+002
+3.42335419274E+007, +2.22396501738E+003, +7.22026408336E+002
+3.43585732165E+007, +2.24422893072E+003, +7.17875820004E+002
+3.44836045056E+007, +2.27789597494E+003, +7.05347650719E+002
+3.46086357947E+007, +2.31160921674E+003, +6.87543002312E+002
+3.47336670839E+007, +2.32104214097E+003, +6.71840988842E+002
+3.48586983730E+007, +2.32859436085E+003, +6.90623042164E+002
+3.49837296621E+007, +2.33453926728E+003, +6.22007341802E+002
+3.51087609512E+007, +2.38123781110E+003, +6.15525144280E+002
+3.52337922403E+007, +2.40243639833E+003, +5.89543986405E+002
+3.53588235294E+007, +2.40843506380E+003, +5.83720899950E+002
+3.54838548185E+007, +2.42704342626E+003, +5.47245988063E+002
+3.56088861076E+007, +2.45809525001E+003, +5.47322283393E+002
+3.57339173967E+007, +2.45809008911E+003, +5.03731072167E+002
+3.58589486859E+007, +2.50436475776E+003, +4.88079867426E+002
+3.59839799750E+007, +2.55218530155E+003, +5.12363993865E+002
+3.61090112641E+007, +2.54907525419E+003, +4.25332161752E+002
+3.62340425532E+007, +2.57670947154E+003, +4.15365862730E+002
+3.63590738423E+007, +2.58601734392E+003, +4.36033885991E+002
+3.64841051314E+007, +2.61589222551E+003, +3.85619515363E+002
+3.66091364205E+007, +2.60911774348E+003, +3.40602153726E+002
+3.67341677096E+007, +2.61938035439E+003, +2.99408464187E+002
+3.68591989987E+007, +2.68417651584E+003, +2.65259784255E+002
+3.69842302879E+007, +2.67402144926E+003, +2.66440456118E+002
+3.71092615770E+007, +2.72447788827E+003, +1.84350905923E+002
+3.72342928661E+007, +2.73505510767E+003, +1.82004754207E+002
+3.73593241552E+007, +2.72141104013E+003, +1.57658378853E+002
+3.74843554443E+007, +2.71675910082E+003, +1.22209275047E+002
+3.76093867334E+007, +2.71978000833E+003, +5.34749289435E+001
+3.77344180225E+007, +2.73213613849E+003, +6.38969541633E+001
+3.78594493116E+007, +2.74850397101E+003, -3.46721372640E+001
+3.79844806008E+007, +2.78344522904E+003, -5.78103297042E+001
+3.81095118899E+007, +2.74113152603E+003, -7.07904089308E+001
+3.82345431790E+007, +2.72888537082E+003, -1.19411466607E+002
+3.83595744681E+007, +2.82490794098E+003, -1.43587245864E+002
+3.84846057572E+007, +2.75636707595E+003, -2.04213935668E+002
+3.86096370463E+007, +2.81266352082E+003, -2.35234569690E+002
+3.87346683354E+007, +2.73676511521E+003, -2.43944617579E+002
+3.88596996245E+007, +2.75789344852E+003, -3.35347640315E+002
+3.89847309136E+007, +2.75393579462E+003, -3.40362993544E+002
+3.91097622028E+007, +2.77981873602E+003, -3.68305016043E+002
+3.92347934919E+007, +2.76186886308E+003, -4.28782372394E+002
+3.93598247810E+007, +2.77978497216E+003, -4.86694514188E+002
+3.94848560701E+007, +2.76415349522E+003, -5.11630433121E+002
+3.96098873592E+007, +2.75709123499E+003, -5.25064170860E+002
+3.97349186483E+007, +2.72198526462E+003, -5.65039892716E+002
+3.98599499374E+007, +2.73425314271E+003, -6.04254757640E+002
+3.99849812265E+007, +2.70706867397E+003, -6.96078190274E+002
+4.01100125156E+007, +2.69685647898E+003, -6.83253725607E+002
