"# Channel 1"
"# Trace 1"
Frequency, Formatted Data, Formatted Data
+1.00000000000E+005, +6.50394876280E+001, +2.57140870441E+000
+2.66777963272E+005, +6.49271321101E+001, +8.10399888126E+000
+4.33555926544E+005, +6.48493314470E+001, +1.31697219150E+001
+6.00333889816E+005, +6.49221566995E+001, +1.82868253221E+001
+7.67111853088E+005, +6.50156335231E+001, +2.32638051250E+001
+9.33889816361E+005, +6.49782196327E+001, +2.83955282047E+001
+1.10066777963E+006, +6.50740611148E+001, +3.37343260841E+001
+1.26744574290E+006, +6.50788943767E+001, +3.87108804107E+001
+1.43422370618E+006, +6.50869358624E+001, +4.39448651230E+001
+1.60100166945E+006, +6.51388533199E+001, +4.88534819924E+001
+1.76777963272E+006, +6.50967889206E+001, +5.39670293914E+001
+1.93455759599E+006, +6.50315113280E+001, +5.90832383863E+001
+2.10133555927E+006, +6.51345538383E+001, +6.42039467410E+001
+2.26811352254E+006, +6.51668632769E+001, +6.94291073644E+001
+2.43489148581E+006, +6.53881229805E+001, +7.46471061905E+001
+2.60166944908E+006, +6.51674478453E+001, +7.97588495222E+001
+2.76844741235E+006, +6.54318875638E+001, +8.50290674504E+001
+2.93522537563E+006, +6.54548979381E+001, +8.99877888704E+001
+3.10200333890E+006, +6.54669906089E+001, +9.48394229795E+001
+3.26878130217E+006, +6.54783224219E+001, +1.00529582372E+002
+3.43555926544E+006, +6.55574593639E+001, +1.05358136023E+002
+3.60233722871E+006, +6.57234215860E+001, +1.10692933048E+002
+3.76911519199E+006, +6.60272345501E+001, +1.15837339768E+002
+3.93589315526E+006, +6.60198683197E+001, +1.20477222716E+002
+4.10267111853E+006, +6.37097367759E+001, +1.26011005692E+002
+4.26944908180E+006, +6.64430793984E+001, +1.32554169399E+002
+4.43622704508E+006, +6.60601266973E+001, +1.36715269169E+002
+4.60300500835E+006, +6.64577192312E+001, +1.42238157975E+002
+4.76978297162E+006, +6.61691768554E+001, +1.47349439282E+002
+4.93656093489E+006, +6.65388964367E+001, +1.52482458509E+002
+5.10333889816E+006, +6.66733366793E+001, +1.57817379204E+002
+5.27011686144E+006, +6.70423701825E+001, +1.62838005712E+002
+5.43689482471E+006, +6.68231142691E+001, +1.68582011508E+002
+5.60367278798E+006, +6.72397772411E+001, +1.73786957681E+002
+5.77045075125E+006, +6.73896798001E+001, +1.78812842404E+002
+5.93722871452E+006, +6.79402752204E+001, +1.84193587000E+002
+6.10400667780E+006, +6.75534769860E+001, +1.89656244386E+002
+6.27078464107E+006, +6.80732782210E+001, +1.94775132530E+002
+6.43756260434E+006, +6.82694218302E+001, +1.99865915906E+002
+6.60434056761E+006, +6.83790001860E+001, +2.05270174056E+002
+6.77111853088E+006, +6.87879878627E+001, +2.10395344734E+002
+6.93789649416E+006, +6.89031069960E+001, +2.15920464122E+002
+7.10467445743E+006, +6.88938592057E+001, +2.21424645787E+002
+7.27145242070E+006, +6.88884833960E+001, +2.26629088100E+002
+7.43823038397E+006, +6.90750918371E+001, +2.31693742250E+002
+7.60500834725E+006, +6.91954892408E+001, +2.37274764913E+002
+7.77178631052E+006, +6.99092085130E+001, +2.42990145770E+002
+7.93856427379E+006, +6.93683920655E+001, +2.48302448212E+002
+8.10534223706E+006, +6.95498271805E+001, +2.54328246750E+002
+8.27212020033E+006, +6.96779918704E+001, +2.59649922381E+002
+8.43889816361E+006, +6.99646855234E+001, +2.65377405316E+002
+8.60567612688E+006, +6.98889591882E+001, +2.71509838784E+002
+8.77245409015E+006, +6.96589971345E+001, +2.76527898492E+002
+8.93923205342E+006, +7.01461788837E+001, +2.82560626298E+002
+9.10601001669E+006, +7.01690506868E+001, +2.88758858914E+002
+9.27278797997E+006, +7.07120222721E+001, +2.94222633026E+002
+9.43956594324E+006, +7.03111142055E+001, +3.00129188558E+002
+9.60634390651E+006, +7.05104203199E+001, +3.06203232269E+002
+9.77312186978E+006, +7.08875176930E+001, +3.11868887814E+002
+9.93989983306E+006, +7.14517584822E+001, +3.18418726919E+002
+1.01066777963E+007, +7.11777229823E+001, +3.24068635715E+002
+1.02734557596E+007, +7.16428800454E+001, +3.30704360388E+002
+1.04402337229E+007, +7.13356404248E+001, +3.36250279550E+002
+1.06070116861E+007, +7.16722999132E+001, +3.41798365125E+002
+1.07737896494E+007, +7.23247480085E+001, +3.48948813849E+002
+1.09405676127E+007, +7.28648896345E+001, +3.54421124366E+002
+1.11073455760E+007, +7.32634882935E+001, +3.61201587894E+002
+1.12741235392E+007, +7.35751833292E+001, +3.66589657178E+002
+1.14409015025E+007, +7.38768359509E+001, +3.72721652782E+002
+1.16076794658E+007, +7.34846789962E+001, +3.78771147598E+002
+1.17744574290E+007, +7.48788256359E+001, +3.86757825574E+002
+1.19412353923E+007, +7.44175994879E+001, +3.92616919599E+002
+1.21080133556E+007, +7.42964408590E+001, +3.99010751920E+002
+1.22747913189E+007, +7.55736032544E+001, +4.05459838898E+002
+1.24415692821E+007, +7.52076987931E+001, +4.12071933266E+002
+1.26083472454E+007, +7.50705607309E+001, +4.18975789929E+002
+1.27751252087E+007, +7.69664232753E+001, +4.25464350951E+002
+1.29419031720E+007, +7.60304620699E+001, +4.31284693371E+002
+1.31086811352E+007, +7.74985249600E+001, +4.37739428260E+002
+1.32754590985E+007, +7.70429473562E+001, +4.45577395842E+002
+1.34422370618E+007, +7.79720613962E+001, +4.52716692361E+002
+1.36090150250E+007, +7.93479389770E+001, +4.58344002303E+002
+1.37757929883E+007, +7.79131038277E+001, +4.65744104701E+002
+1.39425709516E+007, +7.88926716013E+001, +4.71941269498E+002
+1.41093489149E+007, +8.02772377200E+001, +4.79308379880E+002
+1.42761268781E+007, +8.05205072815E+001, +4.85978038645E+002
+1.44429048414E+007, +8.08663100995E+001, +4.93314039017E+002
+1.46096828047E+007, +8.17541097919E+001, +5.01009563451E+002
+1.47764607679E+007, +8.20397032956E+001, +5.07187957344E+002
+1.49432387312E+007, +8.23179542389E+001, +5.14927987828E+002
+1.51100166945E+007, +8.38290930584E+001, +5.23100759106E+002
+1.52767946578E+007, +8.37706386737E+001, +5.30265967763E+002
+1.54435726210E+007, +8.51998178043E+001, +5.37173417116E+002
+1.56103505843E+007, +8.60649368893E+001, +5.44818069280E+002
+1.57771285476E+007, +8.48490974622E+001, +5.51775236539E+002
+1.59439065109E+007, +8.74094820759E+001, +5.59233615051E+002
+1.61106844741E+007, +8.70733105119E+001, +5.66943894249E+002
+1.62774624374E+007, +8.96435643554E+001, +5.72988504389E+002
+1.64442404007E+007, +8.87723444195E+001, +5.81371578284E+002
+1.66110183639E+007, +8.98596987349E+001, +5.89357058989E+002
+1.67777963272E+007, +9.02351557278E+001, +5.99008338427E+002
+1.69445742905E+007, +9.13954495155E+001, +6.05611923198E+002
+1.71113522538E+007, +8.84267543986E+001, +6.14344046686E+002
+1.72781302170E+007, +9.12002786427E+001, +6.23678325987E+002
+1.74449081803E+007, +8.96751163327E+001, +6.30584083063E+002
+1.76116861436E+007, +9.17857140881E+001, +6.37927579710E+002
+1.77784641068E+007, +9.41710733509E+001, +6.45644451649E+002
+1.79452420701E+007, +9.37533102018E+001, +6.55539823252E+002
+1.81120200334E+007, +9.37117473238E+001, +6.62342613473E+002
+1.82787979967E+007, +9.65784518127E+001, +6.72220369442E+002
+1.84455759599E+007, +9.77030589490E+001, +6.79949240102E+002
+1.86123539232E+007, +9.96347910550E+001, +6.88867665150E+002
+1.87791318865E+007, +9.78629184163E+001, +6.99775221507E+002
+1.89459098497E+007, +9.86589386546E+001, +7.09630190193E+002
+1.91126878130E+007, +9.91952386571E+001, +7.16780635049E+002
+1.92794657763E+007, +1.02321931773E+002, +7.27443770941E+002
+1.94462437396E+007, +1.04110833799E+002, +7.38013812001E+002
+1.96130217028E+007, +1.05012433093E+002, +7.45493775862E+002
+1.97797996661E+007, +1.07068972169E+002, +7.51085995876E+002
+1.99465776294E+007, +1.01918792317E+002, +7.63776099573E+002
+2.01133555927E+007, +1.06481905140E+002, +7.76070061755E+002
+2.02801335559E+007, +1.10446177971E+002, +7.83560710114E+002
+2.04469115192E+007, +1.11762662695E+002, +7.94196532714E+002
+2.06136894825E+007, +1.11723236557E+002, +8.05075612065E+002
+2.07804674457E+007, +1.15419256900E+002, +8.15405679151E+002
+2.09472454090E+007, +1.13689166580E+002, +8.28412086185E+002
+2.11140233723E+007, +1.17032984183E+002, +8.37325618872E+002
+2.12808013356E+007, +1.17754219267E+002, +8.46648091095E+002
+2.14475792988E+007, +1.20410988824E+002, +8.58761603305E+002
+2.16143572621E+007, +1.21986637255E+002, +8.68185280687E+002
+2.17811352254E+007, +1.23378705325E+002, +8.76915786600E+002
+2.19479131886E+007, +1.26900972388E+002, +8.89970851627E+002
+2.21146911519E+007, +1.30250929428E+002, +8.95711698380E+002
+2.22814691152E+007, +1.29188174273E+002, +9.14578739366E+002
+2.24482470785E+007, +1.29840008844E+002, +9.32038118132E+002
+2.26150250417E+007, +1.38096651092E+002, +9.40104621682E+002
+2.27818030050E+007, +1.35694823717E+002, +9.46861238331E+002
+2.29485809683E+007, +1.43974450994E+002, +9.60083769279E+002
+2.31153589316E+007, +1.41259349783E+002, +9.73655440721E+002
+2.32821368948E+007, +1.49354397296E+002, +9.87101928690E+002
+2.34489148581E+007, +1.48696324476E+002, +9.94983953694E+002
+2.36156928214E+007, +1.55235542464E+002, +1.01476065206E+003
+2.37824707846E+007, +1.60072664502E+002, +1.02551745315E+003
+2.39492487479E+007, +1.57305086929E+002, +1.03525121722E+003
+2.41160267112E+007, +1.61146620719E+002, +1.04969036136E+003
+2.42828046745E+007, +1.62275341565E+002, +1.06619073396E+003
+2.44495826377E+007, +1.72194093354E+002, +1.07459235333E+003
+2.46163606010E+007, +1.70515256115E+002, +1.08816850921E+003
+2.47831385643E+007, +1.73857763822E+002, +1.10713000827E+003
+2.49499165275E+007, +1.84641418960E+002, +1.11764995742E+003
+2.51166944908E+007, +1.87763176610E+002, +1.13120105713E+003
+2.52834724541E+007, +1.86900790485E+002, +1.14481202143E+003
+2.54502504174E+007, +1.96370790270E+002, +1.16689665027E+003
+2.56170283806E+007, +1.93919050279E+002, +1.17990886395E+003
+2.57838063439E+007, +2.02688340914E+002, +1.19444387108E+003
+2.59505843072E+007, +2.08368793134E+002, +1.21089799474E+003
+2.61173622705E+007, +2.08198127681E+002, +1.22295005628E+003
+2.62841402337E+007, +2.16778672414E+002, +1.24053618870E+003
+2.64509181970E+007, +2.14087043843E+002, +1.25721250969E+003
+2.66176961603E+007, +2.26809658135E+002, +1.27722679083E+003
+2.67844741235E+007, +2.29577189306E+002, +1.28746097631E+003
+2.69512520868E+007, +2.40162145585E+002, +1.31490140218E+003
+2.71180300501E+007, +2.43773700771E+002, +1.31489272176E+003
+2.72848080134E+007, +2.50091878598E+002, +1.33636071441E+003
+2.74515859766E+007, +2.57444169571E+002, +1.35076667647E+003
+2.76183639399E+007, +2.47255933537E+002, +1.36315352729E+003
+2.77851419032E+007, +2.57018026819E+002, +1.38061128452E+003
+2.79519198664E+007, +2.62734904530E+002, +1.39447924709E+003
+2.81186978297E+007, +2.64673073517E+002, +1.41200921314E+003
+2.82854757930E+007, +2.82063890847E+002, +1.43128321926E+003
+2.84522537563E+007, +2.69946454772E+002, +1.45970190898E+003
+2.86190317195E+007, +2.73079774038E+002, +1.47910830038E+003
+2.87858096828E+007, +3.01037422179E+002, +1.49522127879E+003
+2.89525876461E+007, +2.97626362022E+002, +1.50833393945E+003
+2.91193656093E+007, +2.97430622329E+002, +1.53187661635E+003
+2.92861435726E+007, +3.07711656465E+002, +1.55860641260E+003
+2.94529215359E+007, +3.09134868302E+002, +1.57984026242E+003
+2.96196994992E+007, +3.18977860854E+002, +1.59963363298E+003
+2.97864774624E+007, +3.33059656082E+002, +1.61468461522E+003
+2.99532554257E+007, +3.51123375558E+002, +1.64135084009E+003
+3.01200333890E+007, +3.42571760497E+002, +1.67547918229E+003
+3.02868113523E+007, +3.38690777490E+002, +1.70146315493E+003
+3.04535893155E+007, +3.52388671008E+002, +1.74830244948E+003
+3.06203672788E+007, +3.65915480957E+002, +1.75345369579E+003
+3.07871452421E+007, +3.68236326455E+002, +1.78625923526E+003
+3.09539232053E+007, +3.87713096652E+002, +1.80825364523E+003
+3.11207011686E+007, +3.92266364636E+002, +1.86262083680E+003
+3.12874791319E+007, +3.89651779033E+002, +1.86517589404E+003
+3.14542570952E+007, +4.04889367113E+002, +1.91102878264E+003
+3.16210350584E+007, +4.06593045307E+002, +1.94584632467E+003
+3.17878130217E+007, +4.00557947134E+002, +1.98408582010E+003
+3.19545909850E+007, +4.32656902599E+002, +1.99761169772E+003
+3.21213689482E+007, +4.28132535529E+002, +2.06065979582E+003
+3.22881469115E+007, +4.26120438070E+002, +2.08799593308E+003
+3.24549248748E+007, +4.56535820871E+002, +2.12421756734E+003
+3.26217028381E+007, +4.61173141071E+002, +2.17170864005E+003
+3.27884808013E+007, +4.91085947202E+002, +2.22835209802E+003
+3.29552587646E+007, +4.89566302959E+002, +2.24891502394E+003
+3.31220367279E+007, +5.20656740751E+002, +2.27653403165E+003
+3.32888146912E+007, +5.53654019325E+002, +2.36984403336E+003
+3.34555926544E+007, +5.47148498971E+002, +2.38599780975E+003
+3.36223706177E+007, +5.92014536860E+002, +2.44868498955E+003
+3.37891485810E+007, +5.66853166199E+002, +2.46194476937E+003
+3.39559265442E+007, +6.02164228410E+002, +2.56085541164E+003
+3.41227045075E+007, +6.08040324186E+002, +2.57775797117E+003
+3.42894824708E+007, +6.62040465403E+002, +2.65997710702E+003
+3.44562604341E+007, +6.78935122783E+002, +2.70637851081E+003
+3.46230383973E+007, +7.28913408084E+002, +2.78005891681E+003
+3.47898163606E+007, +7.64263299723E+002, +2.84088634823E+003
+3.49565943239E+007, +7.86845681583E+002, +2.89751759469E+003
+3.51233722871E+007, +7.96466766372E+002, +2.99360524229E+003
+3.52901502504E+007, +8.35591289318E+002, +2.98230239510E+003
+3.54569282137E+007, +9.01563634535E+002, +3.12009017603E+003
+3.56237061770E+007, +9.25396473394E+002, +3.22116056561E+003
+3.57904841402E+007, +9.13957171935E+002, +3.29470432902E+003
+3.59572621035E+007, +1.06802246625E+003, +3.39113289211E+003
+3.61240400668E+007, +1.06717802590E+003, +3.47873129811E+003
+3.62908180301E+007, +1.21947374808E+003, +3.61082881242E+003
+3.64575959933E+007, +1.20073459511E+003, +3.68793249383E+003
+3.66243739566E+007, +1.28439078778E+003, +3.75675496760E+003
+3.67911519199E+007, +1.40646283642E+003, +3.85518053595E+003
+3.69579298831E+007, +1.39544565422E+003, +3.96101552239E+003
+3.71247078464E+007, +1.53221974033E+003, +4.16119587247E+003
+3.72914858097E+007, +1.62234958031E+003, +4.33918761901E+003
+3.74582637730E+007, +1.83293813587E+003, +4.53404922210E+003
+3.76250417362E+007, +1.97198202938E+003, +4.61144532245E+003
+3.77918196995E+007, +2.04715356012E+003, +4.83349636891E+003
+3.79585976628E+007, +2.22496623290E+003, +4.98258488135E+003
+3.81253756260E+007, +2.41861817324E+003, +5.00721633282E+003
+3.82921535893E+007, +2.69321884718E+003, +4.92133496887E+003
+3.84589315526E+007, +2.87491185228E+003, +5.34430911886E+003
+3.86257095159E+007, +3.24250787275E+003, +5.47304420416E+003
+3.87924874791E+007, +3.33774637513E+003, +5.78349418052E+003
+3.89592654424E+007, +3.79683563376E+003, +5.82962465058E+003
+3.91260434057E+007, +4.31244974169E+003, +6.27929764529E+003
+3.92928213689E+007, +4.77367079323E+003, +6.24549887197E+003
+3.94595993322E+007, +5.19531611968E+003, +6.56322641002E+003
+3.96263772955E+007, +5.75378240906E+003, +6.89584032019E+003
+3.97931552588E+007, +6.23975451582E+003, +6.75818357417E+003
+3.99599332220E+007, +7.21531824920E+003, +6.62544664618E+003
+4.01267111853E+007, +8.39813229468E+003, +6.36688363072E+003
+4.02934891486E+007, +8.82047874756E+003, +6.41472559592E+003
+4.04602671119E+007, +9.47447822314E+003, +5.29019295548E+003
+4.06270450751E+007, +1.05629152313E+004, +4.86113302548E+003
+4.07938230384E+007, +1.12839598416E+004, +4.14808363802E+003
+4.09606010017E+007, +1.20641435157E+004, +2.85107633938E+003
+4.11273789649E+007, +1.23822174289E+004, +2.36158441087E+003
+4.12941569282E+007, +1.25419093261E+004, +7.17816161794E+002
+4.14609348915E+007, +1.26515532678E+004, -1.93706658323E+003
+4.16277128548E+007, +1.19646606826E+004, -2.74114630894E+003
+4.17944908180E+007, +1.15029892951E+004, -3.47928567068E+003
+4.19612687813E+007, +1.11583173237E+004, -4.07730944066E+003
+4.21280467446E+007, +9.39075973273E+003, -5.25232012014E+003
+4.22948247078E+007, +9.24134207118E+003, -5.56479593957E+003
+4.24616026711E+007, +8.58450204082E+003, -5.88670288597E+003
+4.26283806344E+007, +7.61269893809E+003, -5.76349356136E+003
+4.27951585977E+007, +6.69275710069E+003, -6.89896536920E+003
+4.29619365609E+007, +6.28699329985E+003, -6.01797964508E+003
+4.31287145242E+007, +5.38679344493E+003, -5.96380470024E+003
+4.32954924875E+007, +4.99489853320E+003, -6.26377444516E+003
+4.34622704508E+007, +4.41062234794E+003, -6.03129806439E+003
+4.36290484140E+007, +3.98685092578E+003, -5.68160642347E+003
+4.37958263773E+007, +3.41802380013E+003, -5.62045988289E+003
+4.39626043406E+007, +3.38772658643E+003, -5.45088922617E+003
+4.41293823038E+007, +3.11246219168E+003, -5.12203743107E+003
+4.42961602671E+007, +2.68521349094E+003, -5.06704118153E+003
+4.44629382304E+007, +2.54904998372E+003, -5.06147546688E+003
+4.46297161937E+007, +2.37814008348E+003, -4.79853640431E+003
+4.47964941569E+007, +2.06936715815E+003, -4.67313867936E+003
+4.49632721202E+007, +1.88309413462E+003, -4.42329080901E+003
+4.51300500835E+007, +1.89254712776E+003, -4.35388369945E+003
+4.52968280467E+007, +1.69643740659E+003, -4.23727014018E+003
+4.54636060100E+007, +1.53970431010E+003, -3.99391278734E+003
+4.56303839733E+007, +1.43844056848E+003, -3.86309803770E+003
+4.57971619366E+007, +1.38435670496E+003, -3.77714270497E+003
+4.59639398998E+007, +1.21772120289E+003, -3.58720229690E+003
+4.61307178631E+007, +1.17709627856E+003, -3.46143330413E+003
+4.62974958264E+007, +1.15768827391E+003, -3.36796717795E+003
+4.64642737896E+007, +1.05560425255E+003, -3.27929682848E+003
+4.66310517529E+007, +9.73663524949E+002, -3.17617242379E+003
+4.67978297162E+007, +1.00624599684E+003, -3.13013444114E+003
+4.69646076795E+007, +9.14001362302E+002, -3.01946949095E+003
+4.71313856427E+007, +8.94004137599E+002, -2.91371749185E+003
+4.72981636060E+007, +7.99043448724E+002, -2.86680388207E+003
+4.74649415693E+007, +7.91540792350E+002, -2.80614310552E+003
+4.76317195326E+007, +8.34860093648E+002, -2.70526178558E+003
+4.77984974958E+007, +7.61699595241E+002, -2.60563543361E+003
+4.79652754591E+007, +7.24975976604E+002, -2.55612535943E+003
+4.81320534224E+007, +7.27484783426E+002, -2.49260689410E+003
+4.82988313856E+007, +6.80312078469E+002, -2.43750437662E+003
+4.84656093489E+007, +6.75463004990E+002, -2.36699859936E+003
+4.86323873122E+007, +6.74094383454E+002, -2.32994510226E+003
+4.87991652755E+007, +6.25452941111E+002, -2.27279545896E+003
+4.89659432387E+007, +6.21317591221E+002, -2.22618515173E+003
+4.91327212020E+007, +5.94993253223E+002, -2.17039857902E+003
+4.92994991653E+007, +6.08350034314E+002, -2.13196397963E+003
+4.94662771285E+007, +5.78160323740E+002, -2.07129618938E+003
+4.96330550918E+007, +5.78757546621E+002, -2.03812894001E+003
+4.97998330551E+007, +5.76420150335E+002, -2.00242582504E+003
+4.99666110184E+007, +5.49013499941E+002, -1.95955560645E+003
+5.01333889816E+007, +5.28978763009E+002, -1.94626920695E+003
+5.03001669449E+007, +5.27164177029E+002, -1.90920713416E+003
+5.04669449082E+007, +5.13162965378E+002, -1.86889745764E+003
+5.06337228715E+007, +4.89159681780E+002, -1.82506953966E+003
+5.08005008347E+007, +4.67986970975E+002, -1.81816825706E+003
+5.09672787980E+007, +4.79016464589E+002, -1.78086771691E+003
+5.11340567613E+007, +4.56003715306E+002, -1.74893842813E+003
+5.13008347245E+007, +4.27508241866E+002, -1.72854234082E+003
+5.14676126878E+007, +4.22066967595E+002, -1.70259025573E+003
+5.16343906511E+007, +4.17292552643E+002, -1.64159912099E+003
+5.18011686144E+007, +3.91327513656E+002, -1.63448423201E+003
+5.19679465776E+007, +3.87550390640E+002, -1.60394768872E+003
+5.21347245409E+007, +3.76138171250E+002, -1.56774728301E+003
+5.23015025042E+007, +3.59340171500E+002, -1.52046875985E+003
+5.24682804674E+007, +3.41151507919E+002, -1.50585072063E+003
+5.26350584307E+007, +3.33897550499E+002, -1.47777988814E+003
+5.28018363940E+007, +3.24309252521E+002, -1.45572251557E+003
+5.29686143573E+007, +3.12868524507E+002, -1.42653654817E+003
+5.31353923205E+007, +3.17143844503E+002, -1.40602613340E+003
+5.33021702838E+007, +3.07099992590E+002, -1.37531179395E+003
+5.34689482471E+007, +3.08952193018E+002, -1.33676106087E+003
