"# Channel 1"
"# Trace 1"
Frequency, Formatted Data, Formatted Data
+1.00000000000E+005, +6.59675641460E+001, +2.74465818754E+000
+2.25031289111E+005, +6.59177987385E+001, +6.65045808394E+000
+3.50062578223E+005, +6.58752609105E+001, +1.03777098075E+001
+4.75093867334E+005, +6.58889864156E+001, +1.40391017013E+001
+6.00125156446E+005, +6.57849651051E+001, +1.77477902554E+001
+7.25156445557E+005, +6.58908876545E+001, +2.14774460586E+001
+8.50187734668E+005, +6.60322998537E+001, +2.51996408388E+001
+9.75219023780E+005, +6.59776149493E+001, +2.88297110365E+001
+1.10025031289E+006, +6.59937172430E+001, +3.25285549882E+001
+1.22528160200E+006, +6.59176267747E+001, +3.61316590402E+001
+1.35031289111E+006, +6.60393795057E+001, +3.98941487694E+001
+1.47534418023E+006, +6.60051085404E+001, +4.35370706879E+001
+1.60037546934E+006, +6.58766944465E+001, +4.71726916805E+001
+1.72540675845E+006, +6.60182343445E+001, +5.09662164454E+001
+1.85043804756E+006, +6.60467013110E+001, +5.45488535757E+001
+1.97546933667E+006, +6.59547637790E+001, +5.82575084281E+001
+2.10050062578E+006, +6.59451275799E+001, +6.19157567760E+001
+2.22553191489E+006, +6.59795317993E+001, +6.55931090730E+001
+2.35056320401E+006, +6.59966529059E+001, +6.93858943549E+001
+2.47559449312E+006, +6.60673362815E+001, +7.30665542465E+001
+2.60062578223E+006, +6.60509004147E+001, +7.68360573465E+001
+2.72565707134E+006, +6.62074955553E+001, +8.05720902176E+001
+2.85068836045E+006, +6.58871683068E+001, +8.42971638292E+001
+2.97571964956E+006, +6.60905491362E+001, +8.77411550267E+001
+3.10075093867E+006, +6.61178599614E+001, +9.16386011657E+001
+3.22578222778E+006, +6.60209003296E+001, +9.54827595680E+001
+3.35081351690E+006, +6.61686698616E+001, +9.91347944809E+001
+3.47584480601E+006, +6.63171030468E+001, +1.02837476055E+002
+3.60087609512E+006, +6.61336330201E+001, +1.06434707496E+002
+3.72590738423E+006, +6.62741866801E+001, +1.10157248188E+002
+3.85093867334E+006, +6.63180667087E+001, +1.13987651068E+002
+3.97596996245E+006, +6.63883164716E+001, +1.17458731647E+002
+4.10100125156E+006, +6.63490562609E+001, +1.21384318433E+002
+4.22603254068E+006, +6.63136903706E+001, +1.25337322219E+002
+4.35106382979E+006, +6.63044886267E+001, +1.28855962266E+002
+4.47609511890E+006, +6.66311807460E+001, +1.32633272752E+002
+4.60112640801E+006, +6.66158384439E+001, +1.36191645114E+002
+4.72615769712E+006, +6.66026936606E+001, +1.39905328542E+002
+4.85118898623E+006, +6.62072016801E+001, +1.44050034642E+002
+4.97622027534E+006, +6.68320315215E+001, +1.47760638197E+002
+5.10125156446E+006, +6.68825252362E+001, +1.51517559732E+002
+5.22628285357E+006, +6.67617935449E+001, +1.55401882879E+002
+5.35131414268E+006, +6.70510317611E+001, +1.59149146691E+002
+5.47634543179E+006, +6.65543377881E+001, +1.63543872656E+002
+5.60137672090E+006, +6.69229445903E+001, +1.66798225281E+002
+5.72640801001E+006, +6.71431242251E+001, +1.70794317078E+002
+5.85143929912E+006, +6.70897885758E+001, +1.74952558519E+002
+5.97647058824E+006, +6.69473543414E+001, +1.78050413084E+002
+6.10150187735E+006, +6.71435082911E+001, +1.81833037704E+002
+6.22653316646E+006, +6.77849728659E+001, +1.85804549241E+002
+6.35156445557E+006, +6.77137868817E+001, +1.89682344449E+002
+6.47659574468E+006, +6.78836910231E+001, +1.93706302484E+002
+6.60162703379E+006, +6.76930492750E+001, +1.97602651365E+002
+6.72665832290E+006, +6.79206890113E+001, +2.01282661585E+002
+6.85168961202E+006, +6.80794168256E+001, +2.05034854140E+002
+6.97672090113E+006, +6.86699864132E+001, +2.09137266894E+002
+7.10175219024E+006, +6.85821394949E+001, +2.13248137170E+002
+7.22678347935E+006, +6.89935907118E+001, +2.16924390969E+002
+7.35181476846E+006, +6.86112032827E+001, +2.20907701507E+002
+7.47684605757E+006, +6.90404518733E+001, +2.24820497534E+002
+7.60187734668E+006, +6.93044771100E+001, +2.28822648945E+002
+7.72690863579E+006, +6.90973253751E+001, +2.32926794934E+002
+7.85193992491E+006, +6.87446929422E+001, +2.36828855615E+002
+7.97697121402E+006, +6.95960279114E+001, +2.40844979982E+002
+8.10200250313E+006, +6.94603856974E+001, +2.44526622154E+002
+8.22703379224E+006, +6.95308041724E+001, +2.48642385229E+002
+8.35206508135E+006, +6.98266310852E+001, +2.53071406235E+002
+8.47709637046E+006, +6.98590193016E+001, +2.56721629094E+002
+8.60212765957E+006, +7.00198420985E+001, +2.60933059801E+002
+8.72715894869E+006, +7.02478027950E+001, +2.65420089847E+002
+8.85219023780E+006, +7.02303807631E+001, +2.69304104405E+002
+8.97722152691E+006, +7.06959396391E+001, +2.73061554153E+002
+9.10225281602E+006, +7.00182832327E+001, +2.77190860424E+002
+9.22728410513E+006, +7.07142308393E+001, +2.81035211271E+002
+9.35231539424E+006, +7.05305740010E+001, +2.85614102961E+002
+9.47734668335E+006, +7.09748230173E+001, +2.89572074782E+002
+9.60237797247E+006, +7.16291099110E+001, +2.93788389215E+002
+9.72740926158E+006, +7.08655256030E+001, +2.98120286046E+002
+9.85244055069E+006, +7.10136850019E+001, +3.02246711109E+002
+9.97747183980E+006, +7.14762864905E+001, +3.06270495618E+002
+1.01025031289E+007, +7.18418330072E+001, +3.10071584741E+002
+1.02275344180E+007, +7.21076576373E+001, +3.14380836654E+002
+1.03525657071E+007, +7.18037779982E+001, +3.18671417904E+002
+1.04775969962E+007, +7.19787258982E+001, +3.23934465381E+002
+1.06026282854E+007, +7.16272435873E+001, +3.28070743102E+002
+1.07276595745E+007, +7.23741501456E+001, +3.31687692968E+002
+1.08526908636E+007, +7.24135154111E+001, +3.35653204691E+002
+1.09777221527E+007, +7.28869043240E+001, +3.40261327220E+002
+1.11027534418E+007, +7.29938279111E+001, +3.44181431874E+002
+1.12277847309E+007, +7.30044733969E+001, +3.49289626571E+002
+1.13528160200E+007, +7.26326813221E+001, +3.53877742338E+002
+1.14778473091E+007, +7.32092522018E+001, +3.58231310023E+002
+1.16028785982E+007, +7.37013628455E+001, +3.62678962885E+002
+1.17279098874E+007, +7.32179523406E+001, +3.67073984212E+002
+1.18529411765E+007, +7.33864070342E+001, +3.71203214185E+002
+1.19779724656E+007, +7.43808228314E+001, +3.76521833463E+002
+1.21030037547E+007, +7.38626259772E+001, +3.80275556646E+002
+1.22280350438E+007, +7.43982492090E+001, +3.85107598608E+002
+1.23530663329E+007, +7.40877984072E+001, +3.89406566712E+002
+1.24780976220E+007, +7.45300500105E+001, +3.94336152306E+002
+1.26031289111E+007, +7.53060746838E+001, +3.98566232538E+002
+1.27281602003E+007, +7.46960397615E+001, +4.04135675899E+002
+1.28531914894E+007, +7.50851215206E+001, +4.07624711741E+002
+1.29782227785E+007, +7.54319812466E+001, +4.11707045492E+002
+1.31032540676E+007, +7.52696828234E+001, +4.17371421230E+002
+1.32282853567E+007, +7.56275419283E+001, +4.21476642219E+002
+1.33533166458E+007, +7.52233000447E+001, +4.26765752868E+002
+1.34783479349E+007, +7.63911368536E+001, +4.30949493796E+002
+1.36033792240E+007, +7.67195208872E+001, +4.36110355409E+002
+1.37284105131E+007, +7.73970361283E+001, +4.40431528444E+002
+1.38534418023E+007, +7.69452765608E+001, +4.45276056119E+002
+1.39784730914E+007, +7.74480392967E+001, +4.50701107651E+002
+1.41035043805E+007, +7.78805672392E+001, +4.54938027490E+002
+1.42285356696E+007, +7.75436958391E+001, +4.60159415438E+002
+1.43535669587E+007, +7.79194295840E+001, +4.65297468372E+002
+1.44785982478E+007, +7.88002188764E+001, +4.69733210682E+002
+1.46036295369E+007, +7.83319007783E+001, +4.75650135935E+002
+1.47286608260E+007, +7.89252629628E+001, +4.80241784850E+002
+1.48536921151E+007, +7.90358456347E+001, +4.83780912914E+002
+1.49787234043E+007, +8.02173413002E+001, +4.90199189251E+002
+1.51037546934E+007, +7.96513756077E+001, +4.95650110548E+002
+1.52287859825E+007, +8.00865284967E+001, +5.00786649031E+002
+1.53538172716E+007, +8.02193011027E+001, +5.04581710577E+002
+1.54788485607E+007, +8.15303096088E+001, +5.10708939194E+002
+1.56038798498E+007, +8.00840245906E+001, +5.15136847401E+002
+1.57289111389E+007, +8.13051441015E+001, +5.21503354659E+002
+1.58539424280E+007, +8.04413889081E+001, +5.25192445441E+002
+1.59789737171E+007, +8.01516283744E+001, +5.30134551830E+002
+1.61040050063E+007, +8.17799945516E+001, +5.37179245334E+002
+1.62290362954E+007, +8.16258365229E+001, +5.40509468123E+002
+1.63540675845E+007, +8.26514081643E+001, +5.46978818439E+002
+1.64790988736E+007, +8.45691640498E+001, +5.52267451451E+002
+1.66041301627E+007, +8.41714586200E+001, +5.57451549724E+002
+1.67291614518E+007, +8.25594907866E+001, +5.62893735975E+002
+1.68541927409E+007, +8.41996455481E+001, +5.70108513012E+002
+1.69792240300E+007, +8.35714336113E+001, +5.76061590595E+002
+1.71042553191E+007, +8.13357158511E+001, +5.82218091461E+002
+1.72292866083E+007, +8.43932669959E+001, +5.87999734655E+002
+1.73543178974E+007, +8.20938804605E+001, +5.93035779111E+002
+1.74793491865E+007, +8.47529751589E+001, +5.98964499446E+002
+1.76043804756E+007, +8.70602945063E+001, +6.02947341116E+002
+1.77294117647E+007, +8.64550124874E+001, +6.08648431741E+002
+1.78544430538E+007, +8.58889607372E+001, +6.15316411221E+002
+1.79794743429E+007, +8.75450715080E+001, +6.23421377796E+002
+1.81045056320E+007, +8.62587521079E+001, +6.29271880479E+002
+1.82295369212E+007, +8.74448327078E+001, +6.34531651692E+002
+1.83545682103E+007, +8.87433082781E+001, +6.38700420863E+002
+1.84795994994E+007, +8.81130442505E+001, +6.48401930488E+002
+1.86046307885E+007, +9.12388411447E+001, +6.50287847251E+002
+1.87296620776E+007, +8.91890665834E+001, +6.57549342123E+002
+1.88546933667E+007, +9.08169506975E+001, +6.64412622276E+002
+1.89797246558E+007, +9.34290308946E+001, +6.71700104723E+002
+1.91047559449E+007, +9.13145217775E+001, +6.76672682264E+002
+1.92297872340E+007, +9.16877017635E+001, +6.82190422954E+002
+1.93548185232E+007, +9.29962473489E+001, +6.92232844797E+002
+1.94798498123E+007, +9.21027454634E+001, +6.98930204754E+002
+1.96048811014E+007, +9.50829170582E+001, +7.00272906095E+002
+1.97299123905E+007, +9.37511462558E+001, +7.09263228941E+002
+1.98549436796E+007, +9.61130977855E+001, +7.16878941072E+002
+1.99799749687E+007, +9.40556731246E+001, +7.23721021244E+002
+2.01050062578E+007, +9.67169097202E+001, +7.30052904849E+002
+2.02300375469E+007, +9.68757267884E+001, +7.34152289938E+002
+2.03550688360E+007, +9.77860697515E+001, +7.43257288739E+002
+2.04801001252E+007, +9.73586161971E+001, +7.49042356611E+002
+2.06051314143E+007, +9.54909140817E+001, +7.58463361532E+002
+2.07301627034E+007, +9.68454388428E+001, +7.65481575689E+002
+2.08551939925E+007, +1.00574192160E+002, +7.74306214059E+002
+2.09802252816E+007, +1.00588316603E+002, +7.78890866454E+002
+2.11052565707E+007, +1.02855219106E+002, +7.86389109521E+002
+2.12302878598E+007, +1.02233269365E+002, +7.93240597597E+002
+2.13553191489E+007, +1.04692878155E+002, +8.02383146992E+002
+2.14803504380E+007, +1.05877801531E+002, +8.10848751555E+002
+2.16053817272E+007, +1.06519711811E+002, +8.16252093461E+002
+2.17304130163E+007, +1.07640865663E+002, +8.23815836433E+002
+2.18554443054E+007, +1.09424467274E+002, +8.35687080715E+002
+2.19804755945E+007, +1.09184224897E+002, +8.39582916590E+002
+2.21055068836E+007, +1.10715022648E+002, +8.48427927594E+002
+2.22305381727E+007, +1.14136321855E+002, +8.57409020082E+002
+2.23555694618E+007, +1.10796170353E+002, +8.62818803214E+002
+2.24806007509E+007, +1.11953468154E+002, +8.71159990051E+002
+2.26056320401E+007, +1.17968040906E+002, +8.79879024334E+002
+2.27306633292E+007, +1.19408626491E+002, +8.88104372733E+002
+2.28556946183E+007, +1.21650176013E+002, +8.93382758788E+002
+2.29807259074E+007, +1.21866174788E+002, +9.07051761858E+002
+2.31057571965E+007, +1.20065643400E+002, +9.04335861767E+002
+2.32307884856E+007, +1.26639474772E+002, +9.15501989319E+002
+2.33558197747E+007, +1.28311741619E+002, +9.26616913865E+002
+2.34808510638E+007, +1.27758716736E+002, +9.35660643459E+002
+2.36058823529E+007, +1.33800067098E+002, +9.42973149708E+002
+2.37309136421E+007, +1.33199699628E+002, +9.45281071686E+002
+2.38559449312E+007, +1.37202402804E+002, +9.56833140425E+002
+2.39809762203E+007, +1.31039728655E+002, +9.60305711857E+002
+2.41060075094E+007, +1.36694677093E+002, +9.74213815648E+002
+2.42310387985E+007, +1.37427182333E+002, +9.82279127851E+002
+2.43560700876E+007, +1.42022507014E+002, +9.92708486159E+002
+2.44811013767E+007, +1.40790149074E+002, +9.97377050756E+002
+2.46061326658E+007, +1.41976288398E+002, +9.99055588921E+002
+2.47311639549E+007, +1.42550204870E+002, +1.00715121289E+003
+2.48561952441E+007, +1.42684987696E+002, +1.01646955730E+003
+2.49812265332E+007, +1.46373466734E+002, +1.02732641243E+003
+2.51062578223E+007, +1.46749484760E+002, +1.03569169924E+003
+2.52312891114E+007, +1.41932078578E+002, +1.04720241556E+003
+2.53563204005E+007, +1.45908705178E+002, +1.05618633005E+003
+2.54813516896E+007, +1.46375811047E+002, +1.06487267095E+003
+2.56063829787E+007, +1.42990576337E+002, +1.08346019231E+003
+2.57314142678E+007, +1.43920193191E+002, +1.08885264682E+003
+2.58564455569E+007, +1.50365688188E+002, +1.09854171249E+003
+2.59814768461E+007, +1.42453933562E+002, +1.10957489795E+003
+2.61065081352E+007, +1.54580752609E+002, +1.12786605106E+003
+2.62315394243E+007, +1.50030881635E+002, +1.13293828640E+003
+2.63565707134E+007, +1.45127569324E+002, +1.13957344731E+003
+2.64816020025E+007, +1.44968126623E+002, +1.15361510163E+003
+2.66066332916E+007, +1.46912582361E+002, +1.16523779838E+003
+2.67316645807E+007, +1.56149083848E+002, +1.18704711008E+003
+2.68566958698E+007, +1.56053993081E+002, +1.19282984228E+003
+2.69817271589E+007, +1.63459764232E+002, +1.20552702728E+003
+2.71067584481E+007, +1.51004108017E+002, +1.21616463661E+003
+2.72317897372E+007, +1.61345253350E+002, +1.22913331119E+003
+2.73568210263E+007, +1.66318550641E+002, +1.23843124269E+003
+2.74818523154E+007, +1.67644706445E+002, +1.25277712842E+003
+2.76068836045E+007, +1.64305189831E+002, +1.27109798085E+003
+2.77319148936E+007, +1.69552217437E+002, +1.28405966132E+003
+2.78569461827E+007, +1.70786938692E+002, +1.29576828255E+003
+2.79819774718E+007, +1.76723481923E+002, +1.29889271644E+003
+2.81070087610E+007, +1.77844665832E+002, +1.32019830598E+003
+2.82320400501E+007, +1.77069304211E+002, +1.32665078649E+003
+2.83570713392E+007, +1.77796527855E+002, +1.34807865495E+003
+2.84821026283E+007, +1.65116943873E+002, +1.35505158826E+003
+2.86071339174E+007, +1.76120688762E+002, +1.37459601466E+003
+2.87321652065E+007, +1.78123389118E+002, +1.38771618381E+003
+2.88571964956E+007, +1.70886537101E+002, +1.40183956472E+003
+2.89822277847E+007, +1.78566391101E+002, +1.41346877041E+003
+2.91072590738E+007, +1.78909717350E+002, +1.43309803128E+003
+2.92322903630E+007, +1.90526913848E+002, +1.45759395075E+003
+2.93573216521E+007, +1.94019419628E+002, +1.47035555376E+003
+2.94823529412E+007, +1.89016290071E+002, +1.47939534530E+003
+2.96073842303E+007, +1.99516724392E+002, +1.50530858415E+003
+2.97324155194E+007, +1.97703940312E+002, +1.50943608270E+003
+2.98574468085E+007, +2.00473334380E+002, +1.53437975443E+003
+2.99824780976E+007, +2.03729451200E+002, +1.56523276764E+003
+3.01075093867E+007, +2.09149744719E+002, +1.57350643933E+003
+3.02325406758E+007, +2.11845659960E+002, +1.59352475549E+003
+3.03575719650E+007, +2.14779754060E+002, +1.61273833713E+003
+3.04826032541E+007, +2.05559233492E+002, +1.61843538319E+003
+3.06076345432E+007, +2.19096894904E+002, +1.64621905072E+003
+3.07326658323E+007, +2.22236907602E+002, +1.64851646122E+003
+3.08576971214E+007, +2.28367619501E+002, +1.67082729855E+003
+3.09827284105E+007, +2.37900088367E+002, +1.70285481898E+003
+3.11077596996E+007, +2.27404484781E+002, +1.72505541500E+003
+3.12327909887E+007, +2.20657297145E+002, +1.75249074024E+003
+3.13578222778E+007, +2.39576175146E+002, +1.77560781250E+003
+3.14828535670E+007, +2.55876267984E+002, +1.79350116434E+003
+3.16078848561E+007, +2.61818855344E+002, +1.80114091100E+003
+3.17329161452E+007, +2.45453845662E+002, +1.83332466114E+003
+3.18579474343E+007, +2.65029388193E+002, +1.86598388264E+003
+3.19829787234E+007, +2.45626761541E+002, +1.88593000113E+003
+3.21080100125E+007, +2.62739985850E+002, +1.91954469805E+003
+3.22330413016E+007, +2.76042029912E+002, +1.94131673815E+003
+3.23580725907E+007, +2.91193241529E+002, +1.97442490214E+003
+3.24831038798E+007, +2.78018709619E+002, +1.96664283306E+003
+3.26081351690E+007, +2.97992378785E+002, +2.00195852220E+003
+3.27331664581E+007, +3.02764260656E+002, +2.05161512452E+003
+3.28581977472E+007, +3.00088971993E+002, +2.05862633632E+003
+3.29832290363E+007, +3.18125328595E+002, +2.08761134329E+003
+3.31082603254E+007, +3.08230568860E+002, +2.12835342277E+003
+3.32332916145E+007, +3.46900136698E+002, +2.14313558770E+003
+3.33583229036E+007, +3.37343569877E+002, +2.17637170517E+003
+3.34833541927E+007, +3.21931363572E+002, +2.21169623592E+003
+3.36083854819E+007, +3.54142535078E+002, +2.27105976274E+003
+3.37334167710E+007, +3.43355780328E+002, +2.26181978324E+003
+3.38584480601E+007, +3.40078402495E+002, +2.29981845586E+003
+3.39834793492E+007, +3.63490189369E+002, +2.32248271971E+003
+3.41085106383E+007, +3.60311476429E+002, +2.37573512047E+003
+3.42335419274E+007, +4.16498592830E+002, +2.39337087486E+003
+3.43585732165E+007, +3.62593300387E+002, +2.46623931050E+003
+3.44836045056E+007, +4.13016750741E+002, +2.47613921290E+003
+3.46086357947E+007, +4.38178933902E+002, +2.48123584061E+003
+3.47336670839E+007, +4.34016370848E+002, +2.56459212777E+003
+3.48586983730E+007, +4.57239314514E+002, +2.59719089291E+003
+3.49837296621E+007, +4.70166017996E+002, +2.64231327383E+003
+3.51087609512E+007, +4.61357520954E+002, +2.66285464064E+003
+3.52337922403E+007, +4.83186109809E+002, +2.69940922429E+003
+3.53588235294E+007, +4.84806775150E+002, +2.79746304027E+003
+3.54838548185E+007, +4.70292620319E+002, +2.84443116637E+003
+3.56088861076E+007, +4.79797640290E+002, +2.85457865127E+003
+3.57339173967E+007, +5.28407896088E+002, +2.94248257844E+003
+3.58589486859E+007, +5.72056226371E+002, +3.00333612393E+003
+3.59839799750E+007, +5.47148350932E+002, +3.03788762520E+003
+3.61090112641E+007, +6.09133866861E+002, +3.08660166091E+003
+3.62340425532E+007, +6.60221172354E+002, +3.12733629036E+003
+3.63590738423E+007, +6.26081829687E+002, +3.24736489352E+003
+3.64841051314E+007, +6.31592561972E+002, +3.29412810293E+003
+3.66091364205E+007, +6.38623282200E+002, +3.34183755034E+003
+3.67341677096E+007, +7.06844955686E+002, +3.40234535612E+003
+3.68591989987E+007, +7.05908454816E+002, +3.45544584313E+003
+3.69842302879E+007, +7.59597979089E+002, +3.50905868399E+003
+3.71092615770E+007, +7.78926146688E+002, +3.58891896509E+003
+3.72342928661E+007, +7.93158532343E+002, +3.69113548224E+003
+3.73593241552E+007, +8.29767875841E+002, +3.77083956165E+003
+3.74843554443E+007, +8.96367858584E+002, +3.83970453808E+003
+3.76093867334E+007, +9.39856200980E+002, +3.92495811606E+003
+3.77344180225E+007, +9.62286746331E+002, +4.01137110101E+003
+3.78594493116E+007, +9.80164567699E+002, +4.26530160371E+003
+3.79844806008E+007, +1.08903123207E+003, +4.34029348388E+003
+3.81095118899E+007, +1.15228166191E+003, +4.40160600589E+003
+3.82345431790E+007, +1.16902237950E+003, +4.43960400232E+003
+3.83595744681E+007, +1.25833645534E+003, +4.45454797224E+003
+3.84846057572E+007, +1.23496230343E+003, +4.76164661891E+003
+3.86096370463E+007, +1.27563608887E+003, +4.84462284595E+003
+3.87346683354E+007, +1.44721358734E+003, +5.06772917555E+003
+3.88596996245E+007, +1.56549051411E+003, +5.14628947310E+003
+3.89847309136E+007, +1.53424357524E+003, +5.28611236050E+003
+3.91097622028E+007, +1.72856287847E+003, +5.36654453058E+003
+3.92347934919E+007, +2.00495352874E+003, +5.59290913687E+003
+3.93598247810E+007, +1.99332222648E+003, +5.93034792016E+003
+3.94848560701E+007, +2.10461248728E+003, +6.02695012798E+003
+3.96098873592E+007, +2.25251802390E+003, +6.24843394498E+003
+3.97349186483E+007, +2.52681364667E+003, +6.56848576464E+003
+3.98599499374E+007, +2.81960811926E+003, +6.43601018443E+003
+3.99849812265E+007, +2.79120191746E+003, +6.91412527026E+003
+4.01100125156E+007, +3.09691290197E+003, +7.32816282344E+003
