"# Channel 1"
"# Trace 1"
Frequency, Formatted Data, Formatted Data
+1.00000000000E+005, +9.64461021157E-001, +2.90598765822E+000
+2.25031289111E+005, +9.78059209439E-001, +6.55209879524E+000
+3.50062578223E+005, +9.66058298416E-001, +1.02199921555E+001
+4.75093867334E+005, +1.05368109214E+000, +1.38053213702E+001
+6.00125156446E+005, +1.03837925501E+000, +1.74369106936E+001
+7.25156445557E+005, +1.00850038929E+000, +2.10619932404E+001
+8.50187734668E+005, +1.13754287043E+000, +2.46930264367E+001
+9.75219023780E+005, +1.12115456932E+000, +2.82676992524E+001
+1.10025031289E+006, +1.14443531634E+000, +3.18839372725E+001
+1.22528160200E+006, +1.26716257662E+000, +3.54295930361E+001
+1.35031289111E+006, +1.26786083162E+000, +3.90482344938E+001
+1.47534418023E+006, +1.25274497444E+000, +4.26032704238E+001
+1.60037546934E+006, +1.32990305626E+000, +4.62621612703E+001
+1.72540675845E+006, +1.43272528147E+000, +4.97639207558E+001
+1.85043804756E+006, +1.40871958578E+000, +5.33120688847E+001
+1.97546933667E+006, +1.34315513708E+000, +5.69941920312E+001
+2.10050062578E+006, +1.44936080671E+000, +6.05001410396E+001
+2.22553191489E+006, +1.49213778200E+000, +6.39652025234E+001
+2.35056320401E+006, +1.40070958989E+000, +6.77127628441E+001
+2.47559449312E+006, +1.42900705312E+000, +7.12221452279E+001
+2.60062578223E+006, +1.39055901594E+000, +7.48928412736E+001
+2.72565707134E+006, +1.38399980911E+000, +7.83435749952E+001
+2.85068836045E+006, +1.60085965395E+000, +8.19243998989E+001
+2.97571964956E+006, +1.53936671995E+000, +8.55753566696E+001
+3.10075093867E+006, +1.35130508340E+000, +8.93501601542E+001
+3.22578222778E+006, +1.41184524036E+000, +9.25800236991E+001
+3.35081351690E+006, +1.58665354172E+000, +9.65024426551E+001
+3.47584480601E+006, +1.66532453632E+000, +9.99634261879E+001
+3.60087609512E+006, +1.50560510585E+000, +1.03607961168E+002
+3.72590738423E+006, +1.68211882150E+000, +1.07342542861E+002
+3.85093867334E+006, +1.53332096592E+000, +1.10820330384E+002
+3.97596996245E+006, +1.47581550633E+000, +1.14479343328E+002
+4.10100125156E+006, +1.72934618973E+000, +1.18374977410E+002
+4.22603254068E+006, +1.58212136165E+000, +1.21759159181E+002
+4.35106382979E+006, +1.45430196837E+000, +1.25470835672E+002
+4.47609511890E+006, +1.60875259722E+000, +1.29116168076E+002
+4.60112640801E+006, +1.36981897035E+000, +1.32747416636E+002
+4.72615769712E+006, +1.45051255375E+000, +1.36389460366E+002
+4.85118898623E+006, +1.71790924424E+000, +1.39956667514E+002
+4.97622027534E+006, +1.43658838079E+000, +1.43525859653E+002
+5.10125156446E+006, +1.69595407829E+000, +1.47393214608E+002
+5.22628285357E+006, +1.34938017740E+000, +1.51243849986E+002
+5.35131414268E+006, +1.55638578988E+000, +1.54935429961E+002
+5.47634543179E+006, +1.67990799859E+000, +1.58490834158E+002
+5.60137672090E+006, +1.74409323667E+000, +1.62234741197E+002
+5.72640801001E+006, +1.48164425825E+000, +1.66262239629E+002
+5.85143929912E+006, +1.88573530797E+000, +1.69457160275E+002
+5.97647058824E+006, +1.90946231966E+000, +1.73519614249E+002
+6.10150187735E+006, +1.74635514343E+000, +1.77433397493E+002
+6.22653316646E+006, +1.93683099369E+000, +1.81000134850E+002
+6.35156445557E+006, +2.17938660126E+000, +1.84698028427E+002
+6.47659574468E+006, +1.84187386994E+000, +1.88352590436E+002
+6.60162703379E+006, +1.82185049892E+000, +1.92571166404E+002
+6.72665832290E+006, +1.96562484526E+000, +1.96145461367E+002
+6.85168961202E+006, +1.80982077698E+000, +1.99869291423E+002
+6.97672090113E+006, +2.24356789785E+000, +2.03622219314E+002
+7.10175219024E+006, +2.05724981584E+000, +2.07345354552E+002
+7.22678347935E+006, +2.20060617527E+000, +2.10908375770E+002
+7.35181476846E+006, +1.86029086410E+000, +2.15157279810E+002
+7.47684605757E+006, +2.29448903067E+000, +2.19062646623E+002
+7.60187734668E+006, +2.14752076944E+000, +2.22799778598E+002
+7.72690863579E+006, +1.83428975298E+000, +2.26817059069E+002
+7.85193992491E+006, +2.14249546807E+000, +2.30683258289E+002
+7.97697121402E+006, +2.05757644993E+000, +2.34383024996E+002
+8.10200250313E+006, +2.24518118691E+000, +2.38450880578E+002
+8.22703379224E+006, +2.23787951767E+000, +2.42415284801E+002
+8.35206508135E+006, +2.25765358654E+000, +2.46281138986E+002
+8.47709637046E+006, +2.33703201349E+000, +2.50482194398E+002
+8.60212765957E+006, +2.31216952322E+000, +2.53749966726E+002
+8.72715894869E+006, +1.98381519960E+000, +2.58296401385E+002
+8.85219023780E+006, +2.50937975733E+000, +2.61683794465E+002
+8.97722152691E+006, +2.30800292392E+000, +2.66421860075E+002
+9.10225281602E+006, +2.39029687903E+000, +2.69992656712E+002
+9.22728410513E+006, +2.22494092611E+000, +2.73983571026E+002
+9.35231539424E+006, +2.12465776066E+000, +2.78088638636E+002
+9.47734668335E+006, +2.26066110413E+000, +2.82171178907E+002
+9.60237797247E+006, +1.97230983357E+000, +2.85848285113E+002
+9.72740926158E+006, +2.42091734863E+000, +2.90190036517E+002
+9.85244055069E+006, +2.42950892128E+000, +2.94207654773E+002
+9.97747183980E+006, +2.43006841788E+000, +2.98305176392E+002
+1.01025031289E+007, +2.27513096663E+000, +3.01922140805E+002
+1.02275344180E+007, +1.90243696045E+000, +3.06204164210E+002
+1.03525657071E+007, +2.46624031759E+000, +3.10830496556E+002
+1.04775969962E+007, +2.05041100736E+000, +3.14636441433E+002
+1.06026282854E+007, +2.24079360736E+000, +3.18694410735E+002
+1.07276595745E+007, +1.85875744362E+000, +3.23249525446E+002
+1.08526908636E+007, +2.08584998001E+000, +3.27142514506E+002
+1.09777221527E+007, +2.23657967773E+000, +3.31440120446E+002
+1.11027534418E+007, +2.55055970048E+000, +3.35531922452E+002
+1.12277847309E+007, +2.00093396421E+000, +3.38997664186E+002
+1.13528160200E+007, +2.46703505904E+000, +3.43836796595E+002
+1.14778473091E+007, +2.06034559955E+000, +3.48252063715E+002
+1.16028785982E+007, +2.73632162538E+000, +3.52201533282E+002
+1.17279098874E+007, +2.08484643676E+000, +3.57372085351E+002
+1.18529411765E+007, +2.21743902895E+000, +3.61866392327E+002
+1.19779724656E+007, +2.06209570156E+000, +3.65952457983E+002
+1.21030037547E+007, +2.29371003750E+000, +3.69308503059E+002
+1.22280350438E+007, +1.46109909235E+000, +3.74643011831E+002
+1.23530663329E+007, +2.26962869739E+000, +3.79195625587E+002
+1.24780976220E+007, +2.22012719378E+000, +3.82860583133E+002
+1.26031289111E+007, +1.62722479579E+000, +3.87995459907E+002
+1.27281602003E+007, +1.28612872970E+000, +3.92325431824E+002
+1.28531914894E+007, +1.35432130452E+000, +3.97298580060E+002
+1.29782227785E+007, +2.27995497980E+000, +4.01433310271E+002
+1.31032540676E+007, +1.46518411710E+000, +4.05249272754E+002
+1.32282853567E+007, +1.53276684429E+000, +4.10184339413E+002
+1.33533166458E+007, +1.92874755885E+000, +4.14167072460E+002
+1.34783479349E+007, +1.78405174883E+000, +4.18741329708E+002
+1.36033792240E+007, +1.70330751316E+000, +4.24115967836E+002
+1.37284105131E+007, +2.10703585554E+000, +4.28144207008E+002
+1.38534418023E+007, +7.91892124465E-001, +4.32484883067E+002
+1.39784730914E+007, +1.52034648188E+000, +4.38690800546E+002
+1.41035043805E+007, +1.37081362430E+000, +4.42135105327E+002
+1.42285356696E+007, +1.78127394600E+000, +4.47508322170E+002
+1.43535669587E+007, +1.83370300170E+000, +4.52907559270E+002
+1.44785982478E+007, +2.90812585809E-001, +4.55719366549E+002
+1.46036295369E+007, +1.44481124966E+000, +4.61656049182E+002
+1.47286608260E+007, +1.35301503521E+000, +4.66920944974E+002
+1.48536921151E+007, +1.33356494874E+000, +4.72110970429E+002
+1.49787234043E+007, +6.36926412180E-001, +4.76520811896E+002
+1.51037546934E+007, +1.19682987363E+000, +4.82313429237E+002
+1.52287859825E+007, +6.84847010474E-001, +4.87018960000E+002
+1.53538172716E+007, +1.19244005951E+000, +4.90967554102E+002
+1.54788485607E+007, +1.05363227634E+000, +4.97169901686E+002
+1.56038798498E+007, +7.61163838689E-001, +5.00404759026E+002
+1.57289111389E+007, +7.86776377770E-001, +5.06097321769E+002
+1.58539424280E+007, +4.94131450757E-001, +5.13002081896E+002
+1.59789737171E+007, +2.93274090978E-001, +5.16299489444E+002
+1.61040050063E+007, -3.19464544153E-002, +5.22525069320E+002
+1.62290362954E+007, +9.95310159080E-001, +5.27288774826E+002
+1.63540675845E+007, +1.69187308757E+000, +5.32210826188E+002
+1.64790988736E+007, +2.73108162904E-001, +5.37978246094E+002
+1.66041301627E+007, -1.18059505223E+000, +5.43475415577E+002
+1.67291614518E+007, +6.27239505582E-001, +5.48817151070E+002
+1.68541927409E+007, +1.85416962725E+000, +5.53442224957E+002
+1.69792240300E+007, +3.10757913971E-001, +5.57620288000E+002
+1.71042553191E+007, +1.31208822599E-001, +5.65099184388E+002
+1.72292866083E+007, -1.82372299339E+000, +5.70204171214E+002
+1.73543178974E+007, -1.50196012784E+000, +5.75753858270E+002
+1.74793491865E+007, +1.51465293641E+000, +5.82214684564E+002
+1.76043804756E+007, +8.27270615577E-001, +5.86605628903E+002
+1.77294117647E+007, +1.29754478215E+000, +5.93085745689E+002
+1.78544430538E+007, -1.16960030645E+000, +5.98123772591E+002
+1.79794743429E+007, +4.36048643463E-001, +6.04425605632E+002
+1.81045056320E+007, -1.74051110021E+000, +6.08852910998E+002
+1.82295369212E+007, -6.80427849592E-001, +6.17037329095E+002
+1.83545682103E+007, -1.77178423301E-002, +6.21349492502E+002
+1.84795994994E+007, +7.31818878494E-001, +6.28390092053E+002
+1.86046307885E+007, +3.19645948768E-001, +6.33777500968E+002
+1.87296620776E+007, -2.78743121774E-001, +6.40157402095E+002
+1.88546933667E+007, -2.63200377300E-001, +6.47265822177E+002
+1.89797246558E+007, +2.84290298228E+000, +6.52824747401E+002
+1.91047559449E+007, +1.48412840737E+000, +6.57322140941E+002
+1.92297872340E+007, +9.70518433101E-001, +6.62649553187E+002
+1.93548185232E+007, +1.69124466044E+000, +6.69232999309E+002
+1.94798498123E+007, -2.43836173207E+000, +6.78426077049E+002
+1.96048811014E+007, -7.95310570094E-002, +6.83900157985E+002
+1.97299123905E+007, +2.17886648860E+000, +6.87913351911E+002
+1.98549436796E+007, +2.58495467022E+000, +6.94675110468E+002
+1.99799749687E+007, +3.01865449603E+000, +6.99797362513E+002
+2.01050062578E+007, -7.18308267838E-001, +7.09115218325E+002
+2.02300375469E+007, +3.10013721170E+000, +7.15612793188E+002
+2.03550688360E+007, +1.70828882203E+000, +7.24621794156E+002
+2.04801001252E+007, +2.49198427523E+000, +7.30145863320E+002
+2.06051314143E+007, +2.62176158286E+000, +7.35645143447E+002
+2.07301627034E+007, +1.25852594491E+000, +7.43934005638E+002
+2.08551939925E+007, +4.26516526361E+000, +7.50610628251E+002
+2.09802252816E+007, +2.55702506204E+000, +7.56631044440E+002
+2.11052565707E+007, +2.25186425936E+000, +7.64710182375E+002
+2.12302878598E+007, +2.99718681997E+000, +7.73723177591E+002
+2.13553191489E+007, +2.36938204920E+000, +7.81238788040E+002
+2.14803504380E+007, -1.06551199618E+000, +7.87145187822E+002
+2.16053817272E+007, +1.69345903718E+000, +7.93212724285E+002
+2.17304130163E+007, +2.22962130595E+000, +7.99213565910E+002
+2.18554443054E+007, +3.88738349051E+000, +8.09880421235E+002
+2.19804755945E+007, +3.72304125768E+000, +8.15414223386E+002
+2.21055068836E+007, -2.36579617419E+000, +8.26761585251E+002
+2.22305381727E+007, +2.07288424716E+000, +8.30428541884E+002
+2.23555694618E+007, +2.57636694694E+000, +8.39125469497E+002
+2.24806007509E+007, +6.78927393817E+000, +8.45478044729E+002
+2.26056320401E+007, +5.53530693804E+000, +8.58351646495E+002
+2.27306633292E+007, +2.55351567247E+000, +8.62145560523E+002
+2.28556946183E+007, +5.55610862394E+000, +8.70984111666E+002
+2.29807259074E+007, +8.03060927052E+000, +8.79926060215E+002
+2.31057571965E+007, +1.28202279842E+001, +8.89812744062E+002
+2.32307884856E+007, +1.01176764085E+001, +8.95671564205E+002
+2.33558197747E+007, +1.35356453363E+001, +9.04280374534E+002
+2.34808510638E+007, +6.38899281500E+000, +9.13119158007E+002
+2.36058823529E+007, +1.07853626130E+001, +9.18803111997E+002
+2.37309136421E+007, +1.00084541610E+001, +9.29011434079E+002
+2.38559449312E+007, +1.34931115036E+001, +9.32978621694E+002
+2.39809762203E+007, +1.65436346176E+001, +9.38666318736E+002
+2.41060075094E+007, +1.10553112680E+001, +9.50623809788E+002
+2.42310387985E+007, +1.13408183449E+001, +9.49761427397E+002
+2.43560700876E+007, +9.47815177480E+000, +9.67895717453E+002
+2.44811013767E+007, +1.42573703892E+001, +9.70165578490E+002
+2.46061326658E+007, +8.20447674462E+000, +9.84480406505E+002
+2.47311639549E+007, +1.28512326488E+001, +9.92533188565E+002
+2.48561952441E+007, +9.70288880183E+000, +1.00070306839E+003
+2.49812265332E+007, +1.16747420989E+001, +1.01067214243E+003
+2.51062578223E+007, +7.13688775728E+000, +1.01988153738E+003
+2.52312891114E+007, +1.42588712053E+001, +1.03386624480E+003
+2.53563204005E+007, +7.88565001270E+000, +1.03861837132E+003
+2.54813516896E+007, +1.05382135785E+001, +1.05075591233E+003
+2.56063829787E+007, +7.78992399153E+000, +1.06242439607E+003
+2.57314142678E+007, +9.07909272089E+000, +1.06925314790E+003
+2.58564455569E+007, +4.33421392082E+000, +1.08105084244E+003
+2.59814768461E+007, +6.50512743724E+000, +1.10026551506E+003
+2.61065081352E+007, +5.41454457180E+000, +1.10223578539E+003
+2.62315394243E+007, +8.82881298623E+000, +1.11430935568E+003
+2.63565707134E+007, +5.48947794102E+000, +1.12905286063E+003
+2.64816020025E+007, +1.12625139332E+001, +1.14102136593E+003
+2.66066332916E+007, +6.89738633059E+000, +1.14288530288E+003
+2.67316645807E+007, +5.34266511432E+000, +1.16152730224E+003
+2.68566958698E+007, +8.19088368926E+000, +1.16735186816E+003
+2.69817271589E+007, +8.47080847382E+000, +1.18380781966E+003
+2.71067584481E+007, +1.14209529954E+001, +1.19427736262E+003
+2.72317897372E+007, +8.78691509114E+000, +1.20524213978E+003
+2.73568210263E+007, +1.55873424643E+001, +1.21207020779E+003
+2.74818523154E+007, +8.47859413135E+000, +1.23291363613E+003
+2.76068836045E+007, +1.37335345031E+001, +1.24540765929E+003
+2.77319148936E+007, +9.19773577629E+000, +1.25420322094E+003
+2.78569461827E+007, +1.16826727359E+001, +1.27328661971E+003
+2.79819774718E+007, +2.36955689995E+000, +1.28222778620E+003
+2.81070087610E+007, +2.18450667492E+000, +1.28935174238E+003
+2.82320400501E+007, +3.41516633485E+000, +1.30681585943E+003
+2.83570713392E+007, +7.39428870584E+000, +1.31763559343E+003
+2.84821026283E+007, -4.80685399162E+000, +1.33566038909E+003
+2.86071339174E+007, -4.83632248023E+000, +1.35275905413E+003
+2.87321652065E+007, +1.18551103323E+001, +1.35562702417E+003
+2.88571964956E+007, +5.88657075367E+000, +1.37630849210E+003
+2.89822277847E+007, +6.17030793094E+000, +1.39348934587E+003
+2.91072590738E+007, +7.10271131807E+000, +1.41538622857E+003
+2.92322903630E+007, -3.66034369400E+000, +1.43063873880E+003
+2.93573216521E+007, +8.82686584892E-001, +1.45332419220E+003
+2.94823529412E+007, +7.82345320968E+000, +1.44718409535E+003
+2.96073842303E+007, +1.52446185519E+001, +1.47157072877E+003
+2.97324155194E+007, +1.91338852913E+000, +1.50013302009E+003
+2.98574468085E+007, +5.16313973794E+000, +1.50261711402E+003
+2.99824780976E+007, -7.34079142547E-001, +1.53485291568E+003
+3.01075093867E+007, +2.72846380612E+000, +1.54094825332E+003
+3.02325406758E+007, -5.56327860727E+000, +1.57247976775E+003
+3.03575719650E+007, +1.54128638086E+000, +1.57815361373E+003
+3.04826032541E+007, +8.89924926151E+000, +1.61030477450E+003
+3.06076345432E+007, -1.54131419238E+001, +1.63054517270E+003
+3.07326658323E+007, +1.41613742488E+000, +1.63342552824E+003
+3.08576971214E+007, +1.11150870037E+000, +1.65176615633E+003
+3.09827284105E+007, -6.06980904830E+000, +1.67915443682E+003
+3.11077596996E+007, +9.56274859479E+000, +1.71485378722E+003
+3.12327909887E+007, -1.36286020549E+000, +1.71840749428E+003
+3.13578222778E+007, +1.27349019654E+001, +1.73865213261E+003
+3.14828535670E+007, -8.60908603189E+000, +1.77073058960E+003
+3.16078848561E+007, +8.10338500089E+000, +1.79103791813E+003
+3.17329161452E+007, +1.94577946872E-001, +1.83618185443E+003
+3.18579474343E+007, +3.69004767104E+000, +1.83673150562E+003
+3.19829787234E+007, -8.21612216569E+000, +1.86747289476E+003
+3.21080100125E+007, +3.19435492687E+001, +1.87751614020E+003
+3.22330413016E+007, -6.23900101782E+000, +1.91174224012E+003
+3.23580725907E+007, -8.48692910416E+000, +1.94185214358E+003
+3.24831038798E+007, +9.72220258449E+000, +1.96145530762E+003
+3.26081351690E+007, +1.03899413651E+001, +1.98636767847E+003
+3.27331664581E+007, +4.74711802302E+000, +2.01710572491E+003
+3.28581977472E+007, -6.40690878957E+000, +2.05146712310E+003
+3.29832290363E+007, +1.51846231596E+000, +2.06572888859E+003
+3.31082603254E+007, +2.58018339529E+000, +2.10392732754E+003
+3.32332916145E+007, +1.67891567251E+000, +2.15412518325E+003
+3.33583229036E+007, -1.34488795666E+001, +2.19040270083E+003
+3.34833541927E+007, +8.15627312498E+000, +2.21212059355E+003
+3.36083854819E+007, -2.29194666967E+001, +2.25742379235E+003
+3.37334167710E+007, +1.80408562102E+001, +2.27759218460E+003
+3.38584480601E+007, +8.19522679358E+000, +2.30257455771E+003
+3.39834793492E+007, +7.42482023201E+000, +2.36470238724E+003
+3.41085106383E+007, +2.13298552668E+001, +2.39391393078E+003
+3.42335419274E+007, +3.52502688385E+000, +2.43210759415E+003
+3.43585732165E+007, +3.25669296086E+001, +2.46655651496E+003
+3.44836045056E+007, +2.85704067473E+001, +2.52002373236E+003
+3.46086357947E+007, -9.35873224204E+000, +2.53303841636E+003
+3.47336670839E+007, +1.23706357955E+001, +2.61038337081E+003
+3.48586983730E+007, +3.87125470393E+001, +2.60417611788E+003
+3.49837296621E+007, -5.57558244514E-001, +2.66128287704E+003
+3.51087609512E+007, +1.53723547865E+001, +2.70168102086E+003
+3.52337922403E+007, +5.64390084440E+001, +2.77489254294E+003
+3.53588235294E+007, +1.55032694342E+001, +2.84082869341E+003
+3.54838548185E+007, +2.09866339363E+001, +2.87497820664E+003
+3.56088861076E+007, +3.42989434991E+001, +2.90376568725E+003
+3.57339173967E+007, +1.01689317701E+001, +2.96478879071E+003
+3.58589486859E+007, +3.02818808753E+001, +3.07676776094E+003
+3.59839799750E+007, +4.35468576481E+000, +3.10020959581E+003
+3.61090112641E+007, +5.93633649275E+001, +3.20940798594E+003
+3.62340425532E+007, -6.08034144660E+000, +3.21388987539E+003
+3.63590738423E+007, +5.60506958970E+001, +3.26789180381E+003
+3.64841051314E+007, -1.69265210265E+001, +3.36359411837E+003
+3.66091364205E+007, +2.97221308378E+001, +3.39479184022E+003
+3.67341677096E+007, +5.29331133861E+001, +3.55658980993E+003
+3.68591989987E+007, +3.40431978025E+001, +3.54340655134E+003
+3.69842302879E+007, +5.57108073805E+001, +3.69383505002E+003
+3.71092615770E+007, +1.58967415560E+001, +3.85883932448E+003
+3.72342928661E+007, +5.71909662729E+001, +3.84979065602E+003
+3.73593241552E+007, -2.97145700878E+001, +3.93494091788E+003
+3.74843554443E+007, -2.16160804141E+001, +4.03558320596E+003
+3.76093867334E+007, +5.42862846590E+001, +4.17086166855E+003
+3.77344180225E+007, +1.27885819753E+002, +4.29113638255E+003
+3.78594493116E+007, -7.68802046377E-002, +4.46474718177E+003
+3.79844806008E+007, +8.92763122331E+001, +4.48612745096E+003
+3.81095118899E+007, +7.65471141193E+001, +4.64739738896E+003
+3.82345431790E+007, +4.56946657182E+001, +4.75690159385E+003
+3.83595744681E+007, -5.17209958459E+001, +4.90472143643E+003
+3.84846057572E+007, +1.11003157534E+002, +5.22356897204E+003
+3.86096370463E+007, +1.78177385578E-001, +5.12897765121E+003
+3.87346683354E+007, +1.68877107310E+002, +5.39507833999E+003
+3.88596996245E+007, +4.03664220126E+001, +5.68287051010E+003
+3.89847309136E+007, +1.67844196638E+002, +5.73454683841E+003
+3.91097622028E+007, +2.57547315891E+002, +6.12699790011E+003
+3.92347934919E+007, +6.55805517885E+001, +6.28530170890E+003
+3.93598247810E+007, +3.28710019030E+002, +6.83524178036E+003
+3.94848560701E+007, +3.02215728874E+002, +6.84397401641E+003
+3.96098873592E+007, +1.56208702596E+002, +7.27298770613E+003
+3.97349186483E+007, +4.16262456640E+002, +7.67406880221E+003
+3.98599499374E+007, +7.92913338292E+002, +7.95870166859E+003
+3.99849812265E+007, +3.68428295738E+002, +8.11403187340E+003
+4.01100125156E+007, +5.62697465955E+002, +9.05978025013E+003
