"# Channel 1"
"# Trace 1"
Frequency, Formatted Data, Formatted Data
+1.00000000000E+005, +3.33542587814E+001, +3.13492628667E+000
+2.87609511890E+005, +3.32958344452E+001, +8.92075196272E+000
+4.75219023780E+005, +3.33843701995E+001, +1.46649877332E+001
+6.62828535670E+005, +3.33188593675E+001, +2.04911858276E+001
+8.50438047559E+005, +3.33210512174E+001, +2.62684112713E+001
+1.03804755945E+006, +3.33294930012E+001, +3.20384556195E+001
+1.22565707134E+006, +3.33401841976E+001, +3.78540217394E+001
+1.41326658323E+006, +3.33843878085E+001, +4.36378220773E+001
+1.60087609512E+006, +3.33823230265E+001, +4.95165198333E+001
+1.78848560701E+006, +3.34698919368E+001, +5.52379575614E+001
+1.97609511890E+006, +3.34022006695E+001, +6.09735942180E+001
+2.16370463079E+006, +3.35194008201E+001, +6.68475756495E+001
+2.35131414268E+006, +3.33903918027E+001, +7.24967671156E+001
+2.53892365457E+006, +3.35495009756E+001, +7.84828312756E+001
+2.72653316646E+006, +3.35730859793E+001, +8.42900616709E+001
+2.91414267835E+006, +3.34914477986E+001, +9.00016661732E+001
+3.10175219024E+006, +3.36033858975E+001, +9.57667486143E+001
+3.28936170213E+006, +3.36792425312E+001, +1.01715583310E+002
+3.47697121402E+006, +3.37363111388E+001, +1.07461390957E+002
+3.66458072591E+006, +3.37050472953E+001, +1.13264988103E+002
+3.85219023780E+006, +3.39000093298E+001, +1.19045875344E+002
+4.03979974969E+006, +3.38070354317E+001, +1.24814051693E+002
+4.22740926158E+006, +3.38042361896E+001, +1.30738697194E+002
+4.41501877347E+006, +3.40340883976E+001, +1.36509783262E+002
+4.60262828536E+006, +3.40122835065E+001, +1.42348990467E+002
+4.79023779725E+006, +3.40558743466E+001, +1.48363362616E+002
+4.97784730914E+006, +3.40890441912E+001, +1.54046476888E+002
+5.16545682103E+006, +3.42720279228E+001, +1.59856625734E+002
+5.35306633292E+006, +3.44889900069E+001, +1.65758106076E+002
+5.54067584481E+006, +3.42404962452E+001, +1.71442540262E+002
+5.72828535670E+006, +3.46295322652E+001, +1.77329968256E+002
+5.91589486859E+006, +3.46245780907E+001, +1.83209589111E+002
+6.10350438048E+006, +3.45497944437E+001, +1.89066209347E+002
+6.29111389237E+006, +3.48398824551E+001, +1.94940362722E+002
+6.47872340426E+006, +3.51057974539E+001, +2.00937880438E+002
+6.66633291615E+006, +3.51898280673E+001, +2.06775598489E+002
+6.85394242804E+006, +3.53985658509E+001, +2.12574567686E+002
+7.04155193992E+006, +3.54253953154E+001, +2.18667649771E+002
+7.22916145181E+006, +3.56032421086E+001, +2.24604526912E+002
+7.41677096370E+006, +3.57459934487E+001, +2.30403328986E+002
+7.60438047559E+006, +3.58027445603E+001, +2.36453250160E+002
+7.79198998748E+006, +3.61295130822E+001, +2.42273729120E+002
+7.97959949937E+006, +3.61710695803E+001, +2.48265297898E+002
+8.16720901126E+006, +3.62578310602E+001, +2.53981875798E+002
+8.35481852315E+006, +3.65382319246E+001, +2.60144641480E+002
+8.54242803504E+006, +3.64322023555E+001, +2.66170381824E+002
+8.73003754693E+006, +3.68461987015E+001, +2.72036780456E+002
+8.91764705882E+006, +3.69779986396E+001, +2.78247103068E+002
+9.10525657071E+006, +3.71229548799E+001, +2.84169010426E+002
+9.29286608260E+006, +3.73442644886E+001, +2.89986646952E+002
+9.48047559449E+006, +3.73829583203E+001, +2.96209097973E+002
+9.66808510638E+006, +3.76702447712E+001, +3.02173257464E+002
+9.85569461827E+006, +3.75334085599E+001, +3.08157683259E+002
+1.00433041302E+007, +3.78879348904E+001, +3.14413726601E+002
+1.02309136421E+007, +3.79885055468E+001, +3.20244447413E+002
+1.04185231539E+007, +3.79762234053E+001, +3.26126572830E+002
+1.06061326658E+007, +3.81857801814E+001, +3.32290738677E+002
+1.07937421777E+007, +3.85336882259E+001, +3.38570337703E+002
+1.09813516896E+007, +3.85687715503E+001, +3.44620507699E+002
+1.11689612015E+007, +3.90453259853E+001, +3.50330958726E+002
+1.13565707134E+007, +3.85848742908E+001, +3.56738676107E+002
+1.15441802253E+007, +3.91558381620E+001, +3.63183787516E+002
+1.17317897372E+007, +3.92171605291E+001, +3.68641054779E+002
+1.19193992491E+007, +3.97191516622E+001, +3.75153610553E+002
+1.21070087610E+007, +3.97374815446E+001, +3.81243973266E+002
+1.22946182728E+007, +4.02689171784E+001, +3.87595808441E+002
+1.24822277847E+007, +4.00795829822E+001, +3.93841886706E+002
+1.26698372966E+007, +4.04170497413E+001, +4.00098618557E+002
+1.28574468085E+007, +4.04294210943E+001, +4.06385836059E+002
+1.30450563204E+007, +4.07005613963E+001, +4.12771301781E+002
+1.32326658323E+007, +4.10768044604E+001, +4.18735103480E+002
+1.34202753442E+007, +4.11988499730E+001, +4.24835760355E+002
+1.36078848561E+007, +4.15993781337E+001, +4.31290619040E+002
+1.37954943680E+007, +4.15720997850E+001, +4.37266547238E+002
+1.39831038798E+007, +4.17901745872E+001, +4.43745467129E+002
+1.41707133917E+007, +4.23011868691E+001, +4.50326900044E+002
+1.43583229036E+007, +4.21718779928E+001, +4.56271085383E+002
+1.45459324155E+007, +4.29400795518E+001, +4.62791256841E+002
+1.47335419274E+007, +4.28012475655E+001, +4.69332910307E+002
+1.49211514393E+007, +4.29782348729E+001, +4.75643459507E+002
+1.51087609512E+007, +4.30433944577E+001, +4.81445695121E+002
+1.52963704631E+007, +4.36555227008E+001, +4.88370057383E+002
+1.54839799750E+007, +4.37178833751E+001, +4.94787961971E+002
+1.56715894869E+007, +4.45832946213E+001, +5.01199888452E+002
+1.58591989987E+007, +4.46683546657E+001, +5.07588348452E+002
+1.60468085106E+007, +4.41641314059E+001, +5.14446842206E+002
+1.62344180225E+007, +4.48443260652E+001, +5.20878706458E+002
+1.64220275344E+007, +4.56427280941E+001, +5.26718532429E+002
+1.66096370463E+007, +4.58992780356E+001, +5.33802268807E+002
+1.67972465582E+007, +4.61205102262E+001, +5.39884156807E+002
+1.69848560701E+007, +4.59019493049E+001, +5.46745378432E+002
+1.71724655820E+007, +4.49123397979E+001, +5.53400247475E+002
+1.73600750939E+007, +4.56950144054E+001, +5.60763924147E+002
+1.75476846058E+007, +4.68075063521E+001, +5.66760304998E+002
+1.77352941176E+007, +4.76582578921E+001, +5.73419957450E+002
+1.79229036295E+007, +4.73143394279E+001, +5.80116870329E+002
+1.81105131414E+007, +4.77616177625E+001, +5.87131054154E+002
+1.82981226533E+007, +4.71731612021E+001, +5.93387832304E+002
+1.84857321652E+007, +4.87283323303E+001, +6.00231776647E+002
+1.86733416771E+007, +4.87304256320E+001, +6.07097453692E+002
+1.88609511890E+007, +4.90275215127E+001, +6.13330939251E+002
+1.90485607009E+007, +5.01646632368E+001, +6.20864976474E+002
+1.92361702128E+007, +5.07954782309E+001, +6.27478770956E+002
+1.94237797247E+007, +5.10241510372E+001, +6.34333731042E+002
+1.96113892365E+007, +5.07622593949E+001, +6.41223547813E+002
+1.97989987484E+007, +5.21392896132E+001, +6.48013234890E+002
+1.99866082603E+007, +5.18661785810E+001, +6.55046708327E+002
+2.01742177722E+007, +5.23434018199E+001, +6.61544319444E+002
+2.03618272841E+007, +5.26802534710E+001, +6.68652466038E+002
+2.05494367960E+007, +5.25970883368E+001, +6.75769638698E+002
+2.07370463079E+007, +5.29664302236E+001, +6.82828078263E+002
+2.09246558198E+007, +5.39832634460E+001, +6.90323365480E+002
+2.11122653317E+007, +5.36173506998E+001, +6.96971278682E+002
+2.12998748436E+007, +5.43062063151E+001, +7.04400052795E+002
+2.14874843554E+007, +5.46928771119E+001, +7.11932240709E+002
+2.16750938673E+007, +5.54053516499E+001, +7.18351975619E+002
+2.18627033792E+007, +5.51091657029E+001, +7.26229559971E+002
+2.20503128911E+007, +5.57209792285E+001, +7.32518038089E+002
+2.22379224030E+007, +5.63000894552E+001, +7.39743842839E+002
+2.24255319149E+007, +5.84367813060E+001, +7.46396122945E+002
+2.26131414268E+007, +5.76175426920E+001, +7.53279981350E+002
+2.28007509387E+007, +5.87435312491E+001, +7.62013292180E+002
+2.29883604506E+007, +5.93351747874E+001, +7.68236229521E+002
+2.31759699625E+007, +5.97177574131E+001, +7.76525125812E+002
+2.33635794743E+007, +6.16295348616E+001, +7.83183394687E+002
+2.35511889862E+007, +6.03586985290E+001, +7.90375554428E+002
+2.37387984981E+007, +6.13421585952E+001, +7.97509876676E+002
+2.39264080100E+007, +6.18168859240E+001, +8.05802382581E+002
+2.41140175219E+007, +6.27989616748E+001, +8.13040350278E+002
+2.43016270338E+007, +6.35951776380E+001, +8.21124166020E+002
+2.44892365457E+007, +6.41331979644E+001, +8.28203066020E+002
+2.46768460576E+007, +6.31790720707E+001, +8.35262525298E+002
+2.48644555695E+007, +6.41338487695E+001, +8.41682764680E+002
+2.50520650814E+007, +6.59481055663E+001, +8.50888920008E+002
+2.52396745932E+007, +6.69904674723E+001, +8.59502115429E+002
+2.54272841051E+007, +6.69501920882E+001, +8.66244410074E+002
+2.56148936170E+007, +6.62858000037E+001, +8.74212451787E+002
+2.58025031289E+007, +6.93525706329E+001, +8.82364733686E+002
+2.59901126408E+007, +6.93195257856E+001, +8.88770736972E+002
+2.61777221527E+007, +7.00325882958E+001, +8.99313922839E+002
+2.63653316646E+007, +7.02805688980E+001, +9.05457704168E+002
+2.65529411765E+007, +7.16778720601E+001, +9.15256400895E+002
+2.67405506884E+007, +7.18863626815E+001, +9.21649254468E+002
+2.69281602003E+007, +7.10459360427E+001, +9.28508666217E+002
+2.71157697121E+007, +7.37736628574E+001, +9.37877822090E+002
+2.73033792240E+007, +7.30038962515E+001, +9.45990094806E+002
+2.74909887359E+007, +7.23331078813E+001, +9.54691432724E+002
+2.76785982478E+007, +7.47119684886E+001, +9.61012032139E+002
+2.78662077597E+007, +7.38311741127E+001, +9.69808117397E+002
+2.80538172716E+007, +7.60573329006E+001, +9.78584742879E+002
+2.82414267835E+007, +7.64233869167E+001, +9.85723349994E+002
+2.84290362954E+007, +7.68190681501E+001, +9.95886571665E+002
+2.86166458073E+007, +7.78242522104E+001, +1.00144040885E+003
+2.88042553191E+007, +7.98488387540E+001, +1.01185312708E+003
+2.89918648310E+007, +7.93917495514E+001, +1.02087438187E+003
+2.91794743429E+007, +7.81975082769E+001, +1.02981502933E+003
+2.93670838548E+007, +8.10368286671E+001, +1.03803366172E+003
+2.95546933667E+007, +8.19323904649E+001, +1.04578573481E+003
+2.97423028786E+007, +8.06530497421E+001, +1.05354653018E+003
+2.99299123905E+007, +8.34659420642E+001, +1.06403276224E+003
+3.01175219024E+007, +8.44538835931E+001, +1.07215959838E+003
+3.03051314143E+007, +8.34676783547E+001, +1.08090744173E+003
+3.04927409262E+007, +8.54138100684E+001, +1.09128130837E+003
+3.06803504380E+007, +8.60678814099E+001, +1.09802453494E+003
+3.08679599499E+007, +8.62331751931E+001, +1.10713369557E+003
+3.10555694618E+007, +8.98253717397E+001, +1.11501110198E+003
+3.12431789737E+007, +8.63544629162E+001, +1.12868206648E+003
+3.14307884856E+007, +9.01639093821E+001, +1.13406647132E+003
+3.16183979975E+007, +9.08939474476E+001, +1.14327051498E+003
+3.18060075094E+007, +9.06571089423E+001, +1.15145046063E+003
+3.19936170213E+007, +9.18471486710E+001, +1.16393384174E+003
+3.21812265332E+007, +9.34312345273E+001, +1.17092629769E+003
+3.23688360451E+007, +9.27877026453E+001, +1.17921556636E+003
+3.25564455569E+007, +9.21420351328E+001, +1.18986288075E+003
+3.27440550688E+007, +9.68794779881E+001, +1.20043810576E+003
+3.29316645807E+007, +9.68663242395E+001, +1.21030848963E+003
+3.31192740926E+007, +9.58308250304E+001, +1.22077817830E+003
+3.33068836045E+007, +9.61533336264E+001, +1.22643216223E+003
+3.34944931164E+007, +9.77415338547E+001, +1.23800236898E+003
+3.36821026283E+007, +9.93672972233E+001, +1.24859385356E+003
+3.38697121402E+007, +9.81384693154E+001, +1.26084434371E+003
+3.40573216521E+007, +1.01134908529E+002, +1.26935404869E+003
+3.42449311640E+007, +1.02877565430E+002, +1.27598300859E+003
+3.44325406758E+007, +1.03826162665E+002, +1.28658764525E+003
+3.46201501877E+007, +1.04623235055E+002, +1.30068725740E+003
+3.48077596996E+007, +1.04044355790E+002, +1.31134320296E+003
+3.49953692115E+007, +1.05108189098E+002, +1.32101953387E+003
+3.51829787234E+007, +1.09561600355E+002, +1.32918730211E+003
+3.53705882353E+007, +1.08383051593E+002, +1.33931624281E+003
+3.55581977472E+007, +1.13345210832E+002, +1.35053661495E+003
+3.57458072591E+007, +1.10145743082E+002, +1.36108821557E+003
+3.59334167710E+007, +1.12469419987E+002, +1.36869075965E+003
+3.61210262829E+007, +1.15227195046E+002, +1.37897274074E+003
+3.63086357947E+007, +1.14676397173E+002, +1.39325195724E+003
+3.64962453066E+007, +1.22161824837E+002, +1.40462685553E+003
+3.66838548185E+007, +1.19652504431E+002, +1.41556144985E+003
+3.68714643304E+007, +1.20111815408E+002, +1.42290618072E+003
+3.70590738423E+007, +1.19005131373E+002, +1.43748615986E+003
+3.72466833542E+007, +1.20149526581E+002, +1.44989555157E+003
+3.74342928661E+007, +1.21384795706E+002, +1.46159252960E+003
+3.76219023780E+007, +1.24286714283E+002, +1.47330700640E+003
+3.78095118899E+007, +1.30563021584E+002, +1.48504733783E+003
+3.79971214018E+007, +1.26236859292E+002, +1.48785698136E+003
+3.81847309136E+007, +1.28893587891E+002, +1.50295259620E+003
+3.83723404255E+007, +1.33812597799E+002, +1.51920095983E+003
+3.85599499374E+007, +1.29443089668E+002, +1.52419523316E+003
+3.87475594493E+007, +1.33900094305E+002, +1.53971671414E+003
+3.89351689612E+007, +1.27874678863E+002, +1.55153185509E+003
+3.91227784731E+007, +1.34246021674E+002, +1.56008106822E+003
+3.93103879850E+007, +1.39908598554E+002, +1.57481443456E+003
+3.94979974969E+007, +1.41550263774E+002, +1.58590628980E+003
+3.96856070088E+007, +1.41369738291E+002, +1.60348376435E+003
+3.98732165207E+007, +1.40515053064E+002, +1.61241586798E+003
+4.00608260325E+007, +1.46907768296E+002, +1.62810412952E+003
+4.02484355444E+007, +1.44968707072E+002, +1.64018365939E+003
+4.04360450563E+007, +1.44236129292E+002, +1.64698192935E+003
+4.06236545682E+007, +1.45049098828E+002, +1.66538770855E+003
+4.08112640801E+007, +1.54501802048E+002, +1.67443355725E+003
+4.09988735920E+007, +1.50211825793E+002, +1.69356520169E+003
+4.11864831039E+007, +1.53071397487E+002, +1.70563991522E+003
+4.13740926158E+007, +1.54521979180E+002, +1.71422483214E+003
+4.15617021277E+007, +1.57600292183E+002, +1.73112054648E+003
+4.17493116395E+007, +1.60020620694E+002, +1.74366028167E+003
+4.19369211514E+007, +1.61330088328E+002, +1.75788485065E+003
+4.21245306633E+007, +1.64212123105E+002, +1.77136995609E+003
+4.23121401752E+007, +1.65130672932E+002, +1.78725311178E+003
+4.24997496871E+007, +1.71370898073E+002, +1.79324240873E+003
+4.26873591990E+007, +1.71554964561E+002, +1.81005495206E+003
+4.28749687109E+007, +1.72756708073E+002, +1.82576416745E+003
+4.30625782228E+007, +1.69800425826E+002, +1.84162585745E+003
+4.32501877347E+007, +1.72055516984E+002, +1.85135545513E+003
+4.34377972466E+007, +1.81059539573E+002, +1.87165480797E+003
+4.36254067584E+007, +1.79056389047E+002, +1.88358455023E+003
+4.38130162703E+007, +1.84962585715E+002, +1.90582378212E+003
+4.40006257822E+007, +1.80684308910E+002, +1.91483143608E+003
+4.41882352941E+007, +1.84467174838E+002, +1.93180902617E+003
+4.43758448060E+007, +1.97109239459E+002, +1.95184442740E+003
+4.45634543179E+007, +1.93654562839E+002, +1.96959526905E+003
+4.47510638298E+007, +1.92616645401E+002, +1.98179281226E+003
+4.49386733417E+007, +1.95747164397E+002, +1.99441116747E+003
+4.51262828536E+007, +1.98904798118E+002, +2.01705775960E+003
+4.53138923655E+007, +1.93472256318E+002, +2.03624917053E+003
+4.55015018773E+007, +1.98534172388E+002, +2.04610914931E+003
+4.56891113892E+007, +2.12305766194E+002, +2.05986635776E+003
+4.58767209011E+007, +1.97886059745E+002, +2.07319033577E+003
+4.60643304130E+007, +2.01689020384E+002, +2.09793346597E+003
+4.62519399249E+007, +2.15140009393E+002, +2.11419306502E+003
+4.64395494368E+007, +2.11518154212E+002, +2.12527226159E+003
+4.66271589487E+007, +2.14994750026E+002, +2.14667909681E+003
+4.68147684606E+007, +2.12147227087E+002, +2.17357541999E+003
+4.70023779725E+007, +2.26703571449E+002, +2.18497976471E+003
+4.71899874844E+007, +2.25119621893E+002, +2.19802049655E+003
+4.73775969962E+007, +2.27127377218E+002, +2.21612731550E+003
+4.75652065081E+007, +2.36346889340E+002, +2.23891278119E+003
+4.77528160200E+007, +2.31299530895E+002, +2.25310948893E+003
+4.79404255319E+007, +2.43904476019E+002, +2.28321267317E+003
+4.81280350438E+007, +2.47224561525E+002, +2.30252317624E+003
+4.83156445557E+007, +2.40453930906E+002, +2.31264886992E+003
+4.85032540676E+007, +2.42115418569E+002, +2.34071704899E+003
+4.86908635795E+007, +2.45432498699E+002, +2.35985806641E+003
+4.88784730914E+007, +2.56324480375E+002, +2.37414450384E+003
+4.90660826033E+007, +2.63745047491E+002, +2.39181348510E+003
+4.92536921151E+007, +2.68696193836E+002, +2.40865988006E+003
+4.94413016270E+007, +2.69904738054E+002, +2.42227797576E+003
+4.96289111389E+007, +2.78831429895E+002, +2.46739967434E+003
+4.98165206508E+007, +2.84168468182E+002, +2.47548518575E+003
+5.00041301627E+007, +2.89821160952E+002, +2.49634979268E+003
+5.01917396746E+007, +2.94324391398E+002, +2.51562577616E+003
+5.03793491865E+007, +3.00522407967E+002, +2.54472186630E+003
+5.05669586984E+007, +2.90819480333E+002, +2.56989460874E+003
+5.07545682103E+007, +2.93818329258E+002, +2.58572773839E+003
+5.09421777222E+007, +3.07777826251E+002, +2.60963911016E+003
+5.11297872340E+007, +3.14015002800E+002, +2.64864573569E+003
+5.13173967459E+007, +3.38564033462E+002, +2.66307232583E+003
+5.15050062578E+007, +3.27442465511E+002, +2.69458701364E+003
+5.16926157697E+007, +3.28620856884E+002, +2.70596569444E+003
+5.18802252816E+007, +3.49932080762E+002, +2.74040055848E+003
+5.20678347935E+007, +3.31152139368E+002, +2.74256850768E+003
+5.22554443054E+007, +3.48524217696E+002, +2.77927501202E+003
+5.24430538173E+007, +3.46390288023E+002, +2.81455164835E+003
+5.26306633292E+007, +3.66278469383E+002, +2.83986977906E+003
+5.28182728411E+007, +3.74180364910E+002, +2.87177407732E+003
+5.30058823529E+007, +3.74958435212E+002, +2.88688403645E+003
+5.31934918648E+007, +3.79076446635E+002, +2.91637779351E+003
+5.33811013767E+007, +3.82125410379E+002, +2.95150200385E+003
+5.35687108886E+007, +3.93281017855E+002, +2.98156274373E+003
+5.37563204005E+007, +4.17868055885E+002, +3.01507808160E+003
+5.39439299124E+007, +3.96756436373E+002, +3.03810031166E+003
+5.41315394243E+007, +4.01311778059E+002, +3.08447480856E+003
+5.43191489362E+007, +4.38513711423E+002, +3.11518158385E+003
+5.45067584481E+007, +4.22204724339E+002, +3.13994743093E+003
+5.46943679599E+007, +4.34042514138E+002, +3.15423269309E+003
+5.48819774718E+007, +4.50164863622E+002, +3.17569827511E+003
+5.50695869837E+007, +4.54693830537E+002, +3.22170385982E+003
+5.52571964956E+007, +4.61505542306E+002, +3.25101482523E+003
+5.54448060075E+007, +4.69354420894E+002, +3.29576636655E+003
+5.56324155194E+007, +4.81863426171E+002, +3.32381783852E+003
+5.58200250313E+007, +4.83512712987E+002, +3.34635024461E+003
+5.60076345432E+007, +5.02147806796E+002, +3.37706499672E+003
+5.61952440551E+007, +5.06763128431E+002, +3.43324631047E+003
+5.63828535670E+007, +5.19064001738E+002, +3.45069411210E+003
+5.65704630788E+007, +5.19779706582E+002, +3.49730713859E+003
+5.67580725907E+007, +5.45866296775E+002, +3.55436694833E+003
+5.69456821026E+007, +5.78520991707E+002, +3.58250578168E+003
+5.71332916145E+007, +5.65746260534E+002, +3.63034827750E+003
+5.73209011264E+007, +5.71949911670E+002, +3.63659151302E+003
+5.75085106383E+007, +5.73919046724E+002, +3.70406897962E+003
+5.76961201502E+007, +5.86381563593E+002, +3.74613199366E+003
+5.78837296621E+007, +5.97566330363E+002, +3.77891926203E+003
+5.80713391740E+007, +6.19153222394E+002, +3.81884261163E+003
+5.82589486859E+007, +6.35804894029E+002, +3.87171685558E+003
+5.84465581977E+007, +6.57731790186E+002, +3.90540813515E+003
+5.86341677096E+007, +6.36341144410E+002, +3.95982320855E+003
+5.88217772215E+007, +7.00350225401E+002, +3.99934842881E+003
+5.90093867334E+007, +6.98987742154E+002, +4.06551196272E+003
+5.91969962453E+007, +7.25140213391E+002, +4.08392835978E+003
+5.93846057572E+007, +7.15702787823E+002, +4.13912024131E+003
+5.95722152691E+007, +7.58142030962E+002, +4.18698824969E+003
+5.97598247810E+007, +7.69841272000E+002, +4.26970202356E+003
+5.99474342929E+007, +8.15103519132E+002, +4.29887486008E+003
+6.01350438048E+007, +7.91366505423E+002, +4.35126517977E+003
