"# Channel 1"
"# Trace 1"
Frequency, Formatted Data, Formatted Data
+1.00000000000E+005, +9.26791887452E-001, +2.91105898506E+000
+2.25031289111E+005, +9.31462086391E-001, +6.53055370831E+000
+3.50062578223E+005, +9.48044971176E-001, +1.01713636878E+001
+4.75093867334E+005, +9.39271864725E-001, +1.38287492197E+001
+6.00125156446E+005, +9.83486622078E-001, +1.74445353424E+001
+7.25156445557E+005, +1.02357545025E+000, +2.10387648048E+001
+8.50187734668E+005, +1.09865197089E+000, +2.46382034239E+001
+9.75219023780E+005, +1.09826867281E+000, +2.82374513063E+001
+1.10025031289E+006, +1.17092399903E+000, +3.18180564742E+001
+1.22528160200E+006, +1.22775464091E+000, +3.54139947302E+001
+1.35031289111E+006, +1.21020577698E+000, +3.90801965571E+001
+1.47534418023E+006, +1.27289282372E+000, +4.25699270614E+001
+1.60037546934E+006, +1.25456807163E+000, +4.61083427815E+001
+1.72540675845E+006, +1.31847572056E+000, +4.97090910852E+001
+1.85043804756E+006, +1.38713896997E+000, +5.32323067247E+001
+1.97546933667E+006, +1.39889417694E+000, +5.68091674051E+001
+2.10050062578E+006, +1.40808335372E+000, +6.04049749140E+001
+2.22553191489E+006, +1.31320671023E+000, +6.40761421076E+001
+2.35056320401E+006, +1.34196044931E+000, +6.76271002887E+001
+2.47559449312E+006, +1.35262075362E+000, +7.11264252849E+001
+2.60062578223E+006, +1.40632426962E+000, +7.46498956537E+001
+2.72565707134E+006, +1.45200196656E+000, +7.83042135183E+001
+2.85068836045E+006, +1.37976232240E+000, +8.19722962373E+001
+2.97571964956E+006, +1.41468419918E+000, +8.55965030236E+001
+3.10075093867E+006, +1.42079812925E+000, +8.93073184805E+001
+3.22578222778E+006, +1.49215206267E+000, +9.27416943140E+001
+3.35081351690E+006, +1.68130589078E+000, +9.62446190763E+001
+3.47584480601E+006, +1.55674336880E+000, +9.98855312208E+001
+3.60087609512E+006, +1.65388810591E+000, +1.03508292683E+002
+3.72590738423E+006, +1.59263317163E+000, +1.07386900332E+002
+3.85093867334E+006, +1.69008665413E+000, +1.10809097476E+002
+3.97596996245E+006, +1.56670349227E+000, +1.14345095191E+002
+4.10100125156E+006, +1.51308016877E+000, +1.18156505688E+002
+4.22603254068E+006, +1.54329420941E+000, +1.21449573664E+002
+4.35106382979E+006, +1.63691127370E+000, +1.25396579918E+002
+4.47609511890E+006, +1.82410445810E+000, +1.28864216663E+002
+4.60112640801E+006, +1.49567734064E+000, +1.32721865043E+002
+4.72615769712E+006, +1.41758528035E+000, +1.36155860132E+002
+4.85118898623E+006, +1.54671307649E+000, +1.39891233167E+002
+4.97622027534E+006, +1.54632744098E+000, +1.43774823081E+002
+5.10125156446E+006, +1.32489061524E+000, +1.47035174040E+002
+5.22628285357E+006, +1.47132049345E+000, +1.50830440828E+002
+5.35131414268E+006, +1.55281525870E+000, +1.54677039825E+002
+5.47634543179E+006, +1.61296779167E+000, +1.58457713115E+002
+5.60137672090E+006, +1.83020146810E+000, +1.62372794830E+002
+5.72640801001E+006, +1.53371801046E+000, +1.65592230542E+002
+5.85143929912E+006, +1.86218207101E+000, +1.69748737195E+002
+5.97647058824E+006, +1.68158156822E+000, +1.73208222407E+002
+6.10150187735E+006, +1.70470052807E+000, +1.77183869459E+002
+6.22653316646E+006, +1.84924148234E+000, +1.80682223617E+002
+6.35156445557E+006, +2.09668842994E+000, +1.84676283805E+002
+6.47659574468E+006, +2.13844503459E+000, +1.88415963425E+002
+6.60162703379E+006, +1.88372001713E+000, +1.92340315710E+002
+6.72665832290E+006, +2.04884975667E+000, +1.95802470112E+002
+6.85168961202E+006, +2.04368641861E+000, +1.99823353742E+002
+6.97672090113E+006, +1.96389920157E+000, +2.03629873441E+002
+7.10175219024E+006, +2.26517192310E+000, +2.07348907762E+002
+7.22678347935E+006, +2.08881898908E+000, +2.10934627799E+002
+7.35181476846E+006, +2.05446500301E+000, +2.14834775005E+002
+7.47684605757E+006, +2.11776668009E+000, +2.19124077753E+002
+7.60187734668E+006, +2.28145837418E+000, +2.22175868184E+002
+7.72690863579E+006, +2.28676155652E+000, +2.26154710445E+002
+7.85193992491E+006, +2.43001447218E+000, +2.30208085096E+002
+7.97697121402E+006, +2.41971057242E+000, +2.34090702327E+002
+8.10200250313E+006, +2.40591740890E+000, +2.38198165809E+002
+8.22703379224E+006, +2.22503558971E+000, +2.42200038380E+002
+8.35206508135E+006, +2.23868717405E+000, +2.45625729631E+002
+8.47709637046E+006, +2.23910098586E+000, +2.49582123717E+002
+8.60212765957E+006, +2.02564262309E+000, +2.53410487281E+002
+8.72715894869E+006, +2.31338377369E+000, +2.57579055518E+002
+8.85219023780E+006, +2.68898292743E+000, +2.61860843118E+002
+8.97722152691E+006, +2.28206508226E+000, +2.65804412416E+002
+9.10225281602E+006, +2.60087244400E+000, +2.70202632373E+002
+9.22728410513E+006, +2.30533958128E+000, +2.73782835204E+002
+9.35231539424E+006, +2.19044491557E+000, +2.77822520574E+002
+9.47734668335E+006, +2.14257498708E+000, +2.81514510040E+002
+9.60237797247E+006, +2.54674500254E+000, +2.85330741238E+002
+9.72740926158E+006, +2.37911364616E+000, +2.89835426476E+002
+9.85244055069E+006, +2.33874754886E+000, +2.93636752240E+002
+9.97747183980E+006, +1.91971105148E+000, +2.97811000626E+002
+1.01025031289E+007, +2.06876324653E+000, +3.01594713670E+002
+1.02275344180E+007, +2.60716020773E+000, +3.05898316254E+002
+1.03525657071E+007, +2.06611953704E+000, +3.09972924273E+002
+1.04775969962E+007, +2.07940200058E+000, +3.14055574437E+002
+1.06026282854E+007, +1.81883513047E+000, +3.18217895941E+002
+1.07276595745E+007, +2.03395700382E+000, +3.23263528915E+002
+1.08526908636E+007, +2.80141628167E+000, +3.27182691452E+002
+1.09777221527E+007, +2.18582658284E+000, +3.31287883243E+002
+1.11027534418E+007, +2.31915285191E+000, +3.35301348389E+002
+1.12277847309E+007, +2.16939154101E+000, +3.38869289985E+002
+1.13528160200E+007, +1.63171790862E+000, +3.44349933050E+002
+1.14778473091E+007, +2.23985162898E+000, +3.48157304897E+002
+1.16028785982E+007, +1.69183209872E+000, +3.52176295224E+002
+1.17279098874E+007, +2.26131344947E+000, +3.57183176112E+002
+1.18529411765E+007, +1.40504512843E+000, +3.60413872401E+002
+1.19779724656E+007, +1.84430847883E+000, +3.65178822870E+002
+1.21030037547E+007, +2.10562646574E+000, +3.70162305331E+002
+1.22280350438E+007, +1.49865667509E+000, +3.73628764950E+002
+1.23530663329E+007, +2.46421224248E+000, +3.79367399008E+002
+1.24780976220E+007, +2.23860385048E+000, +3.83292022632E+002
+1.26031289111E+007, +2.06140728665E+000, +3.87219699663E+002
+1.27281602003E+007, +1.83887125372E+000, +3.91999510188E+002
+1.28531914894E+007, +2.25238390760E+000, +3.96713803436E+002
+1.29782227785E+007, +1.30140389948E+000, +4.00695093991E+002
+1.31032540676E+007, +2.04608581060E+000, +4.05438180225E+002
+1.32282853567E+007, +1.95393123582E+000, +4.10143443932E+002
+1.33533166458E+007, +2.24618783897E+000, +4.14809092832E+002
+1.34783479349E+007, +1.46655859765E+000, +4.20496691600E+002
+1.36033792240E+007, +2.13437497640E+000, +4.24417786632E+002
+1.37284105131E+007, +1.04623270247E+000, +4.28132867151E+002
+1.38534418023E+007, +2.58108569502E+000, +4.33016158238E+002
+1.39784730914E+007, +1.52685174501E+000, +4.37522076481E+002
+1.41035043805E+007, +9.32727057952E-001, +4.43075418611E+002
+1.42285356696E+007, +1.93867100926E+000, +4.48399250945E+002
+1.43535669587E+007, +1.62157336656E+000, +4.51492573529E+002
+1.44785982478E+007, +8.94764757699E-001, +4.57806720814E+002
+1.46036295369E+007, +1.97553634199E+000, +4.61620572955E+002
+1.47286608260E+007, +1.54713369622E+000, +4.67480645931E+002
+1.48536921151E+007, +1.05172577152E+000, +4.71131577081E+002
+1.49787234043E+007, +2.22221736760E+000, +4.77086208234E+002
+1.51037546934E+007, +1.02341790996E+000, +4.80408795954E+002
+1.52287859825E+007, +9.92577393104E-001, +4.85653185378E+002
+1.53538172716E+007, +2.16232777575E+000, +4.90932545695E+002
+1.54788485607E+007, +7.38780822234E-001, +4.96936284523E+002
+1.56038798498E+007, +1.66520491992E+000, +5.01706510759E+002
+1.57289111389E+007, +1.58336169128E+000, +5.06588708799E+002
+1.58539424280E+007, +1.60757274944E+000, +5.10769739426E+002
+1.59789737171E+007, +1.99833667872E+000, +5.16759877350E+002
+1.61040050063E+007, +1.20027123256E+000, +5.22926346696E+002
+1.62290362954E+007, +1.69991367823E+000, +5.27266880399E+002
+1.63540675845E+007, +1.46658865808E+000, +5.32894680902E+002
+1.64790988736E+007, +8.98042509179E-001, +5.37156551804E+002
+1.66041301627E+007, +8.51050661716E-002, +5.44034331264E+002
+1.67291614518E+007, +1.54485987194E+000, +5.48588774621E+002
+1.68541927409E+007, +9.11052686825E-001, +5.54330821987E+002
+1.69792240300E+007, -6.60445364196E-001, +5.59867528745E+002
+1.71042553191E+007, -1.03910433977E+000, +5.65761653187E+002
+1.72292866083E+007, -1.67666040949E+000, +5.70344790463E+002
+1.73543178974E+007, -3.74296832377E-001, +5.78612882691E+002
+1.74793491865E+007, -1.40889783978E+000, +5.81934779928E+002
+1.76043804756E+007, -1.03094773256E+000, +5.88884587935E+002
+1.77294117647E+007, -1.11323599191E-001, +5.92139504138E+002
+1.78544430538E+007, -3.17279901358E-001, +5.99771023961E+002
+1.79794743429E+007, +7.42301806093E-001, +6.04306442936E+002
+1.81045056320E+007, -3.07333881998E-001, +6.13555193664E+002
+1.82295369212E+007, -1.17713731379E+000, +6.16122757160E+002
+1.83545682103E+007, +5.51305123720E-001, +6.24344093815E+002
+1.84795994994E+007, +2.36050225808E+000, +6.28835352553E+002
+1.86046307885E+007, +1.05447230509E+000, +6.33978667405E+002
+1.87296620776E+007, +1.65918486585E-001, +6.41874347278E+002
+1.88546933667E+007, -4.06594859624E-001, +6.45334565119E+002
+1.89797246558E+007, +9.20857707246E-002, +6.51183059891E+002
+1.91047559449E+007, -2.19654239887E-001, +6.58281292813E+002
+1.92297872340E+007, +1.10829861775E+000, +6.68368218131E+002
+1.93548185232E+007, +2.02314230066E-001, +6.71960184689E+002
+1.94798498123E+007, -1.05121768875E-001, +6.77523663647E+002
+1.96048811014E+007, +2.70694339215E+000, +6.85509646433E+002
+1.97299123905E+007, +1.39050295916E-001, +6.90743723161E+002
+1.98549436796E+007, +5.63781322570E-001, +7.00708411392E+002
+1.99799749687E+007, +9.07549860366E-001, +7.05667867675E+002
+2.01050062578E+007, -3.45037889466E+000, +7.11112533629E+002
+2.02300375469E+007, +3.93480883199E+000, +7.15729386412E+002
+2.03550688360E+007, -1.19380558928E+000, +7.25185426819E+002
+2.04801001252E+007, +6.43819325844E-001, +7.31340734772E+002
+2.06051314143E+007, +1.65092473125E+000, +7.38582201915E+002
+2.07301627034E+007, +1.11448889457E+000, +7.46342321858E+002
+2.08551939925E+007, +1.65150294372E+000, +7.54333449894E+002
+2.09802252816E+007, +1.51875541624E+000, +7.57536810118E+002
+2.11052565707E+007, +6.33434812688E-002, +7.68848207786E+002
+2.12302878598E+007, +7.16250749448E-002, +7.78164804655E+002
+2.13553191489E+007, +2.77575036694E+000, +7.78810308792E+002
+2.14803504380E+007, +1.58274769000E+000, +7.86932835268E+002
+2.16053817272E+007, -1.88618448024E-001, +7.97238219719E+002
+2.17304130163E+007, +1.71895618004E+000, +8.04715596509E+002
+2.18554443054E+007, +3.49447998326E+000, +8.11097359786E+002
+2.19804755945E+007, +1.62478148290E+000, +8.20827987654E+002
+2.21055068836E+007, +2.42668854729E+000, +8.30806961200E+002
+2.22305381727E+007, +1.83685562865E+000, +8.36848385202E+002
+2.23555694618E+007, +4.15395843038E+000, +8.46344115678E+002
+2.24806007509E+007, +8.47436727318E+000, +8.52921298116E+002
+2.26056320401E+007, +7.94958188696E+000, +8.60358703625E+002
+2.27306633292E+007, +4.37352390828E+000, +8.62868113155E+002
+2.28556946183E+007, +3.17940434601E+000, +8.76297655965E+002
+2.29807259074E+007, +6.59711265138E+000, +8.85822414714E+002
+2.31057571965E+007, +1.01860728613E+001, +8.94290307588E+002
+2.32307884856E+007, +1.16237536068E+001, +9.01545015355E+002
+2.33558197747E+007, +1.14369874992E+001, +9.09365943895E+002
+2.34808510638E+007, +9.34954533213E+000, +9.17223086807E+002
+2.36058823529E+007, +1.03499735516E+001, +9.26500953737E+002
+2.37309136421E+007, +1.13043267767E+001, +9.31831263267E+002
+2.38559449312E+007, +1.38320150292E+001, +9.45559538358E+002
+2.39809762203E+007, +1.58170794205E+001, +9.50177865857E+002
+2.41060075094E+007, +1.51975950052E+001, +9.52582697754E+002
+2.42310387985E+007, +1.47388356879E+001, +9.67516415497E+002
+2.43560700876E+007, +1.81675375065E+001, +9.70771188782E+002
+2.44811013767E+007, +1.57132625900E+001, +9.82843603545E+002
+2.46061326658E+007, +1.92957369058E+001, +9.90466410308E+002
+2.47311639549E+007, +1.28869820150E+001, +9.97392612968E+002
+2.48561952441E+007, +1.53018315865E+001, +1.01332287522E+003
+2.49812265332E+007, +1.44170579340E+001, +1.02211718895E+003
+2.51062578223E+007, +1.98007336395E+001, +1.02092431434E+003
+2.52312891114E+007, +1.10812663792E+001, +1.02842312947E+003
+2.53563204005E+007, +7.54971138797E+000, +1.04616141012E+003
+2.54813516896E+007, +1.08234006890E+001, +1.05473553260E+003
+2.56063829787E+007, +1.61753902459E+001, +1.06567003769E+003
+2.57314142678E+007, +1.25303716835E+001, +1.07547113249E+003
+2.58564455569E+007, +1.30141712415E+001, +1.08594105359E+003
+2.59814768461E+007, +1.64696639082E+001, +1.09534575161E+003
+2.61065081352E+007, +1.45660956790E+001, +1.10510033813E+003
+2.62315394243E+007, +1.15939928895E+001, +1.12081617691E+003
+2.63565707134E+007, +2.44024720614E+000, +1.12874874376E+003
+2.64816020025E+007, +1.13482321058E+001, +1.14463382062E+003
+2.66066332916E+007, +9.81380345908E+000, +1.14989270207E+003
+2.67316645807E+007, +5.20670782679E+000, +1.16696262034E+003
+2.68566958698E+007, +1.72081637467E+001, +1.18065151723E+003
+2.69817271589E+007, +1.24149879523E+001, +1.19175160430E+003
+2.71067584481E+007, +1.32707908651E+001, +1.20644495616E+003
+2.72317897372E+007, +1.60384284931E+001, +1.21080596376E+003
+2.73568210263E+007, +2.55944931123E+001, +1.22221645169E+003
+2.74818523154E+007, +1.65680659128E+001, +1.23350183659E+003
+2.76068836045E+007, +1.11950274412E+001, +1.24726673525E+003
+2.77319148936E+007, +1.54786656340E+001, +1.25414601310E+003
+2.78569461827E+007, +9.41059079982E+000, +1.26748201854E+003
+2.79819774718E+007, +4.02646879835E+000, +1.29252480263E+003
+2.81070087610E+007, +1.59064320499E+001, +1.29493903363E+003
+2.82320400501E+007, +4.23721990778E+000, +1.31553189156E+003
+2.83570713392E+007, +6.30417399564E+000, +1.32507692045E+003
+2.84821026283E+007, +1.34876385125E+001, +1.34338624180E+003
+2.86071339174E+007, -5.63717797909E-001, +1.35485123890E+003
+2.87321652065E+007, +9.28140312493E+000, +1.37813155533E+003
+2.88571964956E+007, +1.86807233068E+001, +1.38810001221E+003
+2.89822277847E+007, +9.01058531156E+000, +1.40001935680E+003
+2.91072590738E+007, +2.09326093149E+000, +1.42128784720E+003
+2.92322903630E+007, +1.14493529212E+000, +1.43705076630E+003
+2.93573216521E+007, +9.81215558214E+000, +1.45411731461E+003
+2.94823529412E+007, +2.29517950358E+000, +1.46691446153E+003
+2.96073842303E+007, +5.99403766795E+000, +1.49056838435E+003
+2.97324155194E+007, +8.10382633240E+000, +1.51807033583E+003
+2.98574468085E+007, -5.33056194380E-002, +1.52002684279E+003
+2.99824780976E+007, +5.96486005942E+000, +1.53727102866E+003
+3.01075093867E+007, +8.25807014620E+000, +1.55461973776E+003
+3.02325406758E+007, -6.31581013367E-002, +1.57993277308E+003
+3.03575719650E+007, +6.82889275276E+000, +1.59549742319E+003
+3.04826032541E+007, -1.55007596389E+001, +1.61948625808E+003
+3.06076345432E+007, -3.70896518787E-001, +1.62783522377E+003
+3.07326658323E+007, +1.19690604044E+000, +1.64864105238E+003
+3.08576971214E+007, -5.28016194339E+000, +1.65479178140E+003
+3.09827284105E+007, -6.22153704381E+000, +1.70010924545E+003
+3.11077596996E+007, -3.77525950605E+000, +1.71836719139E+003
+3.12327909887E+007, +1.62325943653E+001, +1.73483318653E+003
+3.13578222778E+007, +1.08353000112E+001, +1.75541333146E+003
+3.14828535670E+007, +7.05377158819E-001, +1.77182158704E+003
+3.16078848561E+007, +5.89229875396E+000, +1.80959056439E+003
+3.17329161452E+007, +1.16998063851E+001, +1.84232078056E+003
+3.18579474343E+007, -6.15358945360E+000, +1.85754218676E+003
+3.19829787234E+007, -8.16961419088E+000, +1.87080651270E+003
+3.21080100125E+007, +1.13896756580E+001, +1.91405016441E+003
+3.22330413016E+007, +1.90186943772E+000, +1.92086864521E+003
+3.23580725907E+007, -5.77879080422E+000, +1.95736733898E+003
+3.24831038798E+007, +6.69212573300E+000, +1.96313196391E+003
+3.26081351690E+007, -2.27551051339E+001, +2.01680845650E+003
+3.27331664581E+007, +1.92385843659E+001, +2.02814972390E+003
+3.28581977472E+007, -1.11705359457E+001, +2.08216016136E+003
+3.29832290363E+007, -6.95191364419E-001, +2.10250235290E+003
+3.31082603254E+007, -2.05017459824E+001, +2.12849263855E+003
+3.32332916145E+007, +1.05860278336E+001, +2.16390108077E+003
+3.33583229036E+007, -2.00004819663E+001, +2.20809440534E+003
+3.34833541927E+007, -1.48476698395E+001, +2.22677573463E+003
+3.36083854819E+007, +1.63995232342E+001, +2.25378162919E+003
+3.37334167710E+007, -1.04389656792E+000, +2.28399397729E+003
+3.38584480601E+007, -1.19380807033E+001, +2.33225139103E+003
+3.39834793492E+007, +4.35193008159E-002, +2.37139044161E+003
+3.41085106383E+007, +1.36571214907E+001, +2.41033123408E+003
+3.42335419274E+007, +2.61622436059E+001, +2.44364085313E+003
+3.43585732165E+007, +2.40631381840E+001, +2.48841687615E+003
+3.44836045056E+007, +3.52026371198E+001, +2.54493723118E+003
+3.46086357947E+007, +3.28942074949E+001, +2.56365460643E+003
+3.47336670839E+007, +2.85541692400E+001, +2.62871566609E+003
+3.48586983730E+007, +4.41679805423E+001, +2.67661920109E+003
+3.49837296621E+007, +7.17476741702E+001, +2.69701877711E+003
+3.51087609512E+007, +6.34618432096E+001, +2.74275426759E+003
+3.52337922403E+007, +5.75408605046E+001, +2.79151051861E+003
+3.53588235294E+007, +3.80459739832E+001, +2.86523428479E+003
+3.54838548185E+007, +2.60015514629E+001, +2.88589999590E+003
+3.56088861076E+007, +3.19011818924E+001, +3.00091997012E+003
+3.57339173967E+007, +4.74572075825E+001, +3.07169341383E+003
+3.58589486859E+007, +7.29248891601E+000, +3.07944223470E+003
+3.59839799750E+007, +7.64915210196E+001, +3.15217707835E+003
+3.61090112641E+007, +5.12504004421E+001, +3.19623188641E+003
+3.62340425532E+007, +3.13571353320E+001, +3.26417705986E+003
+3.63590738423E+007, +3.68932329774E+001, +3.37160788779E+003
+3.64841051314E+007, +3.33270298688E+001, +3.40641986547E+003
+3.66091364205E+007, +7.83589680828E+001, +3.50584126542E+003
+3.67341677096E+007, +1.06651262600E+002, +3.55311237409E+003
+3.68591989987E+007, +2.93543316675E+001, +3.69556189159E+003
+3.69842302879E+007, +6.44823781629E+001, +3.70383812850E+003
+3.71092615770E+007, +9.05717842846E+001, +3.85652792779E+003
+3.72342928661E+007, +8.86351623545E+000, +3.91085970419E+003
+3.73593241552E+007, -2.87945336711E+001, +4.11899246461E+003
+3.74843554443E+007, +8.67544352962E+001, +4.18299735571E+003
+3.76093867334E+007, +6.75820026135E+001, +4.19894838167E+003
+3.77344180225E+007, +1.47371482650E+002, +4.41194703704E+003
+3.78594493116E+007, +5.92232367421E+001, +4.57416806642E+003
+3.79844806008E+007, +8.50455391379E+001, +4.58251234504E+003
+3.81095118899E+007, +1.51147282216E+002, +4.82476605619E+003
+3.82345431790E+007, +1.00699850497E+002, +4.90017601364E+003
+3.83595744681E+007, +2.73280387582E+002, +5.00622708444E+003
+3.84846057572E+007, +1.05795241438E+002, +5.16422489987E+003
+3.86096370463E+007, +1.07754355528E+002, +5.38703668133E+003
+3.87346683354E+007, +1.68250409899E+002, +5.57755154773E+003
+3.88596996245E+007, +6.84553678564E+001, +5.82335540903E+003
+3.89847309136E+007, +3.96620573773E+002, +6.02986357962E+003
+3.91097622028E+007, +2.33948383999E+002, +6.29518566087E+003
+3.92347934919E+007, +3.42718443371E+002, +6.50954859504E+003
+3.93598247810E+007, +4.28895505188E+002, +6.59457477891E+003
+3.94848560701E+007, +2.86403820743E+002, +6.91180023035E+003
+3.96098873592E+007, +4.01455036607E+002, +7.14700085969E+003
+3.97349186483E+007, +8.74795291863E+002, +7.78708249191E+003
+3.98599499374E+007, +7.67415983635E+002, +8.18505519237E+003
+3.99849812265E+007, +8.81781083398E+002, +8.81068445807E+003
+4.01100125156E+007, +7.22744941404E+002, +9.57204720865E+003
