"# Channel 1"
"# Trace 1"
Frequency, Formatted Data, Formatted Data
+1.00000000000E+005, +9.10669835355E+000, +3.15401951573E+000
+2.25031289111E+005, +9.18104331327E+000, +6.94141803655E+000
+3.50062578223E+005, +9.29668669257E+000, +1.07034036322E+001
+4.75093867334E+005, +9.35297820033E+000, +1.44736355425E+001
+6.00125156446E+005, +9.40441615218E+000, +1.81785200306E+001
+7.25156445557E+005, +9.50257094547E+000, +2.19035511876E+001
+8.50187734668E+005, +9.51678976440E+000, +2.56048305237E+001
+9.75219023780E+005, +9.54309463429E+000, +2.93435517655E+001
+1.10025031289E+006, +9.61357444454E+000, +3.30215196285E+001
+1.22528160200E+006, +9.58328670766E+000, +3.67371991157E+001
+1.35031289111E+006, +9.70188380405E+000, +4.04908721651E+001
+1.47534418023E+006, +9.73310662739E+000, +4.41566220014E+001
+1.60037546934E+006, +9.71737516684E+000, +4.79092644582E+001
+1.72540675845E+006, +9.68765636304E+000, +5.15736291187E+001
+1.85043804756E+006, +9.73082236180E+000, +5.52790741104E+001
+1.97546933667E+006, +9.78511700998E+000, +5.89892594910E+001
+2.10050062578E+006, +9.72052785366E+000, +6.29165532723E+001
+2.22553191489E+006, +9.84442270925E+000, +6.64050731412E+001
+2.35056320401E+006, +9.78746981563E+000, +7.02602016424E+001
+2.47559449312E+006, +9.95984639270E+000, +7.39801233881E+001
+2.60062578223E+006, +9.89344769963E+000, +7.75618496739E+001
+2.72565707134E+006, +9.99656476800E+000, +8.13658343829E+001
+2.85068836045E+006, +9.99425131261E+000, +8.51358788629E+001
+2.97571964956E+006, +9.92042953367E+000, +8.88590825874E+001
+3.10075093867E+006, +9.98486129748E+000, +9.26102624279E+001
+3.22578222778E+006, +1.01146696328E+001, +9.64481821959E+001
+3.35081351690E+006, +1.01426060991E+001, +1.00099154931E+002
+3.47584480601E+006, +1.01653915117E+001, +1.03823153355E+002
+3.60087609512E+006, +1.02387757124E+001, +1.07841804217E+002
+3.72590738423E+006, +1.01462858855E+001, +1.11443762420E+002
+3.85093867334E+006, +1.02288401556E+001, +1.15541231175E+002
+3.97596996245E+006, +1.04145826431E+001, +1.19240198792E+002
+4.10100125156E+006, +1.04327663040E+001, +1.22636689966E+002
+4.22603254068E+006, +1.02875962314E+001, +1.26421015738E+002
+4.35106382979E+006, +1.03218410899E+001, +1.30663464095E+002
+4.47609511890E+006, +1.05740165096E+001, +1.34165903185E+002
+4.60112640801E+006, +1.04093257365E+001, +1.38418107831E+002
+4.72615769712E+006, +1.04946062755E+001, +1.41901234136E+002
+4.85118898623E+006, +1.05648485143E+001, +1.45906118631E+002
+4.97622027534E+006, +1.06630019463E+001, +1.49700868371E+002
+5.10125156446E+006, +1.07474000640E+001, +1.53181039752E+002
+5.22628285357E+006, +1.05362508148E+001, +1.57665233465E+002
+5.35131414268E+006, +1.06852670192E+001, +1.60924701426E+002
+5.47634543179E+006, +1.08379924286E+001, +1.65330195120E+002
+5.60137672090E+006, +1.08800648282E+001, +1.68998125401E+002
+5.72640801001E+006, +1.04105951884E+001, +1.72754684387E+002
+5.85143929912E+006, +1.09668361061E+001, +1.76688358573E+002
+5.97647058824E+006, +1.08986896865E+001, +1.80500821728E+002
+6.10150187735E+006, +1.10233063808E+001, +1.84721676981E+002
+6.22653316646E+006, +1.12659641593E+001, +1.88622222322E+002
+6.35156445557E+006, +1.11558186311E+001, +1.92278878555E+002
+6.47659574468E+006, +1.14085241940E+001, +1.96389001540E+002
+6.60162703379E+006, +1.13334534314E+001, +2.00505050262E+002
+6.72665832290E+006, +1.15317069400E+001, +2.04177031986E+002
+6.85168961202E+006, +1.15354156037E+001, +2.08154257331E+002
+6.97672090113E+006, +1.15960036561E+001, +2.11966039083E+002
+7.10175219024E+006, +1.12868422051E+001, +2.16306593484E+002
+7.22678347935E+006, +1.18395886448E+001, +2.20357239641E+002
+7.35181476846E+006, +1.17524667944E+001, +2.24113667802E+002
+7.47684605757E+006, +1.20592264840E+001, +2.28079173842E+002
+7.60187734668E+006, +1.17928563992E+001, +2.32366829499E+002
+7.72690863579E+006, +1.25500487087E+001, +2.36022144044E+002
+7.85193992491E+006, +1.21209486596E+001, +2.40516233725E+002
+7.97697121402E+006, +1.24059474814E+001, +2.44565434045E+002
+8.10200250313E+006, +1.22034786562E+001, +2.48991021218E+002
+8.22703379224E+006, +1.22534740710E+001, +2.52752596718E+002
+8.35206508135E+006, +1.24817961823E+001, +2.56662339384E+002
+8.47709637046E+006, +1.26819369717E+001, +2.60980105012E+002
+8.60212765957E+006, +1.23670845061E+001, +2.65171919729E+002
+8.72715894869E+006, +1.25610847670E+001, +2.68859012243E+002
+8.85219023780E+006, +1.20906141209E+001, +2.73883275316E+002
+8.97722152691E+006, +1.29121778215E+001, +2.77536524596E+002
+9.10225281602E+006, +1.27573562602E+001, +2.81752077896E+002
+9.22728410513E+006, +1.28970699233E+001, +2.85863427310E+002
+9.35231539424E+006, +1.25615208177E+001, +2.90175215488E+002
+9.47734668335E+006, +1.24546071472E+001, +2.94694435188E+002
+9.60237797247E+006, +1.31585282682E+001, +2.98875699653E+002
+9.72740926158E+006, +1.29095972861E+001, +3.02786900704E+002
+9.85244055069E+006, +1.25376785209E+001, +3.07191798198E+002
+9.97747183980E+006, +1.33017746187E+001, +3.11866164517E+002
+1.01025031289E+007, +1.30083070145E+001, +3.15507994967E+002
+1.02275344180E+007, +1.33859726138E+001, +3.20198861121E+002
+1.03525657071E+007, +1.36851593882E+001, +3.24519747079E+002
+1.04775969962E+007, +1.31744178272E+001, +3.28524053988E+002
+1.06026282854E+007, +1.33791324388E+001, +3.32840636827E+002
+1.07276595745E+007, +1.27581397284E+001, +3.37400974711E+002
+1.08526908636E+007, +1.33171400693E+001, +3.42423535543E+002
+1.09777221527E+007, +1.41141880335E+001, +3.47036385599E+002
+1.11027534418E+007, +1.34522546565E+001, +3.51281410889E+002
+1.12277847309E+007, +1.34648246506E+001, +3.55246966249E+002
+1.13528160200E+007, +1.35792591594E+001, +3.59716738577E+002
+1.14778473091E+007, +1.46820955812E+001, +3.64570595825E+002
+1.16028785982E+007, +1.36490002321E+001, +3.69230941474E+002
+1.17279098874E+007, +1.36514600841E+001, +3.73494225212E+002
+1.18529411765E+007, +1.42820782746E+001, +3.77932030374E+002
+1.19779724656E+007, +1.38969080227E+001, +3.82679501891E+002
+1.21030037547E+007, +1.38344863381E+001, +3.86459935325E+002
+1.22280350438E+007, +1.45383329914E+001, +3.92675450166E+002
+1.23530663329E+007, +1.46022709093E+001, +3.97227625838E+002
+1.24780976220E+007, +1.42759363719E+001, +4.00278610572E+002
+1.26031289111E+007, +1.45256254273E+001, +4.05413245766E+002
+1.27281602003E+007, +1.46864520356E+001, +4.10497262376E+002
+1.28531914894E+007, +1.38313269921E+001, +4.15282405099E+002
+1.29782227785E+007, +1.41098247993E+001, +4.20086301744E+002
+1.31032540676E+007, +1.40430776340E+001, +4.24855161984E+002
+1.32282853567E+007, +1.58942720438E+001, +4.29867108214E+002
+1.33533166458E+007, +1.50048552848E+001, +4.34371038414E+002
+1.34783479349E+007, +1.46316208701E+001, +4.39769406866E+002
+1.36033792240E+007, +1.53872968322E+001, +4.44669788090E+002
+1.37284105131E+007, +1.48828690111E+001, +4.49127106134E+002
+1.38534418023E+007, +1.45192330924E+001, +4.53247116972E+002
+1.39784730914E+007, +1.55271906572E+001, +4.59683929983E+002
+1.41035043805E+007, +1.52249057327E+001, +4.64159491358E+002
+1.42285356696E+007, +1.60247880181E+001, +4.70492154847E+002
+1.43535669587E+007, +1.54276432739E+001, +4.75613494919E+002
+1.44785982478E+007, +1.56633737598E+001, +4.80485258493E+002
+1.46036295369E+007, +1.56593176451E+001, +4.86433651145E+002
+1.47286608260E+007, +1.43680474727E+001, +4.90336890312E+002
+1.48536921151E+007, +1.53824140073E+001, +4.94991519195E+002
+1.49787234043E+007, +1.61411776392E+001, +5.00795315032E+002
+1.51037546934E+007, +1.58043435951E+001, +5.06376599952E+002
+1.52287859825E+007, +1.63612634570E+001, +5.11460937209E+002
+1.53538172716E+007, +1.61422533988E+001, +5.17108546142E+002
+1.54788485607E+007, +1.48555710533E+001, +5.23455329174E+002
+1.56038798498E+007, +1.68489655939E+001, +5.27900403757E+002
+1.57289111389E+007, +1.66623744585E+001, +5.32920447712E+002
+1.58539424280E+007, +1.64531897278E+001, +5.37182576723E+002
+1.59789737171E+007, +1.60567549274E+001, +5.44357136089E+002
+1.61040050063E+007, +1.68122136002E+001, +5.50966519623E+002
+1.62290362954E+007, +1.59973530583E+001, +5.55021463997E+002
+1.63540675845E+007, +1.76771862358E+001, +5.61923532627E+002
+1.64790988736E+007, +1.61910069895E+001, +5.66666059790E+002
+1.66041301627E+007, +1.61621884924E+001, +5.72469255966E+002
+1.67291614518E+007, +1.65749405357E+001, +5.78528576925E+002
+1.68541927409E+007, +1.50593821241E+001, +5.84795598492E+002
+1.69792240300E+007, +1.87980240610E+001, +5.91019410880E+002
+1.71042553191E+007, +1.52395498918E+001, +5.95107512259E+002
+1.72292866083E+007, +1.66805823958E+001, +6.01872082954E+002
+1.73543178974E+007, +1.65900204346E+001, +6.08389064406E+002
+1.74793491865E+007, +1.65600304324E+001, +6.15440950491E+002
+1.76043804756E+007, +1.58846948838E+001, +6.20123183094E+002
+1.77294117647E+007, +1.56434992631E+001, +6.25571696093E+002
+1.78544430538E+007, +1.70271928075E+001, +6.33756739789E+002
+1.79794743429E+007, +1.89915987364E+001, +6.39716417934E+002
+1.81045056320E+007, +1.63426537216E+001, +6.45669061934E+002
+1.82295369212E+007, +1.88015523727E+001, +6.53799573722E+002
+1.83545682103E+007, +1.96333834782E+001, +6.56777395580E+002
+1.84795994994E+007, +1.75540458133E+001, +6.64711691089E+002
+1.86046307885E+007, +1.84105548314E+001, +6.72527357907E+002
+1.87296620776E+007, +1.89684296520E+001, +6.79357262128E+002
+1.88546933667E+007, +1.84149535954E+001, +6.86109602860E+002
+1.89797246558E+007, +2.20013894715E+001, +6.92545074999E+002
+1.91047559449E+007, +2.15153308194E+001, +7.00025615238E+002
+1.92297872340E+007, +1.98085892010E+001, +7.02890461198E+002
+1.93548185232E+007, +2.27230111685E+001, +7.11310110275E+002
+1.94798498123E+007, +1.99506405953E+001, +7.17258164728E+002
+1.96048811014E+007, +2.01457681886E+001, +7.25416990587E+002
+1.97299123905E+007, +2.29161934696E+001, +7.31823629782E+002
+1.98549436796E+007, +2.16072675391E+001, +7.40464535547E+002
+1.99799749687E+007, +2.07166563598E+001, +7.48359583546E+002
+2.01050062578E+007, +2.26705131116E+001, +7.56570561347E+002
+2.02300375469E+007, +2.39692574568E+001, +7.62453017207E+002
+2.03550688360E+007, +2.46646707157E+001, +7.68881710547E+002
+2.04801001252E+007, +2.45500085117E+001, +7.79562675389E+002
+2.06051314143E+007, +2.20019089563E+001, +7.85448813670E+002
+2.07301627034E+007, +2.54350379228E+001, +7.92200001026E+002
+2.08551939925E+007, +2.58408895892E+001, +8.01093672422E+002
+2.09802252816E+007, +2.96526800411E+001, +8.07899095360E+002
+2.11052565707E+007, +2.85177468279E+001, +8.15753515250E+002
+2.12302878598E+007, +2.95437521562E+001, +8.24294774041E+002
+2.13553191489E+007, +2.86156271323E+001, +8.30233837543E+002
+2.14803504380E+007, +2.99938490384E+001, +8.38853580282E+002
+2.16053817272E+007, +3.24990437832E+001, +8.46547759672E+002
+2.17304130163E+007, +2.90147369796E+001, +8.55078950151E+002
+2.18554443054E+007, +3.08965408574E+001, +8.59089551818E+002
+2.19804755945E+007, +3.07132103435E+001, +8.71075120853E+002
+2.21055068836E+007, +3.40768438679E+001, +8.81067245556E+002
+2.22305381727E+007, +4.13163841749E+001, +8.90372527159E+002
+2.23555694618E+007, +3.41657844680E+001, +8.95368946157E+002
+2.24806007509E+007, +3.44533254228E+001, +9.06520056275E+002
+2.26056320401E+007, +3.67743436374E+001, +9.15283019524E+002
+2.27306633292E+007, +3.95475156326E+001, +9.22119795296E+002
+2.28556946183E+007, +4.43062466142E+001, +9.30831696074E+002
+2.29807259074E+007, +3.73435821989E+001, +9.36892168490E+002
+2.31057571965E+007, +4.90401199320E+001, +9.47199836563E+002
+2.32307884856E+007, +4.43229497292E+001, +9.55498069101E+002
+2.33558197747E+007, +4.23183123935E+001, +9.61280755789E+002
+2.34808510638E+007, +4.32716705988E+001, +9.68491597092E+002
+2.36058823529E+007, +4.49756510252E+001, +9.78312694217E+002
+2.37309136421E+007, +4.63067583443E+001, +9.88744065642E+002
+2.38559449312E+007, +4.33274509216E+001, +1.00104124421E+003
+2.39809762203E+007, +4.51115750544E+001, +1.00622771104E+003
+2.41060075094E+007, +4.45463178539E+001, +1.01922222074E+003
+2.42310387985E+007, +4.43636817703E+001, +1.02138537797E+003
+2.43560700876E+007, +4.17323729609E+001, +1.03293429379E+003
+2.44811013767E+007, +4.76925695488E+001, +1.04205638565E+003
+2.46061326658E+007, +4.04783016002E+001, +1.05648285629E+003
+2.47311639549E+007, +4.30844532037E+001, +1.06259224881E+003
+2.48561952441E+007, +4.10605488639E+001, +1.07811068857E+003
+2.49812265332E+007, +4.72196586748E+001, +1.08638749489E+003
+2.51062578223E+007, +4.83664480718E+001, +1.10397015451E+003
+2.52312891114E+007, +4.80775533293E+001, +1.11244600907E+003
+2.53563204005E+007, +5.15604082947E+001, +1.12476980077E+003
+2.54813516896E+007, +4.26760681367E+001, +1.13922077199E+003
+2.56063829787E+007, +4.46943687693E+001, +1.14894717638E+003
+2.57314142678E+007, +4.80911879928E+001, +1.15339556247E+003
+2.58564455569E+007, +4.89991694386E+001, +1.16596548377E+003
+2.59814768461E+007, +5.42578221143E+001, +1.18130543955E+003
+2.61065081352E+007, +5.58973781163E+001, +1.18824568141E+003
+2.62315394243E+007, +4.94285567409E+001, +1.20006457189E+003
+2.63565707134E+007, +5.05906620972E+001, +1.22173825927E+003
+2.64816020025E+007, +4.58985184486E+001, +1.23263805850E+003
+2.66066332916E+007, +4.84104676861E+001, +1.25130948214E+003
+2.67316645807E+007, +5.39669106623E+001, +1.25813824655E+003
+2.68566958698E+007, +4.90284428004E+001, +1.28082958502E+003
+2.69817271589E+007, +4.74127200025E+001, +1.29099324152E+003
+2.71067584481E+007, +5.64979402442E+001, +1.31050139691E+003
+2.72317897372E+007, +4.71086268131E+001, +1.31934278910E+003
+2.73568210263E+007, +5.57779648554E+001, +1.32949272135E+003
+2.74818523154E+007, +5.20029912646E+001, +1.34377389007E+003
+2.76068836045E+007, +6.30908911068E+001, +1.36618807873E+003
+2.77319148936E+007, +5.75117168908E+001, +1.36916020906E+003
+2.78569461827E+007, +5.93176144501E+001, +1.38758413012E+003
+2.79819774718E+007, +4.97979597109E+001, +1.40766845135E+003
+2.81070087610E+007, +7.35259543893E+001, +1.42211603067E+003
+2.82320400501E+007, +5.76464087849E+001, +1.43602643476E+003
+2.83570713392E+007, +6.45420898567E+001, +1.45274986617E+003
+2.84821026283E+007, +5.70574658914E+001, +1.46701569509E+003
+2.86071339174E+007, +6.13553307265E+001, +1.48840915258E+003
+2.87321652065E+007, +6.96194627525E+001, +1.49999625889E+003
+2.88571964956E+007, +6.64434936925E+001, +1.51773565969E+003
+2.89822277847E+007, +6.73899062270E+001, +1.53702525429E+003
+2.91072590738E+007, +7.49457388766E+001, +1.56149917876E+003
+2.92322903630E+007, +7.18713747057E+001, +1.59188326698E+003
+2.93573216521E+007, +6.46695538988E+001, +1.59813023209E+003
+2.94823529412E+007, +6.52296244410E+001, +1.62362877676E+003
+2.96073842303E+007, +5.80052408595E+001, +1.63090768915E+003
+2.97324155194E+007, +7.59017710154E+001, +1.67580915415E+003
+2.98574468085E+007, +8.83220591919E+001, +1.68414761201E+003
+2.99824780976E+007, +8.62777426766E+001, +1.69896898170E+003
+3.01075093867E+007, +7.38797402607E+001, +1.72521124077E+003
+3.02325406758E+007, +7.74790123955E+001, +1.76360197739E+003
+3.03575719650E+007, +8.42894508211E+001, +1.77454477855E+003
+3.04826032541E+007, +6.68347096296E+001, +1.78839523082E+003
+3.06076345432E+007, +8.29134208449E+001, +1.83569584037E+003
+3.07326658323E+007, +8.93783324224E+001, +1.86543495955E+003
+3.08576971214E+007, +1.01054511422E+002, +1.86296687617E+003
+3.09827284105E+007, +8.82188370714E+001, +1.88874358936E+003
+3.11077596996E+007, +8.01924342611E+001, +1.92156791006E+003
+3.12327909887E+007, +9.35686898844E+001, +1.95180559241E+003
+3.13578222778E+007, +9.89760368248E+001, +1.97352002816E+003
+3.14828535670E+007, +1.11121724079E+002, +1.99511318979E+003
+3.16078848561E+007, +1.01128018050E+002, +2.03827549624E+003
+3.17329161452E+007, +1.14926192584E+002, +2.04630355627E+003
+3.18579474343E+007, +9.88823626365E+001, +2.08626297550E+003
+3.19829787234E+007, +1.11879878436E+002, +2.10713893448E+003
+3.21080100125E+007, +1.12748907692E+002, +2.18266390033E+003
+3.22330413016E+007, +1.15404164837E+002, +2.16920742164E+003
+3.23580725907E+007, +1.21760855042E+002, +2.21233262827E+003
+3.24831038798E+007, +1.45254375502E+002, +2.26910822238E+003
+3.26081351690E+007, +1.31760042062E+002, +2.26230959720E+003
+3.27331664581E+007, +1.26942011379E+002, +2.31801819343E+003
+3.28581977472E+007, +1.15124427126E+002, +2.35715838908E+003
+3.29832290363E+007, +1.27645495160E+002, +2.40999818067E+003
+3.31082603254E+007, +1.51965855765E+002, +2.45454589612E+003
+3.32332916145E+007, +1.56311657431E+002, +2.49332310336E+003
+3.33583229036E+007, +1.65009844119E+002, +2.52814846869E+003
+3.34833541927E+007, +1.40348036090E+002, +2.58103046811E+003
+3.36083854819E+007, +1.42759794994E+002, +2.59556731934E+003
+3.37334167710E+007, +1.55982696320E+002, +2.67927676557E+003
+3.38584480601E+007, +1.58093152352E+002, +2.72969212698E+003
+3.39834793492E+007, +1.53350018571E+002, +2.76951350257E+003
+3.41085106383E+007, +1.54411116112E+002, +2.85868680491E+003
+3.42335419274E+007, +2.06190426577E+002, +2.85626464164E+003
+3.43585732165E+007, +2.20299742486E+002, +2.94570527029E+003
+3.44836045056E+007, +2.27189762902E+002, +3.00625912904E+003
+3.46086357947E+007, +2.58008920681E+002, +3.03093299277E+003
+3.47336670839E+007, +2.12074274788E+002, +3.11918804808E+003
+3.48586983730E+007, +3.19202238825E+002, +3.12624192851E+003
+3.49837296621E+007, +2.71313518162E+002, +3.21145844088E+003
+3.51087609512E+007, +2.91841595687E+002, +3.34339855973E+003
+3.52337922403E+007, +2.89822600176E+002, +3.39094571603E+003
+3.53588235294E+007, +2.93828608942E+002, +3.50263753225E+003
+3.54838548185E+007, +3.23458412813E+002, +3.60592692018E+003
+3.56088861076E+007, +3.65158608590E+002, +3.61440885313E+003
+3.57339173967E+007, +3.86459280786E+002, +3.74016271177E+003
+3.58589486859E+007, +3.79599045427E+002, +3.79569658699E+003
+3.59839799750E+007, +3.57132584607E+002, +3.93146821171E+003
+3.61090112641E+007, +3.61015037320E+002, +3.98801978459E+003
+3.62340425532E+007, +4.60830525743E+002, +4.13891672193E+003
+3.63590738423E+007, +4.67062197047E+002, +4.29584535455E+003
+3.64841051314E+007, +5.59933717825E+002, +4.28969880046E+003
+3.66091364205E+007, +5.63728916373E+002, +4.57688190108E+003
+3.67341677096E+007, +6.28612608114E+002, +4.55150798210E+003
+3.68591989987E+007, +5.81055314291E+002, +4.79125786732E+003
+3.69842302879E+007, +7.46433010936E+002, +4.96107059163E+003
+3.71092615770E+007, +8.60342958757E+002, +4.97976429280E+003
+3.72342928661E+007, +7.95765258829E+002, +5.21910552488E+003
+3.73593241552E+007, +8.66544875985E+002, +5.34304328566E+003
+3.74843554443E+007, +8.88669133337E+002, +5.56753886093E+003
+3.76093867334E+007, +1.03753003140E+003, +5.78546965607E+003
+3.77344180225E+007, +1.23218036092E+003, +5.89154977699E+003
+3.78594493116E+007, +1.17635140899E+003, +6.19770225462E+003
+3.79844806008E+007, +1.38901341692E+003, +6.32901063224E+003
+3.81095118899E+007, +1.38484284183E+003, +6.54824938629E+003
+3.82345431790E+007, +1.72058391011E+003, +6.92223470009E+003
+3.83595744681E+007, +1.87009134363E+003, +7.15239622545E+003
+3.84846057572E+007, +1.92798982997E+003, +7.41445947840E+003
+3.86096370463E+007, +2.05509769741E+003, +7.64814665742E+003
+3.87346683354E+007, +2.54529520515E+003, +8.06559832350E+003
+3.88596996245E+007, +2.69025540993E+003, +8.26326974267E+003
+3.89847309136E+007, +3.35703936975E+003, +8.59076377714E+003
+3.91097622028E+007, +3.35712782691E+003, +9.28897589117E+003
+3.92347934919E+007, +3.50838937550E+003, +9.91183219253E+003
+3.93598247810E+007, +4.32566190384E+003, +1.00992135312E+004
+3.94848560701E+007, +4.82147838601E+003, +9.87543163506E+003
+3.96098873592E+007, +5.89219455798E+003, +1.11537510390E+004
+3.97349186483E+007, +6.31516792893E+003, +1.17169161471E+004
+3.98599499374E+007, +7.88545503608E+003, +1.22225155018E+004
+3.99849812265E+007, +8.09018063064E+003, +1.21085037176E+004
+4.01100125156E+007, +8.94536885300E+003, +1.28994373713E+004
