"# Channel 1"
"# Trace 1"
Frequency, Formatted Data, Formatted Data
+1.00000000000E+005, +3.65536153317E+001, +2.87364954093E+000
+2.66777963272E+005, +3.65377731731E+001, +7.89716619544E+000
+4.33555926544E+005, +3.64679510688E+001, +1.28760875117E+001
+6.00333889816E+005, +3.64962030670E+001, +1.77898866698E+001
+7.67111853088E+005, +3.65303064242E+001, +2.27377647919E+001
+9.33889816361E+005, +3.65052721512E+001, +2.76641157525E+001
+1.10066777963E+006, +3.65432750867E+001, +3.27645067965E+001
+1.26744574290E+006, +3.66027451962E+001, +3.76407665475E+001
+1.43422370618E+006, +3.65625947951E+001, +4.27031847192E+001
+1.60100166945E+006, +3.65787161168E+001, +4.74740223768E+001
+1.76777963272E+006, +3.65297682402E+001, +5.24664844066E+001
+1.93455759599E+006, +3.64607552426E+001, +5.73681716646E+001
+2.10133555927E+006, +3.65276843383E+001, +6.23976046161E+001
+2.26811352254E+006, +3.66275623068E+001, +6.73554525560E+001
+2.43489148581E+006, +3.65916487697E+001, +7.24268162968E+001
+2.60166944908E+006, +3.66013916937E+001, +7.72540171696E+001
+2.76844741235E+006, +3.66084735725E+001, +8.24507446792E+001
+2.93522537563E+006, +3.65662138150E+001, +8.73977262453E+001
+3.10200333890E+006, +3.67222359975E+001, +9.21106140294E+001
+3.26878130217E+006, +3.66964793608E+001, +9.74517981162E+001
+3.43555926544E+006, +3.66947752834E+001, +1.02312753984E+002
+3.60233722871E+006, +3.68215326678E+001, +1.07405050101E+002
+3.76911519199E+006, +3.68109196540E+001, +1.12587799173E+002
+3.93589315526E+006, +3.67149506690E+001, +1.17342703467E+002
+4.10267111853E+006, +3.68557435736E+001, +1.22587881457E+002
+4.26944908180E+006, +3.68932679579E+001, +1.27843101949E+002
+4.43622704508E+006, +3.67020535695E+001, +1.32654857343E+002
+4.60300500835E+006, +3.69068746262E+001, +1.37833237725E+002
+4.76978297162E+006, +3.67232661870E+001, +1.42992384114E+002
+4.93656093489E+006, +3.71237384482E+001, +1.48043225344E+002
+5.10333889816E+006, +3.71799138909E+001, +1.53082115475E+002
+5.27011686144E+006, +3.78971697534E+001, +1.58249507101E+002
+5.43689482471E+006, +3.72052333233E+001, +1.63669756010E+002
+5.60367278798E+006, +3.75644350218E+001, +1.69004844428E+002
+5.77045075125E+006, +3.75727470265E+001, +1.73764886061E+002
+5.93722871452E+006, +3.76525517965E+001, +1.78925125636E+002
+6.10400667780E+006, +3.80912610255E+001, +1.84143688393E+002
+6.27078464107E+006, +3.81424233144E+001, +1.89264480835E+002
+6.43756260434E+006, +3.83348696432E+001, +1.94615053730E+002
+6.60434056761E+006, +3.85778848831E+001, +1.99747082963E+002
+6.77111853088E+006, +3.88364452985E+001, +2.04878104721E+002
+6.93789649416E+006, +3.88445426085E+001, +2.10323706500E+002
+7.10467445743E+006, +3.87466365380E+001, +2.15340254566E+002
+7.27145242070E+006, +3.92006316760E+001, +2.20698029648E+002
+7.43823038397E+006, +3.90894331173E+001, +2.25817532638E+002
+7.60500834725E+006, +3.91111584085E+001, +2.31356840101E+002
+7.77178631052E+006, +3.91957639499E+001, +2.36906490719E+002
+7.93856427379E+006, +3.92719756613E+001, +2.41889639064E+002
+8.10534223706E+006, +3.93224594875E+001, +2.47217645167E+002
+8.27212020033E+006, +3.95728766631E+001, +2.52539862673E+002
+8.43889816361E+006, +3.94328713091E+001, +2.58242386963E+002
+8.60567612688E+006, +3.90801965231E+001, +2.64137638214E+002
+8.77245409015E+006, +3.94211186407E+001, +2.69197633673E+002
+8.93923205342E+006, +3.94981963357E+001, +2.75031409348E+002
+9.10601001669E+006, +3.94765127832E+001, +2.80214056225E+002
+9.27278797997E+006, +4.00824178852E+001, +2.85874915245E+002
+9.43956594324E+006, +3.98066870557E+001, +2.91683637621E+002
+9.60634390651E+006, +3.96456103347E+001, +2.97435728705E+002
+9.77312186978E+006, +3.97263492336E+001, +3.03222691249E+002
+9.93989983306E+006, +4.04451576490E+001, +3.08928200709E+002
+1.01066777963E+007, +3.99883361053E+001, +3.14451354421E+002
+1.02734557596E+007, +4.03261086552E+001, +3.20369228650E+002
+1.04402337229E+007, +3.97337848009E+001, +3.26209079073E+002
+1.06070116861E+007, +3.99959927767E+001, +3.31676553601E+002
+1.07737896494E+007, +4.05504390176E+001, +3.38314002423E+002
+1.09405676127E+007, +4.08933363798E+001, +3.43883336771E+002
+1.11073455760E+007, +4.10337131970E+001, +3.49950037744E+002
+1.12741235392E+007, +4.10905009411E+001, +3.55911190744E+002
+1.14409015025E+007, +4.14096208295E+001, +3.61438160599E+002
+1.16076794658E+007, +4.12823957718E+001, +3.68699332426E+002
+1.17744574290E+007, +4.17195931985E+001, +3.74066432540E+002
+1.19412353923E+007, +4.12952523546E+001, +3.80233911144E+002
+1.21080133556E+007, +4.13275523030E+001, +3.86480914661E+002
+1.22747913189E+007, +4.25957114697E+001, +3.93194354936E+002
+1.24415692821E+007, +4.16156013719E+001, +3.98869316338E+002
+1.26083472454E+007, +4.19859947288E+001, +4.06085649976E+002
+1.27751252087E+007, +4.19557705136E+001, +4.11676061552E+002
+1.29419031720E+007, +4.22006414022E+001, +4.18175383989E+002
+1.31086811352E+007, +4.21957925951E+001, +4.24143256782E+002
+1.32754590985E+007, +4.28702172646E+001, +4.30294075841E+002
+1.34422370618E+007, +4.31240888471E+001, +4.38053767529E+002
+1.36090150250E+007, +4.47831126852E+001, +4.43489795083E+002
+1.37757929883E+007, +4.36845170475E+001, +4.50515814070E+002
+1.39425709516E+007, +4.40111661983E+001, +4.56415173270E+002
+1.41093489149E+007, +4.51682952719E+001, +4.64156776734E+002
+1.42761268781E+007, +4.61078912490E+001, +4.70293170667E+002
+1.44429048414E+007, +4.54635229663E+001, +4.76941386604E+002
+1.46096828047E+007, +4.53929448928E+001, +4.83689072932E+002
+1.47764607679E+007, +4.49141013362E+001, +4.90547416941E+002
+1.49432387312E+007, +4.63538909726E+001, +4.97977244335E+002
+1.51100166945E+007, +4.53749581911E+001, +5.05003358665E+002
+1.52767946578E+007, +4.68189461437E+001, +5.11831521193E+002
+1.54435726210E+007, +4.58430272805E+001, +5.17888615485E+002
+1.56103505843E+007, +4.79038775254E+001, +5.26392169664E+002
+1.57771285476E+007, +4.63322245138E+001, +5.32299557727E+002
+1.59439065109E+007, +4.76042997481E+001, +5.40742098319E+002
+1.61106844741E+007, +4.75843190222E+001, +5.47103314518E+002
+1.62774624374E+007, +4.86144564649E+001, +5.56100783330E+002
+1.64442404007E+007, +4.70040747940E+001, +5.62708720885E+002
+1.66110183639E+007, +4.88157039193E+001, +5.71541594433E+002
+1.67777963272E+007, +4.99939123758E+001, +5.78435090292E+002
+1.69445742905E+007, +5.08606532353E+001, +5.85810928280E+002
+1.71113522538E+007, +4.69970728817E+001, +5.93489903725E+002
+1.72781302170E+007, +4.79496891840E+001, +6.02257299059E+002
+1.74449081803E+007, +4.84773716338E+001, +6.09783520311E+002
+1.76116861436E+007, +5.08797528395E+001, +6.18502766443E+002
+1.77784641068E+007, +5.08835731019E+001, +6.24917580007E+002
+1.79452420701E+007, +5.12629598136E+001, +6.32673934398E+002
+1.81120200334E+007, +5.14231826477E+001, +6.41007831801E+002
+1.82787979967E+007, +5.44912682343E+001, +6.51770681926E+002
+1.84455759599E+007, +5.55199012240E+001, +6.58395678788E+002
+1.86123539232E+007, +5.69000710985E+001, +6.66653226509E+002
+1.87791318865E+007, +5.61755125114E+001, +6.75500906791E+002
+1.89459098497E+007, +5.47611166396E+001, +6.84262962792E+002
+1.91126878130E+007, +5.57843146607E+001, +6.93142696062E+002
+1.92794657763E+007, +5.55042778504E+001, +7.03061332406E+002
+1.94462437396E+007, +5.92467381354E+001, +7.12793081650E+002
+1.96130217028E+007, +5.79518985495E+001, +7.21385584013E+002
+1.97797996661E+007, +5.95826672471E+001, +7.29553249273E+002
+1.99465776294E+007, +5.77299551721E+001, +7.37460694775E+002
+2.01133555927E+007, +5.99611940214E+001, +7.47900839779E+002
+2.02801335559E+007, +6.13229504268E+001, +7.58830458735E+002
+2.04469115192E+007, +6.42289722470E+001, +7.70872498023E+002
+2.06136894825E+007, +6.56473473185E+001, +7.78725266054E+002
+2.07804674457E+007, +6.57122511781E+001, +7.88755009962E+002
+2.09472454090E+007, +6.64456910698E+001, +7.99993346959E+002
+2.11140233723E+007, +6.71975755775E+001, +8.06140625168E+002
+2.12808013356E+007, +6.69653134346E+001, +8.16261073589E+002
+2.14475792988E+007, +6.88695880792E+001, +8.28852639142E+002
+2.16143572621E+007, +6.98020149866E+001, +8.38074399414E+002
+2.17811352254E+007, +6.85868288328E+001, +8.48835353793E+002
+2.19479131886E+007, +7.48079151997E+001, +8.61283663958E+002
+2.21146911519E+007, +7.61904671178E+001, +8.65777258499E+002
+2.22814691152E+007, +7.40297177708E+001, +8.82418960829E+002
+2.24482470785E+007, +7.52400415299E+001, +8.94190874715E+002
+2.26150250417E+007, +8.10308620500E+001, +9.03574392115E+002
+2.27818030050E+007, +8.39750738720E+001, +9.18225502404E+002
+2.29485809683E+007, +8.90646212200E+001, +9.24503778952E+002
+2.31153589316E+007, +8.79061270881E+001, +9.38900694496E+002
+2.32821368948E+007, +9.08221310846E+001, +9.49156131276E+002
+2.34489148581E+007, +8.73169201175E+001, +9.57262720464E+002
+2.36156928214E+007, +9.38242437434E+001, +9.73357455813E+002
+2.37824707846E+007, +9.72976596723E+001, +9.89858836846E+002
+2.39492487479E+007, +9.15099870571E+001, +9.98999970577E+002
+2.41160267112E+007, +9.99981343969E+001, +1.01095056045E+003
+2.42828046745E+007, +9.65090609808E+001, +1.02098124573E+003
+2.44495826377E+007, +1.03716481852E+002, +1.03666262239E+003
+2.46163606010E+007, +1.02992172348E+002, +1.05061896917E+003
+2.47831385643E+007, +1.06969820004E+002, +1.05991718904E+003
+2.49499165275E+007, +1.13504829623E+002, +1.07674583690E+003
+2.51166944908E+007, +1.12276324903E+002, +1.08699038169E+003
+2.52834724541E+007, +1.19696723643E+002, +1.10072547500E+003
+2.54502504174E+007, +1.20756416547E+002, +1.12009429153E+003
+2.56170283806E+007, +1.17820028525E+002, +1.12956762726E+003
+2.57838063439E+007, +1.21527408125E+002, +1.14927316920E+003
+2.59505843072E+007, +1.33351569458E+002, +1.16709379533E+003
+2.61173622705E+007, +1.29369112898E+002, +1.17227188616E+003
+2.62841402337E+007, +1.26761886626E+002, +1.19310991436E+003
+2.64509181970E+007, +1.24785556714E+002, +1.21061590388E+003
+2.66176961603E+007, +1.32912841879E+002, +1.22794253354E+003
+2.67844741235E+007, +1.32774773552E+002, +1.24305843263E+003
+2.69512520868E+007, +1.31740646157E+002, +1.25570263649E+003
+2.71180300501E+007, +1.44887472015E+002, +1.26481298067E+003
+2.72848080134E+007, +1.50072015047E+002, +1.28453412443E+003
+2.74515859766E+007, +1.50188493937E+002, +1.30587148653E+003
+2.76183639399E+007, +1.46946883250E+002, +1.32255154631E+003
+2.77851419032E+007, +1.50509509223E+002, +1.33823511698E+003
+2.79519198664E+007, +1.61799874817E+002, +1.35311216321E+003
+2.81186978297E+007, +1.65376129321E+002, +1.36894034435E+003
+2.82854757930E+007, +1.69899816708E+002, +1.40260153783E+003
+2.84522537563E+007, +1.59125238857E+002, +1.42129916069E+003
+2.86190317195E+007, +1.72818229744E+002, +1.43557278562E+003
+2.87858096828E+007, +1.89689074492E+002, +1.45957709345E+003
+2.89525876461E+007, +1.96682004586E+002, +1.47735061787E+003
+2.91193656093E+007, +1.80988347683E+002, +1.48874247940E+003
+2.92861435726E+007, +1.82204480691E+002, +1.51028504294E+003
+2.94529215359E+007, +1.98414399990E+002, +1.53510567168E+003
+2.96196994992E+007, +2.08643643865E+002, +1.56080696116E+003
+2.97864774624E+007, +2.10753687613E+002, +1.58268204268E+003
+2.99532554257E+007, +2.23943134517E+002, +1.60701752223E+003
+3.01200333890E+007, +2.26530117000E+002, +1.63760335606E+003
+3.02868113523E+007, +2.24664634952E+002, +1.66540881976E+003
+3.04535893155E+007, +2.30867941896E+002, +1.68151342405E+003
+3.06203672788E+007, +2.36132786593E+002, +1.69935387959E+003
+3.07871452421E+007, +2.49002886895E+002, +1.72629954822E+003
+3.09539232053E+007, +2.58882021172E+002, +1.75488561113E+003
+3.11207011686E+007, +2.36222179629E+002, +1.81333455728E+003
+3.12874791319E+007, +2.62130563579E+002, +1.81732073193E+003
+3.14542570952E+007, +2.71301031465E+002, +1.84529504058E+003
+3.16210350584E+007, +2.74712941671E+002, +1.88107958603E+003
+3.17878130217E+007, +2.84602368012E+002, +1.91309447451E+003
+3.19545909850E+007, +2.84173621845E+002, +1.94255595111E+003
+3.21213689482E+007, +2.70808207921E+002, +1.97825251547E+003
+3.22881469115E+007, +2.67810697700E+002, +2.00895741603E+003
+3.24549248748E+007, +2.98607547190E+002, +2.04980039211E+003
+3.26217028381E+007, +3.03044626940E+002, +2.08776781875E+003
+3.27884808013E+007, +3.26176507726E+002, +2.11347917229E+003
+3.29552587646E+007, +3.46427496039E+002, +2.12469231186E+003
+3.31220367279E+007, +3.61859242434E+002, +2.17140082198E+003
+3.32888146912E+007, +3.65292984972E+002, +2.23430899412E+003
+3.34555926544E+007, +3.46881988752E+002, +2.28466451881E+003
+3.36223706177E+007, +3.75703251245E+002, +2.31336097487E+003
+3.37891485810E+007, +3.63177474776E+002, +2.35701691255E+003
+3.39559265442E+007, +3.98142634851E+002, +2.42352229097E+003
+3.41227045075E+007, +3.96070207617E+002, +2.46575574856E+003
+3.42894824708E+007, +4.36125352041E+002, +2.51877512599E+003
+3.44562604341E+007, +4.28880450956E+002, +2.58970725813E+003
+3.46230383973E+007, +4.68977355971E+002, +2.67098064114E+003
+3.47898163606E+007, +4.89572616709E+002, +2.69289669413E+003
+3.49565943239E+007, +5.20181847264E+002, +2.74843665573E+003
+3.51233722871E+007, +5.46883103555E+002, +2.80802477488E+003
+3.52901502504E+007, +5.35945525244E+002, +2.85573724868E+003
+3.54569282137E+007, +5.50273831408E+002, +2.96875709208E+003
+3.56237061770E+007, +5.69916942562E+002, +3.02625327286E+003
+3.57904841402E+007, +6.18621664998E+002, +3.18076676521E+003
+3.59572621035E+007, +6.56669655209E+002, +3.17936283619E+003
+3.61240400668E+007, +6.60676990457E+002, +3.29669072938E+003
+3.62908180301E+007, +7.35896098711E+002, +3.36907943415E+003
+3.64575959933E+007, +6.96813010583E+002, +3.50084380381E+003
+3.66243739566E+007, +7.80620824434E+002, +3.52658753517E+003
+3.67911519199E+007, +8.46621135139E+002, +3.69606709855E+003
+3.69579298831E+007, +8.20568899290E+002, +3.74049268432E+003
+3.71247078464E+007, +9.42518399881E+002, +3.95715714221E+003
+3.72914858097E+007, +1.06181226739E+003, +4.16622698001E+003
+3.74582637730E+007, +1.19018396203E+003, +4.25320683360E+003
+3.76250417362E+007, +1.21075008210E+003, +4.31486504925E+003
+3.77918196995E+007, +1.20612482612E+003, +4.51856265041E+003
+3.79585976628E+007, +1.38971209545E+003, +4.73258799363E+003
+3.81253756260E+007, +1.51817304491E+003, +4.82882088204E+003
+3.82921535893E+007, +1.66072747021E+003, +5.06202819589E+003
+3.84589315526E+007, +1.87455206803E+003, +5.27922905721E+003
+3.86257095159E+007, +1.89244901266E+003, +5.51566280271E+003
+3.87924874791E+007, +2.05154351640E+003, +5.72061850132E+003
+3.89592654424E+007, +2.39425376473E+003, +5.68480582380E+003
+3.91260434057E+007, +2.83138082338E+003, +6.26830960070E+003
+3.92928213689E+007, +2.84991277917E+003, +6.34759403136E+003
+3.94595993322E+007, +3.43566633693E+003, +6.48311760505E+003
+3.96263772955E+007, +3.94228789141E+003, +7.15444229397E+003
+3.97931552588E+007, +4.07053485552E+003, +7.37852893151E+003
+3.99599332220E+007, +4.31876057962E+003, +7.29735485624E+003
+4.01267111853E+007, +5.57346234368E+003, +7.63654506368E+003
+4.02934891486E+007, +5.71090197781E+003, +8.13146608904E+003
+4.04602671119E+007, +6.31794719594E+003, +8.11331637383E+003
+4.06270450751E+007, +7.44734851659E+003, +8.00473776900E+003
+4.07938230384E+007, +8.31853895807E+003, +7.77820513467E+003
+4.09606010017E+007, +9.61913308104E+003, +7.52009683322E+003
+4.11273789649E+007, +1.05644755723E+004, +7.55042203636E+003
+4.12941569282E+007, +1.32281145744E+004, +6.96625984726E+003
+4.14609348915E+007, +1.41927118426E+004, +4.88800091078E+003
+4.16277128548E+007, +1.47932541222E+004, +3.50208904755E+003
+4.17944908180E+007, +1.62868156594E+004, +2.52677128428E+003
+4.19612687813E+007, +1.68907167818E+004, -9.94627068516E+002
+4.21280467446E+007, +1.62169563135E+004, -2.65832796471E+003
+4.22948247078E+007, +1.42737074232E+004, -4.80252321826E+003
+4.24616026711E+007, +1.36578158023E+004, -5.66867416484E+003
+4.26283806344E+007, +1.19051326322E+004, -6.50622560779E+003
+4.27951585977E+007, +1.07935401688E+004, -8.86019194987E+003
+4.29619365609E+007, +9.45581053509E+003, -8.04371382830E+003
+4.31287145242E+007, +8.22180887809E+003, -8.10238445688E+003
+4.32954924875E+007, +7.88725885636E+003, -8.20033213405E+003
+4.34622704508E+007, +6.11470515766E+003, -8.09123864335E+003
+4.36290484140E+007, +5.31663396104E+003, -7.15563301526E+003
+4.37958263773E+007, +4.53125733673E+003, -7.27906642973E+003
+4.39626043406E+007, +4.20907405217E+003, -7.11599383029E+003
+4.41293823038E+007, +3.48985360114E+003, -6.45944638202E+003
+4.42961602671E+007, +3.34712583860E+003, -6.39709409841E+003
+4.44629382304E+007, +3.02185300372E+003, -6.08337834456E+003
+4.46297161937E+007, +2.65187283294E+003, -5.80667982101E+003
+4.47964941569E+007, +2.27319099768E+003, -5.65986745497E+003
+4.49632721202E+007, +2.13084356702E+003, -5.34327181880E+003
+4.51300500835E+007, +2.07244270868E+003, -5.25806556469E+003
+4.52968280467E+007, +1.94845421124E+003, -4.85846782887E+003
+4.54636060100E+007, +1.61646958153E+003, -4.56422835897E+003
+4.56303839733E+007, +1.50246272245E+003, -4.52851376314E+003
+4.57971619366E+007, +1.41343383548E+003, -4.35397458565E+003
+4.59639398998E+007, +1.25512930566E+003, -4.07930059848E+003
+4.61307178631E+007, +1.20289430163E+003, -3.95979853123E+003
+4.62974958264E+007, +1.17993237415E+003, -3.84155528575E+003
+4.64642737896E+007, +1.10028056378E+003, -3.69630342287E+003
+4.66310517529E+007, +1.02716666027E+003, -3.57806288263E+003
+4.67978297162E+007, +1.06390097357E+003, -3.46205083344E+003
+4.69646076795E+007, +9.63489308308E+002, -3.32015659371E+003
+4.71313856427E+007, +9.18865057079E+002, -3.21226355068E+003
+4.72981636060E+007, +8.42346650433E+002, -3.11886441912E+003
+4.74649415693E+007, +8.34368853059E+002, -3.04956446371E+003
+4.76317195326E+007, +8.52086637423E+002, -2.94043649034E+003
+4.77984974958E+007, +8.11455535754E+002, -2.83490079041E+003
+4.79652754591E+007, +7.87016815472E+002, -2.78592675290E+003
+4.81320534224E+007, +7.40500659859E+002, -2.71428041398E+003
+4.82988313856E+007, +7.38366058759E+002, -2.63416871965E+003
+4.84656093489E+007, +7.51724781683E+002, -2.57384495693E+003
+4.86323873122E+007, +7.32497454206E+002, -2.49774508176E+003
+4.87991652755E+007, +6.79485842933E+002, -2.44533711995E+003
+4.89659432387E+007, +6.82806225812E+002, -2.38049685933E+003
+4.91327212020E+007, +6.62616019642E+002, -2.32346320294E+003
+4.92994991653E+007, +6.56098344262E+002, -2.27584960679E+003
+4.94662771285E+007, +6.49886238061E+002, -2.22843046277E+003
+4.96330550918E+007, +6.34542599509E+002, -2.17540759896E+003
+4.97998330551E+007, +6.35350710715E+002, -2.14430009791E+003
+4.99666110184E+007, +6.65678662721E+002, -2.08624827135E+003
+5.01333889816E+007, +6.11103914607E+002, -2.05481597276E+003
+5.03001669449E+007, +5.98592416223E+002, -2.04554806335E+003
+5.04669449082E+007, +6.05584547557E+002, -1.98236815229E+003
+5.06337228715E+007, +5.98073731279E+002, -1.95927932597E+003
+5.08005008347E+007, +5.88144326299E+002, -1.93499421870E+003
+5.09672787980E+007, +5.80437032702E+002, -1.89397962664E+003
+5.11340567613E+007, +5.65604983243E+002, -1.88231636386E+003
+5.13008347245E+007, +5.52949284444E+002, -1.86930614449E+003
+5.14676126878E+007, +5.36475595271E+002, -1.84192449155E+003
+5.16343906511E+007, +5.26014743953E+002, -1.81294113498E+003
+5.18011686144E+007, +4.92237742700E+002, -1.80585421801E+003
+5.19679465776E+007, +4.79181250719E+002, -1.79116900891E+003
+5.21347245409E+007, +4.58677190676E+002, -1.74866148312E+003
+5.23015025042E+007, +4.36703899391E+002, -1.69898788779E+003
+5.24682804674E+007, +4.13593217516E+002, -1.68498576095E+003
+5.26350584307E+007, +4.01752405402E+002, -1.66912467763E+003
+5.28018363940E+007, +3.64885021510E+002, -1.63575446769E+003
+5.29686143573E+007, +3.61869914943E+002, -1.60721515209E+003
+5.31353923205E+007, +3.48414217126E+002, -1.58964873950E+003
+5.33021702838E+007, +3.28233165165E+002, -1.55973279930E+003
+5.34689482471E+007, +3.27828427873E+002, -1.51745803930E+003
