"# Channel 1"
"# Trace 1"
Frequency, Formatted Data, Formatted Data
+1.00000000000E+005, +5.94367110066E+001, +2.74192227680E+000
+2.25031289111E+005, +5.93271532678E+001, +6.66440637992E+000
+3.50062578223E+005, +5.94003928922E+001, +1.03879595470E+001
+4.75093867334E+005, +5.93802362723E+001, +1.41179243667E+001
+6.00125156446E+005, +5.94727997260E+001, +1.77261264006E+001
+7.25156445557E+005, +5.94562966984E+001, +2.14363410247E+001
+8.50187734668E+005, +5.95477047134E+001, +2.51140663302E+001
+9.75219023780E+005, +5.95025955445E+001, +2.87596574278E+001
+1.10025031289E+006, +5.94919152520E+001, +3.24453181294E+001
+1.22528160200E+006, +5.95802410826E+001, +3.60884537913E+001
+1.35031289111E+006, +5.96139128650E+001, +3.98239459015E+001
+1.47534418023E+006, +5.96413696065E+001, +4.34909297687E+001
+1.60037546934E+006, +5.96466130795E+001, +4.71685156672E+001
+1.72540675845E+006, +5.96490824453E+001, +5.07595177941E+001
+1.85043804756E+006, +5.95698350390E+001, +5.45219853937E+001
+1.97546933667E+006, +5.96187868485E+001, +5.82074271267E+001
+2.10050062578E+006, +5.96640610085E+001, +6.18901058637E+001
+2.22553191489E+006, +5.97224060724E+001, +6.55407880943E+001
+2.35056320401E+006, +5.97741256183E+001, +6.92396106968E+001
+2.47559449312E+006, +5.97790723183E+001, +7.29583882812E+001
+2.60062578223E+006, +5.97705762912E+001, +7.66077643495E+001
+2.72565707134E+006, +5.98183210158E+001, +8.02652240177E+001
+2.85068836045E+006, +5.99174561465E+001, +8.40132430069E+001
+2.97571964956E+006, +5.99053190480E+001, +8.78119062359E+001
+3.10075093867E+006, +6.00469220601E+001, +9.13119341869E+001
+3.22578222778E+006, +5.99061513892E+001, +9.51408801614E+001
+3.35081351690E+006, +6.00167439279E+001, +9.90427182250E+001
+3.47584480601E+006, +6.00877613661E+001, +1.02552722049E+002
+3.60087609512E+006, +5.99376808811E+001, +1.06260402998E+002
+3.72590738423E+006, +6.00041725371E+001, +1.10135137386E+002
+3.85093867334E+006, +5.99333547742E+001, +1.14440234789E+002
+3.97596996245E+006, +6.01635577652E+001, +1.18349990301E+002
+4.10100125156E+006, +6.25493704826E+001, +1.17578011189E+002
+4.22603254068E+006, +5.98413380242E+001, +1.24423879654E+002
+4.35106382979E+006, +6.01806771151E+001, +1.28228477355E+002
+4.47609511890E+006, +6.02920191299E+001, +1.32446305795E+002
+4.60112640801E+006, +6.04058025938E+001, +1.36362173199E+002
+4.72615769712E+006, +6.05065196994E+001, +1.40023844356E+002
+4.85118898623E+006, +6.07870173324E+001, +1.43847656630E+002
+4.97622027534E+006, +6.04841335149E+001, +1.47390480065E+002
+5.10125156446E+006, +6.07348697314E+001, +1.51195273791E+002
+5.22628285357E+006, +6.07712174218E+001, +1.55103044827E+002
+5.35131414268E+006, +6.07872937537E+001, +1.58837152636E+002
+5.47634543179E+006, +6.10136921391E+001, +1.62709290040E+002
+5.60137672090E+006, +6.10529576332E+001, +1.66545532305E+002
+5.72640801001E+006, +6.08481469024E+001, +1.70388141093E+002
+5.85143929912E+006, +6.12035190233E+001, +1.74382661447E+002
+5.97647058824E+006, +6.11567342053E+001, +1.78028480957E+002
+6.10150187735E+006, +6.14222814758E+001, +1.81731726488E+002
+6.22653316646E+006, +6.13495649964E+001, +1.85384966558E+002
+6.35156445557E+006, +6.14729924744E+001, +1.89829402928E+002
+6.47659574468E+006, +6.13738303048E+001, +1.93330593070E+002
+6.60162703379E+006, +6.18179584039E+001, +1.97643755752E+002
+6.72665832290E+006, +6.18771614561E+001, +2.01524045497E+002
+6.85168961202E+006, +6.19936572205E+001, +2.05425409298E+002
+6.97672090113E+006, +6.19899149649E+001, +2.09090392983E+002
+7.10175219024E+006, +6.23663200439E+001, +2.13209468045E+002
+7.22678347935E+006, +6.25983792997E+001, +2.16908136088E+002
+7.35181476846E+006, +6.25335188743E+001, +2.21126772925E+002
+7.47684605757E+006, +6.24102920377E+001, +2.24722612913E+002
+7.60187734668E+006, +6.28276129492E+001, +2.28610680915E+002
+7.72690863579E+006, +6.30113325523E+001, +2.32627654225E+002
+7.85193992491E+006, +6.31697126458E+001, +2.36798358419E+002
+7.97697121402E+006, +6.27416347571E+001, +2.40721224882E+002
+8.10200250313E+006, +6.30145435224E+001, +2.44830743244E+002
+8.22703379224E+006, +6.37654872896E+001, +2.49007760242E+002
+8.35206508135E+006, +6.36760843437E+001, +2.52318252075E+002
+8.47709637046E+006, +6.33297035616E+001, +2.56936263628E+002
+8.60212765957E+006, +6.35232842033E+001, +2.60336494385E+002
+8.72715894869E+006, +6.42586705487E+001, +2.63992117074E+002
+8.85219023780E+006, +6.42703591249E+001, +2.68105688047E+002
+8.97722152691E+006, +6.44167813157E+001, +2.71621790517E+002
+9.10225281602E+006, +6.40350828451E+001, +2.75947576139E+002
+9.22728410513E+006, +6.44265957966E+001, +2.80575132307E+002
+9.35231539424E+006, +6.45813440145E+001, +2.85086717130E+002
+9.47734668335E+006, +6.43863530601E+001, +2.88122969294E+002
+9.60237797247E+006, +6.43356396975E+001, +2.91654098616E+002
+9.72740926158E+006, +6.49763056318E+001, +2.94540907042E+002
+9.85244055069E+006, +6.49939449728E+001, +2.98278459862E+002
+9.97747183980E+006, +6.49063256680E+001, +3.01730119851E+002
+1.01025031289E+007, +6.53659985598E+001, +3.05221572032E+002
+1.02275344180E+007, +6.56158648954E+001, +3.09350833106E+002
+1.03525657071E+007, +6.49105797350E+001, +3.13323717600E+002
+1.04775969962E+007, +6.53492430003E+001, +3.17050895190E+002
+1.06026282854E+007, +6.54019990573E+001, +3.21750310137E+002
+1.07276595745E+007, +6.60366535147E+001, +3.27169848534E+002
+1.08526908636E+007, +6.56098175416E+001, +3.31280044912E+002
+1.09777221527E+007, +6.58167581107E+001, +3.35441353830E+002
+1.11027534418E+007, +6.60126629247E+001, +3.40705191071E+002
+1.12277847309E+007, +6.63575556224E+001, +3.46082625138E+002
+1.13528160200E+007, +6.63286740632E+001, +3.51171312439E+002
+1.14778473091E+007, +6.67391188200E+001, +3.56650647911E+002
+1.16028785982E+007, +6.67392969438E+001, +3.61297706841E+002
+1.17279098874E+007, +6.70264971487E+001, +3.65187302071E+002
+1.18529411765E+007, +6.70225468859E+001, +3.69604089602E+002
+1.19779724656E+007, +6.68609636695E+001, +3.73535215608E+002
+1.21030037547E+007, +6.68480977148E+001, +3.78549171444E+002
+1.22280350438E+007, +6.74116557430E+001, +3.83120700491E+002
+1.23530663329E+007, +6.73730339566E+001, +3.87648315861E+002
+1.24780976220E+007, +6.78502005435E+001, +3.92468394269E+002
+1.26031289111E+007, +6.76192485609E+001, +3.96950081783E+002
+1.27281602003E+007, +6.80158247568E+001, +4.01009290312E+002
+1.28531914894E+007, +6.75035859173E+001, +4.05617309880E+002
+1.29782227785E+007, +6.79480063172E+001, +4.10189229761E+002
+1.31032540676E+007, +6.86336942496E+001, +4.14203041339E+002
+1.32282853567E+007, +6.84312324866E+001, +4.18852115316E+002
+1.33533166458E+007, +6.83125148581E+001, +4.23943961026E+002
+1.34783479349E+007, +6.89553539474E+001, +4.28452241142E+002
+1.36033792240E+007, +6.93340217297E+001, +4.33679562787E+002
+1.37284105131E+007, +6.95082767982E+001, +4.38748779827E+002
+1.38534418023E+007, +7.05642901046E+001, +4.43643081060E+002
+1.39784730914E+007, +6.99622658055E+001, +4.48701570765E+002
+1.41035043805E+007, +6.93588056655E+001, +4.53242137658E+002
+1.42285356696E+007, +7.00900813186E+001, +4.58302491905E+002
+1.43535669587E+007, +7.05319729393E+001, +4.62526718739E+002
+1.44785982478E+007, +7.16198262900E+001, +4.66939027719E+002
+1.46036295369E+007, +7.08246819100E+001, +4.72871059781E+002
+1.47286608260E+007, +7.05657231170E+001, +4.77425887009E+002
+1.48536921151E+007, +7.05173187604E+001, +4.83014522014E+002
+1.49787234043E+007, +7.11788001909E+001, +4.87355391736E+002
+1.51037546934E+007, +7.25749623118E+001, +4.92269413688E+002
+1.52287859825E+007, +7.18512003630E+001, +4.97606518447E+002
+1.53538172716E+007, +7.26275327650E+001, +5.02671632437E+002
+1.54788485607E+007, +7.32918306140E+001, +5.08227001865E+002
+1.56038798498E+007, +7.38988145974E+001, +5.14261584493E+002
+1.57289111389E+007, +7.38802154600E+001, +5.17971425055E+002
+1.58539424280E+007, +7.45550241113E+001, +5.22702285222E+002
+1.59789737171E+007, +7.42838847040E+001, +5.30096017186E+002
+1.61040050063E+007, +7.54933496976E+001, +5.34843448805E+002
+1.62290362954E+007, +7.49629129137E+001, +5.40904686065E+002
+1.63540675845E+007, +7.53443936616E+001, +5.44691195460E+002
+1.64790988736E+007, +7.54306428357E+001, +5.49369914540E+002
+1.66041301627E+007, +7.57169881098E+001, +5.54367989191E+002
+1.67291614518E+007, +7.67700440805E+001, +5.61514337692E+002
+1.68541927409E+007, +7.69625483829E+001, +5.68054965891E+002
+1.69792240300E+007, +7.62868885049E+001, +5.72471494260E+002
+1.71042553191E+007, +7.78202376140E+001, +5.77829313333E+002
+1.72292866083E+007, +7.69307343954E+001, +5.85745247401E+002
+1.73543178974E+007, +7.93044855070E+001, +5.90387573372E+002
+1.74793491865E+007, +7.73132448506E+001, +5.94601815656E+002
+1.76043804756E+007, +7.87768495746E+001, +6.01285146975E+002
+1.77294117647E+007, +7.81873054399E+001, +6.05451036273E+002
+1.78544430538E+007, +7.85275460814E+001, +6.12693664754E+002
+1.79794743429E+007, +8.08722387634E+001, +6.18138029714E+002
+1.81045056320E+007, +7.98929116163E+001, +6.24668101356E+002
+1.82295369212E+007, +8.06336241570E+001, +6.29533769599E+002
+1.83545682103E+007, +8.15258080660E+001, +6.38448383412E+002
+1.84795994994E+007, +8.21747843112E+001, +6.43702992023E+002
+1.86046307885E+007, +8.25102786378E+001, +6.49623392186E+002
+1.87296620776E+007, +8.27638710339E+001, +6.55881223214E+002
+1.88546933667E+007, +8.35982981644E+001, +6.61474442458E+002
+1.89797246558E+007, +8.53086986706E+001, +6.69914368961E+002
+1.91047559449E+007, +8.46640921400E+001, +6.74161676576E+002
+1.92297872340E+007, +8.53429092699E+001, +6.80991585073E+002
+1.93548185232E+007, +8.49664671079E+001, +6.89751492792E+002
+1.94798498123E+007, +8.74375431119E+001, +6.95737696721E+002
+1.96048811014E+007, +8.61661641488E+001, +7.02228522404E+002
+1.97299123905E+007, +8.83043323549E+001, +7.07826592852E+002
+1.98549436796E+007, +8.78846339456E+001, +7.14330996890E+002
+1.99799749687E+007, +8.77987273323E+001, +7.19832864908E+002
+2.01050062578E+007, +8.76041605275E+001, +7.27760445526E+002
+2.02300375469E+007, +9.01334217929E+001, +7.32586074330E+002
+2.03550688360E+007, +9.24613665314E+001, +7.38864758505E+002
+2.04801001252E+007, +9.25976949147E+001, +7.49399913215E+002
+2.06051314143E+007, +9.14038881175E+001, +7.53056146168E+002
+2.07301627034E+007, +9.13428004203E+001, +7.62112558231E+002
+2.08551939925E+007, +9.45412037973E+001, +7.70728691712E+002
+2.09802252816E+007, +9.45563993590E+001, +7.77859849298E+002
+2.11052565707E+007, +9.50783673630E+001, +7.81919710312E+002
+2.12302878598E+007, +9.74827306650E+001, +7.90645467385E+002
+2.13553191489E+007, +9.65518210789E+001, +7.98016488603E+002
+2.14803504380E+007, +9.66751772556E+001, +8.07360341448E+002
+2.16053817272E+007, +1.00362590894E+002, +8.15105518443E+002
+2.17304130163E+007, +1.00842480852E+002, +8.20987556937E+002
+2.18554443054E+007, +1.01424164356E+002, +8.31020352997E+002
+2.19804755945E+007, +1.01679012435E+002, +8.36646007563E+002
+2.21055068836E+007, +1.03634276025E+002, +8.47619911503E+002
+2.22305381727E+007, +1.04448694734E+002, +8.51716268597E+002
+2.23555694618E+007, +1.05447579248E+002, +8.61244674637E+002
+2.24806007509E+007, +1.08822551130E+002, +8.70787696028E+002
+2.26056320401E+007, +1.09127195258E+002, +8.80353149572E+002
+2.27306633292E+007, +1.12081467142E+002, +8.87322915134E+002
+2.28556946183E+007, +1.13536065014E+002, +8.95321088161E+002
+2.29807259074E+007, +1.11067169591E+002, +9.02601573656E+002
+2.31057571965E+007, +1.15745397352E+002, +9.10480361758E+002
+2.32307884856E+007, +1.16495998638E+002, +9.19250692203E+002
+2.33558197747E+007, +1.21622324874E+002, +9.28368902334E+002
+2.34808510638E+007, +1.18052185154E+002, +9.38177272644E+002
+2.36058823529E+007, +1.22823878204E+002, +9.44793061398E+002
+2.37309136421E+007, +1.23834265311E+002, +9.50641040263E+002
+2.38559449312E+007, +1.26789780001E+002, +9.56348456920E+002
+2.39809762203E+007, +1.25545483307E+002, +9.67159183533E+002
+2.41060075094E+007, +1.32316975771E+002, +9.75149256424E+002
+2.42310387985E+007, +1.31169195337E+002, +9.85457650195E+002
+2.43560700876E+007, +1.32437299825E+002, +9.92974254716E+002
+2.44811013767E+007, +1.34148826537E+002, +1.00056127527E+003
+2.46061326658E+007, +1.34257843394E+002, +1.00931769937E+003
+2.47311639549E+007, +1.34580612880E+002, +1.02154234568E+003
+2.48561952441E+007, +1.36561568974E+002, +1.02260237058E+003
+2.49812265332E+007, +1.38457707205E+002, +1.03228352925E+003
+2.51062578223E+007, +1.38168578080E+002, +1.04655898852E+003
+2.52312891114E+007, +1.40663140631E+002, +1.05415449192E+003
+2.53563204005E+007, +1.33564239805E+002, +1.06639943927E+003
+2.54813516896E+007, +1.37410749557E+002, +1.07152811772E+003
+2.56063829787E+007, +1.38667458499E+002, +1.07979469775E+003
+2.57314142678E+007, +1.38068097602E+002, +1.09523921936E+003
+2.58564455569E+007, +1.37607854336E+002, +1.10453905569E+003
+2.59814768461E+007, +1.39863693483E+002, +1.11598672351E+003
+2.61065081352E+007, +1.44267655957E+002, +1.12555029625E+003
+2.62315394243E+007, +1.40875392866E+002, +1.14090249833E+003
+2.63565707134E+007, +1.38544979780E+002, +1.14840805417E+003
+2.64816020025E+007, +1.41621096207E+002, +1.16656032915E+003
+2.66066332916E+007, +1.43548106388E+002, +1.17036634549E+003
+2.67316645807E+007, +1.47181188662E+002, +1.18874411736E+003
+2.68566958698E+007, +1.48772445011E+002, +1.20354956613E+003
+2.69817271589E+007, +1.48932133041E+002, +1.21434104061E+003
+2.71067584481E+007, +1.49786470604E+002, +1.22362124032E+003
+2.72317897372E+007, +1.55060002917E+002, +1.24163558279E+003
+2.73568210263E+007, +1.60737850408E+002, +1.25153643314E+003
+2.74818523154E+007, +1.61125171842E+002, +1.26585631724E+003
+2.76068836045E+007, +1.66819047939E+002, +1.27359550794E+003
+2.77319148936E+007, +1.69882633714E+002, +1.29629561873E+003
+2.78569461827E+007, +1.69869325553E+002, +1.29952168667E+003
+2.79819774718E+007, +1.69091595795E+002, +1.30913779514E+003
+2.81070087610E+007, +1.71417780533E+002, +1.32116948200E+003
+2.82320400501E+007, +1.75662429524E+002, +1.34097842737E+003
+2.83570713392E+007, +1.76794554575E+002, +1.35136177131E+003
+2.84821026283E+007, +1.73711395643E+002, +1.36713226207E+003
+2.86071339174E+007, +1.80719370244E+002, +1.38765216401E+003
+2.87321652065E+007, +1.88600083253E+002, +1.40107151525E+003
+2.88571964956E+007, +1.76328594874E+002, +1.41505479753E+003
+2.89822277847E+007, +1.81570068844E+002, +1.43660730116E+003
+2.91072590738E+007, +1.86766076171E+002, +1.44431347653E+003
+2.92322903630E+007, +1.92959631855E+002, +1.46362508895E+003
+2.93573216521E+007, +1.86549590449E+002, +1.47502239702E+003
+2.94823529412E+007, +1.96666698152E+002, +1.50101738665E+003
+2.96073842303E+007, +2.04242791393E+002, +1.51563062553E+003
+2.97324155194E+007, +2.09698654408E+002, +1.54747748524E+003
+2.98574468085E+007, +2.13885202046E+002, +1.56253698742E+003
+2.99824780976E+007, +2.17408457648E+002, +1.57483321082E+003
+3.01075093867E+007, +2.21644364275E+002, +1.59188122801E+003
+3.02325406758E+007, +2.31136945121E+002, +1.61103067932E+003
+3.03575719650E+007, +2.23537936334E+002, +1.62532025812E+003
+3.04826032541E+007, +2.34975268219E+002, +1.65119531304E+003
+3.06076345432E+007, +2.35838889655E+002, +1.66278680622E+003
+3.07326658323E+007, +2.47032272988E+002, +1.68009449032E+003
+3.08576971214E+007, +2.55114760201E+002, +1.69409349604E+003
+3.09827284105E+007, +2.52502979525E+002, +1.73165387784E+003
+3.11077596996E+007, +2.54814866252E+002, +1.75381154234E+003
+3.12327909887E+007, +2.64601679653E+002, +1.77293527056E+003
+3.13578222778E+007, +2.75669344838E+002, +1.79751432268E+003
+3.14828535670E+007, +2.74084193296E+002, +1.80891928564E+003
+3.16078848561E+007, +2.84723605237E+002, +1.84085963282E+003
+3.17329161452E+007, +2.86872829220E+002, +1.86541608238E+003
+3.18579474343E+007, +2.92382496196E+002, +1.88514349456E+003
+3.19829787234E+007, +2.98466938252E+002, +1.90752300006E+003
+3.21080100125E+007, +3.16637546767E+002, +1.95045301370E+003
+3.22330413016E+007, +3.17758859309E+002, +1.96451871629E+003
+3.23580725907E+007, +3.17668295311E+002, +1.98723871968E+003
+3.24831038798E+007, +3.31212902703E+002, +2.01830411204E+003
+3.26081351690E+007, +3.38161794807E+002, +2.04565718759E+003
+3.27331664581E+007, +3.35067818144E+002, +2.07315909392E+003
+3.28581977472E+007, +3.72542296526E+002, +2.10256800659E+003
+3.29832290363E+007, +3.64226008484E+002, +2.14032173765E+003
+3.31082603254E+007, +3.81173035167E+002, +2.18719786285E+003
+3.32332916145E+007, +3.97056426026E+002, +2.19528678316E+003
+3.33583229036E+007, +4.08642963099E+002, +2.21647601383E+003
+3.34833541927E+007, +4.27004467093E+002, +2.25359862181E+003
+3.36083854819E+007, +4.19312995930E+002, +2.28813781477E+003
+3.37334167710E+007, +4.41316668871E+002, +2.31849967818E+003
+3.38584480601E+007, +4.51684380726E+002, +2.34934719456E+003
+3.39834793492E+007, +4.72866017603E+002, +2.37927378211E+003
+3.41085106383E+007, +4.66208656794E+002, +2.42749594686E+003
+3.42335419274E+007, +5.06834893705E+002, +2.46932726150E+003
+3.43585732165E+007, +5.22131526548E+002, +2.50594874703E+003
+3.44836045056E+007, +5.14878543824E+002, +2.54336612295E+003
+3.46086357947E+007, +5.26458947074E+002, +2.58883231953E+003
+3.47336670839E+007, +5.80942678173E+002, +2.62895031502E+003
+3.48586983730E+007, +5.89866147303E+002, +2.64524248283E+003
+3.49837296621E+007, +5.97603570795E+002, +2.72707846314E+003
+3.51087609512E+007, +6.11058543387E+002, +2.78517288644E+003
+3.52337922403E+007, +6.52660278721E+002, +2.80699642421E+003
+3.53588235294E+007, +6.71881182643E+002, +2.86447157219E+003
+3.54838548185E+007, +6.90473433451E+002, +2.90529651190E+003
+3.56088861076E+007, +6.97016729854E+002, +2.94273295943E+003
+3.57339173967E+007, +7.71071561324E+002, +3.00841095180E+003
+3.58589486859E+007, +7.76420367391E+002, +3.04933977313E+003
+3.59839799750E+007, +7.99986937293E+002, +3.12858049746E+003
+3.61090112641E+007, +8.10362834656E+002, +3.19732315108E+003
+3.62340425532E+007, +8.38215268209E+002, +3.26430837923E+003
+3.63590738423E+007, +9.22993723210E+002, +3.31520317780E+003
+3.64841051314E+007, +8.98681542032E+002, +3.38604774167E+003
+3.66091364205E+007, +9.61248668114E+002, +3.49219907362E+003
+3.67341677096E+007, +1.03439185018E+003, +3.53865491807E+003
+3.68591989987E+007, +1.09691243021E+003, +3.62121267800E+003
+3.69842302879E+007, +1.10529087246E+003, +3.65968759282E+003
+3.71092615770E+007, +1.16318156292E+003, +3.75296243144E+003
+3.72342928661E+007, +1.19378393720E+003, +3.85436434899E+003
+3.73593241552E+007, +1.26226687855E+003, +3.94726307974E+003
+3.74843554443E+007, +1.35172727464E+003, +4.06052466890E+003
+3.76093867334E+007, +1.43125927252E+003, +4.11378952176E+003
+3.77344180225E+007, +1.50629678238E+003, +4.17624483712E+003
+3.78594493116E+007, +1.59322708505E+003, +4.30093014684E+003
+3.79844806008E+007, +1.63759012279E+003, +4.42126372551E+003
+3.81095118899E+007, +1.80247506653E+003, +4.53664466807E+003
+3.82345431790E+007, +1.88926111939E+003, +4.58963532008E+003
+3.83595744681E+007, +1.92619944840E+003, +4.69251961343E+003
+3.84846057572E+007, +2.13091143219E+003, +4.82775664872E+003
+3.86096370463E+007, +2.29039074813E+003, +4.94657886609E+003
+3.87346683354E+007, +2.44214206627E+003, +5.14484270110E+003
+3.88596996245E+007, +2.62857279321E+003, +5.18824344958E+003
+3.89847309136E+007, +2.82561720886E+003, +5.42417871158E+003
+3.91097622028E+007, +3.02584307609E+003, +5.50199488361E+003
+3.92347934919E+007, +3.28869854192E+003, +5.59198833768E+003
+3.93598247810E+007, +3.48246508925E+003, +5.73401279777E+003
+3.94848560701E+007, +3.79739380064E+003, +5.85035937906E+003
+3.96098873592E+007, +4.08724183624E+003, +5.94511216369E+003
+3.97349186483E+007, +4.23559688448E+003, +5.88169465044E+003
+3.98599499374E+007, +4.78190817037E+003, +6.03642149790E+003
+3.99849812265E+007, +4.95169899272E+003, +6.19462630510E+003
+4.01100125156E+007, +5.60910800608E+003, +6.43219544813E+003
