"# Channel 1"
"# Trace 1"
Frequency, Formatted Data, Formatted Data
+1.00000000000E+005, +3.33043154944E+001, +3.14761711640E+000
+2.87609511890E+005, +3.32384529333E+001, +8.89912149071E+000
+4.75219023780E+005, +3.33720171527E+001, +1.46576419347E+001
+6.62828535670E+005, +3.32802188929E+001, +2.04877044454E+001
+8.50438047559E+005, +3.33446969699E+001, +2.62591811991E+001
+1.03804755945E+006, +3.33020681492E+001, +3.20886005530E+001
+1.22565707134E+006, +3.33333450502E+001, +3.78528377778E+001
+1.41326658323E+006, +3.33849568381E+001, +4.36183352805E+001
+1.60087609512E+006, +3.33434112425E+001, +4.94209415461E+001
+1.78848560701E+006, +3.33677575115E+001, +5.52299052745E+001
+1.97609511890E+006, +3.33891067601E+001, +6.10375637632E+001
+2.16370463079E+006, +3.35346304402E+001, +6.68387580712E+001
+2.35131414268E+006, +3.34556322063E+001, +7.25783812816E+001
+2.53892365457E+006, +3.34893853636E+001, +7.84290666978E+001
+2.72653316646E+006, +3.35252139589E+001, +8.43203244272E+001
+2.91414267835E+006, +3.35019715447E+001, +8.99728010435E+001
+3.10175219024E+006, +3.35904684592E+001, +9.57627822114E+001
+3.28936170213E+006, +3.35929027640E+001, +1.01723829674E+002
+3.47697121402E+006, +3.36683479902E+001, +1.07436654056E+002
+3.66458072591E+006, +3.36947077285E+001, +1.13296365112E+002
+3.85219023780E+006, +3.38220081195E+001, +1.19072698135E+002
+4.03979974969E+006, +3.38409672802E+001, +1.24716750346E+002
+4.22740926158E+006, +3.38280415124E+001, +1.30795675599E+002
+4.41501877347E+006, +3.41427314857E+001, +1.36595096335E+002
+4.60262828536E+006, +3.41001051835E+001, +1.42461297780E+002
+4.79023779725E+006, +3.40268367672E+001, +1.48237462429E+002
+4.97784730914E+006, +3.41823268447E+001, +1.54111852076E+002
+5.16545682103E+006, +3.43435799609E+001, +1.59794717832E+002
+5.35306633292E+006, +3.44859972193E+001, +1.65790686698E+002
+5.54067584481E+006, +3.43728341374E+001, +1.71537526581E+002
+5.72828535670E+006, +3.46972287067E+001, +1.77373265064E+002
+5.91589486859E+006, +3.46175635403E+001, +1.83143753028E+002
+6.10350438048E+006, +3.46386340584E+001, +1.89133917768E+002
+6.29111389237E+006, +3.48488297191E+001, +1.95000122408E+002
+6.47872340426E+006, +3.50784366526E+001, +2.00879467480E+002
+6.66633291615E+006, +3.51665386574E+001, +2.06859884527E+002
+6.85394242804E+006, +3.53483987255E+001, +2.12710637999E+002
+7.04155193992E+006, +3.54786423729E+001, +2.18706948121E+002
+7.22916145181E+006, +3.57334743928E+001, +2.24581474092E+002
+7.41677096370E+006, +3.58294163202E+001, +2.30296875504E+002
+7.60438047559E+006, +3.58838250453E+001, +2.36353796967E+002
+7.79198998748E+006, +3.61708913769E+001, +2.42259070928E+002
+7.97959949937E+006, +3.61490865551E+001, +2.48285412697E+002
+8.16720901126E+006, +3.61914825745E+001, +2.54009157361E+002
+8.35481852315E+006, +3.66354003364E+001, +2.60154298623E+002
+8.54242803504E+006, +3.63818708419E+001, +2.66205025159E+002
+8.73003754693E+006, +3.68406433114E+001, +2.72290414745E+002
+8.91764705882E+006, +3.69397804279E+001, +2.77848782406E+002
+9.10525657071E+006, +3.70878994012E+001, +2.84267343599E+002
+9.29286608260E+006, +3.72503762629E+001, +2.89969662533E+002
+9.48047559449E+006, +3.74027524901E+001, +2.96320979510E+002
+9.66808510638E+006, +3.75804753507E+001, +3.02171828013E+002
+9.85569461827E+006, +3.77695209418E+001, +3.08197072586E+002
+1.00433041302E+007, +3.76624044085E+001, +3.14188311606E+002
+1.02309136421E+007, +3.77750540538E+001, +3.20257660472E+002
+1.04185231539E+007, +3.80652960826E+001, +3.26145415215E+002
+1.06061326658E+007, +3.82895459892E+001, +3.32328654306E+002
+1.07937421777E+007, +3.83618407888E+001, +3.38527953607E+002
+1.09813516896E+007, +3.84113112208E+001, +3.44680658048E+002
+1.11689612015E+007, +3.90407687660E+001, +3.50504981625E+002
+1.13565707134E+007, +3.87395649558E+001, +3.57050844794E+002
+1.15441802253E+007, +3.91133054998E+001, +3.63150393204E+002
+1.17317897372E+007, +3.92498132650E+001, +3.68909156177E+002
+1.19193992491E+007, +3.97074563670E+001, +3.75305118924E+002
+1.21070087610E+007, +3.98840660587E+001, +3.81301142577E+002
+1.22946182728E+007, +3.98554764278E+001, +3.87609760224E+002
+1.24822277847E+007, +3.99645009712E+001, +3.93974645337E+002
+1.26698372966E+007, +4.06280392830E+001, +4.00191770842E+002
+1.28574468085E+007, +4.04708595194E+001, +4.06189082479E+002
+1.30450563204E+007, +4.06261986946E+001, +4.12808661347E+002
+1.32326658323E+007, +4.12638879684E+001, +4.18638565705E+002
+1.34202753442E+007, +4.16111606909E+001, +4.24982616769E+002
+1.36078848561E+007, +4.16044492336E+001, +4.31134318844E+002
+1.37954943680E+007, +4.16186363617E+001, +4.37332371297E+002
+1.39831038798E+007, +4.16650169732E+001, +4.43776233166E+002
+1.41707133917E+007, +4.20149579771E+001, +4.49867706597E+002
+1.43583229036E+007, +4.22761213102E+001, +4.56259814357E+002
+1.45459324155E+007, +4.27681387817E+001, +4.62716275320E+002
+1.47335419274E+007, +4.31626990836E+001, +4.69267083019E+002
+1.49211514393E+007, +4.32195966914E+001, +4.75507210273E+002
+1.51087609512E+007, +4.28693263769E+001, +4.81706733140E+002
+1.52963704631E+007, +4.39420507348E+001, +4.88936035947E+002
+1.54839799750E+007, +4.37791918907E+001, +4.94823005157E+002
+1.56715894869E+007, +4.46562369107E+001, +5.00804912930E+002
+1.58591989987E+007, +4.45857403664E+001, +5.07866766029E+002
+1.60468085106E+007, +4.46609282628E+001, +5.14068269724E+002
+1.62344180225E+007, +4.48183071093E+001, +5.20760172977E+002
+1.64220275344E+007, +4.54483454687E+001, +5.26711427463E+002
+1.66096370463E+007, +4.53887080052E+001, +5.33659119052E+002
+1.67972465582E+007, +4.59148271552E+001, +5.40602764568E+002
+1.69848560701E+007, +4.55584080569E+001, +5.47369049697E+002
+1.71724655820E+007, +4.47351710741E+001, +5.54035610214E+002
+1.73600750939E+007, +4.59788591873E+001, +5.60692116621E+002
+1.75476846058E+007, +4.63352664702E+001, +5.66969591912E+002
+1.77352941176E+007, +4.72719827653E+001, +5.73689402377E+002
+1.79229036295E+007, +4.74755490019E+001, +5.80258053174E+002
+1.81105131414E+007, +4.77709749436E+001, +5.87559938592E+002
+1.82981226533E+007, +4.75926146851E+001, +5.93279472789E+002
+1.84857321652E+007, +4.83481705616E+001, +6.00124435184E+002
+1.86733416771E+007, +4.89581239375E+001, +6.07395829555E+002
+1.88609511890E+007, +4.89898151413E+001, +6.13855412681E+002
+1.90485607009E+007, +4.97473265699E+001, +6.20892557677E+002
+1.92361702128E+007, +5.06190515093E+001, +6.28266274864E+002
+1.94237797247E+007, +5.00826041971E+001, +6.34240082225E+002
+1.96113892365E+007, +5.10304926815E+001, +6.41369486479E+002
+1.97989987484E+007, +5.18712012288E+001, +6.48460395840E+002
+1.99866082603E+007, +5.22790290796E+001, +6.54231275684E+002
+2.01742177722E+007, +5.20321281585E+001, +6.62310986250E+002
+2.03618272841E+007, +5.30536580766E+001, +6.68976531870E+002
+2.05494367960E+007, +5.39564241766E+001, +6.76203826948E+002
+2.07370463079E+007, +5.34587657653E+001, +6.82387873927E+002
+2.09246558198E+007, +5.45536794173E+001, +6.89837517947E+002
+2.11122653317E+007, +5.46150779221E+001, +6.97048524316E+002
+2.12998748436E+007, +5.46391985940E+001, +7.03886182782E+002
+2.14874843554E+007, +5.53501735211E+001, +7.10674590101E+002
+2.16750938673E+007, +5.42946321630E+001, +7.17261427069E+002
+2.18627033792E+007, +5.52406414598E+001, +7.25930704553E+002
+2.20503128911E+007, +5.52401495776E+001, +7.32276846824E+002
+2.22379224030E+007, +5.65409776938E+001, +7.39901877109E+002
+2.24255319149E+007, +5.70754503585E+001, +7.47137460659E+002
+2.26131414268E+007, +5.75866736381E+001, +7.53233597542E+002
+2.28007509387E+007, +5.78139478679E+001, +7.61632470124E+002
+2.29883604506E+007, +5.90121462826E+001, +7.68437983753E+002
+2.31759699625E+007, +5.89577208238E+001, +7.76644464228E+002
+2.33635794743E+007, +6.11411929348E+001, +7.84216863687E+002
+2.35511889862E+007, +6.01654295783E+001, +7.90420521370E+002
+2.37387984981E+007, +6.09665313327E+001, +7.98422192253E+002
+2.39264080100E+007, +6.17976897078E+001, +8.06043559621E+002
+2.41140175219E+007, +6.22001564658E+001, +8.13552419794E+002
+2.43016270338E+007, +6.31997901322E+001, +8.21324450940E+002
+2.44892365457E+007, +6.40539950662E+001, +8.28404542072E+002
+2.46768460576E+007, +6.21546639713E+001, +8.34369802259E+002
+2.48644555695E+007, +6.43550463739E+001, +8.42415373328E+002
+2.50520650814E+007, +6.51641758403E+001, +8.51371441447E+002
+2.52396745932E+007, +6.55914010613E+001, +8.58303904018E+002
+2.54272841051E+007, +6.76623456196E+001, +8.67345441306E+002
+2.56148936170E+007, +6.62878048656E+001, +8.74549784217E+002
+2.58025031289E+007, +6.86020117859E+001, +8.82519047648E+002
+2.59901126408E+007, +6.75855870381E+001, +8.89856000359E+002
+2.61777221527E+007, +6.95536754175E+001, +8.98395824180E+002
+2.63653316646E+007, +6.91383849284E+001, +9.05303434159E+002
+2.65529411765E+007, +7.07379215075E+001, +9.14292776888E+002
+2.67405506884E+007, +6.93244755211E+001, +9.21506083488E+002
+2.69281602003E+007, +7.09225485256E+001, +9.29981960742E+002
+2.71157697121E+007, +7.32016647947E+001, +9.37380777649E+002
+2.73033792240E+007, +7.23507216215E+001, +9.46647390475E+002
+2.74909887359E+007, +7.30853395387E+001, +9.56161975799E+002
+2.76785982478E+007, +7.33366592623E+001, +9.61414101751E+002
+2.78662077597E+007, +7.32656073832E+001, +9.70939519475E+002
+2.80538172716E+007, +7.73017655393E+001, +9.79019803765E+002
+2.82414267835E+007, +7.67091204952E+001, +9.86132661612E+002
+2.84290362954E+007, +7.61866557553E+001, +9.95023461394E+002
+2.86166458073E+007, +7.65677936056E+001, +1.00254897550E+003
+2.88042553191E+007, +7.98846593749E+001, +1.01104412017E+003
+2.89918648310E+007, +7.97125764149E+001, +1.01981807880E+003
+2.91794743429E+007, +7.83607638069E+001, +1.02845077413E+003
+2.93670838548E+007, +8.11120096701E+001, +1.03884230024E+003
+2.95546933667E+007, +8.04887579224E+001, +1.04846137771E+003
+2.97423028786E+007, +8.15608396193E+001, +1.05399998040E+003
+2.99299123905E+007, +8.24746500415E+001, +1.06300304746E+003
+3.01175219024E+007, +8.39539470452E+001, +1.07377573378E+003
+3.03051314143E+007, +8.33162758794E+001, +1.08030254610E+003
+3.04927409262E+007, +8.47203558356E+001, +1.09112275163E+003
+3.06803504380E+007, +8.46638530126E+001, +1.09710300476E+003
+3.08679599499E+007, +8.30210468648E+001, +1.10817895331E+003
+3.10555694618E+007, +8.91494374611E+001, +1.11742970198E+003
+3.12431789737E+007, +8.43455376789E+001, +1.12724465910E+003
+3.14307884856E+007, +8.96055695786E+001, +1.13259137383E+003
+3.16183979975E+007, +8.95124905972E+001, +1.14413047734E+003
+3.18060075094E+007, +8.96391262323E+001, +1.15556862306E+003
+3.19936170213E+007, +9.07511470704E+001, +1.16433838659E+003
+3.21812265332E+007, +9.33830882520E+001, +1.16976201971E+003
+3.23688360451E+007, +9.58363752685E+001, +1.18025895003E+003
+3.25564455569E+007, +9.39929850115E+001, +1.19048070756E+003
+3.27440550688E+007, +9.60694808069E+001, +1.20055934432E+003
+3.29316645807E+007, +9.29697701853E+001, +1.20924926596E+003
+3.31192740926E+007, +9.29141616961E+001, +1.22024151553E+003
+3.33068836045E+007, +9.50948406592E+001, +1.22751828495E+003
+3.34944931164E+007, +9.83560896660E+001, +1.23828119253E+003
+3.36821026283E+007, +1.00467231827E+002, +1.24835380783E+003
+3.38697121402E+007, +9.87703009682E+001, +1.26026724782E+003
+3.40573216521E+007, +1.01289225058E+002, +1.27024380356E+003
+3.42449311640E+007, +1.02476253149E+002, +1.28048128233E+003
+3.44325406758E+007, +1.02668221790E+002, +1.28419815460E+003
+3.46201501877E+007, +1.04231714165E+002, +1.29908591587E+003
+3.48077596996E+007, +1.04802716361E+002, +1.30886885141E+003
+3.49953692115E+007, +1.03088969821E+002, +1.31854300291E+003
+3.51829787234E+007, +1.07174736493E+002, +1.32737012940E+003
+3.53705882353E+007, +1.08661325573E+002, +1.33781745808E+003
+3.55581977472E+007, +1.13504131916E+002, +1.35205399103E+003
+3.57458072591E+007, +1.09924700773E+002, +1.36273910613E+003
+3.59334167710E+007, +1.11028350578E+002, +1.37180183662E+003
+3.61210262829E+007, +1.12312042476E+002, +1.38205893602E+003
+3.63086357947E+007, +1.12396181032E+002, +1.39252121585E+003
+3.64962453066E+007, +1.19521975711E+002, +1.40509049985E+003
+3.66838548185E+007, +1.19190889141E+002, +1.41444445745E+003
+3.68714643304E+007, +1.19224737016E+002, +1.42381969788E+003
+3.70590738423E+007, +1.19240623918E+002, +1.43397005699E+003
+3.72466833542E+007, +1.24324572750E+002, +1.45043038153E+003
+3.74342928661E+007, +1.20945906482E+002, +1.45868262077E+003
+3.76219023780E+007, +1.22124421575E+002, +1.46972433250E+003
+3.78095118899E+007, +1.29149718079E+002, +1.48118767296E+003
+3.79971214018E+007, +1.24700476084E+002, +1.49234296400E+003
+3.81847309136E+007, +1.28120773124E+002, +1.50387779215E+003
+3.83723404255E+007, +1.31802739283E+002, +1.51706956507E+003
+3.85599499374E+007, +1.29371721389E+002, +1.52528734072E+003
+3.87475594493E+007, +1.33666359603E+002, +1.53636733981E+003
+3.89351689612E+007, +1.32700151535E+002, +1.54804555032E+003
+3.91227784731E+007, +1.36309936159E+002, +1.56276909343E+003
+3.93103879850E+007, +1.37806306170E+002, +1.57353144893E+003
+3.94979974969E+007, +1.42871502959E+002, +1.58741188814E+003
+3.96856070088E+007, +1.38879184030E+002, +1.60277598512E+003
+3.98732165207E+007, +1.39541475112E+002, +1.61667868896E+003
+4.00608260325E+007, +1.43459687689E+002, +1.62711085407E+003
+4.02484355444E+007, +1.42510944184E+002, +1.64006392400E+003
+4.04360450563E+007, +1.43058526440E+002, +1.64703088766E+003
+4.06236545682E+007, +1.45763821787E+002, +1.67015036742E+003
+4.08112640801E+007, +1.53193117528E+002, +1.68061171971E+003
+4.09988735920E+007, +1.48374564093E+002, +1.69091045395E+003
+4.11864831039E+007, +1.53307956158E+002, +1.70040952202E+003
+4.13740926158E+007, +1.53913128064E+002, +1.71281236430E+003
+4.15617021277E+007, +1.54532979373E+002, +1.73233621895E+003
+4.17493116395E+007, +1.54953289116E+002, +1.74219267311E+003
+4.19369211514E+007, +1.57653369697E+002, +1.75687315667E+003
+4.21245306633E+007, +1.64483022463E+002, +1.77160325712E+003
+4.23121401752E+007, +1.66813088214E+002, +1.78658221553E+003
+4.24997496871E+007, +1.68144223520E+002, +1.79229633026E+003
+4.26873591990E+007, +1.68201310613E+002, +1.80939938694E+003
+4.28749687109E+007, +1.66830003436E+002, +1.83219067604E+003
+4.30625782228E+007, +1.70685196633E+002, +1.83861738103E+003
+4.32501877347E+007, +1.71923335281E+002, +1.85029091646E+003
+4.34377972466E+007, +1.79397077714E+002, +1.87213506918E+003
+4.36254067584E+007, +1.80164512026E+002, +1.88505545961E+003
+4.38130162703E+007, +1.83676076480E+002, +1.90808578259E+003
+4.40006257822E+007, +1.78447944368E+002, +1.91534328241E+003
+4.41882352941E+007, +1.84841641293E+002, +1.92756924625E+003
+4.43758448060E+007, +1.91776495618E+002, +1.94113428100E+003
+4.45634543179E+007, +1.98031542459E+002, +1.97258625600E+003
+4.47510638298E+007, +1.84880051015E+002, +1.98140620515E+003
+4.49386733417E+007, +2.00155855440E+002, +1.99157869324E+003
+4.51262828536E+007, +1.95531182795E+002, +2.00831850139E+003
+4.53138923655E+007, +1.91456841947E+002, +2.02520229313E+003
+4.55015018773E+007, +1.94521580629E+002, +2.04061535714E+003
+4.56891113892E+007, +2.08821226085E+002, +2.05648988938E+003
+4.58767209011E+007, +2.01222041218E+002, +2.07870548836E+003
+4.60643304130E+007, +1.94510976966E+002, +2.08818186729E+003
+4.62519399249E+007, +2.10954659091E+002, +2.10778168501E+003
+4.64395494368E+007, +2.13134774355E+002, +2.12777642303E+003
+4.66271589487E+007, +2.14779269476E+002, +2.14702606757E+003
+4.68147684606E+007, +2.20570380778E+002, +2.17128965614E+003
+4.70023779725E+007, +2.24819635613E+002, +2.17911177961E+003
+4.71899874844E+007, +2.24387497179E+002, +2.19391722838E+003
+4.73775969962E+007, +2.25498928717E+002, +2.21959722867E+003
+4.75652065081E+007, +2.26596638503E+002, +2.23255463660E+003
+4.77528160200E+007, +2.24246266231E+002, +2.25143486205E+003
+4.79404255319E+007, +2.36389570577E+002, +2.27423602654E+003
+4.81280350438E+007, +2.42062888082E+002, +2.29439293008E+003
+4.83156445557E+007, +2.39068773143E+002, +2.31474133515E+003
+4.85032540676E+007, +2.37995561943E+002, +2.32672313918E+003
+4.86908635795E+007, +2.46482501706E+002, +2.34827740903E+003
+4.88784730914E+007, +2.50657132546E+002, +2.36963812575E+003
+4.90660826033E+007, +2.56858018116E+002, +2.39157529385E+003
+4.92536921151E+007, +2.66002656293E+002, +2.41089493746E+003
+4.94413016270E+007, +2.66264691305E+002, +2.42434226577E+003
+4.96289111389E+007, +2.74596120699E+002, +2.45082246119E+003
+4.98165206508E+007, +2.75884407015E+002, +2.47558179718E+003
+5.00041301627E+007, +2.81746838755E+002, +2.49229979586E+003
+5.01917396746E+007, +2.80962000660E+002, +2.51695957260E+003
+5.03793491865E+007, +2.91173912487E+002, +2.54237346449E+003
+5.05669586984E+007, +2.98673960241E+002, +2.56657300910E+003
+5.07545682103E+007, +2.87222071697E+002, +2.58965766884E+003
+5.09421777222E+007, +3.05403847925E+002, +2.61576979513E+003
+5.11297872340E+007, +3.04212791541E+002, +2.63610288703E+003
+5.13173967459E+007, +3.18625930116E+002, +2.66300000924E+003
+5.15050062578E+007, +3.19909251759E+002, +2.68037298566E+003
+5.16926157697E+007, +3.21884145606E+002, +2.70041289502E+003
+5.18802252816E+007, +3.32035888336E+002, +2.73078698228E+003
+5.20678347935E+007, +3.32445039863E+002, +2.74405007499E+003
+5.22554443054E+007, +3.49584511289E+002, +2.77983986245E+003
+5.24430538173E+007, +3.34703618114E+002, +2.81389757391E+003
+5.26306633292E+007, +3.56032309933E+002, +2.82676017090E+003
+5.28182728411E+007, +3.71260562598E+002, +2.86072268274E+003
+5.30058823529E+007, +3.61381762143E+002, +2.88754235058E+003
+5.31934918648E+007, +3.60663030628E+002, +2.91800911969E+003
+5.33811013767E+007, +3.85520199052E+002, +2.93683080670E+003
+5.35687108886E+007, +3.79520713353E+002, +2.98413070296E+003
+5.37563204005E+007, +4.15205802025E+002, +3.00083237393E+003
+5.39439299124E+007, +3.98815708167E+002, +3.03766016403E+003
+5.41315394243E+007, +3.98148996208E+002, +3.07491130122E+003
+5.43191489362E+007, +4.36720261310E+002, +3.09792971211E+003
+5.45067584481E+007, +4.08308807173E+002, +3.12720270231E+003
+5.46943679599E+007, +4.31755046237E+002, +3.15129508613E+003
+5.48819774718E+007, +4.41225321750E+002, +3.17837258829E+003
+5.50695869837E+007, +4.51479217010E+002, +3.20294475504E+003
+5.52571964956E+007, +4.48449816086E+002, +3.24487587758E+003
+5.54448060075E+007, +4.57044009937E+002, +3.29731128562E+003
+5.56324155194E+007, +4.61124172569E+002, +3.32271958016E+003
+5.58200250313E+007, +4.77173694759E+002, +3.33349857555E+003
+5.60076345432E+007, +4.81917969347E+002, +3.38332479414E+003
+5.61952440551E+007, +4.97269086376E+002, +3.42032150307E+003
+5.63828535670E+007, +5.20452480079E+002, +3.43297913848E+003
+5.65704630788E+007, +5.21893549865E+002, +3.49552622997E+003
+5.67580725907E+007, +5.39121649514E+002, +3.53199776011E+003
+5.69456821026E+007, +5.55903246467E+002, +3.55431693063E+003
+5.71332916145E+007, +5.55994231933E+002, +3.61441918635E+003
+5.73209011264E+007, +5.54408836779E+002, +3.62070456062E+003
+5.75085106383E+007, +5.76269734651E+002, +3.68102290292E+003
+5.76961201502E+007, +5.72954018464E+002, +3.71185668509E+003
+5.78837296621E+007, +5.85637183224E+002, +3.77826751756E+003
+5.80713391740E+007, +6.08588792904E+002, +3.78552138799E+003
+5.82589486859E+007, +6.19027415559E+002, +3.86071580632E+003
+5.84465581977E+007, +6.36928098940E+002, +3.87547862616E+003
+5.86341677096E+007, +6.27649332227E+002, +3.94555000358E+003
+5.88217772215E+007, +6.71540867531E+002, +3.97605210290E+003
+5.90093867334E+007, +6.92927121358E+002, +4.02561704941E+003
+5.91969962453E+007, +7.02216769526E+002, +4.09499539179E+003
+5.93846057572E+007, +7.15943742123E+002, +4.12991229650E+003
+5.95722152691E+007, +7.25498672936E+002, +4.16554103729E+003
+5.97598247810E+007, +7.37867912914E+002, +4.24140000693E+003
+5.99474342929E+007, +7.91376266420E+002, +4.27746167506E+003
+6.01350438048E+007, +7.72060199153E+002, +4.34219185891E+003
