"# Channel 1"
"# Trace 1"
Frequency, Formatted Data, Formatted Data
+1.00000000000E+005, +1.00632946920E+001, +2.99700466107E+000
+2.66777963272E+005, +1.00332935733E+001, +8.00375130734E+000
+4.33555926544E+005, +1.00483776250E+001, +1.30119360138E+001
+6.00333889816E+005, +1.00733369543E+001, +1.79572352321E+001
+7.67111853088E+005, +1.01005146214E+001, +2.29670081140E+001
+9.33889816361E+005, +1.01061291368E+001, +2.79208322959E+001
+1.10066777963E+006, +1.00445214708E+001, +3.29991551027E+001
+1.26744574290E+006, +1.01227232594E+001, +3.79084455137E+001
+1.43422370618E+006, +1.00519012209E+001, +4.30234458361E+001
+1.60100166945E+006, +1.01119866353E+001, +4.78734684880E+001
+1.76777963272E+006, +1.01690210812E+001, +5.28503875753E+001
+1.93455759599E+006, +1.00991050287E+001, +5.77599914639E+001
+2.10133555927E+006, +1.01222504888E+001, +6.28310886624E+001
+2.26811352254E+006, +1.01789185030E+001, +6.78120898395E+001
+2.43489148581E+006, +1.02010504119E+001, +7.29420628977E+001
+2.60166944908E+006, +1.01635464531E+001, +7.77761928110E+001
+2.76844741235E+006, +1.01498309202E+001, +8.29430799995E+001
+2.93522537563E+006, +1.00746157855E+001, +8.79526056709E+001
+3.10200333890E+006, +1.03810388255E+001, +9.27588938245E+001
+3.26878130217E+006, +1.01098905260E+001, +9.81453237075E+001
+3.43555926544E+006, +1.02731564287E+001, +1.03045972421E+002
+3.60233722871E+006, +1.03500883370E+001, +1.08183740967E+002
+3.76911519199E+006, +1.04044081132E+001, +1.13492381662E+002
+3.93589315526E+006, +1.06933996718E+001, +1.18135053382E+002
+4.10267111853E+006, +9.05117280712E+000, +1.21881294353E+002
+4.26944908180E+006, +9.93109454301E+000, +1.29421510758E+002
+4.43622704508E+006, +1.04107433635E+001, +1.33896693829E+002
+4.60300500835E+006, +1.04122338271E+001, +1.39221019186E+002
+4.76978297162E+006, +1.03339521812E+001, +1.44077834289E+002
+4.93656093489E+006, +1.08025908226E+001, +1.49385664958E+002
+5.10333889816E+006, +1.07039239239E+001, +1.54153567729E+002
+5.27011686144E+006, +1.13744001078E+001, +1.59706623563E+002
+5.43689482471E+006, +1.09603397595E+001, +1.64780528405E+002
+5.60367278798E+006, +1.10648709823E+001, +1.70390507891E+002
+5.77045075125E+006, +1.10077381766E+001, +1.74947572276E+002
+5.93722871452E+006, +1.16071382026E+001, +1.80187413320E+002
+6.10400667780E+006, +1.14451540428E+001, +1.85827214967E+002
+6.27078464107E+006, +1.16786814880E+001, +1.90793783380E+002
+6.43756260434E+006, +1.17897740335E+001, +1.95965862096E+002
+6.60434056761E+006, +1.21162583209E+001, +2.00918028744E+002
+6.77111853088E+006, +1.24152993479E+001, +2.06021266660E+002
+6.93789649416E+006, +1.23842573980E+001, +2.11552285601E+002
+7.10467445743E+006, +1.24719240354E+001, +2.16722147598E+002
+7.27145242070E+006, +1.25503537041E+001, +2.21926645520E+002
+7.43823038397E+006, +1.27510377164E+001, +2.27010778349E+002
+7.60500834725E+006, +1.26405720222E+001, +2.32506893420E+002
+7.77178631052E+006, +1.27403382272E+001, +2.38083955346E+002
+7.93856427379E+006, +1.27319591277E+001, +2.43034206182E+002
+8.10534223706E+006, +1.25336689181E+001, +2.48446234949E+002
+8.27212020033E+006, +1.28993518477E+001, +2.54011342380E+002
+8.43889816361E+006, +1.26461523362E+001, +2.59595781037E+002
+8.60567612688E+006, +1.26002549008E+001, +2.65381089010E+002
+8.77245409015E+006, +1.23542170858E+001, +2.70427076497E+002
+8.93923205342E+006, +1.25104125419E+001, +2.76276836818E+002
+9.10601001669E+006, +1.24362342227E+001, +2.81390250448E+002
+9.27278797997E+006, +1.29525597695E+001, +2.87318721407E+002
+9.43956594324E+006, +1.27138997269E+001, +2.93041583208E+002
+9.60634390651E+006, +1.25205620604E+001, +2.98465123569E+002
+9.77312186978E+006, +1.26958812141E+001, +3.04141546212E+002
+9.93989983306E+006, +1.30500725428E+001, +3.09976549266E+002
+1.01066777963E+007, +1.23570028708E+001, +3.15737629017E+002
+1.02734557596E+007, +1.28535613276E+001, +3.22418780621E+002
+1.04402337229E+007, +1.25676055774E+001, +3.27511662834E+002
+1.06070116861E+007, +1.25762685105E+001, +3.33149927444E+002
+1.07737896494E+007, +1.28838042976E+001, +3.39896914854E+002
+1.09405676127E+007, +1.31688253682E+001, +3.44905419303E+002
+1.11073455760E+007, +1.25924735255E+001, +3.51300005395E+002
+1.12741235392E+007, +1.34303335096E+001, +3.57351175950E+002
+1.14409015025E+007, +1.34042130834E+001, +3.63564832673E+002
+1.16076794658E+007, +1.34525876241E+001, +3.68698704090E+002
+1.17744574290E+007, +1.36507958888E+001, +3.75855011089E+002
+1.19412353923E+007, +1.38758440644E+001, +3.81315755780E+002
+1.21080133556E+007, +1.32803366570E+001, +3.88460384340E+002
+1.22747913189E+007, +1.45170031619E+001, +3.93693063152E+002
+1.24415692821E+007, +1.36033433800E+001, +4.00023328597E+002
+1.26083472454E+007, +1.34115514772E+001, +4.06790046609E+002
+1.27751252087E+007, +1.35960612292E+001, +4.12611541315E+002
+1.29419031720E+007, +1.34624032936E+001, +4.19044850404E+002
+1.31086811352E+007, +1.39764737564E+001, +4.25960564506E+002
+1.32754590985E+007, +1.49215507996E+001, +4.32042057618E+002
+1.34422370618E+007, +1.37088967559E+001, +4.38192323951E+002
+1.36090150250E+007, +1.53172451600E+001, +4.44746864086E+002
+1.37757929883E+007, +1.44736322508E+001, +4.50951789242E+002
+1.39425709516E+007, +1.51503201010E+001, +4.58303695054E+002
+1.41093489149E+007, +1.49619647877E+001, +4.64091142486E+002
+1.42761268781E+007, +1.56178874046E+001, +4.72288347242E+002
+1.44429048414E+007, +1.60533149082E+001, +4.77274018944E+002
+1.46096828047E+007, +1.60414410290E+001, +4.85731733177E+002
+1.47764607679E+007, +1.57837919496E+001, +4.91711494309E+002
+1.49432387312E+007, +1.56049038271E+001, +4.99156437349E+002
+1.51100166945E+007, +1.64555215243E+001, +5.05678581622E+002
+1.52767946578E+007, +1.72554332902E+001, +5.12985014999E+002
+1.54435726210E+007, +1.64526376064E+001, +5.20609515503E+002
+1.56103505843E+007, +1.85206128970E+001, +5.27401311219E+002
+1.57771285476E+007, +1.84394718737E+001, +5.33521708333E+002
+1.59439065109E+007, +1.80591594729E+001, +5.40421014455E+002
+1.61106844741E+007, +1.75139476412E+001, +5.48166362365E+002
+1.62774624374E+007, +1.86231024043E+001, +5.54742768150E+002
+1.64442404007E+007, +1.72621585462E+001, +5.62863879303E+002
+1.66110183639E+007, +1.80965773517E+001, +5.69611094421E+002
+1.67777963272E+007, +1.85636268047E+001, +5.77023813036E+002
+1.69445742905E+007, +1.95476260617E+001, +5.84444043805E+002
+1.71113522538E+007, +1.62383300348E+001, +5.91363540849E+002
+1.72781302170E+007, +1.71994523434E+001, +6.00696467993E+002
+1.74449081803E+007, +1.66873198585E+001, +6.08394583488E+002
+1.76116861436E+007, +1.95931806208E+001, +6.16249483820E+002
+1.77784641068E+007, +1.88881901079E+001, +6.22738453565E+002
+1.79452420701E+007, +2.02660269009E+001, +6.29986783723E+002
+1.81120200334E+007, +2.08459134960E+001, +6.37768429878E+002
+1.82787979967E+007, +2.19133699540E+001, +6.47778420500E+002
+1.84455759599E+007, +2.08514962226E+001, +6.56260949233E+002
+1.86123539232E+007, +2.34255769971E+001, +6.64074055394E+002
+1.87791318865E+007, +2.00591632986E+001, +6.74505699267E+002
+1.89459098497E+007, +2.09444079484E+001, +6.81962150919E+002
+1.91126878130E+007, +2.28673754131E+001, +6.88979966325E+002
+1.92794657763E+007, +2.25178950395E+001, +6.98498772824E+002
+1.94462437396E+007, +2.33069141937E+001, +7.08085527700E+002
+1.96130217028E+007, +2.28745866196E+001, +7.18873846487E+002
+1.97797996661E+007, +2.35403550103E+001, +7.24979302757E+002
+1.99465776294E+007, +2.14937421970E+001, +7.33628760054E+002
+2.01133555927E+007, +2.35605022438E+001, +7.43038436546E+002
+2.02801335559E+007, +2.31872252418E+001, +7.55513753071E+002
+2.04469115192E+007, +2.58192571951E+001, +7.64012794536E+002
+2.06136894825E+007, +2.49114370533E+001, +7.75243670500E+002
+2.07804674457E+007, +2.47837272237E+001, +7.82958195511E+002
+2.09472454090E+007, +2.41450246959E+001, +7.97548016165E+002
+2.11140233723E+007, +2.80240949195E+001, +8.00717543939E+002
+2.12808013356E+007, +2.72375545494E+001, +8.11135410644E+002
+2.14475792988E+007, +2.86146039533E+001, +8.21454822722E+002
+2.16143572621E+007, +3.15736790216E+001, +8.34361401511E+002
+2.17811352254E+007, +2.89036714017E+001, +8.38747192118E+002
+2.19479131886E+007, +3.22534238264E+001, +8.53277345977E+002
+2.21146911519E+007, +3.30637549498E+001, +8.62901147376E+002
+2.22814691152E+007, +3.66102064029E+001, +8.72007729616E+002
+2.24482470785E+007, +3.40718019201E+001, +8.86597076775E+002
+2.26150250417E+007, +3.91172238077E+001, +8.94697696250E+002
+2.27818030050E+007, +3.72540600303E+001, +9.09510967828E+002
+2.29485809683E+007, +4.38531909481E+001, +9.18678853263E+002
+2.31153589316E+007, +4.04881938294E+001, +9.35936650683E+002
+2.32821368948E+007, +4.48367700276E+001, +9.42271646281E+002
+2.34489148581E+007, +4.57581571724E+001, +9.53187594013E+002
+2.36156928214E+007, +4.98125508968E+001, +9.69463174011E+002
+2.37824707846E+007, +4.84702891135E+001, +9.74838725246E+002
+2.39492487479E+007, +4.40795074899E+001, +9.89701687016E+002
+2.41160267112E+007, +4.92140665490E+001, +1.00218920036E+003
+2.42828046745E+007, +4.66266846557E+001, +1.01366875371E+003
+2.44495826377E+007, +5.58985497835E+001, +1.03047411909E+003
+2.46163606010E+007, +5.19465417031E+001, +1.03922997158E+003
+2.47831385643E+007, +5.28658278984E+001, +1.05872034688E+003
+2.49499165275E+007, +6.17404637129E+001, +1.06850075553E+003
+2.51166944908E+007, +6.25738048479E+001, +1.07893659084E+003
+2.52834724541E+007, +6.33848175113E+001, +1.09154265527E+003
+2.54502504174E+007, +7.21073980657E+001, +1.10550723177E+003
+2.56170283806E+007, +6.67899128835E+001, +1.12282672226E+003
+2.57838063439E+007, +7.30381616842E+001, +1.13763050625E+003
+2.59505843072E+007, +7.46533360441E+001, +1.15385414734E+003
+2.61173622705E+007, +7.73032622294E+001, +1.16795428258E+003
+2.62841402337E+007, +8.16276968758E+001, +1.17816488491E+003
+2.64509181970E+007, +8.33950980769E+001, +1.18884697892E+003
+2.66176961603E+007, +8.18445473157E+001, +1.21284508347E+003
+2.67844741235E+007, +8.23928513013E+001, +1.21868515867E+003
+2.69512520868E+007, +9.03627734809E+001, +1.23433998126E+003
+2.71180300501E+007, +9.15799854310E+001, +1.24985106490E+003
+2.72848080134E+007, +8.72355927215E+001, +1.26413921411E+003
+2.74515859766E+007, +9.71267006615E+001, +1.27814487889E+003
+2.76183639399E+007, +8.68885280813E+001, +1.29106070731E+003
+2.77851419032E+007, +9.66900539650E+001, +1.30939018000E+003
+2.79519198664E+007, +1.01103412163E+002, +1.32656581903E+003
+2.81186978297E+007, +1.01423949167E+002, +1.33856745017E+003
+2.82854757930E+007, +1.00217100627E+002, +1.35273652536E+003
+2.84522537563E+007, +9.33647880554E+001, +1.37855034805E+003
+2.86190317195E+007, +9.67522528411E+001, +1.39088720007E+003
+2.87858096828E+007, +1.11815824176E+002, +1.42105463784E+003
+2.89525876461E+007, +1.02139682283E+002, +1.42626587905E+003
+2.91193656093E+007, +1.01496963423E+002, +1.43987037578E+003
+2.92861435726E+007, +9.91144414662E+001, +1.46687552768E+003
+2.94529215359E+007, +1.08542646986E+002, +1.48921368680E+003
+2.96196994992E+007, +1.06474472670E+002, +1.51174196822E+003
+2.97864774624E+007, +1.18972916382E+002, +1.53526590938E+003
+2.99532554257E+007, +1.26650751171E+002, +1.56006017011E+003
+3.01200333890E+007, +1.10200183031E+002, +1.58428589654E+003
+3.02868113523E+007, +1.04649589458E+002, +1.60841733368E+003
+3.04535893155E+007, +1.05327735637E+002, +1.64643768823E+003
+3.06203672788E+007, +1.21667358129E+002, +1.66153233470E+003
+3.07871452421E+007, +1.10689291179E+002, +1.69233809683E+003
+3.09539232053E+007, +1.26588955988E+002, +1.70744658256E+003
+3.11207011686E+007, +1.07956069423E+002, +1.74992762310E+003
+3.12874791319E+007, +1.22817222004E+002, +1.76914060418E+003
+3.14542570952E+007, +1.39845449928E+002, +1.79279173898E+003
+3.16210350584E+007, +1.30781969501E+002, +1.83970034190E+003
+3.17878130217E+007, +1.26284815230E+002, +1.86626942556E+003
+3.19545909850E+007, +1.43129141485E+002, +1.90420828092E+003
+3.21213689482E+007, +1.15645467163E+002, +1.93983013039E+003
+3.22881469115E+007, +1.47058819021E+002, +1.94969848005E+003
+3.24549248748E+007, +1.39141192437E+002, +1.99932208111E+003
+3.26217028381E+007, +1.48888959471E+002, +2.04312147733E+003
+3.27884808013E+007, +1.54373989262E+002, +2.08773502296E+003
+3.29552587646E+007, +1.74816582198E+002, +2.10229957602E+003
+3.31220367279E+007, +1.74141287062E+002, +2.12659075557E+003
+3.32888146912E+007, +1.73170467213E+002, +2.20215404701E+003
+3.34555926544E+007, +1.68774191406E+002, +2.24636589126E+003
+3.36223706177E+007, +1.86123457126E+002, +2.25969187324E+003
+3.37891485810E+007, +1.81747106787E+002, +2.28496768876E+003
+3.39559265442E+007, +1.84352086918E+002, +2.38186516370E+003
+3.41227045075E+007, +1.91439918607E+002, +2.41532355086E+003
+3.42894824708E+007, +1.99258518394E+002, +2.45618790126E+003
+3.44562604341E+007, +2.27204652629E+002, +2.50872573330E+003
+3.46230383973E+007, +2.17438965074E+002, +2.60802282711E+003
+3.47898163606E+007, +2.28595757066E+002, +2.61403371580E+003
+3.49565943239E+007, +2.48291697329E+002, +2.70878214363E+003
+3.51233722871E+007, +2.55513093340E+002, +2.75737916820E+003
+3.52901502504E+007, +2.78996668507E+002, +2.77620080919E+003
+3.54569282137E+007, +2.74578727364E+002, +2.88172859898E+003
+3.56237061770E+007, +2.49255146132E+002, +2.95359093290E+003
+3.57904841402E+007, +2.95440248552E+002, +3.02552765276E+003
+3.59572621035E+007, +3.29088097411E+002, +3.11450822247E+003
+3.61240400668E+007, +3.35844974916E+002, +3.19724488562E+003
+3.62908180301E+007, +3.50259996971E+002, +3.29066244048E+003
+3.64575959933E+007, +3.56716403225E+002, +3.42300357036E+003
+3.66243739566E+007, +4.00504431370E+002, +3.44415670168E+003
+3.67911519199E+007, +4.15912743954E+002, +3.60260671854E+003
+3.69579298831E+007, +4.14202551740E+002, +3.65967033848E+003
+3.71247078464E+007, +3.97878486333E+002, +3.80373913196E+003
+3.72914858097E+007, +4.51835794173E+002, +3.88877013387E+003
+3.74582637730E+007, +5.14609841450E+002, +4.08918949871E+003
+3.76250417362E+007, +5.45929647854E+002, +4.15601066377E+003
+3.77918196995E+007, +5.38379192644E+002, +4.32563399379E+003
+3.79585976628E+007, +6.14917642833E+002, +4.58518446469E+003
+3.81253756260E+007, +6.75918436233E+002, +4.67185103358E+003
+3.82921535893E+007, +7.90189197401E+002, +4.81762088622E+003
+3.84589315526E+007, +8.17715166667E+002, +5.13152163902E+003
+3.86257095159E+007, +8.48532614755E+002, +5.36286316850E+003
+3.87924874791E+007, +9.59528252858E+002, +5.60695130324E+003
+3.89592654424E+007, +1.02876722962E+003, +5.66952693458E+003
+3.91260434057E+007, +1.15575941093E+003, +6.19688367538E+003
+3.92928213689E+007, +1.32367120375E+003, +6.41321265045E+003
+3.94595993322E+007, +1.41768977648E+003, +6.98109484438E+003
+3.96263772955E+007, +1.53962592237E+003, +7.03050967546E+003
+3.97931552588E+007, +1.81598863666E+003, +7.63727080870E+003
+3.99599332220E+007, +1.95148014600E+003, +7.95109790836E+003
+4.01267111853E+007, +2.37635366052E+003, +8.66374889806E+003
+4.02934891486E+007, +2.37041625305E+003, +8.95154695068E+003
+4.04602671119E+007, +3.01564058634E+003, +9.27728429656E+003
+4.06270450751E+007, +3.95955871104E+003, +1.03000164731E+004
+4.07938230384E+007, +4.90134590066E+003, +1.15014247451E+004
+4.09606010017E+007, +5.52713223498E+003, +1.23913499538E+004
+4.11273789649E+007, +6.49698292607E+003, +1.25777506435E+004
+4.12941569282E+007, +8.51920385220E+003, +1.46841325040E+004
+4.14609348915E+007, +1.18825001589E+004, +1.54251337244E+004
+4.16277128548E+007, +1.41151857362E+004, +1.54188557171E+004
+4.17944908180E+007, +1.75774203245E+004, +1.65065217918E+004
+4.19612687813E+007, +2.40577469068E+004, +1.28115437967E+004
+4.21280467446E+007, +2.93471145346E+004, +7.98384456567E+003
+4.22948247078E+007, +3.26624620164E+004, +2.16433815434E+003
+4.24616026711E+007, +2.53491092511E+004, -3.33615683555E+003
+4.26283806344E+007, +2.54185932691E+004, -7.59099910589E+003
+4.27951585977E+007, +2.31785529012E+004, -1.78981067274E+004
+4.29619365609E+007, +1.47445633151E+004, -1.38543916778E+004
+4.31287145242E+007, +1.22386001463E+004, -1.38998035422E+004
+4.32954924875E+007, +1.00050581645E+004, -1.31364164554E+004
+4.34622704508E+007, +7.15510701310E+003, -1.31662869672E+004
+4.36290484140E+007, +6.97428261611E+003, -1.14600480566E+004
+4.37958263773E+007, +4.94956205903E+003, -1.10158413569E+004
+4.39626043406E+007, +4.24324523000E+003, -1.02381636497E+004
+4.41293823038E+007, +3.61229390197E+003, -9.09697063579E+003
+4.42961602671E+007, +3.40747978963E+003, -8.81392995485E+003
+4.44629382304E+007, +2.82319886186E+003, -8.56636877442E+003
+4.46297161937E+007, +2.58396907568E+003, -7.77229760510E+003
+4.47964941569E+007, +1.98192310996E+003, -7.54590311939E+003
+4.49632721202E+007, +1.63287796546E+003, -6.94080361023E+003
+4.51300500835E+007, +1.70051034282E+003, -6.63546331275E+003
+4.52968280467E+007, +1.63741300561E+003, -6.25088979051E+003
+4.54636060100E+007, +1.30472927233E+003, -5.75554075624E+003
+4.56303839733E+007, +1.15943559303E+003, -5.53571315910E+003
+4.57971619366E+007, +1.19540453131E+003, -5.33078951827E+003
+4.59639398998E+007, +8.73011601040E+002, -4.99477593662E+003
+4.61307178631E+007, +1.05867908788E+003, -4.77477230141E+003
+4.62974958264E+007, +9.78806514026E+002, -4.54181180659E+003
+4.64642737896E+007, +8.26356699346E+002, -4.48810353620E+003
+4.66310517529E+007, +7.88177644273E+002, -4.23704969925E+003
+4.67978297162E+007, +9.05488412359E+002, -4.08514132005E+003
+4.69646076795E+007, +7.47285071508E+002, -3.93902337910E+003
+4.71313856427E+007, +7.16441305945E+002, -3.78829648907E+003
+4.72981636060E+007, +6.24548274310E+002, -3.68368192508E+003
+4.74649415693E+007, +5.99903853041E+002, -3.57961208751E+003
+4.76317195326E+007, +6.39273370285E+002, -3.41326581125E+003
+4.77984974958E+007, +6.42876048022E+002, -3.30512190786E+003
+4.79652754591E+007, +5.75293264900E+002, -3.19738500810E+003
+4.81320534224E+007, +5.72312529890E+002, -3.15147879574E+003
+4.82988313856E+007, +5.28863306808E+002, -3.04469789146E+003
+4.84656093489E+007, +5.66250851368E+002, -2.92320103718E+003
+4.86323873122E+007, +5.41736488668E+002, -2.88027463697E+003
+4.87991652755E+007, +5.08388544679E+002, -2.76739793613E+003
+4.89659432387E+007, +4.80260600486E+002, -2.71802730404E+003
+4.91327212020E+007, +4.58081796329E+002, -2.63726566706E+003
+4.92994991653E+007, +4.79722861379E+002, -2.60256890736E+003
+4.94662771285E+007, +4.58851847629E+002, -2.50616945758E+003
+4.96330550918E+007, +4.65946832896E+002, -2.44455611918E+003
+4.97998330551E+007, +4.59093533782E+002, -2.39999319560E+003
+4.99666110184E+007, +4.31168429249E+002, -2.34715095277E+003
+5.01333889816E+007, +4.22452248666E+002, -2.32213798607E+003
+5.03001669449E+007, +4.10146492650E+002, -2.26741748270E+003
+5.04669449082E+007, +3.87608638865E+002, -2.23453277424E+003
+5.06337228715E+007, +3.74594606552E+002, -2.16931061223E+003
+5.08005008347E+007, +3.69946973913E+002, -2.14346357621E+003
+5.09672787980E+007, +3.65604629541E+002, -2.09647334050E+003
+5.11340567613E+007, +3.40902479826E+002, -2.03921982236E+003
+5.13008347245E+007, +3.12110701265E+002, -2.01760420220E+003
+5.14676126878E+007, +3.18288987527E+002, -1.97190886408E+003
+5.16343906511E+007, +3.11552735751E+002, -1.92576937536E+003
+5.18011686144E+007, +3.02101208416E+002, -1.89839598576E+003
+5.19679465776E+007, +2.89036548552E+002, -1.86259238648E+003
+5.21347245409E+007, +2.73247812393E+002, -1.81444025440E+003
+5.23015025042E+007, +2.67720572059E+002, -1.75877127052E+003
+5.24682804674E+007, +2.59819327704E+002, -1.73177255104E+003
+5.26350584307E+007, +2.60678389028E+002, -1.70305393050E+003
+5.28018363940E+007, +2.37813073327E+002, -1.66062768345E+003
+5.29686143573E+007, +2.45544814885E+002, -1.62600215464E+003
+5.31353923205E+007, +2.42795352972E+002, -1.61199231328E+003
+5.33021702838E+007, +2.36108681421E+002, -1.57245018271E+003
+5.34689482471E+007, +2.31005918330E+002, -1.53982433537E+003
