"# Channel 1"
"# Trace 1"
Frequency, Formatted Data, Formatted Data
+1.00000000000E+005, +8.68547200978E-001, +3.03166326998E+000
+2.25031289111E+005, +8.61009618813E-001, +6.76525255595E+000
+3.50062578223E+005, +8.84701732900E-001, +1.05521884675E+001
+4.75093867334E+005, +9.16391488553E-001, +1.43051853000E+001
+6.00125156446E+005, +9.76129300967E-001, +1.80189559274E+001
+7.25156445557E+005, +1.03115120264E+000, +2.17721147530E+001
+8.50187734668E+005, +1.08133488380E+000, +2.54850474961E+001
+9.75219023780E+005, +1.10511263803E+000, +2.91994866166E+001
+1.10025031289E+006, +1.07414162617E+000, +3.29731979642E+001
+1.22528160200E+006, +1.14655888230E+000, +3.66425965600E+001
+1.35031289111E+006, +1.14897105411E+000, +4.03605634664E+001
+1.47534418023E+006, +1.18456670112E+000, +4.40898365151E+001
+1.60037546934E+006, +1.28743357241E+000, +4.77011775669E+001
+1.72540675845E+006, +1.33575231148E+000, +5.13763908569E+001
+1.85043804756E+006, +1.31452186123E+000, +5.50351534582E+001
+1.97546933667E+006, +1.33525727316E+000, +5.86507558972E+001
+2.10050062578E+006, +1.34361579153E+000, +6.23591871192E+001
+2.22553191489E+006, +1.37964400200E+000, +6.60871210842E+001
+2.35056320401E+006, +1.41181639283E+000, +6.98224475528E+001
+2.47559449312E+006, +1.35846218656E+000, +7.35330453009E+001
+2.60062578223E+006, +1.37452895095E+000, +7.71468322056E+001
+2.72565707134E+006, +1.37814575618E+000, +8.09019725417E+001
+2.85068836045E+006, +1.38641831496E+000, +8.46052681092E+001
+2.97571964956E+006, +1.34620088245E+000, +8.82084748569E+001
+3.10075093867E+006, +1.54216269835E+000, +9.17551413207E+001
+3.22578222778E+006, +1.28066619328E+000, +9.56006821050E+001
+3.35081351690E+006, +1.40149139685E+000, +9.93734003722E+001
+3.47584480601E+006, +1.40997508827E+000, +1.02952167802E+002
+3.60087609512E+006, +1.49354485168E+000, +1.06927638050E+002
+3.72590738423E+006, +1.38040942937E+000, +1.10642439406E+002
+3.85093867334E+006, +1.37977856328E+000, +1.14230474098E+002
+3.97596996245E+006, +9.32910864418E-001, +1.18091504646E+002
+4.10100125156E+006, +1.45721872424E+000, +1.21508315385E+002
+4.22603254068E+006, +6.19231170738E-001, +1.25614815077E+002
+4.35106382979E+006, +1.74204219010E+000, +1.29303244116E+002
+4.47609511890E+006, +1.39458037071E+000, +1.32848417923E+002
+4.60112640801E+006, +1.36840114166E+000, +1.36585313166E+002
+4.72615769712E+006, +1.21677369987E+000, +1.40186315090E+002
+4.85118898623E+006, +1.46480994692E+000, +1.44002144576E+002
+4.97622027534E+006, +1.38980588506E+000, +1.47796776836E+002
+5.10125156446E+006, +1.48792185620E+000, +1.51273482689E+002
+5.22628285357E+006, +1.63573031418E+000, +1.55575146229E+002
+5.35131414268E+006, +1.73357514366E+000, +1.59237947056E+002
+5.47634543179E+006, +1.45067782108E+000, +1.63071332177E+002
+5.60137672090E+006, +1.81079880999E+000, +1.66829220455E+002
+5.72640801001E+006, +1.43922313525E+000, +1.70112825159E+002
+5.85143929912E+006, +1.65127891412E+000, +1.73908558361E+002
+5.97647058824E+006, +1.65544949530E+000, +1.77995608388E+002
+6.10150187735E+006, +1.46957279750E+000, +1.81764313864E+002
+6.22653316646E+006, +1.94391811425E+000, +1.85466265520E+002
+6.35156445557E+006, +1.99833594874E+000, +1.89268381482E+002
+6.47659574468E+006, +1.98699114583E+000, +1.92944125093E+002
+6.60162703379E+006, +2.00768459309E+000, +1.96704724788E+002
+6.72665832290E+006, +2.31410323062E+000, +2.00381973884E+002
+6.85168961202E+006, +2.35405234061E+000, +2.04275663301E+002
+6.97672090113E+006, +2.03460846252E+000, +2.08110945177E+002
+7.10175219024E+006, +2.16803423651E+000, +2.11842858173E+002
+7.22678347935E+006, +2.30419431553E+000, +2.15669545310E+002
+7.35181476846E+006, +2.45577170928E+000, +2.19391930076E+002
+7.47684605757E+006, +2.03189649011E+000, +2.22955482792E+002
+7.60187734668E+006, +2.36624834909E+000, +2.26707795745E+002
+7.72690863579E+006, +2.48204294536E+000, +2.30781048017E+002
+7.85193992491E+006, +2.33688236337E+000, +2.34796245608E+002
+7.97697121402E+006, +2.16158520576E+000, +2.38147397427E+002
+8.10200250313E+006, +2.13756676210E+000, +2.42058933383E+002
+8.22703379224E+006, +2.48079168208E+000, +2.45934300246E+002
+8.35206508135E+006, +2.22273322742E+000, +2.50124120925E+002
+8.47709637046E+006, +2.24490222534E+000, +2.53812976858E+002
+8.60212765957E+006, +1.90161770490E+000, +2.57689933333E+002
+8.72715894869E+006, +2.22285759102E+000, +2.60956446794E+002
+8.85219023780E+006, +1.89118243798E+000, +2.64710145344E+002
+8.97722152691E+006, +2.23627024595E+000, +2.69054505378E+002
+9.10225281602E+006, +2.07390989298E+000, +2.73175356445E+002
+9.22728410513E+006, +2.04007030832E+000, +2.76707765837E+002
+9.35231539424E+006, +1.86032871061E+000, +2.81235465652E+002
+9.47734668335E+006, +1.66847896607E+000, +2.84572860257E+002
+9.60237797247E+006, +2.22423851187E+000, +2.88741837029E+002
+9.72740926158E+006, +2.02267710316E+000, +2.92357722010E+002
+9.85244055069E+006, +2.16449275633E+000, +2.96432770560E+002
+9.97747183980E+006, +2.05382348812E+000, +3.00088141553E+002
+1.01025031289E+007, +1.33857790622E+000, +3.04139980150E+002
+1.02275344180E+007, +1.52643687374E+000, +3.08181900111E+002
+1.03525657071E+007, +1.53007125646E+000, +3.12129798154E+002
+1.04775969962E+007, +1.26785290323E+000, +3.16219509957E+002
+1.06026282854E+007, +1.26110483392E+000, +3.20044195993E+002
+1.07276595745E+007, +1.46457586902E+000, +3.24504194579E+002
+1.08526908636E+007, +2.02244655783E+000, +3.27717849941E+002
+1.09777221527E+007, +1.46943479715E+000, +3.32598844047E+002
+1.11027534418E+007, +1.20737505010E+000, +3.35947685602E+002
+1.12277847309E+007, +1.38942250762E+000, +3.40079076886E+002
+1.13528160200E+007, +1.79019770900E+000, +3.44143173589E+002
+1.14778473091E+007, +2.27662758659E+000, +3.48619684695E+002
+1.16028785982E+007, +1.58545963424E+000, +3.52086169833E+002
+1.17279098874E+007, +2.02603588541E+000, +3.56236108179E+002
+1.18529411765E+007, +1.41426324192E+000, +3.60611104419E+002
+1.19779724656E+007, +1.45305583800E+000, +3.64283079740E+002
+1.21030037547E+007, +1.10157750584E+000, +3.68303617222E+002
+1.22280350438E+007, +1.23466892173E+000, +3.72689599275E+002
+1.23530663329E+007, +1.18184800463E+000, +3.76424573502E+002
+1.24780976220E+007, +1.15541623573E+000, +3.81120025338E+002
+1.26031289111E+007, +1.11364127151E+000, +3.85181163221E+002
+1.27281602003E+007, +1.19560391359E+000, +3.89278083680E+002
+1.28531914894E+007, +5.42999295038E-001, +3.93019833820E+002
+1.29782227785E+007, +1.21003904165E+000, +3.96559480194E+002
+1.31032540676E+007, +1.03086646999E+000, +4.01348615516E+002
+1.32282853567E+007, +1.71510136429E+000, +4.05396059581E+002
+1.33533166458E+007, +8.45256192704E-001, +4.10062619535E+002
+1.34783479349E+007, +9.86009637058E-001, +4.13565987537E+002
+1.36033792240E+007, +1.83289165852E+000, +4.18185554860E+002
+1.37284105131E+007, +1.07121165196E+000, +4.22381302667E+002
+1.38534418023E+007, +1.09367071254E+000, +4.26216748925E+002
+1.39784730914E+007, +1.72100378257E+000, +4.30464374784E+002
+1.41035043805E+007, +1.53999482612E+000, +4.35347913099E+002
+1.42285356696E+007, +1.89498967062E+000, +4.39090297648E+002
+1.43535669587E+007, +2.22368144128E+000, +4.43164548705E+002
+1.44785982478E+007, +2.15749744842E+000, +4.47252410177E+002
+1.46036295369E+007, +1.55517019325E+000, +4.51618885323E+002
+1.47286608260E+007, +1.76975491686E+000, +4.55388570218E+002
+1.48536921151E+007, +9.00884556838E-001, +4.59000941325E+002
+1.49787234043E+007, +1.25937884588E+000, +4.63716184929E+002
+1.51037546934E+007, +1.29417575096E+000, +4.68175184186E+002
+1.52287859825E+007, +2.23394912211E+000, +4.72816229950E+002
+1.53538172716E+007, +1.00970234414E+000, +4.77408039080E+002
+1.54788485607E+007, +1.10504162294E+000, +4.80986909920E+002
+1.56038798498E+007, +1.35286430007E+000, +4.85629481897E+002
+1.57289111389E+007, +1.17345619093E+000, +4.90155048129E+002
+1.58539424280E+007, +1.00153040057E+000, +4.93841462886E+002
+1.59789737171E+007, +6.71641835180E-001, +4.99102677238E+002
+1.61040050063E+007, +1.50930816151E+000, +5.03481233182E+002
+1.62290362954E+007, +1.55416849078E+000, +5.07497190300E+002
+1.63540675845E+007, +2.29034330724E+000, +5.11491932283E+002
+1.64790988736E+007, +7.99720469832E-001, +5.16783935735E+002
+1.66041301627E+007, +1.22939840227E+000, +5.20907731039E+002
+1.67291614518E+007, +1.68421565777E+000, +5.25865363558E+002
+1.68541927409E+007, +1.20960619478E+000, +5.31156424788E+002
+1.69792240300E+007, +8.09888031889E-001, +5.34842735548E+002
+1.71042553191E+007, -1.82743854127E+000, +5.38787235214E+002
+1.72292866083E+007, -4.49390462318E-001, +5.43680223381E+002
+1.73543178974E+007, +2.48033330522E-001, +5.48542756716E+002
+1.74793491865E+007, -1.01560441437E+000, +5.51269736008E+002
+1.76043804756E+007, +8.29585844824E-001, +5.57268206947E+002
+1.77294117647E+007, -2.77950297928E-003, +5.61507795394E+002
+1.78544430538E+007, +1.64209245802E+000, +5.65906081506E+002
+1.79794743429E+007, +1.21430555627E+000, +5.70150808311E+002
+1.81045056320E+007, +1.77285444758E+000, +5.74133434480E+002
+1.82295369212E+007, +1.23295034132E+000, +5.79210653765E+002
+1.83545682103E+007, +2.54373623773E+000, +5.83114274097E+002
+1.84795994994E+007, +1.42922182880E+000, +5.89383960280E+002
+1.86046307885E+007, +1.59814104914E+000, +5.95045714616E+002
+1.87296620776E+007, +1.31661326930E+000, +5.98442589810E+002
+1.88546933667E+007, -1.05192001994E+000, +6.04183993511E+002
+1.89797246558E+007, +1.01484579735E+000, +6.07798629240E+002
+1.91047559449E+007, +3.14309219925E+000, +6.13500807945E+002
+1.92297872340E+007, +2.25149960175E+000, +6.17552079667E+002
+1.93548185232E+007, +2.15496830857E+000, +6.24703868883E+002
+1.94798498123E+007, +1.09283369740E+000, +6.28291078967E+002
+1.96048811014E+007, +1.91392669931E+000, +6.32442779715E+002
+1.97299123905E+007, +1.90972281130E+000, +6.37927656680E+002
+1.98549436796E+007, +1.51671524740E+000, +6.42287687900E+002
+1.99799749687E+007, +1.58315312405E+000, +6.47412904842E+002
+2.01050062578E+007, +2.91650443129E+000, +6.53109983616E+002
+2.02300375469E+007, +3.41000373056E+000, +6.59991663521E+002
+2.03550688360E+007, +1.63085387586E+000, +6.62275815236E+002
+2.04801001252E+007, +3.54136607464E+000, +6.65920376728E+002
+2.06051314143E+007, +3.17158312807E+000, +6.71596513908E+002
+2.07301627034E+007, +4.68642786138E+000, +6.78052038505E+002
+2.08551939925E+007, +3.88814642166E+000, +6.82156303973E+002
+2.09802252816E+007, +2.37245130104E+000, +6.88870704714E+002
+2.11052565707E+007, +3.82001948613E+000, +6.91160259668E+002
+2.12302878598E+007, +1.00547868339E+000, +6.96757692224E+002
+2.13553191489E+007, +4.60975450060E+000, +6.99543815997E+002
+2.14803504380E+007, +5.32859280413E+000, +7.04990074990E+002
+2.16053817272E+007, +3.77266007089E+000, +7.14948372746E+002
+2.17304130163E+007, +3.29567895909E+000, +7.18027976068E+002
+2.18554443054E+007, +6.36127053010E+000, +7.21673623698E+002
+2.19804755945E+007, +5.17527991393E+000, +7.28638118079E+002
+2.21055068836E+007, +6.71932690867E+000, +7.30648590249E+002
+2.22305381727E+007, +5.51796399978E+000, +7.38288127852E+002
+2.23555694618E+007, +6.17898000922E+000, +7.43596238408E+002
+2.24806007509E+007, +5.19738807671E+000, +7.52606944612E+002
+2.26056320401E+007, +8.79418879327E+000, +7.55911952076E+002
+2.27306633292E+007, +7.05206300798E+000, +7.61361787484E+002
+2.28556946183E+007, +7.03124468829E+000, +7.65991949320E+002
+2.29807259074E+007, +9.03399080471E+000, +7.71541496945E+002
+2.31057571965E+007, +7.49967506756E+000, +7.79859872479E+002
+2.32307884856E+007, +1.16701303790E+001, +7.82559031207E+002
+2.33558197747E+007, +1.05221123871E+001, +7.88769130856E+002
+2.34808510638E+007, +1.23107600650E+001, +7.93807074750E+002
+2.36058823529E+007, +1.12449184784E+001, +8.00136513472E+002
+2.37309136421E+007, +1.17543768527E+001, +8.03637373605E+002
+2.38559449312E+007, +1.18390971354E+001, +8.05945747409E+002
+2.39809762203E+007, +1.20786893461E+001, +8.14711805896E+002
+2.41060075094E+007, +1.38535992636E+001, +8.16987313334E+002
+2.42310387985E+007, +1.33622314640E+001, +8.24551486466E+002
+2.43560700876E+007, +1.31960411772E+001, +8.32483921188E+002
+2.44811013767E+007, +1.43979623546E+001, +8.40052840723E+002
+2.46061326658E+007, +1.10235998462E+001, +8.44380345900E+002
+2.47311639549E+007, +1.47791640046E+001, +8.47461419308E+002
+2.48561952441E+007, +1.71691766575E+001, +8.53348340277E+002
+2.49812265332E+007, +1.57209723780E+001, +8.60870785295E+002
+2.51062578223E+007, +1.77844900766E+001, +8.64847704669E+002
+2.52312891114E+007, +1.89431580279E+001, +8.73638985324E+002
+2.53563204005E+007, +1.70051151566E+001, +8.77528887258E+002
+2.54813516896E+007, +1.88041464175E+001, +8.86400117030E+002
+2.56063829787E+007, +1.88764747975E+001, +8.89936578084E+002
+2.57314142678E+007, +2.01994762453E+001, +8.99428599116E+002
+2.58564455569E+007, +1.98266473289E+001, +9.06307092082E+002
+2.59814768461E+007, +2.36894144029E+001, +9.12549698681E+002
+2.61065081352E+007, +2.47698962938E+001, +9.13446693273E+002
+2.62315394243E+007, +2.41096006434E+001, +9.21821479208E+002
+2.63565707134E+007, +2.27038693111E+001, +9.22277476790E+002
+2.64816020025E+007, +2.61093086152E+001, +9.32522820903E+002
+2.66066332916E+007, +2.13255676903E+001, +9.39698992560E+002
+2.67316645807E+007, +2.50523122660E+001, +9.43924973901E+002
+2.68566958698E+007, +2.47243381763E+001, +9.46432878653E+002
+2.69817271589E+007, +2.94182447594E+001, +9.55111608209E+002
+2.71067584481E+007, +2.40035301547E+001, +9.54773337194E+002
+2.72317897372E+007, +2.54173991547E+001, +9.64686764730E+002
+2.73568210263E+007, +2.83421868287E+001, +9.71030938547E+002
+2.74818523154E+007, +2.93735294989E+001, +9.74658877340E+002
+2.76068836045E+007, +2.64169363354E+001, +9.80738006537E+002
+2.77319148936E+007, +2.68133756110E+001, +9.89366256947E+002
+2.78569461827E+007, +2.75359741803E+001, +9.93091251676E+002
+2.79819774718E+007, +2.81882235336E+001, +9.98160320489E+002
+2.81070087610E+007, +3.21399538188E+001, +1.00280787390E+003
+2.82320400501E+007, +3.28159229332E+001, +1.01278175009E+003
+2.83570713392E+007, +2.64189880251E+001, +1.01667772391E+003
+2.84821026283E+007, +2.47840765434E+001, +1.02777280816E+003
+2.86071339174E+007, +2.55369947287E+001, +1.02969331176E+003
+2.87321652065E+007, +2.82192667130E+001, +1.03847563551E+003
+2.88571964956E+007, +3.31958862349E+001, +1.04360040359E+003
+2.89822277847E+007, +2.92980020861E+001, +1.04706263735E+003
+2.91072590738E+007, +2.82803446445E+001, +1.05596344814E+003
+2.92322903630E+007, +2.44393171357E+001, +1.06030814461E+003
+2.93573216521E+007, +2.69318400083E+001, +1.06674460310E+003
+2.94823529412E+007, +3.00705232885E+001, +1.07173493703E+003
+2.96073842303E+007, +3.58048879061E+001, +1.08632553947E+003
+2.97324155194E+007, +3.21038742321E+001, +1.09150628649E+003
+2.98574468085E+007, +3.33069022796E+001, +1.10125306999E+003
+2.99824780976E+007, +3.45710380814E+001, +1.10623642973E+003
+3.01075093867E+007, +2.88880779196E+001, +1.11213556958E+003
+3.02325406758E+007, +2.82323766319E+001, +1.11661062517E+003
+3.03575719650E+007, +3.05381494207E+001, +1.13282736912E+003
+3.04826032541E+007, +2.48886948732E+001, +1.13237985587E+003
+3.06076345432E+007, +2.97483244651E+001, +1.13864854236E+003
+3.07326658323E+007, +2.67127162180E+001, +1.14386804493E+003
+3.08576971214E+007, +2.80027626318E+001, +1.15801557018E+003
+3.09827284105E+007, +3.16570441010E+001, +1.16700470878E+003
+3.11077596996E+007, +2.45032404327E+001, +1.17472201006E+003
+3.12327909887E+007, +2.87874468323E+001, +1.18231616456E+003
+3.13578222778E+007, +3.02649868936E+001, +1.18789762585E+003
+3.14828535670E+007, +2.68893221413E+001, +1.19858989540E+003
+3.16078848561E+007, +2.48505968873E+001, +1.20747950635E+003
+3.17329161452E+007, +2.58471330125E+001, +1.21847365086E+003
+3.18579474343E+007, +2.97951419270E+001, +1.22274076758E+003
+3.19829787234E+007, +2.37663225859E+001, +1.23889928700E+003
+3.21080100125E+007, +2.10865499603E+001, +1.24602469810E+003
+3.22330413016E+007, +2.20415881285E+001, +1.25138476357E+003
+3.23580725907E+007, +2.68116098512E+001, +1.25468501103E+003
+3.24831038798E+007, +2.13096044614E+001, +1.26983769685E+003
+3.26081351690E+007, +1.93085782965E+001, +1.28708491494E+003
+3.27331664581E+007, +2.71669423474E+001, +1.28749763816E+003
+3.28581977472E+007, +2.54141471649E+001, +1.29995311203E+003
+3.29832290363E+007, +2.90998893425E+001, +1.30308992803E+003
+3.31082603254E+007, +2.90882721953E+001, +1.31335736891E+003
+3.32332916145E+007, +2.47173411125E+001, +1.32898163137E+003
+3.33583229036E+007, +2.06320968387E+001, +1.34299648698E+003
+3.34833541927E+007, +2.38874796194E+001, +1.34618139830E+003
+3.36083854819E+007, +2.48616983952E+001, +1.35574756678E+003
+3.37334167710E+007, +2.73148486818E+001, +1.36019421424E+003
+3.38584480601E+007, +2.18900751271E+001, +1.37265977896E+003
+3.39834793492E+007, +2.64189166930E+001, +1.38765547481E+003
+3.41085106383E+007, +2.11848567241E+001, +1.39757319800E+003
+3.42335419274E+007, +2.19080549283E+001, +1.40484970540E+003
+3.43585732165E+007, +3.33011155643E+001, +1.42082927496E+003
+3.44836045056E+007, +2.75935038942E+001, +1.43024543941E+003
+3.46086357947E+007, +3.60841629408E+001, +1.44570053210E+003
+3.47336670839E+007, +2.44965333963E+001, +1.45255965373E+003
+3.48586983730E+007, +3.41083567974E+001, +1.45776162397E+003
+3.49837296621E+007, +3.97825294416E+001, +1.47775810580E+003
+3.51087609512E+007, +2.52011810215E+001, +1.48386419613E+003
+3.52337922403E+007, +3.42638764001E+001, +1.49571213971E+003
+3.53588235294E+007, +3.17028735388E+001, +1.51363762463E+003
+3.54838548185E+007, +2.51195148906E+001, +1.52464723700E+003
+3.56088861076E+007, +2.80059448701E+001, +1.53813047898E+003
+3.57339173967E+007, +1.94121563598E+001, +1.55539182819E+003
+3.58589486859E+007, +2.33861151150E+001, +1.56492767775E+003
+3.59839799750E+007, +3.22081204098E+001, +1.57470309102E+003
+3.61090112641E+007, +2.86069180291E+001, +1.58802210569E+003
+3.62340425532E+007, +3.34474206001E+001, +1.60487939784E+003
+3.63590738423E+007, +2.95744539585E+001, +1.62080047145E+003
+3.64841051314E+007, +2.65844715091E+001, +1.63134720636E+003
+3.66091364205E+007, +3.88955448122E+001, +1.63619265007E+003
+3.67341677096E+007, +4.71439128226E+001, +1.65758114873E+003
+3.68591989987E+007, +3.39660403931E+001, +1.66408719646E+003
+3.69842302879E+007, +2.40073050328E+001, +1.68116594858E+003
+3.71092615770E+007, +3.25769219990E+001, +1.70512969048E+003
+3.72342928661E+007, +2.11711047883E+001, +1.72486573747E+003
+3.73593241552E+007, +4.18617683186E+001, +1.74906976281E+003
+3.74843554443E+007, +4.36766406940E+001, +1.76142783566E+003
+3.76093867334E+007, +4.57976322883E+001, +1.77366778767E+003
+3.77344180225E+007, +2.63368404184E+001, +1.77387244257E+003
+3.78594493116E+007, +3.42063217220E+001, +1.79348371386E+003
+3.79844806008E+007, +4.32212634654E+001, +1.81133768163E+003
+3.81095118899E+007, +3.93648351259E+001, +1.83728763178E+003
+3.82345431790E+007, +4.95997357561E+001, +1.84514501859E+003
+3.83595744681E+007, +4.77133743488E+001, +1.86893061930E+003
+3.84846057572E+007, +4.62150616152E+001, +1.88274918144E+003
+3.86096370463E+007, +4.04660765949E+001, +1.90473338063E+003
+3.87346683354E+007, +4.60327802160E+001, +1.92102659261E+003
+3.88596996245E+007, +4.56140925797E+001, +1.94495380884E+003
+3.89847309136E+007, +5.23156271797E+001, +1.95400929095E+003
+3.91097622028E+007, +4.73225811772E+001, +1.98589643365E+003
+3.92347934919E+007, +5.80226691795E+001, +1.99935151798E+003
+3.93598247810E+007, +7.81664899544E+001, +2.02580029617E+003
+3.94848560701E+007, +5.54978595411E+001, +2.05983548416E+003
+3.96098873592E+007, +4.38522121923E+001, +2.07358315503E+003
+3.97349186483E+007, +5.65361987729E+001, +2.10599112500E+003
+3.98599499374E+007, +5.57813078256E+001, +2.10847838606E+003
+3.99849812265E+007, +5.85957554874E+001, +2.14376380073E+003
+4.01100125156E+007, +5.81791400070E+001, +2.16548285895E+003
