"# Channel 1"
"# Trace 1"
Frequency, Formatted Data, Formatted Data
+1.00000000000E+005, +1.25808928635E+001, +2.81657214637E+000
+2.66777963272E+005, +1.25832492198E+001, +7.51476766382E+000
+4.33555926544E+005, +1.25630070436E+001, +1.22016106639E+001
+6.00333889816E+005, +1.25889770475E+001, +1.68487881086E+001
+7.67111853088E+005, +1.26185445174E+001, +2.15762106873E+001
+9.33889816361E+005, +1.26219486686E+001, +2.62069806788E+001
+1.10066777963E+006, +1.25816742464E+001, +3.09882986043E+001
+1.26744574290E+006, +1.26249307939E+001, +3.56357539300E+001
+1.43422370618E+006, +1.25896817452E+001, +4.04071689241E+001
+1.60100166945E+006, +1.26600444067E+001, +4.49989844089E+001
+1.76777963272E+006, +1.26966835738E+001, +4.96893863371E+001
+1.93455759599E+006, +1.26451630594E+001, +5.42680616811E+001
+2.10133555927E+006, +1.25959238881E+001, +5.89664544570E+001
+2.26811352254E+006, +1.26989302074E+001, +6.37503702789E+001
+2.43489148581E+006, +1.26760805238E+001, +6.84760938134E+001
+2.60166944908E+006, +1.26402288434E+001, +7.31230973870E+001
+2.76844741235E+006, +1.26784051897E+001, +7.79201874698E+001
+2.93522537563E+006, +1.26187389810E+001, +8.26715311419E+001
+3.10200333890E+006, +1.28346997082E+001, +8.71397318148E+001
+3.26878130217E+006, +1.26154100096E+001, +9.21500084053E+001
+3.43555926544E+006, +1.28025020702E+001, +9.68138993075E+001
+3.60233722871E+006, +1.29056733260E+001, +1.01686061393E+002
+3.76911519199E+006, +1.29165111494E+001, +1.06524889288E+002
+3.93589315526E+006, +1.30017445871E+001, +1.11066071214E+002
+4.10267111853E+006, +1.20447349420E+001, +1.15195994933E+002
+4.26944908180E+006, +1.26211329449E+001, +1.21455646839E+002
+4.43622704508E+006, +1.28762664722E+001, +1.25765201890E+002
+4.60300500835E+006, +1.29973915397E+001, +1.30499234779E+002
+4.76978297162E+006, +1.29818769973E+001, +1.35363186661E+002
+4.93656093489E+006, +1.32536078849E+001, +1.40320675136E+002
+5.10333889816E+006, +1.33001544599E+001, +1.44918955822E+002
+5.27011686144E+006, +1.36266683104E+001, +1.50093651895E+002
+5.43689482471E+006, +1.32594549046E+001, +1.54928913467E+002
+5.60367278798E+006, +1.36635989767E+001, +1.60062769904E+002
+5.77045075125E+006, +1.35537495618E+001, +1.64645211266E+002
+5.93722871452E+006, +1.41020746464E+001, +1.69461753225E+002
+6.10400667780E+006, +1.36931933547E+001, +1.74483125626E+002
+6.27078464107E+006, +1.42843581227E+001, +1.79187532556E+002
+6.43756260434E+006, +1.43303187468E+001, +1.84108233206E+002
+6.60434056761E+006, +1.46449581786E+001, +1.88932991666E+002
+6.77111853088E+006, +1.49103034081E+001, +1.93740296148E+002
+6.93789649416E+006, +1.47588728503E+001, +1.98907326926E+002
+7.10467445743E+006, +1.47945852637E+001, +2.03817416981E+002
+7.27145242070E+006, +1.48671176495E+001, +2.08626996473E+002
+7.43823038397E+006, +1.50625041407E+001, +2.13328671574E+002
+7.60500834725E+006, +1.49468344490E+001, +2.18606099634E+002
+7.77178631052E+006, +1.50682821405E+001, +2.23748655068E+002
+7.93856427379E+006, +1.49092039882E+001, +2.28543976257E+002
+8.10534223706E+006, +1.50826183220E+001, +2.33741353416E+002
+8.27212020033E+006, +1.52114329078E+001, +2.38705780828E+002
+8.43889816361E+006, +1.50872524532E+001, +2.44181849590E+002
+8.60567612688E+006, +1.47589397761E+001, +2.49510741365E+002
+8.77245409015E+006, +1.49671671119E+001, +2.53961701513E+002
+8.93923205342E+006, +1.51505906512E+001, +2.59609920772E+002
+9.10601001669E+006, +1.47145779436E+001, +2.65016249645E+002
+9.27278797997E+006, +1.51537242703E+001, +2.70122025021E+002
+9.43956594324E+006, +1.49767488661E+001, +2.75743807991E+002
+9.60634390651E+006, +1.50465643182E+001, +2.80862844505E+002
+9.77312186978E+006, +1.51707964042E+001, +2.86362789244E+002
+9.93989983306E+006, +1.57050917988E+001, +2.91437220826E+002
+1.01066777963E+007, +1.51611998586E+001, +2.97047098238E+002
+1.02734557596E+007, +1.51397320247E+001, +3.02863234119E+002
+1.04402337229E+007, +1.54844882130E+001, +3.08281209010E+002
+1.06070116861E+007, +1.51310328382E+001, +3.13773678652E+002
+1.07737896494E+007, +1.53987135873E+001, +3.19290932309E+002
+1.09405676127E+007, +1.60923269860E+001, +3.25317533392E+002
+1.11073455760E+007, +1.57301186080E+001, +3.30427020244E+002
+1.12741235392E+007, +1.56347145973E+001, +3.36191241052E+002
+1.14409015025E+007, +1.59993701098E+001, +3.41757228093E+002
+1.16076794658E+007, +1.66540318384E+001, +3.47367736181E+002
+1.17744574290E+007, +1.60517867062E+001, +3.54039084315E+002
+1.19412353923E+007, +1.56640599444E+001, +3.59514206976E+002
+1.21080133556E+007, +1.63353559438E+001, +3.65623680882E+002
+1.22747913189E+007, +1.62422491400E+001, +3.71711850132E+002
+1.24415692821E+007, +1.62608918456E+001, +3.76693062584E+002
+1.26083472454E+007, +1.64034868858E+001, +3.83127652007E+002
+1.27751252087E+007, +1.70345300891E+001, +3.88977238709E+002
+1.29419031720E+007, +1.67708128063E+001, +3.95137801224E+002
+1.31086811352E+007, +1.70039894724E+001, +4.01041776568E+002
+1.32754590985E+007, +1.70883529827E+001, +4.07168279041E+002
+1.34422370618E+007, +1.73042424613E+001, +4.12963855079E+002
+1.36090150250E+007, +1.86849079719E+001, +4.19057053171E+002
+1.37757929883E+007, +1.74168704120E+001, +4.25156830096E+002
+1.39425709516E+007, +1.89389854799E+001, +4.31550797504E+002
+1.41093489149E+007, +1.85304874602E+001, +4.37772434788E+002
+1.42761268781E+007, +1.91328253932E+001, +4.43861573258E+002
+1.44429048414E+007, +1.92683705867E+001, +4.49813669529E+002
+1.46096828047E+007, +1.85817887485E+001, +4.56812572512E+002
+1.47764607679E+007, +1.87440973226E+001, +4.62771084301E+002
+1.49432387312E+007, +1.86505031979E+001, +4.69278157833E+002
+1.51100166945E+007, +1.91535626718E+001, +4.76223689663E+002
+1.52767946578E+007, +1.94913866403E+001, +4.82933357134E+002
+1.54435726210E+007, +1.98642347379E+001, +4.90159840385E+002
+1.56103505843E+007, +2.02747739983E+001, +4.96229141372E+002
+1.57771285476E+007, +1.96251091743E+001, +5.02686716581E+002
+1.59439065109E+007, +2.11467620488E+001, +5.09959279029E+002
+1.61106844741E+007, +2.07327036895E+001, +5.17492581708E+002
+1.62774624374E+007, +2.15165373142E+001, +5.23579386725E+002
+1.64442404007E+007, +2.00345892542E+001, +5.31174648880E+002
+1.66110183639E+007, +2.10413139535E+001, +5.37964490787E+002
+1.67777963272E+007, +2.21616183596E+001, +5.45770343846E+002
+1.69445742905E+007, +2.22786873088E+001, +5.52508317143E+002
+1.71113522538E+007, +1.80326931635E+001, +5.60834562981E+002
+1.72781302170E+007, +2.19096398326E+001, +5.69300068547E+002
+1.74449081803E+007, +1.99773964003E+001, +5.75452776971E+002
+1.76116861436E+007, +2.30865045811E+001, +5.84069254737E+002
+1.77784641068E+007, +2.25616882099E+001, +5.89865032361E+002
+1.79452420701E+007, +2.31107438757E+001, +5.97694042723E+002
+1.81120200334E+007, +2.43119877112E+001, +6.04378747005E+002
+1.82787979967E+007, +2.40749096064E+001, +6.13498516955E+002
+1.84455759599E+007, +2.72296965048E+001, +6.20566442973E+002
+1.86123539232E+007, +2.53978690053E+001, +6.31022996664E+002
+1.87791318865E+007, +2.57069911833E+001, +6.37718171231E+002
+1.89459098497E+007, +2.48105932007E+001, +6.46045902578E+002
+1.91126878130E+007, +2.65174401172E+001, +6.54366795907E+002
+1.92794657763E+007, +2.61173701059E+001, +6.62603913334E+002
+1.94462437396E+007, +2.88645857680E+001, +6.71739759381E+002
+1.96130217028E+007, +2.72675204782E+001, +6.80886201769E+002
+1.97797996661E+007, +3.11222543442E+001, +6.86835855261E+002
+1.99465776294E+007, +2.66297465128E+001, +6.95877565281E+002
+2.01133555927E+007, +2.86105112378E+001, +7.05948284080E+002
+2.02801335559E+007, +3.07543328276E+001, +7.13130978168E+002
+2.04469115192E+007, +3.41791978513E+001, +7.23076786531E+002
+2.06136894825E+007, +3.32715376698E+001, +7.33222560649E+002
+2.07804674457E+007, +3.48798623750E+001, +7.42288991722E+002
+2.09472454090E+007, +3.33440836067E+001, +7.53808731856E+002
+2.11140233723E+007, +3.28586551426E+001, +7.58377066111E+002
+2.12808013356E+007, +3.54979948375E+001, +7.68300439332E+002
+2.14475792988E+007, +3.50023706064E+001, +7.80183496335E+002
+2.16143572621E+007, +3.68423021306E+001, +7.89889301658E+002
+2.17811352254E+007, +3.86256264174E+001, +7.98417849942E+002
+2.19479131886E+007, +4.11828617559E+001, +8.11856638978E+002
+2.21146911519E+007, +4.08331552074E+001, +8.17964170063E+002
+2.22814691152E+007, +4.01965488160E+001, +8.33387515545E+002
+2.24482470785E+007, +4.18881197188E+001, +8.41802342422E+002
+2.26150250417E+007, +4.52875538796E+001, +8.50019089756E+002
+2.27818030050E+007, +4.50432799369E+001, +8.65750084322E+002
+2.29485809683E+007, +4.70472866892E+001, +8.72296671579E+002
+2.31153589316E+007, +4.74219626646E+001, +8.86063959940E+002
+2.32821368948E+007, +5.42132523908E+001, +8.96327955937E+002
+2.34489148581E+007, +5.06148682618E+001, +9.09248271693E+002
+2.36156928214E+007, +5.24006523017E+001, +9.20739935076E+002
+2.37824707846E+007, +5.41042466650E+001, +9.33210075152E+002
+2.39492487479E+007, +5.51769934290E+001, +9.40202641413E+002
+2.41160267112E+007, +5.85825679126E+001, +9.50434369055E+002
+2.42828046745E+007, +5.92327280277E+001, +9.65342251453E+002
+2.44495826377E+007, +6.53648003684E+001, +9.78070990383E+002
+2.46163606010E+007, +6.57970487544E+001, +9.91531248821E+002
+2.47831385643E+007, +6.34032968646E+001, +1.00302014425E+003
+2.49499165275E+007, +7.55541265374E+001, +1.01989651994E+003
+2.51166944908E+007, +7.54725524500E+001, +1.02708367955E+003
+2.52834724541E+007, +7.68100265508E+001, +1.04136680676E+003
+2.54502504174E+007, +8.16295327663E+001, +1.05455059572E+003
+2.56170283806E+007, +7.89298324917E+001, +1.06706082676E+003
+2.57838063439E+007, +7.96780797533E+001, +1.08066870978E+003
+2.59505843072E+007, +8.88935613680E+001, +1.09646769045E+003
+2.61173622705E+007, +9.18006769201E+001, +1.11089969213E+003
+2.62841402337E+007, +9.58415028477E+001, +1.11818868474E+003
+2.64509181970E+007, +8.77359999802E+001, +1.13343673533E+003
+2.66176961603E+007, +9.55226424166E+001, +1.15576649941E+003
+2.67844741235E+007, +9.50976814263E+001, +1.16126334126E+003
+2.69512520868E+007, +1.02139289663E+002, +1.18026332755E+003
+2.71180300501E+007, +1.04213092522E+002, +1.18874831382E+003
+2.72848080134E+007, +1.07033986194E+002, +1.21023714703E+003
+2.74515859766E+007, +1.14249110997E+002, +1.22356293167E+003
+2.76183639399E+007, +1.13390743697E+002, +1.22993996067E+003
+2.77851419032E+007, +1.14330653170E+002, +1.24438809645E+003
+2.79519198664E+007, +1.19459697195E+002, +1.26835998329E+003
+2.81186978297E+007, +1.15494438781E+002, +1.28809583099E+003
+2.82854757930E+007, +1.26071588372E+002, +1.29255083818E+003
+2.84522537563E+007, +1.15602755871E+002, +1.31181233383E+003
+2.86190317195E+007, +1.25031499377E+002, +1.32536021830E+003
+2.87858096828E+007, +1.33887952142E+002, +1.35403747951E+003
+2.89525876461E+007, +1.35147599849E+002, +1.37376254451E+003
+2.91193656093E+007, +1.20991243362E+002, +1.37985795803E+003
+2.92861435726E+007, +1.28641692688E+002, +1.40854296166E+003
+2.94529215359E+007, +1.32766147752E+002, +1.42126242166E+003
+2.96196994992E+007, +1.39386008465E+002, +1.44949423234E+003
+2.97864774624E+007, +1.46700005842E+002, +1.46216730720E+003
+2.99532554257E+007, +1.48294323184E+002, +1.48654934656E+003
+3.01200333890E+007, +1.45610184236E+002, +1.50965469093E+003
+3.02868113523E+007, +1.44179816621E+002, +1.54106986673E+003
+3.04535893155E+007, +1.44938699360E+002, +1.57060481918E+003
+3.06203672788E+007, +1.62504496260E+002, +1.57560683183E+003
+3.07871452421E+007, +1.46048180004E+002, +1.60703379883E+003
+3.09539232053E+007, +1.55753013079E+002, +1.62817652130E+003
+3.11207011686E+007, +1.54565321221E+002, +1.66568711945E+003
+3.12874791319E+007, +1.55517025069E+002, +1.67835533297E+003
+3.14542570952E+007, +1.62739575844E+002, +1.72165689398E+003
+3.16210350584E+007, +1.69994897900E+002, +1.77228567190E+003
+3.17878130217E+007, +1.68814493374E+002, +1.79684051427E+003
+3.19545909850E+007, +1.78579386379E+002, +1.81340695611E+003
+3.21213689482E+007, +1.67591153668E+002, +1.86640275997E+003
+3.22881469115E+007, +1.76575396134E+002, +1.85866485767E+003
+3.24549248748E+007, +1.85556900361E+002, +1.92292095642E+003
+3.26217028381E+007, +1.90407841954E+002, +1.96262136269E+003
+3.27884808013E+007, +2.03718251875E+002, +1.99020903048E+003
+3.29552587646E+007, +2.07525481325E+002, +2.02852214801E+003
+3.31220367279E+007, +2.16897304230E+002, +2.04017810370E+003
+3.32888146912E+007, +2.09946955197E+002, +2.12441177610E+003
+3.34555926544E+007, +1.99666315399E+002, +2.16524264865E+003
+3.36223706177E+007, +2.37196187830E+002, +2.17029883611E+003
+3.37891485810E+007, +2.24500494951E+002, +2.21908924128E+003
+3.39559265442E+007, +2.41789845562E+002, +2.28848377943E+003
+3.41227045075E+007, +2.58080244099E+002, +2.32271080519E+003
+3.42894824708E+007, +2.72118423669E+002, +2.39838161213E+003
+3.44562604341E+007, +2.58861987308E+002, +2.45321661007E+003
+3.46230383973E+007, +3.10731029781E+002, +2.50691548573E+003
+3.47898163606E+007, +2.62831500104E+002, +2.53291218706E+003
+3.49565943239E+007, +3.49555787689E+002, +2.59955036900E+003
+3.51233722871E+007, +3.15593232301E+002, +2.65434656087E+003
+3.52901502504E+007, +3.20056017295E+002, +2.67999739063E+003
+3.54569282137E+007, +3.46235989321E+002, +2.79591007260E+003
+3.56237061770E+007, +3.14800786075E+002, +2.87240917946E+003
+3.57904841402E+007, +3.35610465583E+002, +2.97791350842E+003
+3.59572621035E+007, +4.15814329973E+002, +3.05640668070E+003
+3.61240400668E+007, +4.45013382757E+002, +3.09428417317E+003
+3.62908180301E+007, +4.52953609270E+002, +3.25215209235E+003
+3.64575959933E+007, +4.86702079520E+002, +3.36088716107E+003
+3.66243739566E+007, +5.12841034064E+002, +3.42275151138E+003
+3.67911519199E+007, +6.06146635695E+002, +3.56894138838E+003
+3.69579298831E+007, +5.10154608534E+002, +3.60773357067E+003
+3.71247078464E+007, +6.15939323722E+002, +3.80862257333E+003
+3.72914858097E+007, +6.60241448793E+002, +3.94474665881E+003
+3.74582637730E+007, +7.39660102409E+002, +4.09236289347E+003
+3.76250417362E+007, +8.26465712855E+002, +4.14752859190E+003
+3.77918196995E+007, +7.85133766563E+002, +4.35619553483E+003
+3.79585976628E+007, +8.61036389402E+002, +4.55468818172E+003
+3.81253756260E+007, +1.02886960998E+003, +4.72478443700E+003
+3.82921535893E+007, +1.21895929736E+003, +4.86670923734E+003
+3.84589315526E+007, +1.25592833805E+003, +5.20896916558E+003
+3.86257095159E+007, +1.30198256904E+003, +5.42490064668E+003
+3.87924874791E+007, +1.60067827336E+003, +5.71715652843E+003
+3.89592654424E+007, +1.73661491172E+003, +5.80961458911E+003
+3.91260434057E+007, +1.99603634350E+003, +6.23584513210E+003
+3.92928213689E+007, +2.04759390808E+003, +6.50697287340E+003
+3.94595993322E+007, +2.53898826480E+003, +7.07097214948E+003
+3.96263772955E+007, +2.61051912487E+003, +7.21683891094E+003
+3.97931552588E+007, +2.99701827196E+003, +7.71395203889E+003
+3.99599332220E+007, +3.57245466277E+003, +8.22846815876E+003
+4.01267111853E+007, +4.51348124719E+003, +8.82936373350E+003
+4.02934891486E+007, +4.37374016128E+003, +9.14226038029E+003
+4.04602671119E+007, +5.74517824221E+003, +9.57907095641E+003
+4.06270450751E+007, +7.54568396139E+003, +9.65552360926E+003
+4.07938230384E+007, +8.41280111825E+003, +9.94309497382E+003
+4.09606010017E+007, +1.05459051437E+004, +1.04893802563E+004
+4.11273789649E+007, +1.13913721866E+004, +1.00349403216E+004
+4.12941569282E+007, +1.48575790393E+004, +9.43335886530E+003
+4.14609348915E+007, +1.73533976777E+004, +6.41477267891E+003
+4.16277128548E+007, +1.82693144713E+004, +5.57464265129E+003
+4.17944908180E+007, +2.10715387932E+004, +3.04793511549E+003
+4.19612687813E+007, +1.85984423468E+004, -5.04126633198E+002
+4.21280467446E+007, +1.95323927636E+004, -5.51765150717E+003
+4.22948247078E+007, +1.61683270142E+004, -7.02133890797E+003
+4.24616026711E+007, +1.45621723303E+004, -7.35584508455E+003
+4.26283806344E+007, +1.16442552327E+004, -8.63241828903E+003
+4.27951585977E+007, +9.64670642429E+003, -1.02469185699E+004
+4.29619365609E+007, +8.62356515820E+003, -9.08838553493E+003
+4.31287145242E+007, +6.90695176482E+003, -8.77542367543E+003
+4.32954924875E+007, +5.78818275781E+003, -8.52199680646E+003
+4.34622704508E+007, +5.17643722560E+003, -8.36275341774E+003
+4.36290484140E+007, +4.67407570858E+003, -7.57994329370E+003
+4.37958263773E+007, +3.83134668486E+003, -7.17169467208E+003
+4.39626043406E+007, +3.37466834561E+003, -6.93212172943E+003
+4.41293823038E+007, +2.91460672399E+003, -6.28501700584E+003
+4.42961602671E+007, +2.59767301608E+003, -6.22732066505E+003
+4.44629382304E+007, +2.24606421916E+003, -5.96758360137E+003
+4.46297161937E+007, +2.18477714033E+003, -5.63846305129E+003
+4.47964941569E+007, +1.89680728999E+003, -5.44759446239E+003
+4.49632721202E+007, +1.68264864987E+003, -5.05300825067E+003
+4.51300500835E+007, +1.67957278870E+003, -4.93482819703E+003
+4.52968280467E+007, +1.56682244843E+003, -4.61960235700E+003
+4.54636060100E+007, +1.38414702833E+003, -4.30683902456E+003
+4.56303839733E+007, +1.27276475726E+003, -4.22775103857E+003
+4.57971619366E+007, +1.17218739938E+003, -4.03481164050E+003
+4.59639398998E+007, +1.04467106947E+003, -3.82022223185E+003
+4.61307178631E+007, +1.08592690549E+003, -3.72535022693E+003
+4.62974958264E+007, +9.82100998507E+002, -3.50885321125E+003
+4.64642737896E+007, +9.73177089445E+002, -3.46098642465E+003
+4.66310517529E+007, +9.08062490212E+002, -3.31036678045E+003
+4.67978297162E+007, +9.30714073440E+002, -3.22243101000E+003
+4.69646076795E+007, +8.55628539719E+002, -3.06973798356E+003
+4.71313856427E+007, +8.43687418108E+002, -3.00997950042E+003
+4.72981636060E+007, +7.84763618443E+002, -2.88275274492E+003
+4.74649415693E+007, +7.53699826289E+002, -2.82237740744E+003
+4.76317195326E+007, +7.53735318779E+002, -2.70541971439E+003
+4.77984974958E+007, +7.39979005827E+002, -2.63692820040E+003
+4.79652754591E+007, +7.40290513734E+002, -2.55752140746E+003
+4.81320534224E+007, +7.25626087117E+002, -2.51695491406E+003
+4.82988313856E+007, +6.96288057536E+002, -2.44631359935E+003
+4.84656093489E+007, +6.94965773345E+002, -2.36616763488E+003
+4.86323873122E+007, +6.86635054445E+002, -2.32844437008E+003
+4.87991652755E+007, +6.72254984560E+002, -2.25680746436E+003
+4.89659432387E+007, +6.49730533844E+002, -2.20571834654E+003
+4.91327212020E+007, +6.34263399155E+002, -2.17053898319E+003
+4.92994991653E+007, +6.60877405164E+002, -2.12687511666E+003
+4.94662771285E+007, +6.51502137648E+002, -2.06439070367E+003
+4.96330550918E+007, +6.45712442739E+002, -2.03147602816E+003
+4.97998330551E+007, +6.22596710870E+002, -1.99303618286E+003
+4.99666110184E+007, +6.29355850765E+002, -1.96805710903E+003
+5.01333889816E+007, +5.96918074979E+002, -1.93774986322E+003
+5.03001669449E+007, +5.91660717048E+002, -1.91625286054E+003
+5.04669449082E+007, +5.78795167900E+002, -1.87460004204E+003
+5.06337228715E+007, +5.82735126377E+002, -1.84461262897E+003
+5.08005008347E+007, +5.73889955348E+002, -1.84745106450E+003
+5.09672787980E+007, +5.66752911547E+002, -1.80274184501E+003
+5.11340567613E+007, +5.45312979819E+002, -1.78799824414E+003
+5.13008347245E+007, +5.33589314574E+002, -1.75617455565E+003
+5.14676126878E+007, +5.12342159873E+002, -1.74407294806E+003
+5.16343906511E+007, +4.89106624837E+002, -1.70739053173E+003
+5.18011686144E+007, +4.72933582784E+002, -1.69696849224E+003
+5.19679465776E+007, +4.44749599209E+002, -1.66864421572E+003
+5.21347245409E+007, +4.39357751898E+002, -1.64256695741E+003
+5.23015025042E+007, +4.21072466286E+002, -1.59374436747E+003
+5.24682804674E+007, +3.98055699730E+002, -1.58123044569E+003
+5.26350584307E+007, +3.87899142553E+002, -1.54420214477E+003
+5.28018363940E+007, +3.61541211876E+002, -1.52257757401E+003
+5.29686143573E+007, +3.57847238124E+002, -1.48409139570E+003
+5.31353923205E+007, +3.48936838862E+002, -1.46592338621E+003
+5.33021702838E+007, +3.48340839858E+002, -1.44404408340E+003
+5.34689482471E+007, +3.36259396067E+002, -1.40650264682E+003
