"# Channel 1"
"# Trace 1"
Frequency, Formatted Data, Formatted Data
+1.00000000000E+005, +6.47206556318E+001, +2.65809308085E+000
+2.25031289111E+005, +6.47413590931E+001, +6.64285490884E+000
+3.50062578223E+005, +6.46972318537E+001, +1.04878359131E+001
+4.75093867334E+005, +6.47803393722E+001, +1.40855324446E+001
+6.00125156446E+005, +6.47901638610E+001, +1.77217026114E+001
+7.25156445557E+005, +6.46830265721E+001, +2.14533976265E+001
+8.50187734668E+005, +6.47948762640E+001, +2.51512047288E+001
+9.75219023780E+005, +6.48041941298E+001, +2.87959527697E+001
+1.10025031289E+006, +6.47010223060E+001, +3.25407469509E+001
+1.22528160200E+006, +6.47771277867E+001, +3.62034081355E+001
+1.35031289111E+006, +6.48014077363E+001, +3.98848256625E+001
+1.47534418023E+006, +6.47894216075E+001, +4.35357409052E+001
+1.60037546934E+006, +6.47170259100E+001, +4.72591938846E+001
+1.72540675845E+006, +6.47308747998E+001, +5.10679698498E+001
+1.85043804756E+006, +6.48088674095E+001, +5.47152087113E+001
+1.97546933667E+006, +6.48133409467E+001, +5.83935205977E+001
+2.10050062578E+006, +6.48388489272E+001, +6.19263717348E+001
+2.22553191489E+006, +6.46740075868E+001, +6.57824550039E+001
+2.35056320401E+006, +6.47447526987E+001, +6.96083225599E+001
+2.47559449312E+006, +6.48428460943E+001, +7.30978464244E+001
+2.60062578223E+006, +6.48408796102E+001, +7.69079726747E+001
+2.72565707134E+006, +6.48838313796E+001, +8.06376092138E+001
+2.85068836045E+006, +6.47337943967E+001, +8.44129875653E+001
+2.97571964956E+006, +6.48314319461E+001, +8.78377004758E+001
+3.10075093867E+006, +6.49296268689E+001, +9.17387794353E+001
+3.22578222778E+006, +6.47907451014E+001, +9.55184171193E+001
+3.35081351690E+006, +6.47807475644E+001, +9.92082478166E+001
+3.47584480601E+006, +6.51130971177E+001, +1.02901492128E+002
+3.60087609512E+006, +6.49293381063E+001, +1.06480897814E+002
+3.72590738423E+006, +6.50555221093E+001, +1.10249319977E+002
+3.85093867334E+006, +6.49462503700E+001, +1.14126327624E+002
+3.97596996245E+006, +6.49859523370E+001, +1.17481488913E+002
+4.10100125156E+006, +6.53755059883E+001, +1.21341075282E+002
+4.22603254068E+006, +6.52205013940E+001, +1.25407866181E+002
+4.35106382979E+006, +6.50624017963E+001, +1.28908400582E+002
+4.47609511890E+006, +6.53774172091E+001, +1.32736786740E+002
+4.60112640801E+006, +6.52984633820E+001, +1.36699528274E+002
+4.72615769712E+006, +6.53731786791E+001, +1.40235640025E+002
+4.85118898623E+006, +6.49502618044E+001, +1.44149139562E+002
+4.97622027534E+006, +6.52085431165E+001, +1.47794109316E+002
+5.10125156446E+006, +6.57553332358E+001, +1.51644444092E+002
+5.22628285357E+006, +6.54618598699E+001, +1.55591696449E+002
+5.35131414268E+006, +6.58192206430E+001, +1.59276569878E+002
+5.47634543179E+006, +6.52057187376E+001, +1.63258110005E+002
+5.60137672090E+006, +6.56665439059E+001, +1.66761628400E+002
+5.72640801001E+006, +6.59840394199E+001, +1.70642009320E+002
+5.85143929912E+006, +6.58234157316E+001, +1.74706501258E+002
+5.97647058824E+006, +6.56670765100E+001, +1.78248509514E+002
+6.10150187735E+006, +6.62739816810E+001, +1.82065464569E+002
+6.22653316646E+006, +6.62657726936E+001, +1.86107080287E+002
+6.35156445557E+006, +6.65259922691E+001, +1.89739963576E+002
+6.47659574468E+006, +6.66747288752E+001, +1.93943332037E+002
+6.60162703379E+006, +6.65649453331E+001, +1.97752714313E+002
+6.72665832290E+006, +6.66118734507E+001, +2.01601135987E+002
+6.85168961202E+006, +6.70107707029E+001, +2.05350063201E+002
+6.97672090113E+006, +6.73412878902E+001, +2.09163634328E+002
+7.10175219024E+006, +6.72736730805E+001, +2.13212496586E+002
+7.22678347935E+006, +6.77403547204E+001, +2.17077821021E+002
+7.35181476846E+006, +6.74803409303E+001, +2.21270719112E+002
+7.47684605757E+006, +6.75218517990E+001, +2.25010435373E+002
+7.60187734668E+006, +6.79416623580E+001, +2.29143846700E+002
+7.72690863579E+006, +6.77718360718E+001, +2.33118282329E+002
+7.85193992491E+006, +6.73760206756E+001, +2.37254605758E+002
+7.97697121402E+006, +6.80094181759E+001, +2.40875796106E+002
+8.10200250313E+006, +6.81078726256E+001, +2.44662280289E+002
+8.22703379224E+006, +6.81498236850E+001, +2.48828093164E+002
+8.35206508135E+006, +6.82369340272E+001, +2.53149378742E+002
+8.47709637046E+006, +6.82518469324E+001, +2.56442985947E+002
+8.60212765957E+006, +6.83630278336E+001, +2.61085474942E+002
+8.72715894869E+006, +6.86895007177E+001, +2.65311162127E+002
+8.85219023780E+006, +6.88444742174E+001, +2.69324655993E+002
+8.97722152691E+006, +6.92474219023E+001, +2.73617729943E+002
+9.10225281602E+006, +6.86842336858E+001, +2.77267557809E+002
+9.22728410513E+006, +6.91424397954E+001, +2.81294951065E+002
+9.35231539424E+006, +6.93163691934E+001, +2.85636910675E+002
+9.47734668335E+006, +6.94404032012E+001, +2.90204521834E+002
+9.60237797247E+006, +6.98437317360E+001, +2.93888270934E+002
+9.72740926158E+006, +6.99437872327E+001, +2.98445045254E+002
+9.85244055069E+006, +6.97674509678E+001, +3.02499694192E+002
+9.97747183980E+006, +6.99373625952E+001, +3.06335404016E+002
+1.01025031289E+007, +7.00686921254E+001, +3.10579426443E+002
+1.02275344180E+007, +7.06986175328E+001, +3.15016088644E+002
+1.03525657071E+007, +7.05180124919E+001, +3.18988875023E+002
+1.04775969962E+007, +7.06624163778E+001, +3.23940370977E+002
+1.06026282854E+007, +7.01344897834E+001, +3.28037345773E+002
+1.07276595745E+007, +7.05642382063E+001, +3.32677825089E+002
+1.08526908636E+007, +7.07102780509E+001, +3.36755641696E+002
+1.09777221527E+007, +7.13125546242E+001, +3.40438438136E+002
+1.11027534418E+007, +7.12569350494E+001, +3.44485856504E+002
+1.12277847309E+007, +7.18846337174E+001, +3.49964018875E+002
+1.13528160200E+007, +7.14005706399E+001, +3.54169073702E+002
+1.14778473091E+007, +7.10517035888E+001, +3.58338943089E+002
+1.16028785982E+007, +7.17493497732E+001, +3.62960886468E+002
+1.17279098874E+007, +7.18789216885E+001, +3.67471525909E+002
+1.18529411765E+007, +7.18893994882E+001, +3.71259908979E+002
+1.19779724656E+007, +7.24111882975E+001, +3.76396757309E+002
+1.21030037547E+007, +7.31526929628E+001, +3.81237039922E+002
+1.22280350438E+007, +7.27297962483E+001, +3.84818567535E+002
+1.23530663329E+007, +7.26957514307E+001, +3.89897738840E+002
+1.24780976220E+007, +7.21209795194E+001, +3.94187710237E+002
+1.26031289111E+007, +7.36333074802E+001, +3.99050624843E+002
+1.27281602003E+007, +7.33143924906E+001, +4.03352689897E+002
+1.28531914894E+007, +7.37222941677E+001, +4.08591071195E+002
+1.29782227785E+007, +7.41799231880E+001, +4.12666437314E+002
+1.31032540676E+007, +7.46439117881E+001, +4.17768018679E+002
+1.32282853567E+007, +7.39820724467E+001, +4.21460677952E+002
+1.33533166458E+007, +7.42261974839E+001, +4.25606416912E+002
+1.34783479349E+007, +7.50032784453E+001, +4.31018128880E+002
+1.36033792240E+007, +7.49605663319E+001, +4.37288395092E+002
+1.37284105131E+007, +7.51929307693E+001, +4.41120931286E+002
+1.38534418023E+007, +7.53077215908E+001, +4.44749065104E+002
+1.39784730914E+007, +7.58770779525E+001, +4.51078683650E+002
+1.41035043805E+007, +7.63022663836E+001, +4.54918172196E+002
+1.42285356696E+007, +7.61258531858E+001, +4.59818247567E+002
+1.43535669587E+007, +7.61157744752E+001, +4.64716439841E+002
+1.44785982478E+007, +7.71768464290E+001, +4.70313765343E+002
+1.46036295369E+007, +7.58093850394E+001, +4.74671618576E+002
+1.47286608260E+007, +7.87562503724E+001, +4.80452194895E+002
+1.48536921151E+007, +7.74214971547E+001, +4.85857593806E+002
+1.49787234043E+007, +7.78784100053E+001, +4.89951993872E+002
+1.51037546934E+007, +7.69456529319E+001, +4.94892230798E+002
+1.52287859825E+007, +7.85035167733E+001, +5.00920283420E+002
+1.53538172716E+007, +7.84105977716E+001, +5.05823449018E+002
+1.54788485607E+007, +7.91805226092E+001, +5.10659405335E+002
+1.56038798498E+007, +7.87059730370E+001, +5.17407986140E+002
+1.57289111389E+007, +7.84638988477E+001, +5.22236758222E+002
+1.58539424280E+007, +7.91978280405E+001, +5.25782463576E+002
+1.59789737171E+007, +7.87640103987E+001, +5.30706402570E+002
+1.61040050063E+007, +8.06975835322E+001, +5.37340011532E+002
+1.62290362954E+007, +8.13998675616E+001, +5.40152875575E+002
+1.63540675845E+007, +8.05774210655E+001, +5.48423612718E+002
+1.64790988736E+007, +8.17482088569E+001, +5.53685402845E+002
+1.66041301627E+007, +8.24886992952E+001, +5.57608939877E+002
+1.67291614518E+007, +8.05645744687E+001, +5.62284374535E+002
+1.68541927409E+007, +8.27363962864E+001, +5.68949961534E+002
+1.69792240300E+007, +8.21185531902E+001, +5.74517990614E+002
+1.71042553191E+007, +8.11327851023E+001, +5.82579525477E+002
+1.72292866083E+007, +8.29180236267E+001, +5.88312874482E+002
+1.73543178974E+007, +8.05413612739E+001, +5.93071013343E+002
+1.74793491865E+007, +8.37116092892E+001, +6.00378156287E+002
+1.76043804756E+007, +8.38473055074E+001, +6.02313539955E+002
+1.77294117647E+007, +8.56167548815E+001, +6.08234536167E+002
+1.78544430538E+007, +8.36589133279E+001, +6.16020563322E+002
+1.79794743429E+007, +8.45249546200E+001, +6.22990311057E+002
+1.81045056320E+007, +8.28133877475E+001, +6.29942936353E+002
+1.82295369212E+007, +8.51552094287E+001, +6.34055108128E+002
+1.83545682103E+007, +8.95126584583E+001, +6.37036165445E+002
+1.84795994994E+007, +8.69165657654E+001, +6.46625314821E+002
+1.86046307885E+007, +8.75097928666E+001, +6.51314973256E+002
+1.87296620776E+007, +8.62241095502E+001, +6.58291474643E+002
+1.88546933667E+007, +8.95805429544E+001, +6.63219683791E+002
+1.89797246558E+007, +8.86714267276E+001, +6.69861292948E+002
+1.91047559449E+007, +9.16341008519E+001, +6.77546841458E+002
+1.92297872340E+007, +9.06392323920E+001, +6.82156114380E+002
+1.93548185232E+007, +9.10084963970E+001, +6.92213310190E+002
+1.94798498123E+007, +9.23226071217E+001, +6.95242657714E+002
+1.96048811014E+007, +9.30640634926E+001, +7.03740316076E+002
+1.97299123905E+007, +9.24463010147E+001, +7.08520972138E+002
+1.98549436796E+007, +9.26541642671E+001, +7.17225847037E+002
+1.99799749687E+007, +9.43845387377E+001, +7.21600154193E+002
+2.01050062578E+007, +9.39672310947E+001, +7.29617290064E+002
+2.02300375469E+007, +9.33080717426E+001, +7.36956916387E+002
+2.03550688360E+007, +9.62339145044E+001, +7.45495486335E+002
+2.04801001252E+007, +9.62247510037E+001, +7.50682954290E+002
+2.06051314143E+007, +9.57595016431E+001, +7.56464673992E+002
+2.07301627034E+007, +9.37609250302E+001, +7.63215926064E+002
+2.08551939925E+007, +9.77555075741E+001, +7.73525003235E+002
+2.09802252816E+007, +9.77080576094E+001, +7.80780786921E+002
+2.11052565707E+007, +9.89409421087E+001, +7.87175705865E+002
+2.12302878598E+007, +1.01355564262E+002, +7.93940690548E+002
+2.13553191489E+007, +1.00446945347E+002, +7.99221283951E+002
+2.14803504380E+007, +1.01771627586E+002, +8.10049950990E+002
+2.16053817272E+007, +1.03875687310E+002, +8.18543102093E+002
+2.17304130163E+007, +1.03584226126E+002, +8.22065523279E+002
+2.18554443054E+007, +1.04013697102E+002, +8.31605487654E+002
+2.19804755945E+007, +1.04609995870E+002, +8.38899174232E+002
+2.21055068836E+007, +1.05900610467E+002, +8.46650048854E+002
+2.22305381727E+007, +1.10235468160E+002, +8.58674457801E+002
+2.23555694618E+007, +1.08545348930E+002, +8.64896150746E+002
+2.24806007509E+007, +1.10630046771E+002, +8.69302590821E+002
+2.26056320401E+007, +1.13778727263E+002, +8.82562731054E+002
+2.27306633292E+007, +1.13115603789E+002, +8.88491014081E+002
+2.28556946183E+007, +1.15198575467E+002, +8.95121165758E+002
+2.29807259074E+007, +1.17934646252E+002, +9.09496521862E+002
+2.31057571965E+007, +1.13950799085E+002, +9.11866663302E+002
+2.32307884856E+007, +1.20424126340E+002, +9.16180915221E+002
+2.33558197747E+007, +1.22327788235E+002, +9.28753488392E+002
+2.34808510638E+007, +1.19017185934E+002, +9.34688730924E+002
+2.36058823529E+007, +1.29751303778E+002, +9.43421501183E+002
+2.37309136421E+007, +1.30928704273E+002, +9.47934991429E+002
+2.38559449312E+007, +1.34414591301E+002, +9.57673028842E+002
+2.39809762203E+007, +1.27371624484E+002, +9.58192214948E+002
+2.41060075094E+007, +1.34808021558E+002, +9.75592654713E+002
+2.42310387985E+007, +1.33923210733E+002, +9.79077726657E+002
+2.43560700876E+007, +1.37677781939E+002, +9.93801100827E+002
+2.44811013767E+007, +1.37300025449E+002, +9.95810344056E+002
+2.46061326658E+007, +1.37828896352E+002, +1.00204141444E+003
+2.47311639549E+007, +1.41419122868E+002, +1.01635542911E+003
+2.48561952441E+007, +1.44670056854E+002, +1.02529007296E+003
+2.49812265332E+007, +1.42590754711E+002, +1.02912633948E+003
+2.51062578223E+007, +1.45708780289E+002, +1.03913788879E+003
+2.52312891114E+007, +1.43745343586E+002, +1.04830251973E+003
+2.53563204005E+007, +1.41918655506E+002, +1.05534522588E+003
+2.54813516896E+007, +1.46810067888E+002, +1.06632592680E+003
+2.56063829787E+007, +1.41778871583E+002, +1.07576614564E+003
+2.57314142678E+007, +1.36743419179E+002, +1.09004990633E+003
+2.58564455569E+007, +1.40328842013E+002, +1.09655183434E+003
+2.59814768461E+007, +1.44610441675E+002, +1.10642722561E+003
+2.61065081352E+007, +1.44013405687E+002, +1.12171525276E+003
+2.62315394243E+007, +1.45438439299E+002, +1.13185318845E+003
+2.63565707134E+007, +1.39496479622E+002, +1.13881149600E+003
+2.64816020025E+007, +1.45912912033E+002, +1.15037846388E+003
+2.66066332916E+007, +1.45635886670E+002, +1.16471077030E+003
+2.67316645807E+007, +1.52035274789E+002, +1.17876427254E+003
+2.68566958698E+007, +1.47064018346E+002, +1.18932005653E+003
+2.69817271589E+007, +1.56921525410E+002, +1.20913092411E+003
+2.71067584481E+007, +1.47640984516E+002, +1.22327151759E+003
+2.72317897372E+007, +1.51230760600E+002, +1.23076990033E+003
+2.73568210263E+007, +1.53646394087E+002, +1.23769103264E+003
+2.74818523154E+007, +1.67352786355E+002, +1.24678424188E+003
+2.76068836045E+007, +1.61484281864E+002, +1.26116268314E+003
+2.77319148936E+007, +1.71622080805E+002, +1.27491660886E+003
+2.78569461827E+007, +1.66527780768E+002, +1.29036625723E+003
+2.79819774718E+007, +1.75344211715E+002, +1.29219190711E+003
+2.81070087610E+007, +1.77932035320E+002, +1.31523846025E+003
+2.82320400501E+007, +1.76838196091E+002, +1.32404536951E+003
+2.83570713392E+007, +1.81032585603E+002, +1.33671333863E+003
+2.84821026283E+007, +1.72511764833E+002, +1.35824895274E+003
+2.86071339174E+007, +1.73824645687E+002, +1.37047034925E+003
+2.87321652065E+007, +1.75614713396E+002, +1.38140506450E+003
+2.88571964956E+007, +1.71309411826E+002, +1.40107398491E+003
+2.89822277847E+007, +1.76759145871E+002, +1.41598394289E+003
+2.91072590738E+007, +1.79842343888E+002, +1.43000275869E+003
+2.92322903630E+007, +1.82358459150E+002, +1.45414208234E+003
+2.93573216521E+007, +1.80230357893E+002, +1.47121953530E+003
+2.94823529412E+007, +1.86096756131E+002, +1.48186155284E+003
+2.96073842303E+007, +1.91745547561E+002, +1.50028737746E+003
+2.97324155194E+007, +1.97381700046E+002, +1.51206572305E+003
+2.98574468085E+007, +1.89328673003E+002, +1.53088973839E+003
+2.99824780976E+007, +2.05323272887E+002, +1.55110868933E+003
+3.01075093867E+007, +1.98884001214E+002, +1.56118826306E+003
+3.02325406758E+007, +1.96890291496E+002, +1.59059180414E+003
+3.03575719650E+007, +2.00251262397E+002, +1.60737170311E+003
+3.04826032541E+007, +2.04834813509E+002, +1.61850283192E+003
+3.06076345432E+007, +2.13094749942E+002, +1.63987296758E+003
+3.07326658323E+007, +2.11797575013E+002, +1.65423241305E+003
+3.08576971214E+007, +2.14328168457E+002, +1.67590552568E+003
+3.09827284105E+007, +2.29859205935E+002, +1.68371561847E+003
+3.11077596996E+007, +2.29051329429E+002, +1.71905664880E+003
+3.12327909887E+007, +2.13417856612E+002, +1.74790027255E+003
+3.13578222778E+007, +2.19211278906E+002, +1.77252109487E+003
+3.14828535670E+007, +2.55347100672E+002, +1.79722539795E+003
+3.16078848561E+007, +2.53975228450E+002, +1.79531004924E+003
+3.17329161452E+007, +2.44978796038E+002, +1.83103642269E+003
+3.18579474343E+007, +2.45824980665E+002, +1.86089597523E+003
+3.19829787234E+007, +2.42639884043E+002, +1.88460599884E+003
+3.21080100125E+007, +2.49281237356E+002, +1.90048456627E+003
+3.22330413016E+007, +2.58009530910E+002, +1.91874926014E+003
+3.23580725907E+007, +2.73832220898E+002, +1.95553603642E+003
+3.24831038798E+007, +2.61422564791E+002, +1.98130210823E+003
+3.26081351690E+007, +2.78966983918E+002, +2.00839118888E+003
+3.27331664581E+007, +2.87197470092E+002, +2.04539475741E+003
+3.28581977472E+007, +2.92580742018E+002, +2.03744744427E+003
+3.29832290363E+007, +2.95945852563E+002, +2.08126042323E+003
+3.31082603254E+007, +3.07562587380E+002, +2.13143607089E+003
+3.32332916145E+007, +3.28800822299E+002, +2.14324768810E+003
+3.33583229036E+007, +3.00965673902E+002, +2.14498671104E+003
+3.34833541927E+007, +3.38111215036E+002, +2.18635436242E+003
+3.36083854819E+007, +3.58998694536E+002, +2.23606829650E+003
+3.37334167710E+007, +3.29153840629E+002, +2.25668905313E+003
+3.38584480601E+007, +3.12781475371E+002, +2.29684200561E+003
+3.39834793492E+007, +3.21740096667E+002, +2.33404497749E+003
+3.41085106383E+007, +3.55839107504E+002, +2.37833441201E+003
+3.42335419274E+007, +3.68087161631E+002, +2.39609294778E+003
+3.43585732165E+007, +3.49902308229E+002, +2.47748813093E+003
+3.44836045056E+007, +4.16699307586E+002, +2.44301944603E+003
+3.46086357947E+007, +4.10114257336E+002, +2.49997796604E+003
+3.47336670839E+007, +4.09614746968E+002, +2.55036749555E+003
+3.48586983730E+007, +4.27665107228E+002, +2.57421333690E+003
+3.49837296621E+007, +4.56657956352E+002, +2.60149320482E+003
+3.51087609512E+007, +4.11787857924E+002, +2.64312834186E+003
+3.52337922403E+007, +4.88130803680E+002, +2.71772787019E+003
+3.53588235294E+007, +4.79398350977E+002, +2.76846925829E+003
+3.54838548185E+007, +4.48340042440E+002, +2.82090393705E+003
+3.56088861076E+007, +4.91610437571E+002, +2.86789443230E+003
+3.57339173967E+007, +5.20922098395E+002, +2.94598474722E+003
+3.58589486859E+007, +5.54991479275E+002, +3.00799902727E+003
+3.59839799750E+007, +5.33867961388E+002, +3.05323113650E+003
+3.61090112641E+007, +6.00386363354E+002, +3.06526807842E+003
+3.62340425532E+007, +6.13927015187E+002, +3.15248827212E+003
+3.63590738423E+007, +6.22241602039E+002, +3.19551529253E+003
+3.64841051314E+007, +5.93403950646E+002, +3.24689387246E+003
+3.66091364205E+007, +6.10570260640E+002, +3.29261948739E+003
+3.67341677096E+007, +6.57767918704E+002, +3.39790157200E+003
+3.68591989987E+007, +6.73081346560E+002, +3.42271635488E+003
+3.69842302879E+007, +7.47170549438E+002, +3.49317556230E+003
+3.71092615770E+007, +7.34041847238E+002, +3.53877680754E+003
+3.72342928661E+007, +7.46109176720E+002, +3.67625414138E+003
+3.73593241552E+007, +8.14478005391E+002, +3.78593055097E+003
+3.74843554443E+007, +8.66951647293E+002, +3.86367855508E+003
+3.76093867334E+007, +8.83494646640E+002, +3.90413905855E+003
+3.77344180225E+007, +9.75153722368E+002, +4.01542742167E+003
+3.78594493116E+007, +1.01420166207E+003, +4.17271734102E+003
+3.79844806008E+007, +1.01563381637E+003, +4.26968992375E+003
+3.81095118899E+007, +1.06132080052E+003, +4.33548545569E+003
+3.82345431790E+007, +1.08251917546E+003, +4.38653590431E+003
+3.83595744681E+007, +1.20390998570E+003, +4.57133386017E+003
+3.84846057572E+007, +1.12937938043E+003, +4.71531693895E+003
+3.86096370463E+007, +1.24382777583E+003, +4.77219398297E+003
+3.87346683354E+007, +1.40804532215E+003, +4.99055527716E+003
+3.88596996245E+007, +1.49027952939E+003, +5.07987110698E+003
+3.89847309136E+007, +1.39145670988E+003, +5.21615347362E+003
+3.91097622028E+007, +1.58876797894E+003, +5.40148774451E+003
+3.92347934919E+007, +1.86109308577E+003, +5.50912489104E+003
+3.93598247810E+007, +1.79588788099E+003, +5.74958323696E+003
+3.94848560701E+007, +1.98474257834E+003, +5.89568084088E+003
+3.96098873592E+007, +2.14793207954E+003, +6.26533847849E+003
+3.97349186483E+007, +2.59911209145E+003, +6.31010198895E+003
+3.98599499374E+007, +2.80625717218E+003, +6.51859432338E+003
+3.99849812265E+007, +2.67648516918E+003, +6.81420727596E+003
+4.01100125156E+007, +3.04249349026E+003, +7.08658034558E+003
