"# Channel 1"
"# Trace 1"
Frequency, Formatted Data, Formatted Data
+1.00000000000E+005, +1.24476649524E+001, +2.79868233961E+000
+2.66777963272E+005, +1.24409006269E+001, +7.48186144426E+000
+4.33555926544E+005, +1.24371281891E+001, +1.21720966642E+001
+6.00333889816E+005, +1.24632385507E+001, +1.68191731917E+001
+7.67111853088E+005, +1.25120666912E+001, +2.15068315587E+001
+9.33889816361E+005, +1.25036759455E+001, +2.61418853735E+001
+1.10066777963E+006, +1.24586126617E+001, +3.08835749343E+001
+1.26744574290E+006, +1.24857949760E+001, +3.54830547751E+001
+1.43422370618E+006, +1.24703539587E+001, +4.02739825591E+001
+1.60100166945E+006, +1.25275792665E+001, +4.48449608943E+001
+1.76777963272E+006, +1.25149014721E+001, +4.95431531929E+001
+1.93455759599E+006, +1.24710723856E+001, +5.41153583769E+001
+2.10133555927E+006, +1.24952669153E+001, +5.87771324217E+001
+2.26811352254E+006, +1.25411088032E+001, +6.34990176279E+001
+2.43489148581E+006, +1.25510057429E+001, +6.82837213824E+001
+2.60166944908E+006, +1.25169074544E+001, +7.28912090093E+001
+2.76844741235E+006, +1.25536126299E+001, +7.77418615665E+001
+2.93522537563E+006, +1.24965908127E+001, +8.23535486432E+001
+3.10200333890E+006, +1.27311481235E+001, +8.69075402226E+001
+3.26878130217E+006, +1.24678444353E+001, +9.19353855197E+001
+3.43555926544E+006, +1.26301520446E+001, +9.64934691830E+001
+3.60233722871E+006, +1.27063034577E+001, +1.01308993811E+002
+3.76911519199E+006, +1.27489503941E+001, +1.06268311677E+002
+3.93589315526E+006, +1.28318709273E+001, +1.10776437683E+002
+4.10267111853E+006, +1.19171968940E+001, +1.14827106147E+002
+4.26944908180E+006, +1.24056242435E+001, +1.21105876419E+002
+4.43622704508E+006, +1.27440192309E+001, +1.25323082106E+002
+4.60300500835E+006, +1.28133634274E+001, +1.30180000831E+002
+4.76978297162E+006, +1.27422746901E+001, +1.34876643685E+002
+4.93656093489E+006, +1.30570410378E+001, +1.39753412706E+002
+5.10333889816E+006, +1.30085992266E+001, +1.44464249043E+002
+5.27011686144E+006, +1.34061162415E+001, +1.49422922334E+002
+5.43689482471E+006, +1.32524131720E+001, +1.54232063170E+002
+5.60367278798E+006, +1.35317798476E+001, +1.59297727343E+002
+5.77045075125E+006, +1.34141422914E+001, +1.63843973403E+002
+5.93722871452E+006, +1.34605398552E+001, +1.68870262109E+002
+6.10400667780E+006, +1.37246080724E+001, +1.73578437580E+002
+6.27078464107E+006, +1.41049266689E+001, +1.78609289839E+002
+6.43756260434E+006, +1.43262467586E+001, +1.83501811140E+002
+6.60434056761E+006, +1.43695187892E+001, +1.88241478791E+002
+6.77111853088E+006, +1.45959100814E+001, +1.92897074433E+002
+6.93789649416E+006, +1.47066613336E+001, +1.98140351451E+002
+7.10467445743E+006, +1.44320985153E+001, +2.03029679488E+002
+7.27145242070E+006, +1.47805610051E+001, +2.07714227376E+002
+7.43823038397E+006, +1.45384032682E+001, +2.12477312090E+002
+7.60500834725E+006, +1.46940521386E+001, +2.17739786602E+002
+7.77178631052E+006, +1.50250737295E+001, +2.22888860478E+002
+7.93856427379E+006, +1.50357439502E+001, +2.27491055678E+002
+8.10534223706E+006, +1.51005172941E+001, +2.32662213875E+002
+8.27212020033E+006, +1.49549983632E+001, +2.37682814083E+002
+8.43889816361E+006, +1.49776697358E+001, +2.42845711931E+002
+8.60567612688E+006, +1.47144995815E+001, +2.48127170509E+002
+8.77245409015E+006, +1.49265137809E+001, +2.52940261045E+002
+8.93923205342E+006, +1.47205813998E+001, +2.58707155698E+002
+9.10601001669E+006, +1.47510399743E+001, +2.63850987585E+002
+9.27278797997E+006, +1.50658588552E+001, +2.68839794140E+002
+9.43956594324E+006, +1.47157564149E+001, +2.74137424549E+002
+9.60634390651E+006, +1.49668012740E+001, +2.79587900442E+002
+9.77312186978E+006, +1.50344658725E+001, +2.84423044613E+002
+9.93989983306E+006, +1.52321199629E+001, +2.90172195158E+002
+1.01066777963E+007, +1.45617533744E+001, +2.95515030513E+002
+1.02734557596E+007, +1.51076179813E+001, +3.00807866875E+002
+1.04402337229E+007, +1.50371150694E+001, +3.06191242509E+002
+1.06070116861E+007, +1.48684094461E+001, +3.11947560017E+002
+1.07737896494E+007, +1.52712117234E+001, +3.17542806419E+002
+1.09405676127E+007, +1.54195161823E+001, +3.23150611140E+002
+1.11073455760E+007, +1.51328309402E+001, +3.28249241248E+002
+1.12741235392E+007, +1.54624388700E+001, +3.34247739822E+002
+1.14409015025E+007, +1.61239335274E+001, +3.39426433298E+002
+1.16076794658E+007, +1.57360546340E+001, +3.45303513120E+002
+1.17744574290E+007, +1.56080315045E+001, +3.51414841474E+002
+1.19412353923E+007, +1.58349917260E+001, +3.57642356825E+002
+1.21080133556E+007, +1.55960691751E+001, +3.62888682901E+002
+1.22747913189E+007, +1.60633267390E+001, +3.68931246430E+002
+1.24415692821E+007, +1.55840334928E+001, +3.74503497398E+002
+1.26083472454E+007, +1.57647627045E+001, +3.80507024148E+002
+1.27751252087E+007, +1.61240314644E+001, +3.86316550623E+002
+1.29419031720E+007, +1.58863764364E+001, +3.91794431749E+002
+1.31086811352E+007, +1.70547828551E+001, +3.98261906388E+002
+1.32754590985E+007, +1.67568810197E+001, +4.03827854574E+002
+1.34422370618E+007, +1.68485459510E+001, +4.10261182035E+002
+1.36090150250E+007, +1.74010812890E+001, +4.15790072938E+002
+1.37757929883E+007, +1.71756719387E+001, +4.21925164200E+002
+1.39425709516E+007, +1.73793258714E+001, +4.28378217708E+002
+1.41093489149E+007, +1.78565082151E+001, +4.34829471657E+002
+1.42761268781E+007, +1.78230560387E+001, +4.40981313960E+002
+1.44429048414E+007, +1.85995064249E+001, +4.46575015786E+002
+1.46096828047E+007, +1.78144657524E+001, +4.54445603751E+002
+1.47764607679E+007, +1.93043626595E+001, +4.59380885884E+002
+1.49432387312E+007, +1.91680997454E+001, +4.66072403730E+002
+1.51100166945E+007, +1.89003189729E+001, +4.73386108477E+002
+1.52767946578E+007, +1.96647971435E+001, +4.79043999813E+002
+1.54435726210E+007, +2.00977496009E+001, +4.85300421406E+002
+1.56103505843E+007, +2.00288211453E+001, +4.92481504472E+002
+1.57771285476E+007, +1.91457448556E+001, +4.98203942630E+002
+1.59439065109E+007, +1.93602300816E+001, +5.05467884036E+002
+1.61106844741E+007, +2.04553194894E+001, +5.12627338755E+002
+1.62774624374E+007, +2.06619493349E+001, +5.18674512868E+002
+1.64442404007E+007, +1.95306341044E+001, +5.24853522793E+002
+1.66110183639E+007, +2.08586225702E+001, +5.31969506857E+002
+1.67777963272E+007, +2.06679031094E+001, +5.39554250169E+002
+1.69445742905E+007, +2.16473585341E+001, +5.47247147790E+002
+1.71113522538E+007, +1.86544654644E+001, +5.53970825331E+002
+1.72781302170E+007, +2.04476691871E+001, +5.62096234880E+002
+1.74449081803E+007, +1.97814710737E+001, +5.68427649973E+002
+1.76116861436E+007, +2.28220211405E+001, +5.76451845422E+002
+1.77784641068E+007, +2.12659549498E+001, +5.82142344679E+002
+1.79452420701E+007, +2.17100373885E+001, +5.90217925589E+002
+1.81120200334E+007, +2.21972461774E+001, +5.95884836300E+002
+1.82787979967E+007, +2.34993841858E+001, +6.06429788344E+002
+1.84455759599E+007, +2.49983860447E+001, +6.12792462603E+002
+1.86123539232E+007, +2.53396671734E+001, +6.22583926672E+002
+1.87791318865E+007, +2.41518936214E+001, +6.30270127763E+002
+1.89459098497E+007, +2.56188527727E+001, +6.37510560826E+002
+1.91126878130E+007, +2.45336222984E+001, +6.44250341414E+002
+1.92794657763E+007, +2.57343966608E+001, +6.51460687222E+002
+1.94462437396E+007, +2.60652438554E+001, +6.61424845581E+002
+1.96130217028E+007, +2.64900846582E+001, +6.71259647939E+002
+1.97797996661E+007, +2.77841701662E+001, +6.76171152894E+002
+1.99465776294E+007, +2.62176458407E+001, +6.84661596233E+002
+2.01133555927E+007, +2.45380574785E+001, +6.96352794172E+002
+2.02801335559E+007, +2.81009405766E+001, +7.04982813048E+002
+2.04469115192E+007, +2.98690529413E+001, +7.12388448553E+002
+2.06136894825E+007, +3.04291008907E+001, +7.21042046401E+002
+2.07804674457E+007, +3.04516183676E+001, +7.32917512096E+002
+2.09472454090E+007, +2.80670213576E+001, +7.40554735363E+002
+2.11140233723E+007, +3.03456606241E+001, +7.48901813553E+002
+2.12808013356E+007, +3.32031400128E+001, +7.57826037821E+002
+2.14475792988E+007, +3.20117507909E+001, +7.67813314528E+002
+2.16143572621E+007, +3.19630114193E+001, +7.77652506696E+002
+2.17811352254E+007, +3.46765113192E+001, +7.87260191306E+002
+2.19479131886E+007, +3.83309751144E+001, +7.94694000946E+002
+2.21146911519E+007, +3.86981700858E+001, +8.05103031093E+002
+2.22814691152E+007, +3.45732359780E+001, +8.15717651199E+002
+2.24482470785E+007, +3.57904495536E+001, +8.30841011643E+002
+2.26150250417E+007, +4.29317960335E+001, +8.39880768875E+002
+2.27818030050E+007, +4.18397946491E+001, +8.47549948047E+002
+2.29485809683E+007, +4.67939940907E+001, +8.59221149007E+002
+2.31153589316E+007, +4.39550934000E+001, +8.71054163232E+002
+2.32821368948E+007, +5.01974486706E+001, +8.79635941875E+002
+2.34489148581E+007, +4.90139948672E+001, +8.89582213148E+002
+2.36156928214E+007, +5.32215684909E+001, +9.03148018266E+002
+2.37824707846E+007, +5.46199956778E+001, +9.15472332275E+002
+2.39492487479E+007, +5.43773352969E+001, +9.21462551704E+002
+2.41160267112E+007, +5.84089689199E+001, +9.31526899330E+002
+2.42828046745E+007, +5.58290996963E+001, +9.48613222293E+002
+2.44495826377E+007, +6.35192948705E+001, +9.59310249636E+002
+2.46163606010E+007, +6.25098953696E+001, +9.68045584863E+002
+2.47831385643E+007, +6.43789583904E+001, +9.81939122970E+002
+2.49499165275E+007, +7.04479577472E+001, +9.90219823363E+002
+2.51166944908E+007, +7.28164843005E+001, +9.99620485055E+002
+2.52834724541E+007, +7.44592866842E+001, +1.01332746871E+003
+2.54502504174E+007, +7.64963982308E+001, +1.03033657364E+003
+2.56170283806E+007, +7.10536504372E+001, +1.03796692051E+003
+2.57838063439E+007, +7.75631085603E+001, +1.05273855922E+003
+2.59505843072E+007, +7.92015476361E+001, +1.06375985519E+003
+2.61173622705E+007, +8.30055688955E+001, +1.07696886032E+003
+2.62841402337E+007, +7.71228257245E+001, +1.09254926203E+003
+2.64509181970E+007, +8.18868034870E+001, +1.10770208684E+003
+2.66176961603E+007, +8.03150127495E+001, +1.12050806049E+003
+2.67844741235E+007, +8.40775614859E+001, +1.13384126903E+003
+2.69512520868E+007, +8.77362257455E+001, +1.14383773331E+003
+2.71180300501E+007, +8.74932828216E+001, +1.15107614875E+003
+2.72848080134E+007, +8.89842231803E+001, +1.17392731591E+003
+2.74515859766E+007, +9.15547660532E+001, +1.18498191904E+003
+2.76183639399E+007, +8.94142029924E+001, +1.19989074200E+003
+2.77851419032E+007, +8.98232148715E+001, +1.21334444178E+003
+2.79519198664E+007, +1.02407315291E+002, +1.23361754376E+003
+2.81186978297E+007, +1.01927382265E+002, +1.24794186692E+003
+2.82854757930E+007, +1.01156717271E+002, +1.26266161750E+003
+2.84522537563E+007, +9.69386195167E+001, +1.29051532401E+003
+2.86190317195E+007, +9.70310465941E+001, +1.29762829122E+003
+2.87858096828E+007, +1.09858271837E+002, +1.32539069579E+003
+2.89525876461E+007, +1.21680857082E+002, +1.32966179288E+003
+2.91193656093E+007, +1.07876712564E+002, +1.34194085565E+003
+2.92861435726E+007, +1.09226230371E+002, +1.36896328778E+003
+2.94529215359E+007, +1.16064220277E+002, +1.39648191369E+003
+2.96196994992E+007, +1.26316081123E+002, +1.41516980906E+003
+2.97864774624E+007, +1.30650692918E+002, +1.42723601522E+003
+2.99532554257E+007, +1.35017857584E+002, +1.45425868131E+003
+3.01200333890E+007, +1.32905459751E+002, +1.48024294525E+003
+3.02868113523E+007, +1.25405576219E+002, +1.49951479957E+003
+3.04535893155E+007, +1.36899351997E+002, +1.53722628789E+003
+3.06203672788E+007, +1.39663995231E+002, +1.54390449738E+003
+3.07871452421E+007, +1.44954818033E+002, +1.55317263802E+003
+3.09539232053E+007, +1.51855463154E+002, +1.58846013339E+003
+3.11207011686E+007, +1.43146174247E+002, +1.62246162837E+003
+3.12874791319E+007, +1.48101505943E+002, +1.63016582959E+003
+3.14542570952E+007, +1.53063399995E+002, +1.67094531759E+003
+3.16210350584E+007, +1.61392080510E+002, +1.69230464934E+003
+3.17878130217E+007, +1.59873736293E+002, +1.73426835214E+003
+3.19545909850E+007, +1.66863779877E+002, +1.75072600346E+003
+3.21213689482E+007, +1.47290680467E+002, +1.78850171964E+003
+3.22881469115E+007, +1.61867155373E+002, +1.80566522454E+003
+3.24549248748E+007, +1.74335866512E+002, +1.84967721865E+003
+3.26217028381E+007, +1.79048798879E+002, +1.86938843087E+003
+3.27884808013E+007, +1.87179220265E+002, +1.90897041321E+003
+3.29552587646E+007, +2.02298780227E+002, +1.94927072446E+003
+3.31220367279E+007, +2.25134890811E+002, +1.96172175022E+003
+3.32888146912E+007, +2.12758426675E+002, +2.02157797192E+003
+3.34555926544E+007, +2.08581198658E+002, +2.05136238403E+003
+3.36223706177E+007, +2.32797084031E+002, +2.07886247661E+003
+3.37891485810E+007, +2.19353057763E+002, +2.10628926794E+003
+3.39559265442E+007, +2.55327338092E+002, +2.18655733450E+003
+3.41227045075E+007, +2.33111811439E+002, +2.18205251594E+003
+3.42894824708E+007, +2.56326155272E+002, +2.27112527300E+003
+3.44562604341E+007, +2.73067064964E+002, +2.30433056446E+003
+3.46230383973E+007, +3.02016213982E+002, +2.36713385940E+003
+3.47898163606E+007, +2.82738348395E+002, +2.39876744957E+003
+3.49565943239E+007, +3.49654152768E+002, +2.46456179067E+003
+3.51233722871E+007, +3.25150560759E+002, +2.50315873838E+003
+3.52901502504E+007, +3.42938432297E+002, +2.53164677284E+003
+3.54569282137E+007, +3.55267177484E+002, +2.63008041173E+003
+3.56237061770E+007, +3.50226780885E+002, +2.66438579235E+003
+3.57904841402E+007, +3.75833477250E+002, +2.76252546627E+003
+3.59572621035E+007, +4.10377070010E+002, +2.76937018917E+003
+3.61240400668E+007, +4.31956224135E+002, +2.88172146922E+003
+3.62908180301E+007, +4.62106532706E+002, +2.99499824216E+003
+3.64575959933E+007, +4.73337785241E+002, +3.02272864746E+003
+3.66243739566E+007, +5.42223410326E+002, +3.07484035732E+003
+3.67911519199E+007, +5.77604189451E+002, +3.21714812958E+003
+3.69579298831E+007, +5.46353927385E+002, +3.25252783738E+003
+3.71247078464E+007, +6.11826234286E+002, +3.41036187370E+003
+3.72914858097E+007, +6.11071400050E+002, +3.56672404438E+003
+3.74582637730E+007, +7.76622282654E+002, +3.63169451582E+003
+3.76250417362E+007, +7.23071480821E+002, +3.74338026006E+003
+3.77918196995E+007, +7.57142886562E+002, +3.87964194351E+003
+3.79585976628E+007, +8.04283428628E+002, +3.95884428150E+003
+3.81253756260E+007, +8.72663302820E+002, +4.15684760689E+003
+3.82921535893E+007, +1.07019924847E+003, +4.24354501663E+003
+3.84589315526E+007, +1.15021182409E+003, +4.37042667401E+003
+3.86257095159E+007, +1.21477196388E+003, +4.54561064212E+003
+3.87924874791E+007, +1.29866157546E+003, +4.76758190641E+003
+3.89592654424E+007, +1.31730978976E+003, +5.05143806393E+003
+3.91260434057E+007, +1.64263687474E+003, +5.38324634252E+003
+3.92928213689E+007, +1.78299272626E+003, +5.32397027568E+003
+3.94595993322E+007, +2.08199460121E+003, +5.73316884377E+003
+3.96263772955E+007, +2.17868124937E+003, +5.93704270524E+003
+3.97931552588E+007, +2.48751258650E+003, +6.04297429799E+003
+3.99599332220E+007, +2.86586136634E+003, +6.31443302911E+003
+4.01267111853E+007, +3.20208953248E+003, +6.50718211059E+003
+4.02934891486E+007, +3.45129595145E+003, +6.83890691651E+003
+4.04602671119E+007, +3.99746050249E+003, +6.71103364527E+003
+4.06270450751E+007, +4.55015994692E+003, +6.91163790646E+003
+4.07938230384E+007, +5.55783115073E+003, +7.10835560022E+003
+4.09606010017E+007, +5.90908036137E+003, +7.18900770275E+003
+4.11273789649E+007, +6.41966640488E+003, +7.26887698797E+003
+4.12941569282E+007, +7.39274511979E+003, +7.22481983929E+003
+4.14609348915E+007, +9.02995612509E+003, +7.09704641137E+003
+4.16277128548E+007, +9.60701616839E+003, +6.45451067770E+003
+4.17944908180E+007, +9.64572868581E+003, +6.64136685832E+003
+4.19612687813E+007, +1.14611635581E+004, +5.34929499305E+003
+4.21280467446E+007, +1.28341652858E+004, +4.13872620922E+003
+4.22948247078E+007, +1.31158155074E+004, +2.75909777340E+003
+4.24616026711E+007, +1.34156560933E+004, +1.82070996557E+003
+4.26283806344E+007, +1.35376977294E+004, +2.02779965613E+002
+4.27951585977E+007, +1.42803541581E+004, -1.96742862305E+003
+4.29619365609E+007, +1.20864062806E+004, -2.38707891242E+003
+4.31287145242E+007, +1.09501914051E+004, -4.23412687123E+003
+4.32954924875E+007, +1.07752337514E+004, -4.83920055551E+003
+4.34622704508E+007, +9.55982482792E+003, -6.45877952229E+003
+4.36290484140E+007, +8.94948503855E+003, -5.80928366508E+003
+4.37958263773E+007, +7.68021928880E+003, -6.41402006741E+003
+4.39626043406E+007, +7.01113756255E+003, -6.44788787150E+003
+4.41293823038E+007, +5.98331976936E+003, -6.06393894657E+003
+4.42961602671E+007, +5.53657037777E+003, -6.23435608789E+003
+4.44629382304E+007, +4.91429882732E+003, -6.02572958505E+003
+4.46297161937E+007, +4.59800522129E+003, -5.69790420024E+003
+4.47964941569E+007, +4.09798686560E+003, -5.59791288415E+003
+4.49632721202E+007, +3.52799062507E+003, -5.43418930033E+003
+4.51300500835E+007, +3.45275249260E+003, -5.31308147042E+003
+4.52968280467E+007, +3.11938410713E+003, -4.96928885569E+003
+4.54636060100E+007, +2.72521356061E+003, -4.71190535908E+003
+4.56303839733E+007, +2.43983117099E+003, -4.47040223942E+003
+4.57971619366E+007, +2.38971070686E+003, -4.40199995001E+003
+4.59639398998E+007, +2.06993064264E+003, -4.17375428806E+003
+4.61307178631E+007, +2.06485584421E+003, -4.00573458307E+003
+4.62974958264E+007, +1.97655026376E+003, -3.82784394378E+003
+4.64642737896E+007, +1.80701819159E+003, -3.77404844033E+003
+4.66310517529E+007, +1.75180764616E+003, -3.70172478169E+003
+4.67978297162E+007, +1.74389848489E+003, -3.49226129576E+003
+4.69646076795E+007, +1.57624801704E+003, -3.44815919296E+003
+4.71313856427E+007, +1.49634491955E+003, -3.29222120704E+003
+4.72981636060E+007, +1.40311529370E+003, -3.21718678771E+003
+4.74649415693E+007, +1.34216532242E+003, -3.08123295933E+003
+4.76317195326E+007, +1.29910298177E+003, -2.93595776504E+003
+4.77984974958E+007, +1.27594002998E+003, -2.86290410780E+003
+4.79652754591E+007, +1.23149604365E+003, -2.76212330378E+003
+4.81320534224E+007, +1.22740341180E+003, -2.69890220770E+003
+4.82988313856E+007, +1.15804976474E+003, -2.66714510163E+003
+4.84656093489E+007, +1.17132669508E+003, -2.57169970769E+003
+4.86323873122E+007, +1.14610724048E+003, -2.46910449841E+003
+4.87991652755E+007, +1.12433079231E+003, -2.41254458475E+003
+4.89659432387E+007, +1.07090078590E+003, -2.39074699005E+003
+4.91327212020E+007, +1.05894002231E+003, -2.30187874385E+003
+4.92994991653E+007, +1.04787871106E+003, -2.25688647961E+003
+4.94662771285E+007, +1.04062882037E+003, -2.18873441374E+003
+4.96330550918E+007, +1.01204897079E+003, -2.15803499690E+003
+4.97998330551E+007, +1.01379893224E+003, -2.08243078127E+003
+4.99666110184E+007, +1.04052741845E+003, -2.04172957697E+003
+5.01333889816E+007, +1.00881573153E+003, -2.01577841369E+003
+5.03001669449E+007, +9.93106333682E+002, -1.96930668625E+003
+5.04669449082E+007, +9.93141815667E+002, -1.91966732412E+003
+5.06337228715E+007, +1.02609874982E+003, -1.88735842682E+003
+5.08005008347E+007, +1.02622866034E+003, -1.90130766805E+003
+5.09672787980E+007, +1.03137648725E+003, -1.86277989662E+003
+5.11340567613E+007, +1.00539801870E+003, -1.86100487626E+003
+5.13008347245E+007, +1.01445420798E+003, -1.85861821347E+003
+5.14676126878E+007, +1.01904852856E+003, -1.86448305870E+003
+5.16343906511E+007, +9.98824406987E+002, -1.84714977047E+003
+5.18011686144E+007, +9.71448425775E+002, -1.87232215927E+003
+5.19679465776E+007, +9.58922502887E+002, -1.87341511848E+003
+5.21347245409E+007, +9.13821799547E+002, -1.88612563596E+003
+5.23015025042E+007, +8.83599587207E+002, -1.84928004084E+003
+5.24682804674E+007, +8.35087390840E+002, -1.86877316814E+003
+5.26350584307E+007, +8.17360379271E+002, -1.85343316433E+003
+5.28018363940E+007, +7.64473208957E+002, -1.83835035495E+003
+5.29686143573E+007, +7.28249433394E+002, -1.81575550859E+003
+5.31353923205E+007, +6.99453980348E+002, -1.82851290761E+003
+5.33021702838E+007, +6.63454548685E+002, -1.80086907569E+003
+5.34689482471E+007, +6.33541035831E+002, -1.77597822972E+003
