"# Channel 1"
"# Trace 1"
Frequency, Formatted Data, Formatted Data
+1.00000000000E+005, +6.47817343660E+001, +2.68239357364E+000
+2.66777963272E+005, +6.46432860564E+001, +8.08068904242E+000
+4.33555926544E+005, +6.46142870506E+001, +1.31355889499E+001
+6.00333889816E+005, +6.46914357570E+001, +1.82336566981E+001
+7.67111853088E+005, +6.47438598582E+001, +2.32895807910E+001
+9.33889816361E+005, +6.46646671533E+001, +2.83453794098E+001
+1.10066777963E+006, +6.47853234075E+001, +3.35483930379E+001
+1.26744574290E+006, +6.47977426362E+001, +3.86478410276E+001
+1.43422370618E+006, +6.49102502932E+001, +4.37753149796E+001
+1.60100166945E+006, +6.48538215400E+001, +4.87147557400E+001
+1.76777963272E+006, +6.48710117706E+001, +5.39262931583E+001
+1.93455759599E+006, +6.47412641474E+001, +5.90057507034E+001
+2.10133555927E+006, +6.47610841036E+001, +6.41163016636E+001
+2.26811352254E+006, +6.48863757904E+001, +6.91886593390E+001
+2.43489148581E+006, +6.50194362353E+001, +7.44854244779E+001
+2.60166944908E+006, +6.48072461457E+001, +7.94941492308E+001
+2.76844741235E+006, +6.50538194544E+001, +8.46608406116E+001
+2.93522537563E+006, +6.49683777871E+001, +8.97449381483E+001
+3.10200333890E+006, +6.49890191956E+001, +9.45865440583E+001
+3.26878130217E+006, +6.50581849812E+001, +1.00223393192E+002
+3.43555926544E+006, +6.51861498322E+001, +1.05157894815E+002
+3.60233722871E+006, +6.53986127002E+001, +1.10225278105E+002
+3.76911519199E+006, +6.54596158509E+001, +1.15557584618E+002
+3.93589315526E+006, +6.52592473645E+001, +1.20555655096E+002
+4.10267111853E+006, +6.52774750336E+001, +1.26054581204E+002
+4.26944908180E+006, +6.55673573152E+001, +1.31393116525E+002
+4.43622704508E+006, +6.52226858848E+001, +1.36199043287E+002
+4.60300500835E+006, +6.56182809823E+001, +1.41511696673E+002
+4.76978297162E+006, +6.55094078743E+001, +1.46945923466E+002
+4.93656093489E+006, +6.59421456320E+001, +1.52276654813E+002
+5.10333889816E+006, +6.59257825725E+001, +1.57065816575E+002
+5.27011686144E+006, +6.64160165874E+001, +1.62351109030E+002
+5.43689482471E+006, +6.60929927083E+001, +1.67839493287E+002
+5.60367278798E+006, +6.66511128835E+001, +1.73363013971E+002
+5.77045075125E+006, +6.64874815144E+001, +1.78534578455E+002
+5.93722871452E+006, +6.67936300853E+001, +1.83635943814E+002
+6.10400667780E+006, +6.67326031508E+001, +1.89155068411E+002
+6.27078464107E+006, +6.72939193127E+001, +1.94289483062E+002
+6.43756260434E+006, +6.73582655282E+001, +1.99491822381E+002
+6.60434056761E+006, +6.75887105319E+001, +2.04690555414E+002
+6.77111853088E+006, +6.78757047266E+001, +2.10051935089E+002
+6.93789649416E+006, +6.82003792183E+001, +2.15377936784E+002
+7.10467445743E+006, +6.79849314666E+001, +2.20827193304E+002
+7.27145242070E+006, +6.81433913135E+001, +2.25979738376E+002
+7.43823038397E+006, +6.84576810240E+001, +2.31439809498E+002
+7.60500834725E+006, +6.80789932755E+001, +2.36887666840E+002
+7.77178631052E+006, +6.88817339561E+001, +2.42461245004E+002
+7.93856427379E+006, +6.86065921571E+001, +2.47839131530E+002
+8.10534223706E+006, +6.89808052848E+001, +2.53128305387E+002
+8.27212020033E+006, +6.90112244398E+001, +2.58791285565E+002
+8.43889816361E+006, +6.91167324863E+001, +2.64769611924E+002
+8.60567612688E+006, +6.91923824492E+001, +2.70389573683E+002
+8.77245409015E+006, +6.89769382614E+001, +2.75859711499E+002
+8.93923205342E+006, +6.95222625398E+001, +2.81838249547E+002
+9.10601001669E+006, +6.92877057233E+001, +2.87952985942E+002
+9.27278797997E+006, +7.00098843537E+001, +2.93112379054E+002
+9.43956594324E+006, +6.95812430739E+001, +2.99483890704E+002
+9.60634390651E+006, +6.97007947291E+001, +3.04801570468E+002
+9.77312186978E+006, +6.97931793694E+001, +3.10631703883E+002
+9.93989983306E+006, +7.02685072863E+001, +3.16755095051E+002
+1.01066777963E+007, +7.01644657266E+001, +3.22414338217E+002
+1.02734557596E+007, +7.11004418854E+001, +3.28855637089E+002
+1.04402337229E+007, +7.07986725894E+001, +3.34883467830E+002
+1.06070116861E+007, +7.03121250207E+001, +3.40087752681E+002
+1.07737896494E+007, +7.17296340401E+001, +3.46883552617E+002
+1.09405676127E+007, +7.18865016093E+001, +3.52332666959E+002
+1.11073455760E+007, +7.15311970477E+001, +3.58649255308E+002
+1.12741235392E+007, +7.24706054907E+001, +3.64130815353E+002
+1.14409015025E+007, +7.27537770311E+001, +3.70869152439E+002
+1.16076794658E+007, +7.30873550574E+001, +3.77360066106E+002
+1.17744574290E+007, +7.31856908153E+001, +3.83478924057E+002
+1.19412353923E+007, +7.25939068931E+001, +3.90119313812E+002
+1.21080133556E+007, +7.38959177649E+001, +3.96644115743E+002
+1.22747913189E+007, +7.37555180215E+001, +4.02941042820E+002
+1.24415692821E+007, +7.33157528820E+001, +4.09083812044E+002
+1.26083472454E+007, +7.35605443987E+001, +4.16145187069E+002
+1.27751252087E+007, +7.40234605825E+001, +4.21994540983E+002
+1.29419031720E+007, +7.37521968215E+001, +4.28779970416E+002
+1.31086811352E+007, +7.47321049063E+001, +4.34864856401E+002
+1.32754590985E+007, +7.38983216856E+001, +4.42430846094E+002
+1.34422370618E+007, +7.57660915021E+001, +4.47809924227E+002
+1.36090150250E+007, +7.69720291576E+001, +4.54557408534E+002
+1.37757929883E+007, +7.61753850895E+001, +4.61727825979E+002
+1.39425709516E+007, +7.61263797744E+001, +4.67470966839E+002
+1.41093489149E+007, +7.72657097327E+001, +4.76720226071E+002
+1.42761268781E+007, +7.76001860385E+001, +4.81623006702E+002
+1.44429048414E+007, +7.79162186319E+001, +4.89130750164E+002
+1.46096828047E+007, +7.89974006618E+001, +4.97936560151E+002
+1.47764607679E+007, +8.00929753490E+001, +5.03935244219E+002
+1.49432387312E+007, +7.93104893241E+001, +5.11444187478E+002
+1.51100166945E+007, +8.00245937543E+001, +5.18421824187E+002
+1.52767946578E+007, +8.09448607284E+001, +5.25662678507E+002
+1.54435726210E+007, +8.05682962878E+001, +5.32219078977E+002
+1.56103505843E+007, +8.30039014649E+001, +5.39018088462E+002
+1.57771285476E+007, +8.18431284788E+001, +5.46520467365E+002
+1.59439065109E+007, +8.20147279236E+001, +5.52724401254E+002
+1.61106844741E+007, +8.37879050210E+001, +5.62643080919E+002
+1.62774624374E+007, +8.51697148916E+001, +5.69161518213E+002
+1.64442404007E+007, +8.44516657361E+001, +5.76296551278E+002
+1.66110183639E+007, +8.69981699880E+001, +5.83686917028E+002
+1.67777963272E+007, +8.63383696327E+001, +5.93329401083E+002
+1.69445742905E+007, +8.78387764728E+001, +5.98751879512E+002
+1.71113522538E+007, +8.34804960930E+001, +6.07268825260E+002
+1.72781302170E+007, +8.54417747249E+001, +6.16397403292E+002
+1.74449081803E+007, +8.51274679937E+001, +6.24072264967E+002
+1.76116861436E+007, +8.88600888231E+001, +6.33120977096E+002
+1.77784641068E+007, +8.65782334345E+001, +6.37357242997E+002
+1.79452420701E+007, +9.00948068679E+001, +6.48060226471E+002
+1.81120200334E+007, +8.98528350492E+001, +6.52885968634E+002
+1.82787979967E+007, +9.03000147147E+001, +6.64156650883E+002
+1.84455759599E+007, +9.22547045012E+001, +6.73103839599E+002
+1.86123539232E+007, +9.30366342007E+001, +6.80858807999E+002
+1.87791318865E+007, +9.17803846826E+001, +6.90653778640E+002
+1.89459098497E+007, +9.11265779107E+001, +6.99769846770E+002
+1.91126878130E+007, +9.62802224330E+001, +7.06706129622E+002
+1.92794657763E+007, +9.71085714953E+001, +7.19454893619E+002
+1.94462437396E+007, +9.76775249873E+001, +7.28857965536E+002
+1.96130217028E+007, +9.84778250412E+001, +7.36924390940E+002
+1.97797996661E+007, +9.98742275816E+001, +7.44680269211E+002
+1.99465776294E+007, +9.68681374039E+001, +7.57290504578E+002
+2.01133555927E+007, +9.86013512899E+001, +7.64996362495E+002
+2.02801335559E+007, +1.01268920402E+002, +7.77623766175E+002
+2.04469115192E+007, +1.02794351235E+002, +7.83336177974E+002
+2.06136894825E+007, +1.04927901051E+002, +7.94108478557E+002
+2.07804674457E+007, +1.05783511440E+002, +8.07601378726E+002
+2.09472454090E+007, +1.05889926805E+002, +8.17996090537E+002
+2.11140233723E+007, +1.04916038715E+002, +8.24877512682E+002
+2.12808013356E+007, +1.10484093365E+002, +8.34242859924E+002
+2.14475792988E+007, +1.12049313507E+002, +8.48521885374E+002
+2.16143572621E+007, +1.12809367096E+002, +8.57857835179E+002
+2.17811352254E+007, +1.13905255440E+002, +8.69240387526E+002
+2.19479131886E+007, +1.19469881279E+002, +8.78168590819E+002
+2.21146911519E+007, +1.22496097511E+002, +8.86033275102E+002
+2.22814691152E+007, +1.20909289419E+002, +9.00828153127E+002
+2.24482470785E+007, +1.21836331038E+002, +9.10507133254E+002
+2.26150250417E+007, +1.26697318612E+002, +9.23264873957E+002
+2.27818030050E+007, +1.26881293464E+002, +9.35049385754E+002
+2.29485809683E+007, +1.31446149671E+002, +9.40873239416E+002
+2.31153589316E+007, +1.32464106671E+002, +9.57711850146E+002
+2.32821368948E+007, +1.40363891947E+002, +9.72594795592E+002
+2.34489148581E+007, +1.35352704046E+002, +9.79651226792E+002
+2.36156928214E+007, +1.43228308817E+002, +9.95786628169E+002
+2.37824707846E+007, +1.43783870376E+002, +1.00575831580E+003
+2.39492487479E+007, +1.41518021945E+002, +1.01498560636E+003
+2.41160267112E+007, +1.46663903548E+002, +1.02991492975E+003
+2.42828046745E+007, +1.48016514038E+002, +1.04303621333E+003
+2.44495826377E+007, +1.52070148840E+002, +1.05655470330E+003
+2.46163606010E+007, +1.55323028333E+002, +1.07021858245E+003
+2.47831385643E+007, +1.54629991805E+002, +1.08369722642E+003
+2.49499165275E+007, +1.66891137596E+002, +1.09661854037E+003
+2.51166944908E+007, +1.66892296573E+002, +1.10632781625E+003
+2.52834724541E+007, +1.75193147230E+002, +1.12433873616E+003
+2.54502504174E+007, +1.75342070316E+002, +1.13517282668E+003
+2.56170283806E+007, +1.77528096496E+002, +1.15820537253E+003
+2.57838063439E+007, +1.83185555033E+002, +1.17096710652E+003
+2.59505843072E+007, +1.93301153262E+002, +1.18637439284E+003
+2.61173622705E+007, +1.92020402787E+002, +1.19532373429E+003
+2.62841402337E+007, +1.87213167657E+002, +1.20894207560E+003
+2.64509181970E+007, +1.93354573866E+002, +1.23144389019E+003
+2.66176961603E+007, +2.06572614477E+002, +1.25038202482E+003
+2.67844741235E+007, +2.01734736513E+002, +1.25980283307E+003
+2.69512520868E+007, +2.02858379438E+002, +1.27481804258E+003
+2.71180300501E+007, +2.12290333074E+002, +1.28918822741E+003
+2.72848080134E+007, +2.15030545664E+002, +1.30977719821E+003
+2.74515859766E+007, +2.21090748564E+002, +1.32343262807E+003
+2.76183639399E+007, +2.21908748794E+002, +1.33419708431E+003
+2.77851419032E+007, +2.19456797035E+002, +1.35765658762E+003
+2.79519198664E+007, +2.27920419804E+002, +1.37307404263E+003
+2.81186978297E+007, +2.29940835789E+002, +1.38762113638E+003
+2.82854757930E+007, +2.39496675086E+002, +1.39790821514E+003
+2.84522537563E+007, +2.32160317693E+002, +1.43679209814E+003
+2.86190317195E+007, +2.44615552804E+002, +1.44720603131E+003
+2.87858096828E+007, +2.62043758133E+002, +1.45964276083E+003
+2.89525876461E+007, +2.61204709685E+002, +1.49409218853E+003
+2.91193656093E+007, +2.59748130924E+002, +1.49758820047E+003
+2.92861435726E+007, +2.60915923474E+002, +1.53163894290E+003
+2.94529215359E+007, +2.73637808279E+002, +1.54327754670E+003
+2.96196994992E+007, +2.75774518214E+002, +1.57269974869E+003
+2.97864774624E+007, +2.94705654174E+002, +1.59874178670E+003
+2.99532554257E+007, +2.97851226340E+002, +1.61352875696E+003
+3.01200333890E+007, +2.91963233529E+002, +1.64708256773E+003
+3.02868113523E+007, +3.05345387494E+002, +1.67416316259E+003
+3.04535893155E+007, +2.96550765701E+002, +1.70594676411E+003
+3.06203672788E+007, +3.19927588523E+002, +1.72496454794E+003
+3.07871452421E+007, +3.28502713778E+002, +1.74810793469E+003
+3.09539232053E+007, +3.41923686786E+002, +1.76447860119E+003
+3.11207011686E+007, +3.45359450905E+002, +1.82347953772E+003
+3.12874791319E+007, +3.57460222729E+002, +1.83303377368E+003
+3.14542570952E+007, +3.52541737239E+002, +1.86442134864E+003
+3.16210350584E+007, +3.60235333493E+002, +1.90782009329E+003
+3.17878130217E+007, +3.79546799942E+002, +1.93716081020E+003
+3.19545909850E+007, +3.93666805835E+002, +1.96941509508E+003
+3.21213689482E+007, +3.80941786288E+002, +2.00046388745E+003
+3.22881469115E+007, +4.04103115888E+002, +2.03722177842E+003
+3.24549248748E+007, +4.09334144303E+002, +2.07699241683E+003
+3.26217028381E+007, +4.12134074888E+002, +2.10202264945E+003
+3.27884808013E+007, +4.41145776327E+002, +2.13712635137E+003
+3.29552587646E+007, +4.64676185931E+002, +2.14601352410E+003
+3.31220367279E+007, +4.74239125273E+002, +2.20759566403E+003
+3.32888146912E+007, +4.94757834491E+002, +2.27320627406E+003
+3.34555926544E+007, +4.94218159589E+002, +2.30305507907E+003
+3.36223706177E+007, +5.19029902902E+002, +2.31896054538E+003
+3.37891485810E+007, +5.14312840227E+002, +2.37102312473E+003
+3.39559265442E+007, +5.51293080996E+002, +2.43752999722E+003
+3.41227045075E+007, +5.62190880047E+002, +2.47709362541E+003
+3.42894824708E+007, +5.78537960651E+002, +2.54191746665E+003
+3.44562604341E+007, +6.13017478916E+002, +2.59852099047E+003
+3.46230383973E+007, +6.34556745773E+002, +2.66309758176E+003
+3.47898163606E+007, +6.59225199776E+002, +2.70844023764E+003
+3.49565943239E+007, +7.14363382640E+002, +2.75189028673E+003
+3.51233722871E+007, +7.07233714064E+002, +2.83303665729E+003
+3.52901502504E+007, +7.36641199073E+002, +2.84310837364E+003
+3.54569282137E+007, +7.65913559838E+002, +2.94339234973E+003
+3.56237061770E+007, +7.76765565185E+002, +3.02285454683E+003
+3.57904841402E+007, +7.99409179135E+002, +3.11149721337E+003
+3.59572621035E+007, +9.05021607821E+002, +3.17435144297E+003
+3.61240400668E+007, +8.94495141733E+002, +3.24933983393E+003
+3.62908180301E+007, +1.03172989799E+003, +3.37229643921E+003
+3.64575959933E+007, +9.88916483854E+002, +3.47058461999E+003
+3.66243739566E+007, +1.08352389186E+003, +3.48123468122E+003
+3.67911519199E+007, +1.18308285079E+003, +3.64099403326E+003
+3.69579298831E+007, +1.12537336535E+003, +3.67951285226E+003
+3.71247078464E+007, +1.23655434349E+003, +3.82741270241E+003
+3.72914858097E+007, +1.36387052772E+003, +3.98578645514E+003
+3.74582637730E+007, +1.51500368936E+003, +4.12434655792E+003
+3.76250417362E+007, +1.51865365385E+003, +4.16531491777E+003
+3.77918196995E+007, +1.70462500027E+003, +4.35197843881E+003
+3.79585976628E+007, +1.84290493936E+003, +4.45650888868E+003
+3.81253756260E+007, +1.99525862404E+003, +4.58150724193E+003
+3.82921535893E+007, +2.12244850394E+003, +4.64418567379E+003
+3.84589315526E+007, +2.28954235510E+003, +4.93562431652E+003
+3.86257095159E+007, +2.60941638213E+003, +5.11630895569E+003
+3.87924874791E+007, +2.66956700043E+003, +5.23422940932E+003
+3.89592654424E+007, +2.97707880166E+003, +5.26139112297E+003
+3.91260434057E+007, +3.40999030005E+003, +5.59403067939E+003
+3.92928213689E+007, +3.48236431492E+003, +5.58978191250E+003
+3.94595993322E+007, +4.02037061738E+003, +5.99111964530E+003
+3.96263772955E+007, +4.17676901865E+003, +6.08129048766E+003
+3.97931552588E+007, +4.60545181593E+003, +6.48056903148E+003
+3.99599332220E+007, +5.11816797791E+003, +6.40391821998E+003
+4.01267111853E+007, +5.74355239386E+003, +6.29272103868E+003
+4.02934891486E+007, +6.39577172239E+003, +6.70277576464E+003
+4.04602671119E+007, +6.59911515900E+003, +6.18925552327E+003
+4.06270450751E+007, +7.88827789573E+003, +6.07709954972E+003
+4.07938230384E+007, +8.71811027355E+003, +5.77103120945E+003
+4.09606010017E+007, +9.53243828051E+003, +5.58926715205E+003
+4.11273789649E+007, +1.02637507498E+004, +4.86471580572E+003
+4.12941569282E+007, +1.14620131427E+004, +3.97246360990E+003
+4.14609348915E+007, +1.21918002021E+004, +2.11272369524E+003
+4.16277128548E+007, +1.22117119174E+004, +2.24950167577E+003
+4.17944908180E+007, +1.22421148975E+004, +1.49575643282E+003
+4.19612687813E+007, +1.30481551851E+004, -7.13385896456E+002
+4.21280467446E+007, +1.25752087790E+004, -1.81977556865E+003
+4.22948247078E+007, +1.14965301321E+004, -2.29470924247E+003
+4.24616026711E+007, +1.03564027732E+004, -3.42525405610E+003
+4.26283806344E+007, +9.92131146736E+003, -4.27219481158E+003
+4.27951585977E+007, +9.37115387440E+003, -6.06936313548E+003
+4.29619365609E+007, +8.59133954301E+003, -5.39364773000E+003
+4.31287145242E+007, +7.83266034619E+003, -5.57222929825E+003
+4.32954924875E+007, +7.14811888808E+003, -5.84760932827E+003
+4.34622704508E+007, +6.08684641358E+003, -6.49114715723E+003
+4.36290484140E+007, +5.79852700833E+003, -5.97649367709E+003
+4.37958263773E+007, +4.77580494246E+003, -5.94354022265E+003
+4.39626043406E+007, +4.57095904244E+003, -5.68382721795E+003
+4.41293823038E+007, +4.07916797041E+003, -5.52942993484E+003
+4.42961602671E+007, +3.80368969906E+003, -5.57536806738E+003
+4.44629382304E+007, +3.30865538946E+003, -5.34010006467E+003
+4.46297161937E+007, +3.15528937125E+003, -5.13931040990E+003
+4.47964941569E+007, +2.87666442169E+003, -5.03803310327E+003
+4.49632721202E+007, +2.52791296508E+003, -4.83056881726E+003
+4.51300500835E+007, +2.49159897112E+003, -4.68668969661E+003
+4.52968280467E+007, +2.24019037003E+003, -4.49031762464E+003
+4.54636060100E+007, +2.03369747958E+003, -4.22477936686E+003
+4.56303839733E+007, +1.84277647076E+003, -4.16808524352E+003
+4.57971619366E+007, +1.73032921285E+003, -4.00414777195E+003
+4.59639398998E+007, +1.54646305418E+003, -3.77910242727E+003
+4.61307178631E+007, +1.56079290002E+003, -3.66869939439E+003
+4.62974958264E+007, +1.44831611408E+003, -3.55069421338E+003
+4.64642737896E+007, +1.38321358177E+003, -3.47281294955E+003
+4.66310517529E+007, +1.25631452031E+003, -3.30951669291E+003
+4.67978297162E+007, +1.26827929966E+003, -3.25139181969E+003
+4.69646076795E+007, +1.17057056302E+003, -3.10511062842E+003
+4.71313856427E+007, +1.17518082110E+003, -3.02992719745E+003
+4.72981636060E+007, +1.05029297935E+003, -2.93933357633E+003
+4.74649415693E+007, +1.02297398398E+003, -2.88481805305E+003
+4.76317195326E+007, +1.06106722588E+003, -2.74961577366E+003
+4.77984974958E+007, +9.94848224681E+002, -2.67672025831E+003
+4.79652754591E+007, +9.77640536778E+002, -2.64177801354E+003
+4.81320534224E+007, +9.44060991251E+002, -2.55193036283E+003
+4.82988313856E+007, +9.30516228465E+002, -2.48231515845E+003
+4.84656093489E+007, +8.99855276616E+002, -2.39889644131E+003
+4.86323873122E+007, +8.97532277385E+002, -2.36899205750E+003
+4.87991652755E+007, +8.70502967102E+002, -2.27924327225E+003
+4.89659432387E+007, +8.56692753935E+002, -2.27409391470E+003
+4.91327212020E+007, +8.54283697065E+002, -2.17788821882E+003
+4.92994991653E+007, +8.51626587717E+002, -2.14011121415E+003
+4.94662771285E+007, +8.39396492482E+002, -2.09750987025E+003
+4.96330550918E+007, +8.31014042605E+002, -2.05809178739E+003
+4.97998330551E+007, +8.23231442729E+002, -2.02734417423E+003
+4.99666110184E+007, +8.25390777923E+002, -1.97278049360E+003
+5.01333889816E+007, +8.04872752264E+002, -1.96631606307E+003
+5.03001669449E+007, +7.87320297653E+002, -1.95122693950E+003
+5.04669449082E+007, +7.72864793287E+002, -1.90342154215E+003
+5.06337228715E+007, +7.63891610829E+002, -1.88247871992E+003
+5.08005008347E+007, +7.55457001640E+002, -1.89499018547E+003
+5.09672787980E+007, +7.58302837730E+002, -1.85832330735E+003
+5.11340567613E+007, +7.17295448852E+002, -1.82669276008E+003
+5.13008347245E+007, +6.98722587426E+002, -1.82021559173E+003
+5.14676126878E+007, +6.85908800252E+002, -1.80036125618E+003
+5.16343906511E+007, +6.62172552851E+002, -1.77396183617E+003
+5.18011686144E+007, +6.47712663470E+002, -1.76398763987E+003
+5.19679465776E+007, +6.10873194702E+002, -1.73836153894E+003
+5.21347245409E+007, +5.91203629135E+002, -1.70765197346E+003
+5.23015025042E+007, +5.70130068732E+002, -1.66207966885E+003
+5.24682804674E+007, +5.33309567898E+002, -1.64639880616E+003
+5.26350584307E+007, +5.28386653483E+002, -1.62900053742E+003
+5.28018363940E+007, +5.03752553201E+002, -1.60267234444E+003
+5.29686143573E+007, +4.86951248882E+002, -1.57474718515E+003
+5.31353923205E+007, +4.82671465079E+002, -1.54533250668E+003
+5.33021702838E+007, +4.62893723522E+002, -1.52106373689E+003
+5.34689482471E+007, +4.49939973639E+002, -1.48753829331E+003
