"# Channel 1"
"# Trace 1"
Frequency, Formatted Data, Formatted Data
+1.00000000000E+005, +1.26841021602E+001, +2.82296478498E+000
+2.66777963272E+005, +1.26811427323E+001, +7.50504103942E+000
+4.33555926544E+005, +1.26691369499E+001, +1.22062249227E+001
+6.00333889816E+005, +1.27067598958E+001, +1.68826937335E+001
+7.67111853088E+005, +1.27498089570E+001, +2.15704182736E+001
+9.33889816361E+005, +1.27514493967E+001, +2.62090426823E+001
+1.10066777963E+006, +1.26971179665E+001, +3.09512467089E+001
+1.26744574290E+006, +1.27459080576E+001, +3.55870345843E+001
+1.43422370618E+006, +1.26972907814E+001, +4.03962218299E+001
+1.60100166945E+006, +1.27801861271E+001, +4.49756612606E+001
+1.76777963272E+006, +1.27819711901E+001, +4.96580372191E+001
+1.93455759599E+006, +1.27224073257E+001, +5.42400887974E+001
+2.10133555927E+006, +1.27488526220E+001, +5.89413025962E+001
+2.26811352254E+006, +1.28908830805E+001, +6.36589982151E+001
+2.43489148581E+006, +1.27735376696E+001, +6.84756932938E+001
+2.60166944908E+006, +1.27991247667E+001, +7.30752808771E+001
+2.76844741235E+006, +1.27631580357E+001, +7.78979751793E+001
+2.93522537563E+006, +1.28030861847E+001, +8.26265686269E+001
+3.10200333890E+006, +1.29882135012E+001, +8.72460700184E+001
+3.26878130217E+006, +1.27458976126E+001, +9.21273900969E+001
+3.43555926544E+006, +1.30139749876E+001, +9.67502984471E+001
+3.60233722871E+006, +1.30899222575E+001, +1.01633292561E+002
+3.76911519199E+006, +1.31901307172E+001, +1.06535380481E+002
+3.93589315526E+006, +1.32574293297E+001, +1.10925031516E+002
+4.10267111853E+006, +1.22741559032E+001, +1.15174197325E+002
+4.26944908180E+006, +1.28146023674E+001, +1.21301770130E+002
+4.43622704508E+006, +1.30893080232E+001, +1.25554886579E+002
+4.60300500835E+006, +1.32496498635E+001, +1.30532431322E+002
+4.76978297162E+006, +1.30601577745E+001, +1.35084954347E+002
+4.93656093489E+006, +1.33526432267E+001, +1.40089527050E+002
+5.10333889816E+006, +1.32813982979E+001, +1.44578047957E+002
+5.27011686144E+006, +1.38396494642E+001, +1.49834006730E+002
+5.43689482471E+006, +1.36044539660E+001, +1.54762112783E+002
+5.60367278798E+006, +1.39789255952E+001, +1.59780693194E+002
+5.77045075125E+006, +1.37733490783E+001, +1.64213678232E+002
+5.93722871452E+006, +1.40850616121E+001, +1.69184352470E+002
+6.10400667780E+006, +1.41081552786E+001, +1.74163657268E+002
+6.27078464107E+006, +1.44110891099E+001, +1.78946561043E+002
+6.43756260434E+006, +1.46818976178E+001, +1.83887222528E+002
+6.60434056761E+006, +1.47821152712E+001, +1.88581940211E+002
+6.77111853088E+006, +1.51098330743E+001, +1.93484911394E+002
+6.93789649416E+006, +1.52557011483E+001, +1.98501357039E+002
+7.10467445743E+006, +1.52265815919E+001, +2.03175120161E+002
+7.27145242070E+006, +1.53710820107E+001, +2.08050497713E+002
+7.43823038397E+006, +1.51892409927E+001, +2.12969087010E+002
+7.60500834725E+006, +1.53491847680E+001, +2.18059143814E+002
+7.77178631052E+006, +1.54824282252E+001, +2.23193150620E+002
+7.93856427379E+006, +1.54383802648E+001, +2.27974418270E+002
+8.10534223706E+006, +1.55554982229E+001, +2.32934917754E+002
+8.27212020033E+006, +1.58672822969E+001, +2.38282146417E+002
+8.43889816361E+006, +1.54140942102E+001, +2.43392920060E+002
+8.60567612688E+006, +1.51629894831E+001, +2.48580281869E+002
+8.77245409015E+006, +1.52153686559E+001, +2.53599592389E+002
+8.93923205342E+006, +1.55472139797E+001, +2.58937837180E+002
+9.10601001669E+006, +1.53371599321E+001, +2.64137441762E+002
+9.27278797997E+006, +1.54622391979E+001, +2.69366269613E+002
+9.43956594324E+006, +1.54389769624E+001, +2.74533154131E+002
+9.60634390651E+006, +1.54936685484E+001, +2.80076495811E+002
+9.77312186978E+006, +1.50626497375E+001, +2.85043107652E+002
+9.93989983306E+006, +1.56611101783E+001, +2.90424681415E+002
+1.01066777963E+007, +1.51735650387E+001, +2.95996936743E+002
+1.02734557596E+007, +1.56363802708E+001, +3.01807295419E+002
+1.04402337229E+007, +1.52492804756E+001, +3.06858500748E+002
+1.06070116861E+007, +1.55990439488E+001, +3.12390608324E+002
+1.07737896494E+007, +1.57810398073E+001, +3.18201637750E+002
+1.09405676127E+007, +1.61869301563E+001, +3.23950642869E+002
+1.11073455760E+007, +1.58861003647E+001, +3.29550237240E+002
+1.12741235392E+007, +1.62153516259E+001, +3.34981969033E+002
+1.14409015025E+007, +1.62555653728E+001, +3.40429130859E+002
+1.16076794658E+007, +1.63551845142E+001, +3.46033792130E+002
+1.17744574290E+007, +1.65370049684E+001, +3.52584207922E+002
+1.19412353923E+007, +1.68800101492E+001, +3.57980044963E+002
+1.21080133556E+007, +1.61965135203E+001, +3.63697548190E+002
+1.22747913189E+007, +1.69189447383E+001, +3.69681495167E+002
+1.24415692821E+007, +1.60807233079E+001, +3.75446288908E+002
+1.26083472454E+007, +1.63473143204E+001, +3.80978796616E+002
+1.27751252087E+007, +1.69437144764E+001, +3.87069536438E+002
+1.29419031720E+007, +1.61248264431E+001, +3.92773675131E+002
+1.31086811352E+007, +1.72576734333E+001, +3.99176461364E+002
+1.32754590985E+007, +1.71334013884E+001, +4.05179002846E+002
+1.34422370618E+007, +1.70420785348E+001, +4.11044783121E+002
+1.36090150250E+007, +1.89636859191E+001, +4.17018123179E+002
+1.37757929883E+007, +1.73268836314E+001, +4.23077869341E+002
+1.39425709516E+007, +1.82320224187E+001, +4.29446242992E+002
+1.41093489149E+007, +1.84875412515E+001, +4.35595781696E+002
+1.42761268781E+007, +1.92242562752E+001, +4.41696874314E+002
+1.44429048414E+007, +1.87481702411E+001, +4.47855349834E+002
+1.46096828047E+007, +1.92028914492E+001, +4.55273185361E+002
+1.47764607679E+007, +1.93563339007E+001, +4.59889094148E+002
+1.49432387312E+007, +1.95722738910E+001, +4.67768605203E+002
+1.51100166945E+007, +1.88899963013E+001, +4.74135428200E+002
+1.52767946578E+007, +2.02331375514E+001, +4.80204536145E+002
+1.54435726210E+007, +2.01450824859E+001, +4.87360171216E+002
+1.56103505843E+007, +2.09350280049E+001, +4.93636921150E+002
+1.57771285476E+007, +2.07867993655E+001, +4.99887638861E+002
+1.59439065109E+007, +2.03319823214E+001, +5.07198982759E+002
+1.61106844741E+007, +2.18355781422E+001, +5.13923516236E+002
+1.62774624374E+007, +2.18558475935E+001, +5.20767044143E+002
+1.64442404007E+007, +2.03660096695E+001, +5.27190966577E+002
+1.66110183639E+007, +2.12928895986E+001, +5.34561971104E+002
+1.67777963272E+007, +2.16873642358E+001, +5.43053346613E+002
+1.69445742905E+007, +2.36797984249E+001, +5.50123557994E+002
+1.71113522538E+007, +1.99475377464E+001, +5.56026514626E+002
+1.72781302170E+007, +2.23549584977E+001, +5.63878686280E+002
+1.74449081803E+007, +2.02042050161E+001, +5.70091825438E+002
+1.76116861436E+007, +2.42096344745E+001, +5.78556390604E+002
+1.77784641068E+007, +2.16464896745E+001, +5.84779044873E+002
+1.79452420701E+007, +2.44137592531E+001, +5.92021198068E+002
+1.81120200334E+007, +2.52262327597E+001, +5.98053734273E+002
+1.82787979967E+007, +2.36475665466E+001, +6.06915195883E+002
+1.84455759599E+007, +2.57361660973E+001, +6.15406146666E+002
+1.86123539232E+007, +2.62258387533E+001, +6.22802153616E+002
+1.87791318865E+007, +2.61976145090E+001, +6.30770669632E+002
+1.89459098497E+007, +2.63149604531E+001, +6.39987434738E+002
+1.91126878130E+007, +2.80510665276E+001, +6.47309917378E+002
+1.92794657763E+007, +2.78651105668E+001, +6.53345167365E+002
+1.94462437396E+007, +2.61959623113E+001, +6.63193086567E+002
+1.96130217028E+007, +2.87626148423E+001, +6.72162251793E+002
+1.97797996661E+007, +3.01028446849E+001, +6.79434847181E+002
+1.99465776294E+007, +2.67058302038E+001, +6.87035622285E+002
+2.01133555927E+007, +2.89391256170E+001, +6.96011265066E+002
+2.02801335559E+007, +3.04312885228E+001, +7.07067788991E+002
+2.04469115192E+007, +3.13840848872E+001, +7.13703777415E+002
+2.06136894825E+007, +3.11271092218E+001, +7.23406474809E+002
+2.07804674457E+007, +3.25606983891E+001, +7.33663656653E+002
+2.09472454090E+007, +3.16382619383E+001, +7.45279559498E+002
+2.11140233723E+007, +3.32712766852E+001, +7.49807970521E+002
+2.12808013356E+007, +3.60224643441E+001, +7.60800644546E+002
+2.14475792988E+007, +3.47374315668E+001, +7.69988370583E+002
+2.16143572621E+007, +3.75586895108E+001, +7.79396450592E+002
+2.17811352254E+007, +3.45000643559E+001, +7.85961479971E+002
+2.19479131886E+007, +4.02529559920E+001, +7.97894788384E+002
+2.21146911519E+007, +4.41680407770E+001, +8.06297159553E+002
+2.22814691152E+007, +3.93258576312E+001, +8.19350675595E+002
+2.24482470785E+007, +4.17556119735E+001, +8.32142203663E+002
+2.26150250417E+007, +4.33304061605E+001, +8.36872612473E+002
+2.27818030050E+007, +4.50389734563E+001, +8.50750421715E+002
+2.29485809683E+007, +4.78166788409E+001, +8.58579615608E+002
+2.31153589316E+007, +4.44346502539E+001, +8.70725680692E+002
+2.32821368948E+007, +5.13212921246E+001, +8.77879273435E+002
+2.34489148581E+007, +5.27192612138E+001, +8.87933305622E+002
+2.36156928214E+007, +5.39502831019E+001, +9.01336522705E+002
+2.37824707846E+007, +5.35211458622E+001, +9.09908973551E+002
+2.39492487479E+007, +5.61263650816E+001, +9.24473963576E+002
+2.41160267112E+007, +5.68277373923E+001, +9.34181367472E+002
+2.42828046745E+007, +5.46814657915E+001, +9.46416765431E+002
+2.44495826377E+007, +6.30765492991E+001, +9.63003266939E+002
+2.46163606010E+007, +6.26814697566E+001, +9.70661831251E+002
+2.47831385643E+007, +6.24598684027E+001, +9.83758609610E+002
+2.49499165275E+007, +6.62498474252E+001, +9.95657646062E+002
+2.51166944908E+007, +6.96362345527E+001, +1.00246043113E+003
+2.52834724541E+007, +6.95954752801E+001, +1.02047301588E+003
+2.54502504174E+007, +7.33036050188E+001, +1.03070461209E+003
+2.56170283806E+007, +7.31671043110E+001, +1.04396557923E+003
+2.57838063439E+007, +7.31847604583E+001, +1.05720470638E+003
+2.59505843072E+007, +7.94178967747E+001, +1.06651232199E+003
+2.61173622705E+007, +7.90130028639E+001, +1.07841158225E+003
+2.62841402337E+007, +7.87784891321E+001, +1.09638091317E+003
+2.64509181970E+007, +7.80609387189E+001, +1.11129691369E+003
+2.66176961603E+007, +8.21087511316E+001, +1.12629704502E+003
+2.67844741235E+007, +8.69594632001E+001, +1.13815375535E+003
+2.69512520868E+007, +8.80357176583E+001, +1.15082887525E+003
+2.71180300501E+007, +9.30214482584E+001, +1.15938237677E+003
+2.72848080134E+007, +9.32736806275E+001, +1.18043566557E+003
+2.74515859766E+007, +9.88719253210E+001, +1.19263417132E+003
+2.76183639399E+007, +9.31308426451E+001, +1.20434773479E+003
+2.77851419032E+007, +1.03442927004E+002, +1.21678562435E+003
+2.79519198664E+007, +1.02784531897E+002, +1.23481022435E+003
+2.81186978297E+007, +1.07921433825E+002, +1.25129777383E+003
+2.82854757930E+007, +1.09781194992E+002, +1.26114835460E+003
+2.84522537563E+007, +9.53757883228E+001, +1.28934032784E+003
+2.86190317195E+007, +9.45105402342E+001, +1.29833464516E+003
+2.87858096828E+007, +1.21394872138E+002, +1.31256146779E+003
+2.89525876461E+007, +1.17798574987E+002, +1.33377999913E+003
+2.91193656093E+007, +1.08131678090E+002, +1.34253234548E+003
+2.92861435726E+007, +1.15053587506E+002, +1.36683671134E+003
+2.94529215359E+007, +1.15055830129E+002, +1.38405272524E+003
+2.96196994992E+007, +1.18944204514E+002, +1.40425080387E+003
+2.97864774624E+007, +1.27142887075E+002, +1.42460195644E+003
+2.99532554257E+007, +1.30579521564E+002, +1.45264149361E+003
+3.01200333890E+007, +1.27577383454E+002, +1.47256757930E+003
+3.02868113523E+007, +1.20676670085E+002, +1.49041521727E+003
+3.04535893155E+007, +1.29642823646E+002, +1.51797351633E+003
+3.06203672788E+007, +1.26802099237E+002, +1.53822674225E+003
+3.07871452421E+007, +1.32553467578E+002, +1.56543298006E+003
+3.09539232053E+007, +1.34879704497E+002, +1.58866198899E+003
+3.11207011686E+007, +1.35148837582E+002, +1.61920316824E+003
+3.12874791319E+007, +1.44939355180E+002, +1.63395090696E+003
+3.14542570952E+007, +1.46328943481E+002, +1.65813130595E+003
+3.16210350584E+007, +1.46149376049E+002, +1.69215728523E+003
+3.17878130217E+007, +1.52176332465E+002, +1.72477749648E+003
+3.19545909850E+007, +1.68253428412E+002, +1.75139200900E+003
+3.21213689482E+007, +1.49343440409E+002, +1.78387203487E+003
+3.22881469115E+007, +1.49958463340E+002, +1.79914206646E+003
+3.24549248748E+007, +1.64105319534E+002, +1.85058057209E+003
+3.26217028381E+007, +1.57594911033E+002, +1.88888536942E+003
+3.27884808013E+007, +1.72508584110E+002, +1.91541361751E+003
+3.29552587646E+007, +1.72735278531E+002, +1.92783288259E+003
+3.31220367279E+007, +1.84333657935E+002, +1.97092290668E+003
+3.32888146912E+007, +1.87846602845E+002, +2.02855857063E+003
+3.34555926544E+007, +1.91845656531E+002, +2.04846587839E+003
+3.36223706177E+007, +2.15551423035E+002, +2.08899751634E+003
+3.37891485810E+007, +2.13267589794E+002, +2.12426768396E+003
+3.39559265442E+007, +2.22991217511E+002, +2.18780445692E+003
+3.41227045075E+007, +2.11433249684E+002, +2.22240698129E+003
+3.42894824708E+007, +2.29189596341E+002, +2.25166244317E+003
+3.44562604341E+007, +2.40079834290E+002, +2.31737137109E+003
+3.46230383973E+007, +2.67574428462E+002, +2.37349043072E+003
+3.47898163606E+007, +2.65986340775E+002, +2.39823301963E+003
+3.49565943239E+007, +2.84327630076E+002, +2.46431110094E+003
+3.51233722871E+007, +2.79482730863E+002, +2.51014186591E+003
+3.52901502504E+007, +3.17268439763E+002, +2.55212484193E+003
+3.54569282137E+007, +3.06028858027E+002, +2.61736548390E+003
+3.56237061770E+007, +2.90430796598E+002, +2.72177560302E+003
+3.57904841402E+007, +3.18416334946E+002, +2.76528068162E+003
+3.59572621035E+007, +3.75104883116E+002, +2.85502771176E+003
+3.61240400668E+007, +3.55072828482E+002, +2.90259183899E+003
+3.62908180301E+007, +3.87234993213E+002, +3.02603331560E+003
+3.64575959933E+007, +3.65371967927E+002, +3.07214209874E+003
+3.66243739566E+007, +4.65563802280E+002, +3.12644077280E+003
+3.67911519199E+007, +4.71826546262E+002, +3.21465180211E+003
+3.69579298831E+007, +4.75966334157E+002, +3.31006969085E+003
+3.71247078464E+007, +5.04400087408E+002, +3.46278838534E+003
+3.72914858097E+007, +5.31163188162E+002, +3.56120545656E+003
+3.74582637730E+007, +5.82260081006E+002, +3.69353993625E+003
+3.76250417362E+007, +6.75353255607E+002, +3.74471115149E+003
+3.77918196995E+007, +6.66696380015E+002, +3.87137744813E+003
+3.79585976628E+007, +6.82827077753E+002, +4.03456187037E+003
+3.81253756260E+007, +7.96114873413E+002, +4.16026021741E+003
+3.82921535893E+007, +8.40477818449E+002, +4.27849058781E+003
+3.84589315526E+007, +8.98104211796E+002, +4.43941801833E+003
+3.86257095159E+007, +9.53271404674E+002, +4.65801826117E+003
+3.87924874791E+007, +1.04752559810E+003, +4.82410626358E+003
+3.89592654424E+007, +1.16623146940E+003, +4.97432431614E+003
+3.91260434057E+007, +1.34916764094E+003, +5.42022272158E+003
+3.92928213689E+007, +1.52537609724E+003, +5.49170433796E+003
+3.94595993322E+007, +1.59219706561E+003, +5.91763142100E+003
+3.96263772955E+007, +1.68578553256E+003, +6.06811242432E+003
+3.97931552588E+007, +1.86902421419E+003, +6.35586626456E+003
+3.99599332220E+007, +2.21802092063E+003, +6.53920362579E+003
+4.01267111853E+007, +2.60388105858E+003, +7.15002940079E+003
+4.02934891486E+007, +2.88984530648E+003, +7.38849033550E+003
+4.04602671119E+007, +3.12098132606E+003, +7.65790787376E+003
+4.06270450751E+007, +4.03543694170E+003, +8.16507127086E+003
+4.07938230384E+007, +4.41784195606E+003, +8.60644797940E+003
+4.09606010017E+007, +4.95082462323E+003, +9.37285220351E+003
+4.11273789649E+007, +6.04499222349E+003, +9.27660280510E+003
+4.12941569282E+007, +7.10300173443E+003, +9.61039444358E+003
+4.14609348915E+007, +9.94877930752E+003, +9.82910621237E+003
+4.16277128548E+007, +1.05843003095E+004, +1.10503081349E+004
+4.17944908180E+007, +1.09604697832E+004, +1.03844641760E+004
+4.19612687813E+007, +1.51489068944E+004, +9.42557748218E+003
+4.21280467446E+007, +1.79023602807E+004, +7.22001836042E+003
+4.22948247078E+007, +1.85640612055E+004, +4.77911534041E+003
+4.24616026711E+007, +1.80495529287E+004, +2.82429380368E+003
+4.26283806344E+007, +1.89035656952E+004, -2.72306633801E+003
+4.27951585977E+007, +1.95029565810E+004, -5.30547129030E+003
+4.29619365609E+007, +1.62473316196E+004, -5.76037098955E+003
+4.31287145242E+007, +1.43054399447E+004, -8.10326921581E+003
+4.32954924875E+007, +1.28094177972E+004, -9.13095798275E+003
+4.34622704508E+007, +1.02335432053E+004, -1.08027346841E+004
+4.36290484140E+007, +8.55243343897E+003, -9.41891227889E+003
+4.37958263773E+007, +6.77566659200E+003, -9.61966487408E+003
+4.39626043406E+007, +6.12774116687E+003, -8.76707667270E+003
+4.41293823038E+007, +5.45547641062E+003, -8.44308547833E+003
+4.42961602671E+007, +4.63571035582E+003, -7.87782091524E+003
+4.44629382304E+007, +3.97495040325E+003, -7.51389211509E+003
+4.46297161937E+007, +3.80426471712E+003, -7.20480805281E+003
+4.47964941569E+007, +2.96048034519E+003, -7.05102652944E+003
+4.49632721202E+007, +2.63700897082E+003, -6.53021461272E+003
+4.51300500835E+007, +2.49504546296E+003, -6.27521152114E+003
+4.52968280467E+007, +2.23065861666E+003, -5.82767661417E+003
+4.54636060100E+007, +1.91865047556E+003, -5.35477129274E+003
+4.56303839733E+007, +1.74747369888E+003, -5.29598762086E+003
+4.57971619366E+007, +1.64231609473E+003, -5.06244467408E+003
+4.59639398998E+007, +1.33234977164E+003, -4.72978848004E+003
+4.61307178631E+007, +1.40631684600E+003, -4.60175568816E+003
+4.62974958264E+007, +1.24766954199E+003, -4.33637597978E+003
+4.64642737896E+007, +1.16503321887E+003, -4.18891779278E+003
+4.66310517529E+007, +1.12498999725E+003, -3.97722229823E+003
+4.67978297162E+007, +1.12681177876E+003, -3.88908864997E+003
+4.69646076795E+007, +9.44904212991E+002, -3.71709012769E+003
+4.71313856427E+007, +9.73335913357E+002, -3.56692597902E+003
+4.72981636060E+007, +8.43109817340E+002, -3.47845947393E+003
+4.74649415693E+007, +8.35540692286E+002, -3.39243002872E+003
+4.76317195326E+007, +8.27251094360E+002, -3.22279209718E+003
+4.77984974958E+007, +8.03935652322E+002, -3.12321175840E+003
+4.79652754591E+007, +7.66433452809E+002, -3.01527983522E+003
+4.81320534224E+007, +7.43708642648E+002, -2.97038564066E+003
+4.82988313856E+007, +6.94610992671E+002, -2.85652129085E+003
+4.84656093489E+007, +7.00030767597E+002, -2.77666583713E+003
+4.86323873122E+007, +6.73198060716E+002, -2.69972367290E+003
+4.87991652755E+007, +6.30721731891E+002, -2.64025638879E+003
+4.89659432387E+007, +6.03976526470E+002, -2.56090432494E+003
+4.91327212020E+007, +6.24813613058E+002, -2.50286558958E+003
+4.92994991653E+007, +6.08976735723E+002, -2.42074150609E+003
+4.94662771285E+007, +5.89968113435E+002, -2.36714059523E+003
+4.96330550918E+007, +5.94146172605E+002, -2.31926861331E+003
+4.97998330551E+007, +5.58826536695E+002, -2.27321422792E+003
+4.99666110184E+007, +5.49613758017E+002, -2.21125140750E+003
+5.01333889816E+007, +5.39752027119E+002, -2.18375361908E+003
+5.03001669449E+007, +4.98021088133E+002, -2.13315907764E+003
+5.04669449082E+007, +5.03741421112E+002, -2.08895191419E+003
+5.06337228715E+007, +4.87429059734E+002, -2.04123480735E+003
+5.08005008347E+007, +4.67729427473E+002, -2.02470494802E+003
+5.09672787980E+007, +4.68022682048E+002, -1.97189898499E+003
+5.11340567613E+007, +4.45654028329E+002, -1.92937932363E+003
+5.13008347245E+007, +4.12262465065E+002, -1.88565367124E+003
+5.14676126878E+007, +4.11888298700E+002, -1.86539312953E+003
+5.16343906511E+007, +4.08764382714E+002, -1.81447988331E+003
+5.18011686144E+007, +3.88157041360E+002, -1.78789841498E+003
+5.19679465776E+007, +3.70961784177E+002, -1.72763518152E+003
+5.21347245409E+007, +3.65770189067E+002, -1.68766723923E+003
+5.23015025042E+007, +3.61527871291E+002, -1.64692901289E+003
+5.24682804674E+007, +3.42732860891E+002, -1.62409260977E+003
+5.26350584307E+007, +3.46110200225E+002, -1.60074542123E+003
+5.28018363940E+007, +3.21193639385E+002, -1.56050441204E+003
+5.29686143573E+007, +3.13202356836E+002, -1.52228638592E+003
+5.31353923205E+007, +3.21447881919E+002, -1.51087871995E+003
+5.33021702838E+007, +3.06352906425E+002, -1.46833830526E+003
+5.34689482471E+007, +3.12698542611E+002, -1.43541296189E+003
