"# Channel 1"
"# Trace 1"
Frequency, Formatted Data, Formatted Data
+1.00000000000E+005, +6.10645415448E-001, +2.86815636474E+000
+2.25031289111E+005, +5.99728369200E-001, +6.36268271971E+000
+3.50062578223E+005, +6.63029331835E-001, +9.82719208424E+000
+4.75093867334E+005, +7.00843910843E-001, +1.33470935660E+001
+6.00125156446E+005, +7.91169583551E-001, +1.67721397059E+001
+7.25156445557E+005, +8.34504693478E-001, +2.02514528806E+001
+8.50187734668E+005, +7.99672321284E-001, +2.36287011623E+001
+9.75219023780E+005, +8.10070592796E-001, +2.71114755067E+001
+1.10025031289E+006, +9.50804602216E-001, +3.05522056194E+001
+1.22528160200E+006, +8.89080712014E-001, +3.39378151999E+001
+1.35031289111E+006, +8.69708667133E-001, +3.73410448398E+001
+1.47534418023E+006, +9.56638741666E-001, +4.08351122582E+001
+1.60037546934E+006, +9.63422791888E-001, +4.42510202558E+001
+1.72540675845E+006, +9.95299061012E-001, +4.76002692637E+001
+1.85043804756E+006, +9.94090524302E-001, +5.10663710169E+001
+1.97546933667E+006, +1.08167489757E+000, +5.45078691718E+001
+2.10050062578E+006, +1.03474027321E+000, +5.79607740035E+001
+2.22553191489E+006, +8.96791024821E-001, +6.14260064564E+001
+2.35056320401E+006, +9.87458915466E-001, +6.47868571577E+001
+2.47559449312E+006, +9.90973930829E-001, +6.82733726809E+001
+2.60062578223E+006, +1.01386881014E+000, +7.17444455614E+001
+2.72565707134E+006, +9.87268631880E-001, +7.52182630455E+001
+2.85068836045E+006, +1.17402942919E+000, +7.87383234954E+001
+2.97571964956E+006, +9.36455311135E-001, +8.21038365311E+001
+3.10075093867E+006, +1.07844145988E+000, +8.57188405383E+001
+3.22578222778E+006, +9.50242165508E-001, +8.89412075542E+001
+3.35081351690E+006, +8.36953568857E-001, +9.25856698403E+001
+3.47584480601E+006, +1.03812519408E+000, +9.60687397245E+001
+3.60087609512E+006, +1.02189747035E+000, +9.97257625090E+001
+3.72590738423E+006, +1.24393674683E+000, +1.03063835284E+002
+3.85093867334E+006, +1.15550548642E+000, +1.06361023084E+002
+3.97596996245E+006, +9.37005902400E-001, +1.10171023987E+002
+4.10100125156E+006, +1.02256107490E+000, +1.13679581415E+002
+4.22603254068E+006, +9.78035075548E-001, +1.16961297775E+002
+4.35106382979E+006, +8.42911167657E-001, +1.20349643536E+002
+4.47609511890E+006, +1.01927737468E+000, +1.24122707141E+002
+4.60112640801E+006, +1.04531179713E+000, +1.27543654829E+002
+4.72615769712E+006, +1.02356005537E+000, +1.31153624028E+002
+4.85118898623E+006, +1.08542342061E+000, +1.34478443734E+002
+4.97622027534E+006, +1.07875064442E+000, +1.38316670710E+002
+5.10125156446E+006, +7.69488064926E-001, +1.41672189673E+002
+5.22628285357E+006, +1.02699517239E+000, +1.45205453102E+002
+5.35131414268E+006, +7.29407766330E-001, +1.48674128844E+002
+5.47634543179E+006, +8.98970405530E-001, +1.52515726366E+002
+5.60137672090E+006, +9.37652973908E-001, +1.55931297699E+002
+5.72640801001E+006, +1.22601252952E+000, +1.59709132221E+002
+5.85143929912E+006, +1.01339404116E+000, +1.63358205776E+002
+5.97647058824E+006, +1.11658635487E+000, +1.66992252456E+002
+6.10150187735E+006, +1.15821190318E+000, +1.70459014070E+002
+6.22653316646E+006, +1.30793713590E+000, +1.74507103336E+002
+6.35156445557E+006, +1.05122372378E+000, +1.77912623284E+002
+6.47659574468E+006, +1.10775277164E+000, +1.81570494889E+002
+6.60162703379E+006, +1.11810220936E+000, +1.85205594534E+002
+6.72665832290E+006, +1.34326067836E+000, +1.88877960441E+002
+6.85168961202E+006, +1.22591354437E+000, +1.92268785994E+002
+6.97672090113E+006, +1.30082387883E+000, +1.95987447410E+002
+7.10175219024E+006, +1.19052007086E+000, +1.99914700251E+002
+7.22678347935E+006, +1.34202561028E+000, +2.03771690175E+002
+7.35181476846E+006, +1.23474637027E+000, +2.07466743190E+002
+7.47684605757E+006, +1.21251362190E+000, +2.11263149889E+002
+7.60187734668E+006, +1.28643436992E+000, +2.14739340142E+002
+7.72690863579E+006, +1.20508774608E+000, +2.18487881287E+002
+7.85193992491E+006, +1.07506620041E+000, +2.22280686382E+002
+7.97697121402E+006, +1.55001698162E+000, +2.25823913405E+002
+8.10200250313E+006, +1.29625129443E+000, +2.29741460987E+002
+8.22703379224E+006, +1.40643081859E+000, +2.33403914699E+002
+8.35206508135E+006, +1.49864063858E+000, +2.37270073090E+002
+8.47709637046E+006, +1.48238255778E+000, +2.41227417641E+002
+8.60212765957E+006, +1.44883264994E+000, +2.45082966642E+002
+8.72715894869E+006, +1.36704239334E+000, +2.48789745347E+002
+8.85219023780E+006, +1.35941033470E+000, +2.52522285634E+002
+8.97722152691E+006, +1.49407511453E+000, +2.56145658097E+002
+9.10225281602E+006, +1.19641152201E+000, +2.60113177624E+002
+9.22728410513E+006, +9.28378022085E-001, +2.64249340216E+002
+9.35231539424E+006, +1.43730083206E+000, +2.68334640172E+002
+9.47734668335E+006, +1.28098705692E+000, +2.71741748233E+002
+9.60237797247E+006, +1.21484002428E+000, +2.76031858158E+002
+9.72740926158E+006, +6.96187714454E-001, +2.79767859074E+002
+9.85244055069E+006, +7.93822117241E-001, +2.83305098240E+002
+9.97747183980E+006, +1.05803647077E+000, +2.87712439623E+002
+1.01025031289E+007, +1.11221942982E+000, +2.91785650822E+002
+1.02275344180E+007, +5.16848499486E-001, +2.95867095552E+002
+1.03525657071E+007, +6.46679724884E-001, +2.99616358588E+002
+1.04775969962E+007, +5.83893158333E-001, +3.03696067560E+002
+1.06026282854E+007, +8.91457555458E-001, +3.08090285016E+002
+1.07276595745E+007, +6.93760073861E-001, +3.11894494704E+002
+1.08526908636E+007, +1.12316277633E+000, +3.15094118471E+002
+1.09777221527E+007, +7.51476977507E-001, +3.19731110374E+002
+1.11027534418E+007, +3.30787345319E-001, +3.24035441979E+002
+1.12277847309E+007, -2.35295706423E-003, +3.27823031116E+002
+1.13528160200E+007, +5.15969089249E-001, +3.32264500520E+002
+1.14778473091E+007, +1.15533908673E+000, +3.35973839333E+002
+1.16028785982E+007, +2.54629354614E-001, +3.40308721247E+002
+1.17279098874E+007, +1.11899960523E+000, +3.44898747068E+002
+1.18529411765E+007, +3.77757278044E-001, +3.48757105003E+002
+1.19779724656E+007, +1.40270038832E+000, +3.53403548145E+002
+1.21030037547E+007, +7.57898560689E-001, +3.57171583485E+002
+1.22280350438E+007, +1.56407278288E-001, +3.61448648664E+002
+1.23530663329E+007, +1.47626337975E-001, +3.66290340858E+002
+1.24780976220E+007, +2.07364153231E-001, +3.70950559975E+002
+1.26031289111E+007, -1.40028150851E-002, +3.74673979614E+002
+1.27281602003E+007, +9.91266482835E-001, +3.78523842038E+002
+1.28531914894E+007, +9.81337506734E-001, +3.83068640381E+002
+1.29782227785E+007, +2.17300374279E-001, +3.87518451701E+002
+1.31032540676E+007, +4.25954524992E-001, +3.91584777231E+002
+1.32282853567E+007, +4.56744320151E-001, +3.96068201464E+002
+1.33533166458E+007, +5.71542704247E-001, +4.01124295066E+002
+1.34783479349E+007, +4.84387727624E-001, +4.05088444611E+002
+1.36033792240E+007, +5.00740261172E-001, +4.10531359351E+002
+1.37284105131E+007, -3.79906823451E-001, +4.14407033695E+002
+1.38534418023E+007, +1.82800175244E-002, +4.19596760608E+002
+1.39784730914E+007, +3.52198478692E-001, +4.24663603562E+002
+1.41035043805E+007, -3.18190029997E-001, +4.27877125497E+002
+1.42285356696E+007, -7.31995345093E-001, +4.33169292544E+002
+1.43535669587E+007, -7.95381647676E-001, +4.37353981279E+002
+1.44785982478E+007, +2.82834825869E-001, +4.41993330701E+002
+1.46036295369E+007, -3.86394300522E-001, +4.46057643953E+002
+1.47286608260E+007, -4.00543629296E-001, +4.51153495321E+002
+1.48536921151E+007, -9.31039239124E-001, +4.56788807357E+002
+1.49787234043E+007, -5.90045721552E-001, +4.62344056682E+002
+1.51037546934E+007, +5.04138060057E-001, +4.65948516251E+002
+1.52287859825E+007, +8.54111077308E-002, +4.70578391669E+002
+1.53538172716E+007, -3.81174962818E-001, +4.76084668107E+002
+1.54788485607E+007, -1.57038333805E-001, +4.79832930260E+002
+1.56038798498E+007, -1.95701108660E+000, +4.84776812585E+002
+1.57289111389E+007, -4.22396978688E-001, +4.89679515587E+002
+1.58539424280E+007, -1.23536131376E+000, +4.95985078912E+002
+1.59789737171E+007, -7.07294442169E-001, +5.00848440060E+002
+1.61040050063E+007, -5.63920798567E-001, +5.06101271046E+002
+1.62290362954E+007, -9.37478456163E-001, +5.09204830936E+002
+1.63540675845E+007, -1.13878804602E+000, +5.14060226676E+002
+1.64790988736E+007, -8.71075062494E-001, +5.19964392935E+002
+1.66041301627E+007, -1.39254878612E-001, +5.24860337720E+002
+1.67291614518E+007, -8.92976294508E-001, +5.31090855568E+002
+1.68541927409E+007, -7.71958187600E-001, +5.35639705044E+002
+1.69792240300E+007, -1.08220921361E+000, +5.40718992015E+002
+1.71042553191E+007, -2.77380273616E+000, +5.46944477855E+002
+1.72292866083E+007, -2.96689783142E+000, +5.53273474949E+002
+1.73543178974E+007, -3.58294906246E+000, +5.58263813179E+002
+1.74793491865E+007, -1.53103578695E+000, +5.63154364798E+002
+1.76043804756E+007, -1.53379111149E+000, +5.69700374340E+002
+1.77294117647E+007, -1.68659376995E+000, +5.74696197392E+002
+1.78544430538E+007, -1.32104819348E+000, +5.79906092867E+002
+1.79794743429E+007, -1.81018635395E+000, +5.86045300549E+002
+1.81045056320E+007, -1.40518889935E+000, +5.90898838946E+002
+1.82295369212E+007, -2.52013496605E+000, +5.96671139823E+002
+1.83545682103E+007, -6.87149584982E-001, +6.03266519051E+002
+1.84795994994E+007, -1.12114574546E+000, +6.07407171351E+002
+1.86046307885E+007, +2.74761039313E-002, +6.16504630198E+002
+1.87296620776E+007, -4.96673124451E-001, +6.21158695893E+002
+1.88546933667E+007, -2.13935490655E+000, +6.26652249169E+002
+1.89797246558E+007, -2.97822799257E+000, +6.32529255419E+002
+1.91047559449E+007, -1.40346507732E+000, +6.39060943215E+002
+1.92297872340E+007, -1.81713823066E+000, +6.44728831833E+002
+1.93548185232E+007, -1.19813821352E+000, +6.51650856067E+002
+1.94798498123E+007, -2.00060957954E+000, +6.58330526864E+002
+1.96048811014E+007, -1.23689581858E+000, +6.64891309745E+002
+1.97299123905E+007, -1.19473688494E+000, +6.68550528975E+002
+1.98549436796E+007, -1.19134875643E+000, +6.76056931335E+002
+1.99799749687E+007, -6.22740589894E-001, +6.81757090498E+002
+2.01050062578E+007, -8.55553462148E-001, +6.89471616128E+002
+2.02300375469E+007, -2.20892376174E+000, +6.96844354797E+002
+2.03550688360E+007, -9.55321260584E-001, +7.04350236717E+002
+2.04801001252E+007, -2.42977577889E+000, +7.09038763390E+002
+2.06051314143E+007, -6.77449272930E-001, +7.16116847042E+002
+2.07301627034E+007, -1.71857138085E+000, +7.22251599919E+002
+2.08551939925E+007, +9.83375438918E-001, +7.27401393403E+002
+2.09802252816E+007, -1.37670443349E+000, +7.39255710114E+002
+2.11052565707E+007, -2.50829736976E+000, +7.44949861920E+002
+2.12302878598E+007, -1.63774852601E+000, +7.50001113348E+002
+2.13553191489E+007, -2.51665452955E+000, +7.57525379507E+002
+2.14803504380E+007, +8.32933092340E-001, +7.65753487569E+002
+2.16053817272E+007, -4.58358949674E+000, +7.73641016187E+002
+2.17304130163E+007, +2.52153261380E+000, +7.79199843517E+002
+2.18554443054E+007, -3.65307233808E-001, +7.84692378445E+002
+2.19804755945E+007, -3.11647106757E+000, +7.95342848785E+002
+2.21055068836E+007, -3.05178326451E+000, +8.03650926915E+002
+2.22305381727E+007, -2.30148084502E-001, +8.09834911745E+002
+2.23555694618E+007, -1.94968254887E+000, +8.18147946904E+002
+2.24806007509E+007, -1.67366509522E+000, +8.25009080003E+002
+2.26056320401E+007, -1.21576173089E+000, +8.30473625626E+002
+2.27306633292E+007, +3.11865516108E+000, +8.39892169032E+002
+2.28556946183E+007, +2.88278296773E+000, +8.49891527628E+002
+2.29807259074E+007, +2.90604590712E+000, +8.57334392778E+002
+2.31057571965E+007, -3.76971122505E-001, +8.62141916900E+002
+2.32307884856E+007, +4.56118480637E+000, +8.72609328058E+002
+2.33558197747E+007, +4.23200665060E+000, +8.81478550302E+002
+2.34808510638E+007, +7.54596341430E+000, +8.92909497261E+002
+2.36058823529E+007, +9.06166332831E+000, +8.95331259660E+002
+2.37309136421E+007, +8.89505693892E+000, +9.05843020574E+002
+2.38559449312E+007, +7.71346726651E+000, +9.11633027598E+002
+2.39809762203E+007, +1.07246544058E+001, +9.17238769303E+002
+2.41060075094E+007, +7.73670225744E+000, +9.29224525532E+002
+2.42310387985E+007, +1.25916411061E+001, +9.32797639250E+002
+2.43560700876E+007, +1.04208711989E+001, +9.42912702789E+002
+2.44811013767E+007, +9.66027447168E+000, +9.47139623685E+002
+2.46061326658E+007, +9.51256396881E+000, +9.63447892267E+002
+2.47311639549E+007, +9.50349812467E+000, +9.67284936363E+002
+2.48561952441E+007, +1.42388828907E+001, +9.76486069500E+002
+2.49812265332E+007, +5.68228732459E+000, +9.86494297778E+002
+2.51062578223E+007, +1.33754854588E+001, +9.99461944241E+002
+2.52312891114E+007, +7.63984569344E+000, +1.00868137038E+003
+2.53563204005E+007, +8.45587525189E+000, +1.01602702133E+003
+2.54813516896E+007, +4.87670188724E+000, +1.02448774395E+003
+2.56063829787E+007, +4.33983944147E+000, +1.03146498151E+003
+2.57314142678E+007, +6.92673986626E+000, +1.04145655027E+003
+2.58564455569E+007, +8.18686547305E+000, +1.05427121139E+003
+2.59814768461E+007, +9.17157779185E+000, +1.06253365759E+003
+2.61065081352E+007, +6.98616322238E+000, +1.07748948831E+003
+2.62315394243E+007, +4.85564082565E+000, +1.08219823964E+003
+2.63565707134E+007, +6.81483411464E+000, +1.09600197107E+003
+2.64816020025E+007, +3.59087753098E+000, +1.10565949698E+003
+2.66066332916E+007, +8.09849796080E+000, +1.11858840029E+003
+2.67316645807E+007, +7.10586836309E+000, +1.13285898602E+003
+2.68566958698E+007, +6.44047697381E+000, +1.14851271108E+003
+2.69817271589E+007, +7.36326154758E+000, +1.15703698350E+003
+2.71067584481E+007, +1.62717096474E+001, +1.17194789023E+003
+2.72317897372E+007, +6.51623389889E+000, +1.17838867244E+003
+2.73568210263E+007, +7.76157809614E+000, +1.19136259290E+003
+2.74818523154E+007, +2.62127887438E+000, +1.19963995313E+003
+2.76068836045E+007, +1.45722731184E+001, +1.21167104844E+003
+2.77319148936E+007, +2.73239170480E+000, +1.22147128878E+003
+2.78569461827E+007, +5.10493963422E+000, +1.23567156786E+003
+2.79819774718E+007, +3.34089712920E+000, +1.24891340742E+003
+2.81070087610E+007, +7.47482230744E+000, +1.25899367221E+003
+2.82320400501E+007, +3.46860603400E+000, +1.27224788179E+003
+2.83570713392E+007, -4.46875437573E-001, +1.28406797710E+003
+2.84821026283E+007, +1.05927442077E+001, +1.29927616956E+003
+2.86071339174E+007, +3.18034227810E+000, +1.31694551128E+003
+2.87321652065E+007, +7.95127105085E+000, +1.33021312763E+003
+2.88571964956E+007, +7.31808809774E-001, +1.35452850992E+003
+2.89822277847E+007, +3.94895689258E-001, +1.36935667931E+003
+2.91072590738E+007, -9.99778704144E-001, +1.37729199866E+003
+2.92322903630E+007, +4.71528229080E+000, +1.40330604867E+003
+2.93573216521E+007, +4.35193699459E+000, +1.42332278641E+003
+2.94823529412E+007, +9.98569601057E-001, +1.42608726233E+003
+2.96073842303E+007, -1.93009307671E-002, +1.45177520308E+003
+2.97324155194E+007, +1.53675765166E+000, +1.46223263092E+003
+2.98574468085E+007, -1.18560831833E+001, +1.48250862205E+003
+2.99824780976E+007, -3.08516732596E+000, +1.49427380374E+003
+3.01075093867E+007, +2.58942348000E+000, +1.51871869501E+003
+3.02325406758E+007, +5.60692944079E+000, +1.53591905259E+003
+3.03575719650E+007, -1.21256794689E+001, +1.55705063456E+003
+3.04826032541E+007, -6.44687061061E+000, +1.55468220171E+003
+3.06076345432E+007, -1.91386574538E-001, +1.58800197572E+003
+3.07326658323E+007, -4.67842518318E+000, +1.60676431740E+003
+3.08576971214E+007, +5.25603045917E+000, +1.62899700292E+003
+3.09827284105E+007, +6.47241869789E+000, +1.64078564690E+003
+3.11077596996E+007, -1.68627016947E+001, +1.67007636250E+003
+3.12327909887E+007, -1.09343765784E-001, +1.70561466742E+003
+3.13578222778E+007, +7.64874904434E-002, +1.70706063000E+003
+3.14828535670E+007, -4.31998090775E+000, +1.73674960242E+003
+3.16078848561E+007, +4.61160563578E+000, +1.75978441021E+003
+3.17329161452E+007, -1.43430171793E+001, +1.79420601153E+003
+3.18579474343E+007, -1.01775490971E+001, +1.80523346327E+003
+3.19829787234E+007, -9.11117789910E-001, +1.82427277970E+003
+3.21080100125E+007, -2.42593273859E+000, +1.86646634006E+003
+3.22330413016E+007, -1.06371982214E+001, +1.88791537548E+003
+3.23580725907E+007, -1.19594495701E+001, +1.89174563447E+003
+3.24831038798E+007, -2.37326497035E+001, +1.93424790898E+003
+3.26081351690E+007, +6.32697685180E+000, +1.95660605318E+003
+3.27331664581E+007, +7.46079060787E+000, +1.98308506158E+003
+3.28581977472E+007, -2.87676465913E+000, +2.02986933941E+003
+3.29832290363E+007, -6.04991042170E+000, +2.04884572890E+003
+3.31082603254E+007, +1.23469273901E+001, +2.07455154279E+003
+3.32332916145E+007, -8.53185353433E-001, +2.11397568389E+003
+3.33583229036E+007, +4.27152019361E+000, +2.14222894743E+003
+3.34833541927E+007, -4.01955482890E+000, +2.16857893152E+003
+3.36083854819E+007, +8.43069121289E+000, +2.20593202801E+003
+3.37334167710E+007, -2.64316017952E+000, +2.24311825177E+003
+3.38584480601E+007, -2.02996431340E+001, +2.28281030960E+003
+3.39834793492E+007, +3.97272728388E+000, +2.33335846298E+003
+3.41085106383E+007, +1.67431804191E+001, +2.34770407262E+003
+3.42335419274E+007, +3.08520127256E+000, +2.40403826594E+003
+3.43585732165E+007, +2.97779430373E+001, +2.45229839849E+003
+3.44836045056E+007, -5.33692024492E+000, +2.45503734507E+003
+3.46086357947E+007, +3.91515512870E+001, +2.51832971013E+003
+3.47336670839E+007, +3.51633972353E+001, +2.58097112381E+003
+3.48586983730E+007, +1.98858249689E+001, +2.62324628568E+003
+3.49837296621E+007, +1.63632218147E+001, +2.61822133332E+003
+3.51087609512E+007, +2.58921348833E+001, +2.71435830478E+003
+3.52337922403E+007, +2.74623795722E+001, +2.74311162743E+003
+3.53588235294E+007, +2.88754357435E+001, +2.79856864872E+003
+3.54838548185E+007, +3.37362260571E+001, +2.86248883471E+003
+3.56088861076E+007, +4.46135123833E+001, +2.90705274479E+003
+3.57339173967E+007, +2.68942482242E+001, +2.94681712766E+003
+3.58589486859E+007, +4.02770707865E+001, +2.98123070931E+003
+3.59839799750E+007, -8.77982666475E+000, +3.04990200201E+003
+3.61090112641E+007, +4.84101606851E+001, +3.12624176964E+003
+3.62340425532E+007, +4.22829057731E+001, +3.20317910733E+003
+3.63590738423E+007, +5.28670158712E+001, +3.22132157774E+003
+3.64841051314E+007, -7.75170144480E+000, +3.30033692928E+003
+3.66091364205E+007, +4.86924460686E+001, +3.36652612518E+003
+3.67341677096E+007, +4.85748249567E+001, +3.49808192247E+003
+3.68591989987E+007, +1.78107720208E+001, +3.53520528626E+003
+3.69842302879E+007, +5.15235662407E+001, +3.58533992579E+003
+3.71092615770E+007, +4.13441638879E+001, +3.73476543705E+003
+3.72342928661E+007, +8.19337025018E+001, +3.80051654035E+003
+3.73593241552E+007, +4.39943690026E+001, +3.91044824259E+003
+3.74843554443E+007, +5.49399040019E+001, +4.05817385535E+003
+3.76093867334E+007, +1.02007348506E+002, +4.07628908934E+003
+3.77344180225E+007, +1.09009598075E+002, +4.31804829268E+003
+3.78594493116E+007, +3.32492247167E+001, +4.31971164163E+003
+3.79844806008E+007, +6.53551263175E+001, +4.43205542619E+003
+3.81095118899E+007, +3.19477174694E+001, +4.48862923562E+003
+3.82345431790E+007, +2.96021586635E+001, +4.74823615874E+003
+3.83595744681E+007, +1.81568027681E+002, +4.96698002724E+003
+3.84846057572E+007, +1.68710678871E+002, +5.11479019094E+003
+3.86096370463E+007, +1.79428354417E+002, +5.36394318421E+003
+3.87346683354E+007, +1.16925374192E+002, +5.44165033887E+003
+3.88596996245E+007, +1.21030932926E+002, +5.65929815116E+003
+3.89847309136E+007, +1.45663215417E+002, +5.91147321284E+003
+3.91097622028E+007, +2.91542384398E+002, +5.97813487955E+003
+3.92347934919E+007, +1.11947902072E+002, +6.49762386471E+003
+3.93598247810E+007, +5.36318712216E+002, +6.74362620581E+003
+3.94848560701E+007, +2.91069614609E+002, +6.90803401729E+003
+3.96098873592E+007, +4.29236917835E+002, +7.21968523387E+003
+3.97349186483E+007, +3.08795266117E+002, +7.51604335464E+003
+3.98599499374E+007, +4.36536877853E+002, +8.09023797751E+003
+3.99849812265E+007, +8.75043877319E+002, +8.61811684167E+003
+4.01100125156E+007, +8.66456064442E+002, +8.76110803572E+003
