"# Channel 1"
"# Trace 1"
Frequency, Formatted Data, Formatted Data
+1.00000000000E+005, +4.17129620433E-001, +2.89968987178E+000
+2.66777963272E+005, +4.21274837792E-001, +7.71757474849E+000
+4.33555926544E+005, +5.10360997738E-001, +1.25166387619E+001
+6.00333889816E+005, +5.91620272378E-001, +1.72347842529E+001
+7.67111853088E+005, +6.39485545493E-001, +2.20007380824E+001
+9.33889816361E+005, +6.92062031739E-001, +2.67126490282E+001
+1.10066777963E+006, +6.48938653403E-001, +3.14834971693E+001
+1.26744574290E+006, +7.43291281622E-001, +3.61172727789E+001
+1.43422370618E+006, +6.91355170922E-001, +4.09461989385E+001
+1.60100166945E+006, +8.11293316983E-001, +4.55522524294E+001
+1.76777963272E+006, +8.00899657998E-001, +5.02931975557E+001
+1.93455759599E+006, +8.52668148004E-001, +5.48982649586E+001
+2.10133555927E+006, +8.73917478168E-001, +5.96281190001E+001
+2.26811352254E+006, +9.02803149722E-001, +6.43922655057E+001
+2.43489148581E+006, +8.64412245419E-001, +6.92208704530E+001
+2.60166944908E+006, +9.02762275201E-001, +7.37949335407E+001
+2.76844741235E+006, +7.90745202589E-001, +7.86487224954E+001
+2.93522537563E+006, +7.92554743827E-001, +8.33782889164E+001
+3.10200333890E+006, +9.96537255639E-001, +8.80046516904E+001
+3.26878130217E+006, +7.14897024928E-001, +9.29717244977E+001
+3.43555926544E+006, +7.97285222959E-001, +9.76485087108E+001
+3.60233722871E+006, +9.08671526426E-001, +1.02480860994E+002
+3.76911519199E+006, +8.01012127796E-001, +1.07436113271E+002
+3.93589315526E+006, +8.13146822042E-001, +1.11850105653E+002
+4.10267111853E+006, +7.97490439620E-001, +1.17029233706E+002
+4.26944908180E+006, +8.11428699074E-001, +1.21883269054E+002
+4.43622704508E+006, +8.14520076927E-001, +1.26303486743E+002
+4.60300500835E+006, +8.20376910107E-001, +1.31469894130E+002
+4.76978297162E+006, +6.64382595748E-001, +1.36269720948E+002
+4.93656093489E+006, +9.99041944345E-001, +1.40967743692E+002
+5.10333889816E+006, +9.27212199019E-001, +1.45739089541E+002
+5.27011686144E+006, +1.30620559926E+000, +1.51048453992E+002
+5.43689482471E+006, +1.00993308419E+000, +1.55867588894E+002
+5.60367278798E+006, +7.90070201596E-001, +1.61131735828E+002
+5.77045075125E+006, +8.80385487250E-001, +1.65418092095E+002
+5.93722871452E+006, +1.19896365624E+000, +1.70494852381E+002
+6.10400667780E+006, +1.17704302239E+000, +1.75669814245E+002
+6.27078464107E+006, +1.41728196765E+000, +1.80442622009E+002
+6.43756260434E+006, +1.47901259600E+000, +1.85430610627E+002
+6.60434056761E+006, +1.69205601261E+000, +1.90288428749E+002
+6.77111853088E+006, +1.72412142318E+000, +1.95170556094E+002
+6.93789649416E+006, +1.83863438520E+000, +2.00405041556E+002
+7.10467445743E+006, +1.83544593049E+000, +2.05422507782E+002
+7.27145242070E+006, +1.88881701832E+000, +2.10241383321E+002
+7.43823038397E+006, +1.98441890483E+000, +2.14960339072E+002
+7.60500834725E+006, +1.81865089981E+000, +2.20389830313E+002
+7.77178631052E+006, +2.05608486967E+000, +2.25517907995E+002
+7.93856427379E+006, +1.91520085940E+000, +2.30102203032E+002
+8.10534223706E+006, +1.66651502368E+000, +2.35584735672E+002
+8.27212020033E+006, +2.01852316632E+000, +2.40369908001E+002
+8.43889816361E+006, +1.64394592186E+000, +2.45870810925E+002
+8.60567612688E+006, +1.33496680634E+000, +2.51071537919E+002
+8.77245409015E+006, +1.37030194518E+000, +2.56100818303E+002
+8.93923205342E+006, +1.46995506695E+000, +2.61459729684E+002
+9.10601001669E+006, +1.41113756003E+000, +2.66679131538E+002
+9.27278797997E+006, +1.49947652175E+000, +2.71829754535E+002
+9.43956594324E+006, +1.29048206510E+000, +2.77058277126E+002
+9.60634390651E+006, +1.49340448744E+000, +2.82583791728E+002
+9.77312186978E+006, +1.34630214685E+000, +2.87717782255E+002
+9.93989983306E+006, +1.34908100794E+000, +2.93272066704E+002
+1.01066777963E+007, +1.32784290567E+000, +2.98649671604E+002
+1.02734557596E+007, +1.05677029163E+000, +3.04393573591E+002
+1.04402337229E+007, +8.24526702209E-001, +3.09627048916E+002
+1.06070116861E+007, +9.81997604422E-001, +3.14780853407E+002
+1.07737896494E+007, +1.09789599784E+000, +3.21117262484E+002
+1.09405676127E+007, +1.38586927931E+000, +3.25882098449E+002
+1.11073455760E+007, +1.04583267946E+000, +3.31877166633E+002
+1.12741235392E+007, +8.00857362834E-001, +3.36934702896E+002
+1.14409015025E+007, +1.09400188448E+000, +3.43215464174E+002
+1.16076794658E+007, +8.45089799430E-001, +3.48654655013E+002
+1.17744574290E+007, +1.07246791612E+000, +3.54486510986E+002
+1.19412353923E+007, +6.39269719314E-001, +3.60376437847E+002
+1.21080133556E+007, +4.78755461879E-001, +3.65851544470E+002
+1.22747913189E+007, +8.04247490844E-001, +3.71995163441E+002
+1.24415692821E+007, +5.24691459742E-001, +3.77515447415E+002
+1.26083472454E+007, -4.33796744757E-002, +3.84159824290E+002
+1.27751252087E+007, +5.82367114777E-001, +3.89226369487E+002
+1.29419031720E+007, +1.51389011657E-001, +3.96052198967E+002
+1.31086811352E+007, +8.14570490977E-003, +4.01897253518E+002
+1.32754590985E+007, +4.40263394601E-001, +4.07683364657E+002
+1.34422370618E+007, +4.89418185450E-001, +4.14371531509E+002
+1.36090150250E+007, +1.56138357477E+000, +4.20554669845E+002
+1.37757929883E+007, -5.23619137534E-002, +4.26241562334E+002
+1.39425709516E+007, +2.09082975751E-001, +4.32542688491E+002
+1.41093489149E+007, -1.24350165899E-001, +4.37951438329E+002
+1.42761268781E+007, +3.01867979720E-001, +4.45177439887E+002
+1.44429048414E+007, +5.40512488820E-001, +4.50658131099E+002
+1.46096828047E+007, +2.17257952717E-001, +4.58497838020E+002
+1.47764607679E+007, +7.08871024367E-001, +4.63786514150E+002
+1.49432387312E+007, +1.66783129752E-001, +4.70803645645E+002
+1.51100166945E+007, +1.17463513215E-002, +4.78481344318E+002
+1.52767946578E+007, +1.48492703529E+000, +4.84061621838E+002
+1.54435726210E+007, +1.31860547129E+000, +4.90355510192E+002
+1.56103505843E+007, +1.68914078397E+000, +4.97606447442E+002
+1.57771285476E+007, +1.44760783050E+000, +5.02626616434E+002
+1.59439065109E+007, +1.53608239131E+000, +5.09546663401E+002
+1.61106844741E+007, +1.38625049524E+000, +5.17235253922E+002
+1.62774624374E+007, +2.02946820862E+000, +5.24198216707E+002
+1.64442404007E+007, +1.71822559530E+000, +5.30836194040E+002
+1.66110183639E+007, +1.16237637889E+000, +5.37807610963E+002
+1.67777963272E+007, +1.00022052004E+000, +5.44998614800E+002
+1.69445742905E+007, +1.95603819999E+000, +5.50714960717E+002
+1.71113522538E+007, -1.05415195073E+000, +5.57889308103E+002
+1.72781302170E+007, -7.69345278949E-002, +5.67226788767E+002
+1.74449081803E+007, -1.83541335501E+000, +5.71613354661E+002
+1.76116861436E+007, +3.51587292972E-001, +5.79988542636E+002
+1.77784641068E+007, +1.36692755431E-001, +5.87306543223E+002
+1.79452420701E+007, +5.94796420439E-001, +5.94494586028E+002
+1.81120200334E+007, +1.22300634182E+000, +6.00762403939E+002
+1.82787979967E+007, +9.60534902100E-001, +6.10094216133E+002
+1.84455759599E+007, +1.35250155236E+000, +6.18689825161E+002
+1.86123539232E+007, +1.73780467731E+000, +6.25558881085E+002
+1.87791318865E+007, +8.98241659999E-001, +6.34344076981E+002
+1.89459098497E+007, +1.13224710560E+000, +6.42079424014E+002
+1.91126878130E+007, +9.09047246735E-001, +6.48052995624E+002
+1.92794657763E+007, +2.17486900770E+000, +6.59307652975E+002
+1.94462437396E+007, +3.61391761372E+000, +6.68796638241E+002
+1.96130217028E+007, -1.74703389966E-001, +6.74887732611E+002
+1.97797996661E+007, +6.44421379760E-001, +6.84363117067E+002
+1.99465776294E+007, +2.40480378805E-001, +6.91590652985E+002
+2.01133555927E+007, +1.50583963759E+000, +6.99449655184E+002
+2.02801335559E+007, +8.56130619051E-001, +7.09536468769E+002
+2.04469115192E+007, +3.14166944511E+000, +7.17278949271E+002
+2.06136894825E+007, +1.61398081553E+000, +7.26820456436E+002
+2.07804674457E+007, +4.49337296772E+000, +7.37837594044E+002
+2.09472454090E+007, +2.41955974761E+000, +7.48428064452E+002
+2.11140233723E+007, +2.62656345739E+000, +7.56083399126E+002
+2.12808013356E+007, +4.27246820655E+000, +7.65859086155E+002
+2.14475792988E+007, +2.96965222682E+000, +7.75607830007E+002
+2.16143572621E+007, +4.12095688725E+000, +7.82439247129E+002
+2.17811352254E+007, +5.26201915109E+000, +7.93374243678E+002
+2.19479131886E+007, +6.77028862496E+000, +8.03600384503E+002
+2.21146911519E+007, +8.22008348448E+000, +8.12294528229E+002
+2.22814691152E+007, +4.49099333234E+000, +8.23052213746E+002
+2.24482470785E+007, +9.25123428079E+000, +8.39289605984E+002
+2.26150250417E+007, +8.54514842407E+000, +8.43568439199E+002
+2.27818030050E+007, +9.16143773570E+000, +8.55131210991E+002
+2.29485809683E+007, +1.56340430015E+001, +8.65651151112E+002
+2.31153589316E+007, +7.01344918047E+000, +8.78959695842E+002
+2.32821368948E+007, +1.28706859644E+001, +8.87631245440E+002
+2.34489148581E+007, +1.21538525529E+001, +8.97870841962E+002
+2.36156928214E+007, +1.58696598755E+001, +9.12346872941E+002
+2.37824707846E+007, +1.39896313833E+001, +9.19264647775E+002
+2.39492487479E+007, +1.35818140492E+001, +9.30687222720E+002
+2.41160267112E+007, +1.60871496430E+001, +9.37526516124E+002
+2.42828046745E+007, +1.55101141952E+001, +9.54259310270E+002
+2.44495826377E+007, +2.10662742686E+001, +9.68639806871E+002
+2.46163606010E+007, +1.89795076239E+001, +9.76673096249E+002
+2.47831385643E+007, +2.01371981731E+001, +9.92694245224E+002
+2.49499165275E+007, +2.31493837716E+001, +9.98373976841E+002
+2.51166944908E+007, +2.46528595394E+001, +1.01184404127E+003
+2.52834724541E+007, +2.46589005281E+001, +1.02851747586E+003
+2.54502504174E+007, +2.50117120811E+001, +1.04179028364E+003
+2.56170283806E+007, +2.42715908633E+001, +1.04915455024E+003
+2.57838063439E+007, +3.03824326961E+001, +1.06862735733E+003
+2.59505843072E+007, +3.23571846161E+001, +1.08239830910E+003
+2.61173622705E+007, +3.08383164294E+001, +1.09461496676E+003
+2.62841402337E+007, +2.77732650137E+001, +1.10585775446E+003
+2.64509181970E+007, +2.62633512178E+001, +1.12261502830E+003
+2.66176961603E+007, +3.45255219972E+001, +1.13907165679E+003
+2.67844741235E+007, +3.68044534998E+001, +1.15149803833E+003
+2.69512520868E+007, +3.46933827873E+001, +1.16889050481E+003
+2.71180300501E+007, +4.08358899582E+001, +1.17879126957E+003
+2.72848080134E+007, +4.15689854040E+001, +1.19935066948E+003
+2.74515859766E+007, +4.37450939922E+001, +1.20624419012E+003
+2.76183639399E+007, +3.92171671255E+001, +1.21947385745E+003
+2.77851419032E+007, +4.26632810573E+001, +1.23228114406E+003
+2.79519198664E+007, +4.86781103581E+001, +1.25403022182E+003
+2.81186978297E+007, +5.19694430049E+001, +1.26734112697E+003
+2.82854757930E+007, +5.28181033363E+001, +1.28403048784E+003
+2.84522537563E+007, +4.11204788121E+001, +1.31046713628E+003
+2.86190317195E+007, +4.48671303376E+001, +1.32103104870E+003
+2.87858096828E+007, +6.03318840688E+001, +1.34101395545E+003
+2.89525876461E+007, +5.60835958353E+001, +1.35857477782E+003
+2.91193656093E+007, +5.25131332408E+001, +1.36705071291E+003
+2.92861435726E+007, +5.03668371399E+001, +1.38363709730E+003
+2.94529215359E+007, +6.13076488715E+001, +1.41267300400E+003
+2.96196994992E+007, +6.53932403265E+001, +1.43918638228E+003
+2.97864774624E+007, +6.76934679662E+001, +1.45386981854E+003
+2.99532554257E+007, +7.60646692797E+001, +1.47368470970E+003
+3.01200333890E+007, +6.98460184812E+001, +1.49739434983E+003
+3.02868113523E+007, +6.31053267079E+001, +1.51444152596E+003
+3.04535893155E+007, +7.06057651036E+001, +1.54173273851E+003
+3.06203672788E+007, +7.50953076084E+001, +1.55258527935E+003
+3.07871452421E+007, +7.04495046039E+001, +1.58157908835E+003
+3.09539232053E+007, +7.62088750836E+001, +1.59996722116E+003
+3.11207011686E+007, +6.72709100993E+001, +1.63643103755E+003
+3.12874791319E+007, +8.08825570558E+001, +1.64872235447E+003
+3.14542570952E+007, +7.86305486666E+001, +1.67716843129E+003
+3.16210350584E+007, +8.58508247289E+001, +1.71146103952E+003
+3.17878130217E+007, +7.17770609488E+001, +1.73650147735E+003
+3.19545909850E+007, +8.67717198668E+001, +1.76186867198E+003
+3.21213689482E+007, +7.81814049112E+001, +1.79280490351E+003
+3.22881469115E+007, +7.45926313661E+001, +1.81496235004E+003
+3.24549248748E+007, +8.91472593433E+001, +1.86923338579E+003
+3.26217028381E+007, +7.50436466137E+001, +1.89395644395E+003
+3.27884808013E+007, +9.50829338195E+001, +1.91484255003E+003
+3.29552587646E+007, +1.01924964179E+002, +1.92702638236E+003
+3.31220367279E+007, +7.86392355455E+001, +1.97455227272E+003
+3.32888146912E+007, +9.80690080892E+001, +2.03339976769E+003
+3.34555926544E+007, +1.03695830106E+002, +2.06494978670E+003
+3.36223706177E+007, +1.00251670657E+002, +2.08032951010E+003
+3.37891485810E+007, +1.16181301565E+002, +2.12824057284E+003
+3.39559265442E+007, +1.22132159877E+002, +2.19155671818E+003
+3.41227045075E+007, +1.17455793359E+002, +2.21377014340E+003
+3.42894824708E+007, +1.30988615500E+002, +2.25304791423E+003
+3.44562604341E+007, +1.22484077131E+002, +2.28104449788E+003
+3.46230383973E+007, +1.58477629666E+002, +2.38862369946E+003
+3.47898163606E+007, +1.56937146503E+002, +2.39813273913E+003
+3.49565943239E+007, +1.49756669539E+002, +2.44137065248E+003
+3.51233722871E+007, +1.59168741227E+002, +2.49666508403E+003
+3.52901502504E+007, +1.50816279376E+002, +2.54767525895E+003
+3.54569282137E+007, +1.44779763657E+002, +2.61235901595E+003
+3.56237061770E+007, +1.38380437296E+002, +2.68046331469E+003
+3.57904841402E+007, +1.56131536330E+002, +2.77330556811E+003
+3.59572621035E+007, +1.69074150683E+002, +2.81360538984E+003
+3.61240400668E+007, +1.96352169632E+002, +2.91048083735E+003
+3.62908180301E+007, +2.33027961413E+002, +3.00664131387E+003
+3.64575959933E+007, +1.58347146314E+002, +3.05196014491E+003
+3.66243739566E+007, +2.42912061334E+002, +3.05305058469E+003
+3.67911519199E+007, +2.49593600995E+002, +3.22187521672E+003
+3.69579298831E+007, +2.32743181401E+002, +3.26668180529E+003
+3.71247078464E+007, +2.24186495555E+002, +3.42739582387E+003
+3.72914858097E+007, +2.51164847137E+002, +3.55831359737E+003
+3.74582637730E+007, +3.07998800322E+002, +3.68016252663E+003
+3.76250417362E+007, +3.61897145749E+002, +3.75152165689E+003
+3.77918196995E+007, +3.79688798142E+002, +3.88102976924E+003
+3.79585976628E+007, +2.90122630800E+002, +4.02609219107E+003
+3.81253756260E+007, +5.30827612788E+002, +4.18971031399E+003
+3.82921535893E+007, +4.87789217868E+002, +4.19812736044E+003
+3.84589315526E+007, +5.69668165939E+002, +4.50799836211E+003
+3.86257095159E+007, +5.04270316415E+002, +4.64579253021E+003
+3.87924874791E+007, +6.18009834783E+002, +4.84201769567E+003
+3.89592654424E+007, +6.21334183942E+002, +4.92933443346E+003
+3.91260434057E+007, +8.29462111976E+002, +5.25351426759E+003
+3.92928213689E+007, +8.87480361357E+002, +5.49647219272E+003
+3.94595993322E+007, +8.68152272025E+002, +5.71903441424E+003
+3.96263772955E+007, +8.35313303656E+002, +5.91473134170E+003
+3.97931552588E+007, +1.01078852404E+003, +6.21494151218E+003
+3.99599332220E+007, +1.08411719056E+003, +6.52897728933E+003
+4.01267111853E+007, +1.39096199980E+003, +6.90216494343E+003
+4.02934891486E+007, +1.40286890586E+003, +7.09697198220E+003
+4.04602671119E+007, +1.81849218902E+003, +7.70475033861E+003
+4.06270450751E+007, +2.25521170131E+003, +8.14800936072E+003
+4.07938230384E+007, +2.48737137976E+003, +8.48880570591E+003
+4.09606010017E+007, +3.03591486161E+003, +9.22168720027E+003
+4.11273789649E+007, +3.15204300013E+003, +1.01565772932E+004
+4.12941569282E+007, +4.00019694763E+003, +1.07764220914E+004
+4.14609348915E+007, +5.18251459128E+003, +1.23746396598E+004
+4.16277128548E+007, +5.69047733678E+003, +1.17921313401E+004
+4.17944908180E+007, +5.99772826580E+003, +1.32798076549E+004
+4.19612687813E+007, +8.82823659896E+003, +1.44716860743E+004
+4.21280467446E+007, +1.11194059929E+004, +1.68458579449E+004
+4.22948247078E+007, +1.73577964205E+004, +1.61553458728E+004
+4.24616026711E+007, +2.22015961729E+004, +1.25016337550E+004
+4.26283806344E+007, +2.68943279466E+004, +1.16800416462E+004
+4.27951585977E+007, +3.96549207739E+004, +2.84990922564E+003
+4.29619365609E+007, +2.87119939738E+004, -3.20933861080E+003
+4.31287145242E+007, +2.59539345851E+004, -1.33379798893E+004
+4.32954924875E+007, +2.14060185721E+004, -1.35307659026E+004
+4.34622704508E+007, +1.32191815961E+004, -1.68320317682E+004
+4.36290484140E+007, +1.38780766563E+004, -1.35159629562E+004
+4.37958263773E+007, +7.53130600931E+003, -1.36369609758E+004
+4.39626043406E+007, +7.34843719884E+003, -1.26229138813E+004
+4.41293823038E+007, +5.89293122030E+003, -1.09026430251E+004
+4.42961602671E+007, +4.31616267373E+003, -1.07940680640E+004
+4.44629382304E+007, +4.16239347225E+003, -1.02110533289E+004
+4.46297161937E+007, +3.54362928454E+003, -9.52990234604E+003
+4.47964941569E+007, +2.54888147893E+003, -8.61378654085E+003
+4.49632721202E+007, +2.09067873313E+003, -7.96475744926E+003
+4.51300500835E+007, +2.25133992493E+003, -7.74313393902E+003
+4.52968280467E+007, +2.05570715587E+003, -6.90091913850E+003
+4.54636060100E+007, +1.72446724580E+003, -6.36762215568E+003
+4.56303839733E+007, +1.33771369018E+003, -6.24803166077E+003
+4.57971619366E+007, +1.35896323582E+003, -5.82120328728E+003
+4.59639398998E+007, +1.22164493491E+003, -5.30835960352E+003
+4.61307178631E+007, +1.21192975918E+003, -5.14484690259E+003
+4.62974958264E+007, +1.14838508190E+003, -4.87326125536E+003
+4.64642737896E+007, +1.07974255822E+003, -4.73239063830E+003
+4.66310517529E+007, +8.17528102004E+002, -4.44590421474E+003
+4.67978297162E+007, +1.00812777425E+003, -4.27948383560E+003
+4.69646076795E+007, +8.77229953455E+002, -4.07637199423E+003
+4.71313856427E+007, +8.97328461379E+002, -3.95820629528E+003
+4.72981636060E+007, +8.00027396111E+002, -3.74003879333E+003
+4.74649415693E+007, +7.54830895024E+002, -3.65458898495E+003
+4.76317195326E+007, +8.20053225364E+002, -3.53179890367E+003
+4.77984974958E+007, +7.70626173646E+002, -3.40735052453E+003
+4.79652754591E+007, +7.25899974844E+002, -3.27814451848E+003
+4.81320534224E+007, +7.25545728293E+002, -3.19718689313E+003
+4.82988313856E+007, +6.81086285535E+002, -3.08986851016E+003
+4.84656093489E+007, +6.33367320655E+002, -3.00703833811E+003
+4.86323873122E+007, +6.61104049278E+002, -2.92443168718E+003
+4.87991652755E+007, +6.63959443966E+002, -2.84282017834E+003
+4.89659432387E+007, +6.35209746292E+002, -2.77226478055E+003
+4.91327212020E+007, +6.26246418616E+002, -2.67047147962E+003
+4.92994991653E+007, +6.54488869658E+002, -2.62357838495E+003
+4.94662771285E+007, +6.15352152901E+002, -2.54129587175E+003
+4.96330550918E+007, +6.30091974328E+002, -2.49008250432E+003
+4.97998330551E+007, +6.04548597561E+002, -2.42103615109E+003
+4.99666110184E+007, +5.85794344591E+002, -2.36695476717E+003
+5.01333889816E+007, +5.79777966983E+002, -2.34223963095E+003
+5.03001669449E+007, +5.67194112667E+002, -2.31900075620E+003
+5.04669449082E+007, +5.71283174453E+002, -2.24816699334E+003
+5.06337228715E+007, +5.67616060249E+002, -2.20090452505E+003
+5.08005008347E+007, +5.42811228893E+002, -2.18879435589E+003
+5.09672787980E+007, +5.45739894443E+002, -2.14207219499E+003
+5.11340567613E+007, +5.26343559988E+002, -2.11118064059E+003
+5.13008347245E+007, +4.85162043067E+002, -2.08699169111E+003
+5.14676126878E+007, +4.93867909200E+002, -2.04677979921E+003
+5.16343906511E+007, +4.89911986301E+002, -2.02100039725E+003
+5.18011686144E+007, +4.53575901146E+002, -2.00817860530E+003
+5.19679465776E+007, +4.37474750704E+002, -1.96571913939E+003
+5.21347245409E+007, +4.19292724112E+002, -1.92897918848E+003
+5.23015025042E+007, +3.97286324332E+002, -1.88010994567E+003
+5.24682804674E+007, +3.65365618723E+002, -1.85765305813E+003
+5.26350584307E+007, +3.48747031993E+002, -1.82624606355E+003
+5.28018363940E+007, +3.34811685358E+002, -1.79116488920E+003
+5.29686143573E+007, +3.10775330957E+002, -1.73341576106E+003
+5.31353923205E+007, +3.06075920747E+002, -1.72609034809E+003
+5.33021702838E+007, +2.89154407692E+002, -1.69831528452E+003
+5.34689482471E+007, +2.79794915741E+002, -1.65608693349E+003
