"# Channel 1"
"# Trace 1"
Frequency, Formatted Data, Formatted Data
+1.00000000000E+005, +6.00869609281E+001, +2.70165080956E+000
+2.25031289111E+005, +5.98880628060E+001, +6.71377133293E+000
+3.50062578223E+005, +5.99232197285E+001, +1.04747440766E+001
+4.75093867334E+005, +5.98828754827E+001, +1.41572179703E+001
+6.00125156446E+005, +6.00160556274E+001, +1.78893113768E+001
+7.25156445557E+005, +6.01238004442E+001, +2.15744199333E+001
+8.50187734668E+005, +6.00605762196E+001, +2.52724423199E+001
+9.75219023780E+005, +6.01033247369E+001, +2.89311084567E+001
+1.10025031289E+006, +6.01248877903E+001, +3.26943216650E+001
+1.22528160200E+006, +6.00980639108E+001, +3.64741259240E+001
+1.35031289111E+006, +6.01445855579E+001, +4.01901020235E+001
+1.47534418023E+006, +6.02118185834E+001, +4.39034427857E+001
+1.60037546934E+006, +6.01519267512E+001, +4.75227831544E+001
+1.72540675845E+006, +6.02011346375E+001, +5.13236450805E+001
+1.85043804756E+006, +6.01378572973E+001, +5.49707605817E+001
+1.97546933667E+006, +6.00710254407E+001, +5.88251282387E+001
+2.10050062578E+006, +6.01789244240E+001, +6.24671822426E+001
+2.22553191489E+006, +6.01894052650E+001, +6.61920686620E+001
+2.35056320401E+006, +6.01357355526E+001, +6.98571935274E+001
+2.47559449312E+006, +6.02834880345E+001, +7.37117951858E+001
+2.60062578223E+006, +6.02358349915E+001, +7.73333755720E+001
+2.72565707134E+006, +6.02119200942E+001, +8.10706961157E+001
+2.85068836045E+006, +6.01011121997E+001, +8.47543515735E+001
+2.97571964956E+006, +6.02170440326E+001, +8.86455770095E+001
+3.10075093867E+006, +6.03084433147E+001, +9.25106254054E+001
+3.22578222778E+006, +6.00204036300E+001, +9.61271739483E+001
+3.35081351690E+006, +6.05257797357E+001, +9.97917033105E+001
+3.47584480601E+006, +6.05608958992E+001, +1.03500031463E+002
+3.60087609512E+006, +6.06116213563E+001, +1.07487768393E+002
+3.72590738423E+006, +6.07602308420E+001, +1.11379537669E+002
+3.85093867334E+006, +6.06608386238E+001, +1.14875304075E+002
+3.97596996245E+006, +6.05419169861E+001, +1.18923266453E+002
+4.10100125156E+006, +6.07894514021E+001, +1.22740298989E+002
+4.22603254068E+006, +6.05236251615E+001, +1.26353849806E+002
+4.35106382979E+006, +6.05741694948E+001, +1.29799117597E+002
+4.47609511890E+006, +6.08836834364E+001, +1.33957554217E+002
+4.60112640801E+006, +6.07782314412E+001, +1.37943951512E+002
+4.72615769712E+006, +6.08591005968E+001, +1.41610411015E+002
+4.85118898623E+006, +6.06941375704E+001, +1.45499868905E+002
+4.97622027534E+006, +6.13217314754E+001, +1.49419435325E+002
+5.10125156446E+006, +6.06719099005E+001, +1.53176044362E+002
+5.22628285357E+006, +6.10881930044E+001, +1.57229220150E+002
+5.35131414268E+006, +6.10053554367E+001, +1.60875471303E+002
+5.47634543179E+006, +6.12076115224E+001, +1.65067021151E+002
+5.60137672090E+006, +6.14669789848E+001, +1.68474035020E+002
+5.72640801001E+006, +6.12381933340E+001, +1.72445897155E+002
+5.85143929912E+006, +6.15594211545E+001, +1.76755504937E+002
+5.97647058824E+006, +6.16830454194E+001, +1.80427768328E+002
+6.10150187735E+006, +6.18555414844E+001, +1.84094111015E+002
+6.22653316646E+006, +6.18963661440E+001, +1.88017609852E+002
+6.35156445557E+006, +6.18250391661E+001, +1.91897207259E+002
+6.47659574468E+006, +6.20318312845E+001, +1.95989252402E+002
+6.60162703379E+006, +6.22824234364E+001, +1.99951891595E+002
+6.72665832290E+006, +6.21040018758E+001, +2.03739687774E+002
+6.85168961202E+006, +6.22434145777E+001, +2.07670750396E+002
+6.97672090113E+006, +6.24586653691E+001, +2.11789537192E+002
+7.10175219024E+006, +6.24767544459E+001, +2.15592122070E+002
+7.22678347935E+006, +6.24918945618E+001, +2.19848535851E+002
+7.35181476846E+006, +6.27401974218E+001, +2.23772619928E+002
+7.47684605757E+006, +6.31316259256E+001, +2.27704792722E+002
+7.60187734668E+006, +6.33223791112E+001, +2.31892527311E+002
+7.72690863579E+006, +6.32706882468E+001, +2.36013185271E+002
+7.85193992491E+006, +6.33981238467E+001, +2.40174067659E+002
+7.97697121402E+006, +6.36705543528E+001, +2.43753029491E+002
+8.10200250313E+006, +6.34809267563E+001, +2.48126585226E+002
+8.22703379224E+006, +6.36935044895E+001, +2.52291194132E+002
+8.35206508135E+006, +6.42251858197E+001, +2.56280227355E+002
+8.47709637046E+006, +6.40084813005E+001, +2.60665703268E+002
+8.60212765957E+006, +6.42744366916E+001, +2.64619389320E+002
+8.72715894869E+006, +6.39369171418E+001, +2.68770285310E+002
+8.85219023780E+006, +6.40466259152E+001, +2.72522426352E+002
+8.97722152691E+006, +6.45094888704E+001, +2.77064114024E+002
+9.10225281602E+006, +6.46831391728E+001, +2.81839187937E+002
+9.22728410513E+006, +6.45502418536E+001, +2.85214280354E+002
+9.35231539424E+006, +6.48687937714E+001, +2.90036614636E+002
+9.47734668335E+006, +6.50637220303E+001, +2.94413277627E+002
+9.60237797247E+006, +6.54470356182E+001, +2.98524117095E+002
+9.72740926158E+006, +6.52613578766E+001, +3.02331424455E+002
+9.85244055069E+006, +6.54582732607E+001, +3.07156876795E+002
+9.97747183980E+006, +6.56287604487E+001, +3.11063996437E+002
+1.01025031289E+007, +6.56741047354E+001, +3.15046009099E+002
+1.02275344180E+007, +6.57889648237E+001, +3.19839506592E+002
+1.03525657071E+007, +6.57241918667E+001, +3.23681485502E+002
+1.04775969962E+007, +6.58095185611E+001, +3.28734870749E+002
+1.06026282854E+007, +6.65051192205E+001, +3.32732043197E+002
+1.07276595745E+007, +6.66837886472E+001, +3.37434626034E+002
+1.08526908636E+007, +6.63457882050E+001, +3.41951192920E+002
+1.09777221527E+007, +6.65937982964E+001, +3.46471550432E+002
+1.11027534418E+007, +6.65783575536E+001, +3.50504323889E+002
+1.12277847309E+007, +6.71763493718E+001, +3.54422586549E+002
+1.13528160200E+007, +6.68489810252E+001, +3.59563598823E+002
+1.14778473091E+007, +6.76126143718E+001, +3.63622663541E+002
+1.16028785982E+007, +6.68787200820E+001, +3.68031239659E+002
+1.17279098874E+007, +6.70354795425E+001, +3.72847722459E+002
+1.18529411765E+007, +6.76508458614E+001, +3.77557075521E+002
+1.19779724656E+007, +6.73305456981E+001, +3.82037109527E+002
+1.21030037547E+007, +6.81867317828E+001, +3.87567666289E+002
+1.22280350438E+007, +6.75485809073E+001, +3.92469359553E+002
+1.23530663329E+007, +6.81108137366E+001, +3.96567546199E+002
+1.24780976220E+007, +6.87212436322E+001, +4.00621654575E+002
+1.26031289111E+007, +6.92052463938E+001, +4.05881069281E+002
+1.27281602003E+007, +6.87055681402E+001, +4.09667795873E+002
+1.28531914894E+007, +6.82456911202E+001, +4.15503476192E+002
+1.29782227785E+007, +6.85510335759E+001, +4.20776143967E+002
+1.31032540676E+007, +6.92854928237E+001, +4.24823465980E+002
+1.32282853567E+007, +6.81683348769E+001, +4.29546751349E+002
+1.33533166458E+007, +6.99508978082E+001, +4.34727412070E+002
+1.34783479349E+007, +6.97362103480E+001, +4.39503442657E+002
+1.36033792240E+007, +6.97859501250E+001, +4.45017914220E+002
+1.37284105131E+007, +7.07819485364E+001, +4.51016647159E+002
+1.38534418023E+007, +7.09618150177E+001, +4.53312917663E+002
+1.39784730914E+007, +7.07409922135E+001, +4.59113366515E+002
+1.41035043805E+007, +7.13958779082E+001, +4.64168180085E+002
+1.42285356696E+007, +7.07231835104E+001, +4.69933791203E+002
+1.43535669587E+007, +7.13532158316E+001, +4.74802035769E+002
+1.44785982478E+007, +7.10124396185E+001, +4.79626690451E+002
+1.46036295369E+007, +7.18605871362E+001, +4.85103187248E+002
+1.47286608260E+007, +7.20133507271E+001, +4.90962084265E+002
+1.48536921151E+007, +7.31247447466E+001, +4.93383305516E+002
+1.49787234043E+007, +7.29627176967E+001, +5.02202952869E+002
+1.51037546934E+007, +7.39528347625E+001, +5.04609777867E+002
+1.52287859825E+007, +7.46151736894E+001, +5.11707273020E+002
+1.53538172716E+007, +7.38184477316E+001, +5.16412481741E+002
+1.54788485607E+007, +7.53362945500E+001, +5.22377627259E+002
+1.56038798498E+007, +7.36594475708E+001, +5.25942577647E+002
+1.57289111389E+007, +7.53376272885E+001, +5.32546233374E+002
+1.58539424280E+007, +7.68860847235E+001, +5.38683061001E+002
+1.59789737171E+007, +7.54625892780E+001, +5.42390881709E+002
+1.61040050063E+007, +7.54038754305E+001, +5.48787017733E+002
+1.62290362954E+007, +7.65985281949E+001, +5.55750884507E+002
+1.63540675845E+007, +7.65109058289E+001, +5.60514283256E+002
+1.64790988736E+007, +7.60745496295E+001, +5.64926071845E+002
+1.66041301627E+007, +7.64631216029E+001, +5.71316633516E+002
+1.67291614518E+007, +7.90593886723E+001, +5.76963305919E+002
+1.68541927409E+007, +7.92189535687E+001, +5.82706266697E+002
+1.69792240300E+007, +7.88278591001E+001, +5.89393370931E+002
+1.71042553191E+007, +7.61037563425E+001, +5.96603049428E+002
+1.72292866083E+007, +7.89401298416E+001, +6.03308178889E+002
+1.73543178974E+007, +7.90731133376E+001, +6.09107796394E+002
+1.74793491865E+007, +7.77490218775E+001, +6.11297302076E+002
+1.76043804756E+007, +7.95528063001E+001, +6.19967717899E+002
+1.77294117647E+007, +7.95226890076E+001, +6.23815243016E+002
+1.78544430538E+007, +8.08610417307E+001, +6.31181504012E+002
+1.79794743429E+007, +8.30388661711E+001, +6.36740088249E+002
+1.81045056320E+007, +8.27642214734E+001, +6.42994007804E+002
+1.82295369212E+007, +8.25385976637E+001, +6.50525206566E+002
+1.83545682103E+007, +8.18815608114E+001, +6.56855520879E+002
+1.84795994994E+007, +8.43438381153E+001, +6.63046560261E+002
+1.86046307885E+007, +8.24877447699E+001, +6.70180593468E+002
+1.87296620776E+007, +8.29153108089E+001, +6.78263944108E+002
+1.88546933667E+007, +8.86822720931E+001, +6.82926869543E+002
+1.89797246558E+007, +8.51325036715E+001, +6.88470319723E+002
+1.91047559449E+007, +8.71527251745E+001, +6.97543824090E+002
+1.92297872340E+007, +8.65133913300E+001, +7.00137947092E+002
+1.93548185232E+007, +8.53207387348E+001, +7.10690870624E+002
+1.94798498123E+007, +8.46278269842E+001, +7.17147031374E+002
+1.96048811014E+007, +8.89420887332E+001, +7.22528588919E+002
+1.97299123905E+007, +8.95432108032E+001, +7.30299649196E+002
+1.98549436796E+007, +9.01860212416E+001, +7.37865481091E+002
+1.99799749687E+007, +9.05802492770E+001, +7.42670801677E+002
+2.01050062578E+007, +9.27754007343E+001, +7.51329326820E+002
+2.02300375469E+007, +8.97412373798E+001, +7.56462593527E+002
+2.03550688360E+007, +9.33366856444E+001, +7.65439620061E+002
+2.04801001252E+007, +9.22080141123E+001, +7.74713427891E+002
+2.06051314143E+007, +9.22279638859E+001, +7.80759762837E+002
+2.07301627034E+007, +9.14741979069E+001, +7.88757946170E+002
+2.08551939925E+007, +9.49106877593E+001, +7.98117307297E+002
+2.09802252816E+007, +9.21912960141E+001, +8.05671379523E+002
+2.11052565707E+007, +9.69026071305E+001, +8.10528047295E+002
+2.12302878598E+007, +9.83205184328E+001, +8.17561737207E+002
+2.13553191489E+007, +9.90908829587E+001, +8.25352763462E+002
+2.14803504380E+007, +1.02265320378E+002, +8.36452163165E+002
+2.16053817272E+007, +9.58364894219E+001, +8.40103319196E+002
+2.17304130163E+007, +1.01919041931E+002, +8.51071121313E+002
+2.18554443054E+007, +1.03871341996E+002, +8.60225603353E+002
+2.19804755945E+007, +1.02777876603E+002, +8.66880662657E+002
+2.21055068836E+007, +1.05131306465E+002, +8.76992683473E+002
+2.22305381727E+007, +1.08888637267E+002, +8.86570977796E+002
+2.23555694618E+007, +1.05982199750E+002, +8.95103413360E+002
+2.24806007509E+007, +1.08735312184E+002, +8.98458078214E+002
+2.26056320401E+007, +1.09895358898E+002, +9.12703173120E+002
+2.27306633292E+007, +1.10461229751E+002, +9.24808429550E+002
+2.28556946183E+007, +1.12436130823E+002, +9.30481515776E+002
+2.29807259074E+007, +1.19501950774E+002, +9.43228638406E+002
+2.31057571965E+007, +1.14579745400E+002, +9.48794189449E+002
+2.32307884856E+007, +1.15329967595E+002, +9.53489163677E+002
+2.33558197747E+007, +1.23563815442E+002, +9.63227287262E+002
+2.34808510638E+007, +1.23100206524E+002, +9.74407226138E+002
+2.36058823529E+007, +1.27206909999E+002, +9.80371922808E+002
+2.37309136421E+007, +1.26169227053E+002, +9.90187040030E+002
+2.38559449312E+007, +1.29531990154E+002, +1.00192180023E+003
+2.39809762203E+007, +1.33688743531E+002, +1.01151990114E+003
+2.41060075094E+007, +1.34004215757E+002, +1.01492404694E+003
+2.42310387985E+007, +1.34688118508E+002, +1.02430666292E+003
+2.43560700876E+007, +1.33649745309E+002, +1.03312852774E+003
+2.44811013767E+007, +1.42947857216E+002, +1.04770417109E+003
+2.46061326658E+007, +1.44926955725E+002, +1.04870401747E+003
+2.47311639549E+007, +1.41983803705E+002, +1.06172795819E+003
+2.48561952441E+007, +1.38181632383E+002, +1.07039259324E+003
+2.49812265332E+007, +1.45971148039E+002, +1.07651437970E+003
+2.51062578223E+007, +1.40832675596E+002, +1.08477321389E+003
+2.52312891114E+007, +1.41549294466E+002, +1.10054463459E+003
+2.53563204005E+007, +1.42217618962E+002, +1.10596247545E+003
+2.54813516896E+007, +1.47636883477E+002, +1.11992829006E+003
+2.56063829787E+007, +1.43468680530E+002, +1.13269513812E+003
+2.57314142678E+007, +1.44698175973E+002, +1.14223320448E+003
+2.58564455569E+007, +1.45446874190E+002, +1.15311201730E+003
+2.59814768461E+007, +1.45749585953E+002, +1.16336196168E+003
+2.61065081352E+007, +1.48663779876E+002, +1.18006968051E+003
+2.62315394243E+007, +1.47489015415E+002, +1.19047670212E+003
+2.63565707134E+007, +1.47780369510E+002, +1.19542663393E+003
+2.64816020025E+007, +1.49498506646E+002, +1.21178204656E+003
+2.66066332916E+007, +1.55734760532E+002, +1.23490440497E+003
+2.67316645807E+007, +1.46349871768E+002, +1.24033715086E+003
+2.68566958698E+007, +1.54392550542E+002, +1.24837329323E+003
+2.69817271589E+007, +1.63472605434E+002, +1.26287083283E+003
+2.71067584481E+007, +1.55688471600E+002, +1.27548648396E+003
+2.72317897372E+007, +1.68771938071E+002, +1.28356233564E+003
+2.73568210263E+007, +1.69059537134E+002, +1.30742741906E+003
+2.74818523154E+007, +1.67091414420E+002, +1.31298649243E+003
+2.76068836045E+007, +1.71438381081E+002, +1.32801800868E+003
+2.77319148936E+007, +1.58957409045E+002, +1.34445273642E+003
+2.78569461827E+007, +1.59980198272E+002, +1.35369462234E+003
+2.79819774718E+007, +1.68240732022E+002, +1.37876150092E+003
+2.81070087610E+007, +1.66342223179E+002, +1.37691556240E+003
+2.82320400501E+007, +1.69481662470E+002, +1.40576874970E+003
+2.83570713392E+007, +1.60842024560E+002, +1.41616763588E+003
+2.84821026283E+007, +1.95102055404E+002, +1.44263067278E+003
+2.86071339174E+007, +1.80782934945E+002, +1.44001568552E+003
+2.87321652065E+007, +1.78322319663E+002, +1.46554543525E+003
+2.88571964956E+007, +1.84343661052E+002, +1.48891171366E+003
+2.89822277847E+007, +1.86707445608E+002, +1.50510768255E+003
+2.91072590738E+007, +1.81448082877E+002, +1.52388303256E+003
+2.92322903630E+007, +1.91973313052E+002, +1.53921266953E+003
+2.93573216521E+007, +1.88504250415E+002, +1.54950083839E+003
+2.94823529412E+007, +2.00057371398E+002, +1.57522435668E+003
+2.96073842303E+007, +2.01943065941E+002, +1.60606749838E+003
+2.97324155194E+007, +2.04012139472E+002, +1.62137949812E+003
+2.98574468085E+007, +2.13199761991E+002, +1.64183785640E+003
+2.99824780976E+007, +2.03559962129E+002, +1.66394669092E+003
+3.01075093867E+007, +2.21105893454E+002, +1.67572058481E+003
+3.02325406758E+007, +1.99525921057E+002, +1.70114216876E+003
+3.03575719650E+007, +2.06024345471E+002, +1.71309968327E+003
+3.04826032541E+007, +2.39262235104E+002, +1.73204319720E+003
+3.06076345432E+007, +2.24226842444E+002, +1.74142378141E+003
+3.07326658323E+007, +2.25970775698E+002, +1.78133108650E+003
+3.08576971214E+007, +2.44157568948E+002, +1.80214768510E+003
+3.09827284105E+007, +2.28243989742E+002, +1.82189482169E+003
+3.11077596996E+007, +2.45531306625E+002, +1.86563082937E+003
+3.12327909887E+007, +2.49452976412E+002, +1.88642608619E+003
+3.13578222778E+007, +2.59959134105E+002, +1.91001633984E+003
+3.14828535670E+007, +2.37429271441E+002, +1.94570343568E+003
+3.16078848561E+007, +2.53912154069E+002, +1.95800147502E+003
+3.17329161452E+007, +2.52817731303E+002, +2.00055363469E+003
+3.18579474343E+007, +2.70172065828E+002, +2.00839167639E+003
+3.19829787234E+007, +2.79174606112E+002, +2.03714800732E+003
+3.21080100125E+007, +2.77565920036E+002, +2.06255332549E+003
+3.22330413016E+007, +2.95569943346E+002, +2.09698155784E+003
+3.23580725907E+007, +2.83664454364E+002, +2.13729364479E+003
+3.24831038798E+007, +3.08579734045E+002, +2.16328930474E+003
+3.26081351690E+007, +2.97163059483E+002, +2.20302328167E+003
+3.27331664581E+007, +3.37077415754E+002, +2.21273826126E+003
+3.28581977472E+007, +3.14142411447E+002, +2.25980660681E+003
+3.29832290363E+007, +3.03453448650E+002, +2.26870161369E+003
+3.31082603254E+007, +3.07754284041E+002, +2.33374912071E+003
+3.32332916145E+007, +3.46087631219E+002, +2.34292518140E+003
+3.33583229036E+007, +3.57581683823E+002, +2.38612898303E+003
+3.34833541927E+007, +3.30028865134E+002, +2.43365056887E+003
+3.36083854819E+007, +3.29635772626E+002, +2.45333907417E+003
+3.37334167710E+007, +3.72960950447E+002, +2.51747661574E+003
+3.38584480601E+007, +3.55042092727E+002, +2.57375293129E+003
+3.39834793492E+007, +3.91943989269E+002, +2.63784680693E+003
+3.41085106383E+007, +4.09877592058E+002, +2.59689935517E+003
+3.42335419274E+007, +4.34102961863E+002, +2.69212443964E+003
+3.43585732165E+007, +4.05364979364E+002, +2.76162173640E+003
+3.44836045056E+007, +4.83586482456E+002, +2.80064477613E+003
+3.46086357947E+007, +4.97477547444E+002, +2.82318143365E+003
+3.47336670839E+007, +4.36733114101E+002, +2.88700542079E+003
+3.48586983730E+007, +4.51213649943E+002, +2.91294097387E+003
+3.49837296621E+007, +5.08663825053E+002, +2.98661430922E+003
+3.51087609512E+007, +5.32785128304E+002, +3.06534617783E+003
+3.52337922403E+007, +4.96805352956E+002, +3.11404543872E+003
+3.53588235294E+007, +5.05860075158E+002, +3.14240952758E+003
+3.54838548185E+007, +6.03754322495E+002, +3.27701378778E+003
+3.56088861076E+007, +6.10631362311E+002, +3.24932067853E+003
+3.57339173967E+007, +6.87365585394E+002, +3.39200308664E+003
+3.58589486859E+007, +7.37358146125E+002, +3.51607060041E+003
+3.59839799750E+007, +6.25921702118E+002, +3.55746517359E+003
+3.61090112641E+007, +7.40612928911E+002, +3.53457987576E+003
+3.62340425532E+007, +6.79811126139E+002, +3.63544760488E+003
+3.63590738423E+007, +7.51786334174E+002, +3.80601497123E+003
+3.64841051314E+007, +7.95434733627E+002, +3.84220091614E+003
+3.66091364205E+007, +8.78614531704E+002, +4.00761491303E+003
+3.67341677096E+007, +9.80831447514E+002, +3.96457396171E+003
+3.68591989987E+007, +9.71715973034E+002, +4.07297843768E+003
+3.69842302879E+007, +1.10604338247E+003, +4.18247821022E+003
+3.71092615770E+007, +1.00896027962E+003, +4.44435733269E+003
+3.72342928661E+007, +1.07386458784E+003, +4.35173959229E+003
+3.73593241552E+007, +1.13414695250E+003, +4.54170551386E+003
+3.74843554443E+007, +1.29798275237E+003, +4.72268709111E+003
+3.76093867334E+007, +1.37797054538E+003, +4.90859678600E+003
+3.77344180225E+007, +1.40990613152E+003, +5.02308246867E+003
+3.78594493116E+007, +1.56340721687E+003, +5.15409869093E+003
+3.79844806008E+007, +1.51090595660E+003, +5.40039645009E+003
+3.81095118899E+007, +1.78265633043E+003, +5.48010562326E+003
+3.82345431790E+007, +1.62463273281E+003, +5.53570475126E+003
+3.83595744681E+007, +2.03365124110E+003, +5.89889271920E+003
+3.84846057572E+007, +2.17652632341E+003, +5.96542900029E+003
+3.86096370463E+007, +2.15830805675E+003, +6.25026682980E+003
+3.87346683354E+007, +2.44948115609E+003, +6.55151589802E+003
+3.88596996245E+007, +2.69560932859E+003, +6.97739011820E+003
+3.89847309136E+007, +2.91750873492E+003, +6.91385546965E+003
+3.91097622028E+007, +2.97755967742E+003, +7.45196656898E+003
+3.92347934919E+007, +3.43321777334E+003, +7.37252744887E+003
+3.93598247810E+007, +3.81367281664E+003, +7.48859093775E+003
+3.94848560701E+007, +4.03208759911E+003, +8.09666219226E+003
+3.96098873592E+007, +4.51684571611E+003, +8.04567791735E+003
+3.97349186483E+007, +4.85972530705E+003, +8.45254122865E+003
+3.98599499374E+007, +6.01909556863E+003, +9.21203321553E+003
+3.99849812265E+007, +6.19641266685E+003, +8.52831324750E+003
+4.01100125156E+007, +7.25722052759E+003, +8.82801739810E+003
