"# Channel 1"
"# Trace 1"
Frequency, Formatted Data, Formatted Data
+1.00000000000E+005, +7.08107348441E-001, +3.29579868767E+000
+2.87609511890E+005, +6.92891047205E-001, +9.04884049522E+000
+4.75219023780E+005, +7.20779492251E-001, +1.50065131903E+001
+6.62828535670E+005, +8.33332633279E-001, +2.07790761440E+001
+8.50438047559E+005, +8.29513918473E-001, +2.66423694759E+001
+1.03804755945E+006, +8.49589714233E-001, +3.26075039074E+001
+1.22565707134E+006, +9.34755759310E-001, +3.83422232041E+001
+1.41326658323E+006, +1.06364930218E+000, +4.41774892943E+001
+1.60087609512E+006, +1.12401388307E+000, +4.99794940552E+001
+1.78848560701E+006, +1.12340664588E+000, +5.58231986127E+001
+1.97609511890E+006, +1.16112723204E+000, +6.17095532521E+001
+2.16370463079E+006, +1.24313009170E+000, +6.75708833701E+001
+2.35131414268E+006, +1.27022109452E+000, +7.32680217826E+001
+2.53892365457E+006, +1.10414105194E+000, +7.89842242081E+001
+2.72653316646E+006, +1.35617705814E+000, +8.48057250577E+001
+2.91414267835E+006, +1.28484724587E+000, +9.08042215283E+001
+3.10175219024E+006, +1.33128389929E+000, +9.64491393151E+001
+3.28936170213E+006, +1.35075784001E+000, +1.02228721821E+002
+3.47697121402E+006, +1.34156583845E+000, +1.08125927375E+002
+3.66458072591E+006, +1.39681395290E+000, +1.14095038659E+002
+3.85219023780E+006, +1.29330461534E+000, +1.19584908215E+002
+4.03979974969E+006, +1.50444711868E+000, +1.25569169116E+002
+4.22740926158E+006, +1.49122999518E+000, +1.31295396564E+002
+4.41501877347E+006, +1.49435160438E+000, +1.37327761581E+002
+4.60262828536E+006, +1.58575297216E+000, +1.42939353100E+002
+4.79023779725E+006, +1.57800655072E+000, +1.48947034554E+002
+4.97784730914E+006, +1.81837459120E+000, +1.54790484832E+002
+5.16545682103E+006, +1.41814588439E+000, +1.60701748459E+002
+5.35306633292E+006, +1.63819686733E+000, +1.66391403681E+002
+5.54067584481E+006, +1.44106517790E+000, +1.72221416926E+002
+5.72828535670E+006, +1.61239326537E+000, +1.78208264676E+002
+5.91589486859E+006, +1.88332614874E+000, +1.83925543685E+002
+6.10350438048E+006, +1.90626746471E+000, +1.89788467665E+002
+6.29111389237E+006, +1.71984811667E+000, +1.95687391979E+002
+6.47872340426E+006, +1.82284743849E+000, +2.01720413082E+002
+6.66633291615E+006, +1.91398671785E+000, +2.07585798710E+002
+6.85394242804E+006, +2.01059170603E+000, +2.13443047946E+002
+7.04155193992E+006, +1.84342636990E+000, +2.19126360077E+002
+7.22916145181E+006, +1.98286537345E+000, +2.25213056797E+002
+7.41677096370E+006, +2.13299448610E+000, +2.31115302051E+002
+7.60438047559E+006, +2.01745261257E+000, +2.36911401860E+002
+7.79198998748E+006, +2.16019594168E+000, +2.42912916093E+002
+7.97959949937E+006, +2.08944994384E+000, +2.48865884511E+002
+8.16720901126E+006, +1.98657837335E+000, +2.55037425071E+002
+8.35481852315E+006, +2.08251380945E+000, +2.60667712284E+002
+8.54242803504E+006, +2.14638022504E+000, +2.66967806541E+002
+8.73003754693E+006, +2.12212466484E+000, +2.72633925478E+002
+8.91764705882E+006, +2.31910191928E+000, +2.78864034747E+002
+9.10525657071E+006, +1.92097203079E+000, +2.84651965351E+002
+9.29286608260E+006, +2.32273599673E+000, +2.90603695314E+002
+9.48047559449E+006, +2.20740697446E+000, +2.96586707556E+002
+9.66808510638E+006, +1.91822137375E+000, +3.02629308239E+002
+9.85569461827E+006, +1.91387443709E+000, +3.08534176911E+002
+1.00433041302E+007, +2.11044110114E+000, +3.14603621471E+002
+1.02309136421E+007, +1.90696414056E+000, +3.20788460245E+002
+1.04185231539E+007, +2.27486910107E+000, +3.26902981953E+002
+1.06061326658E+007, +1.92544582367E+000, +3.32622240489E+002
+1.07937421777E+007, +2.14729408152E+000, +3.38850111429E+002
+1.09813516896E+007, +2.00911622929E+000, +3.45117459956E+002
+1.11689612015E+007, +2.16941035941E+000, +3.50844900809E+002
+1.13565707134E+007, +2.12520355595E+000, +3.57132226029E+002
+1.15441802253E+007, +1.99770674795E+000, +3.63215078862E+002
+1.17317897372E+007, +2.07049449221E+000, +3.69075811430E+002
+1.19193992491E+007, +1.81136061830E+000, +3.75336218959E+002
+1.21070087610E+007, +1.88881563487E+000, +3.81523279959E+002
+1.22946182728E+007, +1.81118943812E+000, +3.87803046272E+002
+1.24822277847E+007, +1.57468579013E+000, +3.94283477361E+002
+1.26698372966E+007, +1.92980052735E+000, +4.00269941675E+002
+1.28574468085E+007, +1.94830745871E+000, +4.06061488122E+002
+1.30450563204E+007, +1.94433017344E+000, +4.12383583158E+002
+1.32326658323E+007, +1.88812318018E+000, +4.18759886605E+002
+1.34202753442E+007, +2.18929088896E+000, +4.25227225248E+002
+1.36078848561E+007, +1.75707232327E+000, +4.30780623461E+002
+1.37954943680E+007, +1.67510246156E+000, +4.37359586377E+002
+1.39831038798E+007, +1.89915863441E+000, +4.43991594026E+002
+1.41707133917E+007, +1.85162610708E+000, +4.50211482936E+002
+1.43583229036E+007, +1.61784751190E+000, +4.56157799570E+002
+1.45459324155E+007, +1.87427845631E+000, +4.62749949750E+002
+1.47335419274E+007, +1.57709686478E+000, +4.68796476292E+002
+1.49211514393E+007, +1.45227015582E+000, +4.74977812768E+002
+1.51087609512E+007, +1.81009548781E+000, +4.81787027215E+002
+1.52963704631E+007, +1.70948816850E+000, +4.88192462646E+002
+1.54839799750E+007, +8.28561285048E-001, +4.94320968297E+002
+1.56715894869E+007, +1.74691405749E+000, +5.00341456971E+002
+1.58591989987E+007, +1.57294373682E+000, +5.07118815316E+002
+1.60468085106E+007, +8.23727852057E-001, +5.13397050169E+002
+1.62344180225E+007, +7.18469507788E-001, +5.20103676315E+002
+1.64220275344E+007, +1.33789384768E+000, +5.26781276499E+002
+1.66096370463E+007, +1.52041689683E+000, +5.33254567508E+002
+1.67972465582E+007, +8.94211798070E-001, +5.39899035950E+002
+1.69848560701E+007, +1.93648654007E+000, +5.46333002943E+002
+1.71724655820E+007, +2.69372624103E-001, +5.52410345501E+002
+1.73600750939E+007, +8.34157346559E-001, +5.59336003183E+002
+1.75476846058E+007, -1.78794475962E-002, +5.66053824869E+002
+1.77352941176E+007, +1.22569665944E+000, +5.73063449975E+002
+1.79229036295E+007, +9.34955208488E-001, +5.78404997490E+002
+1.81105131414E+007, +1.19323035795E+000, +5.85761764740E+002
+1.82981226533E+007, +7.31217823449E-001, +5.92136470376E+002
+1.84857321652E+007, +7.07967215806E-001, +5.98808397344E+002
+1.86733416771E+007, +1.52878460518E+000, +6.04964652955E+002
+1.88609511890E+007, +6.81521205118E-001, +6.11751960859E+002
+1.90485607009E+007, +9.66885963617E-001, +6.19469954453E+002
+1.92361702128E+007, +6.74055435406E-001, +6.26015555993E+002
+1.94237797247E+007, +5.53490744089E-001, +6.32083382411E+002
+1.96113892365E+007, +1.30027927986E+000, +6.39308383294E+002
+1.97989987484E+007, +1.40339646260E+000, +6.45529687784E+002
+1.99866082603E+007, +5.71386458302E-001, +6.52651504235E+002
+2.01742177722E+007, +8.26537789523E-001, +6.60211219600E+002
+2.03618272841E+007, +7.93813118448E-001, +6.67333563227E+002
+2.05494367960E+007, +9.58928516706E-001, +6.73684460145E+002
+2.07370463079E+007, +1.08639373140E+000, +6.79777188559E+002
+2.09246558198E+007, +2.31886338336E-001, +6.87852954390E+002
+2.11122653317E+007, +1.95332524916E-002, +6.93760791849E+002
+2.12998748436E+007, +3.13072023433E-001, +7.00982653178E+002
+2.14874843554E+007, +6.14956669544E-001, +7.07201960417E+002
+2.16750938673E+007, -3.61955620976E-001, +7.15997525782E+002
+2.18627033792E+007, +1.70409491208E-001, +7.23527781019E+002
+2.20503128911E+007, +6.81842898619E-001, +7.29904374222E+002
+2.22379224030E+007, +1.06572167757E+000, +7.36006321501E+002
+2.24255319149E+007, -1.40070005609E-001, +7.43121665824E+002
+2.26131414268E+007, +1.96561337995E-002, +7.50674566164E+002
+2.28007509387E+007, +7.56097844302E-003, +7.57414768711E+002
+2.29883604506E+007, +6.10025046596E-001, +7.66379610152E+002
+2.31759699625E+007, +1.32780058163E+000, +7.71934959301E+002
+2.33635794743E+007, +2.14127055823E-001, +7.79717592514E+002
+2.35511889862E+007, +8.11223005807E-001, +7.87014167918E+002
+2.37387984981E+007, +1.30657593247E+000, +7.95914990756E+002
+2.39264080100E+007, +1.75005620799E-001, +8.02355797676E+002
+2.41140175219E+007, -5.19472461958E-001, +8.09676015317E+002
+2.43016270338E+007, +5.82998746335E-001, +8.16667999360E+002
+2.44892365457E+007, -2.13306198815E-001, +8.24023687965E+002
+2.46768460576E+007, +9.42492031641E-001, +8.32497532163E+002
+2.48644555695E+007, +2.64974299102E-001, +8.38967034161E+002
+2.50520650814E+007, +1.30189473257E+000, +8.47148450880E+002
+2.52396745932E+007, -5.86356621354E-001, +8.54082916178E+002
+2.54272841051E+007, +1.41705215252E+000, +8.62322128597E+002
+2.56148936170E+007, -8.07827488845E-001, +8.69413578267E+002
+2.58025031289E+007, +1.36889498469E+000, +8.76746560011E+002
+2.59901126408E+007, +1.09569320490E+000, +8.84561555655E+002
+2.61777221527E+007, -3.64854386075E-001, +8.92624777953E+002
+2.63653316646E+007, +1.71054832017E+000, +9.00577239194E+002
+2.65529411765E+007, -2.28774269253E-002, +9.08406348476E+002
+2.67405506884E+007, +1.39059408182E-001, +9.15735746906E+002
+2.69281602003E+007, -6.43230560386E-001, +9.22285877530E+002
+2.71157697121E+007, +4.97611620162E-001, +9.31678476400E+002
+2.73033792240E+007, -6.55983473944E-001, +9.39857410340E+002
+2.74909887359E+007, +2.77373889819E-001, +9.47714611015E+002
+2.76785982478E+007, +1.34978350818E+000, +9.56048258635E+002
+2.78662077597E+007, +3.78957221926E-001, +9.62686165207E+002
+2.80538172716E+007, +2.10310691938E-001, +9.71788014392E+002
+2.82414267835E+007, -4.45264150818E-001, +9.79402173955E+002
+2.84290362954E+007, +7.75895837595E-001, +9.87073703413E+002
+2.86166458073E+007, -6.82973776946E-001, +9.94997595914E+002
+2.88042553191E+007, +3.24041517242E-001, +1.00497584843E+003
+2.89918648310E+007, -7.60257477378E-001, +1.01288955355E+003
+2.91794743429E+007, +4.77939585753E-001, +1.01932001837E+003
+2.93670838548E+007, -1.23014229850E+000, +1.02919302696E+003
+2.95546933667E+007, -3.63790291587E-001, +1.03794518866E+003
+2.97423028786E+007, -2.47465836336E+000, +1.04579191182E+003
+2.99299123905E+007, -1.81515218239E+000, +1.05301920042E+003
+3.01175219024E+007, -6.30222314881E-002, +1.06411484187E+003
+3.03051314143E+007, -6.87221510636E-001, +1.07282203276E+003
+3.04927409262E+007, -2.20423796395E+000, +1.08157829338E+003
+3.06803504380E+007, -1.09163309481E+000, +1.08946208603E+003
+3.08679599499E+007, -3.27305866363E+000, +1.09816766926E+003
+3.10555694618E+007, -4.56076985575E+000, +1.10662481720E+003
+3.12431789737E+007, -3.24791317830E+000, +1.11452197904E+003
+3.14307884856E+007, -1.73253448489E+000, +1.12252821745E+003
+3.16183979975E+007, -3.23743489212E+000, +1.13406931235E+003
+3.18060075094E+007, -4.77362942249E+000, +1.14194454258E+003
+3.19936170213E+007, -3.56415904402E+000, +1.15075904355E+003
+3.21812265332E+007, -1.27455718034E+000, +1.15966795065E+003
+3.23688360451E+007, -3.54747029036E+000, +1.16972742298E+003
+3.25564455569E+007, -4.54426631907E+000, +1.17892681372E+003
+3.27440550688E+007, -3.11347758967E+000, +1.18873340096E+003
+3.29316645807E+007, -2.84297033748E+000, +1.19889722055E+003
+3.31192740926E+007, -5.74301169494E+000, +1.20677878430E+003
+3.33068836045E+007, -6.45544083734E+000, +1.21463225324E+003
+3.34944931164E+007, -4.99300895165E+000, +1.22619978595E+003
+3.36821026283E+007, -5.35475401279E+000, +1.23531282389E+003
+3.38697121402E+007, -4.52307684666E+000, +1.24354475382E+003
+3.40573216521E+007, -7.38968147528E+000, +1.25433125556E+003
+3.42449311640E+007, -4.91241314510E+000, +1.26386291509E+003
+3.44325406758E+007, -7.34237414156E+000, +1.27560105340E+003
+3.46201501877E+007, -4.30049839531E+000, +1.28012673200E+003
+3.48077596996E+007, -6.20660313186E+000, +1.29175902109E+003
+3.49953692115E+007, -3.29452590267E+000, +1.30368267211E+003
+3.51829787234E+007, -5.22752091050E+000, +1.31396508104E+003
+3.53705882353E+007, -5.92583447572E+000, +1.32646710206E+003
+3.55581977472E+007, -5.62307823700E+000, +1.33732509965E+003
+3.57458072591E+007, -5.25121215091E+000, +1.34532217754E+003
+3.59334167710E+007, -3.16574663230E+000, +1.35608413122E+003
+3.61210262829E+007, -9.34186377822E+000, +1.36680930103E+003
+3.63086357947E+007, -4.95993917310E+000, +1.37476306681E+003
+3.64962453066E+007, -6.31850228177E+000, +1.38623415063E+003
+3.66838548185E+007, -5.97332279433E+000, +1.39547634397E+003
+3.68714643304E+007, -7.45563845651E+000, +1.40297069904E+003
+3.70590738423E+007, -4.75281358571E+000, +1.41975381752E+003
+3.72466833542E+007, -6.56848866034E+000, +1.42888323583E+003
+3.74342928661E+007, -5.20261241050E+000, +1.43997461483E+003
+3.76219023780E+007, -5.69845913285E+000, +1.45091259000E+003
+3.78095118899E+007, -9.01539932989E+000, +1.46160142986E+003
+3.79971214018E+007, -9.71632311908E+000, +1.47179157649E+003
+3.81847309136E+007, -7.32826735950E+000, +1.48422412702E+003
+3.83723404255E+007, -5.63339015652E+000, +1.49397711699E+003
+3.85599499374E+007, -1.05125099403E+001, +1.50843937809E+003
+3.87475594493E+007, -1.00181253893E+001, +1.51972234384E+003
+3.89351689612E+007, -9.01062491899E+000, +1.53115777016E+003
+3.91227784731E+007, -7.78736192236E+000, +1.54187920505E+003
+3.93103879850E+007, -7.19384569110E+000, +1.55538807880E+003
+3.94979974969E+007, -5.94824628297E+000, +1.55861549917E+003
+3.96856070088E+007, -1.20312139015E+001, +1.57552991685E+003
+3.98732165207E+007, -1.50933724912E+001, +1.58679371902E+003
+4.00608260325E+007, -1.16635333150E+001, +1.59853810937E+003
+4.02484355444E+007, -1.01539148603E+001, +1.61258156629E+003
+4.04360450563E+007, -8.29489389076E+000, +1.62631006959E+003
+4.06236545682E+007, -8.54117071862E+000, +1.63729457748E+003
+4.08112640801E+007, -1.03432726732E+001, +1.64767443657E+003
+4.09988735920E+007, -1.47360837744E+001, +1.66582655538E+003
+4.11864831039E+007, -1.08876474781E+001, +1.67274882417E+003
+4.13740926158E+007, -1.28937158768E+001, +1.68924623371E+003
+4.15617021277E+007, -1.70326066830E+001, +1.69636827788E+003
+4.17493116395E+007, -1.32462718553E+001, +1.71375564558E+003
+4.19369211514E+007, -1.52392395785E+001, +1.72711213431E+003
+4.21245306633E+007, -1.43947134715E+001, +1.74430730732E+003
+4.23121401752E+007, -1.61723502868E+001, +1.75705694878E+003
+4.24997496871E+007, -1.43250554174E+001, +1.76221650262E+003
+4.26873591990E+007, -1.59655348356E+001, +1.78255247538E+003
+4.28749687109E+007, -1.37683776020E+001, +1.79696896577E+003
+4.30625782228E+007, -1.93253431804E+001, +1.80694115602E+003
+4.32501877347E+007, -1.41973965762E+001, +1.82009028039E+003
+4.34377972466E+007, -1.71256798485E+001, +1.83925258978E+003
+4.36254067584E+007, -1.53739155147E+001, +1.85542697242E+003
+4.38130162703E+007, -1.13119034045E+001, +1.86756579163E+003
+4.40006257822E+007, -1.57152355672E+001, +1.88603296101E+003
+4.41882352941E+007, -2.05156262029E+001, +1.89421232637E+003
+4.43758448060E+007, -1.98841451254E+001, +1.90649456053E+003
+4.45634543179E+007, -2.09948463838E+001, +1.91933107541E+003
+4.47510638298E+007, -1.84307939726E+001, +1.94263917234E+003
+4.49386733417E+007, -2.42132933380E+001, +1.95823908243E+003
+4.51262828536E+007, -2.20240096042E+001, +1.97210975844E+003
+4.53138923655E+007, -2.27048726594E+001, +1.98729056955E+003
+4.55015018773E+007, -1.55775247678E+001, +2.00053645824E+003
+4.56891113892E+007, -1.78994177061E+001, +2.01583318874E+003
+4.58767209011E+007, -2.52134154383E+001, +2.02971048017E+003
+4.60643304130E+007, -2.69661454904E+001, +2.04414400713E+003
+4.62519399249E+007, -3.04810057935E+001, +2.06785942959E+003
+4.64395494368E+007, -2.16940884402E+001, +2.07940681887E+003
+4.66271589487E+007, -3.13843786221E+001, +2.10272963073E+003
+4.68147684606E+007, -3.19751797262E+001, +2.12129396111E+003
+4.70023779725E+007, -2.59439230294E+001, +2.13180350938E+003
+4.71899874844E+007, -2.75467454728E+001, +2.15613945167E+003
+4.73775969962E+007, -3.43539582983E+001, +2.16829187037E+003
+4.75652065081E+007, -3.39187859507E+001, +2.17958547151E+003
+4.77528160200E+007, -2.84089223707E+001, +2.20205494007E+003
+4.79404255319E+007, -3.16713585917E+001, +2.21618059108E+003
+4.81280350438E+007, -3.36799252823E+001, +2.24100027908E+003
+4.83156445557E+007, -3.70202830266E+001, +2.25929634563E+003
+4.85032540676E+007, -2.47863029533E+001, +2.28157165376E+003
+4.86908635795E+007, -3.39645204024E+001, +2.28877831876E+003
+4.88784730914E+007, -3.31953742822E+001, +2.31402351406E+003
+4.90660826033E+007, -3.95586015124E+001, +2.32788511345E+003
+4.92536921151E+007, -3.84679504625E+001, +2.36502024757E+003
+4.94413016270E+007, -2.75210706508E+001, +2.36441714560E+003
+4.96289111389E+007, -2.85775613102E+001, +2.39400705195E+003
+4.98165206508E+007, -4.52137315348E+001, +2.41318415280E+003
+5.00041301627E+007, -3.23199079322E+001, +2.43992696897E+003
+5.01917396746E+007, -4.10101877455E+001, +2.45619142920E+003
+5.03793491865E+007, -3.58565712600E+001, +2.47341007506E+003
+5.05669586984E+007, -3.79948184327E+001, +2.49346822961E+003
+5.07545682103E+007, -4.30385840713E+001, +2.51406696297E+003
+5.09421777222E+007, -3.31281079094E+001, +2.53834160213E+003
+5.11297872340E+007, -4.81853165261E+001, +2.56603671967E+003
+5.13173967459E+007, -4.50829219693E+001, +2.58944163729E+003
+5.15050062578E+007, -4.34869928727E+001, +2.59938501329E+003
+5.16926157697E+007, -4.91952529841E+001, +2.62934847073E+003
+5.18802252816E+007, -5.49961159597E+001, +2.65351992315E+003
+5.20678347935E+007, -4.99808829621E+001, +2.67600477747E+003
+5.22554443054E+007, -5.21740977471E+001, +2.70075064275E+003
+5.24430538173E+007, -6.61281763907E+001, +2.72745317186E+003
+5.26306633292E+007, -5.30412362889E+001, +2.74979888094E+003
+5.28182728411E+007, -5.98605060677E+001, +2.77811092563E+003
+5.30058823529E+007, -4.59744564611E+001, +2.79876457962E+003
+5.31934918648E+007, -5.85730181704E+001, +2.83876793858E+003
+5.33811013767E+007, -5.95911598776E+001, +2.84997547880E+003
+5.35687108886E+007, -4.51603337767E+001, +2.88391961474E+003
+5.37563204005E+007, -6.42330438201E+001, +2.90698126435E+003
+5.39439299124E+007, -4.61101093890E+001, +2.93143428004E+003
+5.41315394243E+007, -6.39717302941E+001, +2.95440549151E+003
+5.43191489362E+007, -4.68769822613E+001, +2.99493864708E+003
+5.45067584481E+007, -5.08055146710E+001, +3.02172014754E+003
+5.46943679599E+007, -7.22384435984E+001, +3.04619148818E+003
+5.48819774718E+007, -7.04898592860E+001, +3.07152180674E+003
+5.50695869837E+007, -6.70717823629E+001, +3.11506271138E+003
+5.52571964956E+007, -6.39865401813E+001, +3.12195028713E+003
+5.54448060075E+007, -4.93091792485E+001, +3.17230062288E+003
+5.56324155194E+007, -6.66283221618E+001, +3.17654223856E+003
+5.58200250313E+007, -5.55580297107E+001, +3.23536718756E+003
+5.60076345432E+007, -6.47613940028E+001, +3.26795791726E+003
+5.61952440551E+007, -8.22634674066E+001, +3.31455954080E+003
+5.63828535670E+007, -7.56860315171E+001, +3.33633993592E+003
+5.65704630788E+007, -7.51302240863E+001, +3.35800545204E+003
+5.67580725907E+007, -7.30798198680E+001, +3.40235391129E+003
+5.69456821026E+007, -7.60769933541E+001, +3.43555790941E+003
+5.71332916145E+007, -8.84586195667E+001, +3.46383832982E+003
+5.73209011264E+007, -9.29570371351E+001, +3.54145050562E+003
+5.75085106383E+007, -9.06468855722E+001, +3.56186818005E+003
+5.76961201502E+007, -8.82656151691E+001, +3.58982634635E+003
+5.78837296621E+007, -7.59456873631E+001, +3.62425086094E+003
+5.80713391740E+007, -7.64841744824E+001, +3.65416045487E+003
+5.82589486859E+007, -8.33588211008E+001, +3.71733677184E+003
+5.84465581977E+007, -9.24144781352E+001, +3.76630703455E+003
+5.86341677096E+007, -9.72803247803E+001, +3.82085109117E+003
+5.88217772215E+007, -8.57974654272E+001, +3.81943685693E+003
+5.90093867334E+007, -9.62135554441E+001, +3.88367192617E+003
+5.91969962453E+007, -9.23800487044E+001, +3.93847221645E+003
+5.93846057572E+007, -1.02350946255E+002, +3.96537518872E+003
+5.95722152691E+007, -8.95420193372E+001, +4.01810406555E+003
+5.97598247810E+007, -1.11050020708E+002, +4.06215140204E+003
+5.99474342929E+007, -1.17707423030E+002, +4.07704223308E+003
+6.01350438048E+007, -9.24644329425E+001, +4.17506764285E+003
