"# Channel 1"
"# Trace 1"
Frequency, Formatted Data, Formatted Data
+1.00000000000E+005, -2.31715544999E+004, +3.62006072262E+004
+2.87609511890E+005, +2.13613315609E+004, +5.96063169375E+004
+4.75219023780E+005, +3.73021469180E+004, +7.63737668067E+004
+6.62828535670E+005, -1.98554038206E+004, -3.18687650786E+004
+8.50438047559E+005, -9.92090912916E+003, -3.85314619229E+004
+1.03804755945E+006, +6.42594631743E+004, -3.17425247046E+004
+1.22565707134E+006, -4.60849189202E+004, -1.87065939503E+004
+1.41326658323E+006, -1.41489165622E+004, -2.72974088039E+004
+1.60087609512E+006, -4.00993130194E+004, +4.42024276850E+003
+1.78848560701E+006, -3.35256677447E+004, -1.11028231927E+004
+1.97609511890E+006, -1.48803891433E+004, -1.00217713744E+005
+2.16370463079E+006, -6.84243362771E+004, -2.08827624736E+004
+2.35131414268E+006, -1.42716638011E+004, -1.29665599711E+004
+2.53892365457E+006, -1.33030935401E+004, -2.89341739219E+004
+2.72653316646E+006, -1.39173261040E+004, -1.06488513607E+004
+2.91414267835E+006, -1.64652470196E+004, -1.09345650617E+004
+3.10175219024E+006, -8.52323380664E+003, -8.60312685975E+003
+3.28936170213E+006, -5.30078184191E+003, -1.12268698710E+004
+3.47697121402E+006, -5.72112705459E+003, -1.04300579572E+004
+3.66458072591E+006, -5.99534722994E+003, -1.19409246872E+004
+3.85219023780E+006, -3.87198195399E+003, -8.14449215200E+003
+4.03979974969E+006, -3.47220814088E+003, -6.74771383699E+003
+4.22740926158E+006, -5.28673260865E+003, -7.97074145423E+003
+4.41501877347E+006, -4.44949457448E+003, -7.37488790373E+003
+4.60262828536E+006, -3.69408784019E+003, -6.90265331111E+003
+4.79023779725E+006, -2.34448846486E+003, -6.31068080093E+003
+4.97784730914E+006, -2.31415391752E+003, -6.81864421432E+003
+5.16545682103E+006, -1.80268788261E+003, -5.20294289188E+003
+5.35306633292E+006, -2.84301737612E+003, -5.13113906830E+003
+5.54067584481E+006, -1.72355263897E+003, -4.90228572468E+003
+5.72828535670E+006, -2.04428266641E+003, -5.01197139322E+003
+5.91589486859E+006, -1.58012450109E+003, -5.08268181598E+003
+6.10350438048E+006, -1.00046571471E+003, -5.03539871256E+003
+6.29111389237E+006, -9.68483872484E+002, -4.60478916722E+003
+6.47872340426E+006, -9.11862158349E+002, -4.63322721231E+003
+6.66633291615E+006, -1.18792326902E+003, -4.32879064693E+003
+6.85394242804E+006, -9.19269292819E+002, -4.31755648163E+003
+7.04155193992E+006, -6.42824582341E+002, -4.05355775623E+003
+7.22916145181E+006, -6.43155390703E+002, -3.93099175861E+003
+7.41677096370E+006, -7.29417108611E+002, -3.92078204557E+003
+7.60438047559E+006, -5.37487567948E+002, -3.65309790567E+003
+7.79198998748E+006, -5.62371726195E+002, -3.60356066510E+003
+7.97959949937E+006, -5.57923407942E+002, -3.56508407891E+003
+8.16720901126E+006, -3.98684600806E+002, -3.40380922459E+003
+8.35481852315E+006, -4.21492277439E+002, -3.49194906338E+003
+8.54242803504E+006, -4.77743442027E+002, -3.38482994697E+003
+8.73003754693E+006, -4.37943514905E+002, -3.33077320410E+003
+8.91764705882E+006, -3.64521353711E+002, -3.12957145061E+003
+9.10525657071E+006, -3.93322243979E+002, -3.10027111893E+003
+9.29286608260E+006, -3.49509664274E+002, -3.03294132318E+003
+9.48047559449E+006, -3.19558353685E+002, -3.03213711895E+003
+9.66808510638E+006, -3.61264237604E+002, -2.96484033105E+003
+9.85569461827E+006, -3.57802805498E+002, -2.83750957698E+003
+1.00433041302E+007, -3.02434509510E+002, -2.80982539341E+003
+1.02309136421E+007, -3.09490421060E+002, -2.79680544742E+003
+1.04185231539E+007, -3.18552699841E+002, -2.82272372622E+003
+1.06061326658E+007, -2.75242121452E+002, -2.69726763068E+003
+1.07937421777E+007, -2.50260348343E+002, -2.60961980124E+003
+1.09813516896E+007, -2.77262525746E+002, -2.58578014101E+003
+1.11689612015E+007, -2.37546972784E+002, -2.53613709674E+003
+1.13565707134E+007, -2.35000703032E+002, -2.51586660513E+003
+1.15441802253E+007, -2.77605045264E+002, -2.48449100963E+003
+1.17317897372E+007, -2.53795718027E+002, -2.43403751020E+003
+1.19193992491E+007, -2.33017805388E+002, -2.35328381767E+003
+1.21070087610E+007, -1.98394623869E+002, -2.35995878913E+003
+1.22946182728E+007, -2.34264565205E+002, -2.29923523646E+003
+1.24822277847E+007, -2.17042493444E+002, -2.28432961813E+003
+1.26698372966E+007, -2.42579448460E+002, -2.26434535115E+003
+1.28574468085E+007, -1.98575744121E+002, -2.24434789168E+003
+1.30450563204E+007, -1.92550995092E+002, -2.18875560818E+003
+1.32326658323E+007, -1.79264069643E+002, -2.18060054132E+003
+1.34202753442E+007, -1.69074561661E+002, -2.14701857278E+003
+1.36078848561E+007, -1.71220269457E+002, -2.11780179087E+003
+1.37954943680E+007, -1.61934386786E+002, -2.08055232766E+003
+1.39831038798E+007, -1.79081989846E+002, -2.03153742768E+003
+1.41707133917E+007, -1.73466636630E+002, -1.99856352489E+003
+1.43583229036E+007, -1.44153050079E+002, -1.97257617478E+003
+1.45459324155E+007, -1.52063109674E+002, -1.96157909044E+003
+1.47335419274E+007, -1.37669125722E+002, -1.95287473637E+003
+1.49211514393E+007, -1.53240052416E+002, -1.91716566910E+003
+1.51087609512E+007, -1.44855434722E+002, -1.87221840367E+003
+1.52963704631E+007, -1.39444157534E+002, -1.87834298655E+003
+1.54839799750E+007, -1.17233402114E+002, -1.84869911950E+003
+1.56715894869E+007, -1.08072036958E+002, -1.81054005812E+003
+1.58591989987E+007, -1.29551206807E+002, -1.80101242221E+003
+1.60468085106E+007, -1.37292381151E+002, -1.78323331076E+003
+1.62344180225E+007, -1.33496260561E+002, -1.73926455557E+003
+1.64220275344E+007, -1.09238168603E+002, -1.72837898870E+003
+1.66096370463E+007, -1.06407040258E+002, -1.69598404936E+003
+1.67972465582E+007, -1.10373809237E+002, -1.67296311888E+003
+1.69848560701E+007, -1.01955641070E+002, -1.65538012043E+003
+1.71724655820E+007, -1.35741233837E+002, -1.65297781506E+003
+1.73600750939E+007, -1.16339663681E+002, -1.61286594886E+003
+1.75476846058E+007, -1.13301428571E+002, -1.60413875770E+003
+1.77352941176E+007, -9.96263223732E+001, -1.58768869162E+003
+1.79229036295E+007, -8.48127675583E+001, -1.57438321806E+003
+1.81105131414E+007, -8.28592769157E+001, -1.56014203914E+003
+1.82981226533E+007, -7.63187498050E+001, -1.54426948650E+003
+1.84857321652E+007, -8.88918295200E+001, -1.52128571299E+003
+1.86733416771E+007, -8.31324830640E+001, -1.49873101212E+003
+1.88609511890E+007, -8.30536330571E+001, -1.49237304918E+003
+1.90485607009E+007, -7.49734021029E+001, -1.45961493745E+003
+1.92361702128E+007, -7.35291114140E+001, -1.45520544390E+003
+1.94237797247E+007, -6.98931135144E+001, -1.43747605402E+003
+1.96113892365E+007, -5.95475252921E+001, -1.41794520042E+003
+1.97989987484E+007, -5.19199094848E+001, -1.41877861889E+003
+1.99866082603E+007, -5.32734494109E+001, -1.39911229720E+003
+2.01742177722E+007, -5.77289344987E+001, -1.37647083724E+003
+2.03618272841E+007, -5.93677105906E+001, -1.36099988593E+003
+2.05494367960E+007, -4.58854340991E+001, -1.35182102729E+003
+2.07370463079E+007, -4.92985732016E+001, -1.32871123102E+003
+2.09246558198E+007, -5.40478843029E+001, -1.31576101679E+003
+2.11122653317E+007, -5.55457235334E+001, -1.31776817245E+003
+2.12998748436E+007, -3.84433848008E+001, -1.29623104053E+003
+2.14874843554E+007, -2.93302382610E+001, -1.29640100169E+003
+2.16750938673E+007, -4.11979500156E+001, -1.26348598786E+003
+2.18627033792E+007, -2.66702282984E+001, -1.25314254310E+003
+2.20503128911E+007, -3.18664980141E+001, -1.23534931203E+003
+2.22379224030E+007, -1.75894599213E+001, -1.22661073597E+003
+2.24255319149E+007, -2.47390551661E+001, -1.21799848221E+003
+2.26131414268E+007, -1.66220801868E+001, -1.20897147490E+003
+2.28007509387E+007, -1.46342362626E+001, -1.20142134174E+003
+2.29883604506E+007, -8.60147029486E+000, -1.18404615674E+003
+2.31759699625E+007, +5.44044371063E+000, -1.17805774724E+003
+2.33635794743E+007, +1.03974044419E+001, -1.15641401446E+003
+2.35511889862E+007, +1.24328131415E+001, -1.15636372564E+003
+2.37387984981E+007, +1.48635537573E+001, -1.13735743383E+003
+2.39264080100E+007, +1.73792226953E+001, -1.13325206000E+003
+2.41140175219E+007, +2.00049781506E+001, -1.12105096818E+003
+2.43016270338E+007, +3.11863178207E+001, -1.11559129485E+003
+2.44892365457E+007, +4.45405468496E+001, -1.12043419008E+003
+2.46768460576E+007, +4.89651879074E+001, -1.09922714694E+003
+2.48644555695E+007, +5.17667594844E+001, -1.10490458895E+003
+2.50520650814E+007, +5.42527748883E+001, -1.10400084937E+003
+2.52396745932E+007, +5.21046356617E+001, -1.11104746594E+003
+2.54272841051E+007, +5.89262049981E+001, -1.10623381319E+003
+2.56148936170E+007, +4.77105985691E+001, -1.11174950099E+003
+2.58025031289E+007, +5.14672333643E+001, -1.10058817554E+003
+2.59901126408E+007, +4.70317771028E+001, -1.10087191442E+003
+2.61777221527E+007, +4.05323650949E+001, -1.09512462775E+003
+2.63653316646E+007, +3.98185317948E+001, -1.08751149434E+003
+2.65529411765E+007, +2.76908032957E+001, -1.08151831107E+003
+2.67405506884E+007, +2.40256161724E+001, -1.07348191608E+003
+2.69281602003E+007, +2.76254317180E+001, -1.06857468938E+003
+2.71157697121E+007, +1.63329626548E+001, -1.05450347751E+003
+2.73033792240E+007, +1.77430683735E+001, -1.05859230823E+003
+2.74909887359E+007, +1.39755973969E+001, -1.04342459639E+003
+2.76785982478E+007, +1.00007471331E+001, -1.02769583034E+003
+2.78662077597E+007, +1.02056094125E+001, -1.02121934761E+003
+2.80538172716E+007, +7.05914302246E+000, -1.01438028893E+003
+2.82414267835E+007, +4.72924638989E+000, -1.01233225590E+003
+2.84290362954E+007, +5.70545393815E+000, -1.00771297419E+003
+2.86166458073E+007, +4.96553155624E+000, -9.95253329236E+002
+2.88042553191E+007, +1.21494091686E+000, -9.82346366114E+002
+2.89918648310E+007, +1.48047246324E-001, -9.72774407896E+002
+2.91794743429E+007, -8.65137188638E+000, -9.72097766391E+002
+2.93670838548E+007, -8.56502204247E+000, -9.55608218743E+002
+2.95546933667E+007, -7.52102538225E-001, -9.45402863052E+002
+2.97423028786E+007, -9.68730583272E+000, -9.42722568428E+002
+2.99299123905E+007, -6.87580442950E+000, -9.35980286503E+002
+3.01175219024E+007, -9.00720248809E+000, -9.28121869340E+002
+3.03051314143E+007, -4.42961832052E+000, -9.18297691030E+002
+3.04927409262E+007, -1.42510319404E+001, -9.11508068925E+002
+3.06803504380E+007, -4.05691580153E+000, -9.04371115103E+002
+3.08679599499E+007, -1.29944864958E+001, -8.94539452639E+002
+3.10555694618E+007, -1.76371850390E+001, -8.92348848788E+002
+3.12431789737E+007, -7.60396344069E+000, -8.80838329924E+002
+3.14307884856E+007, -6.57437189525E+000, -8.78583344110E+002
+3.16183979975E+007, -1.16262402719E+001, -8.70607844169E+002
+3.18060075094E+007, -1.04102908059E+001, -8.60944191468E+002
+3.19936170213E+007, -1.11329225269E+001, -8.55890522857E+002
+3.21812265332E+007, -7.31895711778E+000, -8.49134774111E+002
+3.23688360451E+007, -9.92791147023E+000, -8.43430938319E+002
+3.25564455569E+007, -9.89938514247E+000, -8.37690641406E+002
+3.27440550688E+007, -5.66220795980E+000, -8.28385849487E+002
+3.29316645807E+007, -5.76945399361E+000, -8.22805552300E+002
+3.31192740926E+007, -1.09171218169E+001, -8.14049008711E+002
+3.33068836045E+007, -1.63695859567E+001, -8.12634908532E+002
+3.34944931164E+007, -9.32820794561E+000, -8.00696732337E+002
+3.36821026283E+007, -1.04525530913E+001, -7.95239899927E+002
+3.38697121402E+007, -8.78498777509E+000, -7.90430722306E+002
+3.40573216521E+007, -8.67775345097E+000, -7.85889252823E+002
+3.42449311640E+007, -7.12759108754E+000, -7.78494291930E+002
+3.44325406758E+007, -1.06172722457E+001, -7.71386945994E+002
+3.46201501877E+007, -3.87486692211E+000, -7.67779543708E+002
+3.48077596996E+007, +7.81916140097E-001, -7.62613313704E+002
+3.49953692115E+007, -2.18082019051E+000, -7.54641457226E+002
+3.51829787234E+007, -9.02582302996E-001, -7.52579409543E+002
+3.53705882353E+007, -2.86439102977E+000, -7.47141699077E+002
+3.55581977472E+007, -1.08922372629E+000, -7.37882643160E+002
+3.57458072591E+007, +1.48131139309E+000, -7.40695209623E+002
+3.59334167710E+007, +3.75466298348E+000, -7.32189852323E+002
+3.61210262829E+007, -5.37677241567E-001, -7.26266947212E+002
+3.63086357947E+007, -1.72583759567E+000, -7.21647921290E+002
+3.64962453066E+007, -2.35329529433E+000, -7.16117533236E+002
+3.66838548185E+007, +2.14665140393E+000, -7.10205968541E+002
+3.68714643304E+007, -2.06064888353E+000, -7.10029728116E+002
+3.70590738423E+007, +7.21811842130E-001, -7.02871946374E+002
+3.72466833542E+007, -2.47722802365E+000, -6.99120771000E+002
+3.74342928661E+007, +2.13284568366E+000, -6.90550665534E+002
+3.76219023780E+007, +9.18445397461E-001, -6.86867582947E+002
+3.78095118899E+007, +1.86897321652E+000, -6.83342540752E+002
+3.79971214018E+007, +1.82215659419E+000, -6.77865079446E+002
+3.81847309136E+007, +1.83659896407E+000, -6.73132360550E+002
+3.83723404255E+007, +4.57629915813E+000, -6.68631016248E+002
+3.85599499374E+007, +1.55869454300E+000, -6.63217667307E+002
+3.87475594493E+007, +3.41450915939E+000, -6.54823684484E+002
+3.89351689612E+007, +2.70075032449E+000, -6.52314475511E+002
+3.91227784731E+007, +6.36501109309E+000, -6.47279236395E+002
+3.93103879850E+007, +4.58352167890E+000, -6.41523636351E+002
+3.94979974969E+007, +6.84434581171E+000, -6.38036560985E+002
+3.96856070088E+007, +1.72392131004E+000, -6.32739626770E+002
+3.98732165207E+007, +2.81161652488E+000, -6.26906607459E+002
+4.00608260325E+007, +7.37664360334E+000, -6.22967817142E+002
+4.02484355444E+007, +9.13072297839E+000, -6.18262455868E+002
+4.04360450563E+007, +8.46217877977E+000, -6.12822245284E+002
+4.06236545682E+007, +8.93314071759E+000, -6.12430389897E+002
+4.08112640801E+007, +1.14323373811E+001, -6.05704138884E+002
+4.09988735920E+007, +1.06117693067E+001, -6.03341611185E+002
+4.11864831039E+007, +1.23603277457E+001, -5.97633518517E+002
+4.13740926158E+007, +1.33678241088E+001, -5.95840320539E+002
+4.15617021277E+007, +1.49511026612E+001, -5.93023000191E+002
+4.17493116395E+007, +1.63402068211E+001, -5.90372156098E+002
+4.19369211514E+007, +1.50108262000E+001, -5.86273654759E+002
+4.21245306633E+007, +1.80276825084E+001, -5.81721044683E+002
+4.23121401752E+007, +1.57378226069E+001, -5.79230624025E+002
+4.24997496871E+007, +1.62069343346E+001, -5.76753688925E+002
+4.26873591990E+007, +1.82446704115E+001, -5.72601795544E+002
+4.28749687109E+007, +1.87653248875E+001, -5.68161166533E+002
+4.30625782228E+007, +1.77244305214E+001, -5.66421731929E+002
+4.32501877347E+007, +1.91000565607E+001, -5.63171257677E+002
+4.34377972466E+007, +1.77661481301E+001, -5.59157838911E+002
+4.36254067584E+007, +1.67837147614E+001, -5.55126925397E+002
+4.38130162703E+007, +1.72715683963E+001, -5.53745204597E+002
+4.40006257822E+007, +1.72680078826E+001, -5.49128510530E+002
+4.41882352941E+007, +1.77502445965E+001, -5.46621107547E+002
+4.43758448060E+007, +1.81096785039E+001, -5.43374790016E+002
+4.45634543179E+007, +1.70942419105E+001, -5.39868066727E+002
+4.47510638298E+007, +1.59634489432E+001, -5.34475326612E+002
+4.49386733417E+007, +1.67056218956E+001, -5.32972235154E+002
+4.51262828536E+007, +1.67923721689E+001, -5.28422090601E+002
+4.53138923655E+007, +1.67178728360E+001, -5.25322698646E+002
+4.55015018773E+007, +1.84250868740E+001, -5.21944650104E+002
+4.56891113892E+007, +2.07599396640E+001, -5.19576834859E+002
+4.58767209011E+007, +1.81556411196E+001, -5.15086450312E+002
+4.60643304130E+007, +1.88198840818E+001, -5.11291727137E+002
+4.62519399249E+007, +2.06373116807E+001, -5.07790905635E+002
+4.64395494368E+007, +2.01551319614E+001, -5.04269391655E+002
+4.66271589487E+007, +2.21846168373E+001, -5.02097634451E+002
+4.68147684606E+007, +2.32293662983E+001, -4.98905183301E+002
+4.70023779725E+007, +2.34869522458E+001, -4.95989735648E+002
+4.71899874844E+007, +2.24050839448E+001, -4.93371421653E+002
+4.73775969962E+007, +2.23729456715E+001, -4.90643317935E+002
+4.75652065081E+007, +2.33791002886E+001, -4.89235474716E+002
+4.77528160200E+007, +2.37940840472E+001, -4.84251042152E+002
+4.79404255319E+007, +2.40713533397E+001, -4.83615118043E+002
+4.81280350438E+007, +2.33835418290E+001, -4.80361672753E+002
+4.83156445557E+007, +2.32083898999E+001, -4.77548436690E+002
+4.85032540676E+007, +2.29856579853E+001, -4.74618591499E+002
+4.86908635795E+007, +2.28275321578E+001, -4.71883317088E+002
+4.88784730914E+007, +2.29234486852E+001, -4.68682842334E+002
+4.90660826033E+007, +2.17624847159E+001, -4.65492243917E+002
+4.92536921151E+007, +2.22390435138E+001, -4.61600010594E+002
+4.94413016270E+007, +2.30158362229E+001, -4.58753783957E+002
+4.96289111389E+007, +2.36562881573E+001, -4.55226394026E+002
+4.98165206508E+007, +2.27407621832E+001, -4.53178835716E+002
+5.00041301627E+007, +2.48110247544E+001, -4.48075499371E+002
+5.01917396746E+007, +2.40995994689E+001, -4.47643980859E+002
+5.03793491865E+007, +2.62746368340E+001, -4.44837400232E+002
+5.05669586984E+007, +2.60889481763E+001, -4.41047123325E+002
+5.07545682103E+007, +2.55098857756E+001, -4.39002452309E+002
+5.09421777222E+007, +2.67939646414E+001, -4.35764367593E+002
+5.11297872340E+007, +2.58518498832E+001, -4.33346389666E+002
+5.13173967459E+007, +2.77078737264E+001, -4.30677660655E+002
+5.15050062578E+007, +2.67150757359E+001, -4.29433632470E+002
+5.16926157697E+007, +2.69744233764E+001, -4.26611738081E+002
+5.18802252816E+007, +2.90614271923E+001, -4.23785256681E+002
+5.20678347935E+007, +2.73931277180E+001, -4.21039369015E+002
+5.22554443054E+007, +2.80127548193E+001, -4.19608495065E+002
+5.24430538173E+007, +2.71828385178E+001, -4.16612440485E+002
+5.26306633292E+007, +2.88168564618E+001, -4.15276907354E+002
+5.28182728411E+007, +2.83963421118E+001, -4.12397380160E+002
+5.30058823529E+007, +2.81477625214E+001, -4.10825919685E+002
+5.31934918648E+007, +2.72232312411E+001, -4.07341501954E+002
+5.33811013767E+007, +2.72692679555E+001, -4.04510338764E+002
+5.35687108886E+007, +2.74301441035E+001, -4.02910692650E+002
+5.37563204005E+007, +2.66417024824E+001, -4.01006537716E+002
+5.39439299124E+007, +2.67887351722E+001, -3.98570876806E+002
+5.41315394243E+007, +2.60967234609E+001, -3.95789559783E+002
+5.43191489362E+007, +2.58540424752E+001, -3.91823185284E+002
+5.45067584481E+007, +2.65207033938E+001, -3.89808975000E+002
+5.46943679599E+007, +2.57767555219E+001, -3.86240848037E+002
+5.48819774718E+007, +2.58079168370E+001, -3.84111416362E+002
+5.50695869837E+007, +2.68402286182E+001, -3.81539165535E+002
+5.52571964956E+007, +2.77075621328E+001, -3.79497838953E+002
+5.54448060075E+007, +2.86190229665E+001, -3.76552319193E+002
+5.56324155194E+007, +2.77965485295E+001, -3.75843887172E+002
+5.58200250313E+007, +2.82679625205E+001, -3.72125103315E+002
+5.60076345432E+007, +2.79996229320E+001, -3.71269962069E+002
+5.61952440551E+007, +2.74464881506E+001, -3.69617547232E+002
+5.63828535670E+007, +2.71661889839E+001, -3.67714458907E+002
+5.65704630788E+007, +2.70681800041E+001, -3.66158022231E+002
+5.67580725907E+007, +2.53293573692E+001, -3.63983595697E+002
+5.69456821026E+007, +2.42366564683E+001, -3.61483397609E+002
+5.71332916145E+007, +2.28680992466E+001, -3.58808886148E+002
+5.73209011264E+007, +2.15565302746E+001, -3.56160146655E+002
+5.75085106383E+007, +2.21686730664E+001, -3.54167217510E+002
+5.76961201502E+007, +2.15138001108E+001, -3.50883949428E+002
+5.78837296621E+007, +2.07221926102E+001, -3.48372488846E+002
+5.80713391740E+007, +2.06916396348E+001, -3.45881124643E+002
+5.82589486859E+007, +2.02628347007E+001, -3.42270748208E+002
+5.84465581977E+007, +1.97319937093E+001, -3.40036063033E+002
+5.86341677096E+007, +1.90480666297E+001, -3.36218410994E+002
+5.88217772215E+007, +1.82434692501E+001, -3.33585125350E+002
+5.90093867334E+007, +1.87885445396E+001, -3.30648512608E+002
+5.91969962453E+007, +1.83480695488E+001, -3.28192817797E+002
+5.93846057572E+007, +1.85269908483E+001, -3.24988362755E+002
+5.95722152691E+007, +1.78906502545E+001, -3.22105566257E+002
+5.97598247810E+007, +1.72943599714E+001, -3.19288920831E+002
+5.99474342929E+007, +1.72598512554E+001, -3.16745553622E+002
+6.01350438048E+007, +1.77306930875E+001, -3.13493916780E+002
