"# Channel 1"
"# Trace 1"
Frequency, Formatted Data, Formatted Data
+1.00000000000E+005, +5.96157577239E+001, +2.70173109227E+000
+2.25031289111E+005, +5.94897916115E+001, +6.73244210252E+000
+3.50062578223E+005, +5.95491636067E+001, +1.03773467640E+001
+4.75093867334E+005, +5.95808903881E+001, +1.40109132558E+001
+6.00125156446E+005, +5.95345706794E+001, +1.77070231000E+001
+7.25156445557E+005, +5.95937042397E+001, +2.14400338713E+001
+8.50187734668E+005, +5.96254852450E+001, +2.51242695407E+001
+9.75219023780E+005, +5.96305062516E+001, +2.87694678333E+001
+1.10025031289E+006, +5.96585949579E+001, +3.24874514910E+001
+1.22528160200E+006, +5.95678670739E+001, +3.62948749968E+001
+1.35031289111E+006, +5.96748635931E+001, +3.98357802938E+001
+1.47534418023E+006, +5.96474521282E+001, +4.35735484608E+001
+1.60037546934E+006, +5.96285141411E+001, +4.73352304416E+001
+1.72540675845E+006, +5.97365621753E+001, +5.08797354623E+001
+1.85043804756E+006, +5.96118024844E+001, +5.47899223591E+001
+1.97546933667E+006, +5.97491057815E+001, +5.84248697673E+001
+2.10050062578E+006, +5.97037349621E+001, +6.20713794467E+001
+2.22553191489E+006, +5.97649560343E+001, +6.56690212898E+001
+2.35056320401E+006, +5.97312282462E+001, +6.95734766424E+001
+2.47559449312E+006, +5.98062167261E+001, +7.32711201920E+001
+2.60062578223E+006, +5.96600695069E+001, +7.70341927435E+001
+2.72565707134E+006, +5.97146885470E+001, +8.05849256300E+001
+2.85068836045E+006, +5.98601000967E+001, +8.44757040735E+001
+2.97571964956E+006, +5.97675194872E+001, +8.80542988107E+001
+3.10075093867E+006, +5.97882708982E+001, +9.17109900321E+001
+3.22578222778E+006, +5.98606399333E+001, +9.56566893850E+001
+3.35081351690E+006, +6.01172274146E+001, +9.93137411988E+001
+3.47584480601E+006, +5.99796071610E+001, +1.03012742798E+002
+3.60087609512E+006, +6.00642645154E+001, +1.06800651065E+002
+3.72590738423E+006, +6.00821694937E+001, +1.10519338505E+002
+3.85093867334E+006, +6.01796681834E+001, +1.14265107346E+002
+3.97596996245E+006, +6.03704054743E+001, +1.18350064259E+002
+4.10100125156E+006, +6.03629620606E+001, +1.22055562692E+002
+4.22603254068E+006, +6.02960229181E+001, +1.25610446871E+002
+4.35106382979E+006, +6.02396328265E+001, +1.29419280384E+002
+4.47609511890E+006, +6.02942371149E+001, +1.33035697791E+002
+4.60112640801E+006, +6.02540669391E+001, +1.36847376547E+002
+4.72615769712E+006, +6.06612545150E+001, +1.40622370300E+002
+4.85118898623E+006, +6.07449935812E+001, +1.44444006060E+002
+4.97622027534E+006, +6.05142290012E+001, +1.48294359861E+002
+5.10125156446E+006, +6.06472273049E+001, +1.51916308317E+002
+5.22628285357E+006, +6.08711329665E+001, +1.56243022931E+002
+5.35131414268E+006, +6.10158077160E+001, +1.59923378164E+002
+5.47634543179E+006, +6.08103150106E+001, +1.64057179781E+002
+5.60137672090E+006, +6.07291168175E+001, +1.67488252265E+002
+5.72640801001E+006, +6.06536133313E+001, +1.71752623154E+002
+5.85143929912E+006, +6.13041532200E+001, +1.75402650007E+002
+5.97647058824E+006, +6.11945183592E+001, +1.79340806868E+002
+6.10150187735E+006, +6.12136392703E+001, +1.83151571681E+002
+6.22653316646E+006, +6.14294352037E+001, +1.87463194922E+002
+6.35156445557E+006, +6.16386087060E+001, +1.90905220047E+002
+6.47659574468E+006, +6.17014764134E+001, +1.94530372605E+002
+6.60162703379E+006, +6.20093922370E+001, +1.98901167076E+002
+6.72665832290E+006, +6.21338833206E+001, +2.02522069285E+002
+6.85168961202E+006, +6.21339090129E+001, +2.06481620691E+002
+6.97672090113E+006, +6.21701658910E+001, +2.10730124944E+002
+7.10175219024E+006, +6.25678400377E+001, +2.14421817555E+002
+7.22678347935E+006, +6.22456850992E+001, +2.18473073490E+002
+7.35181476846E+006, +6.24668769302E+001, +2.22860089726E+002
+7.47684605757E+006, +6.27811752289E+001, +2.26748140421E+002
+7.60187734668E+006, +6.26747580407E+001, +2.30840467073E+002
+7.72690863579E+006, +6.24416036659E+001, +2.34640468663E+002
+7.85193992491E+006, +6.31932736774E+001, +2.38734390952E+002
+7.97697121402E+006, +6.31578728099E+001, +2.42614532138E+002
+8.10200250313E+006, +6.30985152244E+001, +2.46664985477E+002
+8.22703379224E+006, +6.32812991216E+001, +2.50623330435E+002
+8.35206508135E+006, +6.37003126662E+001, +2.55039551440E+002
+8.47709637046E+006, +6.39978554281E+001, +2.59347938433E+002
+8.60212765957E+006, +6.35822463876E+001, +2.63001084360E+002
+8.72715894869E+006, +6.41479080387E+001, +2.67660599946E+002
+8.85219023780E+006, +6.42110401827E+001, +2.71151553005E+002
+8.97722152691E+006, +6.39342298630E+001, +2.75805584348E+002
+9.10225281602E+006, +6.43009327891E+001, +2.80153982443E+002
+9.22728410513E+006, +6.45147346819E+001, +2.84360915477E+002
+9.35231539424E+006, +6.49214913261E+001, +2.88294524624E+002
+9.47734668335E+006, +6.49601581769E+001, +2.92989985112E+002
+9.60237797247E+006, +6.53720437201E+001, +2.96624958270E+002
+9.72740926158E+006, +6.50637824692E+001, +3.01231160143E+002
+9.85244055069E+006, +6.52219451546E+001, +3.05307962434E+002
+9.97747183980E+006, +6.51105450622E+001, +3.09626933648E+002
+1.01025031289E+007, +6.53585018231E+001, +3.14427322883E+002
+1.02275344180E+007, +6.51140506678E+001, +3.18780244032E+002
+1.03525657071E+007, +6.55970149769E+001, +3.22280171795E+002
+1.04775969962E+007, +6.56242080943E+001, +3.27302822800E+002
+1.06026282854E+007, +6.58168468157E+001, +3.31466270497E+002
+1.07276595745E+007, +6.61128810378E+001, +3.35813529026E+002
+1.08526908636E+007, +6.61513831281E+001, +3.40044644689E+002
+1.09777221527E+007, +6.62892210615E+001, +3.44499186658E+002
+1.11027534418E+007, +6.67692226309E+001, +3.49613147852E+002
+1.12277847309E+007, +6.74516390788E+001, +3.54133008569E+002
+1.13528160200E+007, +6.65480028217E+001, +3.57998226924E+002
+1.14778473091E+007, +6.80871321348E+001, +3.62180076467E+002
+1.16028785982E+007, +6.78481273083E+001, +3.67039844013E+002
+1.17279098874E+007, +6.75020397473E+001, +3.72687114874E+002
+1.18529411765E+007, +6.78760438797E+001, +3.76003085001E+002
+1.19779724656E+007, +6.75366348826E+001, +3.81823994915E+002
+1.21030037547E+007, +6.83347251300E+001, +3.86108835943E+002
+1.22280350438E+007, +6.82631803597E+001, +3.90907232893E+002
+1.23530663329E+007, +6.82233400019E+001, +3.94287927874E+002
+1.24780976220E+007, +6.84713611021E+001, +3.99708463200E+002
+1.26031289111E+007, +6.94328927559E+001, +4.05323289016E+002
+1.27281602003E+007, +6.90115024851E+001, +4.08072178583E+002
+1.28531914894E+007, +6.88689253825E+001, +4.14193935434E+002
+1.29782227785E+007, +6.84960794951E+001, +4.18066910957E+002
+1.31032540676E+007, +6.91468875324E+001, +4.23343941369E+002
+1.32282853567E+007, +6.98384614645E+001, +4.29632970181E+002
+1.33533166458E+007, +6.93690457430E+001, +4.34381515074E+002
+1.34783479349E+007, +7.06810028977E+001, +4.37827212866E+002
+1.36033792240E+007, +7.08397217614E+001, +4.43646551743E+002
+1.37284105131E+007, +7.05652218164E+001, +4.48401396664E+002
+1.38534418023E+007, +7.14156207856E+001, +4.52602939908E+002
+1.39784730914E+007, +7.20968587702E+001, +4.59508262076E+002
+1.41035043805E+007, +7.00483207316E+001, +4.63958170424E+002
+1.42285356696E+007, +7.11262584703E+001, +4.68538661850E+002
+1.43535669587E+007, +6.99097618593E+001, +4.74402399333E+002
+1.44785982478E+007, +7.21878935455E+001, +4.78046887763E+002
+1.46036295369E+007, +7.23144230789E+001, +4.85317516761E+002
+1.47286608260E+007, +7.30680112880E+001, +4.90057583351E+002
+1.48536921151E+007, +7.28833779333E+001, +4.95651670946E+002
+1.49787234043E+007, +7.35856187959E+001, +5.00754386080E+002
+1.51037546934E+007, +7.16606491925E+001, +5.04373194142E+002
+1.52287859825E+007, +7.45576206312E+001, +5.10373970836E+002
+1.53538172716E+007, +7.33988981678E+001, +5.15764407688E+002
+1.54788485607E+007, +7.57209403875E+001, +5.20229978230E+002
+1.56038798498E+007, +7.59533818264E+001, +5.27836277845E+002
+1.57289111389E+007, +7.57298803006E+001, +5.32395455079E+002
+1.58539424280E+007, +7.48745509917E+001, +5.36932146648E+002
+1.59789737171E+007, +7.64283123027E+001, +5.42210972375E+002
+1.61040050063E+007, +7.50095690208E+001, +5.47509606184E+002
+1.62290362954E+007, +7.72411824825E+001, +5.55013708954E+002
+1.63540675845E+007, +7.70994973653E+001, +5.60618552118E+002
+1.64790988736E+007, +7.70468844816E+001, +5.65028090345E+002
+1.66041301627E+007, +7.92557510932E+001, +5.71636562300E+002
+1.67291614518E+007, +7.71210807816E+001, +5.77937343975E+002
+1.68541927409E+007, +7.73612776085E+001, +5.83724035905E+002
+1.69792240300E+007, +7.99448452606E+001, +5.87886658405E+002
+1.71042553191E+007, +7.66500271027E+001, +5.98021181358E+002
+1.72292866083E+007, +7.89682117349E+001, +6.00978216395E+002
+1.73543178974E+007, +7.82056916045E+001, +6.08189935557E+002
+1.74793491865E+007, +7.96247701293E+001, +6.13970846723E+002
+1.76043804756E+007, +8.11459228786E+001, +6.21520931939E+002
+1.77294117647E+007, +7.98608556938E+001, +6.26459707870E+002
+1.78544430538E+007, +8.18614635668E+001, +6.30812386598E+002
+1.79794743429E+007, +7.98323487060E+001, +6.37454599017E+002
+1.81045056320E+007, +8.23460367136E+001, +6.44205329328E+002
+1.82295369212E+007, +8.29539169149E+001, +6.52748262996E+002
+1.83545682103E+007, +8.40230798976E+001, +6.57052038428E+002
+1.84795994994E+007, +8.29933569924E+001, +6.64962771012E+002
+1.86046307885E+007, +8.62973709457E+001, +6.70502209595E+002
+1.87296620776E+007, +8.47051421129E+001, +6.76686034105E+002
+1.88546933667E+007, +8.63977758640E+001, +6.81214387605E+002
+1.89797246558E+007, +8.72756060990E+001, +6.90715540587E+002
+1.91047559449E+007, +8.83908777615E+001, +6.97501236895E+002
+1.92297872340E+007, +8.78699205678E+001, +7.07675450282E+002
+1.93548185232E+007, +8.86706797022E+001, +7.10291576353E+002
+1.94798498123E+007, +8.90276550973E+001, +7.16678774434E+002
+1.96048811014E+007, +8.55659982983E+001, +7.23829409976E+002
+1.97299123905E+007, +8.83847725402E+001, +7.32878356403E+002
+1.98549436796E+007, +9.11372083421E+001, +7.40132004374E+002
+1.99799749687E+007, +8.90139273844E+001, +7.49151490378E+002
+2.01050062578E+007, +9.28140879327E+001, +7.54013446094E+002
+2.02300375469E+007, +9.11988807821E+001, +7.61526353997E+002
+2.03550688360E+007, +9.48900982760E+001, +7.67418521892E+002
+2.04801001252E+007, +9.18686190283E+001, +7.75845884244E+002
+2.06051314143E+007, +9.38756013144E+001, +7.80493604980E+002
+2.07301627034E+007, +9.47595772163E+001, +7.91877975606E+002
+2.08551939925E+007, +9.56203233530E+001, +8.00058610898E+002
+2.09802252816E+007, +9.44694679988E+001, +8.06464397063E+002
+2.11052565707E+007, +9.48988576860E+001, +8.16739849828E+002
+2.12302878598E+007, +9.16444124890E+001, +8.23483180629E+002
+2.13553191489E+007, +9.62974453589E+001, +8.31389946286E+002
+2.14803504380E+007, +1.01426971615E+002, +8.39134286696E+002
+2.16053817272E+007, +1.03023370832E+002, +8.47315541014E+002
+2.17304130163E+007, +1.00318567917E+002, +8.59968289950E+002
+2.18554443054E+007, +9.84347674853E+001, +8.66484941155E+002
+2.19804755945E+007, +1.07592609091E+002, +8.77967936799E+002
+2.21055068836E+007, +1.06486469589E+002, +8.84401910358E+002
+2.22305381727E+007, +1.06320222066E+002, +8.88215652353E+002
+2.23555694618E+007, +1.10171986915E+002, +9.00890499336E+002
+2.24806007509E+007, +1.10250658914E+002, +9.08611903989E+002
+2.26056320401E+007, +1.09165759463E+002, +9.18453099201E+002
+2.27306633292E+007, +1.13709473604E+002, +9.24624538430E+002
+2.28556946183E+007, +1.13427759254E+002, +9.38171614812E+002
+2.29807259074E+007, +1.19488020230E+002, +9.43643292228E+002
+2.31057571965E+007, +1.18034665256E+002, +9.52795966909E+002
+2.32307884856E+007, +1.19355125270E+002, +9.65860026884E+002
+2.33558197747E+007, +1.20396831815E+002, +9.70700350433E+002
+2.34808510638E+007, +1.25803783244E+002, +9.77036037909E+002
+2.36058823529E+007, +1.26483656836E+002, +9.89359386172E+002
+2.37309136421E+007, +1.34643533929E+002, +9.98292219440E+002
+2.38559449312E+007, +1.30371882670E+002, +1.00238861243E+003
+2.39809762203E+007, +1.31434592912E+002, +1.01224578867E+003
+2.41060075094E+007, +1.31982568966E+002, +1.02259708813E+003
+2.42310387985E+007, +1.34454408927E+002, +1.03185919584E+003
+2.43560700876E+007, +1.37118258626E+002, +1.04068504599E+003
+2.44811013767E+007, +1.35191055038E+002, +1.04902472466E+003
+2.46061326658E+007, +1.33209919138E+002, +1.05740944365E+003
+2.47311639549E+007, +1.41162160593E+002, +1.07208933321E+003
+2.48561952441E+007, +1.38704524866E+002, +1.07880538241E+003
+2.49812265332E+007, +1.39002299264E+002, +1.09192670777E+003
+2.51062578223E+007, +1.36508746589E+002, +1.10271260129E+003
+2.52312891114E+007, +1.47837584972E+002, +1.11317921270E+003
+2.53563204005E+007, +1.34987830674E+002, +1.12155172413E+003
+2.54813516896E+007, +1.41144516111E+002, +1.13936445425E+003
+2.56063829787E+007, +1.47364259250E+002, +1.15576079137E+003
+2.57314142678E+007, +1.46969311737E+002, +1.16225700624E+003
+2.58564455569E+007, +1.39913663874E+002, +1.17077569030E+003
+2.59814768461E+007, +1.51288572717E+002, +1.18209935607E+003
+2.61065081352E+007, +1.40081509423E+002, +1.20018845278E+003
+2.62315394243E+007, +1.53967463852E+002, +1.20868367156E+003
+2.63565707134E+007, +1.50735604233E+002, +1.22662577434E+003
+2.64816020025E+007, +1.51617308721E+002, +1.23372358677E+003
+2.66066332916E+007, +1.64730313161E+002, +1.25171484124E+003
+2.67316645807E+007, +1.51189479414E+002, +1.26742696715E+003
+2.68566958698E+007, +1.67743073575E+002, +1.27514074151E+003
+2.69817271589E+007, +1.48501276761E+002, +1.29401910766E+003
+2.71067584481E+007, +1.65515314787E+002, +1.31082384865E+003
+2.72317897372E+007, +1.68962141272E+002, +1.32237674108E+003
+2.73568210263E+007, +1.64076156705E+002, +1.33063418475E+003
+2.74818523154E+007, +1.66500892846E+002, +1.34144591972E+003
+2.76068836045E+007, +1.78596845239E+002, +1.35662210029E+003
+2.77319148936E+007, +1.75707084587E+002, +1.37343342963E+003
+2.78569461827E+007, +1.82706122171E+002, +1.38493707405E+003
+2.79819774718E+007, +1.78325576085E+002, +1.39782089091E+003
+2.81070087610E+007, +1.78615730607E+002, +1.42106886080E+003
+2.82320400501E+007, +1.74919478762E+002, +1.43413822706E+003
+2.83570713392E+007, +1.84635025226E+002, +1.46098104990E+003
+2.84821026283E+007, +1.73436534453E+002, +1.46914690438E+003
+2.86071339174E+007, +1.79725640171E+002, +1.48638968258E+003
+2.87321652065E+007, +1.81933602727E+002, +1.50914271448E+003
+2.88571964956E+007, +1.81946776426E+002, +1.53336397913E+003
+2.89822277847E+007, +1.94665890248E+002, +1.54482133625E+003
+2.91072590738E+007, +1.94623826038E+002, +1.56632976068E+003
+2.92322903630E+007, +1.98073775866E+002, +1.58517153397E+003
+2.93573216521E+007, +2.01816643874E+002, +1.61675163798E+003
+2.94823529412E+007, +1.96346453005E+002, +1.64457933719E+003
+2.96073842303E+007, +1.97867348495E+002, +1.63866128752E+003
+2.97324155194E+007, +2.30213652695E+002, +1.66548625213E+003
+2.98574468085E+007, +2.12026376114E+002, +1.68805042674E+003
+2.99824780976E+007, +2.04913894600E+002, +1.70719462428E+003
+3.01075093867E+007, +2.23364790028E+002, +1.72729707137E+003
+3.02325406758E+007, +2.34101352850E+002, +1.73529954313E+003
+3.03575719650E+007, +2.34236419378E+002, +1.79022705631E+003
+3.04826032541E+007, +2.44534154375E+002, +1.79053351898E+003
+3.06076345432E+007, +2.35318589458E+002, +1.84372527287E+003
+3.07326658323E+007, +2.51078346683E+002, +1.85763448268E+003
+3.08576971214E+007, +2.45419490955E+002, +1.88082448011E+003
+3.09827284105E+007, +2.52312611606E+002, +1.89839901708E+003
+3.11077596996E+007, +2.42761798736E+002, +1.92856085943E+003
+3.12327909887E+007, +2.69223281801E+002, +1.95446202590E+003
+3.13578222778E+007, +2.58034460309E+002, +1.99881060099E+003
+3.14828535670E+007, +2.84883150734E+002, +2.00224315801E+003
+3.16078848561E+007, +2.91636467622E+002, +2.06163531238E+003
+3.17329161452E+007, +2.75772751322E+002, +2.07721955955E+003
+3.18579474343E+007, +2.95070164881E+002, +2.09938034933E+003
+3.19829787234E+007, +3.01088358689E+002, +2.13767179978E+003
+3.21080100125E+007, +3.17153315628E+002, +2.16173048907E+003
+3.22330413016E+007, +3.13344592429E+002, +2.20757202104E+003
+3.23580725907E+007, +3.16633577334E+002, +2.23395166848E+003
+3.24831038798E+007, +3.22840438345E+002, +2.26216497486E+003
+3.26081351690E+007, +3.25278623273E+002, +2.31026621306E+003
+3.27331664581E+007, +3.44961189498E+002, +2.35136721995E+003
+3.28581977472E+007, +3.67283578181E+002, +2.36224005407E+003
+3.29832290363E+007, +3.65465668561E+002, +2.41068360692E+003
+3.31082603254E+007, +4.03009741241E+002, +2.45628914099E+003
+3.32332916145E+007, +4.24228017404E+002, +2.48989614554E+003
+3.33583229036E+007, +4.15957140688E+002, +2.53251415438E+003
+3.34833541927E+007, +4.22087182887E+002, +2.58234283671E+003
+3.36083854819E+007, +4.23800348293E+002, +2.61563729523E+003
+3.37334167710E+007, +4.43746192444E+002, +2.68432854615E+003
+3.38584480601E+007, +4.44222470407E+002, +2.72566264915E+003
+3.39834793492E+007, +4.55068578404E+002, +2.77383034402E+003
+3.41085106383E+007, +5.02880334448E+002, +2.81603699015E+003
+3.42335419274E+007, +4.89123569801E+002, +2.91630273836E+003
+3.43585732165E+007, +5.32912487967E+002, +2.93030713084E+003
+3.44836045056E+007, +5.31587749351E+002, +2.97951172967E+003
+3.46086357947E+007, +5.65355009170E+002, +3.02389020340E+003
+3.47336670839E+007, +6.18391036030E+002, +3.09107094068E+003
+3.48586983730E+007, +6.38647766764E+002, +3.16548217610E+003
+3.49837296621E+007, +6.60061890239E+002, +3.23422375287E+003
+3.51087609512E+007, +6.95557273956E+002, +3.27110884821E+003
+3.52337922403E+007, +6.78063483348E+002, +3.39203733047E+003
+3.53588235294E+007, +7.18295979140E+002, +3.39780867566E+003
+3.54838548185E+007, +7.83208407408E+002, +3.50002804241E+003
+3.56088861076E+007, +8.10964017574E+002, +3.61189474872E+003
+3.57339173967E+007, +8.05469247965E+002, +3.65168791729E+003
+3.58589486859E+007, +8.70631036363E+002, +3.70433883271E+003
+3.59839799750E+007, +9.12824226074E+002, +3.84211493808E+003
+3.61090112641E+007, +9.45143182654E+002, +3.91190747376E+003
+3.62340425532E+007, +9.70506843478E+002, +4.07851279970E+003
+3.63590738423E+007, +1.03038220872E+003, +4.12703213918E+003
+3.64841051314E+007, +1.04860295147E+003, +4.19914202264E+003
+3.66091364205E+007, +1.10724598098E+003, +4.43154126107E+003
+3.67341677096E+007, +1.18173606559E+003, +4.40649039906E+003
+3.68591989987E+007, +1.22706582959E+003, +4.69546448802E+003
+3.69842302879E+007, +1.20527771330E+003, +4.73261626300E+003
+3.71092615770E+007, +1.35069540372E+003, +4.81478273341E+003
+3.72342928661E+007, +1.39852337041E+003, +5.01715316316E+003
+3.73593241552E+007, +1.57270816085E+003, +5.22968290451E+003
+3.74843554443E+007, +1.67531303566E+003, +5.26174043515E+003
+3.76093867334E+007, +1.70600243459E+003, +5.44118958089E+003
+3.77344180225E+007, +1.98039616441E+003, +5.66489485227E+003
+3.78594493116E+007, +2.12432660657E+003, +5.79229976899E+003
+3.79844806008E+007, +2.17560994875E+003, +5.88484211568E+003
+3.81095118899E+007, +2.32797407851E+003, +6.55050913726E+003
+3.82345431790E+007, +2.59837097871E+003, +6.48785333465E+003
+3.83595744681E+007, +2.80443420240E+003, +6.68886611312E+003
+3.84846057572E+007, +2.96497469583E+003, +6.86888485396E+003
+3.86096370463E+007, +3.35709781578E+003, +7.27666348824E+003
+3.87346683354E+007, +3.80490445443E+003, +7.86636101978E+003
+3.88596996245E+007, +3.98374859603E+003, +7.83422072521E+003
+3.89847309136E+007, +4.45093682358E+003, +7.82605429788E+003
+3.91097622028E+007, +5.01698705848E+003, +8.49040694014E+003
+3.92347934919E+007, +6.04821419687E+003, +8.72138013260E+003
+3.93598247810E+007, +6.36474484977E+003, +9.60786390954E+003
+3.94848560701E+007, +7.27171898893E+003, +9.55867074399E+003
+3.96098873592E+007, +7.25016885690E+003, +9.03063439413E+003
+3.97349186483E+007, +8.70896112681E+003, +9.52954466477E+003
+3.98599499374E+007, +1.08542748245E+004, +9.68507218275E+003
+3.99849812265E+007, +1.08989361236E+004, +8.76169441523E+003
+4.01100125156E+007, +1.25553817692E+004, +7.61025910207E+003
