"# Channel 1"
"# Trace 1"
Frequency, Formatted Data, Formatted Data
+1.00000000000E+005, +9.31616171792E-001, +2.90812930037E+000
+2.25031289111E+005, +9.14224618667E-001, +6.53575837472E+000
+3.50062578223E+005, +9.42631175278E-001, +1.01723326104E+001
+4.75093867334E+005, +9.41149277776E-001, +1.38219760237E+001
+6.00125156446E+005, +9.74376516121E-001, +1.74555143241E+001
+7.25156445557E+005, +1.01120632118E+000, +2.10659901621E+001
+8.50187734668E+005, +1.10014616656E+000, +2.46389805778E+001
+9.75219023780E+005, +1.07331811280E+000, +2.82415880362E+001
+1.10025031289E+006, +1.14351406822E+000, +3.18122609836E+001
+1.22528160200E+006, +1.20272861262E+000, +3.54555276401E+001
+1.35031289111E+006, +1.20261781306E+000, +3.90946807271E+001
+1.47534418023E+006, +1.27571170381E+000, +4.25771119167E+001
+1.60037546934E+006, +1.21897362300E+000, +4.61571548630E+001
+1.72540675845E+006, +1.35070631575E+000, +4.97605811108E+001
+1.85043804756E+006, +1.37731684376E+000, +5.32593098172E+001
+1.97546933667E+006, +1.30358763012E+000, +5.68698368325E+001
+2.10050062578E+006, +1.35306061808E+000, +6.04405588282E+001
+2.22553191489E+006, +1.30981770275E+000, +6.41307612100E+001
+2.35056320401E+006, +1.29303979575E+000, +6.76824718728E+001
+2.47559449312E+006, +1.38872166362E+000, +7.11740694798E+001
+2.60062578223E+006, +1.41601470650E+000, +7.47848009293E+001
+2.72565707134E+006, +1.40860374863E+000, +7.83713833351E+001
+2.85068836045E+006, +1.38049281980E+000, +8.20187370564E+001
+2.97571964956E+006, +1.46746162682E+000, +8.56384098386E+001
+3.10075093867E+006, +1.43606844549E+000, +8.93620557021E+001
+3.22578222778E+006, +1.49261843956E+000, +9.27796037195E+001
+3.35081351690E+006, +1.63768579111E+000, +9.63060953913E+001
+3.47584480601E+006, +1.64929757111E+000, +9.99262303000E+001
+3.60087609512E+006, +1.63144780152E+000, +1.03431158928E+002
+3.72590738423E+006, +1.63588397514E+000, +1.07426756457E+002
+3.85093867334E+006, +1.69715708377E+000, +1.10813666392E+002
+3.97596996245E+006, +1.64826557726E+000, +1.14563447411E+002
+4.10100125156E+006, +1.49519894372E+000, +1.18323579234E+002
+4.22603254068E+006, +1.42754526550E+000, +1.21517055997E+002
+4.35106382979E+006, +1.67743952477E+000, +1.25481462751E+002
+4.47609511890E+006, +1.86395011486E+000, +1.29019462928E+002
+4.60112640801E+006, +1.57774549529E+000, +1.32831737415E+002
+4.72615769712E+006, +1.40759657388E+000, +1.36220805493E+002
+4.85118898623E+006, +1.59684853525E+000, +1.39867401924E+002
+4.97622027534E+006, +1.58533191991E+000, +1.43661444254E+002
+5.10125156446E+006, +1.37136573935E+000, +1.47081848839E+002
+5.22628285357E+006, +1.58394194119E+000, +1.50994914299E+002
+5.35131414268E+006, +1.57080275623E+000, +1.54686934402E+002
+5.47634543179E+006, +1.59242947633E+000, +1.58546136646E+002
+5.60137672090E+006, +1.59816431395E+000, +1.62314791941E+002
+5.72640801001E+006, +1.43523395939E+000, +1.65714208489E+002
+5.85143929912E+006, +2.14191784365E+000, +1.69762443314E+002
+5.97647058824E+006, +1.68273655817E+000, +1.72909535922E+002
+6.10150187735E+006, +1.38022183562E+000, +1.76984119545E+002
+6.22653316646E+006, +1.98257437443E+000, +1.80733968130E+002
+6.35156445557E+006, +2.13722408087E+000, +1.84539920690E+002
+6.47659574468E+006, +2.25097398661E+000, +1.88529270311E+002
+6.60162703379E+006, +1.97072260416E+000, +1.92450494502E+002
+6.72665832290E+006, +2.09199180714E+000, +1.95959080898E+002
+6.85168961202E+006, +2.07462586106E+000, +1.99905309335E+002
+6.97672090113E+006, +2.10557641164E+000, +2.03715314990E+002
+7.10175219024E+006, +2.32335976934E+000, +2.07302592031E+002
+7.22678347935E+006, +2.36965001627E+000, +2.11188649030E+002
+7.35181476846E+006, +2.00957791871E+000, +2.14901143141E+002
+7.47684605757E+006, +2.09291145820E+000, +2.18967343516E+002
+7.60187734668E+006, +1.98273292813E+000, +2.22500140788E+002
+7.72690863579E+006, +2.12643595076E+000, +2.26140317399E+002
+7.85193992491E+006, +2.32152826770E+000, +2.30280851195E+002
+7.97697121402E+006, +2.35153949957E+000, +2.34401115434E+002
+8.10200250313E+006, +2.27297466947E+000, +2.37987947644E+002
+8.22703379224E+006, +2.34894674816E+000, +2.42179650225E+002
+8.35206508135E+006, +2.17945404745E+000, +2.45777724388E+002
+8.47709637046E+006, +2.28387804679E+000, +2.49621288396E+002
+8.60212765957E+006, +2.19551272724E+000, +2.53774705755E+002
+8.72715894869E+006, +2.33059432984E+000, +2.57833706979E+002
+8.85219023780E+006, +2.68212927131E+000, +2.61987251961E+002
+8.97722152691E+006, +2.39172175742E+000, +2.66028977076E+002
+9.10225281602E+006, +2.36508507895E+000, +2.69874595008E+002
+9.22728410513E+006, +2.46832456468E+000, +2.73956653438E+002
+9.35231539424E+006, +2.03758583176E+000, +2.77807971384E+002
+9.47734668335E+006, +1.83319171201E+000, +2.81405824200E+002
+9.60237797247E+006, +2.32378285415E+000, +2.85525944467E+002
+9.72740926158E+006, +2.37248102041E+000, +2.90026487554E+002
+9.85244055069E+006, +2.83680670658E+000, +2.93792241874E+002
+9.97747183980E+006, +2.01987780055E+000, +2.97950585331E+002
+1.01025031289E+007, +2.05159586742E+000, +3.01472168664E+002
+1.02275344180E+007, +2.35747875119E+000, +3.05420308254E+002
+1.03525657071E+007, +2.32203404100E+000, +3.10075658971E+002
+1.04775969962E+007, +2.33135911068E+000, +3.13884901626E+002
+1.06026282854E+007, +1.71673923657E+000, +3.17989160351E+002
+1.07276595745E+007, +1.97710287268E+000, +3.22572837661E+002
+1.08526908636E+007, +2.33342794626E+000, +3.26943176932E+002
+1.09777221527E+007, +2.34284093582E+000, +3.31164473366E+002
+1.11027534418E+007, +2.21315308753E+000, +3.35285722608E+002
+1.12277847309E+007, +2.11416261018E+000, +3.39319549975E+002
+1.13528160200E+007, +1.62632920448E+000, +3.43871451577E+002
+1.14778473091E+007, +2.30796000886E+000, +3.47586125325E+002
+1.16028785982E+007, +1.66075531655E+000, +3.52685429122E+002
+1.17279098874E+007, +1.95208416050E+000, +3.56751332653E+002
+1.18529411765E+007, +1.88109554836E+000, +3.60923437257E+002
+1.19779724656E+007, +1.91839782034E+000, +3.65171051907E+002
+1.21030037547E+007, +1.90132868214E+000, +3.70237325238E+002
+1.22280350438E+007, +1.89755434165E+000, +3.74304450033E+002
+1.23530663329E+007, +2.10399229731E+000, +3.79972951465E+002
+1.24780976220E+007, +2.06559216406E+000, +3.83182915660E+002
+1.26031289111E+007, +1.51639096287E+000, +3.87866764153E+002
+1.27281602003E+007, +1.41342981289E+000, +3.91692962857E+002
+1.28531914894E+007, +1.20908161442E+000, +3.96665532228E+002
+1.29782227785E+007, +1.69362717305E+000, +4.00724236368E+002
+1.31032540676E+007, +2.59769759164E+000, +4.05330714474E+002
+1.32282853567E+007, +1.41733043807E+000, +4.10145612097E+002
+1.33533166458E+007, +1.68508185253E+000, +4.14449153077E+002
+1.34783479349E+007, +1.28853800208E+000, +4.19580968259E+002
+1.36033792240E+007, +2.38781061052E+000, +4.23738716706E+002
+1.37284105131E+007, +1.27263929021E+000, +4.28899796793E+002
+1.38534418023E+007, +1.36419304953E+000, +4.32679024233E+002
+1.39784730914E+007, +1.20628935188E+000, +4.36494694827E+002
+1.41035043805E+007, +1.58529490345E+000, +4.42484358664E+002
+1.42285356696E+007, +1.85382586201E+000, +4.47905044197E+002
+1.43535669587E+007, +2.19389545986E+000, +4.52985525293E+002
+1.44785982478E+007, +1.71539243941E+000, +4.56743719396E+002
+1.46036295369E+007, +1.57755224755E+000, +4.61190410057E+002
+1.47286608260E+007, +7.07157364109E-001, +4.67014073675E+002
+1.48536921151E+007, +9.72268288805E-001, +4.72106358845E+002
+1.49787234043E+007, +2.19364093290E+000, +4.76418462689E+002
+1.51037546934E+007, +1.75275291411E+000, +4.79782012406E+002
+1.52287859825E+007, +1.72339056453E+000, +4.85847567626E+002
+1.53538172716E+007, +1.89397655941E+000, +4.90670290541E+002
+1.54788485607E+007, +1.27577373594E+000, +4.96191737672E+002
+1.56038798498E+007, +9.04227756665E-001, +5.01127237493E+002
+1.57289111389E+007, +8.81308224892E-001, +5.06295218472E+002
+1.58539424280E+007, +8.08472124697E-001, +5.11800876100E+002
+1.59789737171E+007, +8.09513306800E-001, +5.15397915889E+002
+1.61040050063E+007, +1.11219469788E+000, +5.21452571729E+002
+1.62290362954E+007, +1.75085003102E+000, +5.27076587600E+002
+1.63540675845E+007, +1.07609761241E+000, +5.33411643773E+002
+1.64790988736E+007, +3.55670086337E-001, +5.36703968553E+002
+1.66041301627E+007, -4.05899214652E-001, +5.42556688865E+002
+1.67291614518E+007, -4.62482171147E-001, +5.48785059951E+002
+1.68541927409E+007, +7.93281851775E-001, +5.54379211873E+002
+1.69792240300E+007, -8.45561789831E-001, +5.58041390511E+002
+1.71042553191E+007, -1.79866043559E+000, +5.66509920973E+002
+1.72292866083E+007, -2.26758475211E-001, +5.68675192908E+002
+1.73543178974E+007, +3.49810327239E-003, +5.76936975640E+002
+1.74793491865E+007, -1.16275096880E+000, +5.80608226998E+002
+1.76043804756E+007, -1.78931570369E-001, +5.87866977046E+002
+1.77294117647E+007, +6.34194601526E-002, +5.91467433408E+002
+1.78544430538E+007, +7.89596174038E-001, +5.99589935338E+002
+1.79794743429E+007, +2.62140371588E-002, +6.04588999593E+002
+1.81045056320E+007, -7.11258329467E-001, +6.10758707497E+002
+1.82295369212E+007, -3.97090888379E-001, +6.14664499179E+002
+1.83545682103E+007, +1.58824105239E+000, +6.23042001557E+002
+1.84795994994E+007, +2.45941686916E+000, +6.27142609709E+002
+1.86046307885E+007, +1.46992980044E+000, +6.33683223904E+002
+1.87296620776E+007, +6.31529762953E-001, +6.41102562993E+002
+1.88546933667E+007, +5.56881093493E-002, +6.45460109912E+002
+1.89797246558E+007, +1.89813678706E+000, +6.50442785531E+002
+1.91047559449E+007, +9.74627184112E-001, +6.57386179182E+002
+1.92297872340E+007, -7.26902539436E-001, +6.66758781796E+002
+1.93548185232E+007, +1.56022650323E+000, +6.72071525848E+002
+1.94798498123E+007, -2.98216878097E-001, +6.76006436897E+002
+1.96048811014E+007, +8.42046785583E-001, +6.82251429645E+002
+1.97299123905E+007, -2.12421184583E+000, +6.88902922858E+002
+1.98549436796E+007, -3.06457353263E-001, +6.98614273088E+002
+1.99799749687E+007, +1.22520702942E+000, +7.01877794059E+002
+2.01050062578E+007, -3.00057112043E-001, +7.07045822339E+002
+2.02300375469E+007, +1.93562051422E+000, +7.16709468357E+002
+2.03550688360E+007, -2.43450528332E+000, +7.22319379122E+002
+2.04801001252E+007, -9.04439470084E-001, +7.29946795182E+002
+2.06051314143E+007, -7.83003306740E-001, +7.38925909187E+002
+2.07301627034E+007, +1.25638997687E+000, +7.43453785358E+002
+2.08551939925E+007, +1.33994717928E+000, +7.53018848578E+002
+2.09802252816E+007, +1.76383538221E+000, +7.56561598342E+002
+2.11052565707E+007, +2.59241969369E+000, +7.66255611874E+002
+2.12302878598E+007, -3.88766968387E-001, +7.73859671622E+002
+2.13553191489E+007, +7.06568619124E-001, +7.76071417815E+002
+2.14803504380E+007, +8.76338643183E-001, +7.86030734653E+002
+2.16053817272E+007, -2.39456147205E+000, +7.95122986172E+002
+2.17304130163E+007, +2.19178617708E+000, +8.04588411107E+002
+2.18554443054E+007, +4.46301831371E+000, +8.09287918551E+002
+2.19804755945E+007, +2.65121201589E-001, +8.17308210951E+002
+2.21055068836E+007, +2.38142075107E+000, +8.26953162966E+002
+2.22305381727E+007, +1.73226942967E+000, +8.35072982777E+002
+2.23555694618E+007, +4.42484476833E+000, +8.41605005521E+002
+2.24806007509E+007, +3.36044588647E+000, +8.49871911450E+002
+2.26056320401E+007, +5.90557910451E+000, +8.58997319339E+002
+2.27306633292E+007, +3.24200613748E+000, +8.61211174637E+002
+2.28556946183E+007, +2.99803951464E+000, +8.73034096644E+002
+2.29807259074E+007, +7.46508850670E+000, +8.82123158908E+002
+2.31057571965E+007, +8.54606000745E+000, +8.85361048213E+002
+2.32307884856E+007, +9.19350274449E+000, +9.01417948927E+002
+2.33558197747E+007, +1.14013744962E+001, +9.07390007129E+002
+2.34808510638E+007, +8.66398528203E+000, +9.14289736399E+002
+2.36058823529E+007, +1.08821500453E+001, +9.24705343849E+002
+2.37309136421E+007, +1.13120854515E+001, +9.28036760037E+002
+2.38559449312E+007, +1.31645967017E+001, +9.44364718918E+002
+2.39809762203E+007, +1.30955449672E+001, +9.43179323075E+002
+2.41060075094E+007, +1.26741436669E+001, +9.48887025903E+002
+2.42310387985E+007, +1.27641591595E+001, +9.63233442014E+002
+2.43560700876E+007, +1.63948906842E+001, +9.69484414876E+002
+2.44811013767E+007, +1.47416413919E+001, +9.76013360379E+002
+2.46061326658E+007, +1.71516537625E+001, +9.88256434271E+002
+2.47311639549E+007, +1.22059614110E+001, +9.93279404274E+002
+2.48561952441E+007, +1.84451253919E+001, +1.00399105312E+003
+2.49812265332E+007, +1.40343278930E+001, +1.01852938233E+003
+2.51062578223E+007, +1.70364375184E+001, +1.01976985331E+003
+2.52312891114E+007, +1.20610763213E+001, +1.02665239061E+003
+2.53563204005E+007, +1.19887459272E+001, +1.04311576206E+003
+2.54813516896E+007, +9.51765566407E+000, +1.05190296757E+003
+2.56063829787E+007, +1.56232051986E+001, +1.05905580052E+003
+2.57314142678E+007, +1.45434804790E+001, +1.07254711078E+003
+2.58564455569E+007, +1.11888627466E+001, +1.07397955397E+003
+2.59814768461E+007, +1.95273681618E+001, +1.08774063054E+003
+2.61065081352E+007, +9.74007329097E+000, +1.09909505701E+003
+2.62315394243E+007, +1.31063547727E+001, +1.11599426855E+003
+2.63565707134E+007, +6.81667762293E+000, +1.13037086303E+003
+2.64816020025E+007, +9.03599403240E+000, +1.13787143330E+003
+2.66066332916E+007, +1.39555287348E+001, +1.14531116099E+003
+2.67316645807E+007, +8.82196742353E+000, +1.16128986527E+003
+2.68566958698E+007, +1.38643560121E+001, +1.16809777599E+003
+2.69817271589E+007, +9.01788023160E+000, +1.18170369255E+003
+2.71067584481E+007, +1.43504353855E+001, +1.19429463945E+003
+2.72317897372E+007, +9.93991825501E+000, +1.20811452000E+003
+2.73568210263E+007, +2.26116887047E+001, +1.22047644927E+003
+2.74818523154E+007, +1.84345883437E+001, +1.21874247778E+003
+2.76068836045E+007, +1.55579463871E+001, +1.23630900127E+003
+2.77319148936E+007, +1.71539794722E+001, +1.24802816696E+003
+2.78569461827E+007, +7.53881205679E+000, +1.26454330847E+003
+2.79819774718E+007, +8.12400406546E+000, +1.27935348661E+003
+2.81070087610E+007, +1.36314276630E+001, +1.28541194397E+003
+2.82320400501E+007, +5.72137632689E+000, +1.30817731794E+003
+2.83570713392E+007, -2.20878303382E+000, +1.32032487919E+003
+2.84821026283E+007, +1.01333051213E+001, +1.32746715925E+003
+2.86071339174E+007, +8.71811228076E+000, +1.34145619623E+003
+2.87321652065E+007, +6.53228694071E+000, +1.35916081272E+003
+2.88571964956E+007, +8.87528449463E+000, +1.38501679375E+003
+2.89822277847E+007, +7.22247866285E+000, +1.39374242882E+003
+2.91072590738E+007, +1.69881426684E+000, +1.40725967247E+003
+2.92322903630E+007, +4.50561351068E+000, +1.42870771227E+003
+2.93573216521E+007, +7.53687838602E+000, +1.44543154099E+003
+2.94823529412E+007, +7.17447914656E+000, +1.45611438273E+003
+2.96073842303E+007, +3.13094731507E+000, +1.47461541883E+003
+2.97324155194E+007, +1.17820394510E+001, +1.50193814674E+003
+2.98574468085E+007, +7.63993654026E+000, +1.51177516037E+003
+2.99824780976E+007, +6.51168266447E+000, +1.53074210044E+003
+3.01075093867E+007, +7.40495777927E+000, +1.55278869084E+003
+3.02325406758E+007, +9.31376604647E-001, +1.56265658657E+003
+3.03575719650E+007, +7.86812133527E+000, +1.58237463196E+003
+3.04826032541E+007, +5.78830605890E+000, +1.60494842326E+003
+3.06076345432E+007, +4.22532409121E+000, +1.60701793111E+003
+3.07326658323E+007, +7.71912120103E+000, +1.63027480633E+003
+3.08576971214E+007, +3.36930361504E+000, +1.64530671591E+003
+3.09827284105E+007, -1.14714425100E+001, +1.69260212899E+003
+3.11077596996E+007, -1.72199793388E+001, +1.69247513780E+003
+3.12327909887E+007, +5.16906918214E+000, +1.71767319619E+003
+3.13578222778E+007, +7.93379357345E+000, +1.73617670503E+003
+3.14828535670E+007, +1.66794518828E+001, +1.75259950599E+003
+3.16078848561E+007, +9.55264935908E+000, +1.77692234964E+003
+3.17329161452E+007, -6.39556526522E+000, +1.80856995916E+003
+3.18579474343E+007, -1.55794285859E+001, +1.83975235274E+003
+3.19829787234E+007, -5.30911643073E+000, +1.85317197717E+003
+3.21080100125E+007, +1.36151879587E+001, +1.88913064163E+003
+3.22330413016E+007, -6.00366650969E-002, +1.91050561872E+003
+3.23580725907E+007, -6.58531153524E+000, +1.94349830847E+003
+3.24831038798E+007, +1.48568015763E+001, +1.94929675248E+003
+3.26081351690E+007, -1.46234952709E+001, +1.97762253816E+003
+3.27331664581E+007, +7.45470131642E+000, +2.00662179196E+003
+3.28581977472E+007, -2.87218046135E+001, +2.06667994659E+003
+3.29832290363E+007, -1.20809232155E+001, +2.06931240540E+003
+3.31082603254E+007, -1.71883223192E+001, +2.09503816572E+003
+3.32332916145E+007, +7.24729814538E+000, +2.15076537107E+003
+3.33583229036E+007, -3.61972605518E+000, +2.18120753150E+003
+3.34833541927E+007, -1.92885104013E+001, +2.19521102946E+003
+3.36083854819E+007, -1.94188983005E+000, +2.21526797993E+003
+3.37334167710E+007, -5.11253446558E+000, +2.25649124772E+003
+3.38584480601E+007, +9.04706493400E+000, +2.27447641982E+003
+3.39834793492E+007, +1.71621350635E+001, +2.33447633286E+003
+3.41085106383E+007, +1.19676345319E+000, +2.37207995925E+003
+3.42335419274E+007, +4.82664427145E+001, +2.39284008593E+003
+3.43585732165E+007, +1.58235266583E+001, +2.47848804209E+003
+3.44836045056E+007, +5.82341553645E+001, +2.52166696037E+003
+3.46086357947E+007, -4.66740554852E+000, +2.52697643385E+003
+3.47336670839E+007, +1.23487876116E+001, +2.55923170348E+003
+3.48586983730E+007, +2.60131963354E+001, +2.63206872509E+003
+3.49837296621E+007, +2.42714474308E+001, +2.65488342666E+003
+3.51087609512E+007, +6.16625883999E+001, +2.74667711409E+003
+3.52337922403E+007, +3.45273934879E+001, +2.74876238151E+003
+3.53588235294E+007, +2.93393836756E+001, +2.81828230661E+003
+3.54838548185E+007, +3.02111676386E+001, +2.83490797952E+003
+3.56088861076E+007, +5.59486053273E+001, +2.92025899632E+003
+3.57339173967E+007, +7.95042628212E+001, +2.97291031780E+003
+3.58589486859E+007, +1.31703065925E+000, +2.98362784201E+003
+3.59839799750E+007, +3.61086535872E+001, +3.09918026891E+003
+3.61090112641E+007, +6.43209932670E+001, +3.15191934596E+003
+3.62340425532E+007, +1.23236652908E+001, +3.17376096092E+003
+3.63590738423E+007, +6.59262144997E+001, +3.26734659878E+003
+3.64841051314E+007, +4.38500222891E+001, +3.33001794138E+003
+3.66091364205E+007, +3.08107351906E+001, +3.41159690671E+003
+3.67341677096E+007, +2.45651254697E+001, +3.54368506267E+003
+3.68591989987E+007, +6.66149688497E+001, +3.57217844262E+003
+3.69842302879E+007, +8.43052849432E+001, +3.65467955613E+003
+3.71092615770E+007, +7.19713176438E+001, +3.78689611225E+003
+3.72342928661E+007, +3.32342656939E+001, +3.81194659419E+003
+3.73593241552E+007, -1.92224447479E+001, +4.01772678573E+003
+3.74843554443E+007, +1.72293807864E+001, +4.00090148084E+003
+3.76093867334E+007, +6.82195201217E+001, +4.10347924845E+003
+3.77344180225E+007, +1.17380617161E+002, +4.25659865855E+003
+3.78594493116E+007, +7.09659909745E+001, +4.33293480433E+003
+3.79844806008E+007, +1.28244043000E+002, +4.41537636770E+003
+3.81095118899E+007, +8.07773704572E+001, +4.63429988351E+003
+3.82345431790E+007, +6.07232669788E+001, +4.74672586081E+003
+3.83595744681E+007, +1.91416016583E+002, +4.79055422928E+003
+3.84846057572E+007, +5.38058202010E+001, +4.99546046276E+003
+3.86096370463E+007, +1.72021351427E+001, +5.23921655706E+003
+3.87346683354E+007, +2.76863789249E+002, +5.39337502763E+003
+3.88596996245E+007, +1.32015598901E+002, +5.74391916229E+003
+3.89847309136E+007, +2.21275885279E+002, +5.76504173259E+003
+3.91097622028E+007, +3.38823600144E+002, +6.03947292430E+003
+3.92347934919E+007, +1.66026116617E+002, +6.17809470639E+003
+3.93598247810E+007, +3.82934022263E+002, +6.54666307500E+003
+3.94848560701E+007, +1.94712339626E+002, +6.85972733970E+003
+3.96098873592E+007, +2.91790767513E+002, +6.96773760603E+003
+3.97349186483E+007, +5.97400300676E+002, +7.56190600434E+003
+3.98599499374E+007, +7.84115578034E+002, +7.74934393653E+003
+3.99849812265E+007, +6.87869051166E+002, +8.39122929124E+003
+4.01100125156E+007, +8.38735161210E+002, +8.44940273889E+003
