"# Channel 1"
"# Trace 1"
Frequency, Formatted Data, Formatted Data
+1.00000000000E+005, +7.17778471483E-001, +3.30180889042E+000
+2.87609511890E+005, +6.82026772654E-001, +9.04321908140E+000
+4.75219023780E+005, +7.12662847515E-001, +1.50259756355E+001
+6.62828535670E+005, +8.59716444274E-001, +2.08126125161E+001
+8.50438047559E+005, +8.25877277569E-001, +2.66950781348E+001
+1.03804755945E+006, +8.37057763622E-001, +3.26351678824E+001
+1.22565707134E+006, +9.34858294966E-001, +3.84044030034E+001
+1.41326658323E+006, +1.06227248422E+000, +4.42538294450E+001
+1.60087609512E+006, +1.15538653060E+000, +5.00692513002E+001
+1.78848560701E+006, +1.15183179760E+000, +5.59005427708E+001
+1.97609511890E+006, +1.11868821795E+000, +6.17963406609E+001
+2.16370463079E+006, +1.19052879128E+000, +6.76647285978E+001
+2.35131414268E+006, +1.26585993892E+000, +7.33304428575E+001
+2.53892365457E+006, +1.16274448060E+000, +7.91208496813E+001
+2.72653316646E+006, +1.39139087780E+000, +8.49463470969E+001
+2.91414267835E+006, +1.24242158758E+000, +9.09683627938E+001
+3.10175219024E+006, +1.34581615982E+000, +9.66150917135E+001
+3.28936170213E+006, +1.24965050462E+000, +1.02423526366E+002
+3.47697121402E+006, +1.34259346230E+000, +1.08276169885E+002
+3.66458072591E+006, +1.41184253860E+000, +1.14257049897E+002
+3.85219023780E+006, +1.30010139825E+000, +1.19784820251E+002
+4.03979974969E+006, +1.48711263556E+000, +1.25877680294E+002
+4.22740926158E+006, +1.52504109208E+000, +1.31515349443E+002
+4.41501877347E+006, +1.42644857626E+000, +1.37418919271E+002
+4.60262828536E+006, +1.58329054669E+000, +1.43243018112E+002
+4.79023779725E+006, +1.52352667843E+000, +1.49135353788E+002
+4.97784730914E+006, +1.76699214111E+000, +1.54954472175E+002
+5.16545682103E+006, +1.37027989854E+000, +1.60877683777E+002
+5.35306633292E+006, +1.62411501282E+000, +1.66663610627E+002
+5.54067584481E+006, +1.37253264573E+000, +1.72465637790E+002
+5.72828535670E+006, +1.72976174926E+000, +1.78550947037E+002
+5.91589486859E+006, +1.82542331849E+000, +1.84358583652E+002
+6.10350438048E+006, +1.84034779408E+000, +1.90077257481E+002
+6.29111389237E+006, +1.74497258018E+000, +1.96102895910E+002
+6.47872340426E+006, +1.79814948844E+000, +2.02047881751E+002
+6.66633291615E+006, +1.83325701283E+000, +2.07905500402E+002
+6.85394242804E+006, +1.94515826866E+000, +2.13765858790E+002
+7.04155193992E+006, +1.87417684777E+000, +2.19439267896E+002
+7.22916145181E+006, +2.17344371660E+000, +2.25574121659E+002
+7.41677096370E+006, +2.13104097320E+000, +2.31559504631E+002
+7.60438047559E+006, +2.05672647746E+000, +2.37441172957E+002
+7.79198998748E+006, +2.19268105027E+000, +2.43316871409E+002
+7.97959949937E+006, +1.99712182426E+000, +2.49228974409E+002
+8.16720901126E+006, +2.24763952801E+000, +2.55386305600E+002
+8.35481852315E+006, +2.11465924522E+000, +2.61165515962E+002
+8.54242803504E+006, +2.32345539599E+000, +2.67539179818E+002
+8.73003754693E+006, +2.34192697515E+000, +2.73191100915E+002
+8.91764705882E+006, +2.05143798364E+000, +2.78996635672E+002
+9.10525657071E+006, +1.94569398720E+000, +2.85076648785E+002
+9.29286608260E+006, +2.15262706579E+000, +2.91069705880E+002
+9.48047559449E+006, +2.24126619825E+000, +2.97001428810E+002
+9.66808510638E+006, +1.93881201166E+000, +3.03135235817E+002
+9.85569461827E+006, +1.99197499632E+000, +3.09041180201E+002
+1.00433041302E+007, +2.10325168545E+000, +3.15162775564E+002
+1.02309136421E+007, +2.05512202108E+000, +3.21223354121E+002
+1.04185231539E+007, +2.27035432142E+000, +3.27405121971E+002
+1.06061326658E+007, +2.10628386021E+000, +3.33213304324E+002
+1.07937421777E+007, +2.21134174352E+000, +3.39529646369E+002
+1.09813516896E+007, +2.04586716007E+000, +3.45686474744E+002
+1.11689612015E+007, +2.17248029699E+000, +3.51700050967E+002
+1.13565707134E+007, +2.15017902318E+000, +3.57665940373E+002
+1.15441802253E+007, +2.04618824831E+000, +3.64075672062E+002
+1.17317897372E+007, +2.26868898611E+000, +3.69673323080E+002
+1.19193992491E+007, +1.72348963758E+000, +3.76124097967E+002
+1.21070087610E+007, +1.94100922083E+000, +3.82330645152E+002
+1.22946182728E+007, +1.78302025917E+000, +3.88714781621E+002
+1.24822277847E+007, +1.64000311577E+000, +3.94718149272E+002
+1.26698372966E+007, +2.02111800120E+000, +4.00859319463E+002
+1.28574468085E+007, +2.12815885293E+000, +4.06993402262E+002
+1.30450563204E+007, +1.80421629102E+000, +4.13180934614E+002
+1.32326658323E+007, +1.57565813877E+000, +4.19445659644E+002
+1.34202753442E+007, +2.02329999071E+000, +4.26256295331E+002
+1.36078848561E+007, +1.81300250883E+000, +4.31618182938E+002
+1.37954943680E+007, +1.55296065036E+000, +4.38132677523E+002
+1.39831038798E+007, +1.48665096339E+000, +4.44640580261E+002
+1.41707133917E+007, +1.76365379369E+000, +4.50884750575E+002
+1.43583229036E+007, +2.10252922543E+000, +4.56867689471E+002
+1.45459324155E+007, +1.66778284233E+000, +4.63709323393E+002
+1.47335419274E+007, +1.54617305539E+000, +4.69842773481E+002
+1.49211514393E+007, +1.42022792414E+000, +4.75896496740E+002
+1.51087609512E+007, +1.59827332336E+000, +4.82537748996E+002
+1.52963704631E+007, +1.81109521433E+000, +4.88999618028E+002
+1.54839799750E+007, +7.69459357232E-001, +4.95681884603E+002
+1.56715894869E+007, +1.41183475072E+000, +5.01807864345E+002
+1.58591989987E+007, +1.39499590554E+000, +5.07770257797E+002
+1.60468085106E+007, +7.82681850104E-001, +5.14117566455E+002
+1.62344180225E+007, +8.32134868005E-001, +5.21311107494E+002
+1.64220275344E+007, +1.54410861935E+000, +5.27672780282E+002
+1.66096370463E+007, +1.28398801863E+000, +5.34833606474E+002
+1.67972465582E+007, +1.03608844286E+000, +5.40823372969E+002
+1.69848560701E+007, +1.77071864336E+000, +5.47128351337E+002
+1.71724655820E+007, +1.97304554006E-001, +5.52944827888E+002
+1.73600750939E+007, +6.08485962064E-001, +5.60146634603E+002
+1.75476846058E+007, -7.87271480582E-002, +5.66951923615E+002
+1.77352941176E+007, +8.19528694607E-001, +5.73941355269E+002
+1.79229036295E+007, +8.34457744789E-001, +5.80122077721E+002
+1.81105131414E+007, +1.24492873338E+000, +5.87216025465E+002
+1.82981226533E+007, +1.45110541204E+000, +5.92786087200E+002
+1.84857321652E+007, +7.05005544364E-001, +6.00134611100E+002
+1.86733416771E+007, +1.32655924008E+000, +6.06656497257E+002
+1.88609511890E+007, +1.06298846728E+000, +6.14290358006E+002
+1.90485607009E+007, +1.50741906591E+000, +6.20883581969E+002
+1.92361702128E+007, +8.72314400336E-001, +6.27520038088E+002
+1.94237797247E+007, +4.07769471508E-001, +6.33350471860E+002
+1.96113892365E+007, +1.16071372170E+000, +6.40652590906E+002
+1.97989987484E+007, +1.61088265519E+000, +6.46790243445E+002
+1.99866082603E+007, +1.09308874954E+000, +6.53839998989E+002
+2.01742177722E+007, +8.80010846903E-001, +6.61950324520E+002
+2.03618272841E+007, +9.59320636428E-001, +6.67325535218E+002
+2.05494367960E+007, +7.57557025465E-001, +6.75232676683E+002
+2.07370463079E+007, +3.52568943533E-001, +6.80834525504E+002
+2.09246558198E+007, +1.13059722115E+000, +6.89244655488E+002
+2.11122653317E+007, -1.52927136992E-001, +6.95981120820E+002
+2.12998748436E+007, +6.83623957580E-001, +7.02344260602E+002
+2.14874843554E+007, +3.78822546642E-001, +7.08681949172E+002
+2.16750938673E+007, +8.82786015848E-002, +7.18515948347E+002
+2.18627033792E+007, +8.78311108241E-001, +7.24778173142E+002
+2.20503128911E+007, +1.12002400855E+000, +7.31553858011E+002
+2.22379224030E+007, +8.83566892624E-001, +7.38180194402E+002
+2.24255319149E+007, +1.70818574258E-001, +7.45428224309E+002
+2.26131414268E+007, +5.55288416401E-001, +7.52425769724E+002
+2.28007509387E+007, +3.62568109540E-001, +7.59771880359E+002
+2.29883604506E+007, -2.91396433805E-001, +7.67674569017E+002
+2.31759699625E+007, +1.19509774350E+000, +7.74179429134E+002
+2.33635794743E+007, +6.72453258688E-001, +7.80764477743E+002
+2.35511889862E+007, +1.34987828473E+000, +7.88411219406E+002
+2.37387984981E+007, +1.54688346664E+000, +7.97697714806E+002
+2.39264080100E+007, +7.60736544312E-001, +8.04121969603E+002
+2.41140175219E+007, +3.39107705350E-001, +8.11401775852E+002
+2.43016270338E+007, -3.42105728088E-001, +8.18390820586E+002
+2.44892365457E+007, -4.30210391491E-001, +8.24943212989E+002
+2.46768460576E+007, +6.10991602871E-001, +8.34909180180E+002
+2.48644555695E+007, -2.86602665135E-002, +8.41659605616E+002
+2.50520650814E+007, +1.16708384382E+000, +8.49295700604E+002
+2.52396745932E+007, -4.94859796478E-001, +8.56434302212E+002
+2.54272841051E+007, +1.11048488139E+000, +8.64340720445E+002
+2.56148936170E+007, +2.89812133534E-002, +8.72347625166E+002
+2.58025031289E+007, +6.13232718104E-001, +8.78911483982E+002
+2.59901126408E+007, +4.76875724201E-001, +8.87291335924E+002
+2.61777221527E+007, +9.12296055210E-001, +8.95485127091E+002
+2.63653316646E+007, +8.57707979458E-002, +9.01818642038E+002
+2.65529411765E+007, +7.71990697480E-001, +9.10810355065E+002
+2.67405506884E+007, -1.85594704032E-001, +9.17813945145E+002
+2.69281602003E+007, -8.00322886258E-001, +9.25051928932E+002
+2.71157697121E+007, +3.48720778090E-001, +9.35682946982E+002
+2.73033792240E+007, -3.60264230895E-001, +9.43212276227E+002
+2.74909887359E+007, +6.86604989312E-001, +9.50818238006E+002
+2.76785982478E+007, +1.80854139490E-001, +9.58659275454E+002
+2.78662077597E+007, -5.10891922945E-001, +9.64984542212E+002
+2.80538172716E+007, -1.29593940278E+000, +9.72770886967E+002
+2.82414267835E+007, -6.93321537224E-001, +9.82976993485E+002
+2.84290362954E+007, +1.91921796046E+000, +9.89437651648E+002
+2.86166458073E+007, -1.87541096748E+000, +9.99273485930E+002
+2.88042553191E+007, -1.11195540316E+000, +1.00669105326E+003
+2.89918648310E+007, -2.31024166028E-001, +1.01642683572E+003
+2.91794743429E+007, -6.79472587221E-001, +1.02399979101E+003
+2.93670838548E+007, -1.04432805931E+000, +1.03292787998E+003
+2.95546933667E+007, -8.37891658310E-001, +1.04080853436E+003
+2.97423028786E+007, -1.93818394984E+000, +1.04939881215E+003
+2.99299123905E+007, +6.52319870894E-001, +1.05719311521E+003
+3.01175219024E+007, -1.33846421404E+000, +1.06660616458E+003
+3.03051314143E+007, -1.57918280520E-001, +1.07633208278E+003
+3.04927409262E+007, -2.99129852569E+000, +1.08539966200E+003
+3.06803504380E+007, -1.76482382816E+000, +1.09309795770E+003
+3.08679599499E+007, -4.28652955967E+000, +1.10188156694E+003
+3.10555694618E+007, -5.42126317002E+000, +1.11066720023E+003
+3.12431789737E+007, -2.69727361437E+000, +1.11711653945E+003
+3.14307884856E+007, -7.80106923921E-001, +1.12613252998E+003
+3.16183979975E+007, -3.98750648133E+000, +1.13832246094E+003
+3.18060075094E+007, -4.95404004741E+000, +1.14302123405E+003
+3.19936170213E+007, -3.30269442194E+000, +1.15452269933E+003
+3.21812265332E+007, -2.44634954274E+000, +1.16134175343E+003
+3.23688360451E+007, -5.36708009109E+000, +1.17545543604E+003
+3.25564455569E+007, -4.13504822163E+000, +1.18494195551E+003
+3.27440550688E+007, -3.68975410075E+000, +1.19215032883E+003
+3.29316645807E+007, -5.12213602306E+000, +1.20141143550E+003
+3.31192740926E+007, -6.64095721712E+000, +1.21077422555E+003
+3.33068836045E+007, -6.77380923029E+000, +1.21854553007E+003
+3.34944931164E+007, -4.21508541951E+000, +1.22896721716E+003
+3.36821026283E+007, -6.62534340718E+000, +1.23857756223E+003
+3.38697121402E+007, -4.51249258834E+000, +1.24906584190E+003
+3.40573216521E+007, -6.62342665771E+000, +1.25688386316E+003
+3.42449311640E+007, -5.54533328292E+000, +1.26752276730E+003
+3.44325406758E+007, -8.16046404484E+000, +1.27905019266E+003
+3.46201501877E+007, -4.95436056985E+000, +1.28574015074E+003
+3.48077596996E+007, -2.22956811070E+000, +1.29816174208E+003
+3.49953692115E+007, -5.28586495350E+000, +1.31061141312E+003
+3.51829787234E+007, -4.69234975907E+000, +1.31610893154E+003
+3.53705882353E+007, -5.08891861830E+000, +1.33013769655E+003
+3.55581977472E+007, -5.77848094323E+000, +1.34001027012E+003
+3.57458072591E+007, -5.81210206911E+000, +1.34720128401E+003
+3.59334167710E+007, -4.81969652502E+000, +1.35757410269E+003
+3.61210262829E+007, -5.80726212835E+000, +1.37067722551E+003
+3.63086357947E+007, -6.37897361276E+000, +1.37909878289E+003
+3.64962453066E+007, -3.82710067030E+000, +1.38825351055E+003
+3.66838548185E+007, -5.47546432926E+000, +1.40047654780E+003
+3.68714643304E+007, -9.64564108084E+000, +1.40833385589E+003
+3.70590738423E+007, -6.83387657193E+000, +1.42289675489E+003
+3.72466833542E+007, -1.22559895971E+001, +1.43358822805E+003
+3.74342928661E+007, -1.00666618554E+001, +1.44670093949E+003
+3.76219023780E+007, -7.45529453452E+000, +1.45561056603E+003
+3.78095118899E+007, -1.01456362848E+001, +1.46492851097E+003
+3.79971214018E+007, -9.20367898726E+000, +1.47727990651E+003
+3.81847309136E+007, -9.30080820154E+000, +1.48726524949E+003
+3.83723404255E+007, -5.27919998860E+000, +1.50039377640E+003
+3.85599499374E+007, -1.01198256012E+001, +1.50970359231E+003
+3.87475594493E+007, -7.11570522297E+000, +1.52193789346E+003
+3.89351689612E+007, -8.26982835448E+000, +1.53619609233E+003
+3.91227784731E+007, -5.73669048956E+000, +1.54299598137E+003
+3.93103879850E+007, -9.05372914424E+000, +1.56084078387E+003
+3.94979974969E+007, -9.30612708765E+000, +1.56771736089E+003
+3.96856070088E+007, -1.30521628134E+001, +1.58240097385E+003
+3.98732165207E+007, -1.43439756354E+001, +1.59012597546E+003
+4.00608260325E+007, -1.10653006177E+001, +1.60235846940E+003
+4.02484355444E+007, -1.15913211789E+001, +1.62163969989E+003
+4.04360450563E+007, -1.40637197737E+001, +1.63244623283E+003
+4.06236545682E+007, -1.22139904421E+001, +1.64274438017E+003
+4.08112640801E+007, -1.13630046417E+001, +1.65387250267E+003
+4.09988735920E+007, -1.31702165410E+001, +1.67323903802E+003
+4.11864831039E+007, -1.18952347746E+001, +1.68383011616E+003
+4.13740926158E+007, -1.57452464555E+001, +1.69593205374E+003
+4.15617021277E+007, -1.47803658073E+001, +1.70352152485E+003
+4.17493116395E+007, -1.27750071684E+001, +1.72147449139E+003
+4.19369211514E+007, -1.41609052339E+001, +1.73362228491E+003
+4.21245306633E+007, -1.07338158322E+001, +1.74639910388E+003
+4.23121401752E+007, -2.04208182288E+001, +1.76399165767E+003
+4.24997496871E+007, -1.62751139522E+001, +1.77448407138E+003
+4.26873591990E+007, -1.61205165251E+001, +1.78673277533E+003
+4.28749687109E+007, -1.83646447195E+001, +1.80276060208E+003
+4.30625782228E+007, -1.73749379839E+001, +1.81364726170E+003
+4.32501877347E+007, -1.42758340636E+001, +1.83336660109E+003
+4.34377972466E+007, -1.79432844176E+001, +1.84777495756E+003
+4.36254067584E+007, -1.70291979438E+001, +1.85456593614E+003
+4.38130162703E+007, -1.79320270379E+001, +1.87287922528E+003
+4.40006257822E+007, -2.21219563729E+001, +1.89080961440E+003
+4.41882352941E+007, -1.95234797404E+001, +1.90010756504E+003
+4.43758448060E+007, -1.59116774947E+001, +1.91337502442E+003
+4.45634543179E+007, -1.86462256315E+001, +1.92844181091E+003
+4.47510638298E+007, -2.60441412183E+001, +1.94624255989E+003
+4.49386733417E+007, -2.48137058662E+001, +1.96103664704E+003
+4.51262828536E+007, -1.93881705321E+001, +1.97771978177E+003
+4.53138923655E+007, -2.25902788269E+001, +1.99152063784E+003
+4.55015018773E+007, -2.09475809418E+001, +2.00542484686E+003
+4.56891113892E+007, -1.90768725028E+001, +2.02689482070E+003
+4.58767209011E+007, -3.36809854248E+001, +2.03603746116E+003
+4.60643304130E+007, -2.30631759782E+001, +2.05607372070E+003
+4.62519399249E+007, -2.86191864501E+001, +2.06786956706E+003
+4.64395494368E+007, -2.28772470414E+001, +2.08860967479E+003
+4.66271589487E+007, -3.06314332908E+001, +2.10124731470E+003
+4.68147684606E+007, -2.40969300893E+001, +2.12321539887E+003
+4.70023779725E+007, -2.57141692765E+001, +2.13574196879E+003
+4.71899874844E+007, -2.93103210497E+001, +2.16256463542E+003
+4.73775969962E+007, -3.47261949185E+001, +2.17489760459E+003
+4.75652065081E+007, -2.96037290022E+001, +2.18956739523E+003
+4.77528160200E+007, -2.15971400187E+001, +2.21207841455E+003
+4.79404255319E+007, -2.71337011998E+001, +2.22067114138E+003
+4.81280350438E+007, -3.19613247383E+001, +2.24339339435E+003
+4.83156445557E+007, -3.16495676948E+001, +2.26559584696E+003
+4.85032540676E+007, -3.08044079971E+001, +2.28509601733E+003
+4.86908635795E+007, -3.50386594826E+001, +2.29756620081E+003
+4.88784730914E+007, -2.77613290028E+001, +2.32393637218E+003
+4.90660826033E+007, -3.81522623882E+001, +2.34840092054E+003
+4.92536921151E+007, -3.33068912730E+001, +2.37111053793E+003
+4.94413016270E+007, -3.57412436598E+001, +2.38187198295E+003
+4.96289111389E+007, -3.28391925599E+001, +2.40047322129E+003
+4.98165206508E+007, -3.61453128872E+001, +2.41885411649E+003
+5.00041301627E+007, -2.94541667860E+001, +2.45718908358E+003
+5.01917396746E+007, -3.48296877564E+001, +2.45535341114E+003
+5.03793491865E+007, -2.82427460223E+001, +2.47897349178E+003
+5.05669586984E+007, -3.52739828284E+001, +2.50707128923E+003
+5.07545682103E+007, -4.28857936468E+001, +2.52951230745E+003
+5.09421777222E+007, -3.12489514269E+001, +2.54723420521E+003
+5.11297872340E+007, -3.90310893950E+001, +2.57257050539E+003
+5.13173967459E+007, -4.02688060612E+001, +2.60093230850E+003
+5.15050062578E+007, -3.96739342550E+001, +2.61193961997E+003
+5.16926157697E+007, -3.99822612815E+001, +2.63557039446E+003
+5.18802252816E+007, -4.59517405698E+001, +2.66841570471E+003
+5.20678347935E+007, -5.14593325034E+001, +2.68469767197E+003
+5.22554443054E+007, -3.39161001298E+001, +2.69679712387E+003
+5.24430538173E+007, -5.19132378507E+001, +2.73882986209E+003
+5.26306633292E+007, -4.90339756243E+001, +2.74996743969E+003
+5.28182728411E+007, -5.57964121175E+001, +2.77829731253E+003
+5.30058823529E+007, -5.00168046950E+001, +2.81235543464E+003
+5.31934918648E+007, -6.14129565140E+001, +2.84466050425E+003
+5.33811013767E+007, -4.61245380501E+001, +2.85691109195E+003
+5.35687108886E+007, -4.44430666767E+001, +2.89416752099E+003
+5.37563204005E+007, -6.27841429979E+001, +2.91422829194E+003
+5.39439299124E+007, -4.92647575753E+001, +2.94238659617E+003
+5.41315394243E+007, -5.96204335907E+001, +2.96541473047E+003
+5.43191489362E+007, -4.45838579325E+001, +3.00486417983E+003
+5.45067584481E+007, -5.46844871930E+001, +3.03058754324E+003
+5.46943679599E+007, -5.62006227177E+001, +3.06483902543E+003
+5.48819774718E+007, -6.20031383290E+001, +3.08617325492E+003
+5.50695869837E+007, -5.77963922989E+001, +3.10663366684E+003
+5.52571964956E+007, -7.39628672831E+001, +3.13774231947E+003
+5.54448060075E+007, -4.77193629766E+001, +3.17489033786E+003
+5.56324155194E+007, -5.79560924290E+001, +3.19671143479E+003
+5.58200250313E+007, -6.03647700725E+001, +3.24604856660E+003
+5.60076345432E+007, -5.61134792361E+001, +3.28454933780E+003
+5.61952440551E+007, -8.65238003486E+001, +3.31368136909E+003
+5.63828535670E+007, -5.75237204716E+001, +3.35377983954E+003
+5.65704630788E+007, -7.39699726111E+001, +3.35859588497E+003
+5.67580725907E+007, -7.12253172959E+001, +3.40907347461E+003
+5.69456821026E+007, -6.25202538472E+001, +3.42509776581E+003
+5.71332916145E+007, -9.47479261130E+001, +3.46479823692E+003
+5.73209011264E+007, -8.72957063711E+001, +3.53391927578E+003
+5.75085106383E+007, -8.18633957952E+001, +3.56478995566E+003
+5.76961201502E+007, -7.97525781347E+001, +3.60665905699E+003
+5.78837296621E+007, -8.92103358764E+001, +3.62504229723E+003
+5.80713391740E+007, -8.10356251668E+001, +3.67424533499E+003
+5.82589486859E+007, -7.57975227726E+001, +3.71281058164E+003
+5.84465581977E+007, -1.04891584490E+002, +3.75007648100E+003
+5.86341677096E+007, -8.01613649310E+001, +3.81600704372E+003
+5.88217772215E+007, -1.07960066778E+002, +3.79936879882E+003
+5.90093867334E+007, -8.90141567524E+001, +3.88945580463E+003
+5.91969962453E+007, -9.95531522697E+001, +3.92886935942E+003
+5.93846057572E+007, -9.92197285971E+001, +3.97155880030E+003
+5.95722152691E+007, -9.81899677796E+001, +4.02599822611E+003
+5.97598247810E+007, -1.28048401205E+002, +4.04968877012E+003
+5.99474342929E+007, -1.14773262634E+002, +4.07755817473E+003
+6.01350438048E+007, -1.00588577800E+002, +4.17990744737E+003
