"# Channel 1"
"# Trace 1"
Frequency, Formatted Data, Formatted Data
+1.00000000000E+005, +9.00347126552E+000, +3.14325748249E+000
+2.25031289111E+005, +9.07476170415E+000, +6.96343959407E+000
+3.50062578223E+005, +9.20202679887E+000, +1.07045980106E+001
+4.75093867334E+005, +9.23952763395E+000, +1.44705891003E+001
+6.00125156446E+005, +9.31304810303E+000, +1.81644715191E+001
+7.25156445557E+005, +9.37438202309E+000, +2.19190535323E+001
+8.50187734668E+005, +9.42373384325E+000, +2.56234917505E+001
+9.75219023780E+005, +9.43987640602E+000, +2.93475726123E+001
+1.10025031289E+006, +9.50352063768E+000, +3.30065309263E+001
+1.22528160200E+006, +9.51297577417E+000, +3.67665736004E+001
+1.35031289111E+006, +9.60663409006E+000, +4.05155583143E+001
+1.47534418023E+006, +9.62955679215E+000, +4.41751759013E+001
+1.60037546934E+006, +9.65027415807E+000, +4.79717832134E+001
+1.72540675845E+006, +9.59254281334E+000, +5.15651274184E+001
+1.85043804756E+006, +9.63146752317E+000, +5.53338068320E+001
+1.97546933667E+006, +9.67398407792E+000, +5.90097814605E+001
+2.10050062578E+006, +9.64074125973E+000, +6.29151071386E+001
+2.22553191489E+006, +9.68186953408E+000, +6.64522782110E+001
+2.35056320401E+006, +9.67867553767E+000, +7.02678419977E+001
+2.47559449312E+006, +9.86958203812E+000, +7.40190798026E+001
+2.60062578223E+006, +9.77061428384E+000, +7.76018037274E+001
+2.72565707134E+006, +9.83079372814E+000, +8.13629984778E+001
+2.85068836045E+006, +9.83605645602E+000, +8.52610327751E+001
+2.97571964956E+006, +9.77842050776E+000, +8.89418601306E+001
+3.10075093867E+006, +9.92715212303E+000, +9.26499811890E+001
+3.22578222778E+006, +9.93166200335E+000, +9.64768744638E+001
+3.35081351690E+006, +1.00255859829E+001, +1.00066802695E+002
+3.47584480601E+006, +9.94115947870E+000, +1.03956830095E+002
+3.60087609512E+006, +1.01586863434E+001, +1.07840848234E+002
+3.72590738423E+006, +1.01604205017E+001, +1.11417395187E+002
+3.85093867334E+006, +1.01438336472E+001, +1.15392972429E+002
+3.97596996245E+006, +1.02572400021E+001, +1.19256931733E+002
+4.10100125156E+006, +1.02902521467E+001, +1.22688663065E+002
+4.22603254068E+006, +1.01006181584E+001, +1.26525779356E+002
+4.35106382979E+006, +1.01219263142E+001, +1.30681654980E+002
+4.47609511890E+006, +1.04021400870E+001, +1.34347220201E+002
+4.60112640801E+006, +1.04323665941E+001, +1.38476274288E+002
+4.72615769712E+006, +1.02946634603E+001, +1.42019297956E+002
+4.85118898623E+006, +1.04542305179E+001, +1.45871064470E+002
+4.97622027534E+006, +1.05331146850E+001, +1.49684842574E+002
+5.10125156446E+006, +1.01565368015E+001, +1.53315983737E+002
+5.22628285357E+006, +1.03790098242E+001, +1.57581739584E+002
+5.35131414268E+006, +1.03058078270E+001, +1.61002303943E+002
+5.47634543179E+006, +1.08654039916E+001, +1.65091180214E+002
+5.60137672090E+006, +1.04297861263E+001, +1.68786910436E+002
+5.72640801001E+006, +1.03306406784E+001, +1.72598398152E+002
+5.85143929912E+006, +1.08863597143E+001, +1.76286114351E+002
+5.97647058824E+006, +1.04301388981E+001, +1.80433399612E+002
+6.10150187735E+006, +1.08599195608E+001, +1.84659223883E+002
+6.22653316646E+006, +1.06815903316E+001, +1.88707130951E+002
+6.35156445557E+006, +1.09980421367E+001, +1.92230132125E+002
+6.47659574468E+006, +1.10451759873E+001, +1.96441498661E+002
+6.60162703379E+006, +1.11944768901E+001, +2.00435526611E+002
+6.72665832290E+006, +1.13004274776E+001, +2.04173319409E+002
+6.85168961202E+006, +1.14173776867E+001, +2.08143889763E+002
+6.97672090113E+006, +1.15369604767E+001, +2.12190817847E+002
+7.10175219024E+006, +1.12225709628E+001, +2.16209685974E+002
+7.22678347935E+006, +1.15785989599E+001, +2.20256189336E+002
+7.35181476846E+006, +1.17391035110E+001, +2.24241387638E+002
+7.47684605757E+006, +1.17505042389E+001, +2.28221102360E+002
+7.60187734668E+006, +1.16717197538E+001, +2.32345797560E+002
+7.72690863579E+006, +1.22071775220E+001, +2.36083480721E+002
+7.85193992491E+006, +1.19487432434E+001, +2.40259883992E+002
+7.97697121402E+006, +1.19833223751E+001, +2.44353133139E+002
+8.10200250313E+006, +1.21059488206E+001, +2.48545696787E+002
+8.22703379224E+006, +1.19937518139E+001, +2.52476325135E+002
+8.35206508135E+006, +1.20773460469E+001, +2.56833395037E+002
+8.47709637046E+006, +1.24590797262E+001, +2.60771555204E+002
+8.60212765957E+006, +1.22187231903E+001, +2.64990350966E+002
+8.72715894869E+006, +1.22165297215E+001, +2.68844043281E+002
+8.85219023780E+006, +1.25374119057E+001, +2.73404545692E+002
+8.97722152691E+006, +1.29232801339E+001, +2.76901127698E+002
+9.10225281602E+006, +1.21212673000E+001, +2.81287192185E+002
+9.22728410513E+006, +1.29470072074E+001, +2.85490384181E+002
+9.35231539424E+006, +1.23768904734E+001, +2.90042972874E+002
+9.47734668335E+006, +1.27226775735E+001, +2.94534078891E+002
+9.60237797247E+006, +1.32560959144E+001, +2.98900805121E+002
+9.72740926158E+006, +1.30447683461E+001, +3.02894978650E+002
+9.85244055069E+006, +1.25810533338E+001, +3.06949929397E+002
+9.97747183980E+006, +1.30233663202E+001, +3.11024131515E+002
+1.01025031289E+007, +1.28835244949E+001, +3.15257033311E+002
+1.02275344180E+007, +1.29302094229E+001, +3.19852003449E+002
+1.03525657071E+007, +1.34342681243E+001, +3.23300986694E+002
+1.04775969962E+007, +1.28816055651E+001, +3.27965344878E+002
+1.06026282854E+007, +1.33163976287E+001, +3.32611461825E+002
+1.07276595745E+007, +1.30644646546E+001, +3.37984064755E+002
+1.08526908636E+007, +1.31752549959E+001, +3.41717969992E+002
+1.09777221527E+007, +1.36780963319E+001, +3.46736902322E+002
+1.11027534418E+007, +1.36977703734E+001, +3.50391270141E+002
+1.12277847309E+007, +1.33743499548E+001, +3.55020922511E+002
+1.13528160200E+007, +1.31436520864E+001, +3.59224129282E+002
+1.14778473091E+007, +1.41567872915E+001, +3.64619149867E+002
+1.16028785982E+007, +1.39061562995E+001, +3.69049688926E+002
+1.17279098874E+007, +1.30130238171E+001, +3.72312116697E+002
+1.18529411765E+007, +1.40492442081E+001, +3.76971040391E+002
+1.19779724656E+007, +1.39407843063E+001, +3.82601583358E+002
+1.21030037547E+007, +1.34195982635E+001, +3.85709332168E+002
+1.22280350438E+007, +1.39446220054E+001, +3.91745579281E+002
+1.23530663329E+007, +1.38547976221E+001, +3.95802534979E+002
+1.24780976220E+007, +1.40260183534E+001, +3.99988753631E+002
+1.26031289111E+007, +1.46169347637E+001, +4.04446531462E+002
+1.27281602003E+007, +1.52040136574E+001, +4.09353726456E+002
+1.28531914894E+007, +1.45649254588E+001, +4.14408111725E+002
+1.29782227785E+007, +1.37866166459E+001, +4.18908820235E+002
+1.31032540676E+007, +1.42735201749E+001, +4.24130541073E+002
+1.32282853567E+007, +1.49471427425E+001, +4.28016761620E+002
+1.33533166458E+007, +1.57410882631E+001, +4.33890252909E+002
+1.34783479349E+007, +1.39815535661E+001, +4.39108789231E+002
+1.36033792240E+007, +1.53958726567E+001, +4.43446973214E+002
+1.37284105131E+007, +1.37937485073E+001, +4.48105166741E+002
+1.38534418023E+007, +1.41785812405E+001, +4.53187084931E+002
+1.39784730914E+007, +1.45108147216E+001, +4.59009330182E+002
+1.41035043805E+007, +1.45894095698E+001, +4.62603530594E+002
+1.42285356696E+007, +1.59674727754E+001, +4.69668906820E+002
+1.43535669587E+007, +1.56267329407E+001, +4.74465918008E+002
+1.44785982478E+007, +1.46420890148E+001, +4.79835667790E+002
+1.46036295369E+007, +1.50817430798E+001, +4.85373674235E+002
+1.47286608260E+007, +1.44004710973E+001, +4.89122156767E+002
+1.48536921151E+007, +1.48896545174E+001, +4.93792168048E+002
+1.49787234043E+007, +1.60829102810E+001, +4.97792697384E+002
+1.51037546934E+007, +1.57267759759E+001, +5.03604878279E+002
+1.52287859825E+007, +1.53355596799E+001, +5.10196237690E+002
+1.53538172716E+007, +1.61384800489E+001, +5.14775679525E+002
+1.54788485607E+007, +1.51157720002E+001, +5.21167994017E+002
+1.56038798498E+007, +1.54310472943E+001, +5.25950328062E+002
+1.57289111389E+007, +1.68740942201E+001, +5.30857730972E+002
+1.58539424280E+007, +1.62019897074E+001, +5.35609177712E+002
+1.59789737171E+007, +1.48314533991E+001, +5.41924139582E+002
+1.61040050063E+007, +1.50814750417E+001, +5.49482386825E+002
+1.62290362954E+007, +1.51608879185E+001, +5.54376447341E+002
+1.63540675845E+007, +1.72341852713E+001, +5.59601923002E+002
+1.64790988736E+007, +1.66069890063E+001, +5.65766812408E+002
+1.66041301627E+007, +1.64007200726E+001, +5.70397208462E+002
+1.67291614518E+007, +1.68377849589E+001, +5.76190712273E+002
+1.68541927409E+007, +1.63164072720E+001, +5.81217098732E+002
+1.69792240300E+007, +1.76282030811E+001, +5.89671514249E+002
+1.71042553191E+007, +1.29735858716E+001, +5.94736087595E+002
+1.72292866083E+007, +1.64560550659E+001, +6.01494334440E+002
+1.73543178974E+007, +1.40076778960E+001, +6.07168582047E+002
+1.74793491865E+007, +1.37575830529E+001, +6.12984624407E+002
+1.76043804756E+007, +1.43910627358E+001, +6.17515819329E+002
+1.77294117647E+007, +1.36477626156E+001, +6.26094621397E+002
+1.78544430538E+007, +1.66992676254E+001, +6.29126900140E+002
+1.79794743429E+007, +1.64840044909E+001, +6.36939527346E+002
+1.81045056320E+007, +1.50931324771E+001, +6.42493494739E+002
+1.82295369212E+007, +1.89395196377E+001, +6.48351716795E+002
+1.83545682103E+007, +1.70399831668E+001, +6.55834438540E+002
+1.84795994994E+007, +1.73934766443E+001, +6.63724239098E+002
+1.86046307885E+007, +1.69684812089E+001, +6.67838373080E+002
+1.87296620776E+007, +1.83429754641E+001, +6.75113164062E+002
+1.88546933667E+007, +1.77111223750E+001, +6.83975664501E+002
+1.89797246558E+007, +2.00417577796E+001, +6.88525162961E+002
+1.91047559449E+007, +2.00077463877E+001, +6.93103223554E+002
+1.92297872340E+007, +1.87070797685E+001, +6.99679950526E+002
+1.93548185232E+007, +2.03355998696E+001, +7.07648006289E+002
+1.94798498123E+007, +2.02806902179E+001, +7.15006578981E+002
+1.96048811014E+007, +2.11587800860E+001, +7.22352148954E+002
+1.97299123905E+007, +1.87405798374E+001, +7.28243173053E+002
+1.98549436796E+007, +1.85118229075E+001, +7.37545475119E+002
+1.99799749687E+007, +2.02607338380E+001, +7.42367592861E+002
+2.01050062578E+007, +1.94772777523E+001, +7.49531181377E+002
+2.02300375469E+007, +2.06908479713E+001, +7.57248148172E+002
+2.03550688360E+007, +2.09677408722E+001, +7.65952200265E+002
+2.04801001252E+007, +2.36350252698E+001, +7.75699557003E+002
+2.06051314143E+007, +2.21426690593E+001, +7.80115522850E+002
+2.07301627034E+007, +2.37131172354E+001, +7.86026298237E+002
+2.08551939925E+007, +2.46442300176E+001, +7.95774466119E+002
+2.09802252816E+007, +2.73123718006E+001, +8.01569310280E+002
+2.11052565707E+007, +2.67675091184E+001, +8.07891631511E+002
+2.12302878598E+007, +2.58733901396E+001, +8.19968702842E+002
+2.13553191489E+007, +2.39121895458E+001, +8.26951459790E+002
+2.14803504380E+007, +2.37790319504E+001, +8.35135114586E+002
+2.16053817272E+007, +2.78973726519E+001, +8.44857223080E+002
+2.17304130163E+007, +2.60458521464E+001, +8.51415685094E+002
+2.18554443054E+007, +3.04169507716E+001, +8.55787270712E+002
+2.19804755945E+007, +2.77004653116E+001, +8.62447984566E+002
+2.21055068836E+007, +3.09533577667E+001, +8.77525961801E+002
+2.22305381727E+007, +3.30422652923E+001, +8.83514430714E+002
+2.23555694618E+007, +3.31540457399E+001, +8.89707205729E+002
+2.24806007509E+007, +3.53479155172E+001, +8.97632076952E+002
+2.26056320401E+007, +3.50808879885E+001, +9.09439509543E+002
+2.27306633292E+007, +3.82253749929E+001, +9.15729649263E+002
+2.28556946183E+007, +4.19774432465E+001, +9.22495219133E+002
+2.29807259074E+007, +4.10532461267E+001, +9.31771535479E+002
+2.31057571965E+007, +4.14577093102E+001, +9.37190995341E+002
+2.32307884856E+007, +4.30746328630E+001, +9.47181411239E+002
+2.33558197747E+007, +3.77248241282E+001, +9.52169240684E+002
+2.34808510638E+007, +4.10481008604E+001, +9.64722019344E+002
+2.36058823529E+007, +4.13867762604E+001, +9.68362303200E+002
+2.37309136421E+007, +4.32318632038E+001, +9.77943129997E+002
+2.38559449312E+007, +4.66399742630E+001, +9.91923425471E+002
+2.39809762203E+007, +4.38515585207E+001, +9.97137537813E+002
+2.41060075094E+007, +4.31427054196E+001, +1.00727655345E+003
+2.42310387985E+007, +4.10543068748E+001, +1.01499245397E+003
+2.43560700876E+007, +3.88795586943E+001, +1.02288163544E+003
+2.44811013767E+007, +3.87626971895E+001, +1.03245186263E+003
+2.46061326658E+007, +4.00695576097E+001, +1.04729014743E+003
+2.47311639549E+007, +4.23391930135E+001, +1.05073201496E+003
+2.48561952441E+007, +3.77618794509E+001, +1.06727334923E+003
+2.49812265332E+007, +4.41128119801E+001, +1.07894293858E+003
+2.51062578223E+007, +4.00036672485E+001, +1.08960802590E+003
+2.52312891114E+007, +4.48932814242E+001, +1.09504954558E+003
+2.53563204005E+007, +3.53163050556E+001, +1.11252609987E+003
+2.54813516896E+007, +4.28819648549E+001, +1.12316810706E+003
+2.56063829787E+007, +4.48685272030E+001, +1.13673541225E+003
+2.57314142678E+007, +4.78234224741E+001, +1.14302101744E+003
+2.58564455569E+007, +4.76401469058E+001, +1.15243545124E+003
+2.59814768461E+007, +4.82717802433E+001, +1.16439209646E+003
+2.61065081352E+007, +4.71609185892E+001, +1.17380379118E+003
+2.62315394243E+007, +4.50072992839E+001, +1.17568344398E+003
+2.63565707134E+007, +4.52528957857E+001, +1.20905992803E+003
+2.64816020025E+007, +4.61215481371E+001, +1.21306119438E+003
+2.66066332916E+007, +4.56814060578E+001, +1.23404305637E+003
+2.67316645807E+007, +4.31847419640E+001, +1.24154856490E+003
+2.68566958698E+007, +4.07495150991E+001, +1.26215410770E+003
+2.69817271589E+007, +4.09202035138E+001, +1.27076548681E+003
+2.71067584481E+007, +4.95318656832E+001, +1.27946281988E+003
+2.72317897372E+007, +4.28831111555E+001, +1.29894773386E+003
+2.73568210263E+007, +4.95145420241E+001, +1.31977834632E+003
+2.74818523154E+007, +4.25586056173E+001, +1.32998352145E+003
+2.76068836045E+007, +5.69357735187E+001, +1.34395478290E+003
+2.77319148936E+007, +5.03426520822E+001, +1.35065435466E+003
+2.78569461827E+007, +4.74361196814E+001, +1.37048788301E+003
+2.79819774718E+007, +4.30174381491E+001, +1.38579919550E+003
+2.81070087610E+007, +5.63827962220E+001, +1.40735203142E+003
+2.82320400501E+007, +4.33601957423E+001, +1.41896882720E+003
+2.83570713392E+007, +6.25120316432E+001, +1.43076509815E+003
+2.84821026283E+007, +6.13831769313E+001, +1.44282376867E+003
+2.86071339174E+007, +5.01901084216E+001, +1.46800220224E+003
+2.87321652065E+007, +6.56382307855E+001, +1.48620859366E+003
+2.88571964956E+007, +6.02130720648E+001, +1.49400286822E+003
+2.89822277847E+007, +6.28537864992E+001, +1.51880447131E+003
+2.91072590738E+007, +6.41678783010E+001, +1.53426990457E+003
+2.92322903630E+007, +6.58329716624E+001, +1.56541350743E+003
+2.93573216521E+007, +6.31295489819E+001, +1.56362417944E+003
+2.94823529412E+007, +5.94623883075E+001, +1.59988444400E+003
+2.96073842303E+007, +6.31309794564E+001, +1.59973858354E+003
+2.97324155194E+007, +6.25381475549E+001, +1.64420626992E+003
+2.98574468085E+007, +7.66314875121E+001, +1.65497808387E+003
+2.99824780976E+007, +7.00368304867E+001, +1.67686287461E+003
+3.01075093867E+007, +7.45603854191E+001, +1.69104409381E+003
+3.02325406758E+007, +6.68470765170E+001, +1.72126110724E+003
+3.03575719650E+007, +7.01850240272E+001, +1.73142229885E+003
+3.04826032541E+007, +5.47536874402E+001, +1.75910269370E+003
+3.06076345432E+007, +6.34967029401E+001, +1.78111713130E+003
+3.07326658323E+007, +7.84065525692E+001, +1.81014973123E+003
+3.08576971214E+007, +7.45194554407E+001, +1.83103524837E+003
+3.09827284105E+007, +8.07465389341E+001, +1.85813313133E+003
+3.11077596996E+007, +6.02191857990E+001, +1.87023589569E+003
+3.12327909887E+007, +8.70690989795E+001, +1.91578472502E+003
+3.13578222778E+007, +8.51752419412E+001, +1.91744426997E+003
+3.14828535670E+007, +8.13040060812E+001, +1.92624385371E+003
+3.16078848561E+007, +9.82523980751E+001, +1.99643961575E+003
+3.17329161452E+007, +9.34998802706E+001, +2.00632223002E+003
+3.18579474343E+007, +8.98692748484E+001, +2.03107364105E+003
+3.19829787234E+007, +9.90007103971E+001, +2.05071374990E+003
+3.21080100125E+007, +1.08061659730E+002, +2.11112047614E+003
+3.22330413016E+007, +1.09864881089E+002, +2.11633256113E+003
+3.23580725907E+007, +1.07540588400E+002, +2.15262578681E+003
+3.24831038798E+007, +1.01060720513E+002, +2.20727571970E+003
+3.26081351690E+007, +1.10689704873E+002, +2.22246478354E+003
+3.27331664581E+007, +1.15743128114E+002, +2.26129713534E+003
+3.28581977472E+007, +1.08045514516E+002, +2.28456592595E+003
+3.29832290363E+007, +1.18008922818E+002, +2.32491115226E+003
+3.31082603254E+007, +1.21285919291E+002, +2.36685874101E+003
+3.32332916145E+007, +1.15921769130E+002, +2.39523922704E+003
+3.33583229036E+007, +1.40529205113E+002, +2.46448807088E+003
+3.34833541927E+007, +1.13548850609E+002, +2.48537476806E+003
+3.36083854819E+007, +1.12240646790E+002, +2.51245950237E+003
+3.37334167710E+007, +1.55042103562E+002, +2.61031735958E+003
+3.38584480601E+007, +1.34749459300E+002, +2.59405956687E+003
+3.39834793492E+007, +1.37915911091E+002, +2.65332543906E+003
+3.41085106383E+007, +1.55598546478E+002, +2.71619822212E+003
+3.42335419274E+007, +1.75390879989E+002, +2.72157599675E+003
+3.43585732165E+007, +1.74704463309E+002, +2.80019939945E+003
+3.44836045056E+007, +2.09681667835E+002, +2.87916288888E+003
+3.46086357947E+007, +1.96246136727E+002, +2.89971721965E+003
+3.47336670839E+007, +2.20220181226E+002, +2.97219831053E+003
+3.48586983730E+007, +2.16514122340E+002, +2.94848436980E+003
+3.49837296621E+007, +2.58681386648E+002, +3.09844203544E+003
+3.51087609512E+007, +2.15172162145E+002, +3.14011026152E+003
+3.52337922403E+007, +2.56974302967E+002, +3.26259711336E+003
+3.53588235294E+007, +2.51358235424E+002, +3.34870359611E+003
+3.54838548185E+007, +2.24812076597E+002, +3.42354368242E+003
+3.56088861076E+007, +2.84374263927E+002, +3.48506369970E+003
+3.57339173967E+007, +3.04216951041E+002, +3.51864091275E+003
+3.58589486859E+007, +3.63706851433E+002, +3.54478984273E+003
+3.59839799750E+007, +2.94048406209E+002, +3.77819156835E+003
+3.61090112641E+007, +3.23411493930E+002, +3.74713305085E+003
+3.62340425532E+007, +3.42614510349E+002, +3.94984641174E+003
+3.63590738423E+007, +4.69781253963E+002, +3.95564973501E+003
+3.64841051314E+007, +4.50627926826E+002, +4.04518761612E+003
+3.66091364205E+007, +3.41632161274E+002, +4.19880662876E+003
+3.67341677096E+007, +4.88999907495E+002, +4.22160435828E+003
+3.68591989987E+007, +4.97086109696E+002, +4.41058041132E+003
+3.69842302879E+007, +4.81114850145E+002, +4.59174396994E+003
+3.71092615770E+007, +6.11160840200E+002, +4.63199773253E+003
+3.72342928661E+007, +6.18955075290E+002, +4.84520663428E+003
+3.73593241552E+007, +6.61681544879E+002, +4.96719311640E+003
+3.74843554443E+007, +7.70471805695E+002, +5.01879166102E+003
+3.76093867334E+007, +8.67624577953E+002, +5.27896840340E+003
+3.77344180225E+007, +8.93601291851E+002, +5.30697950192E+003
+3.78594493116E+007, +9.86029514922E+002, +5.54993088667E+003
+3.79844806008E+007, +1.01232936561E+003, +5.63958716183E+003
+3.81095118899E+007, +1.11923503714E+003, +5.90886607547E+003
+3.82345431790E+007, +1.11074711652E+003, +6.38750295635E+003
+3.83595744681E+007, +1.42257136154E+003, +6.17631048940E+003
+3.84846057572E+007, +1.49065780091E+003, +6.48130553492E+003
+3.86096370463E+007, +1.80907490541E+003, +6.73303919795E+003
+3.87346683354E+007, +1.67236600451E+003, +7.30286715081E+003
+3.88596996245E+007, +2.03096088149E+003, +7.31267874779E+003
+3.89847309136E+007, +2.03235118191E+003, +7.51827807550E+003
+3.91097622028E+007, +2.37477177264E+003, +7.92226544062E+003
+3.92347934919E+007, +2.63964806779E+003, +8.07795292385E+003
+3.93598247810E+007, +2.92822948773E+003, +8.78655118575E+003
+3.94848560701E+007, +3.57365179195E+003, +9.14630218037E+003
+3.96098873592E+007, +3.41477337426E+003, +9.53361423810E+003
+3.97349186483E+007, +4.04173341512E+003, +1.00912008936E+004
+3.98599499374E+007, +4.86394038637E+003, +1.05858295248E+004
+3.99849812265E+007, +5.19097151647E+003, +1.03556842003E+004
+4.01100125156E+007, +6.35266859333E+003, +1.12949929132E+004
