"# Channel 1"
"# Trace 1"
Frequency, Formatted Data, Formatted Data
+1.00000000000E+005, +9.34133815187E-001, +3.01657174040E+000
+2.66777963272E+005, +9.33050831817E-001, +8.02219464828E+000
+4.33555926544E+005, +9.64257282469E-001, +1.30513903033E+001
+6.00333889816E+005, +1.02260277656E+000, +1.79988091806E+001
+7.67111853088E+005, +1.07630751366E+000, +2.30033284079E+001
+9.33889816361E+005, +1.15720369178E+000, +2.79279243261E+001
+1.10066777963E+006, +1.15737295618E+000, +3.29404950206E+001
+1.26744574290E+006, +1.24231310768E+000, +3.78380666698E+001
+1.43422370618E+006, +1.19793537273E+000, +4.29007684073E+001
+1.60100166945E+006, +1.32884513118E+000, +4.77216201302E+001
+1.76777963272E+006, +1.35810196295E+000, +5.26196086897E+001
+1.93455759599E+006, +1.37089618014E+000, +5.75139258412E+001
+2.10133555927E+006, +1.41526384434E+000, +6.23736796634E+001
+2.26811352254E+006, +1.48924186369E+000, +6.73843931817E+001
+2.43489148581E+006, +1.42124152794E+000, +7.23733642031E+001
+2.60166944908E+006, +1.52193559005E+000, +7.72055630802E+001
+2.76844741235E+006, +1.46940047651E+000, +8.22454147555E+001
+2.93522537563E+006, +1.39996941276E+000, +8.71562958608E+001
+3.10200333890E+006, +1.71185954906E+000, +9.18791192669E+001
+3.26878130217E+006, +1.37153384642E+000, +9.71690285139E+001
+3.43555926544E+006, +1.60125999125E+000, +1.02013907375E+002
+3.60233722871E+006, +1.61016064724E+000, +1.07138214691E+002
+3.76911519199E+006, +1.65030313258E+000, +1.12185030479E+002
+3.93589315526E+006, +1.52029829609E+000, +1.17029369753E+002
+4.10267111853E+006, +1.68803288912E+000, +1.22232193962E+002
+4.26944908180E+006, +1.63530129225E+000, +1.27306389541E+002
+4.43622704508E+006, +1.60702809535E+000, +1.32072980739E+002
+4.60300500835E+006, +1.61327992288E+000, +1.37327910262E+002
+4.76978297162E+006, +1.47624783027E+000, +1.42286136690E+002
+4.93656093489E+006, +1.80243651382E+000, +1.47494748225E+002
+5.10333889816E+006, +1.81221870058E+000, +1.52183331535E+002
+5.27011686144E+006, +1.95613871141E+000, +1.57668312888E+002
+5.43689482471E+006, +1.62635460236E+000, +1.62689946945E+002
+5.60367278798E+006, +1.72359317750E+000, +1.68133765416E+002
+5.77045075125E+006, +1.91702119476E+000, +1.73046487374E+002
+5.93722871452E+006, +2.18530894484E+000, +1.78010751431E+002
+6.10400667780E+006, +2.12789780983E+000, +1.83175520731E+002
+6.27078464107E+006, +2.34181910312E+000, +1.88364055877E+002
+6.43756260434E+006, +2.59005684067E+000, +1.93578705544E+002
+6.60434056761E+006, +2.56984048782E+000, +1.98783247126E+002
+6.77111853088E+006, +2.91924047478E+000, +2.03860202651E+002
+6.93789649416E+006, +2.79505200228E+000, +2.09047424356E+002
+7.10467445743E+006, +2.83552465265E+000, +2.14232655311E+002
+7.27145242070E+006, +2.84708310840E+000, +2.19243051474E+002
+7.43823038397E+006, +2.99228718096E+000, +2.24280314408E+002
+7.60500834725E+006, +3.03121795418E+000, +2.29728008519E+002
+7.77178631052E+006, +3.06519158175E+000, +2.35443050117E+002
+7.93856427379E+006, +3.07485878718E+000, +2.40077166161E+002
+8.10534223706E+006, +2.94435056372E+000, +2.45816670838E+002
+8.27212020033E+006, +3.11165258349E+000, +2.51043191043E+002
+8.43889816361E+006, +2.74201400328E+000, +2.56511582567E+002
+8.60567612688E+006, +2.80460593947E+000, +2.62068461985E+002
+8.77245409015E+006, +2.47221702453E+000, +2.66930422428E+002
+8.93923205342E+006, +2.78681123936E+000, +2.72728152296E+002
+9.10601001669E+006, +2.45860660140E+000, +2.78074996428E+002
+9.27278797997E+006, +2.76610991652E+000, +2.84064611968E+002
+9.43956594324E+006, +2.66296832559E+000, +2.89076156721E+002
+9.60634390651E+006, +2.57703595351E+000, +2.94544152716E+002
+9.77312186978E+006, +2.26424782928E+000, +3.00107884632E+002
+9.93989983306E+006, +2.84606945235E+000, +3.06092370742E+002
+1.01066777963E+007, +2.27063560664E+000, +3.11473990770E+002
+1.02734557596E+007, +2.33943806314E+000, +3.17266164951E+002
+1.04402337229E+007, +1.97374314081E+000, +3.22590931172E+002
+1.06070116861E+007, +1.64081345551E+000, +3.28812847039E+002
+1.07737896494E+007, +2.20493054818E+000, +3.34633639701E+002
+1.09405676127E+007, +2.44531158382E+000, +3.40782829022E+002
+1.11073455760E+007, +1.84489222516E+000, +3.46229118403E+002
+1.12741235392E+007, +1.89750548645E+000, +3.51712312107E+002
+1.14409015025E+007, +2.37131499671E+000, +3.57943744539E+002
+1.16076794658E+007, +2.19392635643E+000, +3.63690124054E+002
+1.17744574290E+007, +2.09133978166E+000, +3.70187978275E+002
+1.19412353923E+007, +2.04970134875E+000, +3.75821680551E+002
+1.21080133556E+007, +8.84840526820E-001, +3.82545795655E+002
+1.22747913189E+007, +2.21194189820E+000, +3.88087698208E+002
+1.24415692821E+007, +1.35469223930E+000, +3.94456371199E+002
+1.26083472454E+007, +1.91647058250E+000, +4.00606312773E+002
+1.27751252087E+007, +1.78358279469E+000, +4.07548073130E+002
+1.29419031720E+007, +1.12555745458E+000, +4.12436537115E+002
+1.31086811352E+007, +1.77653487769E+000, +4.18435970622E+002
+1.32754590985E+007, +1.83968706260E+000, +4.24924271584E+002
+1.34422370618E+007, +1.58649106358E+000, +4.31739292728E+002
+1.36090150250E+007, +2.55717467813E+000, +4.38292077945E+002
+1.37757929883E+007, +1.75959239371E+000, +4.44321611450E+002
+1.39425709516E+007, +2.28668888218E+000, +4.51367345742E+002
+1.41093489149E+007, +2.33626689654E+000, +4.57450178927E+002
+1.42761268781E+007, +2.54543382693E+000, +4.64553513437E+002
+1.44429048414E+007, +2.24681953452E+000, +4.69910697024E+002
+1.46096828047E+007, +9.96207370345E-001, +4.77932514568E+002
+1.47764607679E+007, +1.47987379378E+000, +4.83250943252E+002
+1.49432387312E+007, +1.68137526539E+000, +4.89447966704E+002
+1.51100166945E+007, +1.77946882278E+000, +4.97163700462E+002
+1.52767946578E+007, +1.80817432704E+000, +5.04273647393E+002
+1.54435726210E+007, +1.80290225856E+000, +5.10908285884E+002
+1.56103505843E+007, +2.94209835279E+000, +5.18067774691E+002
+1.57771285476E+007, +2.09312160494E+000, +5.24719498463E+002
+1.59439065109E+007, +2.39693599662E+000, +5.31651714127E+002
+1.61106844741E+007, +1.34628961319E+000, +5.39756750202E+002
+1.62774624374E+007, +7.68374278725E-001, +5.46108457911E+002
+1.64442404007E+007, +8.70753473800E-001, +5.51863097899E+002
+1.66110183639E+007, +1.80244394103E+000, +5.61757836354E+002
+1.67777963272E+007, +3.41417526418E+000, +5.68967840641E+002
+1.69445742905E+007, +3.59621781707E+000, +5.76109263476E+002
+1.71113522538E+007, -1.28514872246E+000, +5.82992222187E+002
+1.72781302170E+007, +1.70525270835E+000, +5.92691991504E+002
+1.74449081803E+007, -9.50434270134E-001, +5.99023784724E+002
+1.76116861436E+007, +2.36914526233E+000, +6.05440597462E+002
+1.77784641068E+007, +4.77163854769E-001, +6.12734975724E+002
+1.79452420701E+007, +1.25986479768E+000, +6.19770923593E+002
+1.81120200334E+007, +2.06443092916E+000, +6.27272602324E+002
+1.82787979967E+007, +3.46567176188E+000, +6.39234342275E+002
+1.84455759599E+007, +4.31820139328E+000, +6.45706642174E+002
+1.86123539232E+007, +2.63535453068E+000, +6.54453620960E+002
+1.87791318865E+007, +2.81861009972E+000, +6.62205749067E+002
+1.89459098497E+007, +2.70013195930E+000, +6.71059881087E+002
+1.91126878130E+007, +3.96528183628E+000, +6.78863712923E+002
+1.92794657763E+007, +2.98933028363E+000, +6.88943234604E+002
+1.94462437396E+007, +3.53983247786E+000, +7.00589315076E+002
+1.96130217028E+007, +1.71795668148E+000, +7.08102243082E+002
+1.97797996661E+007, +3.53294449246E+000, +7.13858292371E+002
+1.99465776294E+007, +9.91940857094E-001, +7.23117778473E+002
+2.01133555927E+007, +4.22695770445E+000, +7.31465482891E+002
+2.02801335559E+007, +2.35971160172E+000, +7.41529767228E+002
+2.04469115192E+007, +4.99276518932E+000, +7.52570889516E+002
+2.06136894825E+007, +5.65653224168E+000, +7.59236961364E+002
+2.07804674457E+007, +4.51393482807E+000, +7.68788813675E+002
+2.09472454090E+007, +6.22608879085E+000, +7.81762719808E+002
+2.11140233723E+007, +4.06598753816E+000, +7.89681044282E+002
+2.12808013356E+007, +7.12424192204E+000, +7.96663545201E+002
+2.14475792988E+007, +7.87355431773E+000, +8.10826149344E+002
+2.16143572621E+007, +1.01683368957E+001, +8.17927210807E+002
+2.17811352254E+007, +9.39836329792E+000, +8.27600032519E+002
+2.19479131886E+007, +1.22083398399E+001, +8.37237012295E+002
+2.21146911519E+007, +1.13025134315E+001, +8.44017065975E+002
+2.22814691152E+007, +8.71444462737E+000, +8.58295556286E+002
+2.24482470785E+007, +1.21787934947E+001, +8.71628149221E+002
+2.26150250417E+007, +1.31836321712E+001, +8.78662567023E+002
+2.27818030050E+007, +1.22627652525E+001, +8.92694911737E+002
+2.29485809683E+007, +1.91425877973E+001, +9.03669211624E+002
+2.31153589316E+007, +1.57291176239E+001, +9.19333815128E+002
+2.32821368948E+007, +2.09778749930E+001, +9.28538308282E+002
+2.34489148581E+007, +1.82909120695E+001, +9.37591412522E+002
+2.36156928214E+007, +2.03105756301E+001, +9.50489645474E+002
+2.37824707846E+007, +1.95200610893E+001, +9.60919264389E+002
+2.39492487479E+007, +1.66735100708E+001, +9.71384637117E+002
+2.41160267112E+007, +2.00780604486E+001, +9.82621650695E+002
+2.42828046745E+007, +2.09618452371E+001, +9.97502277475E+002
+2.44495826377E+007, +2.55241228790E+001, +1.01149957331E+003
+2.46163606010E+007, +2.12371103130E+001, +1.01813786634E+003
+2.47831385643E+007, +2.27667825771E+001, +1.03174676531E+003
+2.49499165275E+007, +3.15404433458E+001, +1.04964044269E+003
+2.51166944908E+007, +3.21282466351E+001, +1.06205693773E+003
+2.52834724541E+007, +3.06829401159E+001, +1.07296456294E+003
+2.54502504174E+007, +3.15336399493E+001, +1.08916902376E+003
+2.56170283806E+007, +3.01005774580E+001, +1.10261194709E+003
+2.57838063439E+007, +3.48356683732E+001, +1.11530901439E+003
+2.59505843072E+007, +3.43812438073E+001, +1.13237416340E+003
+2.61173622705E+007, +4.12586433952E+001, +1.14346830737E+003
+2.62841402337E+007, +4.10189278904E+001, +1.15497988733E+003
+2.64509181970E+007, +3.79075625856E+001, +1.17253228471E+003
+2.66176961603E+007, +3.99545015360E+001, +1.18689944148E+003
+2.67844741235E+007, +4.11187544534E+001, +1.19932637965E+003
+2.69512520868E+007, +4.68739540273E+001, +1.22335019838E+003
+2.71180300501E+007, +5.07283093666E+001, +1.22788469288E+003
+2.72848080134E+007, +4.99025871871E+001, +1.24577281636E+003
+2.74515859766E+007, +5.60772364346E+001, +1.25990136951E+003
+2.76183639399E+007, +4.46812099549E+001, +1.28099669167E+003
+2.77851419032E+007, +5.10783028256E+001, +1.29408988305E+003
+2.79519198664E+007, +5.86422321524E+001, +1.30512915207E+003
+2.81186978297E+007, +5.53721230146E+001, +1.31711398498E+003
+2.82854757930E+007, +5.97056731195E+001, +1.33867676690E+003
+2.84522537563E+007, +4.97666688414E+001, +1.36569426059E+003
+2.86190317195E+007, +5.66488855614E+001, +1.38154068512E+003
+2.87858096828E+007, +6.40581643098E+001, +1.40219587962E+003
+2.89525876461E+007, +6.69646037474E+001, +1.41820641509E+003
+2.91193656093E+007, +6.27287385675E+001, +1.42828801044E+003
+2.92861435726E+007, +5.29596854777E+001, +1.45258308711E+003
+2.94529215359E+007, +6.38090773259E+001, +1.47667160247E+003
+2.96196994992E+007, +7.30944486907E+001, +1.50257024817E+003
+2.97864774624E+007, +8.10743806630E+001, +1.51475597679E+003
+2.99532554257E+007, +9.30090082834E+001, +1.54743068379E+003
+3.01200333890E+007, +7.85958687437E+001, +1.56272375290E+003
+3.02868113523E+007, +8.40378809505E+001, +1.58723144463E+003
+3.04535893155E+007, +7.05040730860E+001, +1.62042607064E+003
+3.06203672788E+007, +7.97848931281E+001, +1.63324921194E+003
+3.07871452421E+007, +7.98276577794E+001, +1.66136939702E+003
+3.09539232053E+007, +9.88539111476E+001, +1.68063357128E+003
+3.11207011686E+007, +8.91019711575E+001, +1.72797204188E+003
+3.12874791319E+007, +8.15100957343E+001, +1.73377340297E+003
+3.14542570952E+007, +9.08481566633E+001, +1.76684589941E+003
+3.16210350584E+007, +8.94476768265E+001, +1.78496351175E+003
+3.17878130217E+007, +9.45935631741E+001, +1.81955370970E+003
+3.19545909850E+007, +1.16139968596E+002, +1.84727621938E+003
+3.21213689482E+007, +9.32053784486E+001, +1.89595428934E+003
+3.22881469115E+007, +9.55262588103E+001, +1.90379153142E+003
+3.24549248748E+007, +1.10059298891E+002, +1.95355838255E+003
+3.26217028381E+007, +8.94867666978E+001, +1.98865473490E+003
+3.27884808013E+007, +1.15833394881E+002, +2.01564475940E+003
+3.29552587646E+007, +1.26374458718E+002, +2.05164391594E+003
+3.31220367279E+007, +1.39433625192E+002, +2.07677132754E+003
+3.32888146912E+007, +1.26054985037E+002, +2.13624877228E+003
+3.34555926544E+007, +1.27813007431E+002, +2.16508233601E+003
+3.36223706177E+007, +1.36555332724E+002, +2.20449366678E+003
+3.37891485810E+007, +1.30857800815E+002, +2.22475711845E+003
+3.39559265442E+007, +1.42324908172E+002, +2.30351844407E+003
+3.41227045075E+007, +1.60608772737E+002, +2.33300763315E+003
+3.42894824708E+007, +1.49443283628E+002, +2.37356635718E+003
+3.44562604341E+007, +1.73918186486E+002, +2.43958599356E+003
+3.46230383973E+007, +1.56947493742E+002, +2.50775377943E+003
+3.47898163606E+007, +1.90286828245E+002, +2.53152472762E+003
+3.49565943239E+007, +2.12098360383E+002, +2.58872396949E+003
+3.51233722871E+007, +2.14633906395E+002, +2.65211538586E+003
+3.52901502504E+007, +2.22564479566E+002, +2.68605442993E+003
+3.54569282137E+007, +2.29609689542E+002, +2.75916506893E+003
+3.56237061770E+007, +2.11340527056E+002, +2.83303635396E+003
+3.57904841402E+007, +1.86052188881E+002, +2.91634692152E+003
+3.59572621035E+007, +2.28125731571E+002, +2.98550568346E+003
+3.61240400668E+007, +2.31884636489E+002, +3.04019041355E+003
+3.62908180301E+007, +2.92109194117E+002, +3.13919334785E+003
+3.64575959933E+007, +2.55419285221E+002, +3.23014752912E+003
+3.66243739566E+007, +3.19956259748E+002, +3.27369807308E+003
+3.67911519199E+007, +3.66596378544E+002, +3.39903750822E+003
+3.69579298831E+007, +2.84550323565E+002, +3.48525989348E+003
+3.71247078464E+007, +3.39247276592E+002, +3.59948365340E+003
+3.72914858097E+007, +3.14455060283E+002, +3.72762345217E+003
+3.74582637730E+007, +3.96909196919E+002, +3.85177066589E+003
+3.76250417362E+007, +4.28267549947E+002, +3.95930032927E+003
+3.77918196995E+007, +4.58330298201E+002, +4.12540387646E+003
+3.79585976628E+007, +4.70107335624E+002, +4.24324216691E+003
+3.81253756260E+007, +5.42770712378E+002, +4.34860344813E+003
+3.82921535893E+007, +6.49258750804E+002, +4.54258733325E+003
+3.84589315526E+007, +7.49537012379E+002, +4.76896100873E+003
+3.86257095159E+007, +6.59159353013E+002, +5.01059451229E+003
+3.87924874791E+007, +7.49949052712E+002, +5.23751758759E+003
+3.89592654424E+007, +8.65006647552E+002, +5.32052703706E+003
+3.91260434057E+007, +1.06717147254E+003, +5.57170933726E+003
+3.92928213689E+007, +9.92970277359E+002, +5.84983082275E+003
+3.94595993322E+007, +1.10279365142E+003, +6.27454938078E+003
+3.96263772955E+007, +1.38433073419E+003, +6.43920004710E+003
+3.97931552588E+007, +1.26524213680E+003, +6.70502023624E+003
+3.99599332220E+007, +1.68858278292E+003, +7.02379178887E+003
+4.01267111853E+007, +1.82992102676E+003, +7.84231229673E+003
+4.02934891486E+007, +2.03606533186E+003, +8.19702943047E+003
+4.04602671119E+007, +2.71227056159E+003, +8.53096947114E+003
+4.06270450751E+007, +3.01729255593E+003, +9.03275679533E+003
+4.07938230384E+007, +3.74715577257E+003, +1.01375709037E+004
+4.09606010017E+007, +4.59132826244E+003, +1.02124402305E+004
+4.11273789649E+007, +4.46836749004E+003, +1.10664243218E+004
+4.12941569282E+007, +6.19951115951E+003, +1.20988437208E+004
+4.14609348915E+007, +8.82134100861E+003, +1.28942436444E+004
+4.16277128548E+007, +1.08169335702E+004, +1.31940180844E+004
+4.17944908180E+007, +1.17799472845E+004, +1.32372870134E+004
+4.19612687813E+007, +1.56689377589E+004, +1.33591809537E+004
+4.21280467446E+007, +2.05764537107E+004, +1.22891578807E+004
+4.22948247078E+007, +2.21042534044E+004, +7.82211001643E+003
+4.24616026711E+007, +2.32088436712E+004, +3.70136427285E+003
+4.26283806344E+007, +2.46888271467E+004, -1.36919243228E+002
+4.27951585977E+007, +2.71438952216E+004, -9.28127192512E+003
+4.29619365609E+007, +1.89609212870E+004, -7.46937447937E+003
+4.31287145242E+007, +1.62378311994E+004, -9.87558806580E+003
+4.32954924875E+007, +1.43003709605E+004, -1.16996117742E+004
+4.34622704508E+007, +1.11132749024E+004, -1.25365521161E+004
+4.36290484140E+007, +9.39249391429E+003, -1.12849694878E+004
+4.37958263773E+007, +7.23172316622E+003, -1.07068100570E+004
+4.39626043406E+007, +6.46407383447E+003, -1.06653610050E+004
+4.41293823038E+007, +4.99978130222E+003, -9.14516616030E+003
+4.42961602671E+007, +4.48155762336E+003, -9.02837959164E+003
+4.44629382304E+007, +4.30540166458E+003, -8.41923074272E+003
+4.46297161937E+007, +3.65197493955E+003, -7.90889953175E+003
+4.47964941569E+007, +3.23565641949E+003, -7.53990205037E+003
+4.49632721202E+007, +2.64864674986E+003, -6.95691871963E+003
+4.51300500835E+007, +2.46314629365E+003, -6.92961636813E+003
+4.52968280467E+007, +2.25932059934E+003, -6.28799203945E+003
+4.54636060100E+007, +2.02638314699E+003, -5.69329956624E+003
+4.56303839733E+007, +1.67499365830E+003, -5.48701757095E+003
+4.57971619366E+007, +1.64592325410E+003, -5.40302468828E+003
+4.59639398998E+007, +1.43670682956E+003, -4.90800230398E+003
+4.61307178631E+007, +1.43895673981E+003, -4.76344896535E+003
+4.62974958264E+007, +1.36844010602E+003, -4.52529760504E+003
+4.64642737896E+007, +1.23384677466E+003, -4.38954110339E+003
+4.66310517529E+007, +1.15667565970E+003, -4.19778108710E+003
+4.67978297162E+007, +1.20549098975E+003, -4.05141370722E+003
+4.69646076795E+007, +1.12100054927E+003, -3.89304828029E+003
+4.71313856427E+007, +1.03890290856E+003, -3.70352765609E+003
+4.72981636060E+007, +9.95780906457E+002, -3.60869416287E+003
+4.74649415693E+007, +9.41777239833E+002, -3.52127626884E+003
+4.76317195326E+007, +9.98038666163E+002, -3.35482303561E+003
+4.77984974958E+007, +9.69114984912E+002, -3.23705484063E+003
+4.79652754591E+007, +8.85411855527E+002, -3.12617467619E+003
+4.81320534224E+007, +8.87216330322E+002, -3.03706442672E+003
+4.82988313856E+007, +8.58715934623E+002, -2.97404944612E+003
+4.84656093489E+007, +8.51621581429E+002, -2.90335002106E+003
+4.86323873122E+007, +8.53203684617E+002, -2.79941582827E+003
+4.87991652755E+007, +8.40187856940E+002, -2.74256836842E+003
+4.89659432387E+007, +8.17465109096E+002, -2.67429906966E+003
+4.91327212020E+007, +7.93477713479E+002, -2.60123730952E+003
+4.92994991653E+007, +8.32830955785E+002, -2.54137404175E+003
+4.94662771285E+007, +8.14566980469E+002, -2.48790763320E+003
+4.96330550918E+007, +7.91585285679E+002, -2.42010575454E+003
+4.97998330551E+007, +7.85129987993E+002, -2.39474063368E+003
+4.99666110184E+007, +7.76304211057E+002, -2.34008485555E+003
+5.01333889816E+007, +7.72853167168E+002, -2.32936893845E+003
+5.03001669449E+007, +7.34606073455E+002, -2.28849661411E+003
+5.04669449082E+007, +7.12008685380E+002, -2.24788599090E+003
+5.06337228715E+007, +7.21712909157E+002, -2.21247648439E+003
+5.08005008347E+007, +6.97670316131E+002, -2.19574566784E+003
+5.09672787980E+007, +7.09974102931E+002, -2.15990502371E+003
+5.11340567613E+007, +6.41411674718E+002, -2.13058792288E+003
+5.13008347245E+007, +6.31405127276E+002, -2.11266745415E+003
+5.14676126878E+007, +5.96201259681E+002, -2.08328946777E+003
+5.16343906511E+007, +5.83112125933E+002, -2.04777339480E+003
+5.18011686144E+007, +5.54187534538E+002, -2.03380467857E+003
+5.19679465776E+007, +5.41201527114E+002, -1.98962587126E+003
+5.21347245409E+007, +4.98597361256E+002, -1.95414394877E+003
+5.23015025042E+007, +4.88497378469E+002, -1.90107418692E+003
+5.24682804674E+007, +4.47413689990E+002, -1.88620605078E+003
+5.26350584307E+007, +4.30594731533E+002, -1.84722065053E+003
+5.28018363940E+007, +4.07282698620E+002, -1.81750407522E+003
+5.29686143573E+007, +3.82824265812E+002, -1.76935657794E+003
+5.31353923205E+007, +3.80843153433E+002, -1.75879940891E+003
+5.33021702838E+007, +3.59242706272E+002, -1.72644167107E+003
+5.34689482471E+007, +3.50060182984E+002, -1.67532218899E+003
