"# Channel 1"
"# Trace 1"
Frequency, Formatted Data, Formatted Data
+1.00000000000E+005, +5.88745138294E+001, +2.73303880486E+000
+2.25031289111E+005, +5.88372330502E+001, +6.96846162123E+000
+3.50062578223E+005, +5.87764936991E+001, +1.06981927274E+001
+4.75093867334E+005, +5.87932990098E+001, +1.44925490679E+001
+6.00125156446E+005, +5.87859828842E+001, +1.83186699336E+001
+7.25156445557E+005, +5.87828095998E+001, +2.21543008783E+001
+8.50187734668E+005, +5.88713827499E+001, +2.58838761511E+001
+9.75219023780E+005, +5.88334004859E+001, +2.96708799961E+001
+1.10025031289E+006, +5.86378455533E+001, +3.34853484269E+001
+1.22528160200E+006, +5.87887798931E+001, +3.73069683832E+001
+1.35031289111E+006, +5.87681804290E+001, +4.10066463208E+001
+1.47534418023E+006, +5.86284283843E+001, +4.48797348722E+001
+1.60037546934E+006, +5.87432014796E+001, +4.85928034245E+001
+1.72540675845E+006, +5.86238217365E+001, +5.24841525286E+001
+1.85043804756E+006, +5.86833794693E+001, +5.60891772288E+001
+1.97546933667E+006, +5.88220513691E+001, +6.00519530299E+001
+2.10050062578E+006, +5.86527300027E+001, +6.38554309681E+001
+2.22553191489E+006, +5.84600343010E+001, +6.75106399597E+001
+2.35056320401E+006, +5.87324609174E+001, +7.14286145934E+001
+2.47559449312E+006, +5.85934634325E+001, +7.51634891434E+001
+2.60062578223E+006, +5.85252249800E+001, +7.90547300513E+001
+2.72565707134E+006, +5.84739033523E+001, +8.28649343007E+001
+2.85068836045E+006, +5.85536897770E+001, +8.66381002308E+001
+2.97571964956E+006, +5.86140563185E+001, +9.03572025727E+001
+3.10075093867E+006, +5.84850283506E+001, +9.42965003239E+001
+3.22578222778E+006, +5.85718260749E+001, +9.81635807702E+001
+3.35081351690E+006, +5.87104911112E+001, +1.01847963663E+002
+3.47584480601E+006, +5.87429945822E+001, +1.05662824854E+002
+3.60087609512E+006, +5.87083771472E+001, +1.09638945286E+002
+3.72590738423E+006, +5.85345808728E+001, +1.13262962756E+002
+3.85093867334E+006, +5.88476983627E+001, +1.17092930781E+002
+3.97596996245E+006, +5.85603903389E+001, +1.20784169053E+002
+4.10100125156E+006, +5.86314455367E+001, +1.24780665322E+002
+4.22603254068E+006, +5.85592205441E+001, +1.28539881005E+002
+4.35106382979E+006, +5.85000692170E+001, +1.32224632823E+002
+4.47609511890E+006, +5.84415590678E+001, +1.36208928162E+002
+4.60112640801E+006, +5.83374617496E+001, +1.40397660075E+002
+4.72615769712E+006, +5.85240095747E+001, +1.43798884347E+002
+4.85118898623E+006, +5.85254128531E+001, +1.47614082784E+002
+4.97622027534E+006, +5.84549830520E+001, +1.51523696367E+002
+5.10125156446E+006, +5.91852014336E+001, +1.55512802202E+002
+5.22628285357E+006, +5.88623190900E+001, +1.59175451238E+002
+5.35131414268E+006, +5.84707875804E+001, +1.63050626885E+002
+5.47634543179E+006, +5.87589299138E+001, +1.66594099717E+002
+5.60137672090E+006, +5.91342514988E+001, +1.70879246691E+002
+5.72640801001E+006, +5.92185422922E+001, +1.74403389158E+002
+5.85143929912E+006, +5.93845572216E+001, +1.78432897538E+002
+5.97647058824E+006, +5.91519744406E+001, +1.82197374992E+002
+6.10150187735E+006, +5.89001924695E+001, +1.85667742185E+002
+6.22653316646E+006, +5.92590617989E+001, +1.90415064047E+002
+6.35156445557E+006, +5.91006713545E+001, +1.93791966589E+002
+6.47659574468E+006, +5.91326049208E+001, +1.97873181576E+002
+6.60162703379E+006, +5.92339727528E+001, +2.01564371944E+002
+6.72665832290E+006, +5.91847040613E+001, +2.05543725035E+002
+6.85168961202E+006, +5.94453886779E+001, +2.09164292192E+002
+6.97672090113E+006, +5.93606701897E+001, +2.13214423037E+002
+7.10175219024E+006, +5.97362416738E+001, +2.16857126327E+002
+7.22678347935E+006, +5.95150042444E+001, +2.21084007993E+002
+7.35181476846E+006, +5.97969192588E+001, +2.25111686974E+002
+7.47684605757E+006, +5.95290046128E+001, +2.28948394775E+002
+7.60187734668E+006, +5.96488920635E+001, +2.32440426613E+002
+7.72690863579E+006, +5.98243649012E+001, +2.36409210835E+002
+7.85193992491E+006, +5.96968003671E+001, +2.40901621252E+002
+7.97697121402E+006, +5.99194876781E+001, +2.44698241656E+002
+8.10200250313E+006, +6.00616395624E+001, +2.48327430848E+002
+8.22703379224E+006, +6.01316614424E+001, +2.52824432590E+002
+8.35206508135E+006, +5.98928703224E+001, +2.56177056608E+002
+8.47709637046E+006, +5.99404973022E+001, +2.60505319907E+002
+8.60212765957E+006, +6.02293954234E+001, +2.64403592527E+002
+8.72715894869E+006, +5.99235675425E+001, +2.68205203106E+002
+8.85219023780E+006, +6.03765987889E+001, +2.72004173031E+002
+8.97722152691E+006, +6.04023073487E+001, +2.76069697480E+002
+9.10225281602E+006, +6.03687292484E+001, +2.80094110627E+002
+9.22728410513E+006, +6.00487058929E+001, +2.84080748395E+002
+9.35231539424E+006, +6.02785847100E+001, +2.87730337802E+002
+9.47734668335E+006, +6.04338420222E+001, +2.92074840106E+002
+9.60237797247E+006, +6.03022782073E+001, +2.96025928599E+002
+9.72740926158E+006, +6.06631578503E+001, +2.99587888034E+002
+9.85244055069E+006, +6.09463587502E+001, +3.03677754545E+002
+9.97747183980E+006, +6.04592860929E+001, +3.08297170439E+002
+1.01025031289E+007, +6.02871816226E+001, +3.11712189767E+002
+1.02275344180E+007, +6.10785849094E+001, +3.16264356888E+002
+1.03525657071E+007, +6.02335961146E+001, +3.19859967348E+002
+1.04775969962E+007, +6.06056824211E+001, +3.24716220980E+002
+1.06026282854E+007, +6.08652846362E+001, +3.28377063136E+002
+1.07276595745E+007, +6.11404075562E+001, +3.32739176313E+002
+1.08526908636E+007, +6.06700960066E+001, +3.36511668692E+002
+1.09777221527E+007, +6.08964047029E+001, +3.40615808692E+002
+1.11027534418E+007, +6.03935171594E+001, +3.44714442144E+002
+1.12277847309E+007, +6.14112858614E+001, +3.49377699726E+002
+1.13528160200E+007, +6.07283774971E+001, +3.53072324249E+002
+1.14778473091E+007, +6.15719618119E+001, +3.56841715740E+002
+1.16028785982E+007, +6.12707982798E+001, +3.60536375385E+002
+1.17279098874E+007, +6.09570778888E+001, +3.65116659549E+002
+1.18529411765E+007, +6.11987351340E+001, +3.68891046255E+002
+1.19779724656E+007, +6.08238589202E+001, +3.72965568511E+002
+1.21030037547E+007, +6.08686008085E+001, +3.77171262525E+002
+1.22280350438E+007, +6.15640719457E+001, +3.81611992598E+002
+1.23530663329E+007, +6.17083220128E+001, +3.86146386379E+002
+1.24780976220E+007, +6.19396934487E+001, +3.90056804022E+002
+1.26031289111E+007, +6.15584723261E+001, +3.93932882692E+002
+1.27281602003E+007, +6.15824464618E+001, +3.97786997537E+002
+1.28531914894E+007, +6.14427268072E+001, +4.01493744696E+002
+1.29782227785E+007, +6.16354117348E+001, +4.07035437341E+002
+1.31032540676E+007, +6.20816411647E+001, +4.11091439371E+002
+1.32282853567E+007, +6.21794525536E+001, +4.14165370872E+002
+1.33533166458E+007, +6.27484732018E+001, +4.19266171831E+002
+1.34783479349E+007, +6.20738459638E+001, +4.23093914975E+002
+1.36033792240E+007, +6.15783573971E+001, +4.27366543660E+002
+1.37284105131E+007, +6.19809755084E+001, +4.33172931846E+002
+1.38534418023E+007, +6.31866851024E+001, +4.37352873707E+002
+1.39784730914E+007, +6.35436743690E+001, +4.41570122011E+002
+1.41035043805E+007, +6.28828683655E+001, +4.46482271119E+002
+1.42285356696E+007, +6.28835575060E+001, +4.49861290508E+002
+1.43535669587E+007, +6.31844325420E+001, +4.53422240934E+002
+1.44785982478E+007, +6.37048264336E+001, +4.58422971881E+002
+1.46036295369E+007, +6.38092685510E+001, +4.62910331816E+002
+1.47286608260E+007, +6.32218211661E+001, +4.66454937123E+002
+1.48536921151E+007, +6.36847435210E+001, +4.71194719217E+002
+1.49787234043E+007, +6.46495153386E+001, +4.76568606613E+002
+1.51037546934E+007, +6.52712860390E+001, +4.79639416163E+002
+1.52287859825E+007, +6.44252474227E+001, +4.86239392040E+002
+1.53538172716E+007, +6.38995070555E+001, +4.88949186552E+002
+1.54788485607E+007, +6.43409837058E+001, +4.94332336605E+002
+1.56038798498E+007, +6.53206147878E+001, +4.98460249401E+002
+1.57289111389E+007, +6.36082954026E+001, +5.02803008519E+002
+1.58539424280E+007, +6.59358966679E+001, +5.06188772749E+002
+1.59789737171E+007, +6.54899925873E+001, +5.10703630870E+002
+1.61040050063E+007, +6.52320796809E+001, +5.14440142583E+002
+1.62290362954E+007, +6.51167800150E+001, +5.19913954947E+002
+1.63540675845E+007, +6.64565796142E+001, +5.24976415458E+002
+1.64790988736E+007, +6.77292635451E+001, +5.29137455646E+002
+1.66041301627E+007, +6.66528788047E+001, +5.33091581852E+002
+1.67291614518E+007, +6.65328767934E+001, +5.36974916179E+002
+1.68541927409E+007, +6.68165293483E+001, +5.40068507632E+002
+1.69792240300E+007, +6.67991970504E+001, +5.45133588193E+002
+1.71042553191E+007, +6.38011953719E+001, +5.51122551068E+002
+1.72292866083E+007, +6.61612432368E+001, +5.56954626734E+002
+1.73543178974E+007, +6.66031567963E+001, +5.60584439877E+002
+1.74793491865E+007, +6.71198838656E+001, +5.65662393242E+002
+1.76043804756E+007, +6.52466690226E+001, +5.70081124571E+002
+1.77294117647E+007, +6.45555481416E+001, +5.75014887493E+002
+1.78544430538E+007, +6.57616056410E+001, +5.78419325679E+002
+1.79794743429E+007, +6.58177365482E+001, +5.83421536709E+002
+1.81045056320E+007, +6.64922503533E+001, +5.89764502347E+002
+1.82295369212E+007, +6.61438410454E+001, +5.91353768953E+002
+1.83545682103E+007, +6.65544384422E+001, +5.98234007879E+002
+1.84795994994E+007, +6.92343728637E+001, +6.02693763408E+002
+1.86046307885E+007, +6.56610001200E+001, +6.08088443159E+002
+1.87296620776E+007, +6.52743489066E+001, +6.11174662625E+002
+1.88546933667E+007, +6.76850841314E+001, +6.16389853009E+002
+1.89797246558E+007, +6.76526875849E+001, +6.23429171755E+002
+1.91047559449E+007, +6.67855120954E+001, +6.25635903515E+002
+1.92297872340E+007, +6.87063504937E+001, +6.31513094941E+002
+1.93548185232E+007, +6.71197814651E+001, +6.37903482517E+002
+1.94798498123E+007, +6.82218710814E+001, +6.45322474149E+002
+1.96048811014E+007, +7.01742896287E+001, +6.45765866750E+002
+1.97299123905E+007, +6.88985586182E+001, +6.52364913803E+002
+1.98549436796E+007, +6.99927774869E+001, +6.56371366757E+002
+1.99799749687E+007, +7.02451370753E+001, +6.63369040335E+002
+2.01050062578E+007, +7.02984974113E+001, +6.67567842667E+002
+2.02300375469E+007, +7.06810372929E+001, +6.70418900790E+002
+2.03550688360E+007, +7.08761569246E+001, +6.76505915270E+002
+2.04801001252E+007, +7.03063635747E+001, +6.82731793279E+002
+2.06051314143E+007, +7.16733190438E+001, +6.89179322686E+002
+2.07301627034E+007, +7.16948015615E+001, +6.92761300457E+002
+2.08551939925E+007, +7.14491940412E+001, +6.99693985949E+002
+2.09802252816E+007, +7.39095739345E+001, +7.02115032866E+002
+2.11052565707E+007, +7.20691433305E+001, +7.10179510001E+002
+2.12302878598E+007, +7.21947655909E+001, +7.12015659607E+002
+2.13553191489E+007, +7.33842802957E+001, +7.19438369433E+002
+2.14803504380E+007, +7.39219595665E+001, +7.23942764761E+002
+2.16053817272E+007, +7.39485924820E+001, +7.29951161299E+002
+2.17304130163E+007, +7.37721330303E+001, +7.35828711537E+002
+2.18554443054E+007, +7.31734468508E+001, +7.43047676641E+002
+2.19804755945E+007, +7.52064671223E+001, +7.47786191967E+002
+2.21055068836E+007, +7.65869605479E+001, +7.50970608900E+002
+2.22305381727E+007, +7.51671518424E+001, +7.59021186817E+002
+2.23555694618E+007, +7.51385151057E+001, +7.63549240005E+002
+2.24806007509E+007, +7.89926333901E+001, +7.70809602900E+002
+2.26056320401E+007, +7.93478068883E+001, +7.72223508630E+002
+2.27306633292E+007, +8.00921386618E+001, +7.80404552589E+002
+2.28556946183E+007, +8.13213161544E+001, +7.88307358794E+002
+2.29807259074E+007, +8.08323197091E+001, +7.88840837351E+002
+2.31057571965E+007, +8.16806191893E+001, +7.95675766721E+002
+2.32307884856E+007, +8.15013871780E+001, +7.99206043472E+002
+2.33558197747E+007, +8.23861938718E+001, +8.08648645619E+002
+2.34808510638E+007, +8.23863346607E+001, +8.11252299796E+002
+2.36058823529E+007, +8.37187678014E+001, +8.18052924032E+002
+2.37309136421E+007, +8.72670650508E+001, +8.26032229795E+002
+2.38559449312E+007, +8.36655501683E+001, +8.30349895508E+002
+2.39809762203E+007, +8.74933202416E+001, +8.36378733895E+002
+2.41060075094E+007, +8.11345495188E+001, +8.41836081262E+002
+2.42310387985E+007, +8.67657503044E+001, +8.45216633917E+002
+2.43560700876E+007, +8.61217317858E+001, +8.53110298819E+002
+2.44811013767E+007, +8.80235715032E+001, +8.59764427486E+002
+2.46061326658E+007, +9.23579562499E+001, +8.66176270991E+002
+2.47311639549E+007, +8.73527048267E+001, +8.68515043820E+002
+2.48561952441E+007, +8.88146378747E+001, +8.78107687762E+002
+2.49812265332E+007, +9.22333568818E+001, +8.78941378166E+002
+2.51062578223E+007, +9.32961514418E+001, +8.90497178730E+002
+2.52312891114E+007, +9.44713628573E+001, +8.90600163893E+002
+2.53563204005E+007, +9.51318320300E+001, +8.98654088009E+002
+2.54813516896E+007, +9.43140908938E+001, +9.06618387077E+002
+2.56063829787E+007, +9.38225578598E+001, +9.07423688102E+002
+2.57314142678E+007, +9.89625562503E+001, +9.15831418885E+002
+2.58564455569E+007, +9.17230981989E+001, +9.20090418929E+002
+2.59814768461E+007, +9.57975036311E+001, +9.30161106236E+002
+2.61065081352E+007, +9.62516385596E+001, +9.33845613278E+002
+2.62315394243E+007, +1.00378287865E+002, +9.50048664804E+002
+2.63565707134E+007, +1.02880710748E+002, +9.56201410627E+002
+2.64816020025E+007, +9.63931059287E+001, +9.54260574929E+002
+2.66066332916E+007, +9.94866147799E+001, +9.64592720182E+002
+2.67316645807E+007, +1.01246083361E+002, +9.69404836261E+002
+2.68566958698E+007, +1.04748390634E+002, +9.78592483963E+002
+2.69817271589E+007, +1.03452399819E+002, +9.87391175532E+002
+2.71067584481E+007, +1.08959473173E+002, +9.87164772452E+002
+2.72317897372E+007, +1.08041316495E+002, +9.99337448547E+002
+2.73568210263E+007, +1.07635208461E+002, +1.00025930219E+003
+2.74818523154E+007, +1.09308007645E+002, +1.00612113664E+003
+2.76068836045E+007, +1.10357086963E+002, +1.01197579954E+003
+2.77319148936E+007, +1.10052290709E+002, +1.01824242677E+003
+2.78569461827E+007, +1.08893927040E+002, +1.03091944150E+003
+2.79819774718E+007, +1.15464503455E+002, +1.03110110544E+003
+2.81070087610E+007, +1.13343547953E+002, +1.04372020182E+003
+2.82320400501E+007, +1.13823606070E+002, +1.05131691049E+003
+2.83570713392E+007, +1.15904747290E+002, +1.05413280767E+003
+2.84821026283E+007, +1.18329283986E+002, +1.06011727570E+003
+2.86071339174E+007, +1.15326781011E+002, +1.06779074112E+003
+2.87321652065E+007, +1.16922444090E+002, +1.07790136727E+003
+2.88571964956E+007, +1.12679376573E+002, +1.07811429344E+003
+2.89822277847E+007, +1.18281789489E+002, +1.08812562578E+003
+2.91072590738E+007, +1.17759066269E+002, +1.09272523492E+003
+2.92322903630E+007, +1.16875908758E+002, +1.10990495580E+003
+2.93573216521E+007, +1.28086568057E+002, +1.10362191365E+003
+2.94823529412E+007, +1.16231024583E+002, +1.12220419033E+003
+2.96073842303E+007, +1.20841622692E+002, +1.12253656242E+003
+2.97324155194E+007, +1.21973809925E+002, +1.13155589028E+003
+2.98574468085E+007, +1.25533942563E+002, +1.13886798563E+003
+2.99824780976E+007, +1.29246828379E+002, +1.13783679141E+003
+3.01075093867E+007, +1.29922859496E+002, +1.15242754675E+003
+3.02325406758E+007, +1.22033698986E+002, +1.15989516243E+003
+3.03575719650E+007, +1.25394850766E+002, +1.16623307025E+003
+3.04826032541E+007, +1.24575974308E+002, +1.17705207289E+003
+3.06076345432E+007, +1.28183777524E+002, +1.18284089717E+003
+3.07326658323E+007, +1.27309816791E+002, +1.19750469384E+003
+3.08576971214E+007, +1.34806636120E+002, +1.19909575294E+003
+3.09827284105E+007, +1.30760300971E+002, +1.21375067167E+003
+3.11077596996E+007, +1.23351973231E+002, +1.21630447349E+003
+3.12327909887E+007, +1.35536949846E+002, +1.22696773231E+003
+3.13578222778E+007, +1.30881561953E+002, +1.23981530939E+003
+3.14828535670E+007, +1.30115221008E+002, +1.24453682416E+003
+3.16078848561E+007, +1.37893998049E+002, +1.25038117195E+003
+3.17329161452E+007, +1.37899986899E+002, +1.25854136070E+003
+3.18579474343E+007, +1.32675377015E+002, +1.26860594318E+003
+3.19829787234E+007, +1.36822923150E+002, +1.28174112581E+003
+3.21080100125E+007, +1.36647779848E+002, +1.28818628359E+003
+3.22330413016E+007, +1.39244862964E+002, +1.29461952566E+003
+3.23580725907E+007, +1.30987042174E+002, +1.30611552615E+003
+3.24831038798E+007, +1.48708614183E+002, +1.32072718023E+003
+3.26081351690E+007, +1.52711109661E+002, +1.32259928518E+003
+3.27331664581E+007, +1.45855827794E+002, +1.33059180404E+003
+3.28581977472E+007, +1.42068269901E+002, +1.33967009940E+003
+3.29832290363E+007, +1.42518591473E+002, +1.35653580226E+003
+3.31082603254E+007, +1.48380633603E+002, +1.36527782476E+003
+3.32332916145E+007, +1.48264313263E+002, +1.37211838946E+003
+3.33583229036E+007, +1.40824610681E+002, +1.38789807049E+003
+3.34833541927E+007, +1.54750934720E+002, +1.39168681168E+003
+3.36083854819E+007, +1.44309488338E+002, +1.40395824444E+003
+3.37334167710E+007, +1.49674424053E+002, +1.40709840224E+003
+3.38584480601E+007, +1.44048741931E+002, +1.42296932973E+003
+3.39834793492E+007, +1.49643866456E+002, +1.43826813280E+003
+3.41085106383E+007, +1.64903490650E+002, +1.45107332524E+003
+3.42335419274E+007, +1.71124955601E+002, +1.46197325331E+003
+3.43585732165E+007, +1.55499349875E+002, +1.48000392282E+003
+3.44836045056E+007, +1.52848858778E+002, +1.47148974409E+003
+3.46086357947E+007, +1.71742467900E+002, +1.49164714180E+003
+3.47336670839E+007, +1.59248370875E+002, +1.50783178650E+003
+3.48586983730E+007, +1.63779422959E+002, +1.50947280020E+003
+3.49837296621E+007, +1.63316203672E+002, +1.51910970136E+003
+3.51087609512E+007, +1.57470182722E+002, +1.53326846772E+003
+3.52337922403E+007, +1.75841341662E+002, +1.55601747751E+003
+3.53588235294E+007, +1.79163065192E+002, +1.57465486980E+003
+3.54838548185E+007, +1.74150332402E+002, +1.57890166707E+003
+3.56088861076E+007, +1.80654275991E+002, +1.58714663569E+003
+3.57339173967E+007, +1.71281123577E+002, +1.60491669895E+003
+3.58589486859E+007, +1.78286765933E+002, +1.60061986023E+003
+3.59839799750E+007, +1.78600241377E+002, +1.64337315900E+003
+3.61090112641E+007, +1.74963411051E+002, +1.64808375210E+003
+3.62340425532E+007, +1.72326216185E+002, +1.66002257040E+003
+3.63590738423E+007, +1.99278896400E+002, +1.66272702196E+003
+3.64841051314E+007, +1.80767170240E+002, +1.68472198850E+003
+3.66091364205E+007, +1.93914512895E+002, +1.68948780178E+003
+3.67341677096E+007, +2.08809630599E+002, +1.72354082412E+003
+3.68591989987E+007, +2.03377922189E+002, +1.75702065929E+003
+3.69842302879E+007, +1.90364094158E+002, +1.74882578596E+003
+3.71092615770E+007, +2.02397556369E+002, +1.78432928683E+003
+3.72342928661E+007, +1.90870084382E+002, +1.78720951460E+003
+3.73593241552E+007, +1.85632176715E+002, +1.78376543370E+003
+3.74843554443E+007, +2.16567529787E+002, +1.82869250635E+003
+3.76093867334E+007, +1.94600503751E+002, +1.82910873769E+003
+3.77344180225E+007, +2.27177080835E+002, +1.85492474510E+003
+3.78594493116E+007, +2.20235029294E+002, +1.87063240232E+003
+3.79844806008E+007, +2.15827768633E+002, +1.88435352997E+003
+3.81095118899E+007, +2.17301159924E+002, +1.90777962099E+003
+3.82345431790E+007, +2.38221109165E+002, +1.92269058167E+003
+3.83595744681E+007, +2.38661753568E+002, +1.94674777868E+003
+3.84846057572E+007, +2.43527899803E+002, +1.95355359578E+003
+3.86096370463E+007, +2.23089270721E+002, +1.98744134461E+003
+3.87346683354E+007, +2.32679819708E+002, +1.99839569050E+003
+3.88596996245E+007, +2.58687533606E+002, +2.03535345526E+003
+3.89847309136E+007, +2.58177988113E+002, +2.06104212551E+003
+3.91097622028E+007, +2.55335494102E+002, +2.07830876972E+003
+3.92347934919E+007, +2.80048987025E+002, +2.08701822897E+003
+3.93598247810E+007, +2.77136638927E+002, +2.13131708945E+003
+3.94848560701E+007, +2.96730784192E+002, +2.14005343261E+003
+3.96098873592E+007, +2.72324652656E+002, +2.17996441206E+003
+3.97349186483E+007, +2.91349899553E+002, +2.18359340856E+003
+3.98599499374E+007, +2.96694936631E+002, +2.22129340928E+003
+3.99849812265E+007, +3.03931625808E+002, +2.21071927670E+003
+4.01100125156E+007, +3.27096277723E+002, +2.26273015616E+003
