"# Channel 1"
"# Trace 1"
Frequency, Formatted Data, Formatted Data
+1.00000000000E+005, +6.48167105950E+001, +2.61469220713E+000
+2.66777963272E+005, +6.46262839848E+001, +8.12523861133E+000
+4.33555926544E+005, +6.46342470752E+001, +1.31186894985E+001
+6.00333889816E+005, +6.45393367892E+001, +1.82699812211E+001
+7.67111853088E+005, +6.47501557490E+001, +2.33042808246E+001
+9.33889816361E+005, +6.46882545847E+001, +2.83546395354E+001
+1.10066777963E+006, +6.48146603086E+001, +3.35991338781E+001
+1.26744574290E+006, +6.48219111850E+001, +3.86315368088E+001
+1.43422370618E+006, +6.49000571049E+001, +4.37984481271E+001
+1.60100166945E+006, +6.48370123387E+001, +4.87939758325E+001
+1.76777963272E+006, +6.48229198134E+001, +5.39076304033E+001
+1.93455759599E+006, +6.47944302685E+001, +5.90692392181E+001
+2.10133555927E+006, +6.48086705213E+001, +6.41113436346E+001
+2.26811352254E+006, +6.48815133750E+001, +6.92155126682E+001
+2.43489148581E+006, +6.50599634833E+001, +7.45041264482E+001
+2.60166944908E+006, +6.49521643902E+001, +7.95159462571E+001
+2.76844741235E+006, +6.49915523749E+001, +8.46834829126E+001
+2.93522537563E+006, +6.50463068834E+001, +8.97111657951E+001
+3.10200333890E+006, +6.49098495107E+001, +9.47520053007E+001
+3.26878130217E+006, +6.49256175059E+001, +1.00213869954E+002
+3.43555926544E+006, +6.50492091028E+001, +1.05087754345E+002
+3.60233722871E+006, +6.51732146253E+001, +1.10383752657E+002
+3.76911519199E+006, +6.54002567278E+001, +1.15748131851E+002
+3.93589315526E+006, +6.52252029280E+001, +1.20635438099E+002
+4.10267111853E+006, +6.52773733783E+001, +1.26091923861E+002
+4.26944908180E+006, +6.57517631471E+001, +1.31435945935E+002
+4.43622704508E+006, +6.55056092757E+001, +1.36429165003E+002
+4.60300500835E+006, +6.56687422662E+001, +1.41878135647E+002
+4.76978297162E+006, +6.55485884782E+001, +1.46953959078E+002
+4.93656093489E+006, +6.59466953303E+001, +1.52192793202E+002
+5.10333889816E+006, +6.60132038718E+001, +1.57141414526E+002
+5.27011686144E+006, +6.66050322194E+001, +1.62575026051E+002
+5.43689482471E+006, +6.61379617914E+001, +1.67847510792E+002
+5.60367278798E+006, +6.67528952448E+001, +1.73429009397E+002
+5.77045075125E+006, +6.64638253841E+001, +1.78563946951E+002
+5.93722871452E+006, +6.66516273101E+001, +1.83571482963E+002
+6.10400667780E+006, +6.67560452749E+001, +1.89334471144E+002
+6.27078464107E+006, +6.71670659819E+001, +1.94082690085E+002
+6.43756260434E+006, +6.73913939257E+001, +1.99660538180E+002
+6.60434056761E+006, +6.78774764392E+001, +2.04727640300E+002
+6.77111853088E+006, +6.78974767750E+001, +2.09993703890E+002
+6.93789649416E+006, +6.81137729171E+001, +2.15698853692E+002
+7.10467445743E+006, +6.79717540916E+001, +2.20989066523E+002
+7.27145242070E+006, +6.82324451836E+001, +2.26186323116E+002
+7.43823038397E+006, +6.81766682594E+001, +2.31339220216E+002
+7.60500834725E+006, +6.84075837722E+001, +2.37134444990E+002
+7.77178631052E+006, +6.88676534778E+001, +2.42617140124E+002
+7.93856427379E+006, +6.87868059222E+001, +2.48163215140E+002
+8.10534223706E+006, +6.90678019550E+001, +2.53564738305E+002
+8.27212020033E+006, +6.89778766698E+001, +2.59104433073E+002
+8.43889816361E+006, +6.89385374576E+001, +2.64956055845E+002
+8.60567612688E+006, +6.92815108142E+001, +2.71029780214E+002
+8.77245409015E+006, +6.90659858825E+001, +2.76251249131E+002
+8.93923205342E+006, +6.96399131449E+001, +2.82299057222E+002
+9.10601001669E+006, +6.95910971880E+001, +2.88130676884E+002
+9.27278797997E+006, +6.98756202683E+001, +2.93478916679E+002
+9.43956594324E+006, +6.97220578005E+001, +2.99604292165E+002
+9.60634390651E+006, +6.97727794749E+001, +3.05315372125E+002
+9.77312186978E+006, +7.04340304524E+001, +3.10939513484E+002
+9.93989983306E+006, +7.07616684253E+001, +3.17065672422E+002
+1.01066777963E+007, +7.00313229746E+001, +3.22802338282E+002
+1.02734557596E+007, +7.06267644752E+001, +3.28831705590E+002
+1.04402337229E+007, +7.07120226951E+001, +3.34955159541E+002
+1.06070116861E+007, +7.05722258883E+001, +3.40690732351E+002
+1.07737896494E+007, +7.08520816231E+001, +3.46893352281E+002
+1.09405676127E+007, +7.23520325307E+001, +3.52415361732E+002
+1.11073455760E+007, +7.14450552993E+001, +3.59250691550E+002
+1.12741235392E+007, +7.20266244288E+001, +3.65313508990E+002
+1.14409015025E+007, +7.30249730142E+001, +3.71000664678E+002
+1.16076794658E+007, +7.34272637543E+001, +3.77571075945E+002
+1.17744574290E+007, +7.34073444923E+001, +3.84291308308E+002
+1.19412353923E+007, +7.31038558738E+001, +3.90999071733E+002
+1.21080133556E+007, +7.34573065313E+001, +3.96960599552E+002
+1.22747913189E+007, +7.40024819511E+001, +4.03211714814E+002
+1.24415692821E+007, +7.38861537685E+001, +4.09082151786E+002
+1.26083472454E+007, +7.43441606511E+001, +4.16247967300E+002
+1.27751252087E+007, +7.41402116959E+001, +4.22140024944E+002
+1.29419031720E+007, +7.45354038512E+001, +4.29145862048E+002
+1.31086811352E+007, +7.50775092276E+001, +4.34753334867E+002
+1.32754590985E+007, +7.54678654873E+001, +4.41534013810E+002
+1.34422370618E+007, +7.54137064319E+001, +4.49156338953E+002
+1.36090150250E+007, +7.61286751744E+001, +4.55172405105E+002
+1.37757929883E+007, +7.60997726779E+001, +4.62526344979E+002
+1.39425709516E+007, +7.65821674406E+001, +4.69073407084E+002
+1.41093489149E+007, +7.74287182520E+001, +4.75344938781E+002
+1.42761268781E+007, +7.73780253569E+001, +4.83091270229E+002
+1.44429048414E+007, +7.85863805799E+001, +4.89452669736E+002
+1.46096828047E+007, +7.85878167987E+001, +4.97355263838E+002
+1.47764607679E+007, +7.90985598550E+001, +5.03488633946E+002
+1.49432387312E+007, +7.98414056389E+001, +5.11467953484E+002
+1.51100166945E+007, +8.03313818103E+001, +5.18733738155E+002
+1.52767946578E+007, +8.07889114635E+001, +5.25286500050E+002
+1.54435726210E+007, +8.18763206026E+001, +5.32251116251E+002
+1.56103505843E+007, +8.28888536935E+001, +5.40369116278E+002
+1.57771285476E+007, +8.12941214552E+001, +5.45603443282E+002
+1.59439065109E+007, +8.39574962212E+001, +5.54159058755E+002
+1.61106844741E+007, +8.39159094427E+001, +5.61901655026E+002
+1.62774624374E+007, +8.44374767423E+001, +5.68547503965E+002
+1.64442404007E+007, +8.39220992913E+001, +5.77367959952E+002
+1.66110183639E+007, +8.61101823868E+001, +5.84638803772E+002
+1.67777963272E+007, +8.57473318240E+001, +5.93544107741E+002
+1.69445742905E+007, +8.88899886052E+001, +5.98084304471E+002
+1.71113522538E+007, +8.20571750218E+001, +6.08168536495E+002
+1.72781302170E+007, +8.70455812907E+001, +6.17436624502E+002
+1.74449081803E+007, +8.52359921905E+001, +6.23038004804E+002
+1.76116861436E+007, +8.91253072937E+001, +6.32452287493E+002
+1.77784641068E+007, +8.67639967568E+001, +6.39144411783E+002
+1.79452420701E+007, +9.06226555419E+001, +6.47722032147E+002
+1.81120200334E+007, +8.96822025548E+001, +6.54040388011E+002
+1.82787979967E+007, +9.17834594269E+001, +6.64266897885E+002
+1.84455759599E+007, +9.24267266613E+001, +6.72357319920E+002
+1.86123539232E+007, +9.31534232368E+001, +6.82424123813E+002
+1.87791318865E+007, +9.48229512144E+001, +6.91652443171E+002
+1.89459098497E+007, +9.54615413348E+001, +7.00683705927E+002
+1.91126878130E+007, +9.37719779448E+001, +7.09123234166E+002
+1.92794657763E+007, +9.46191274875E+001, +7.17089322472E+002
+1.94462437396E+007, +9.76048162942E+001, +7.29128961704E+002
+1.96130217028E+007, +9.82707695291E+001, +7.38543456991E+002
+1.97797996661E+007, +9.91641786289E+001, +7.42866898402E+002
+1.99465776294E+007, +9.83546542792E+001, +7.54406523156E+002
+2.01133555927E+007, +9.81941123428E+001, +7.67473144217E+002
+2.02801335559E+007, +1.01624701614E+002, +7.77984567032E+002
+2.04469115192E+007, +1.04306446942E+002, +7.84420380663E+002
+2.06136894825E+007, +1.03935878484E+002, +7.95779826250E+002
+2.07804674457E+007, +1.05558201764E+002, +8.07063722856E+002
+2.09472454090E+007, +1.05221728589E+002, +8.18859290963E+002
+2.11140233723E+007, +1.09039272055E+002, +8.25645885386E+002
+2.12808013356E+007, +1.08295976761E+002, +8.36997733277E+002
+2.14475792988E+007, +1.10517626265E+002, +8.48959811522E+002
+2.16143572621E+007, +1.16049827571E+002, +8.58538694470E+002
+2.17811352254E+007, +1.14326158940E+002, +8.66074969443E+002
+2.19479131886E+007, +1.19209975699E+002, +8.79513043169E+002
+2.21146911519E+007, +1.22220469121E+002, +8.88336395337E+002
+2.22814691152E+007, +1.20901542705E+002, +9.03803425659E+002
+2.24482470785E+007, +1.22581789697E+002, +9.18316591645E+002
+2.26150250417E+007, +1.29230693137E+002, +9.25419295753E+002
+2.27818030050E+007, +1.26766292637E+002, +9.40387523032E+002
+2.29485809683E+007, +1.33016445533E+002, +9.46924025873E+002
+2.31153589316E+007, +1.33740172651E+002, +9.62227472813E+002
+2.32821368948E+007, +1.38717423188E+002, +9.71731257483E+002
+2.34489148581E+007, +1.38651098885E+002, +9.82130971073E+002
+2.36156928214E+007, +1.43117037435E+002, +9.95601796967E+002
+2.37824707846E+007, +1.42115525584E+002, +1.01054332211E+003
+2.39492487479E+007, +1.45612323713E+002, +1.01643754105E+003
+2.41160267112E+007, +1.44732731118E+002, +1.03080829607E+003
+2.42828046745E+007, +1.49770065858E+002, +1.04711756324E+003
+2.44495826377E+007, +1.55504647573E+002, +1.05979666677E+003
+2.46163606010E+007, +1.57607277421E+002, +1.07206423922E+003
+2.47831385643E+007, +1.60732855629E+002, +1.08274543942E+003
+2.49499165275E+007, +1.66186465142E+002, +1.10207554191E+003
+2.51166944908E+007, +1.73600079869E+002, +1.11379935510E+003
+2.52834724541E+007, +1.74405196589E+002, +1.12555265983E+003
+2.54502504174E+007, +1.78377748548E+002, +1.14229144534E+003
+2.56170283806E+007, +1.78053079312E+002, +1.15014316307E+003
+2.57838063439E+007, +1.82465632799E+002, +1.17176794968E+003
+2.59505843072E+007, +1.88518584139E+002, +1.18558683497E+003
+2.61173622705E+007, +1.92807873641E+002, +1.19939753780E+003
+2.62841402337E+007, +1.89048715144E+002, +1.21059408787E+003
+2.64509181970E+007, +1.96207295281E+002, +1.22781475487E+003
+2.66176961603E+007, +2.06452889000E+002, +1.25007861205E+003
+2.67844741235E+007, +2.09316416706E+002, +1.25874539255E+003
+2.69512520868E+007, +2.13323662581E+002, +1.27393577560E+003
+2.71180300501E+007, +2.13035420108E+002, +1.28562715323E+003
+2.72848080134E+007, +2.18470309150E+002, +1.30656014526E+003
+2.74515859766E+007, +2.24265124959E+002, +1.31377066865E+003
+2.76183639399E+007, +2.25700770981E+002, +1.33679455567E+003
+2.77851419032E+007, +2.21659482539E+002, +1.35809106176E+003
+2.79519198664E+007, +2.31824994080E+002, +1.38175536930E+003
+2.81186978297E+007, +2.41504765698E+002, +1.38605585912E+003
+2.82854757930E+007, +2.49695903085E+002, +1.40531841079E+003
+2.84522537563E+007, +2.36778459644E+002, +1.43718585883E+003
+2.86190317195E+007, +2.42959034781E+002, +1.44628685546E+003
+2.87858096828E+007, +2.68959633629E+002, +1.46531628890E+003
+2.89525876461E+007, +2.56711489266E+002, +1.48965966235E+003
+2.91193656093E+007, +2.57759491377E+002, +1.50261875279E+003
+2.92861435726E+007, +2.66504079612E+002, +1.53166466550E+003
+2.94529215359E+007, +2.72513845177E+002, +1.54901657094E+003
+2.96196994992E+007, +2.79515977618E+002, +1.57069722483E+003
+2.97864774624E+007, +2.92121905273E+002, +1.59561106032E+003
+2.99532554257E+007, +3.03302037443E+002, +1.62255634222E+003
+3.01200333890E+007, +3.00073739222E+002, +1.65919314499E+003
+3.02868113523E+007, +2.99501460072E+002, +1.67111409922E+003
+3.04535893155E+007, +3.08947305222E+002, +1.69797039469E+003
+3.06203672788E+007, +3.27363123804E+002, +1.72184107498E+003
+3.07871452421E+007, +3.30847619287E+002, +1.76038704906E+003
+3.09539232053E+007, +3.36601446992E+002, +1.76780948121E+003
+3.11207011686E+007, +3.23453316698E+002, +1.81440675254E+003
+3.12874791319E+007, +3.38215020097E+002, +1.82020767547E+003
+3.14542570952E+007, +3.55940989523E+002, +1.87147639504E+003
+3.16210350584E+007, +3.60361531859E+002, +1.89975487817E+003
+3.17878130217E+007, +3.69943480835E+002, +1.92915847891E+003
+3.19545909850E+007, +3.82244965829E+002, +1.96347221358E+003
+3.21213689482E+007, +3.95686491567E+002, +2.00877030365E+003
+3.22881469115E+007, +3.97416137987E+002, +2.01904303110E+003
+3.24549248748E+007, +4.32703047532E+002, +2.07377954335E+003
+3.26217028381E+007, +4.13266590110E+002, +2.10813345568E+003
+3.27884808013E+007, +4.33397018818E+002, +2.13225281888E+003
+3.29552587646E+007, +4.58176605062E+002, +2.18731813471E+003
+3.31220367279E+007, +4.63484564391E+002, +2.19985032188E+003
+3.32888146912E+007, +4.84682064439E+002, +2.28014842652E+003
+3.34555926544E+007, +4.96372837085E+002, +2.31246202879E+003
+3.36223706177E+007, +5.08942163211E+002, +2.33033429425E+003
+3.37891485810E+007, +5.05526020873E+002, +2.37471212595E+003
+3.39559265442E+007, +5.29315383843E+002, +2.46364453739E+003
+3.41227045075E+007, +5.41561211156E+002, +2.48688439361E+003
+3.42894824708E+007, +5.98355188504E+002, +2.56213652301E+003
+3.44562604341E+007, +5.78902176554E+002, +2.59305019884E+003
+3.46230383973E+007, +6.25097655713E+002, +2.66176070094E+003
+3.47898163606E+007, +6.55027499139E+002, +2.72566316037E+003
+3.49565943239E+007, +6.79544954268E+002, +2.78814404847E+003
+3.51233722871E+007, +7.28703436700E+002, +2.85155460600E+003
+3.52901502504E+007, +7.23752274421E+002, +2.86180143331E+003
+3.54569282137E+007, +7.79980356616E+002, +3.01993133645E+003
+3.56237061770E+007, +7.82972211828E+002, +3.05075680139E+003
+3.57904841402E+007, +8.25908724419E+002, +3.15210941637E+003
+3.59572621035E+007, +9.43537023174E+002, +3.22754003371E+003
+3.61240400668E+007, +9.04118167588E+002, +3.32795582348E+003
+3.62908180301E+007, +1.03610040445E+003, +3.43643973779E+003
+3.64575959933E+007, +1.01030394091E+003, +3.47622362376E+003
+3.66243739566E+007, +1.07682403467E+003, +3.59209212677E+003
+3.67911519199E+007, +1.19399064355E+003, +3.71109924396E+003
+3.69579298831E+007, +1.21588174132E+003, +3.81877066751E+003
+3.71247078464E+007, +1.29582738827E+003, +3.88527247673E+003
+3.72914858097E+007, +1.35922879321E+003, +4.06731787490E+003
+3.74582637730E+007, +1.62235152449E+003, +4.16438488046E+003
+3.76250417362E+007, +1.61522508538E+003, +4.31607804386E+003
+3.77918196995E+007, +1.70593887906E+003, +4.32923160989E+003
+3.79585976628E+007, +1.85208583328E+003, +4.53173286148E+003
+3.81253756260E+007, +2.05444984304E+003, +4.62152652661E+003
+3.82921535893E+007, +2.14878785018E+003, +4.78620281003E+003
+3.84589315526E+007, +2.46645282351E+003, +4.98126479686E+003
+3.86257095159E+007, +2.59398895337E+003, +5.18137990993E+003
+3.87924874791E+007, +2.70865904852E+003, +5.45560221443E+003
+3.89592654424E+007, +3.02497876125E+003, +5.58464309940E+003
+3.91260434057E+007, +3.57979389443E+003, +5.79457878428E+003
+3.92928213689E+007, +3.76164265043E+003, +5.65717218873E+003
+3.94595993322E+007, +4.16633089778E+003, +6.07579298103E+003
+3.96263772955E+007, +4.51936052988E+003, +6.15058074536E+003
+3.97931552588E+007, +4.83854918959E+003, +6.46020958157E+003
+3.99599332220E+007, +5.49529899668E+003, +6.36614516729E+003
+4.01267111853E+007, +6.39400206717E+003, +6.37765240269E+003
+4.02934891486E+007, +6.39289826816E+003, +6.66665310601E+003
+4.04602671119E+007, +7.15619056188E+003, +6.39120888996E+003
+4.06270450751E+007, +8.38213133902E+003, +6.09447295519E+003
+4.07938230384E+007, +9.11539555674E+003, +5.57896920735E+003
+4.09606010017E+007, +9.71434750040E+003, +5.30432883669E+003
+4.11273789649E+007, +1.08128614452E+004, +4.46703080930E+003
+4.12941569282E+007, +1.19288929266E+004, +3.65187312193E+003
+4.14609348915E+007, +1.23201906846E+004, +1.98205202813E+003
+4.16277128548E+007, +1.27998980676E+004, +1.55087283250E+003
+4.17944908180E+007, +1.28743729980E+004, +4.39369921103E+002
+4.19612687813E+007, +1.23499161065E+004, -1.12331591941E+003
+4.21280467446E+007, +1.21534172895E+004, -2.93225260354E+003
+4.22948247078E+007, +1.13613554280E+004, -3.80159260450E+003
+4.24616026711E+007, +1.09088889402E+004, -4.06607019788E+003
+4.26283806344E+007, +9.44724686085E+003, -4.67647381885E+003
+4.27951585977E+007, +8.69380434926E+003, -6.18476862827E+003
+4.29619365609E+007, +8.19713399742E+003, -5.36335964098E+003
+4.31287145242E+007, +7.36682779214E+003, -5.75814701572E+003
+4.32954924875E+007, +6.70136873966E+003, -6.12548047617E+003
+4.34622704508E+007, +5.87478031186E+003, -6.00741880216E+003
+4.36290484140E+007, +5.29952589590E+003, -5.98333922222E+003
+4.37958263773E+007, +4.63195677501E+003, -5.89821338799E+003
+4.39626043406E+007, +4.43161370686E+003, -5.80590825224E+003
+4.41293823038E+007, +3.80171394758E+003, -5.44406632938E+003
+4.42961602671E+007, +3.63858068808E+003, -5.43730635673E+003
+4.44629382304E+007, +3.19092293790E+003, -5.27963699729E+003
+4.46297161937E+007, +3.00690043418E+003, -5.04430755343E+003
+4.47964941569E+007, +2.65814020250E+003, -4.87504545146E+003
+4.49632721202E+007, +2.44548949310E+003, -4.84338744368E+003
+4.51300500835E+007, +2.40787731313E+003, -4.70922707593E+003
+4.52968280467E+007, +2.05443629188E+003, -4.41979924978E+003
+4.54636060100E+007, +1.88625471963E+003, -4.21238504663E+003
+4.56303839733E+007, +1.73332734186E+003, -4.11922084915E+003
+4.57971619366E+007, +1.64384522813E+003, -3.91018326014E+003
+4.59639398998E+007, +1.47286816363E+003, -3.78400241610E+003
+4.61307178631E+007, +1.50933407056E+003, -3.69829422866E+003
+4.62974958264E+007, +1.38597786657E+003, -3.50175998133E+003
+4.64642737896E+007, +1.32560381334E+003, -3.40639408451E+003
+4.66310517529E+007, +1.24707363892E+003, -3.34772863771E+003
+4.67978297162E+007, +1.26253190810E+003, -3.19363689078E+003
+4.69646076795E+007, +1.14068734539E+003, -3.10392199252E+003
+4.71313856427E+007, +1.09825546250E+003, -2.98730963597E+003
+4.72981636060E+007, +1.02891163298E+003, -2.92547303471E+003
+4.74649415693E+007, +1.00352379587E+003, -2.83174553794E+003
+4.76317195326E+007, +1.01608224487E+003, -2.72267988871E+003
+4.77984974958E+007, +9.50574190072E+002, -2.66699402568E+003
+4.79652754591E+007, +9.03162274259E+002, -2.60552175980E+003
+4.81320534224E+007, +9.12381971164E+002, -2.50717835246E+003
+4.82988313856E+007, +8.65294587965E+002, -2.47624873101E+003
+4.84656093489E+007, +8.65717185872E+002, -2.39837963365E+003
+4.86323873122E+007, +8.69906215852E+002, -2.35361262720E+003
+4.87991652755E+007, +8.41653156874E+002, -2.29601349412E+003
+4.89659432387E+007, +8.30843735916E+002, -2.24304972475E+003
+4.91327212020E+007, +8.03331756215E+002, -2.17766253271E+003
+4.92994991653E+007, +8.27419525348E+002, -2.12505705613E+003
+4.94662771285E+007, +7.99653985820E+002, -2.08146597329E+003
+4.96330550918E+007, +7.88311674292E+002, -2.06626143186E+003
+4.97998330551E+007, +7.96330751197E+002, -2.01782537530E+003
+4.99666110184E+007, +7.75684510309E+002, -2.00001201641E+003
+5.01333889816E+007, +7.72904711520E+002, -1.96274573170E+003
+5.03001669449E+007, +7.38033689476E+002, -1.95582265246E+003
+5.04669449082E+007, +7.38229907863E+002, -1.90052492691E+003
+5.06337228715E+007, +7.29420799937E+002, -1.87711558875E+003
+5.08005008347E+007, +7.22872551815E+002, -1.87878023038E+003
+5.09672787980E+007, +7.14993740301E+002, -1.84685152378E+003
+5.11340567613E+007, +6.76471081236E+002, -1.82465811351E+003
+5.13008347245E+007, +6.56846191882E+002, -1.82467861310E+003
+5.14676126878E+007, +6.52018808327E+002, -1.79534195718E+003
+5.16343906511E+007, +6.28759262522E+002, -1.75038691936E+003
+5.18011686144E+007, +5.98533265517E+002, -1.76502472619E+003
+5.19679465776E+007, +5.74270523632E+002, -1.72735677578E+003
+5.21347245409E+007, +5.51138960067E+002, -1.69313188767E+003
+5.23015025042E+007, +5.26417680726E+002, -1.65347025312E+003
+5.24682804674E+007, +5.02738028797E+002, -1.64101345505E+003
+5.26350584307E+007, +4.90025810278E+002, -1.61437226210E+003
+5.28018363940E+007, +4.63742067151E+002, -1.58770772137E+003
+5.29686143573E+007, +4.53026700254E+002, -1.55589761632E+003
+5.31353923205E+007, +4.46841012450E+002, -1.53817488581E+003
+5.33021702838E+007, +4.22921202878E+002, -1.51326991678E+003
+5.34689482471E+007, +4.25593465353E+002, -1.46798887759E+003
