"# Channel 1"
"# Trace 1"
Frequency, Formatted Data, Formatted Data
+1.00000000000E+005, +9.01971089572E+000, +3.15335297253E+000
+2.25031289111E+005, +9.09570478893E+000, +6.95351559131E+000
+3.50062578223E+005, +9.22790832401E+000, +1.07201830319E+001
+4.75093867334E+005, +9.28532290333E+000, +1.44864406636E+001
+6.00125156446E+005, +9.34762826817E+000, +1.81956658763E+001
+7.25156445557E+005, +9.42326407383E+000, +2.19028485065E+001
+8.50187734668E+005, +9.47418552880E+000, +2.56277990886E+001
+9.75219023780E+005, +9.46418684792E+000, +2.93445962239E+001
+1.10025031289E+006, +9.55103698386E+000, +3.30271096004E+001
+1.22528160200E+006, +9.50158689699E+000, +3.67554259840E+001
+1.35031289111E+006, +9.63454782258E+000, +4.05085243650E+001
+1.47534418023E+006, +9.64657201819E+000, +4.41878151461E+001
+1.60037546934E+006, +9.69691596876E+000, +4.79416179793E+001
+1.72540675845E+006, +9.68396376039E+000, +5.15634330153E+001
+1.85043804756E+006, +9.67125485199E+000, +5.53036405426E+001
+1.97546933667E+006, +9.73144130967E+000, +5.90046431816E+001
+2.10050062578E+006, +9.67845037610E+000, +6.29357178246E+001
+2.22553191489E+006, +9.68268660524E+000, +6.64738534939E+001
+2.35056320401E+006, +9.71729831866E+000, +7.02896904740E+001
+2.47559449312E+006, +9.86966247012E+000, +7.40799378110E+001
+2.60062578223E+006, +9.88210737798E+000, +7.76360180005E+001
+2.72565707134E+006, +9.81836315037E+000, +8.14263428450E+001
+2.85068836045E+006, +9.93665797083E+000, +8.51638995109E+001
+2.97571964956E+006, +9.87604591225E+000, +8.89130885247E+001
+3.10075093867E+006, +9.99093512058E+000, +9.27016942847E+001
+3.22578222778E+006, +1.00090583432E+001, +9.64866595902E+001
+3.35081351690E+006, +1.00816440560E+001, +1.00040100332E+002
+3.47584480601E+006, +1.01592470624E+001, +1.03839950844E+002
+3.60087609512E+006, +1.01737475317E+001, +1.07808019438E+002
+3.72590738423E+006, +1.01489337673E+001, +1.11433730560E+002
+3.85093867334E+006, +1.01456397536E+001, +1.15468306135E+002
+3.97596996245E+006, +1.04089012919E+001, +1.19264006982E+002
+4.10100125156E+006, +1.02304351774E+001, +1.22727401313E+002
+4.22603254068E+006, +1.02616429761E+001, +1.26531958843E+002
+4.35106382979E+006, +1.02733529252E+001, +1.30684703710E+002
+4.47609511890E+006, +1.04646737031E+001, +1.34116582342E+002
+4.60112640801E+006, +1.05391038138E+001, +1.38478106379E+002
+4.72615769712E+006, +1.04164340241E+001, +1.42004550541E+002
+4.85118898623E+006, +1.07021024298E+001, +1.45933260190E+002
+4.97622027534E+006, +1.03756071877E+001, +1.49685360787E+002
+5.10125156446E+006, +1.05294318744E+001, +1.53296036104E+002
+5.22628285357E+006, +1.05405559837E+001, +1.57519951341E+002
+5.35131414268E+006, +1.05134050671E+001, +1.61014504606E+002
+5.47634543179E+006, +1.10058927509E+001, +1.64928920814E+002
+5.60137672090E+006, +1.04453631917E+001, +1.68979651569E+002
+5.72640801001E+006, +1.05650866013E+001, +1.72674506938E+002
+5.85143929912E+006, +1.10223804106E+001, +1.76415351916E+002
+5.97647058824E+006, +1.07509932470E+001, +1.80729478175E+002
+6.10150187735E+006, +1.11872330266E+001, +1.84686880116E+002
+6.22653316646E+006, +1.08493926553E+001, +1.88751060631E+002
+6.35156445557E+006, +1.12012135446E+001, +1.92353177608E+002
+6.47659574468E+006, +1.14212536213E+001, +1.96385345584E+002
+6.60162703379E+006, +1.13129521322E+001, +2.00517276263E+002
+6.72665832290E+006, +1.14876619766E+001, +2.04117327814E+002
+6.85168961202E+006, +1.13504827665E+001, +2.08352882586E+002
+6.97672090113E+006, +1.16289178637E+001, +2.12225255532E+002
+7.10175219024E+006, +1.14125556204E+001, +2.16345981823E+002
+7.22678347935E+006, +1.15561586563E+001, +2.20116323133E+002
+7.35181476846E+006, +1.18619715509E+001, +2.24458858260E+002
+7.47684605757E+006, +1.18132415764E+001, +2.28229167653E+002
+7.60187734668E+006, +1.18116272873E+001, +2.32463567360E+002
+7.72690863579E+006, +1.21891294166E+001, +2.36238275817E+002
+7.85193992491E+006, +1.20717394142E+001, +2.40477132768E+002
+7.97697121402E+006, +1.20652664938E+001, +2.44362524396E+002
+8.10200250313E+006, +1.21935619258E+001, +2.49136544549E+002
+8.22703379224E+006, +1.20275183862E+001, +2.52550046199E+002
+8.35206508135E+006, +1.21444374016E+001, +2.56670154887E+002
+8.47709637046E+006, +1.26172071983E+001, +2.60806513608E+002
+8.60212765957E+006, +1.23662270071E+001, +2.65119591965E+002
+8.72715894869E+006, +1.25705480631E+001, +2.69168075587E+002
+8.85219023780E+006, +1.21191559149E+001, +2.74047424198E+002
+8.97722152691E+006, +1.30680131433E+001, +2.77246505475E+002
+9.10225281602E+006, +1.29125418407E+001, +2.81939532002E+002
+9.22728410513E+006, +1.31379222877E+001, +2.85688426839E+002
+9.35231539424E+006, +1.26029155428E+001, +2.90318102189E+002
+9.47734668335E+006, +1.27266796100E+001, +2.94063230705E+002
+9.60237797247E+006, +1.29977601236E+001, +2.98623600161E+002
+9.72740926158E+006, +1.32468591700E+001, +3.02759125449E+002
+9.85244055069E+006, +1.29986652769E+001, +3.07146910977E+002
+9.97747183980E+006, +1.33459699938E+001, +3.11737173092E+002
+1.01025031289E+007, +1.27859421053E+001, +3.15653284413E+002
+1.02275344180E+007, +1.33144934620E+001, +3.19618056927E+002
+1.03525657071E+007, +1.31940289490E+001, +3.24380604676E+002
+1.04775969962E+007, +1.31171535342E+001, +3.28737765959E+002
+1.06026282854E+007, +1.37584979796E+001, +3.32569683006E+002
+1.07276595745E+007, +1.31203777306E+001, +3.37741283223E+002
+1.08526908636E+007, +1.35955362336E+001, +3.42110390929E+002
+1.09777221527E+007, +1.33462604980E+001, +3.46908436613E+002
+1.11027534418E+007, +1.37705829367E+001, +3.51655170504E+002
+1.12277847309E+007, +1.36287967392E+001, +3.55638720222E+002
+1.13528160200E+007, +1.36514473172E+001, +3.59754911395E+002
+1.14778473091E+007, +1.43057901793E+001, +3.65085956379E+002
+1.16028785982E+007, +1.40308197275E+001, +3.69217299868E+002
+1.17279098874E+007, +1.37938125503E+001, +3.73356809010E+002
+1.18529411765E+007, +1.41332031294E+001, +3.77663600003E+002
+1.19779724656E+007, +1.40540518260E+001, +3.82886702044E+002
+1.21030037547E+007, +1.42570392903E+001, +3.86804235818E+002
+1.22280350438E+007, +1.46979786387E+001, +3.91738302240E+002
+1.23530663329E+007, +1.34618125874E+001, +3.96312573626E+002
+1.24780976220E+007, +1.46883594515E+001, +4.00955889992E+002
+1.26031289111E+007, +1.34438873980E+001, +4.05137458505E+002
+1.27281602003E+007, +1.47524009249E+001, +4.10998161430E+002
+1.28531914894E+007, +1.50953870435E+001, +4.15344173060E+002
+1.29782227785E+007, +1.38642887794E+001, +4.20188252663E+002
+1.31032540676E+007, +1.48148593424E+001, +4.24967637632E+002
+1.32282853567E+007, +1.50635384563E+001, +4.30144558244E+002
+1.33533166458E+007, +1.52571574965E+001, +4.34424169190E+002
+1.34783479349E+007, +1.52606719360E+001, +4.40293172173E+002
+1.36033792240E+007, +1.54594811399E+001, +4.44296448115E+002
+1.37284105131E+007, +1.52268862752E+001, +4.50104346325E+002
+1.38534418023E+007, +1.47767272280E+001, +4.53945402291E+002
+1.39784730914E+007, +1.52770212890E+001, +4.58962686951E+002
+1.41035043805E+007, +1.47074426298E+001, +4.63500940922E+002
+1.42285356696E+007, +1.62656657840E+001, +4.70170508908E+002
+1.43535669587E+007, +1.51806857814E+001, +4.74629168345E+002
+1.44785982478E+007, +1.58702042347E+001, +4.80806353149E+002
+1.46036295369E+007, +1.55065870624E+001, +4.86734696280E+002
+1.47286608260E+007, +1.55416178200E+001, +4.90466678104E+002
+1.48536921151E+007, +1.53208885004E+001, +4.95498209894E+002
+1.49787234043E+007, +1.60427762137E+001, +5.00726396355E+002
+1.51037546934E+007, +1.53837737535E+001, +5.06138794557E+002
+1.52287859825E+007, +1.53631012310E+001, +5.10937385937E+002
+1.53538172716E+007, +1.67703209751E+001, +5.16609590854E+002
+1.54788485607E+007, +1.51907688963E+001, +5.23196598727E+002
+1.56038798498E+007, +1.52838257442E+001, +5.27670255471E+002
+1.57289111389E+007, +1.61435169864E+001, +5.32098533144E+002
+1.58539424280E+007, +1.65529174647E+001, +5.37475691089E+002
+1.59789737171E+007, +1.54282133052E+001, +5.43617769590E+002
+1.61040050063E+007, +1.67495955431E+001, +5.50843223863E+002
+1.62290362954E+007, +1.57665660511E+001, +5.55541424740E+002
+1.63540675845E+007, +1.86415135788E+001, +5.61634787121E+002
+1.64790988736E+007, +1.66634283789E+001, +5.67173987319E+002
+1.66041301627E+007, +1.66407530492E+001, +5.73104630663E+002
+1.67291614518E+007, +1.67982161076E+001, +5.77142112606E+002
+1.68541927409E+007, +1.55457198739E+001, +5.84470257739E+002
+1.69792240300E+007, +1.93287180422E+001, +5.92158774283E+002
+1.71042553191E+007, +1.39699603906E+001, +5.96032504150E+002
+1.72292866083E+007, +1.71815236537E+001, +6.02377210723E+002
+1.73543178974E+007, +1.44563070785E+001, +6.08911917230E+002
+1.74793491865E+007, +1.62781431397E+001, +6.15497875914E+002
+1.76043804756E+007, +1.63942782701E+001, +6.19567444054E+002
+1.77294117647E+007, +1.64654680966E+001, +6.27172168929E+002
+1.78544430538E+007, +1.76067291661E+001, +6.31359220370E+002
+1.79794743429E+007, +1.84502703153E+001, +6.38864499176E+002
+1.81045056320E+007, +1.48273894260E+001, +6.45519426447E+002
+1.82295369212E+007, +1.88793165028E+001, +6.52100448572E+002
+1.83545682103E+007, +1.83789955666E+001, +6.57938585896E+002
+1.84795994994E+007, +1.60244071220E+001, +6.65937566055E+002
+1.86046307885E+007, +2.05742368089E+001, +6.69623569130E+002
+1.87296620776E+007, +1.96689897775E+001, +6.79291517748E+002
+1.88546933667E+007, +1.82442616868E+001, +6.85109681600E+002
+1.89797246558E+007, +2.06077812427E+001, +6.92750425726E+002
+1.91047559449E+007, +1.88409046889E+001, +6.98165802295E+002
+1.92297872340E+007, +1.93508788141E+001, +7.00442158473E+002
+1.93548185232E+007, +2.43183698800E+001, +7.10889115422E+002
+1.94798498123E+007, +1.97932187001E+001, +7.19377866115E+002
+1.96048811014E+007, +1.95861684628E+001, +7.25212026677E+002
+1.97299123905E+007, +1.92939053780E+001, +7.30130283464E+002
+1.98549436796E+007, +1.96292522135E+001, +7.39948051366E+002
+1.99799749687E+007, +2.09394672660E+001, +7.50341754899E+002
+2.01050062578E+007, +2.20268479232E+001, +7.55130036473E+002
+2.02300375469E+007, +2.08366495289E+001, +7.61428448071E+002
+2.03550688360E+007, +2.40578654143E+001, +7.70464770307E+002
+2.04801001252E+007, +2.06794051544E+001, +7.77907049686E+002
+2.06051314143E+007, +2.21496210454E+001, +7.85644384502E+002
+2.07301627034E+007, +2.30125689091E+001, +7.93292187195E+002
+2.08551939925E+007, +2.57380469738E+001, +8.01692189681E+002
+2.09802252816E+007, +2.59098110452E+001, +8.09507930168E+002
+2.11052565707E+007, +2.42211329411E+001, +8.15692898826E+002
+2.12302878598E+007, +2.67360762034E+001, +8.23523453439E+002
+2.13553191489E+007, +2.68248031627E+001, +8.31368342726E+002
+2.14803504380E+007, +2.61984776065E+001, +8.40276224525E+002
+2.16053817272E+007, +2.99494042009E+001, +8.50645802228E+002
+2.17304130163E+007, +2.82786256355E+001, +8.57251911932E+002
+2.18554443054E+007, +2.98579468575E+001, +8.66555164386E+002
+2.19804755945E+007, +2.90669053316E+001, +8.71656927807E+002
+2.21055068836E+007, +3.06058954124E+001, +8.81772731983E+002
+2.22305381727E+007, +3.73622852620E+001, +8.94208666074E+002
+2.23555694618E+007, +3.33312567551E+001, +9.01325379192E+002
+2.24806007509E+007, +3.53732212055E+001, +9.06508556863E+002
+2.26056320401E+007, +3.49018254778E+001, +9.15340403203E+002
+2.27306633292E+007, +3.61769661531E+001, +9.27697811693E+002
+2.28556946183E+007, +3.83625904462E+001, +9.29094772456E+002
+2.29807259074E+007, +3.96230151241E+001, +9.39804011608E+002
+2.31057571965E+007, +4.08159150523E+001, +9.48058522486E+002
+2.32307884856E+007, +4.27665185008E+001, +9.54567371764E+002
+2.33558197747E+007, +4.48875750551E+001, +9.64322820216E+002
+2.34808510638E+007, +4.34629408291E+001, +9.77537106358E+002
+2.36058823529E+007, +5.00152986130E+001, +9.76094508671E+002
+2.37309136421E+007, +4.51629700721E+001, +9.93098318322E+002
+2.38559449312E+007, +4.85004273733E+001, +1.00213097409E+003
+2.39809762203E+007, +4.77061384128E+001, +1.00898860464E+003
+2.41060075094E+007, +5.06768256062E+001, +1.02618180346E+003
+2.42310387985E+007, +4.61940337273E+001, +1.02910475494E+003
+2.43560700876E+007, +4.34688165782E+001, +1.03088948651E+003
+2.44811013767E+007, +4.85901766609E+001, +1.03963140826E+003
+2.46061326658E+007, +4.69368901157E+001, +1.05539725158E+003
+2.47311639549E+007, +4.72993587354E+001, +1.05942612232E+003
+2.48561952441E+007, +4.49296662483E+001, +1.07858976461E+003
+2.49812265332E+007, +4.81022452544E+001, +1.08659311534E+003
+2.51062578223E+007, +4.52492663605E+001, +1.09961517262E+003
+2.52312891114E+007, +4.86615948827E+001, +1.10866978960E+003
+2.53563204005E+007, +4.44515991899E+001, +1.12031492211E+003
+2.54813516896E+007, +4.10795199777E+001, +1.13804929464E+003
+2.56063829787E+007, +5.38678434634E+001, +1.14834753580E+003
+2.57314142678E+007, +4.92782271652E+001, +1.15589877840E+003
+2.58564455569E+007, +4.99999187589E+001, +1.16148869735E+003
+2.59814768461E+007, +5.79673075082E+001, +1.17345438749E+003
+2.61065081352E+007, +4.97471662146E+001, +1.18813017648E+003
+2.62315394243E+007, +4.98436717936E+001, +1.20007088445E+003
+2.63565707134E+007, +5.16713544885E+001, +1.22223763424E+003
+2.64816020025E+007, +5.20869195495E+001, +1.22740766325E+003
+2.66066332916E+007, +5.37424000598E+001, +1.24151547206E+003
+2.67316645807E+007, +4.58750393715E+001, +1.25516411662E+003
+2.68566958698E+007, +5.04878373307E+001, +1.27760567215E+003
+2.69817271589E+007, +4.26557813885E+001, +1.28671533516E+003
+2.71067584481E+007, +5.55787289800E+001, +1.29884159478E+003
+2.72317897372E+007, +5.38424684200E+001, +1.31169802776E+003
+2.73568210263E+007, +6.52686447236E+001, +1.32814427623E+003
+2.74818523154E+007, +5.43163321181E+001, +1.34815487649E+003
+2.76068836045E+007, +6.04421908038E+001, +1.37182197085E+003
+2.77319148936E+007, +5.51038947174E+001, +1.37171141085E+003
+2.78569461827E+007, +5.43178021958E+001, +1.37854399585E+003
+2.79819774718E+007, +4.73213393943E+001, +1.40925654680E+003
+2.81070087610E+007, +6.35311985931E+001, +1.42908970414E+003
+2.82320400501E+007, +5.71426598032E+001, +1.43816052859E+003
+2.83570713392E+007, +5.81430330980E+001, +1.45930067277E+003
+2.84821026283E+007, +5.86647289975E+001, +1.47532548323E+003
+2.86071339174E+007, +5.37987105555E+001, +1.49606048384E+003
+2.87321652065E+007, +7.09483407340E+001, +1.50193155917E+003
+2.88571964956E+007, +7.06001346899E+001, +1.51110464735E+003
+2.89822277847E+007, +6.73162600861E+001, +1.54672391989E+003
+2.91072590738E+007, +6.83510534730E+001, +1.56544857713E+003
+2.92322903630E+007, +6.87348379247E+001, +1.59375830346E+003
+2.93573216521E+007, +6.81781399930E+001, +1.59936106075E+003
+2.94823529412E+007, +6.59366158208E+001, +1.61908826678E+003
+2.96073842303E+007, +6.90220634414E+001, +1.62438016310E+003
+2.97324155194E+007, +7.02296613571E+001, +1.67104034611E+003
+2.98574468085E+007, +6.87000253930E+001, +1.68698189340E+003
+2.99824780976E+007, +7.69919136623E+001, +1.70635614559E+003
+3.01075093867E+007, +8.57210046576E+001, +1.72031567171E+003
+3.02325406758E+007, +6.60481476130E+001, +1.74474197621E+003
+3.03575719650E+007, +6.93927304500E+001, +1.76746431121E+003
+3.04826032541E+007, +7.35622405186E+001, +1.81521035683E+003
+3.06076345432E+007, +7.37386240336E+001, +1.81984235951E+003
+3.07326658323E+007, +9.46424934019E+001, +1.85971949066E+003
+3.08576971214E+007, +8.57638963582E+001, +1.87112790467E+003
+3.09827284105E+007, +7.31549658171E+001, +1.88149249082E+003
+3.11077596996E+007, +9.30751137058E+001, +1.92547109244E+003
+3.12327909887E+007, +8.73043109621E+001, +1.96417311259E+003
+3.13578222778E+007, +9.93664177230E+001, +1.97286315681E+003
+3.14828535670E+007, +9.74152314304E+001, +2.00298641025E+003
+3.16078848561E+007, +8.13994973853E+001, +2.03854782200E+003
+3.17329161452E+007, +1.09080152375E+002, +2.06213091528E+003
+3.18579474343E+007, +7.00254510021E+001, +2.08294013705E+003
+3.19829787234E+007, +1.22809583125E+002, +2.10651695686E+003
+3.21080100125E+007, +1.06243182352E+002, +2.16701115376E+003
+3.22330413016E+007, +1.16951393618E+002, +2.18530682715E+003
+3.23580725907E+007, +1.11357976722E+002, +2.20435135400E+003
+3.24831038798E+007, +1.29625764762E+002, +2.26752893151E+003
+3.26081351690E+007, +1.14059574524E+002, +2.27276287262E+003
+3.27331664581E+007, +1.20531579763E+002, +2.33880830654E+003
+3.28581977472E+007, +1.21120451159E+002, +2.36925410981E+003
+3.29832290363E+007, +1.45678741506E+002, +2.40439518966E+003
+3.31082603254E+007, +1.20002858891E+002, +2.44693512986E+003
+3.32332916145E+007, +1.49204074593E+002, +2.50032980347E+003
+3.33583229036E+007, +1.34799108791E+002, +2.53015872539E+003
+3.34833541927E+007, +1.35825674168E+002, +2.59456553695E+003
+3.36083854819E+007, +1.57804495847E+002, +2.61180350903E+003
+3.37334167710E+007, +1.53399005926E+002, +2.66393375420E+003
+3.38584480601E+007, +1.68298192151E+002, +2.68881374614E+003
+3.39834793492E+007, +1.51384480787E+002, +2.76190479204E+003
+3.41085106383E+007, +2.07292834825E+002, +2.81282906634E+003
+3.42335419274E+007, +1.94768626038E+002, +2.85040135604E+003
+3.43585732165E+007, +1.91296533483E+002, +2.91719888866E+003
+3.44836045056E+007, +2.41305329821E+002, +2.99622912909E+003
+3.46086357947E+007, +1.81422240028E+002, +3.06063917179E+003
+3.47336670839E+007, +2.40553362575E+002, +3.06522247865E+003
+3.48586983730E+007, +2.54820648301E+002, +3.13041527699E+003
+3.49837296621E+007, +2.83862105037E+002, +3.28427796359E+003
+3.51087609512E+007, +2.56685194460E+002, +3.31888311001E+003
+3.52337922403E+007, +3.22744553937E+002, +3.38253939273E+003
+3.53588235294E+007, +2.77699652288E+002, +3.46974781934E+003
+3.54838548185E+007, +2.86973416003E+002, +3.53184037044E+003
+3.56088861076E+007, +2.96062281822E+002, +3.62848856443E+003
+3.57339173967E+007, +3.75275788392E+002, +3.70635797111E+003
+3.58589486859E+007, +3.93927789499E+002, +3.79768728982E+003
+3.59839799750E+007, +3.67354593257E+002, +3.95770615043E+003
+3.61090112641E+007, +4.35509913920E+002, +4.03127375740E+003
+3.62340425532E+007, +3.56902655081E+002, +4.11819529484E+003
+3.63590738423E+007, +4.78301366229E+002, +4.33811261198E+003
+3.64841051314E+007, +5.78343064256E+002, +4.25967094748E+003
+3.66091364205E+007, +4.79312729776E+002, +4.50828159444E+003
+3.67341677096E+007, +6.16609889312E+002, +4.55698184373E+003
+3.68591989987E+007, +5.97955819759E+002, +4.73016446028E+003
+3.69842302879E+007, +5.47502745268E+002, +4.91930697702E+003
+3.71092615770E+007, +8.36038880490E+002, +5.10926197426E+003
+3.72342928661E+007, +8.09661254227E+002, +5.40166731892E+003
+3.73593241552E+007, +8.63587031754E+002, +5.27805551770E+003
+3.74843554443E+007, +8.90186346394E+002, +5.58745963455E+003
+3.76093867334E+007, +9.90465524109E+002, +5.77480542295E+003
+3.77344180225E+007, +1.12055160329E+003, +5.79776212457E+003
+3.78594493116E+007, +1.31916844434E+003, +6.21963653732E+003
+3.79844806008E+007, +1.25022139766E+003, +6.19246760778E+003
+3.81095118899E+007, +1.36052279438E+003, +6.39359608186E+003
+3.82345431790E+007, +1.68149842937E+003, +7.12183731395E+003
+3.83595744681E+007, +1.83581774847E+003, +7.07767054595E+003
+3.84846057572E+007, +1.95293595063E+003, +7.28236394017E+003
+3.86096370463E+007, +2.11340658184E+003, +7.63908616306E+003
+3.87346683354E+007, +2.46176361543E+003, +8.13631324461E+003
+3.88596996245E+007, +2.58498768783E+003, +8.50283389875E+003
+3.89847309136E+007, +2.93301653808E+003, +8.76929604581E+003
+3.91097622028E+007, +2.67730172656E+003, +9.29856630952E+003
+3.92347934919E+007, +3.58655665989E+003, +9.17263806449E+003
+3.93598247810E+007, +4.19621077732E+003, +1.07878735717E+004
+3.94848560701E+007, +4.81452722417E+003, +1.03921326064E+004
+3.96098873592E+007, +5.35083478970E+003, +1.05401385434E+004
+3.97349186483E+007, +5.97096808481E+003, +1.21617120553E+004
+3.98599499374E+007, +7.10399623217E+003, +1.21027095591E+004
+3.99849812265E+007, +8.54950520206E+003, +1.22641091857E+004
+4.01100125156E+007, +9.08680226155E+003, +1.29175838208E+004
