"# Channel 1"
"# Trace 1"
Frequency, Formatted Data, Formatted Data
+1.00000000000E+005, +1.09522792796E+002, +2.96079066826E+000
+3.18898623279E+005, +1.09558511405E+002, +1.00864202129E+001
+5.37797246558E+005, +1.09503378949E+002, +1.70636087883E+001
+7.56695869837E+005, +1.09561674034E+002, +2.38934842049E+001
+9.75594493116E+005, +1.09616770195E+002, +3.08287585923E+001
+1.19449311640E+006, +1.09586547979E+002, +3.76061506184E+001
+1.41339173967E+006, +1.09508881665E+002, +4.46836388968E+001
+1.63229036295E+006, +1.09554310090E+002, +5.15709122550E+001
+1.85118898623E+006, +1.09639081379E+002, +5.84458873214E+001
+2.07008760951E+006, +1.09772985176E+002, +6.52807097639E+001
+2.28898623279E+006, +1.09717056997E+002, +7.23166208744E+001
+2.50788485607E+006, +1.09759972304E+002, +7.90991370003E+001
+2.72678347935E+006, +1.10108141434E+002, +8.64379273425E+001
+2.94568210263E+006, +1.09919497051E+002, +9.34074076657E+001
+3.16458072591E+006, +1.09736389362E+002, +1.00426264208E+002
+3.38347934919E+006, +1.10140109287E+002, +1.07118999615E+002
+3.60237797247E+006, +1.10064404991E+002, +1.13656740959E+002
+3.82127659574E+006, +1.10438307410E+002, +1.20744429181E+002
+4.04017521902E+006, +1.10840738328E+002, +1.27831071594E+002
+4.25907384230E+006, +1.10501046901E+002, +1.34888195472E+002
+4.47797246558E+006, +1.10654498957E+002, +1.42094042383E+002
+4.69687108886E+006, +1.10819297766E+002, +1.49326605838E+002
+4.91576971214E+006, +1.11301983604E+002, +1.56503442424E+002
+5.13466833542E+006, +1.11293949055E+002, +1.63193708755E+002
+5.35356695870E+006, +1.11730819585E+002, +1.70098542037E+002
+5.57246558198E+006, +1.12168914313E+002, +1.77140750353E+002
+5.79136420526E+006, +1.12794943990E+002, +1.84243707407E+002
+6.01026282854E+006, +1.12640276249E+002, +1.91116248515E+002
+6.22916145181E+006, +1.12791687650E+002, +1.99026101404E+002
+6.44806007509E+006, +1.13356303431E+002, +2.05696454509E+002
+6.66695869837E+006, +1.13598020483E+002, +2.12941087179E+002
+6.88585732165E+006, +1.13970178810E+002, +2.20680884136E+002
+7.10475594493E+006, +1.14333035225E+002, +2.27412306787E+002
+7.32365456821E+006, +1.15007929831E+002, +2.35187529253E+002
+7.54255319149E+006, +1.15155091177E+002, +2.41810869834E+002
+7.76145181477E+006, +1.15643696775E+002, +2.49451655069E+002
+7.98035043805E+006, +1.16290022000E+002, +2.56735622339E+002
+8.19924906133E+006, +1.15974414122E+002, +2.64166333612E+002
+8.41814768461E+006, +1.17103303317E+002, +2.71898986631E+002
+8.63704630788E+006, +1.17035739487E+002, +2.79123199268E+002
+8.85594493116E+006, +1.17929045171E+002, +2.86580394778E+002
+9.07484355444E+006, +1.17904850193E+002, +2.94744112660E+002
+9.29374217772E+006, +1.18465154511E+002, +3.02224235583E+002
+9.51264080100E+006, +1.19006513266E+002, +3.09984552207E+002
+9.73153942428E+006, +1.19947913717E+002, +3.17846852550E+002
+9.95043804756E+006, +1.20229003360E+002, +3.25557897440E+002
+1.01693366708E+007, +1.20672723471E+002, +3.32864723060E+002
+1.03882352941E+007, +1.20958369914E+002, +3.40636440158E+002
+1.06071339174E+007, +1.21103312532E+002, +3.48942126122E+002
+1.08260325407E+007, +1.21508942021E+002, +3.56373569705E+002
+1.10449311640E+007, +1.22435454463E+002, +3.64931717097E+002
+1.12638297872E+007, +1.23488963528E+002, +3.73954868711E+002
+1.14827284105E+007, +1.24146503564E+002, +3.81959157000E+002
+1.17016270338E+007, +1.24278608440E+002, +3.89717226425E+002
+1.19205256571E+007, +1.24737680143E+002, +3.97540389077E+002
+1.21394242804E+007, +1.25841145388E+002, +4.05542654407E+002
+1.23583229036E+007, +1.27453937150E+002, +4.15003131378E+002
+1.25772215269E+007, +1.27001975695E+002, +4.23052889796E+002
+1.27961201502E+007, +1.28541532678E+002, +4.31341245019E+002
+1.30150187735E+007, +1.28599231591E+002, +4.39877889934E+002
+1.32339173967E+007, +1.29280304599E+002, +4.48323152249E+002
+1.34528160200E+007, +1.29021540298E+002, +4.56939558503E+002
+1.36717146433E+007, +1.30008772082E+002, +4.65477520869E+002
+1.38906132666E+007, +1.32434143932E+002, +4.75979664490E+002
+1.41095118899E+007, +1.33054775186E+002, +4.84747643091E+002
+1.43284105131E+007, +1.32856468768E+002, +4.93339611726E+002
+1.45473091364E+007, +1.33030445705E+002, +5.02488205945E+002
+1.47662077597E+007, +1.34548943912E+002, +5.10401999509E+002
+1.49851063830E+007, +1.36845444096E+002, +5.20579658351E+002
+1.52040050063E+007, +1.37756508117E+002, +5.31239057621E+002
+1.54229036295E+007, +1.38228860050E+002, +5.40869836052E+002
+1.56418022528E+007, +1.38036785049E+002, +5.50615083299E+002
+1.58607008761E+007, +1.40555943901E+002, +5.59179201905E+002
+1.60795994994E+007, +1.41402819730E+002, +5.70660722477E+002
+1.62984981227E+007, +1.42455241305E+002, +5.78912084557E+002
+1.65173967459E+007, +1.43198370883E+002, +5.89372128238E+002
+1.67362953692E+007, +1.44874057172E+002, +5.98983762862E+002
+1.69551939925E+007, +1.45362641108E+002, +6.06586488929E+002
+1.71740926158E+007, +1.41665722984E+002, +6.22928409941E+002
+1.73929912390E+007, +1.43547944881E+002, +6.32353604823E+002
+1.76118898623E+007, +1.46768864510E+002, +6.40939893017E+002
+1.78307884856E+007, +1.51206366107E+002, +6.51297574683E+002
+1.80496871089E+007, +1.51787842937E+002, +6.62571971421E+002
+1.82685857322E+007, +1.55491046585E+002, +6.76519507358E+002
+1.84874843554E+007, +1.55941684750E+002, +6.84178756016E+002
+1.87063829787E+007, +1.55729835918E+002, +6.95755819565E+002
+1.89252816020E+007, +1.60013465860E+002, +7.10813017776E+002
+1.91441802253E+007, +1.61035562761E+002, +7.18061027198E+002
+1.93630788486E+007, +1.59980311755E+002, +7.30431031564E+002
+1.95819774718E+007, +1.66312189887E+002, +7.40789406717E+002
+1.98008760951E+007, +1.66071335020E+002, +7.55451344214E+002
+2.00197747184E+007, +1.67221865823E+002, +7.67180393380E+002
+2.02386733417E+007, +1.69175930336E+002, +7.80492276247E+002
+2.04575719650E+007, +1.71686602850E+002, +7.90979580536E+002
+2.06764705882E+007, +1.70900450410E+002, +8.05962114534E+002
+2.08953692115E+007, +1.76659718342E+002, +8.19950436557E+002
+2.11142678348E+007, +1.78975438933E+002, +8.28241002253E+002
+2.13331664581E+007, +1.80804892525E+002, +8.43664746364E+002
+2.15520650814E+007, +1.84477275823E+002, +8.54548803699E+002
+2.17709637046E+007, +1.85317391758E+002, +8.72648442396E+002
+2.19898623279E+007, +1.92066633701E+002, +8.85748385699E+002
+2.22087609512E+007, +1.86849464825E+002, +8.96695109690E+002
+2.24276595745E+007, +2.00265325708E+002, +9.11060231697E+002
+2.26465581977E+007, +1.99138280109E+002, +9.25516137179E+002
+2.28654568210E+007, +2.05904749901E+002, +9.37125479381E+002
+2.30843554443E+007, +2.05057563159E+002, +9.53709149820E+002
+2.33032540676E+007, +2.07781189644E+002, +9.68462230031E+002
+2.35221526909E+007, +2.16985226610E+002, +9.84647947284E+002
+2.37410513141E+007, +2.16291739118E+002, +9.95299419355E+002
+2.39599499374E+007, +2.17991004197E+002, +1.01372249791E+003
+2.41788485607E+007, +2.22711207665E+002, +1.03177489296E+003
+2.43977471840E+007, +2.26755009071E+002, +1.04758066541E+003
+2.46166458073E+007, +2.31776023535E+002, +1.06405012996E+003
+2.48355444305E+007, +2.34856973725E+002, +1.07214177396E+003
+2.50544430538E+007, +2.39724320314E+002, +1.09505813286E+003
+2.52733416771E+007, +2.50835357746E+002, +1.11067048712E+003
+2.54922403004E+007, +2.50374502540E+002, +1.13134836356E+003
+2.57111389237E+007, +2.57999500729E+002, +1.14749192749E+003
+2.59300375469E+007, +2.52939016789E+002, +1.16239190286E+003
+2.61489361702E+007, +2.56047159845E+002, +1.17736215654E+003
+2.63678347935E+007, +2.56732474705E+002, +1.20079050238E+003
+2.65867334168E+007, +2.78016588760E+002, +1.21452140741E+003
+2.68056320401E+007, +2.79147639545E+002, +1.23896686918E+003
+2.70245306633E+007, +2.75731313342E+002, +1.25388782820E+003
+2.72434292866E+007, +2.77454256036E+002, +1.27583118329E+003
+2.74623279099E+007, +2.84559064703E+002, +1.30082462615E+003
+2.76812265332E+007, +2.79024116215E+002, +1.32733907153E+003
+2.79001251564E+007, +2.93171765476E+002, +1.35576294125E+003
+2.81190237797E+007, +2.98484205680E+002, +1.36050515575E+003
+2.83379224030E+007, +3.01732865183E+002, +1.39224824383E+003
+2.85568210263E+007, +3.02409312848E+002, +1.41334132319E+003
+2.87757196496E+007, +3.07297280230E+002, +1.44692802120E+003
+2.89946182728E+007, +3.16592281155E+002, +1.48221223267E+003
+2.92135168961E+007, +3.17529048559E+002, +1.51383088326E+003
+2.94324155194E+007, +3.39762628528E+002, +1.53692622491E+003
+2.96513141427E+007, +3.41600085271E+002, +1.56680065918E+003
+2.98702127660E+007, +3.50458609827E+002, +1.58889173364E+003
+3.00891113892E+007, +3.57587653875E+002, +1.61845072854E+003
+3.03080100125E+007, +3.74641525080E+002, +1.62770636809E+003
+3.05269086358E+007, +3.88688711598E+002, +1.67983476676E+003
+3.07458072591E+007, +3.89719703136E+002, +1.70163306085E+003
+3.09647058824E+007, +4.01644034374E+002, +1.73413386137E+003
+3.11836045056E+007, +4.09091788187E+002, +1.78680864039E+003
+3.14025031289E+007, +4.15204058278E+002, +1.81325809386E+003
+3.16214017522E+007, +4.31364684241E+002, +1.82757765132E+003
+3.18403003755E+007, +4.50400568565E+002, +1.90562924841E+003
+3.20591989987E+007, +4.54343146601E+002, +1.92661071916E+003
+3.22780976220E+007, +4.64206702142E+002, +1.96851905837E+003
+3.24969962453E+007, +4.61077567986E+002, +2.00856489047E+003
+3.27158948686E+007, +4.78211547523E+002, +2.04378099618E+003
+3.29347934919E+007, +4.89298728685E+002, +2.08078323259E+003
+3.31536921151E+007, +5.33978721572E+002, +2.12097821471E+003
+3.33725907384E+007, +5.40764178204E+002, +2.17376625963E+003
+3.35914893617E+007, +5.58344185867E+002, +2.25729651715E+003
+3.38103879850E+007, +5.71336190095E+002, +2.30167465396E+003
+3.40292866083E+007, +5.98636639655E+002, +2.36488904109E+003
+3.42481852315E+007, +6.51107887697E+002, +2.39897301801E+003
+3.44670838548E+007, +6.59961063510E+002, +2.46946233366E+003
+3.46859824781E+007, +7.12101911768E+002, +2.50504003215E+003
+3.49048811014E+007, +7.74644127020E+002, +2.58183437193E+003
+3.51237797247E+007, +7.65350508326E+002, +2.64833107059E+003
+3.53426783479E+007, +8.03184853329E+002, +2.72708081230E+003
+3.55615769712E+007, +8.42525220623E+002, +2.79601663414E+003
+3.57804755945E+007, +8.64706804677E+002, +2.80557831858E+003
+3.59993742178E+007, +9.23519785817E+002, +3.00688960704E+003
+3.62182728411E+007, +9.30440759348E+002, +3.00040469030E+003
+3.64371714643E+007, +9.86191811254E+002, +3.08471371524E+003
+3.66560700876E+007, +1.09309916285E+003, +3.21311162009E+003
+3.68749687109E+007, +1.16110202357E+003, +3.34906735936E+003
+3.70938673342E+007, +1.23066073672E+003, +3.43494429327E+003
+3.73127659574E+007, +1.22696509326E+003, +3.52687499685E+003
+3.75316645807E+007, +1.26389517474E+003, +3.59995174427E+003
+3.77505632040E+007, +1.40321438185E+003, +3.82017156693E+003
+3.79694618273E+007, +1.61665862231E+003, +3.78589784913E+003
+3.81883604506E+007, +1.55562564701E+003, +4.02603212953E+003
+3.84072590738E+007, +1.68149976376E+003, +4.22567288170E+003
+3.86261576971E+007, +1.84832406993E+003, +4.33674625131E+003
+3.88450563204E+007, +1.93437448769E+003, +4.48185727846E+003
+3.90639549437E+007, +2.19553328346E+003, +4.38257794488E+003
+3.92828535670E+007, +2.36288221256E+003, +4.67643527787E+003
+3.95017521902E+007, +2.52914785131E+003, +4.78701195160E+003
+3.97206508135E+007, +2.92062476723E+003, +5.17169989080E+003
+3.99395494368E+007, +3.07481361057E+003, +5.12789221549E+003
+4.01584480601E+007, +3.43195990732E+003, +5.31967495674E+003
+4.03773466834E+007, +3.85749883673E+003, +5.48530731977E+003
+4.05962453066E+007, +4.15594903516E+003, +5.83874461970E+003
+4.08151439299E+007, +4.65815670569E+003, +5.70208145937E+003
+4.10340425532E+007, +5.20776246721E+003, +5.97011004389E+003
+4.12529411765E+007, +5.59927397999E+003, +6.44221623373E+003
+4.14718397997E+007, +6.31494940064E+003, +6.22675612055E+003
+4.16907384230E+007, +7.23437706482E+003, +6.19237491646E+003
+4.19096370463E+007, +8.21231934549E+003, +5.72128841796E+003
+4.21285356696E+007, +8.55413164888E+003, +5.72362051812E+003
+4.23474342929E+007, +9.86899124858E+003, +5.30614860963E+003
+4.25663329161E+007, +1.03801688629E+004, +3.98216412951E+003
+4.27852315394E+007, +1.18478641849E+004, +3.71941789296E+003
+4.30041301627E+007, +1.23355936643E+004, +2.35274142811E+003
+4.32230287860E+007, +1.23389975305E+004, +8.62179248907E+002
+4.34419274093E+007, +1.29011347494E+004, -2.09985502571E+002
+4.36608260325E+007, +1.25228909776E+004, -1.90524199400E+003
+4.38797246558E+007, +1.18020069752E+004, -3.39325154702E+003
+4.40986232791E+007, +1.11532168109E+004, -5.11592439123E+003
+4.43175219024E+007, +1.04016360096E+004, -4.96485510874E+003
+4.45364205257E+007, +8.93101061669E+003, -5.62543474912E+003
+4.47553191489E+007, +8.36127682555E+003, -6.06643756741E+003
+4.49742177722E+007, +7.38203302240E+003, -6.61051430071E+003
+4.51931163955E+007, +7.08478798388E+003, -6.41947760949E+003
+4.54120150188E+007, +6.29743663872E+003, -6.36857093323E+003
+4.56309136421E+007, +5.59133647092E+003, -6.16208176604E+003
+4.58498122653E+007, +5.03861289668E+003, -6.41916283905E+003
+4.60687108886E+007, +4.30949582117E+003, -6.27015696520E+003
+4.62876095119E+007, +3.93813107232E+003, -5.89968986160E+003
+4.65065081352E+007, +3.60898022187E+003, -5.73772305058E+003
+4.67254067584E+007, +3.33789056221E+003, -5.52305679221E+003
+4.69443053817E+007, +3.12547031918E+003, -5.39664641758E+003
+4.71632040050E+007, +2.66795896455E+003, -5.25233748424E+003
+4.73821026283E+007, +2.46318577365E+003, -5.04797685994E+003
+4.76010012516E+007, +2.21815439852E+003, -4.82925665291E+003
+4.78198998748E+007, +1.98351245695E+003, -4.72069628881E+003
+4.80387984981E+007, +1.89951182616E+003, -4.55505339499E+003
+4.82576971214E+007, +1.71186913319E+003, -4.38857084455E+003
+4.84765957447E+007, +1.66766900557E+003, -4.30113777615E+003
+4.86954943680E+007, +1.51296783084E+003, -4.11127114669E+003
+4.89143929912E+007, +1.40799872605E+003, -3.98252257151E+003
+4.91332916145E+007, +1.35694383943E+003, -3.87735995719E+003
+4.93521902378E+007, +1.27045402843E+003, -3.72232860282E+003
+4.95710888611E+007, +1.19439943333E+003, -3.60052286448E+003
+4.97899874844E+007, +1.23862063185E+003, -3.53983170338E+003
+5.00088861076E+007, +1.07214368966E+003, -3.48042294113E+003
+5.02277847309E+007, +1.01100246460E+003, -3.30993943682E+003
+5.04466833542E+007, +9.71850172104E+002, -3.19749989708E+003
+5.06655819775E+007, +8.88689751562E+002, -3.14818974431E+003
+5.08844806008E+007, +8.48364110105E+002, -3.06247614003E+003
+5.11033792240E+007, +8.11340930194E+002, -2.99727456234E+003
+5.13222778473E+007, +7.44984327521E+002, -2.89295469750E+003
+5.15411764706E+007, +7.40504022995E+002, -2.83292647192E+003
+5.17600750939E+007, +6.72062146902E+002, -2.74802009407E+003
+5.19789737171E+007, +6.62593626466E+002, -2.68625188745E+003
+5.21978723404E+007, +6.23889496287E+002, -2.60315793049E+003
+5.24167709637E+007, +5.77866264394E+002, -2.56692186723E+003
+5.26356695870E+007, +6.10554194056E+002, -2.50548035850E+003
+5.28545682103E+007, +5.80050543314E+002, -2.40993222639E+003
+5.30734668335E+007, +5.33905526506E+002, -2.35588273825E+003
+5.32923654568E+007, +4.88318288108E+002, -2.31531976495E+003
+5.35112640801E+007, +5.07681905884E+002, -2.27031901100E+003
+5.37301627034E+007, +4.68024186228E+002, -2.19916257665E+003
+5.39490613267E+007, +4.47172632612E+002, -2.15242032510E+003
+5.41679599499E+007, +4.22587178949E+002, -2.12355488885E+003
+5.43868585732E+007, +4.03084437585E+002, -2.06621259476E+003
+5.46057571965E+007, +4.01767409044E+002, -2.02079871745E+003
+5.48246558198E+007, +4.00084813655E+002, -1.99216056641E+003
+5.50435544431E+007, +3.79946330036E+002, -1.93695386536E+003
+5.52624530663E+007, +3.62648780246E+002, -1.89843516044E+003
+5.54813516896E+007, +3.75975955531E+002, -1.88036612393E+003
+5.57002503129E+007, +3.65868012923E+002, -1.82569001465E+003
+5.59191489362E+007, +3.50998476241E+002, -1.78823451589E+003
+5.61380475594E+007, +3.32840472098E+002, -1.76597506123E+003
+5.63569461827E+007, +3.23172204420E+002, -1.73014504392E+003
+5.65758448060E+007, +3.20590611492E+002, -1.69920129779E+003
+5.67947434293E+007, +3.22430284871E+002, -1.66130403434E+003
+5.70136420526E+007, +3.16932909357E+002, -1.62748956238E+003
+5.72325406758E+007, +3.14311609234E+002, -1.60432356768E+003
+5.74514392991E+007, +3.02828608815E+002, -1.57306507009E+003
+5.76703379224E+007, +3.06195876136E+002, -1.55253049991E+003
+5.78892365457E+007, +2.90497400954E+002, -1.52305808642E+003
+5.81081351690E+007, +2.95281144188E+002, -1.48364526717E+003
+5.83270337922E+007, +2.79620088694E+002, -1.47010562596E+003
+5.85459324155E+007, +2.85889510028E+002, -1.44074768291E+003
+5.87648310388E+007, +2.78054684473E+002, -1.42019032550E+003
+5.89837296621E+007, +2.72185487511E+002, -1.39686931668E+003
+5.92026282854E+007, +2.65402045769E+002, -1.37198442897E+003
+5.94215269086E+007, +2.64666736437E+002, -1.34889157959E+003
+5.96404255319E+007, +2.56574631866E+002, -1.32782309443E+003
+5.98593241552E+007, +2.60643687493E+002, -1.30788925966E+003
+6.00782227785E+007, +2.56417050427E+002, -1.28483248957E+003
+6.02971214018E+007, +2.46328045972E+002, -1.26351189312E+003
+6.05160200250E+007, +2.48136807269E+002, -1.24130163878E+003
+6.07349186483E+007, +2.42780941360E+002, -1.22722173063E+003
+6.09538172716E+007, +2.40405194237E+002, -1.20530435885E+003
+6.11727158949E+007, +2.43449736730E+002, -1.18437116873E+003
+6.13916145181E+007, +2.34152176187E+002, -1.16841206069E+003
+6.16105131414E+007, +2.29468843133E+002, -1.15685394375E+003
+6.18294117647E+007, +2.30216401149E+002, -1.13328935851E+003
+6.20483103880E+007, +2.24447962504E+002, -1.12275697870E+003
+6.22672090113E+007, +2.27266630105E+002, -1.09716339805E+003
+6.24861076345E+007, +2.25880935414E+002, -1.08258076067E+003
+6.27050062578E+007, +2.22300532433E+002, -1.06574353645E+003
+6.29239048811E+007, +2.10917844018E+002, -1.04854934284E+003
+6.31428035044E+007, +2.08085076871E+002, -1.03318191557E+003
+6.33617021277E+007, +2.11423274010E+002, -1.01470805956E+003
+6.35806007509E+007, +2.07605340584E+002, -9.99059793663E+002
+6.37994993742E+007, +2.04188465438E+002, -9.87241999013E+002
+6.40183979975E+007, +2.06436382058E+002, -9.69348403459E+002
+6.42372966208E+007, +2.02637400645E+002, -9.53281339192E+002
+6.44561952441E+007, +2.03621203395E+002, -9.39122336654E+002
+6.46750938673E+007, +1.99255779689E+002, -9.20632812306E+002
+6.48939924906E+007, +2.00317230733E+002, -9.04483278984E+002
+6.51128911139E+007, +1.97231997073E+002, -8.90739781742E+002
+6.53317897372E+007, +2.01432370514E+002, -8.76564306790E+002
+6.55506883605E+007, +1.99746749603E+002, -8.59167866502E+002
+6.57695869837E+007, +1.97752043569E+002, -8.50319241620E+002
+6.59884856070E+007, +1.99571690304E+002, -8.35243713041E+002
+6.62073842303E+007, +1.94559927841E+002, -8.20999611255E+002
+6.64262828536E+007, +1.99004977202E+002, -8.09668706330E+002
+6.66451814768E+007, +1.98341609820E+002, -7.95174014485E+002
+6.68640801001E+007, +1.96693559203E+002, -7.81641596150E+002
+6.70829787234E+007, +1.98696654232E+002, -7.71143616394E+002
+6.73018773467E+007, +1.99685630402E+002, -7.61675248782E+002
+6.75207759700E+007, +2.01464109002E+002, -7.47124980108E+002
+6.77396745932E+007, +2.01893006153E+002, -7.38871592338E+002
+6.79585732165E+007, +2.01665463635E+002, -7.24342614291E+002
+6.81774718398E+007, +1.98617656822E+002, -7.14417559656E+002
+6.83963704631E+007, +2.02840170748E+002, -7.05883395549E+002
+6.86152690864E+007, +2.00086744316E+002, -6.92090191983E+002
+6.88341677096E+007, +2.01882641022E+002, -6.83418040350E+002
+6.90530663329E+007, +2.00982707646E+002, -6.70054261832E+002
+6.92719649562E+007, +2.01159469282E+002, -6.59614552645E+002
+6.94908635795E+007, +2.00904189034E+002, -6.51731546693E+002
+6.97097622028E+007, +2.00052502755E+002, -6.38040804959E+002
+6.99286608260E+007, +2.01432632463E+002, -6.28340118477E+002
+7.01475594493E+007, +2.01435506969E+002, -6.18630728075E+002
