"# Channel 1"
"# Trace 1"
Frequency, Formatted Data, Formatted Data
+1.00000000000E+006, +6.84416073708E-001, +2.87007738857E+001
+1.16527545910E+006, +7.54870501839E-001, +3.34018424652E+001
+1.33055091820E+006, +8.33725438218E-001, +3.80158844472E+001
+1.49582637730E+006, +7.76148791571E-001, +4.27166098054E+001
+1.66110183639E+006, +8.23805976946E-001, +4.73783957229E+001
+1.82637729549E+006, +8.38282829096E-001, +5.20197564561E+001
+1.99165275459E+006, +8.53094210310E-001, +5.67082656248E+001
+2.15692821369E+006, +8.53643988831E-001, +6.14084867889E+001
+2.32220367279E+006, +7.76074129112E-001, +6.61302710764E+001
+2.48747913189E+006, +7.54428274724E-001, +7.08141430675E+001
+2.65275459098E+006, +6.38540755047E-001, +7.54692990256E+001
+2.81803005008E+006, +7.01733377739E-001, +8.02439235117E+001
+2.98330550918E+006, +6.21987361737E-001, +8.47739212561E+001
+3.14858096828E+006, +7.69114031112E-001, +8.94674525002E+001
+3.31385642738E+006, +9.15247281277E-001, +9.41839234934E+001
+3.47913188648E+006, +6.52538555263E-001, +9.90690402435E+001
+3.64440734558E+006, +6.84139145135E-001, +1.03547713290E+002
+3.80968280467E+006, +9.20850618787E-001, +1.08319532198E+002
+3.97495826377E+006, +1.15200606553E+000, +1.12827156224E+002
+4.14023372287E+006, +2.47896120048E-001, +1.17735011032E+002
+4.30550918197E+006, +7.00181481582E-001, +1.22435864535E+002
+4.47078464107E+006, +6.20363948561E-001, +1.27443522540E+002
+4.63606010017E+006, +6.66459947383E-001, +1.31867915732E+002
+4.80133555927E+006, +6.06394357698E-001, +1.36763879983E+002
+4.96661101836E+006, +6.58524459386E-001, +1.41498711670E+002
+5.13188647746E+006, +7.77922449217E-001, +1.46274552661E+002
+5.29716193656E+006, +6.59798580257E-001, +1.50628787585E+002
+5.46243739566E+006, +6.15195829435E-001, +1.55799574749E+002
+5.62771285476E+006, +9.29026554524E-001, +1.60601758777E+002
+5.79298831386E+006, +1.07764706849E+000, +1.65525372632E+002
+5.95826377295E+006, +8.05572106605E-001, +1.70437397963E+002
+6.12353923205E+006, +1.49400336637E+000, +1.74608937571E+002
+6.28881469115E+006, +1.11162107708E+000, +1.79602532046E+002
+6.45409015025E+006, +1.35256458126E+000, +1.84383790695E+002
+6.61936560935E+006, +1.21898051512E+000, +1.89208722199E+002
+6.78464106845E+006, +1.42382116340E+000, +1.94100374839E+002
+6.94991652755E+006, +1.19236755136E+000, +1.98757132114E+002
+7.11519198664E+006, +1.55298890876E+000, +2.03531956060E+002
+7.28046744574E+006, +1.37427309729E+000, +2.08493771060E+002
+7.44574290484E+006, +1.57641371722E+000, +2.13176165355E+002
+7.61101836394E+006, +1.44145090373E+000, +2.17874484292E+002
+7.77629382304E+006, +1.65224738699E+000, +2.22527222112E+002
+7.94156928214E+006, +1.30840943987E+000, +2.27618249622E+002
+8.10684474124E+006, +1.29407075697E+000, +2.32230167955E+002
+8.27212020033E+006, +1.63421690961E+000, +2.36979475102E+002
+8.43739565943E+006, +1.33612389861E+000, +2.42329070437E+002
+8.60267111853E+006, +1.29041565973E+000, +2.46960291624E+002
+8.76794657763E+006, +1.50042992793E+000, +2.51728183027E+002
+8.93322203673E+006, +1.06087095206E+000, +2.57017223139E+002
+9.09849749583E+006, +1.00381536361E+000, +2.61839644812E+002
+9.26377295492E+006, +1.07212909755E+000, +2.67129354560E+002
+9.42904841402E+006, +1.04133061023E+000, +2.71483270853E+002
+9.59432387312E+006, +1.10619447756E+000, +2.76339658233E+002
+9.75959933222E+006, +7.01691064099E-001, +2.81549877089E+002
+9.92487479132E+006, +9.31960778440E-001, +2.86540926635E+002
+1.00901502504E+007, +8.92289590880E-001, +2.91195870729E+002
+1.02554257095E+007, +7.69971286520E-001, +2.95855092646E+002
+1.04207011686E+007, +8.55888601633E-001, +3.00926601416E+002
+1.05859766277E+007, +7.62790676568E-001, +3.06826351992E+002
+1.07512520868E+007, +8.98940648141E-001, +3.11522274155E+002
+1.09165275459E+007, +3.07833459398E-001, +3.16835837988E+002
+1.10818030050E+007, +5.70582332023E-001, +3.22003334885E+002
+1.12470784641E+007, +6.28672668253E-001, +3.26113657608E+002
+1.14123539232E+007, +2.40384514372E-001, +3.31520545068E+002
+1.15776293823E+007, +3.84062240160E-001, +3.36923120927E+002
+1.17429048414E+007, +6.48909437742E-001, +3.41852782540E+002
+1.19081803005E+007, +6.45604227747E-001, +3.47422956571E+002
+1.20734557596E+007, +7.38419858640E-001, +3.52560768324E+002
+1.22387312187E+007, -9.67415776859E-002, +3.57278231480E+002
+1.24040066778E+007, +4.49666690530E-001, +3.62065889398E+002
+1.25692821369E+007, -4.33389840514E-001, +3.67325619795E+002
+1.27345575960E+007, +4.41129409883E-001, +3.72574013495E+002
+1.28998330551E+007, +2.84457699982E-002, +3.78105090114E+002
+1.30651085142E+007, -4.33416287624E-001, +3.83809383486E+002
+1.32303839733E+007, +7.06660182390E-001, +3.88949431631E+002
+1.33956594324E+007, +3.04116832954E-001, +3.94838232070E+002
+1.35609348915E+007, +4.91395455841E-001, +3.99698534807E+002
+1.37262103506E+007, -5.19828542694E-001, +4.03218018227E+002
+1.38914858097E+007, +4.77637255985E-001, +4.09072813511E+002
+1.40567612688E+007, +6.02761035325E-001, +4.14939387925E+002
+1.42220367279E+007, +9.67358183591E-001, +4.19822616053E+002
+1.43873121870E+007, +4.01629396224E-001, +4.25672361224E+002
+1.45525876461E+007, -9.36044889694E-002, +4.30705973042E+002
+1.47178631052E+007, +9.84871592733E-002, +4.36335376815E+002
+1.48831385643E+007, +6.64733549143E-001, +4.40858408336E+002
+1.50484140234E+007, +7.36955658076E-001, +4.47038141037E+002
+1.52136894825E+007, -5.97897270219E-001, +4.52239546711E+002
+1.53789649416E+007, +2.03105141299E-001, +4.58111995507E+002
+1.55442404007E+007, -4.81672734263E-001, +4.62854446420E+002
+1.57095158598E+007, +6.32361696631E-001, +4.69032658299E+002
+1.58747913189E+007, +5.38856142538E-001, +4.75267956776E+002
+1.60400667780E+007, -1.09462552587E-001, +4.80255085961E+002
+1.62053422371E+007, -4.16878023661E-001, +4.85173776322E+002
+1.63706176962E+007, +2.87370890063E-001, +4.89357068795E+002
+1.65358931553E+007, -1.11210459383E-001, +4.94764857715E+002
+1.67011686144E+007, +1.40053173177E+000, +5.02263393076E+002
+1.68664440735E+007, +2.44353070845E-001, +5.06769699132E+002
+1.70317195326E+007, -1.97711321182E+000, +5.14884849438E+002
+1.71969949917E+007, -2.35018648658E+000, +5.20136982736E+002
+1.73622704508E+007, -6.45009255735E-001, +5.24198444618E+002
+1.75275459098E+007, -2.97405974990E+000, +5.30542057843E+002
+1.76928213689E+007, -7.33045382002E-001, +5.37171355003E+002
+1.78580968280E+007, +2.26431906232E-001, +5.43073278051E+002
+1.80233722871E+007, +4.52550568575E-001, +5.47194494617E+002
+1.81886477462E+007, -1.94948291357E-001, +5.54930960988E+002
+1.83539232053E+007, -8.22506045780E-001, +5.58959012474E+002
+1.85191986644E+007, -3.28224991182E-001, +5.66213065016E+002
+1.86844741235E+007, +5.23590908457E-001, +5.70517063027E+002
+1.88497495826E+007, -4.29033387743E-002, +5.77273838545E+002
+1.90150250417E+007, -1.48268554902E+000, +5.84526058180E+002
+1.91803005008E+007, -5.98276898515E-001, +5.89374909440E+002
+1.93455759599E+007, +1.33157296176E+000, +5.94445517558E+002
+1.95108514190E+007, +1.44450106605E+000, +6.01732949744E+002
+1.96761268781E+007, +4.36276310987E-001, +6.07208188721E+002
+1.98414023372E+007, +1.77020602284E+000, +6.14526591781E+002
+2.00066777963E+007, +3.48511452980E-001, +6.18455941384E+002
+2.01719532554E+007, +1.52655861039E+000, +6.26654374187E+002
+2.03372287145E+007, +1.12882851485E+000, +6.34155241603E+002
+2.05025041736E+007, +1.94249328072E+000, +6.38797442710E+002
+2.06677796327E+007, +9.94780886222E-001, +6.46774188515E+002
+2.08330550918E+007, +6.38160035923E-002, +6.50030906138E+002
+2.09983305509E+007, +1.76133967464E-001, +6.58848961659E+002
+2.11636060100E+007, +5.26776782853E-001, +6.63227234777E+002
+2.13288814691E+007, +1.47150921401E+000, +6.71013429122E+002
+2.14941569282E+007, +1.16514813039E+000, +6.75801294316E+002
+2.16594323873E+007, +2.41634100092E+000, +6.83425391494E+002
+2.18247078464E+007, +3.02219459006E+000, +6.91680256321E+002
+2.19899833055E+007, +1.07934905245E+000, +6.99896716933E+002
+2.21552587646E+007, +8.47087817789E-001, +7.02434640706E+002
+2.23205342237E+007, +4.24689176269E+000, +7.11118565235E+002
+2.24858096828E+007, +4.87239777093E+000, +7.17495536446E+002
+2.26510851419E+007, +4.55650280634E+000, +7.24486307968E+002
+2.28163606010E+007, +5.08951059298E+000, +7.30836192855E+002
+2.29816360601E+007, +3.30230683113E+000, +7.39715497727E+002
+2.31469115192E+007, +8.54663633424E+000, +7.46075990372E+002
+2.33121869783E+007, +9.52678918417E+000, +7.51388332684E+002
+2.34774624374E+007, +8.73072579565E+000, +7.59359482551E+002
+2.36427378965E+007, +6.83703472646E+000, +7.65644088918E+002
+2.38080133556E+007, +9.40160678633E+000, +7.69649252305E+002
+2.39732888147E+007, +9.07273005919E+000, +7.77683504861E+002
+2.41385642738E+007, +6.79219197507E+000, +7.87052175907E+002
+2.43038397329E+007, +6.69583275903E+000, +7.95363186954E+002
+2.44691151920E+007, +9.94105899403E+000, +8.00102751160E+002
+2.46343906511E+007, +6.86546762010E+000, +8.08543255737E+002
+2.47996661102E+007, +7.12206759332E+000, +8.14569719757E+002
+2.49649415693E+007, +1.17704815808E+001, +8.21691263503E+002
+2.51302170284E+007, +8.27020899409E+000, +8.29145600035E+002
+2.52954924875E+007, +1.02645088561E+001, +8.36664363273E+002
+2.54607679466E+007, +1.10172714622E+001, +8.44953212363E+002
+2.56260434057E+007, +1.10589544720E+001, +8.48035810961E+002
+2.57913188648E+007, +1.05029291894E+001, +8.55849650090E+002
+2.59565943239E+007, +1.22774245168E+001, +8.64972641462E+002
+2.61218697830E+007, +1.52188398774E+001, +8.71369340569E+002
+2.62871452421E+007, +1.34302732227E+001, +8.80014307196E+002
+2.64524207012E+007, +1.44639999790E+001, +8.85832266750E+002
+2.66176961603E+007, +1.58844497845E+001, +8.99586779504E+002
+2.67829716194E+007, +1.25758972439E+001, +9.03643306560E+002
+2.69482470785E+007, +1.49457800106E+001, +9.14323984671E+002
+2.71135225376E+007, +1.70739449519E+001, +9.22510994394E+002
+2.72787979967E+007, +2.07607379793E+001, +9.33704037214E+002
+2.74440734558E+007, +1.87886727879E+001, +9.37538105749E+002
+2.76093489149E+007, +1.83076807108E+001, +9.43442673625E+002
+2.77746243740E+007, +1.93578371558E+001, +9.53134017020E+002
+2.79398998331E+007, +1.63810343424E+001, +9.65998997004E+002
+2.81051752922E+007, +1.94341954914E+001, +9.71685385965E+002
+2.82704507513E+007, +1.78815807601E+001, +9.83228656506E+002
+2.84357262104E+007, +1.79794240341E+001, +9.83001214456E+002
+2.86010016694E+007, +1.73652947300E+001, +1.00261867449E+003
+2.87662771285E+007, +2.10114571644E+001, +1.00441538824E+003
+2.89315525876E+007, +2.18034452432E+001, +1.01234806657E+003
+2.90968280467E+007, +2.19662405138E+001, +1.02336892090E+003
+2.92621035058E+007, +2.02137233038E+001, +1.02911703570E+003
+2.94273789649E+007, +2.24213617337E+001, +1.04140741206E+003
+2.95926544240E+007, +2.13064425164E+001, +1.04899186844E+003
+2.97579298831E+007, +2.25063447389E+001, +1.05875821011E+003
+2.99232053422E+007, +2.17878287088E+001, +1.07189441225E+003
+3.00884808013E+007, +2.65126946773E+001, +1.07615682555E+003
+3.02537562604E+007, +2.55502669873E+001, +1.08795607285E+003
+3.04190317195E+007, +2.58542538590E+001, +1.10259505232E+003
+3.05843071786E+007, +2.84086164855E+001, +1.10366942037E+003
+3.07495826377E+007, +1.47460526592E+001, +1.11576891722E+003
+3.09148580968E+007, +2.73821543416E+001, +1.12653441396E+003
+3.10801335559E+007, +2.69750898349E+001, +1.13555192056E+003
+3.12454090150E+007, +2.57556760431E+001, +1.15207114166E+003
+3.14106844741E+007, +3.03366383351E+001, +1.15732395144E+003
+3.15759599332E+007, +2.83719939236E+001, +1.16896223243E+003
+3.17412353923E+007, +3.11366776939E+001, +1.17299379314E+003
+3.19065108514E+007, +3.35368411017E+001, +1.18849205637E+003
+3.20717863105E+007, +2.19259263340E+001, +1.20072342027E+003
+3.22370617696E+007, +2.43060216498E+001, +1.20295572800E+003
+3.24023372287E+007, +2.62406890568E+001, +1.21910440927E+003
+3.25676126878E+007, +3.33262597865E+001, +1.22827722580E+003
+3.27328881469E+007, +3.19960267499E+001, +1.23650166766E+003
+3.28981636060E+007, +2.46463721499E+001, +1.25404193368E+003
+3.30634390651E+007, +3.72131067070E+001, +1.26198616458E+003
+3.32287145242E+007, +2.93401564175E+001, +1.28616545543E+003
+3.33939899833E+007, +2.79533892145E+001, +1.29042283410E+003
+3.35592654424E+007, +3.47689966590E+001, +1.30180799769E+003
+3.37245409015E+007, +4.09258628143E+001, +1.31430700870E+003
+3.38898163606E+007, +2.55955683278E+001, +1.33056054296E+003
+3.40550918197E+007, +3.40937240975E+001, +1.33160382418E+003
+3.42203672788E+007, +3.69639212751E+001, +1.34933640009E+003
+3.43856427379E+007, +3.75806137766E+001, +1.35937754942E+003
+3.45509181970E+007, +2.83720217391E+001, +1.37402701244E+003
+3.47161936561E+007, +2.82617345874E+001, +1.39262112087E+003
+3.48814691152E+007, +3.16425198997E+001, +1.39711707359E+003
+3.50467445743E+007, +4.65708724303E+001, +1.41335229879E+003
+3.52120200334E+007, +3.94298710612E+001, +1.43371898166E+003
+3.53772954925E+007, +2.87470115162E+001, +1.44136893738E+003
+3.55425709516E+007, +3.35174509074E+001, +1.46962284607E+003
+3.57078464107E+007, +3.78719712613E+001, +1.47616279324E+003
+3.58731218698E+007, +3.70837804388E+001, +1.48833098636E+003
+3.60383973289E+007, +2.91211069538E+001, +1.51019380788E+003
+3.62036727880E+007, +2.87154604619E+001, +1.53533710140E+003
+3.63689482471E+007, +4.18173895404E+001, +1.53935656490E+003
+3.65342237062E+007, +2.77000279730E+001, +1.56331399194E+003
+3.66994991653E+007, +2.68081313689E+001, +1.57946347947E+003
+3.68647746244E+007, +4.57687491456E+001, +1.58784787359E+003
+3.70300500835E+007, +3.64149969431E+001, +1.61502592746E+003
+3.71953255426E+007, +4.27980231656E+001, +1.63736101054E+003
+3.73606010017E+007, +3.37852568597E+001, +1.65814262393E+003
+3.75258764608E+007, +3.82168141155E+001, +1.69133985765E+003
+3.76911519199E+007, +3.96036500015E+001, +1.68421428290E+003
+3.78564273790E+007, +2.42701294364E+001, +1.71341427670E+003
+3.80217028381E+007, +3.77592945572E+001, +1.72990418810E+003
+3.81869782972E+007, +3.27013706672E+001, +1.75319809985E+003
+3.83522537563E+007, +2.88543477566E+001, +1.77597693840E+003
+3.85175292154E+007, +3.75165535663E+001, +1.79964412285E+003
+3.86828046745E+007, +3.28189970140E+001, +1.81900921983E+003
+3.88480801336E+007, +3.91343034005E+001, +1.85804447238E+003
+3.90133555927E+007, +4.42557214228E+001, +1.88745289309E+003
+3.91786310518E+007, +5.00120936329E+001, +1.90473625641E+003
+3.93439065109E+007, +3.91626454213E+001, +1.93813290708E+003
+3.95091819699E+007, +7.91831954633E+001, +1.96182329466E+003
+3.96744574290E+007, +6.59300173403E+001, +1.97325508096E+003
+3.98397328881E+007, +4.21814945546E+001, +2.00814868000E+003
+4.00050083472E+007, +6.35584509687E+001, +2.04553284581E+003
+4.01702838063E+007, +4.64205211005E+001, +2.05489907966E+003
+4.03355592654E+007, +6.48962735462E+001, +2.09674240868E+003
+4.05008347245E+007, +7.57229550164E+001, +2.14326887334E+003
+4.06661101836E+007, +6.04768047718E+001, +2.16440441052E+003
+4.08313856427E+007, +6.02192942246E+001, +2.21436651836E+003
+4.09966611018E+007, +6.60570056722E+001, +2.21521414237E+003
+4.11619365609E+007, +8.66669212149E+001, +2.23778894328E+003
+4.13272120200E+007, +8.91219823991E+001, +2.29936179505E+003
+4.14924874791E+007, +7.18846825964E+001, +2.31414057059E+003
+4.16577629382E+007, +8.21774155959E+001, +2.39682162264E+003
+4.18230383973E+007, +1.10833045718E+002, +2.41233362275E+003
+4.19883138564E+007, +7.44057283591E+001, +2.43420670099E+003
+4.21535893155E+007, +1.02639180051E+002, +2.47229397429E+003
+4.23188647746E+007, +7.97028073715E+001, +2.52092979910E+003
+4.24841402337E+007, +1.00388693312E+002, +2.60834488224E+003
+4.26494156928E+007, +7.60277893422E+001, +2.62897517296E+003
+4.28146911519E+007, +1.40730333487E+002, +2.69975397846E+003
+4.29799666110E+007, +1.48168092876E+002, +2.70165614697E+003
+4.31452420701E+007, +1.52237054756E+002, +2.80629074304E+003
+4.33105175292E+007, +1.41362479116E+002, +2.87234788449E+003
+4.34757929883E+007, +9.97957702878E+001, +2.92267012048E+003
+4.36410684474E+007, +8.54011606720E+001, +2.98878465521E+003
+4.38063439065E+007, +1.35779979638E+002, +3.02324566048E+003
+4.39716193656E+007, +1.57359129965E+002, +3.12076660839E+003
+4.41368948247E+007, +1.66926238326E+002, +3.19328566814E+003
+4.43021702838E+007, +1.51811232722E+002, +3.27922612719E+003
+4.44674457429E+007, +1.99940625864E+002, +3.35830488995E+003
+4.46327212020E+007, +2.06262884347E+002, +3.47035692194E+003
+4.47979966611E+007, +2.24223639417E+002, +3.55522780449E+003
+4.49632721202E+007, +2.87294910376E+002, +3.69936226597E+003
+4.51285475793E+007, +2.52027318356E+002, +3.75629998901E+003
+4.52938230384E+007, +3.51593447013E+002, +3.87394192188E+003
+4.54590984975E+007, +2.63040167331E+002, +3.92703269410E+003
+4.56243739566E+007, +4.24625489160E+002, +4.07028881808E+003
+4.57896494157E+007, +4.24680197679E+002, +4.13655437852E+003
+4.59549248748E+007, +4.11182787391E+002, +4.43899783639E+003
+4.61202003339E+007, +4.26287273598E+002, +4.63694130913E+003
+4.62854757930E+007, +5.80079286975E+002, +4.77887019098E+003
+4.64507512521E+007, +6.91265392449E+002, +4.88750330498E+003
+4.66160267112E+007, +6.80189147014E+002, +5.15470305898E+003
+4.67813021703E+007, +8.67167913702E+002, +5.24534345992E+003
+4.69465776294E+007, +9.07515094606E+002, +5.54688911352E+003
+4.71118530885E+007, +1.06683700031E+003, +5.77709641880E+003
+4.72771285476E+007, +1.38279022077E+003, +6.02098124687E+003
+4.74424040067E+007, +1.50556038721E+003, +6.30870364250E+003
+4.76076794658E+007, +1.67403956030E+003, +6.48133814057E+003
+4.77729549249E+007, +2.04765758881E+003, +7.03451597755E+003
+4.79382303840E+007, +2.21751506561E+003, +7.09602578920E+003
+4.81035058431E+007, +2.81835450696E+003, +7.56590568994E+003
+4.82687813022E+007, +3.14421899547E+003, +7.90748851126E+003
+4.84340567613E+007, +3.89093041293E+003, +8.06111755163E+003
+4.85993322204E+007, +4.51392377397E+003, +8.34755676920E+003
+4.87646076795E+007, +5.32256825937E+003, +8.60607657918E+003
+4.89298831386E+007, +5.78137460499E+003, +8.40223691156E+003
+4.90951585977E+007, +6.67313805118E+003, +8.75168552317E+003
+4.92604340568E+007, +7.56066185148E+003, +8.51224286725E+003
+4.94257095159E+007, +8.88610767886E+003, +7.66322327182E+003
+4.95909849750E+007, +1.02002962418E+004, +7.20725369479E+003
+4.97562604341E+007, +1.04912724291E+004, +6.52705190084E+003
+4.99215358932E+007, +1.14121191167E+004, +5.94897247683E+003
+5.00868113523E+007, +1.22621610078E+004, +4.52881848487E+003
+5.02520868114E+007, +1.23103263274E+004, +3.36583996171E+003
+5.04173622705E+007, +1.24820013356E+004, +1.81438739056E+003
+5.05826377295E+007, +1.20720152626E+004, +2.01854534037E+003
+5.07479131886E+007, +1.17638894472E+004, +8.53456567845E+002
+5.09131886477E+007, +1.26531357324E+004, +3.86763675060E+001
+5.10784641068E+007, +1.17810921676E+004, -8.22593702551E+002
+5.12437395659E+007, +1.16003171949E+004, -1.96840567787E+003
+5.14090150250E+007, +1.17379937827E+004, -2.13802536328E+003
+5.15742904841E+007, +1.13083017971E+004, -3.01409619625E+003
+5.17395659432E+007, +1.09330908049E+004, -3.48380127191E+003
+5.19048414023E+007, +1.01009729239E+004, -4.80436678506E+003
+5.20701168614E+007, +9.13865846736E+003, -5.08241908850E+003
+5.22353923205E+007, +8.61356897631E+003, -6.21457832559E+003
+5.24006677796E+007, +8.50736324098E+003, -6.46829721756E+003
+5.25659432387E+007, +7.14942362664E+003, -6.61549978348E+003
+5.27312186978E+007, +6.51624070873E+003, -6.51640120705E+003
+5.28964941569E+007, +5.31603852066E+003, -6.60093315626E+003
+5.30617696160E+007, +4.79504580654E+003, -6.63413126111E+003
+5.32270450751E+007, +4.49612604971E+003, -6.25551192007E+003
+5.33923205342E+007, +3.58507578435E+003, -6.17196053930E+003
+5.35575959933E+007, +3.13509059403E+003, -5.82349582082E+003
+5.37228714524E+007, +2.73944064582E+003, -5.42621043168E+003
+5.38881469115E+007, +2.61660320488E+003, -5.55660061416E+003
