"# Channel 1"
"# Trace 1"
Frequency, Formatted Data, Formatted Data
+1.00000000000E+006, +6.74539226003E-001, +2.86972805365E+001
+1.16527545910E+006, +7.33759014703E-001, +3.34008751830E+001
+1.33055091820E+006, +8.05015176108E-001, +3.79937551504E+001
+1.49582637730E+006, +7.57271168870E-001, +4.27415039446E+001
+1.66110183639E+006, +7.85714430413E-001, +4.73799763472E+001
+1.82637729549E+006, +7.82939047937E-001, +5.19737592504E+001
+1.99165275459E+006, +8.29580571510E-001, +5.67200773845E+001
+2.15692821369E+006, +8.45444234779E-001, +6.13527486500E+001
+2.32220367279E+006, +7.36608914200E-001, +6.61107315506E+001
+2.48747913189E+006, +7.76621319895E-001, +7.08149201420E+001
+2.65275459098E+006, +6.91041221101E-001, +7.54863301187E+001
+2.81803005008E+006, +7.11368981520E-001, +8.01540309156E+001
+2.98330550918E+006, +5.79735436243E-001, +8.47723920707E+001
+3.14858096828E+006, +7.76344519130E-001, +8.94480524974E+001
+3.31385642738E+006, +8.36034372788E-001, +9.41989443107E+001
+3.47913188648E+006, +6.10131250346E-001, +9.91700643141E+001
+3.64440734558E+006, +6.39200917732E-001, +1.03612645207E+002
+3.80968280467E+006, +9.40566830243E-001, +1.08334110980E+002
+3.97495826377E+006, +1.18626947073E+000, +1.12956650155E+002
+4.14023372287E+006, +1.53741190506E-001, +1.17769253103E+002
+4.30550918197E+006, +6.86389212329E-001, +1.22535398950E+002
+4.47078464107E+006, +6.24720182767E-001, +1.27446335900E+002
+4.63606010017E+006, +4.73214821070E-001, +1.32006213848E+002
+4.80133555927E+006, +5.65708191207E-001, +1.36853662901E+002
+4.96661101836E+006, +5.92225005582E-001, +1.41540542811E+002
+5.13188647746E+006, +5.94750026204E-001, +1.46238084007E+002
+5.29716193656E+006, +4.87003782463E-001, +1.50901523074E+002
+5.46243739566E+006, +6.34340347577E-001, +1.55841299143E+002
+5.62771285476E+006, +9.45539936143E-001, +1.60476408860E+002
+5.79298831386E+006, +9.23620660752E-001, +1.65458120694E+002
+5.95826377295E+006, +9.46806352647E-001, +1.70322934423E+002
+6.12353923205E+006, +1.36539110964E+000, +1.74580015988E+002
+6.28881469115E+006, +9.62303162564E-001, +1.79544567132E+002
+6.45409015025E+006, +1.21129026473E+000, +1.84356657093E+002
+6.61936560935E+006, +1.09530849009E+000, +1.89174747674E+002
+6.78464106845E+006, +1.34912764823E+000, +1.94044701357E+002
+6.94991652755E+006, +1.26268299683E+000, +1.98769782443E+002
+7.11519198664E+006, +1.43232314890E+000, +2.03534534748E+002
+7.28046744574E+006, +1.50911263109E+000, +2.08407643484E+002
+7.44574290484E+006, +1.37478277570E+000, +2.13169840509E+002
+7.61101836394E+006, +1.36555014910E+000, +2.18053132622E+002
+7.77629382304E+006, +1.55355432123E+000, +2.22666868743E+002
+7.94156928214E+006, +1.26405943275E+000, +2.27558636180E+002
+8.10684474124E+006, +1.40869808288E+000, +2.32092200921E+002
+8.27212020033E+006, +1.51347948212E+000, +2.37364722033E+002
+8.43739565943E+006, +1.24871969560E+000, +2.42248262890E+002
+8.60267111853E+006, +9.57968707785E-001, +2.46960505217E+002
+8.76794657763E+006, +1.42546596301E+000, +2.51912830780E+002
+8.93322203673E+006, +1.19953543471E+000, +2.57169266758E+002
+9.09849749583E+006, +1.16767620874E+000, +2.61481781260E+002
+9.26377295492E+006, +1.14081053964E+000, +2.66960726094E+002
+9.42904841402E+006, +1.07879699322E+000, +2.71571846662E+002
+9.59432387312E+006, +9.43372070623E-001, +2.76579537226E+002
+9.75959933222E+006, +7.88908292742E-001, +2.81460184028E+002
+9.92487479132E+006, +7.44864611192E-001, +2.86159490460E+002
+1.00901502504E+007, +7.89170918664E-001, +2.91674202747E+002
+1.02554257095E+007, +7.54687842976E-001, +2.95988900123E+002
+1.04207011686E+007, +3.83005275291E-001, +3.01259158254E+002
+1.05859766277E+007, +5.79469504962E-001, +3.06647659855E+002
+1.07512520868E+007, +7.19233045086E-001, +3.11348669027E+002
+1.09165275459E+007, +2.56082657761E-001, +3.16737087993E+002
+1.10818030050E+007, +5.80992237854E-001, +3.22053367527E+002
+1.12470784641E+007, +5.47323004525E-001, +3.26304652772E+002
+1.14123539232E+007, +6.36375783116E-001, +3.31530165367E+002
+1.15776293823E+007, +7.45884038987E-001, +3.36880975844E+002
+1.17429048414E+007, +6.69023653760E-001, +3.42650558943E+002
+1.19081803005E+007, +3.52182829168E-001, +3.46885453793E+002
+1.20734557596E+007, +7.61776861954E-001, +3.52239063701E+002
+1.22387312187E+007, -1.30707183216E-001, +3.57601544021E+002
+1.24040066778E+007, +4.10440247231E-001, +3.62623095503E+002
+1.25692821369E+007, +2.04913755483E-001, +3.68063027287E+002
+1.27345575960E+007, +7.40923752343E-001, +3.72774364959E+002
+1.28998330551E+007, -2.43917917286E-002, +3.78180139305E+002
+1.30651085142E+007, -4.84432931701E-001, +3.83300786517E+002
+1.32303839733E+007, +1.14256770615E+000, +3.89124154373E+002
+1.33956594324E+007, +1.58395401500E-001, +3.95037609082E+002
+1.35609348915E+007, +8.43656127643E-001, +3.99238533738E+002
+1.37262103506E+007, -4.51943636129E-001, +4.04242255686E+002
+1.38914858097E+007, +2.23813625108E-001, +4.08802812355E+002
+1.40567612688E+007, +1.25284727041E+000, +4.15234392471E+002
+1.42220367279E+007, +3.51499951030E-001, +4.19763476401E+002
+1.43873121870E+007, +8.31209052438E-002, +4.26429323893E+002
+1.45525876461E+007, +4.17594232266E-001, +4.31480570478E+002
+1.47178631052E+007, +8.14936239674E-001, +4.36179359859E+002
+1.48831385643E+007, +1.37480978699E-001, +4.40497504016E+002
+1.50484140234E+007, +1.23953629591E+000, +4.47048892109E+002
+1.52136894825E+007, -2.37406291159E-001, +4.52323222484E+002
+1.53789649416E+007, -9.65014074764E-002, +4.57428834812E+002
+1.55442404007E+007, -3.13866403303E-001, +4.64170778463E+002
+1.57095158598E+007, -2.00315020555E-001, +4.69774961640E+002
+1.58747913189E+007, +1.62860212259E+000, +4.73971297690E+002
+1.60400667780E+007, +6.54998359875E-001, +4.79637025296E+002
+1.62053422371E+007, +1.36670717633E-001, +4.85082501886E+002
+1.63706176962E+007, +5.99154301475E-002, +4.90202174377E+002
+1.65358931553E+007, +2.60141035977E-001, +4.95449349762E+002
+1.67011686144E+007, +5.91836161162E-001, +5.02510465284E+002
+1.68664440735E+007, +1.02804233655E+000, +5.06748038880E+002
+1.70317195326E+007, -1.71333239902E+000, +5.14330181101E+002
+1.71969949917E+007, -2.07953963211E+000, +5.20222679049E+002
+1.73622704508E+007, -4.00866537284E-001, +5.24863920013E+002
+1.75275459098E+007, -1.48197293025E+000, +5.30431621511E+002
+1.76928213689E+007, +7.91431771149E-002, +5.36628412217E+002
+1.78580968280E+007, -5.19965739568E-002, +5.42785295701E+002
+1.80233722871E+007, -2.77529748660E-001, +5.48689493925E+002
+1.81886477462E+007, -7.14371519938E-001, +5.55317263713E+002
+1.83539232053E+007, +3.16246760443E-001, +5.59873431988E+002
+1.85191986644E+007, +2.74771209732E-001, +5.66932641996E+002
+1.86844741235E+007, -6.75604792955E-001, +5.70779082241E+002
+1.88497495826E+007, +1.73609066645E-002, +5.78600865546E+002
+1.90150250417E+007, -1.44222382020E+000, +5.84627856548E+002
+1.91803005008E+007, -9.00478253265E-001, +5.90189227894E+002
+1.93455759599E+007, -2.86441394766E-001, +5.96326970430E+002
+1.95108514190E+007, +2.27478412996E+000, +6.04195191817E+002
+1.96761268781E+007, +1.64098471718E+000, +6.08775662294E+002
+1.98414023372E+007, +2.08971541736E+000, +6.14383410214E+002
+2.00066777963E+007, -1.01872229525E+000, +6.18723875772E+002
+2.01719532554E+007, +5.03093312627E-001, +6.26726243139E+002
+2.03372287145E+007, +2.17878851269E+000, +6.31953517985E+002
+2.05025041736E+007, +1.66952052085E+000, +6.39720755567E+002
+2.06677796327E+007, +1.68322373505E+000, +6.45954396187E+002
+2.08330550918E+007, +5.99847174357E-001, +6.51679974140E+002
+2.09983305509E+007, +9.37181849631E-001, +6.56644889914E+002
+2.11636060100E+007, +2.35649196776E+000, +6.64654852476E+002
+2.13288814691E+007, +3.04723824956E+000, +6.70716238364E+002
+2.14941569282E+007, +2.03633977334E+000, +6.75152848518E+002
+2.16594323873E+007, +2.79806697773E+000, +6.84538494801E+002
+2.18247078464E+007, +3.11050294927E+000, +6.93698814497E+002
+2.19899833055E+007, +1.42144276010E+000, +6.98078967674E+002
+2.21552587646E+007, +3.02494648092E+000, +7.03084540269E+002
+2.23205342237E+007, +3.64676366861E+000, +7.10168226086E+002
+2.24858096828E+007, +1.28355974000E+000, +7.17916263573E+002
+2.26510851419E+007, +6.03903718552E+000, +7.22749911106E+002
+2.28163606010E+007, +3.71471253909E+000, +7.32679829374E+002
+2.29816360601E+007, +2.29736463498E+000, +7.40033851269E+002
+2.31469115192E+007, +9.12032232622E+000, +7.42366015584E+002
+2.33121869783E+007, +7.20028161862E+000, +7.53468842035E+002
+2.34774624374E+007, +7.86495678705E+000, +7.57621079216E+002
+2.36427378965E+007, +6.74523258315E+000, +7.65753590207E+002
+2.38080133556E+007, +9.76448126484E+000, +7.72720280540E+002
+2.39732888147E+007, +9.11366909303E+000, +7.80040945313E+002
+2.41385642738E+007, +8.86466107032E+000, +7.87430302876E+002
+2.43038397329E+007, +9.60152881185E+000, +7.94693434768E+002
+2.44691151920E+007, +1.12294308271E+001, +8.01110714496E+002
+2.46343906511E+007, +9.74859767797E+000, +8.06193029346E+002
+2.47996661102E+007, +8.47371020528E+000, +8.12344566143E+002
+2.49649415693E+007, +1.26734978024E+001, +8.27192688717E+002
+2.51302170284E+007, +1.17717098110E+001, +8.30687201156E+002
+2.52954924875E+007, +1.35375559689E+001, +8.36612615711E+002
+2.54607679466E+007, +1.53366640038E+001, +8.44175682163E+002
+2.56260434057E+007, +1.52265553349E+001, +8.49253367229E+002
+2.57913188648E+007, +1.46270339352E+001, +8.56877746273E+002
+2.59565943239E+007, +1.97385394714E+001, +8.63180267225E+002
+2.61218697830E+007, +1.53167624242E+001, +8.74790120342E+002
+2.62871452421E+007, +1.87224994620E+001, +8.79974136006E+002
+2.64524207012E+007, +1.52411804107E+001, +8.87190477999E+002
+2.66176961603E+007, +2.03181980301E+001, +8.97438724068E+002
+2.67829716194E+007, +1.68556678670E+001, +9.00917242544E+002
+2.69482470785E+007, +1.73149739853E+001, +9.12908066646E+002
+2.71135225376E+007, +2.04119626697E+001, +9.20987799063E+002
+2.72787979967E+007, +2.20547197056E+001, +9.29287258512E+002
+2.74440734558E+007, +1.75221431135E+001, +9.33634694006E+002
+2.76093489149E+007, +2.25459695780E+001, +9.39550631002E+002
+2.77746243740E+007, +2.09063613563E+001, +9.48694304435E+002
+2.79398998331E+007, +2.20085996810E+001, +9.57252434117E+002
+2.81051752922E+007, +2.47727367341E+001, +9.64546670356E+002
+2.82704507513E+007, +2.15189773238E+001, +9.78360926395E+002
+2.84357262104E+007, +2.24058790202E+001, +9.80386965637E+002
+2.86010016694E+007, +2.11136825821E+001, +9.92447357852E+002
+2.87662771285E+007, +2.08729034646E+001, +1.00503779352E+003
+2.89315525876E+007, +2.36005035042E+001, +1.01211340080E+003
+2.90968280467E+007, +2.24707988083E+001, +1.01960290170E+003
+2.92621035058E+007, +2.60012935734E+001, +1.02354651224E+003
+2.94273789649E+007, +2.89818154489E+001, +1.03380999333E+003
+2.95926544240E+007, +2.31982446461E+001, +1.04253288262E+003
+2.97579298831E+007, +2.56864235609E+001, +1.05233177664E+003
+2.99232053422E+007, +2.86394792652E+001, +1.06683343199E+003
+3.00884808013E+007, +3.20662551344E+001, +1.06965902350E+003
+3.02537562604E+007, +2.56995953145E+001, +1.07964330559E+003
+3.04190317195E+007, +3.06602427127E+001, +1.09078249084E+003
+3.05843071786E+007, +2.81419143464E+001, +1.09521170267E+003
+3.07495826377E+007, +2.45556867509E+001, +1.10615207658E+003
+3.09148580968E+007, +2.52843397185E+001, +1.11880316082E+003
+3.10801335559E+007, +3.41144535810E+001, +1.13124083923E+003
+3.12454090150E+007, +2.66403227579E+001, +1.14095139477E+003
+3.14106844741E+007, +3.07024245907E+001, +1.14871335076E+003
+3.15759599332E+007, +3.03944671577E+001, +1.15530789984E+003
+3.17412353923E+007, +2.81297756924E+001, +1.17292356644E+003
+3.19065108514E+007, +3.02114343677E+001, +1.17937267890E+003
+3.20717863105E+007, +2.10422336024E+001, +1.19260792245E+003
+3.22370617696E+007, +2.68284603291E+001, +1.19599934519E+003
+3.24023372287E+007, +2.15425019007E+001, +1.21018332873E+003
+3.25676126878E+007, +3.21176050528E+001, +1.22445190222E+003
+3.27328881469E+007, +2.46379103224E+001, +1.22680114997E+003
+3.28981636060E+007, +1.90898801361E+001, +1.24421390926E+003
+3.30634390651E+007, +2.82156933531E+001, +1.24971415801E+003
+3.32287145242E+007, +2.24477713101E+001, +1.27731262441E+003
+3.33939899833E+007, +2.54699922588E+001, +1.28514032869E+003
+3.35592654424E+007, +3.33357447875E+001, +1.29492048280E+003
+3.37245409015E+007, +2.78573085628E+001, +1.30869972648E+003
+3.38898163606E+007, +2.22711613461E+001, +1.31768609593E+003
+3.40550918197E+007, +2.05368735618E+001, +1.33369825180E+003
+3.42203672788E+007, +2.83949062545E+001, +1.34072515312E+003
+3.43856427379E+007, +3.27128276377E+001, +1.35391978318E+003
+3.45509181970E+007, +2.53646449241E+001, +1.36976593453E+003
+3.47161936561E+007, +2.56570006626E+001, +1.38664955598E+003
+3.48814691152E+007, +2.95011720363E+001, +1.39876348829E+003
+3.50467445743E+007, +2.95816984402E+001, +1.41182286558E+003
+3.52120200334E+007, +3.29358104976E+001, +1.42233233439E+003
+3.53772954925E+007, +1.99162373412E+001, +1.43542282052E+003
+3.55425709516E+007, +2.92080107948E+001, +1.46162569383E+003
+3.57078464107E+007, +2.21522771748E+001, +1.47300609146E+003
+3.58731218698E+007, +2.55501341172E+001, +1.48956470742E+003
+3.60383973289E+007, +1.80742238364E+001, +1.50633510367E+003
+3.62036727880E+007, +2.46538497435E+001, +1.52031749073E+003
+3.63689482471E+007, +3.88162365713E+001, +1.53570374310E+003
+3.65342237062E+007, +2.36980419283E+001, +1.55238694150E+003
+3.66994991653E+007, +2.94002242092E+001, +1.57620712149E+003
+3.68647746244E+007, +3.00639734403E+001, +1.59167919361E+003
+3.70300500835E+007, +1.92523901308E+001, +1.61028686044E+003
+3.71953255426E+007, +2.89270141089E+001, +1.63372861486E+003
+3.73606010017E+007, +2.46908649809E+001, +1.65643491466E+003
+3.75258764608E+007, +3.35553876216E+001, +1.68855638287E+003
+3.76911519199E+007, +3.33695706067E+001, +1.69443001700E+003
+3.78564273790E+007, +1.58737514348E+001, +1.71301133180E+003
+3.80217028381E+007, +3.06383836113E+001, +1.73100943823E+003
+3.81869782972E+007, +2.01814479939E+001, +1.74805003226E+003
+3.83522537563E+007, +2.02472690325E+001, +1.78081999582E+003
+3.85175292154E+007, +3.47904302169E+001, +1.78835543374E+003
+3.86828046745E+007, +1.63083872373E+001, +1.81482234753E+003
+3.88480801336E+007, +3.88888082745E+001, +1.86174245082E+003
+3.90133555927E+007, +3.24336020626E+001, +1.88246672558E+003
+3.91786310518E+007, +3.27915881527E+001, +1.92128534455E+003
+3.93439065109E+007, +2.84254805708E+001, +1.93794176355E+003
+3.95091819699E+007, +6.61035789572E+001, +1.95305653974E+003
+3.96744574290E+007, +5.01422665940E+001, +1.97116368518E+003
+3.98397328881E+007, +5.13079613040E+001, +2.00480296803E+003
+4.00050083472E+007, +3.45493657982E+001, +2.05072414448E+003
+4.01702838063E+007, +3.10118931985E+001, +2.05121082849E+003
+4.03355592654E+007, +4.76246964228E+001, +2.09268040702E+003
+4.05008347245E+007, +4.81045623989E+001, +2.13579454759E+003
+4.06661101836E+007, +5.52155536996E+001, +2.15278022392E+003
+4.08313856427E+007, +6.53387791615E+001, +2.20537130098E+003
+4.09966611018E+007, +5.65949662723E+001, +2.22646537599E+003
+4.11619365609E+007, +6.71350165152E+001, +2.25464393807E+003
+4.13272120200E+007, +9.43370184340E+001, +2.29024811866E+003
+4.14924874791E+007, +7.34055735044E+001, +2.30823407041E+003
+4.16577629382E+007, +6.37220688466E+001, +2.39052641819E+003
+4.18230383973E+007, +8.80408102470E+001, +2.38541729926E+003
+4.19883138564E+007, +6.09937759819E+001, +2.44927038815E+003
+4.21535893155E+007, +7.73702641960E+001, +2.48287095683E+003
+4.23188647746E+007, +1.13118769208E+002, +2.56112674614E+003
+4.24841402337E+007, +1.11496564522E+002, +2.63713481109E+003
+4.26494156928E+007, +8.47624557643E+001, +2.63873940400E+003
+4.28146911519E+007, +1.25188153641E+002, +2.67006027354E+003
+4.29799666110E+007, +1.39588546626E+002, +2.70347303701E+003
+4.31452420701E+007, +1.28016928842E+002, +2.79955461655E+003
+4.33105175292E+007, +1.42462475380E+002, +2.85995371955E+003
+4.34757929883E+007, +1.13526384968E+002, +2.95077904590E+003
+4.36410684474E+007, +8.39632135740E+001, +2.96778660209E+003
+4.38063439065E+007, +1.14462116118E+002, +3.03972989373E+003
+4.39716193656E+007, +1.98364789145E+002, +3.10810759252E+003
+4.41368948247E+007, +1.58270689857E+002, +3.20695352401E+003
+4.43021702838E+007, +1.63694094705E+002, +3.26490525179E+003
+4.44674457429E+007, +1.70904697288E+002, +3.33035684076E+003
+4.46327212020E+007, +2.05084452586E+002, +3.41164115824E+003
+4.47979966611E+007, +1.83702754771E+002, +3.52215598302E+003
+4.49632721202E+007, +2.77088204904E+002, +3.64988898114E+003
+4.51285475793E+007, +2.74927600481E+002, +3.75706450032E+003
+4.52938230384E+007, +3.20966186718E+002, +3.87391868910E+003
+4.54590984975E+007, +2.38034043576E+002, +3.90276514473E+003
+4.56243739566E+007, +4.09952135050E+002, +4.13463504802E+003
+4.57896494157E+007, +4.43896241376E+002, +4.15859750193E+003
+4.59549248748E+007, +4.16751440190E+002, +4.41617280731E+003
+4.61202003339E+007, +4.21745485783E+002, +4.62121185178E+003
+4.62854757930E+007, +5.38482853791E+002, +4.75059782245E+003
+4.64507512521E+007, +6.94789117004E+002, +4.87660436268E+003
+4.66160267112E+007, +6.10433108356E+002, +5.10639368838E+003
+4.67813021703E+007, +8.56375796534E+002, +5.19657462871E+003
+4.69465776294E+007, +1.00908040233E+003, +5.49778792767E+003
+4.71118530885E+007, +1.15016851166E+003, +5.84701748141E+003
+4.72771285476E+007, +1.26229366123E+003, +6.02653245059E+003
+4.74424040067E+007, +1.47574244344E+003, +6.33717480133E+003
+4.76076794658E+007, +1.61466438332E+003, +6.52883540214E+003
+4.77729549249E+007, +1.89073051397E+003, +6.81921438188E+003
+4.79382303840E+007, +2.37685661129E+003, +6.87904155178E+003
+4.81035058431E+007, +2.52630556825E+003, +7.40627637939E+003
+4.82687813022E+007, +3.28903041723E+003, +8.01224782829E+003
+4.84340567613E+007, +3.76876708838E+003, +7.97655773802E+003
+4.85993322204E+007, +4.36592795833E+003, +8.53866902134E+003
+4.87646076795E+007, +5.30444114989E+003, +8.54712192870E+003
+4.89298831386E+007, +5.29341932916E+003, +8.62431646802E+003
+4.90951585977E+007, +6.24357922860E+003, +8.37231020962E+003
+4.92604340568E+007, +7.60464878988E+003, +8.35575365898E+003
+4.94257095159E+007, +9.12077027088E+003, +8.01047458146E+003
+4.95909849750E+007, +9.80719963643E+003, +7.11352458447E+003
+4.97562604341E+007, +1.00454029315E+004, +6.73316118446E+003
+4.99215358932E+007, +1.14328686299E+004, +5.77889706490E+003
+5.00868113523E+007, +1.22531296868E+004, +5.12304838515E+003
+5.02520868114E+007, +1.22020892682E+004, +3.25433701087E+003
+5.04173622705E+007, +1.23938767385E+004, +2.69272442847E+003
+5.05826377295E+007, +1.25527797849E+004, +2.33556228721E+003
+5.07479131886E+007, +1.23558807828E+004, +1.25813404362E+003
+5.09131886477E+007, +1.25532291979E+004, +4.01675977092E+002
+5.10784641068E+007, +1.15489183902E+004, -9.72090805773E+002
+5.12437395659E+007, +1.17721116209E+004, -1.64603413915E+003
+5.14090150250E+007, +1.08365277548E+004, -2.11582308838E+003
+5.15742904841E+007, +1.10859951694E+004, -3.26815742870E+003
+5.17395659432E+007, +1.09112651072E+004, -3.38801864040E+003
+5.19048414023E+007, +1.01276061235E+004, -4.33619805798E+003
+5.20701168614E+007, +9.24711229001E+003, -5.03451354522E+003
+5.22353923205E+007, +8.36485895170E+003, -6.01208682123E+003
+5.24006677796E+007, +8.40311636579E+003, -6.15836783152E+003
+5.25659432387E+007, +6.93822194464E+003, -6.53004196753E+003
+5.27312186978E+007, +6.23248687027E+003, -6.21354308333E+003
+5.28964941569E+007, +5.44984437938E+003, -6.48483694168E+003
+5.30617696160E+007, +4.76497639847E+003, -6.47914675624E+003
+5.32270450751E+007, +4.28856251992E+003, -6.28822199659E+003
+5.33923205342E+007, +3.64100546036E+003, -6.07413566084E+003
+5.35575959933E+007, +3.33136277872E+003, -5.79531353121E+003
+5.37228714524E+007, +2.77996332979E+003, -5.49581011489E+003
+5.38881469115E+007, +2.72356005625E+003, -5.43764423726E+003
