"# Channel 1"
"# Trace 1"
Frequency, Formatted Data, Formatted Data
+1.00000000000E+005, +1.03469543175E+000, +2.96140424097E+000
+2.25031289111E+005, +1.05570287285E+000, +6.62712793553E+000
+3.50062578223E+005, +1.08669102855E+000, +1.02878177638E+001
+4.75093867334E+005, +1.14370336762E+000, +1.39389984735E+001
+6.00125156446E+005, +1.16964559828E+000, +1.75695517286E+001
+7.25156445557E+005, +1.21405753408E+000, +2.11960847458E+001
+8.50187734668E+005, +1.29274672903E+000, +2.48089429441E+001
+9.75219023780E+005, +1.32577235162E+000, +2.84602210566E+001
+1.10025031289E+006, +1.37871172129E+000, +3.20526028257E+001
+1.22528160200E+006, +1.42220074452E+000, +3.56914393124E+001
+1.35031289111E+006, +1.49615649458E+000, +3.92595156975E+001
+1.47534418023E+006, +1.52104768753E+000, +4.28763127851E+001
+1.60037546934E+006, +1.55038357900E+000, +4.64487035123E+001
+1.72540675845E+006, +1.63245320998E+000, +5.00893843966E+001
+1.85043804756E+006, +1.64855079216E+000, +5.36772947148E+001
+1.97546933667E+006, +1.68407100886E+000, +5.72753393351E+001
+2.10050062578E+006, +1.75017687156E+000, +6.08508485248E+001
+2.22553191489E+006, +1.79745068881E+000, +6.44105753097E+001
+2.35056320401E+006, +1.81606096064E+000, +6.80433938405E+001
+2.47559449312E+006, +1.87571981054E+000, +7.15939537603E+001
+2.60062578223E+006, +1.92621841847E+000, +7.52215352132E+001
+2.72565707134E+006, +1.89261319193E+000, +7.88063960998E+001
+2.85068836045E+006, +1.97559811127E+000, +8.24425602206E+001
+2.97571964956E+006, +2.01134647633E+000, +8.60476677903E+001
+3.10075093867E+006, +2.02583547307E+000, +8.96305184168E+001
+3.22578222778E+006, +2.06586821317E+000, +9.32071116843E+001
+3.35081351690E+006, +2.12871133470E+000, +9.68207597272E+001
+3.47584480601E+006, +2.12010080790E+000, +1.00398634755E+002
+3.60087609512E+006, +2.08792347226E+000, +1.04089599712E+002
+3.72590738423E+006, +2.04923571109E+000, +1.07696541082E+002
+3.85093867334E+006, +1.65143130572E+000, +1.11419181875E+002
+3.97596996245E+006, +1.44635136121E+000, +1.15431541473E+002
+4.10100125156E+006, +5.68719160956E+000, +1.18383047886E+002
+4.22603254068E+006, +2.32677795729E+000, +1.21798388849E+002
+4.35106382979E+006, +2.32423069275E+000, +1.25537535413E+002
+4.47609511890E+006, +2.11009745142E+000, +1.29351211037E+002
+4.60112640801E+006, +2.39564362709E+000, +1.33033572822E+002
+4.72615769712E+006, +2.18536439419E+000, +1.36665622942E+002
+4.85118898623E+006, +2.17915217278E+000, +1.40334113152E+002
+4.97622027534E+006, +2.23955529351E+000, +1.44094974653E+002
+5.10125156446E+006, +2.24218583261E+000, +1.47685350591E+002
+5.22628285357E+006, +2.40936323538E+000, +1.51581562777E+002
+5.35131414268E+006, +2.29542754597E+000, +1.54919451198E+002
+5.47634543179E+006, +2.24401398217E+000, +1.58703213515E+002
+5.60137672090E+006, +2.22516335643E+000, +1.62548427698E+002
+5.72640801001E+006, +2.22324447356E+000, +1.66354078275E+002
+5.85143929912E+006, +2.09416747890E+000, +1.70029045320E+002
+5.97647058824E+006, +2.30231573965E+000, +1.73615099254E+002
+6.10150187735E+006, +2.44701142719E+000, +1.77555650653E+002
+6.22653316646E+006, +2.39266716352E+000, +1.81049043990E+002
+6.35156445557E+006, +2.22249471424E+000, +1.85059850055E+002
+6.47659574468E+006, +2.37510091612E+000, +1.88548337311E+002
+6.60162703379E+006, +2.29916906633E+000, +1.92605149194E+002
+6.72665832290E+006, +2.38370049291E+000, +1.96570207958E+002
+6.85168961202E+006, +2.47057632390E+000, +2.00215536047E+002
+6.97672090113E+006, +2.31977565240E+000, +2.03923403004E+002
+7.10175219024E+006, +2.49004654705E+000, +2.07742792089E+002
+7.22678347935E+006, +2.68698962642E+000, +2.11662326937E+002
+7.35181476846E+006, +2.59729249456E+000, +2.15340957151E+002
+7.47684605757E+006, +2.52583130470E+000, +2.19124763873E+002
+7.60187734668E+006, +2.54614322129E+000, +2.22840943998E+002
+7.72690863579E+006, +2.89234188376E+000, +2.26781984234E+002
+7.85193992491E+006, +2.86813603988E+000, +2.30691756176E+002
+7.97697121402E+006, +2.49263357599E+000, +2.34499224908E+002
+8.10200250313E+006, +2.83790663007E+000, +2.38341478492E+002
+8.22703379224E+006, +2.94582809867E+000, +2.41856759979E+002
+8.35206508135E+006, +3.02803588574E+000, +2.46206368800E+002
+8.47709637046E+006, +2.74471267870E+000, +2.49748445056E+002
+8.60212765957E+006, +3.08933256833E+000, +2.53540555224E+002
+8.72715894869E+006, +3.58771454528E+000, +2.57338437423E+002
+8.85219023780E+006, +3.64366757518E+000, +2.61135255577E+002
+8.97722152691E+006, +3.73164867483E+000, +2.65006862377E+002
+9.10225281602E+006, +3.43606394138E+000, +2.69145245337E+002
+9.22728410513E+006, +3.16645500634E+000, +2.72776507742E+002
+9.35231539424E+006, +3.00065324420E+000, +2.77134638029E+002
+9.47734668335E+006, +3.18442154391E+000, +2.80372954160E+002
+9.60237797247E+006, +4.07136238403E+000, +2.83930436434E+002
+9.72740926158E+006, +4.38932202647E+000, +2.86828712237E+002
+9.85244055069E+006, +4.40562193018E+000, +2.90236018454E+002
+9.97747183980E+006, +4.49219495105E+000, +2.93844618248E+002
+1.01025031289E+007, +4.56575765850E+000, +2.97276356408E+002
+1.02275344180E+007, +4.54558105629E+000, +3.01397716694E+002
+1.03525657071E+007, +4.71565564884E+000, +3.05346708590E+002
+1.04775969962E+007, +4.91973627301E+000, +3.09095704595E+002
+1.06026282854E+007, +4.65821690444E+000, +3.13121821421E+002
+1.07276595745E+007, +4.27223128888E+000, +3.17382183729E+002
+1.08526908636E+007, +3.88408724369E+000, +3.21795625998E+002
+1.09777221527E+007, +4.26799602248E+000, +3.26339490548E+002
+1.11027534418E+007, +3.97956797825E+000, +3.30970056678E+002
+1.12277847309E+007, +3.63442995555E+000, +3.35898849244E+002
+1.13528160200E+007, +3.11221632945E+000, +3.40299037769E+002
+1.14778473091E+007, +2.88850582412E+000, +3.46333269800E+002
+1.16028785982E+007, +2.74335839881E+000, +3.50252024498E+002
+1.17279098874E+007, +2.57548687775E+000, +3.53722464197E+002
+1.18529411765E+007, +2.84247473711E+000, +3.58076306001E+002
+1.19779724656E+007, +2.45683944821E+000, +3.62298169841E+002
+1.21030037547E+007, +2.72928437291E+000, +3.66347088471E+002
+1.22280350438E+007, +3.08029342365E+000, +3.70981059920E+002
+1.23530663329E+007, +2.61742378402E+000, +3.74862242381E+002
+1.24780976220E+007, +2.94648759754E+000, +3.80118917876E+002
+1.26031289111E+007, +2.64353549329E+000, +3.84203653974E+002
+1.27281602003E+007, +2.24003149627E+000, +3.88851203367E+002
+1.28531914894E+007, +2.47608934506E+000, +3.91679756022E+002
+1.29782227785E+007, +2.52005626870E+000, +3.96823137594E+002
+1.31032540676E+007, +2.47974620944E+000, +4.01084918811E+002
+1.32282853567E+007, +1.95624353480E+000, +4.05663824506E+002
+1.33533166458E+007, +2.45707570271E+000, +4.09895729727E+002
+1.34783479349E+007, +2.21578966168E+000, +4.14222588945E+002
+1.36033792240E+007, +1.62184168722E+000, +4.18855457810E+002
+1.37284105131E+007, +2.54490769119E+000, +4.23697028259E+002
+1.38534418023E+007, +1.90532923464E+000, +4.28966340147E+002
+1.39784730914E+007, +2.64968349039E+000, +4.33537356747E+002
+1.41035043805E+007, +2.03462831537E+000, +4.37816658283E+002
+1.42285356696E+007, +2.69019682155E+000, +4.41995145069E+002
+1.43535669587E+007, +1.53583733269E+000, +4.47348430125E+002
+1.44785982478E+007, +1.73069824953E+000, +4.50988403168E+002
+1.46036295369E+007, +1.49390062488E+000, +4.56373762581E+002
+1.47286608260E+007, +1.77706047557E+000, +4.60832661632E+002
+1.48536921151E+007, +1.30319994114E+000, +4.64906198053E+002
+1.49787234043E+007, +2.57060064268E+000, +4.70401387069E+002
+1.51037546934E+007, +1.93244536324E+000, +4.75203078208E+002
+1.52287859825E+007, +1.33519640722E+000, +4.79600828068E+002
+1.53538172716E+007, +1.89471592530E+000, +4.85219015874E+002
+1.54788485607E+007, +1.80920206040E+000, +4.89686640138E+002
+1.56038798498E+007, +2.54193564450E+000, +4.94817020436E+002
+1.57289111389E+007, +1.59190437040E+000, +5.00137676436E+002
+1.58539424280E+007, +2.18298390249E+000, +5.05193292983E+002
+1.59789737171E+007, +2.36913919217E+000, +5.09435918471E+002
+1.61040050063E+007, +1.55722201682E+000, +5.14462464333E+002
+1.62290362954E+007, +1.96026418985E+000, +5.20194798354E+002
+1.63540675845E+007, +2.22347137677E+000, +5.23372285426E+002
+1.64790988736E+007, +1.41229842209E+000, +5.30698595713E+002
+1.66041301627E+007, +2.31028263267E+000, +5.35255801670E+002
+1.67291614518E+007, +2.66388166094E+000, +5.40753139685E+002
+1.68541927409E+007, +2.21192579093E+000, +5.45910894504E+002
+1.69792240300E+007, +3.65736887664E+000, +5.51048568392E+002
+1.71042553191E+007, +2.43629428404E+000, +5.55563283659E+002
+1.72292866083E+007, +2.25928929557E+000, +5.62069491429E+002
+1.73543178974E+007, +3.07422153528E+000, +5.65711962488E+002
+1.74793491865E+007, +2.69378801354E+000, +5.71408429711E+002
+1.76043804756E+007, +4.94904731466E-001, +5.76546431156E+002
+1.77294117647E+007, +1.35350049789E+000, +5.82224013321E+002
+1.78544430538E+007, +7.16183496208E-001, +5.87305019708E+002
+1.79794743429E+007, +4.65437678365E-001, +5.92698201027E+002
+1.81045056320E+007, +1.87180010744E+000, +5.98291746932E+002
+1.82295369212E+007, +1.90328463617E+000, +6.05202515183E+002
+1.83545682103E+007, +2.56807438581E-001, +6.10497877291E+002
+1.84795994994E+007, +9.82540575501E-001, +6.16978691969E+002
+1.86046307885E+007, +1.62303405240E+000, +6.21925892570E+002
+1.87296620776E+007, +2.18034504172E+000, +6.28249308197E+002
+1.88546933667E+007, +2.71435861246E+000, +6.33817379320E+002
+1.89797246558E+007, +2.61837223886E+000, +6.40449996953E+002
+1.91047559449E+007, +3.53437728982E+000, +6.44675922038E+002
+1.92297872340E+007, +1.78798308532E+000, +6.51097547336E+002
+1.93548185232E+007, +1.34199935877E+000, +6.59091736804E+002
+1.94798498123E+007, +5.71167857913E-001, +6.61042746176E+002
+1.96048811014E+007, +7.52697574949E-001, +6.70884999830E+002
+1.97299123905E+007, +3.01742465627E+000, +6.75959328569E+002
+1.98549436796E+007, +1.09499876894E+000, +6.81147963932E+002
+1.99799749687E+007, +8.92861594326E-001, +6.89101844544E+002
+2.01050062578E+007, +1.01185896749E+000, +6.93627246839E+002
+2.02300375469E+007, +3.49675608104E+000, +7.01363287802E+002
+2.03550688360E+007, +3.05632979750E+000, +7.07326018013E+002
+2.04801001252E+007, +1.86251048826E+000, +7.13381494330E+002
+2.06051314143E+007, +2.34311767422E+000, +7.18585550486E+002
+2.07301627034E+007, +2.49008095589E+000, +7.25503397935E+002
+2.08551939925E+007, +2.47984737047E+000, +7.30927754826E+002
+2.09802252816E+007, +1.03175906135E+000, +7.38853717719E+002
+2.11052565707E+007, +3.90049109438E+000, +7.47713127769E+002
+2.12302878598E+007, +3.17099204957E+000, +7.54691644998E+002
+2.13553191489E+007, +2.84220809203E+000, +7.60943799496E+002
+2.14803504380E+007, +3.89591518464E+000, +7.64896317990E+002
+2.16053817272E+007, +4.61682509350E+000, +7.74016959128E+002
+2.17304130163E+007, +4.24639071892E+000, +7.81708378075E+002
+2.18554443054E+007, +4.35356802284E+000, +7.87144536704E+002
+2.19804755945E+007, +2.43551321087E+000, +7.95952481081E+002
+2.21055068836E+007, +6.51918681109E+000, +8.04114132971E+002
+2.22305381727E+007, +6.50316835145E+000, +8.10710606990E+002
+2.23555694618E+007, +3.19604570162E+000, +8.20177622678E+002
+2.24806007509E+007, +4.14693216936E+000, +8.24739682898E+002
+2.26056320401E+007, +7.13651556493E+000, +8.33228045900E+002
+2.27306633292E+007, +6.63843602181E+000, +8.41167822348E+002
+2.28556946183E+007, +6.86022865674E+000, +8.48743244572E+002
+2.29807259074E+007, +7.24433590635E+000, +8.55033547028E+002
+2.31057571965E+007, +7.64334407619E+000, +8.66061203906E+002
+2.32307884856E+007, +9.49623682467E+000, +8.71520284136E+002
+2.33558197747E+007, +1.00017049986E+001, +8.81160594415E+002
+2.34808510638E+007, +1.49013019747E+001, +8.90685430233E+002
+2.36058823529E+007, +1.30747210005E+001, +8.98800651901E+002
+2.37309136421E+007, +1.44378017651E+001, +9.05596547869E+002
+2.38559449312E+007, +1.41845633978E+001, +9.09910896001E+002
+2.39809762203E+007, +1.51765597670E+001, +9.15489701927E+002
+2.41060075094E+007, +1.59763558916E+001, +9.27831471766E+002
+2.42310387985E+007, +1.69021199051E+001, +9.34448008962E+002
+2.43560700876E+007, +1.60264729994E+001, +9.41322743898E+002
+2.44811013767E+007, +1.76702478341E+001, +9.45583822780E+002
+2.46061326658E+007, +1.60069979209E+001, +9.54951649928E+002
+2.47311639549E+007, +1.51935942455E+001, +9.64149433497E+002
+2.48561952441E+007, +1.85926354943E+001, +9.70042177849E+002
+2.49812265332E+007, +1.70544988488E+001, +9.80764464910E+002
+2.51062578223E+007, +1.41893523500E+001, +9.86858799403E+002
+2.52312891114E+007, +1.32380827987E+001, +9.93049565493E+002
+2.53563204005E+007, +1.03322265649E+001, +1.00496671688E+003
+2.54813516896E+007, +1.46425276910E+001, +1.01296206163E+003
+2.56063829787E+007, +9.61850288279E+000, +1.01907993487E+003
+2.57314142678E+007, +1.15554042082E+001, +1.03053852293E+003
+2.58564455569E+007, +1.54187038795E+001, +1.04337506264E+003
+2.59814768461E+007, +1.28266545971E+001, +1.04892583777E+003
+2.61065081352E+007, +9.26960575748E+000, +1.06226679842E+003
+2.62315394243E+007, +8.97989887129E+000, +1.07255053906E+003
+2.63565707134E+007, +8.02421981628E+000, +1.08164187033E+003
+2.64816020025E+007, +7.83403468563E+000, +1.09202507836E+003
+2.66066332916E+007, +8.60635835816E+000, +1.10309718844E+003
+2.67316645807E+007, +1.09672520640E+001, +1.11359618142E+003
+2.68566958698E+007, +1.24441379457E+001, +1.11975339650E+003
+2.69817271589E+007, +7.39720610952E+000, +1.13339307983E+003
+2.71067584481E+007, +1.13242499981E+001, +1.14752204986E+003
+2.72317897372E+007, +1.12676815731E+001, +1.15605644457E+003
+2.73568210263E+007, +1.37292267269E+001, +1.16817626832E+003
+2.74818523154E+007, +9.62241876029E+000, +1.18313065659E+003
+2.76068836045E+007, +1.52670082671E+001, +1.19388242621E+003
+2.77319148936E+007, +1.61134207963E+001, +1.20533470705E+003
+2.78569461827E+007, +2.36597735318E+001, +1.21293564758E+003
+2.79819774718E+007, +1.37200848308E+001, +1.22095134816E+003
+2.81070087610E+007, +1.58308151031E+001, +1.23573778386E+003
+2.82320400501E+007, +1.45982652184E+001, +1.24866730958E+003
+2.83570713392E+007, +1.44976948380E+001, +1.25812322333E+003
+2.84821026283E+007, +1.35522530939E+001, +1.26822349855E+003
+2.86071339174E+007, +1.43760582427E+001, +1.28281462809E+003
+2.87321652065E+007, +1.95509377580E+001, +1.29462321871E+003
+2.88571964956E+007, +1.41994454059E+001, +1.31293274775E+003
+2.89822277847E+007, +1.24799846296E+001, +1.32523054991E+003
+2.91072590738E+007, +1.22944008601E+001, +1.33766228330E+003
+2.92322903630E+007, +1.24090839638E+001, +1.36010928975E+003
+2.93573216521E+007, +1.67340986259E+001, +1.36609763749E+003
+2.94823529412E+007, +1.99989488384E+001, +1.39050378257E+003
+2.96073842303E+007, +1.73598171433E+001, +1.39749544313E+003
+2.97324155194E+007, +2.16510432799E+001, +1.40994783064E+003
+2.98574468085E+007, +2.21100499337E+001, +1.42914422999E+003
+2.99824780976E+007, +1.45072971555E+001, +1.44289226134E+003
+3.01075093867E+007, +2.15271612095E+001, +1.46464952139E+003
+3.02325406758E+007, +2.34112427188E+001, +1.47286602131E+003
+3.03575719650E+007, +2.42080572893E+001, +1.49013772420E+003
+3.04826032541E+007, +1.98608755606E+001, +1.50814447874E+003
+3.06076345432E+007, +2.47054128704E+001, +1.52637069036E+003
+3.07326658323E+007, +1.97638779133E+001, +1.54194476022E+003
+3.08576971214E+007, +3.05482192604E+001, +1.55968058582E+003
+3.09827284105E+007, +2.80077401102E+001, +1.58482063116E+003
+3.11077596996E+007, +3.05661150994E+001, +1.59119672432E+003
+3.12327909887E+007, +3.59951781366E+001, +1.61316427749E+003
+3.13578222778E+007, +3.56200715773E+001, +1.63474247645E+003
+3.14828535670E+007, +3.76683723300E+001, +1.65488008354E+003
+3.16078848561E+007, +3.77299130109E+001, +1.67268142842E+003
+3.17329161452E+007, +3.63728768539E+001, +1.69351391610E+003
+3.18579474343E+007, +3.90329926635E+001, +1.71602549840E+003
+3.19829787234E+007, +4.41488254612E+001, +1.73791405021E+003
+3.21080100125E+007, +3.41344306462E+001, +1.75485138588E+003
+3.22330413016E+007, +4.61673996768E+001, +1.77793885952E+003
+3.23580725907E+007, +4.68973445652E+001, +1.79334337748E+003
+3.24831038798E+007, +3.96586171750E+001, +1.81486704793E+003
+3.26081351690E+007, +4.79765253947E+001, +1.84659791268E+003
+3.27331664581E+007, +5.29793135582E+001, +1.86254444476E+003
+3.28581977472E+007, +3.79058290211E+001, +1.89485529670E+003
+3.29832290363E+007, +5.02446956361E+001, +1.91736593085E+003
+3.31082603254E+007, +5.26134793576E+001, +1.93900436648E+003
+3.32332916145E+007, +5.00491396449E+001, +1.95817111659E+003
+3.33583229036E+007, +5.96454629274E+001, +1.98180120921E+003
+3.34833541927E+007, +5.54888380799E+001, +1.99774904756E+003
+3.36083854819E+007, +6.25588485792E+001, +2.04805627604E+003
+3.37334167710E+007, +7.07355170650E+001, +2.07373006380E+003
+3.38584480601E+007, +6.47883223411E+001, +2.09128065440E+003
+3.39834793492E+007, +7.36654504213E+001, +2.12860966151E+003
+3.41085106383E+007, +7.70708423659E+001, +2.14985756052E+003
+3.42335419274E+007, +9.27409452980E+001, +2.19310511203E+003
+3.43585732165E+007, +6.66640695655E+001, +2.20531416489E+003
+3.44836045056E+007, +9.05269116658E+001, +2.24982654354E+003
+3.46086357947E+007, +9.07111474521E+001, +2.28265158356E+003
+3.47336670839E+007, +8.90757395867E+001, +2.31314173581E+003
+3.48586983730E+007, +1.00651319059E+002, +2.34406719391E+003
+3.49837296621E+007, +1.21407784770E+002, +2.41716311461E+003
+3.51087609512E+007, +1.05329040622E+002, +2.41868866674E+003
+3.52337922403E+007, +1.10406003101E+002, +2.46426177270E+003
+3.53588235294E+007, +1.33951282155E+002, +2.49290470452E+003
+3.54838548185E+007, +1.15965897109E+002, +2.54318429221E+003
+3.56088861076E+007, +9.33759518182E+001, +2.57096206684E+003
+3.57339173967E+007, +1.34867126753E+002, +2.59413630473E+003
+3.58589486859E+007, +1.18337800910E+002, +2.65877492970E+003
+3.59839799750E+007, +1.38646139317E+002, +2.69254446909E+003
+3.61090112641E+007, +1.61623124702E+002, +2.75007775441E+003
+3.62340425532E+007, +1.55116066745E+002, +2.82572340635E+003
+3.63590738423E+007, +1.34344990638E+002, +2.84512098506E+003
+3.64841051314E+007, +1.86139162524E+002, +2.89328897593E+003
+3.66091364205E+007, +1.91204358551E+002, +2.94574657539E+003
+3.67341677096E+007, +1.92281295528E+002, +3.04708739212E+003
+3.68591989987E+007, +1.94203557892E+002, +3.07386625027E+003
+3.69842302879E+007, +2.17026887288E+002, +3.12720293991E+003
+3.71092615770E+007, +2.72881727536E+002, +3.18507997430E+003
+3.72342928661E+007, +2.21810837340E+002, +3.22492071306E+003
+3.73593241552E+007, +2.73947452589E+002, +3.30939275019E+003
+3.74843554443E+007, +2.52986209439E+002, +3.44763607065E+003
+3.76093867334E+007, +3.05719015626E+002, +3.47542786014E+003
+3.77344180225E+007, +3.31611472199E+002, +3.52622759689E+003
+3.78594493116E+007, +3.35232993741E+002, +3.60452080595E+003
+3.79844806008E+007, +3.25142928272E+002, +3.68938005020E+003
+3.81095118899E+007, +3.28169833395E+002, +3.77494671323E+003
+3.82345431790E+007, +3.92837984964E+002, +3.92354655798E+003
+3.83595744681E+007, +3.75273204219E+002, +3.95471777778E+003
+3.84846057572E+007, +3.89447472288E+002, +4.08225474604E+003
+3.86096370463E+007, +4.40261341470E+002, +4.19080110836E+003
+3.87346683354E+007, +5.42639027640E+002, +4.30415857619E+003
+3.88596996245E+007, +4.86912423644E+002, +4.49710341358E+003
+3.89847309136E+007, +5.97890362661E+002, +4.52900149891E+003
+3.91097622028E+007, +6.28303144602E+002, +4.69632320111E+003
+3.92347934919E+007, +6.01759675541E+002, +4.79125561387E+003
+3.93598247810E+007, +7.34840834994E+002, +4.91041772496E+003
+3.94848560701E+007, +7.75739648807E+002, +5.12198721157E+003
+3.96098873592E+007, +7.37511878496E+002, +5.28141177317E+003
+3.97349186483E+007, +8.33740498713E+002, +5.45440616858E+003
+3.98599499374E+007, +9.85441541860E+002, +5.70417421884E+003
+3.99849812265E+007, +1.13056260489E+003, +5.83720335345E+003
+4.01100125156E+007, +1.10836592117E+003, +6.01153583661E+003
