"# Channel 1"
"# Trace 1"
Frequency, Formatted Data, Formatted Data
+1.00000000000E+005, +5.95053795287E+001, +2.76573303337E+000
+2.25031289111E+005, +5.93805941996E+001, +6.65033643700E+000
+3.50062578223E+005, +5.93817545872E+001, +1.03806708182E+001
+4.75093867334E+005, +5.94915517617E+001, +1.40940212332E+001
+6.00125156446E+005, +5.94277096483E+001, +1.77462205534E+001
+7.25156445557E+005, +5.94615353339E+001, +2.14324750801E+001
+8.50187734668E+005, +5.95164643993E+001, +2.51086438183E+001
+9.75219023780E+005, +5.95097219132E+001, +2.88119881048E+001
+1.10025031289E+006, +5.95162112452E+001, +3.24593203306E+001
+1.22528160200E+006, +5.95704711324E+001, +3.60838684184E+001
+1.35031289111E+006, +5.95495053729E+001, +3.98401660496E+001
+1.47534418023E+006, +5.95608049699E+001, +4.34124806220E+001
+1.60037546934E+006, +5.95826304568E+001, +4.71585152982E+001
+1.72540675845E+006, +5.96133638105E+001, +5.08118863474E+001
+1.85043804756E+006, +5.96176674818E+001, +5.44736551933E+001
+1.97546933667E+006, +5.96281170940E+001, +5.82170691737E+001
+2.10050062578E+006, +5.96573706408E+001, +6.18983270588E+001
+2.22553191489E+006, +5.97080502581E+001, +6.55008266073E+001
+2.35056320401E+006, +5.97885794025E+001, +6.92773566146E+001
+2.47559449312E+006, +5.97753937360E+001, +7.29588650257E+001
+2.60062578223E+006, +5.98544988401E+001, +7.66190402556E+001
+2.72565707134E+006, +5.98050092428E+001, +8.03447052374E+001
+2.85068836045E+006, +5.98141372721E+001, +8.40737916682E+001
+2.97571964956E+006, +5.97856998314E+001, +8.78712953673E+001
+3.10075093867E+006, +6.00730847829E+001, +9.15537334157E+001
+3.22578222778E+006, +5.99592156512E+001, +9.50714613832E+001
+3.35081351690E+006, +6.00013627226E+001, +9.88376413475E+001
+3.47584480601E+006, +6.00516827419E+001, +1.02555281524E+002
+3.60087609512E+006, +6.01129346363E+001, +1.06317454980E+002
+3.72590738423E+006, +5.99699731916E+001, +1.10277232198E+002
+3.85093867334E+006, +5.97863983216E+001, +1.14394045420E+002
+3.97596996245E+006, +6.01928824570E+001, +1.18602168590E+002
+4.10100125156E+006, +6.25914646238E+001, +1.17647546879E+002
+4.22603254068E+006, +5.99773773208E+001, +1.24630911694E+002
+4.35106382979E+006, +6.01394155958E+001, +1.28490901480E+002
+4.47609511890E+006, +6.03433684871E+001, +1.32410977770E+002
+4.60112640801E+006, +6.05419507452E+001, +1.36238742598E+002
+4.72615769712E+006, +6.05488875897E+001, +1.40077510262E+002
+4.85118898623E+006, +6.06754956617E+001, +1.43800877087E+002
+4.97622027534E+006, +6.07464198916E+001, +1.47494422783E+002
+5.10125156446E+006, +6.07809092595E+001, +1.51213063411E+002
+5.22628285357E+006, +6.07005597362E+001, +1.55296498843E+002
+5.35131414268E+006, +6.08390950372E+001, +1.58974293462E+002
+5.47634543179E+006, +6.09893561128E+001, +1.62664304968E+002
+5.60137672090E+006, +6.06878191162E+001, +1.66638832940E+002
+5.72640801001E+006, +6.09286900672E+001, +1.70266037698E+002
+5.85143929912E+006, +6.10641762382E+001, +1.74431118627E+002
+5.97647058824E+006, +6.12345973516E+001, +1.78088492950E+002
+6.10150187735E+006, +6.11572670994E+001, +1.81828482105E+002
+6.22653316646E+006, +6.12832188170E+001, +1.85763601327E+002
+6.35156445557E+006, +6.14153503207E+001, +1.89822958686E+002
+6.47659574468E+006, +6.15392264109E+001, +1.93790100333E+002
+6.60162703379E+006, +6.17042274036E+001, +1.97506269904E+002
+6.72665832290E+006, +6.19989206008E+001, +2.01713473164E+002
+6.85168961202E+006, +6.19690502929E+001, +2.05439021025E+002
+6.97672090113E+006, +6.17306374254E+001, +2.09413838749E+002
+7.10175219024E+006, +6.22764799774E+001, +2.13100612842E+002
+7.22678347935E+006, +6.24580717480E+001, +2.17265412713E+002
+7.35181476846E+006, +6.25864779601E+001, +2.21303660083E+002
+7.47684605757E+006, +6.23574535062E+001, +2.25074054349E+002
+7.60187734668E+006, +6.25936949752E+001, +2.29068913614E+002
+7.72690863579E+006, +6.30044093997E+001, +2.32847572280E+002
+7.85193992491E+006, +6.33131602777E+001, +2.36867134802E+002
+7.97697121402E+006, +6.29432743794E+001, +2.40852369113E+002
+8.10200250313E+006, +6.31311805626E+001, +2.44460981845E+002
+8.22703379224E+006, +6.36833257946E+001, +2.48706845587E+002
+8.35206508135E+006, +6.35708433803E+001, +2.52920129765E+002
+8.47709637046E+006, +6.35465256965E+001, +2.56861483260E+002
+8.60212765957E+006, +6.37752928917E+001, +2.60589670808E+002
+8.72715894869E+006, +6.40179485625E+001, +2.63874189034E+002
+8.85219023780E+006, +6.39932539402E+001, +2.67942335108E+002
+8.97722152691E+006, +6.42796486612E+001, +2.72238262827E+002
+9.10225281602E+006, +6.46614349963E+001, +2.76277749155E+002
+9.22728410513E+006, +6.41590716546E+001, +2.80885672019E+002
+9.35231539424E+006, +6.41083264254E+001, +2.85051176847E+002
+9.47734668335E+006, +6.41972109376E+001, +2.88262420616E+002
+9.60237797247E+006, +6.47954535588E+001, +2.91673426268E+002
+9.72740926158E+006, +6.49110714337E+001, +2.94785712856E+002
+9.85244055069E+006, +6.47201030603E+001, +2.98241907661E+002
+9.97747183980E+006, +6.50777739839E+001, +3.01809420229E+002
+1.01025031289E+007, +6.50225235549E+001, +3.05631969420E+002
+1.02275344180E+007, +6.53035647332E+001, +3.09359685095E+002
+1.03525657071E+007, +6.53472799765E+001, +3.13599000498E+002
+1.04775969962E+007, +6.52947301313E+001, +3.17508254051E+002
+1.06026282854E+007, +6.52996776354E+001, +3.22181618887E+002
+1.07276595745E+007, +6.57230803022E+001, +3.26810171784E+002
+1.08526908636E+007, +6.49416822702E+001, +3.31664058160E+002
+1.09777221527E+007, +6.57530095797E+001, +3.35988669366E+002
+1.11027534418E+007, +6.61128550496E+001, +3.41038461611E+002
+1.12277847309E+007, +6.60887449981E+001, +3.46098216148E+002
+1.13528160200E+007, +6.66008895949E+001, +3.51078668785E+002
+1.14778473091E+007, +6.64757618621E+001, +3.56698585995E+002
+1.16028785982E+007, +6.62896874032E+001, +3.61437489760E+002
+1.17279098874E+007, +6.62128507073E+001, +3.65340453334E+002
+1.18529411765E+007, +6.67628364766E+001, +3.69353429856E+002
+1.19779724656E+007, +6.67492253254E+001, +3.73901364483E+002
+1.21030037547E+007, +6.64463204464E+001, +3.78831257248E+002
+1.22280350438E+007, +6.68468367707E+001, +3.83639523278E+002
+1.23530663329E+007, +6.77591539697E+001, +3.87866124275E+002
+1.24780976220E+007, +6.75810250649E+001, +3.92288198588E+002
+1.26031289111E+007, +6.80551194592E+001, +3.97119565395E+002
+1.27281602003E+007, +6.77972758666E+001, +4.01358692191E+002
+1.28531914894E+007, +6.80353765883E+001, +4.05658747218E+002
+1.29782227785E+007, +6.86029293659E+001, +4.10320647509E+002
+1.31032540676E+007, +6.83600617340E+001, +4.14645597165E+002
+1.32282853567E+007, +6.86305390921E+001, +4.19515915543E+002
+1.33533166458E+007, +6.82584298507E+001, +4.24881478521E+002
+1.34783479349E+007, +6.88136663814E+001, +4.28714456199E+002
+1.36033792240E+007, +6.91671297715E+001, +4.34150720051E+002
+1.37284105131E+007, +6.93711451909E+001, +4.38043069209E+002
+1.38534418023E+007, +7.03981665255E+001, +4.43495942563E+002
+1.39784730914E+007, +7.08477314131E+001, +4.49191889009E+002
+1.41035043805E+007, +7.01033318075E+001, +4.54480535658E+002
+1.42285356696E+007, +7.08828142180E+001, +4.58432913405E+002
+1.43535669587E+007, +7.01898476401E+001, +4.63807127188E+002
+1.44785982478E+007, +6.99492856730E+001, +4.68235607354E+002
+1.46036295369E+007, +7.06442187283E+001, +4.73512109860E+002
+1.47286608260E+007, +7.07658518293E+001, +4.78540279162E+002
+1.48536921151E+007, +7.11566147564E+001, +4.82788522371E+002
+1.49787234043E+007, +7.16866923364E+001, +4.88166338137E+002
+1.51037546934E+007, +7.19130369393E+001, +4.94046428780E+002
+1.52287859825E+007, +7.22306939596E+001, +4.98043018273E+002
+1.53538172716E+007, +7.22013850725E+001, +5.03372787426E+002
+1.54788485607E+007, +7.24739839718E+001, +5.09388077348E+002
+1.56038798498E+007, +7.33555283673E+001, +5.13799991045E+002
+1.57289111389E+007, +7.18327286234E+001, +5.21375652520E+002
+1.58539424280E+007, +7.35085145356E+001, +5.25000763141E+002
+1.59789737171E+007, +7.43983441272E+001, +5.31152661062E+002
+1.61040050063E+007, +7.45294213382E+001, +5.35345779049E+002
+1.62290362954E+007, +7.53696219654E+001, +5.40994558772E+002
+1.63540675845E+007, +7.55949423681E+001, +5.45432730949E+002
+1.64790988736E+007, +7.57180550688E+001, +5.51663385223E+002
+1.66041301627E+007, +7.62011878295E+001, +5.55944080005E+002
+1.67291614518E+007, +7.62533513772E+001, +5.62021660612E+002
+1.68541927409E+007, +7.66401288500E+001, +5.68305780783E+002
+1.69792240300E+007, +7.71489291257E+001, +5.73927572065E+002
+1.71042553191E+007, +7.64883546832E+001, +5.79507986275E+002
+1.72292866083E+007, +7.74212198338E+001, +5.86493994695E+002
+1.73543178974E+007, +7.72887620489E+001, +5.89444953582E+002
+1.74793491865E+007, +7.78068266927E+001, +5.96382116725E+002
+1.76043804756E+007, +7.93665927168E+001, +6.02561131535E+002
+1.77294117647E+007, +7.74701301495E+001, +6.09163253332E+002
+1.78544430538E+007, +7.85082159972E+001, +6.13664065103E+002
+1.79794743429E+007, +7.96305802047E+001, +6.20575563394E+002
+1.81045056320E+007, +8.04051116292E+001, +6.25528328684E+002
+1.82295369212E+007, +7.99521403619E+001, +6.32950334024E+002
+1.83545682103E+007, +8.13190248290E+001, +6.37501510354E+002
+1.84795994994E+007, +8.15981303854E+001, +6.45095112105E+002
+1.86046307885E+007, +8.23005825925E+001, +6.51253198065E+002
+1.87296620776E+007, +8.30168403314E+001, +6.55459878458E+002
+1.88546933667E+007, +8.34451734445E+001, +6.61266893809E+002
+1.89797246558E+007, +8.34726664796E+001, +6.69195347475E+002
+1.91047559449E+007, +8.45187919329E+001, +6.74951293849E+002
+1.92297872340E+007, +8.38710355243E+001, +6.82998853458E+002
+1.93548185232E+007, +8.74101769653E+001, +6.90652570990E+002
+1.94798498123E+007, +8.46951607825E+001, +6.95054787827E+002
+1.96048811014E+007, +8.73404415499E+001, +7.01063606213E+002
+1.97299123905E+007, +8.76456307099E+001, +7.09316721141E+002
+1.98549436796E+007, +8.81771890267E+001, +7.17123300715E+002
+1.99799749687E+007, +8.98107849131E+001, +7.23043668652E+002
+2.01050062578E+007, +8.83957789580E+001, +7.28822597901E+002
+2.02300375469E+007, +8.97936328059E+001, +7.37659101302E+002
+2.03550688360E+007, +9.01474986683E+001, +7.41993496855E+002
+2.04801001252E+007, +9.15922404395E+001, +7.48554990576E+002
+2.06051314143E+007, +9.26419184226E+001, +7.58587738396E+002
+2.07301627034E+007, +9.41602738696E+001, +7.65014979566E+002
+2.08551939925E+007, +9.49870187617E+001, +7.70297259930E+002
+2.09802252816E+007, +9.60101511537E+001, +7.78916085810E+002
+2.11052565707E+007, +9.41580289341E+001, +7.86432799335E+002
+2.12302878598E+007, +9.51824469502E+001, +7.95462843941E+002
+2.13553191489E+007, +1.00289770154E+002, +8.00803205974E+002
+2.14803504380E+007, +1.01262758569E+002, +8.09663805476E+002
+2.16053817272E+007, +1.00551063167E+002, +8.15900647637E+002
+2.17304130163E+007, +1.01741544656E+002, +8.23065235899E+002
+2.18554443054E+007, +1.03274542268E+002, +8.31500934720E+002
+2.19804755945E+007, +1.03270782488E+002, +8.41016772084E+002
+2.21055068836E+007, +1.03806347552E+002, +8.49421841282E+002
+2.22305381727E+007, +1.05023511148E+002, +8.58140833968E+002
+2.23555694618E+007, +1.09308854364E+002, +8.62554061033E+002
+2.24806007509E+007, +1.08239297737E+002, +8.72953437313E+002
+2.26056320401E+007, +1.10101508430E+002, +8.81006423788E+002
+2.27306633292E+007, +1.11275702304E+002, +8.88243457496E+002
+2.28556946183E+007, +1.14405925787E+002, +8.99310909777E+002
+2.29807259074E+007, +1.16252057128E+002, +9.06614110218E+002
+2.31057571965E+007, +1.15747545164E+002, +9.16129547092E+002
+2.32307884856E+007, +1.20396850643E+002, +9.22374440668E+002
+2.33558197747E+007, +1.20628311733E+002, +9.31563058279E+002
+2.34808510638E+007, +1.23326493024E+002, +9.43397331286E+002
+2.36058823529E+007, +1.24193453801E+002, +9.44910234725E+002
+2.37309136421E+007, +1.27257585113E+002, +9.58440807456E+002
+2.38559449312E+007, +1.28023101924E+002, +9.63887119398E+002
+2.39809762203E+007, +1.29642076755E+002, +9.72504335087E+002
+2.41060075094E+007, +1.33349577036E+002, +9.77815858953E+002
+2.42310387985E+007, +1.33023792403E+002, +9.87000938555E+002
+2.43560700876E+007, +1.35279421148E+002, +9.98478515435E+002
+2.44811013767E+007, +1.32292412081E+002, +1.00114877135E+003
+2.46061326658E+007, +1.35682718728E+002, +1.00908618057E+003
+2.47311639549E+007, +1.33772132477E+002, +1.01973741866E+003
+2.48561952441E+007, +1.34960310561E+002, +1.02947565250E+003
+2.49812265332E+007, +1.32632794735E+002, +1.03970135171E+003
+2.51062578223E+007, +1.38608759786E+002, +1.04665097693E+003
+2.52312891114E+007, +1.34539822394E+002, +1.05825547808E+003
+2.53563204005E+007, +1.33917640427E+002, +1.06938012502E+003
+2.54813516896E+007, +1.39541475735E+002, +1.07909880340E+003
+2.56063829787E+007, +1.34423513506E+002, +1.08715788695E+003
+2.57314142678E+007, +1.33422525626E+002, +1.09240520066E+003
+2.58564455569E+007, +1.31953187442E+002, +1.11418249897E+003
+2.59814768461E+007, +1.36609737403E+002, +1.12496258769E+003
+2.61065081352E+007, +1.38679776760E+002, +1.13649945486E+003
+2.62315394243E+007, +1.37956479885E+002, +1.14185013862E+003
+2.63565707134E+007, +1.45663588116E+002, +1.15954657792E+003
+2.64816020025E+007, +1.41694379579E+002, +1.16926939119E+003
+2.66066332916E+007, +1.48879309378E+002, +1.17555608139E+003
+2.67316645807E+007, +1.43708926826E+002, +1.19294366316E+003
+2.68566958698E+007, +1.44663366403E+002, +1.20102682746E+003
+2.69817271589E+007, +1.49717682368E+002, +1.22409749271E+003
+2.71067584481E+007, +1.56633327268E+002, +1.23538085989E+003
+2.72317897372E+007, +1.57294416106E+002, +1.24892439743E+003
+2.73568210263E+007, +1.57150364347E+002, +1.26181809507E+003
+2.74818523154E+007, +1.63885601570E+002, +1.27250877904E+003
+2.76068836045E+007, +1.66312090190E+002, +1.27974993105E+003
+2.77319148936E+007, +1.67164347918E+002, +1.29934074988E+003
+2.78569461827E+007, +1.71194426201E+002, +1.30985348720E+003
+2.79819774718E+007, +1.74097806490E+002, +1.32215739442E+003
+2.81070087610E+007, +1.77858431490E+002, +1.33281542483E+003
+2.82320400501E+007, +1.68406773409E+002, +1.34512252276E+003
+2.83570713392E+007, +1.80150321165E+002, +1.36716440412E+003
+2.84821026283E+007, +1.79875457101E+002, +1.37944811369E+003
+2.86071339174E+007, +1.75813094436E+002, +1.38673384411E+003
+2.87321652065E+007, +1.77354669788E+002, +1.41694610661E+003
+2.88571964956E+007, +1.85420383785E+002, +1.42629187962E+003
+2.89822277847E+007, +1.92620894388E+002, +1.44854985048E+003
+2.91072590738E+007, +1.93009073068E+002, +1.46567619102E+003
+2.92322903630E+007, +2.01439517093E+002, +1.47270410809E+003
+2.93573216521E+007, +1.96539634259E+002, +1.48904490700E+003
+2.94823529412E+007, +1.99187174480E+002, +1.49847458534E+003
+2.96073842303E+007, +2.07329920922E+002, +1.52964870055E+003
+2.97324155194E+007, +2.10153691054E+002, +1.54279039920E+003
+2.98574468085E+007, +1.99334309766E+002, +1.57247549129E+003
+2.99824780976E+007, +2.20797372541E+002, +1.57530499422E+003
+3.01075093867E+007, +2.27606645685E+002, +1.60801168356E+003
+3.02325406758E+007, +2.23348345293E+002, +1.62161354014E+003
+3.03575719650E+007, +2.38149365536E+002, +1.64146349425E+003
+3.04826032541E+007, +2.41478945609E+002, +1.66780888249E+003
+3.06076345432E+007, +2.39248281511E+002, +1.67054437323E+003
+3.07326658323E+007, +2.47530271508E+002, +1.69660820365E+003
+3.08576971214E+007, +2.45549754108E+002, +1.72952691407E+003
+3.09827284105E+007, +2.56956078585E+002, +1.73719125308E+003
+3.11077596996E+007, +2.48426714665E+002, +1.75479187025E+003
+3.12327909887E+007, +2.64474272387E+002, +1.78995612640E+003
+3.13578222778E+007, +2.67920150276E+002, +1.80583559686E+003
+3.14828535670E+007, +2.81235132576E+002, +1.84183335325E+003
+3.16078848561E+007, +2.82140226181E+002, +1.85523213641E+003
+3.17329161452E+007, +2.93368735021E+002, +1.88190715474E+003
+3.18579474343E+007, +3.07951834922E+002, +1.91139518322E+003
+3.19829787234E+007, +3.09926429563E+002, +1.92413504074E+003
+3.21080100125E+007, +3.09075623137E+002, +1.95255083902E+003
+3.22330413016E+007, +3.19008634678E+002, +1.99522955526E+003
+3.23580725907E+007, +3.19917823027E+002, +2.00225967276E+003
+3.24831038798E+007, +3.47120209466E+002, +2.04623408876E+003
+3.26081351690E+007, +3.57284422853E+002, +2.05725265744E+003
+3.27331664581E+007, +3.48764344253E+002, +2.09602410270E+003
+3.28581977472E+007, +3.73092842775E+002, +2.11925539704E+003
+3.29832290363E+007, +3.79839666024E+002, +2.14157766134E+003
+3.31082603254E+007, +3.89920425177E+002, +2.19128922502E+003
+3.32332916145E+007, +4.05829602041E+002, +2.23047134084E+003
+3.33583229036E+007, +4.07006280591E+002, +2.24780278120E+003
+3.34833541927E+007, +4.22544650024E+002, +2.31203062679E+003
+3.36083854819E+007, +4.24170272891E+002, +2.31146291195E+003
+3.37334167710E+007, +4.50912170660E+002, +2.33691143890E+003
+3.38584480601E+007, +4.54002301885E+002, +2.39594243089E+003
+3.39834793492E+007, +4.85398344308E+002, +2.41433828935E+003
+3.41085106383E+007, +4.72680135519E+002, +2.48860341024E+003
+3.42335419274E+007, +5.03867696304E+002, +2.50008713620E+003
+3.43585732165E+007, +5.28236735909E+002, +2.52344395824E+003
+3.44836045056E+007, +5.57319196744E+002, +2.57412502179E+003
+3.46086357947E+007, +5.59864093364E+002, +2.62372022380E+003
+3.47336670839E+007, +5.97524581843E+002, +2.69843770056E+003
+3.48586983730E+007, +5.83350203057E+002, +2.72820833171E+003
+3.49837296621E+007, +6.38504374644E+002, +2.79496719358E+003
+3.51087609512E+007, +6.50203359206E+002, +2.80264240737E+003
+3.52337922403E+007, +6.38857602379E+002, +2.86316128055E+003
+3.53588235294E+007, +6.59899116259E+002, +2.92247622597E+003
+3.54838548185E+007, +6.75210659624E+002, +2.93403434959E+003
+3.56088861076E+007, +7.52451209103E+002, +3.00358052766E+003
+3.57339173967E+007, +7.51951600085E+002, +3.07189893985E+003
+3.58589486859E+007, +8.00721063151E+002, +3.12785140651E+003
+3.59839799750E+007, +8.09805333686E+002, +3.20398797440E+003
+3.61090112641E+007, +8.56162559656E+002, +3.24020124556E+003
+3.62340425532E+007, +8.98701065140E+002, +3.33485243361E+003
+3.63590738423E+007, +8.96903372120E+002, +3.36226817289E+003
+3.64841051314E+007, +9.35694004549E+002, +3.48391381673E+003
+3.66091364205E+007, +1.04796501770E+003, +3.52615856799E+003
+3.67341677096E+007, +1.05745830536E+003, +3.58124554812E+003
+3.68591989987E+007, +1.11031456064E+003, +3.67984112566E+003
+3.69842302879E+007, +1.14477422599E+003, +3.76788496477E+003
+3.71092615770E+007, +1.22190696525E+003, +3.83852523261E+003
+3.72342928661E+007, +1.29500584491E+003, +4.00222540730E+003
+3.73593241552E+007, +1.33338168216E+003, +3.98411468601E+003
+3.74843554443E+007, +1.40722952148E+003, +4.06250039392E+003
+3.76093867334E+007, +1.52537350208E+003, +4.24907248773E+003
+3.77344180225E+007, +1.56198407099E+003, +4.30318320178E+003
+3.78594493116E+007, +1.59171915334E+003, +4.37512192825E+003
+3.79844806008E+007, +1.80690660363E+003, +4.48873234593E+003
+3.81095118899E+007, +1.86101325713E+003, +4.53207582008E+003
+3.82345431790E+007, +1.96384216935E+003, +4.74644521590E+003
+3.83595744681E+007, +2.06083468062E+003, +4.88095977310E+003
+3.84846057572E+007, +2.27118543119E+003, +5.15638820867E+003
+3.86096370463E+007, +2.33229860493E+003, +5.00957000463E+003
+3.87346683354E+007, +2.68744326347E+003, +5.20387227901E+003
+3.88596996245E+007, +2.76148827206E+003, +5.29718013238E+003
+3.89847309136E+007, +3.09932645518E+003, +5.51186130272E+003
+3.91097622028E+007, +3.07355896656E+003, +5.53773319018E+003
+3.92347934919E+007, +3.44052903430E+003, +5.56618630015E+003
+3.93598247810E+007, +3.70432051103E+003, +5.87268452663E+003
+3.94848560701E+007, +3.95644619963E+003, +6.01244920067E+003
+3.96098873592E+007, +4.37356147294E+003, +6.11443882932E+003
+3.97349186483E+007, +4.70734682244E+003, +6.24801564340E+003
+3.98599499374E+007, +5.25486633028E+003, +6.42594576848E+003
+3.99849812265E+007, +5.39567124837E+003, +6.23741848671E+003
+4.01100125156E+007, +6.14015008860E+003, +6.20742167395E+003
