"# Channel 1"
"# Trace 1"
Frequency, Formatted Data, Formatted Data
+1.00000000000E+005, +1.24499162333E+001, +2.80069293039E+000
+2.66777963272E+005, +1.24378422051E+001, +7.48418645834E+000
+4.33555926544E+005, +1.24231692098E+001, +1.21778778996E+001
+6.00333889816E+005, +1.24449529546E+001, +1.68278539364E+001
+7.67111853088E+005, +1.24848750717E+001, +2.15135030739E+001
+9.33889816361E+005, +1.25086544087E+001, +2.61573885390E+001
+1.10066777963E+006, +1.24395216096E+001, +3.08938793921E+001
+1.26744574290E+006, +1.24836610787E+001, +3.55360963661E+001
+1.43422370618E+006, +1.24259526083E+001, +4.03104741328E+001
+1.60100166945E+006, +1.25284060622E+001, +4.48383363294E+001
+1.76777963272E+006, +1.24993229735E+001, +4.95083976647E+001
+1.93455759599E+006, +1.24745025555E+001, +5.40995927349E+001
+2.10133555927E+006, +1.25016110187E+001, +5.88227109500E+001
+2.26811352254E+006, +1.25558498547E+001, +6.35134096440E+001
+2.43489148581E+006, +1.25035178611E+001, +6.83358121846E+001
+2.60166944908E+006, +1.25782944965E+001, +7.28358859181E+001
+2.76844741235E+006, +1.25176755901E+001, +7.76743331387E+001
+2.93522537563E+006, +1.24576226132E+001, +8.24332215707E+001
+3.10200333890E+006, +1.27091471138E+001, +8.68897395248E+001
+3.26878130217E+006, +1.24460515092E+001, +9.18951881373E+001
+3.43555926544E+006, +1.26917873340E+001, +9.64447833910E+001
+3.60233722871E+006, +1.27717463345E+001, +1.01328957485E+002
+3.76911519199E+006, +1.27287753982E+001, +1.06218548010E+002
+3.93589315526E+006, +1.27439509874E+001, +1.10686257842E+002
+4.10267111853E+006, +1.19734475908E+001, +1.14756299622E+002
+4.26944908180E+006, +1.24684575973E+001, +1.21029820222E+002
+4.43622704508E+006, +1.27295958478E+001, +1.25262967291E+002
+4.60300500835E+006, +1.28410220406E+001, +1.30167453246E+002
+4.76978297162E+006, +1.27491667907E+001, +1.34874682535E+002
+4.93656093489E+006, +1.30571044262E+001, +1.39640470822E+002
+5.10333889816E+006, +1.31260190000E+001, +1.44225317293E+002
+5.27011686144E+006, +1.34374222491E+001, +1.49437597407E+002
+5.43689482471E+006, +1.31064564099E+001, +1.54216641611E+002
+5.60367278798E+006, +1.33719955825E+001, +1.59291987236E+002
+5.77045075125E+006, +1.33429248938E+001, +1.63649545797E+002
+5.93722871452E+006, +1.36534154008E+001, +1.68774038151E+002
+6.10400667780E+006, +1.37355797325E+001, +1.73904775317E+002
+6.27078464107E+006, +1.40454387408E+001, +1.78596514868E+002
+6.43756260434E+006, +1.41245042888E+001, +1.83438307105E+002
+6.60434056761E+006, +1.43371423095E+001, +1.88278407442E+002
+6.77111853088E+006, +1.46356068682E+001, +1.93180566166E+002
+6.93789649416E+006, +1.45779326711E+001, +1.97979097931E+002
+7.10467445743E+006, +1.44885384209E+001, +2.02900482939E+002
+7.27145242070E+006, +1.48625942853E+001, +2.07673097214E+002
+7.43823038397E+006, +1.49948061914E+001, +2.12587831418E+002
+7.60500834725E+006, +1.48440794676E+001, +2.17656817407E+002
+7.77178631052E+006, +1.49883014265E+001, +2.22924472525E+002
+7.93856427379E+006, +1.48404739832E+001, +2.27453656740E+002
+8.10534223706E+006, +1.48075937865E+001, +2.32787790394E+002
+8.27212020033E+006, +1.49645422642E+001, +2.37890890021E+002
+8.43889816361E+006, +1.48556712859E+001, +2.42806421507E+002
+8.60567612688E+006, +1.47514264436E+001, +2.48127099258E+002
+8.77245409015E+006, +1.47536016371E+001, +2.53106649875E+002
+8.93923205342E+006, +1.47298722213E+001, +2.58250828343E+002
+9.10601001669E+006, +1.48551902953E+001, +2.63607390765E+002
+9.27278797997E+006, +1.50663177170E+001, +2.68567106223E+002
+9.43956594324E+006, +1.48711749321E+001, +2.74340225168E+002
+9.60634390651E+006, +1.50400872292E+001, +2.79309160592E+002
+9.77312186978E+006, +1.48764030361E+001, +2.84723420889E+002
+9.93989983306E+006, +1.51622340741E+001, +2.90147196544E+002
+1.01066777963E+007, +1.48005669777E+001, +2.95248117683E+002
+1.02734557596E+007, +1.49549762016E+001, +3.00940602452E+002
+1.04402337229E+007, +1.52586118405E+001, +3.06324704846E+002
+1.06070116861E+007, +1.48146516538E+001, +3.11697391814E+002
+1.07737896494E+007, +1.48573619996E+001, +3.17612974909E+002
+1.09405676127E+007, +1.56425167363E+001, +3.23025314055E+002
+1.11073455760E+007, +1.54123546757E+001, +3.28408052859E+002
+1.12741235392E+007, +1.56620824818E+001, +3.34069816427E+002
+1.14409015025E+007, +1.57803017114E+001, +3.39679022413E+002
+1.16076794658E+007, +1.57133964500E+001, +3.45404211067E+002
+1.17744574290E+007, +1.63524185159E+001, +3.50889723937E+002
+1.19412353923E+007, +1.62599584358E+001, +3.56982860451E+002
+1.21080133556E+007, +1.54543784235E+001, +3.62762847624E+002
+1.22747913189E+007, +1.62678143855E+001, +3.68590117709E+002
+1.24415692821E+007, +1.53401645099E+001, +3.74298352008E+002
+1.26083472454E+007, +1.59831619806E+001, +3.79570562188E+002
+1.27751252087E+007, +1.61705153270E+001, +3.86236743258E+002
+1.29419031720E+007, +1.61328042002E+001, +3.91725937587E+002
+1.31086811352E+007, +1.67166160630E+001, +3.97977891404E+002
+1.32754590985E+007, +1.71704701841E+001, +4.03615561335E+002
+1.34422370618E+007, +1.64607842209E+001, +4.09516003090E+002
+1.36090150250E+007, +1.69713360192E+001, +4.16099876476E+002
+1.37757929883E+007, +1.75407090658E+001, +4.22105793564E+002
+1.39425709516E+007, +1.77709574615E+001, +4.28249099324E+002
+1.41093489149E+007, +1.83332876257E+001, +4.34047137846E+002
+1.42761268781E+007, +1.78058968405E+001, +4.40358072806E+002
+1.44429048414E+007, +1.77053622255E+001, +4.46594296399E+002
+1.46096828047E+007, +1.77442645701E+001, +4.52760698239E+002
+1.47764607679E+007, +1.76500760682E+001, +4.59504155926E+002
+1.49432387312E+007, +1.75518743209E+001, +4.66226710412E+002
+1.51100166945E+007, +1.82248767359E+001, +4.71671644007E+002
+1.52767946578E+007, +1.80047530729E+001, +4.79131981611E+002
+1.54435726210E+007, +1.88376601493E+001, +4.84922525842E+002
+1.56103505843E+007, +1.91578837258E+001, +4.91538349541E+002
+1.57771285476E+007, +1.87188066575E+001, +4.97858512250E+002
+1.59439065109E+007, +1.90709415004E+001, +5.04382326480E+002
+1.61106844741E+007, +1.89314612185E+001, +5.11200963471E+002
+1.62774624374E+007, +2.04424063246E+001, +5.17904259202E+002
+1.64442404007E+007, +1.89190274189E+001, +5.25631110360E+002
+1.66110183639E+007, +2.03434249041E+001, +5.32010213383E+002
+1.67777963272E+007, +1.95529162266E+001, +5.40613905865E+002
+1.69445742905E+007, +2.04902736116E+001, +5.47075122905E+002
+1.71113522538E+007, +1.75251951569E+001, +5.54450657117E+002
+1.72781302170E+007, +2.00274874147E+001, +5.62190043519E+002
+1.74449081803E+007, +1.88088908945E+001, +5.67619138397E+002
+1.76116861436E+007, +2.20188945559E+001, +5.77192511050E+002
+1.77784641068E+007, +2.05192214432E+001, +5.81572243236E+002
+1.79452420701E+007, +2.18416455194E+001, +5.89319456978E+002
+1.81120200334E+007, +2.38573184618E+001, +5.95754321336E+002
+1.82787979967E+007, +2.28554093266E+001, +6.05516282147E+002
+1.84455759599E+007, +2.49222596314E+001, +6.11752687693E+002
+1.86123539232E+007, +2.45718060995E+001, +6.21200151356E+002
+1.87791318865E+007, +2.22555593098E+001, +6.29000938621E+002
+1.89459098497E+007, +2.43559865236E+001, +6.38634155977E+002
+1.91126878130E+007, +2.30361613565E+001, +6.44401897564E+002
+1.92794657763E+007, +2.54884297886E+001, +6.54127826802E+002
+1.94462437396E+007, +2.56047936590E+001, +6.64035771361E+002
+1.96130217028E+007, +2.46801062239E+001, +6.72858546134E+002
+1.97797996661E+007, +2.51173920368E+001, +6.76509954387E+002
+1.99465776294E+007, +2.35652487323E+001, +6.85489329427E+002
+2.01133555927E+007, +2.66620766002E+001, +6.94153600703E+002
+2.02801335559E+007, +2.71192333401E+001, +7.03867462919E+002
+2.04469115192E+007, +2.97042191300E+001, +7.13415768083E+002
+2.06136894825E+007, +2.89148023657E+001, +7.21814725719E+002
+2.07804674457E+007, +3.15808713320E+001, +7.30752454813E+002
+2.09472454090E+007, +2.94596030874E+001, +7.41505188997E+002
+2.11140233723E+007, +3.10756036115E+001, +7.49192882728E+002
+2.12808013356E+007, +3.27127524261E+001, +7.57529595925E+002
+2.14475792988E+007, +3.32634444816E+001, +7.67465547160E+002
+2.16143572621E+007, +3.43417280238E+001, +7.76843156605E+002
+2.17811352254E+007, +3.46197490326E+001, +7.83310013846E+002
+2.19479131886E+007, +3.43906940888E+001, +7.98333273807E+002
+2.21146911519E+007, +3.70860097519E+001, +8.05151854646E+002
+2.22814691152E+007, +3.80477134942E+001, +8.16070055467E+002
+2.24482470785E+007, +3.69789292470E+001, +8.29196052845E+002
+2.26150250417E+007, +4.20732332938E+001, +8.35454615743E+002
+2.27818030050E+007, +4.07256165251E+001, +8.48162195957E+002
+2.29485809683E+007, +4.26807962908E+001, +8.54598864810E+002
+2.31153589316E+007, +4.17996181557E+001, +8.69331094261E+002
+2.32821368948E+007, +4.82250000497E+001, +8.80505128541E+002
+2.34489148581E+007, +4.96955173491E+001, +8.87799237949E+002
+2.36156928214E+007, +4.89690424066E+001, +9.03057832228E+002
+2.37824707846E+007, +4.90118430185E+001, +9.10993315848E+002
+2.39492487479E+007, +4.93398321536E+001, +9.22097342626E+002
+2.41160267112E+007, +5.34159494500E+001, +9.31954066653E+002
+2.42828046745E+007, +5.14961302511E+001, +9.46145522840E+002
+2.44495826377E+007, +5.57389934487E+001, +9.59201601788E+002
+2.46163606010E+007, +5.47959299379E+001, +9.66028760671E+002
+2.47831385643E+007, +5.55349344803E+001, +9.79369417466E+002
+2.49499165275E+007, +6.11613617589E+001, +9.95150321142E+002
+2.51166944908E+007, +6.16040539998E+001, +1.00532484996E+003
+2.52834724541E+007, +6.43524343413E+001, +1.01596572042E+003
+2.54502504174E+007, +6.71401064388E+001, +1.03150156150E+003
+2.56170283806E+007, +6.69968974293E+001, +1.03990063960E+003
+2.57838063439E+007, +7.33664187617E+001, +1.05988587943E+003
+2.59505843072E+007, +7.48713569547E+001, +1.07398696930E+003
+2.61173622705E+007, +7.40108025633E+001, +1.08172526829E+003
+2.62841402337E+007, +7.22528371432E+001, +1.09611892970E+003
+2.64509181970E+007, +7.78518282138E+001, +1.11237338374E+003
+2.66176961603E+007, +8.07000258116E+001, +1.12841708543E+003
+2.67844741235E+007, +8.17022474579E+001, +1.14353607990E+003
+2.69512520868E+007, +8.19222387232E+001, +1.15056702600E+003
+2.71180300501E+007, +8.61487369320E+001, +1.16354088724E+003
+2.72848080134E+007, +8.52307754741E+001, +1.17884438663E+003
+2.74515859766E+007, +9.24707950794E+001, +1.20040846657E+003
+2.76183639399E+007, +8.75730951733E+001, +1.21020567262E+003
+2.77851419032E+007, +8.90813696860E+001, +1.22619679955E+003
+2.79519198664E+007, +9.92747782822E+001, +1.24118807166E+003
+2.81186978297E+007, +9.70624159350E+001, +1.25288230915E+003
+2.82854757930E+007, +1.01418527039E+002, +1.27360616722E+003
+2.84522537563E+007, +9.45376550348E+001, +1.29309873947E+003
+2.86190317195E+007, +1.01451660884E+002, +1.30958759112E+003
+2.87858096828E+007, +1.16899919993E+002, +1.33391244819E+003
+2.89525876461E+007, +1.08923191216E+002, +1.34550626550E+003
+2.91193656093E+007, +1.03635347896E+002, +1.35988308069E+003
+2.92861435726E+007, +1.10445070905E+002, +1.38392239253E+003
+2.94529215359E+007, +1.21775271912E+002, +1.40193973614E+003
+2.96196994992E+007, +1.25961067699E+002, +1.42061823052E+003
+2.97864774624E+007, +1.43097311211E+002, +1.44976174305E+003
+2.99532554257E+007, +1.38415437895E+002, +1.47175336700E+003
+3.01200333890E+007, +1.36639212613E+002, +1.49558069911E+003
+3.02868113523E+007, +1.32807143740E+002, +1.51068046457E+003
+3.04535893155E+007, +1.40313185509E+002, +1.53655657429E+003
+3.06203672788E+007, +1.48170816510E+002, +1.55331440404E+003
+3.07871452421E+007, +1.46559899117E+002, +1.57451063098E+003
+3.09539232053E+007, +1.56367487489E+002, +1.60512997419E+003
+3.11207011686E+007, +1.42865294544E+002, +1.63241441128E+003
+3.12874791319E+007, +1.58557296055E+002, +1.64820566036E+003
+3.14542570952E+007, +1.62749588603E+002, +1.67768164033E+003
+3.16210350584E+007, +1.67243915038E+002, +1.71170848451E+003
+3.17878130217E+007, +1.56433927802E+002, +1.74203863215E+003
+3.19545909850E+007, +1.88869557344E+002, +1.76646544236E+003
+3.21213689482E+007, +1.59304244873E+002, +1.80937739327E+003
+3.22881469115E+007, +1.82194319060E+002, +1.82442761832E+003
+3.24549248748E+007, +1.97503319783E+002, +1.85352055362E+003
+3.26217028381E+007, +1.95932974372E+002, +1.89096629849E+003
+3.27884808013E+007, +1.96685844875E+002, +1.91653971629E+003
+3.29552587646E+007, +2.04685525766E+002, +1.94423309084E+003
+3.31220367279E+007, +2.28000567964E+002, +1.97505208309E+003
+3.32888146912E+007, +2.42113442433E+002, +2.04453859801E+003
+3.34555926544E+007, +2.10378871229E+002, +2.07470754109E+003
+3.36223706177E+007, +2.52023830037E+002, +2.10877586761E+003
+3.37891485810E+007, +2.47328197855E+002, +2.14068380768E+003
+3.39559265442E+007, +2.65776974097E+002, +2.19757205709E+003
+3.41227045075E+007, +2.81541364268E+002, +2.21685026897E+003
+3.42894824708E+007, +2.95905646359E+002, +2.28456210534E+003
+3.44562604341E+007, +3.22049873967E+002, +2.32687818751E+003
+3.46230383973E+007, +3.44727263520E+002, +2.37361191851E+003
+3.47898163606E+007, +3.23380173947E+002, +2.40107434213E+003
+3.49565943239E+007, +3.64244814529E+002, +2.45616158791E+003
+3.51233722871E+007, +3.79443285636E+002, +2.51430822955E+003
+3.52901502504E+007, +3.58035444191E+002, +2.54506246103E+003
+3.54569282137E+007, +4.06679913053E+002, +2.62447922409E+003
+3.56237061770E+007, +3.95176585896E+002, +2.68932233583E+003
+3.57904841402E+007, +4.32759180443E+002, +2.75638313759E+003
+3.59572621035E+007, +4.76050247980E+002, +2.83950380680E+003
+3.61240400668E+007, +4.76340470963E+002, +2.91022525852E+003
+3.62908180301E+007, +5.68526679233E+002, +2.95741598594E+003
+3.64575959933E+007, +5.21526036890E+002, +3.06927969700E+003
+3.66243739566E+007, +5.79725252484E+002, +3.07279623953E+003
+3.67911519199E+007, +5.88372078035E+002, +3.21150485870E+003
+3.69579298831E+007, +6.50115233844E+002, +3.25542096715E+003
+3.71247078464E+007, +6.71981657848E+002, +3.39786292927E+003
+3.72914858097E+007, +7.23253983732E+002, +3.55260753243E+003
+3.74582637730E+007, +8.53619520942E+002, +3.63873280627E+003
+3.76250417362E+007, +8.38140253734E+002, +3.68474069078E+003
+3.77918196995E+007, +8.53044419979E+002, +3.84495670413E+003
+3.79585976628E+007, +9.68791622780E+002, +3.95742914694E+003
+3.81253756260E+007, +1.11836761117E+003, +4.08602974176E+003
+3.82921535893E+007, +1.19555202703E+003, +4.18301823904E+003
+3.84589315526E+007, +1.26162233970E+003, +4.44520206771E+003
+3.86257095159E+007, +1.27499911554E+003, +4.58570678853E+003
+3.87924874791E+007, +1.38265867266E+003, +4.70984394319E+003
+3.89592654424E+007, +1.57936067666E+003, +4.79776374543E+003
+3.91260434057E+007, +1.89294713433E+003, +5.16076641311E+003
+3.92928213689E+007, +1.94981955093E+003, +5.20215227757E+003
+3.94595993322E+007, +2.18239242679E+003, +5.59600001591E+003
+3.96263772955E+007, +2.50811698683E+003, +5.60472850627E+003
+3.97931552588E+007, +2.54534210302E+003, +5.86760949382E+003
+3.99599332220E+007, +3.03209748288E+003, +6.04326523075E+003
+4.01267111853E+007, +3.56620212121E+003, +6.24266499151E+003
+4.02934891486E+007, +3.68869623678E+003, +6.60447816366E+003
+4.04602671119E+007, +4.02916784397E+003, +6.33336976610E+003
+4.06270450751E+007, +4.53932626988E+003, +6.59290991554E+003
+4.07938230384E+007, +5.28543740243E+003, +6.62943782705E+003
+4.09606010017E+007, +5.91284434650E+003, +6.81061150091E+003
+4.11273789649E+007, +6.78536674761E+003, +6.65494474585E+003
+4.12941569282E+007, +7.41994305134E+003, +6.62814438787E+003
+4.14609348915E+007, +8.29312098943E+003, +6.07907207598E+003
+4.16277128548E+007, +8.97952913159E+003, +6.00132025967E+003
+4.17944908180E+007, +9.08990047629E+003, +5.93254025495E+003
+4.19612687813E+007, +1.08779696680E+004, +5.32050489002E+003
+4.21280467446E+007, +1.15202140166E+004, +4.26012598460E+003
+4.22948247078E+007, +1.20014031418E+004, +3.02149587599E+003
+4.24616026711E+007, +1.22187129182E+004, +1.96992475143E+003
+4.26283806344E+007, +1.30759205007E+004, +1.10872356459E+002
+4.27951585977E+007, +1.39496927680E+004, -1.81746371728E+003
+4.29619365609E+007, +1.19660945096E+004, -2.55356214224E+003
+4.31287145242E+007, +1.11109998177E+004, -3.58593470882E+003
+4.32954924875E+007, +1.05429724564E+004, -4.90319623705E+003
+4.34622704508E+007, +9.60786135816E+003, -5.65301158762E+003
+4.36290484140E+007, +8.56844548987E+003, -5.50155950139E+003
+4.37958263773E+007, +7.73196440015E+003, -6.23802791296E+003
+4.39626043406E+007, +6.77717978600E+003, -6.25883521260E+003
+4.41293823038E+007, +5.85007653761E+003, -6.06780517014E+003
+4.42961602671E+007, +5.70629941976E+003, -5.95616108315E+003
+4.44629382304E+007, +4.80930649541E+003, -6.13905418715E+003
+4.46297161937E+007, +4.46917456712E+003, -5.57993671955E+003
+4.47964941569E+007, +3.81195339656E+003, -5.53118177561E+003
+4.49632721202E+007, +3.52552836077E+003, -5.26936485369E+003
+4.51300500835E+007, +3.59163039643E+003, -5.06259647433E+003
+4.52968280467E+007, +3.12024830322E+003, -4.84040853130E+003
+4.54636060100E+007, +2.70803660991E+003, -4.58688187623E+003
+4.56303839733E+007, +2.47258527275E+003, -4.57139829194E+003
+4.57971619366E+007, +2.40718093286E+003, -4.32947334567E+003
+4.59639398998E+007, +2.11936819155E+003, -4.13914474512E+003
+4.61307178631E+007, +2.06722754698E+003, -3.96378957683E+003
+4.62974958264E+007, +1.95316905807E+003, -3.74768389382E+003
+4.64642737896E+007, +1.82772408199E+003, -3.74021159353E+003
+4.66310517529E+007, +1.70266890666E+003, -3.58399359551E+003
+4.67978297162E+007, +1.68453067652E+003, -3.40611624787E+003
+4.69646076795E+007, +1.54003082013E+003, -3.35530937234E+003
+4.71313856427E+007, +1.47462119280E+003, -3.22634830872E+003
+4.72981636060E+007, +1.38337008391E+003, -3.09201650721E+003
+4.74649415693E+007, +1.34775027020E+003, -2.98041753650E+003
+4.76317195326E+007, +1.36174306635E+003, -2.87591897122E+003
+4.77984974958E+007, +1.31659835597E+003, -2.78500772472E+003
+4.79652754591E+007, +1.26270048585E+003, -2.72945025174E+003
+4.81320534224E+007, +1.23995708530E+003, -2.67086808997E+003
+4.82988313856E+007, +1.20886272991E+003, -2.57115813945E+003
+4.84656093489E+007, +1.16776840098E+003, -2.49999142032E+003
+4.86323873122E+007, +1.19183974347E+003, -2.42943164664E+003
+4.87991652755E+007, +1.16430138091E+003, -2.37325034152E+003
+4.89659432387E+007, +1.12337884903E+003, -2.34237018612E+003
+4.91327212020E+007, +1.05353392792E+003, -2.24941937986E+003
+4.92994991653E+007, +1.08353740124E+003, -2.21042891549E+003
+4.94662771285E+007, +1.05278967350E+003, -2.14117139239E+003
+4.96330550918E+007, +1.03524657774E+003, -2.08097808793E+003
+4.97998330551E+007, +1.05132071578E+003, -2.04121353973E+003
+4.99666110184E+007, +1.03052349785E+003, -2.01266219976E+003
+5.01333889816E+007, +1.00705188028E+003, -1.97102030647E+003
+5.03001669449E+007, +9.98657010695E+002, -1.95373952544E+003
+5.04669449082E+007, +9.97865773750E+002, -1.89349506891E+003
+5.06337228715E+007, +1.02107493807E+003, -1.87262769284E+003
+5.08005008347E+007, +1.01045938407E+003, -1.87016470021E+003
+5.09672787980E+007, +1.03308500722E+003, -1.82987022838E+003
+5.11340567613E+007, +1.00961788036E+003, -1.82452089436E+003
+5.13008347245E+007, +1.00600725135E+003, -1.82277852857E+003
+5.14676126878E+007, +1.00163646082E+003, -1.84410412356E+003
+5.16343906511E+007, +9.88859249323E+002, -1.80909133965E+003
+5.18011686144E+007, +9.56603634776E+002, -1.82791999219E+003
+5.19679465776E+007, +9.18707428539E+002, -1.82431923881E+003
+5.21347245409E+007, +8.96108353237E+002, -1.79974726147E+003
+5.23015025042E+007, +8.61632294242E+002, -1.76883749951E+003
+5.24682804674E+007, +8.25845315190E+002, -1.78076035238E+003
+5.26350584307E+007, +8.14843297991E+002, -1.76445069649E+003
+5.28018363940E+007, +7.86888396013E+002, -1.73848103242E+003
+5.29686143573E+007, +7.57341064724E+002, -1.73880676748E+003
+5.31353923205E+007, +7.53024951914E+002, -1.72920688092E+003
+5.33021702838E+007, +7.05361944256E+002, -1.71587545895E+003
+5.34689482471E+007, +6.92423986219E+002, -1.69646794111E+003
