"# Channel 1"
"# Trace 1"
Frequency, Formatted Data, Formatted Data
+1.00000000000E+006, +8.19263308407E-001, +1.12155218984E+001
+1.16527545910E+006, +8.56245945067E-001, +1.30683659329E+001
+1.33055091820E+006, +9.36497843332E-001, +1.48519433123E+001
+1.49582637730E+006, +9.29760624972E-001, +1.66808139585E+001
+1.66110183639E+006, +9.64586237598E-001, +1.85135015662E+001
+1.82637729549E+006, +9.87395856953E-001, +2.03002544550E+001
+1.99165275459E+006, +1.02503402442E+000, +2.21371639064E+001
+2.15692821369E+006, +1.02758637575E+000, +2.39482331721E+001
+2.32220367279E+006, +1.01161810413E+000, +2.57618345068E+001
+2.48747913189E+006, +1.03368347429E+000, +2.76037527000E+001
+2.65275459098E+006, +1.03581711892E+000, +2.93968483237E+001
+2.81803005008E+006, +1.06347623953E+000, +3.12467043014E+001
+2.98330550918E+006, +1.05500346022E+000, +3.29883032198E+001
+3.14858096828E+006, +1.12778700671E+000, +3.48328034147E+001
+3.31385642738E+006, +1.17143281678E+000, +3.66726996152E+001
+3.47913188648E+006, +1.07369818291E+000, +3.85218131834E+001
+3.64440734558E+006, +1.16061830502E+000, +4.03041516118E+001
+3.80968280467E+006, +1.24331153851E+000, +4.21546421565E+001
+3.97495826377E+006, +1.26065726054E+000, +4.39653282144E+001
+4.14023372287E+006, +1.25229250665E+000, +4.59398711673E+001
+4.30550918197E+006, +1.29814559085E+000, +4.75435344157E+001
+4.47078464107E+006, +1.19509889151E+000, +4.94364554427E+001
+4.63606010017E+006, +1.21221177695E+000, +5.12257945784E+001
+4.80133555927E+006, +1.19872167451E+000, +5.31541158972E+001
+4.96661101836E+006, +1.28173519926E+000, +5.49789385505E+001
+5.13188647746E+006, +1.24795392245E+000, +5.68163230790E+001
+5.29716193656E+006, +1.29886503781E+000, +5.85707632221E+001
+5.46243739566E+006, +1.29254510518E+000, +6.04906198154E+001
+5.62771285476E+006, +1.41772242647E+000, +6.23302584946E+001
+5.79298831386E+006, +1.37345794647E+000, +6.42863389862E+001
+5.95826377295E+006, +1.37477562681E+000, +6.60639298705E+001
+6.12353923205E+006, +1.62252299807E+000, +6.78718990052E+001
+6.28881469115E+006, +1.44092889538E+000, +6.97422140556E+001
+6.45409015025E+006, +1.50425469032E+000, +7.16328196864E+001
+6.61936560935E+006, +1.43741179025E+000, +7.34709297037E+001
+6.78464106845E+006, +1.49216809928E+000, +7.53309268663E+001
+6.94991652755E+006, +1.51365878109E+000, +7.72091976050E+001
+7.11519198664E+006, +1.56156893487E+000, +7.90789389773E+001
+7.28046744574E+006, +1.56959167120E+000, +8.09307802737E+001
+7.44574290484E+006, +1.58770342031E+000, +8.28046676207E+001
+7.61101836394E+006, +1.62783705948E+000, +8.46628047706E+001
+7.77629382304E+006, +1.63254266107E+000, +8.65182137927E+001
+7.94156928214E+006, +1.57041681041E+000, +8.84076772332E+001
+8.10684474124E+006, +1.65073731571E+000, +9.02022646013E+001
+8.27212020033E+006, +1.68740781923E+000, +9.21605366168E+001
+8.43739565943E+006, +1.57781627026E+000, +9.41244725547E+001
+8.60267111853E+006, +1.59266659558E+000, +9.58460354392E+001
+8.76794657763E+006, +1.67376002487E+000, +9.77754826197E+001
+8.93322203673E+006, +1.65527323093E+000, +9.97175351170E+001
+9.09849749583E+006, +1.70900183756E+000, +1.01539693766E+002
+9.26377295492E+006, +1.65603756382E+000, +1.03610542290E+002
+9.42904841402E+006, +1.69733971019E+000, +1.05375736994E+002
+9.59432387312E+006, +1.74919451593E+000, +1.07338061248E+002
+9.75959933222E+006, +1.60860908971E+000, +1.09232006229E+002
+9.92487479132E+006, +1.65511854535E+000, +1.11111563077E+002
+1.00901502504E+007, +1.74494932880E+000, +1.13052950022E+002
+1.02554257095E+007, +1.71659027519E+000, +1.14936628921E+002
+1.04207011686E+007, +1.68902803712E+000, +1.16827731221E+002
+1.05859766277E+007, +1.68279847649E+000, +1.18949941617E+002
+1.07512520868E+007, +1.74933425795E+000, +1.20730518102E+002
+1.09165275459E+007, +1.67478788538E+000, +1.22798430466E+002
+1.10818030050E+007, +1.72689518927E+000, +1.24769950782E+002
+1.12470784641E+007, +1.71851489267E+000, +1.26551423586E+002
+1.14123539232E+007, +1.72603033327E+000, +1.28493883150E+002
+1.15776293823E+007, +1.83862675017E+000, +1.30662871968E+002
+1.17429048414E+007, +1.69027541636E+000, +1.32537667640E+002
+1.19081803005E+007, +1.74631883982E+000, +1.34557861193E+002
+1.20734557596E+007, +1.67474878339E+000, +1.36477918748E+002
+1.22387312187E+007, +1.69250952570E+000, +1.38369811712E+002
+1.24040066778E+007, +1.85237576941E+000, +1.40478342920E+002
+1.25692821369E+007, +1.74581625078E+000, +1.42330493614E+002
+1.27345575960E+007, +1.93127255553E+000, +1.44414908600E+002
+1.28998330551E+007, +1.81467300094E+000, +1.46390261931E+002
+1.30651085142E+007, +1.63276651551E+000, +1.48409293969E+002
+1.32303839733E+007, +1.99457995399E+000, +1.50485903074E+002
+1.33956594324E+007, +1.72845918832E+000, +1.52576405739E+002
+1.35609348915E+007, +1.80251890337E+000, +1.54545827633E+002
+1.37262103506E+007, +1.86227306399E+000, +1.56414315858E+002
+1.38914858097E+007, +1.90732066583E+000, +1.58393554868E+002
+1.40567612688E+007, +1.86440557771E+000, +1.60575885675E+002
+1.42220367279E+007, +1.92601523798E+000, +1.62689985292E+002
+1.43873121870E+007, +1.76218644698E+000, +1.64800933987E+002
+1.45525876461E+007, +1.80502576240E+000, +1.66790854382E+002
+1.47178631052E+007, +1.80677868387E+000, +1.69048383938E+002
+1.48831385643E+007, +1.99370494816E+000, +1.70839377488E+002
+1.50484140234E+007, +1.99720062612E+000, +1.73033001688E+002
+1.52136894825E+007, +1.78552327271E+000, +1.75225609013E+002
+1.53789649416E+007, +1.84640438051E+000, +1.77347086928E+002
+1.55442404007E+007, +1.83720052384E+000, +1.79371812871E+002
+1.57095158598E+007, +1.95062468052E+000, +1.81434635529E+002
+1.58747913189E+007, +2.19807040556E+000, +1.83716909655E+002
+1.60400667780E+007, +2.11062862544E+000, +1.85644370159E+002
+1.62053422371E+007, +2.00672361848E+000, +1.87839802392E+002
+1.63706176962E+007, +2.09216642073E+000, +1.89917062600E+002
+1.65358931553E+007, +2.22791418708E+000, +1.91941038415E+002
+1.67011686144E+007, +2.27312223073E+000, +1.94290530255E+002
+1.68664440735E+007, +1.95618609826E+000, +1.96281573332E+002
+1.70317195326E+007, +1.64323641281E+000, +1.98817388614E+002
+1.71969949917E+007, +1.79754755598E+000, +2.00818872432E+002
+1.73622704508E+007, +1.89195904294E+000, +2.03031957980E+002
+1.75275459098E+007, +1.84724892347E+000, +2.05062162199E+002
+1.76928213689E+007, +2.10597966494E+000, +2.07647638603E+002
+1.78580968280E+007, +2.11591161571E+000, +2.09793163161E+002
+1.80233722871E+007, +2.15824322899E+000, +2.12030911509E+002
+1.81886477462E+007, +2.00468826258E+000, +2.14215617602E+002
+1.83539232053E+007, +2.20652275694E+000, +2.16330323526E+002
+1.85191986644E+007, +2.21719100685E+000, +2.18796288349E+002
+1.86844741235E+007, +2.23514889262E+000, +2.20563354728E+002
+1.88497495826E+007, +2.32550228089E+000, +2.23330875067E+002
+1.90150250417E+007, +2.17348952997E+000, +2.25611281816E+002
+1.91803005008E+007, +2.00313853240E+000, +2.27812950152E+002
+1.93455759599E+007, +2.20142622215E+000, +2.29782966992E+002
+1.95108514190E+007, +2.70163720323E+000, +2.32648921483E+002
+1.96761268781E+007, +2.41558327513E+000, +2.34681326891E+002
+1.98414023372E+007, +2.54179828091E+000, +2.37372650709E+002
+2.00066777963E+007, +2.58265737651E+000, +2.39421072142E+002
+2.01719532554E+007, +2.46151478371E+000, +2.42204815009E+002
+2.03372287145E+007, +2.76829227168E+000, +2.44397064294E+002
+2.05025041736E+007, +2.51648509811E+000, +2.46652435205E+002
+2.06677796327E+007, +2.43704722861E+000, +2.49278577724E+002
+2.08330550918E+007, +2.36599192088E+000, +2.51487191929E+002
+2.09983305509E+007, +2.53023165650E+000, +2.54173475220E+002
+2.11636060100E+007, +2.38904612057E+000, +2.56599586161E+002
+2.13288814691E+007, +2.45399944586E+000, +2.59012034496E+002
+2.14941569282E+007, +2.70678819337E+000, +2.61178962301E+002
+2.16594323873E+007, +2.96667571655E+000, +2.63958251516E+002
+2.18247078464E+007, +3.03172234316E+000, +2.66471357280E+002
+2.19899833055E+007, +2.98017405979E+000, +2.69241251842E+002
+2.21552587646E+007, +2.91680465461E+000, +2.70882912630E+002
+2.23205342237E+007, +3.09234097107E+000, +2.73967167349E+002
+2.24858096828E+007, +2.88462712382E+000, +2.76521188783E+002
+2.26510851419E+007, +3.45057810930E+000, +2.79209914035E+002
+2.28163606010E+007, +3.51151833126E+000, +2.81567998628E+002
+2.29816360601E+007, +3.10341691996E+000, +2.84018836814E+002
+2.31469115192E+007, +3.71016169228E+000, +2.87228613645E+002
+2.33121869783E+007, +3.99695563966E+000, +2.89871260260E+002
+2.34774624374E+007, +3.91131595522E+000, +2.92292341432E+002
+2.36427378965E+007, +4.11884066018E+000, +2.94831983514E+002
+2.38080133556E+007, +4.36228678516E+000, +2.97611116638E+002
+2.39732888147E+007, +4.31180347564E+000, +3.00454965839E+002
+2.41385642738E+007, +4.38158424176E+000, +3.03076839582E+002
+2.43038397329E+007, +4.32927302619E+000, +3.05396472185E+002
+2.44691151920E+007, +4.36440354213E+000, +3.08244852139E+002
+2.46343906511E+007, +4.35616752446E+000, +3.11104447378E+002
+2.47996661102E+007, +4.43130288501E+000, +3.13611347747E+002
+2.49649415693E+007, +4.38672117185E+000, +3.16359797765E+002
+2.51302170284E+007, +4.74477904965E+000, +3.19029117671E+002
+2.52954924875E+007, +5.07697028179E+000, +3.21751706337E+002
+2.54607679466E+007, +5.18551743579E+000, +3.24688187747E+002
+2.56260434057E+007, +5.54513866541E+000, +3.27005933432E+002
+2.57913188648E+007, +4.80568988246E+000, +3.29783537785E+002
+2.59565943239E+007, +5.22969138914E+000, +3.32692163870E+002
+2.61218697830E+007, +5.39800765107E+000, +3.35258644309E+002
+2.62871452421E+007, +6.17884746071E+000, +3.38669541163E+002
+2.64524207012E+007, +4.96693201708E+000, +3.40851176313E+002
+2.66176961603E+007, +5.20816383681E+000, +3.44187748704E+002
+2.67829716194E+007, +5.84752699205E+000, +3.47037211294E+002
+2.69482470785E+007, +5.33422487195E+000, +3.50473242286E+002
+2.71135225376E+007, +5.61374392625E+000, +3.53478686822E+002
+2.72787979967E+007, +5.71542068469E+000, +3.56752326118E+002
+2.74440734558E+007, +5.55152079289E+000, +3.59391391392E+002
+2.76093489149E+007, +6.08211509657E+000, +3.61483598152E+002
+2.77746243740E+007, +5.76750846043E+000, +3.65474957800E+002
+2.79398998331E+007, +5.64080884036E+000, +3.68588452199E+002
+2.81051752922E+007, +6.41436882512E+000, +3.71763093980E+002
+2.82704507513E+007, +5.37829224576E+000, +3.74885269967E+002
+2.84357262104E+007, +5.98879892759E+000, +3.77836916389E+002
+2.86010016694E+007, +5.71234378913E+000, +3.81797839664E+002
+2.87662771285E+007, +5.95730575110E+000, +3.85134143731E+002
+2.89315525876E+007, +6.45292121425E+000, +3.87796531150E+002
+2.90968280467E+007, +5.57966106598E+000, +3.91499608214E+002
+2.92621035058E+007, +5.57045424891E+000, +3.94483683601E+002
+2.94273789649E+007, +6.23817159622E+000, +3.98012805970E+002
+2.95926544240E+007, +5.09693423619E+000, +4.02128937326E+002
+2.97579298831E+007, +6.16595055198E+000, +4.04346773281E+002
+2.99232053422E+007, +5.03853268840E+000, +4.08883006477E+002
+3.00884808013E+007, +5.92509100370E+000, +4.12237459069E+002
+3.02537562604E+007, +6.85068653756E+000, +4.16020818378E+002
+3.04190317195E+007, +6.56521308858E+000, +4.20037927922E+002
+3.05843071786E+007, +7.02970897519E+000, +4.22949152737E+002
+3.07495826377E+007, +6.17978210044E+000, +4.26532368186E+002
+3.09148580968E+007, +6.07221777401E+000, +4.29841563007E+002
+3.10801335559E+007, +6.84905118631E+000, +4.33851296862E+002
+3.12454090150E+007, +6.60312331723E+000, +4.37666013601E+002
+3.14106844741E+007, +6.88301751945E+000, +4.41259189940E+002
+3.15759599332E+007, +7.02117989214E+000, +4.45604522109E+002
+3.17412353923E+007, +6.89696255565E+000, +4.48983608989E+002
+3.19065108514E+007, +7.07879283847E+000, +4.53639548199E+002
+3.20717863105E+007, +5.88486110880E+000, +4.58131897541E+002
+3.22370617696E+007, +7.15290632787E+000, +4.61774545181E+002
+3.24023372287E+007, +6.64121724249E+000, +4.65821807818E+002
+3.25676126878E+007, +8.18668496209E+000, +4.70326692978E+002
+3.27328881469E+007, +8.19326059310E+000, +4.73092093373E+002
+3.28981636060E+007, +7.37670419712E+000, +4.78016026303E+002
+3.30634390651E+007, +7.38155794459E+000, +4.83088388723E+002
+3.32287145242E+007, +7.26865693755E+000, +4.88111136723E+002
+3.33939899833E+007, +7.88109418451E+000, +4.91952586231E+002
+3.35592654424E+007, +8.44317392385E+000, +4.95075991133E+002
+3.37245409015E+007, +8.63926613747E+000, +5.00681818848E+002
+3.38898163606E+007, +6.97521822309E+000, +5.04577301165E+002
+3.40550918197E+007, +7.98247960985E+000, +5.09217788686E+002
+3.42203672788E+007, +1.06841053664E+001, +5.14011457487E+002
+3.43856427379E+007, +9.80551401898E+000, +5.19333499257E+002
+3.45509181970E+007, +9.43557961214E+000, +5.24377882913E+002
+3.47161936561E+007, +8.92348675147E+000, +5.28807918829E+002
+3.48814691152E+007, +1.07821803269E+001, +5.34045995128E+002
+3.50467445743E+007, +1.16483689639E+001, +5.38927426484E+002
+3.52120200334E+007, +1.17864209197E+001, +5.44547905368E+002
+3.53772954925E+007, +1.10284622455E+001, +5.47979597661E+002
+3.55425709516E+007, +1.22441635461E+001, +5.55631808079E+002
+3.57078464107E+007, +1.19260368471E+001, +5.58357452428E+002
+3.58731218698E+007, +1.22219576500E+001, +5.64809376672E+002
+3.60383973289E+007, +1.32655092332E+001, +5.70585125454E+002
+3.62036727880E+007, +1.36083478770E+001, +5.75305662884E+002
+3.63689482471E+007, +1.45982738085E+001, +5.81579277422E+002
+3.65342237062E+007, +1.39668824249E+001, +5.85798926492E+002
+3.66994991653E+007, +1.31668970257E+001, +5.92683575281E+002
+3.68647746244E+007, +1.58766333101E+001, +5.98429488963E+002
+3.70300500835E+007, +1.42466267956E+001, +6.04228661296E+002
+3.71953255426E+007, +1.69467827867E+001, +6.11039376900E+002
+3.73606010017E+007, +1.64110634841E+001, +6.17300419319E+002
+3.75258764608E+007, +1.65730592590E+001, +6.25247430900E+002
+3.76911519199E+007, +1.75190113387E+001, +6.29981153028E+002
+3.78564273790E+007, +1.63574296757E+001, +6.36762902828E+002
+3.80217028381E+007, +1.92585192100E+001, +6.42707241949E+002
+3.81869782972E+007, +1.79302737731E+001, +6.48878266701E+002
+3.83522537563E+007, +2.07659612378E+001, +6.56971206042E+002
+3.85175292154E+007, +2.11692887096E+001, +6.64423214702E+002
+3.86828046745E+007, +2.10459548456E+001, +6.71306132409E+002
+3.88480801336E+007, +2.21802354072E+001, +6.78584078120E+002
+3.90133555927E+007, +2.33774548211E+001, +6.86513204822E+002
+3.91786310518E+007, +2.42965333964E+001, +6.93558734223E+002
+3.93439065109E+007, +2.47846685751E+001, +7.03170299600E+002
+3.95091819699E+007, +2.79714984510E+001, +7.09523579381E+002
+3.96744574290E+007, +2.75590598012E+001, +7.16238098550E+002
+3.98397328881E+007, +2.71397265821E+001, +7.23549415001E+002
+4.00050083472E+007, +2.86590425054E+001, +7.34418368650E+002
+4.01702838063E+007, +3.01599486621E+001, +7.40870364849E+002
+4.03355592654E+007, +3.28489285871E+001, +7.50798793135E+002
+4.05008347245E+007, +3.77296891170E+001, +7.58718440429E+002
+4.06661101836E+007, +3.49548295777E+001, +7.64403231507E+002
+4.08313856427E+007, +3.86435170998E+001, +7.75646250906E+002
+4.09966611018E+007, +4.13519089982E+001, +7.79913202585E+002
+4.11619365609E+007, +4.53134684163E+001, +7.91552192414E+002
+4.13272120200E+007, +4.69655314276E+001, +8.01004401391E+002
+4.14924874791E+007, +4.77214091634E+001, +8.06398602645E+002
+4.16577629382E+007, +4.81772126964E+001, +8.20105209201E+002
+4.18230383973E+007, +4.90712109424E+001, +8.24296388181E+002
+4.19883138564E+007, +4.74102512098E+001, +8.37478622598E+002
+4.21535893155E+007, +5.20643737442E+001, +8.47660203171E+002
+4.23188647746E+007, +5.37619021882E+001, +8.59422353819E+002
+4.24841402337E+007, +5.26583048583E+001, +8.70826475682E+002
+4.26494156928E+007, +5.14247798360E+001, +8.76922322981E+002
+4.28146911519E+007, +5.60800930618E+001, +8.91687121280E+002
+4.29799666110E+007, +5.77335534348E+001, +9.03854854434E+002
+4.31452420701E+007, +5.97550139022E+001, +9.21558593879E+002
+4.33105175292E+007, +6.09697133137E+001, +9.30727838268E+002
+4.34757929883E+007, +5.95536390540E+001, +9.48200130192E+002
+4.36410684474E+007, +6.10770937548E+001, +9.56520049187E+002
+4.38063439065E+007, +6.75932996405E+001, +9.72392279019E+002
+4.39716193656E+007, +7.56784709584E+001, +9.90549534517E+002
+4.41368948247E+007, +7.41148324932E+001, +1.00426358899E+003
+4.43021702838E+007, +7.79975272760E+001, +1.02088581511E+003
+4.44674457429E+007, +8.19097259044E+001, +1.04107131192E+003
+4.46327212020E+007, +8.67782559235E+001, +1.05487953479E+003
+4.47979966611E+007, +9.37342041270E+001, +1.07892885863E+003
+4.49632721202E+007, +9.89002355620E+001, +1.09897904971E+003
+4.51285475793E+007, +1.06381890752E+002, +1.11871887103E+003
+4.52938230384E+007, +1.17158375487E+002, +1.13531135662E+003
+4.54590984975E+007, +1.13749508387E+002, +1.15769761554E+003
+4.56243739566E+007, +1.32120761927E+002, +1.17770863371E+003
+4.57896494157E+007, +1.42311767060E+002, +1.19843953221E+003
+4.59549248748E+007, +1.45597653487E+002, +1.22361752123E+003
+4.61202003339E+007, +1.59608813618E+002, +1.24818889265E+003
+4.62854757930E+007, +1.72120217850E+002, +1.26858388151E+003
+4.64507512521E+007, +1.88737748208E+002, +1.29999942236E+003
+4.66160267112E+007, +2.09698128872E+002, +1.33127371209E+003
+4.67813021703E+007, +2.29392093053E+002, +1.34736330547E+003
+4.69465776294E+007, +2.46590805679E+002, +1.37306073912E+003
+4.71118530885E+007, +2.60797955574E+002, +1.40582652424E+003
+4.72771285476E+007, +2.82002018786E+002, +1.41965037539E+003
+4.74424040067E+007, +3.11565217067E+002, +1.44850576493E+003
+4.76076794658E+007, +3.33983503032E+002, +1.48380754803E+003
+4.77729549249E+007, +3.55532410623E+002, +1.50662270690E+003
+4.79382303840E+007, +3.94895340683E+002, +1.53068032255E+003
+4.81035058431E+007, +4.33323025942E+002, +1.55950984978E+003
+4.82687813022E+007, +4.60026446816E+002, +1.57498847873E+003
+4.84340567613E+007, +4.92510654328E+002, +1.60679997072E+003
+4.85993322204E+007, +5.51342917701E+002, +1.63466709380E+003
+4.87646076795E+007, +5.84895832176E+002, +1.64698483412E+003
+4.89298831386E+007, +6.24110185178E+002, +1.66378039360E+003
+4.90951585977E+007, +6.65074390536E+002, +1.68174020879E+003
+4.92604340568E+007, +7.21963921945E+002, +1.68715375764E+003
+4.94257095159E+007, +7.72307751134E+002, +1.70016883237E+003
+4.95909849750E+007, +8.08562631157E+002, +1.71803178510E+003
+4.97562604341E+007, +8.74057523155E+002, +1.68707210224E+003
+4.99215358932E+007, +9.20225887451E+002, +1.73148620373E+003
+5.00868113523E+007, +9.63860420164E+002, +1.72266849673E+003
+5.02520868114E+007, +1.02318568928E+003, +1.71562497318E+003
+5.04173622705E+007, +1.06979128580E+003, +1.71800424080E+003
+5.05826377295E+007, +1.08195639522E+003, +1.70391857247E+003
+5.07479131886E+007, +1.13523372595E+003, +1.71052083662E+003
+5.09131886477E+007, +1.17682625599E+003, +1.72588473756E+003
+5.10784641068E+007, +1.21986000679E+003, +1.69247447283E+003
+5.12437395659E+007, +1.25933410079E+003, +1.69463181265E+003
+5.14090150250E+007, +1.29975094729E+003, +1.70145445893E+003
+5.15742904841E+007, +1.32941869233E+003, +1.70402780456E+003
+5.17395659432E+007, +1.37825671377E+003, +1.70320325361E+003
+5.19048414023E+007, +1.43022700698E+003, +1.71748464557E+003
+5.20701168614E+007, +1.49073487422E+003, +1.73462723056E+003
+5.22353923205E+007, +1.55045225083E+003, +1.73969738825E+003
+5.24006677796E+007, +1.59581147088E+003, +1.76003498610E+003
+5.25659432387E+007, +1.70712482526E+003, +1.75587824717E+003
+5.27312186978E+007, +1.75278971890E+003, +1.76441536853E+003
+5.28964941569E+007, +1.85290390058E+003, +1.78830620037E+003
+5.30617696160E+007, +1.94156461743E+003, +1.80342476008E+003
+5.32270450751E+007, +2.05671524338E+003, +1.81160389675E+003
+5.33923205342E+007, +2.17022112463E+003, +1.84791894468E+003
+5.35575959933E+007, +2.34672061191E+003, +1.79722251915E+003
+5.37228714524E+007, +2.52475806500E+003, +1.79073981646E+003
+5.38881469115E+007, +2.66455821255E+003, +1.73137716434E+003
