"# Channel 1"
"# Trace 1"
Frequency, Formatted Data, Formatted Data
+1.00000000000E+006, +2.96426134645E+001, +1.17998546694E+001
+1.16527545910E+006, +2.96795801085E+001, +1.37327382832E+001
+1.33055091820E+006, +2.96914206335E+001, +1.56621027483E+001
+1.49582637730E+006, +2.96607765639E+001, +1.76384744146E+001
+1.66110183639E+006, +2.96646565677E+001, +1.95376862128E+001
+1.82637729549E+006, +2.96420221346E+001, +2.14811184902E+001
+1.99165275459E+006, +2.96906309159E+001, +2.34182460524E+001
+2.15692821369E+006, +2.97256033759E+001, +2.53785249037E+001
+2.32220367279E+006, +2.96776676778E+001, +2.73111028643E+001
+2.48747913189E+006, +2.96966424353E+001, +2.92742591648E+001
+2.65275459098E+006, +2.97013715870E+001, +3.12424261979E+001
+2.81803005008E+006, +2.97059995441E+001, +3.31991247500E+001
+2.98330550918E+006, +2.96936817493E+001, +3.50929470401E+001
+3.14858096828E+006, +2.97422601361E+001, +3.70487650498E+001
+3.31385642738E+006, +2.98115028989E+001, +3.89507844308E+001
+3.47913188648E+006, +2.97280764785E+001, +4.09622407941E+001
+3.64440734558E+006, +2.97510435410E+001, +4.28714989733E+001
+3.80968280467E+006, +2.97865384882E+001, +4.47831233098E+001
+3.97495826377E+006, +2.98532110808E+001, +4.67851562176E+001
+4.14023372287E+006, +2.98253186158E+001, +4.88356194811E+001
+4.30550918197E+006, +2.98202119728E+001, +5.06166692841E+001
+4.47078464107E+006, +2.98091006275E+001, +5.26745871160E+001
+4.63606010017E+006, +2.98132019458E+001, +5.45818561024E+001
+4.80133555927E+006, +2.98144136118E+001, +5.65685101273E+001
+4.96661101836E+006, +2.98900417219E+001, +5.85875530419E+001
+5.13188647746E+006, +2.99353977401E+001, +6.05206492542E+001
+5.29716193656E+006, +2.98279797702E+001, +6.24146106545E+001
+5.46243739566E+006, +2.99848377551E+001, +6.44452887832E+001
+5.62771285476E+006, +2.99815975149E+001, +6.64355214392E+001
+5.79298831386E+006, +3.01070492525E+001, +6.83951833953E+001
+5.95826377295E+006, +3.00445171237E+001, +7.03721692573E+001
+6.12353923205E+006, +3.02281905682E+001, +7.22597204302E+001
+6.28881469115E+006, +3.01416264899E+001, +7.42673745081E+001
+6.45409015025E+006, +3.02269742393E+001, +7.62854007238E+001
+6.61936560935E+006, +3.02066128228E+001, +7.82651512166E+001
+6.78464106845E+006, +3.02698811150E+001, +8.02344250170E+001
+6.94991652755E+006, +3.03120152460E+001, +8.23033861205E+001
+7.11519198664E+006, +3.03982488026E+001, +8.42110797294E+001
+7.28046744574E+006, +3.04112086882E+001, +8.62326378451E+001
+7.44574290484E+006, +3.04108113501E+001, +8.82367306235E+001
+7.61101836394E+006, +3.03899691540E+001, +9.02071685101E+001
+7.77629382304E+006, +3.05519603862E+001, +9.22315222550E+001
+7.94156928214E+006, +3.04417453326E+001, +9.42628771049E+001
+8.10684474124E+006, +3.04590998940E+001, +9.61686039468E+001
+8.27212020033E+006, +3.05526128999E+001, +9.82162493829E+001
+8.43739565943E+006, +3.05632296135E+001, +1.00300976248E+002
+8.60267111853E+006, +3.05592964785E+001, +1.02261747962E+002
+8.76794657763E+006, +3.07476930754E+001, +1.04329671266E+002
+8.93322203673E+006, +3.06995748173E+001, +1.06392294269E+002
+9.09849749583E+006, +3.07265269379E+001, +1.08340518706E+002
+9.26377295492E+006, +3.07319553138E+001, +1.10471365941E+002
+9.42904841402E+006, +3.09115195237E+001, +1.12487042001E+002
+9.59432387312E+006, +3.08372819360E+001, +1.14471634926E+002
+9.75959933222E+006, +3.08433154426E+001, +1.16483807193E+002
+9.92487479132E+006, +3.09373640177E+001, +1.18521748975E+002
+1.00901502504E+007, +3.10248722704E+001, +1.20696152920E+002
+1.02554257095E+007, +3.10040111689E+001, +1.22669497372E+002
+1.04207011686E+007, +3.10608954974E+001, +1.24662850630E+002
+1.05859766277E+007, +3.11283695158E+001, +1.26959141943E+002
+1.07512520868E+007, +3.11224555573E+001, +1.28854167672E+002
+1.09165275459E+007, +3.11423385225E+001, +1.30990911523E+002
+1.10818030050E+007, +3.12496757018E+001, +1.33080921107E+002
+1.12470784641E+007, +3.12644655303E+001, +1.35101203616E+002
+1.14123539232E+007, +3.12315745567E+001, +1.37146078786E+002
+1.15776293823E+007, +3.15210131434E+001, +1.39426147583E+002
+1.17429048414E+007, +3.13691717064E+001, +1.41457213893E+002
+1.19081803005E+007, +3.15612563117E+001, +1.43612558343E+002
+1.20734557596E+007, +3.15986737528E+001, +1.45673720515E+002
+1.22387312187E+007, +3.14460326144E+001, +1.47727675934E+002
+1.24040066778E+007, +3.17440000300E+001, +1.49826418665E+002
+1.25692821369E+007, +3.17307154747E+001, +1.51911857104E+002
+1.27345575960E+007, +3.17780449219E+001, +1.53973803871E+002
+1.28998330551E+007, +3.18172108559E+001, +1.56255611149E+002
+1.30651085142E+007, +3.17815919471E+001, +1.58308370876E+002
+1.32303839733E+007, +3.21055691853E+001, +1.60668310485E+002
+1.33956594324E+007, +3.21945043537E+001, +1.62837710841E+002
+1.35609348915E+007, +3.21938603764E+001, +1.64854009135E+002
+1.37262103506E+007, +3.21344181942E+001, +1.66895052047E+002
+1.38914858097E+007, +3.24122869505E+001, +1.68952728167E+002
+1.40567612688E+007, +3.24098572358E+001, +1.71350844883E+002
+1.42220367279E+007, +3.22909425020E+001, +1.73568301882E+002
+1.43873121870E+007, +3.26377978834E+001, +1.75900454954E+002
+1.45525876461E+007, +3.25392552118E+001, +1.77909657529E+002
+1.47178631052E+007, +3.25953985532E+001, +1.80361752257E+002
+1.48831385643E+007, +3.27728185371E+001, +1.82367549912E+002
+1.50484140234E+007, +3.29011904274E+001, +1.84613770396E+002
+1.52136894825E+007, +3.28816836993E+001, +1.86895770023E+002
+1.53789649416E+007, +3.29724099795E+001, +1.88984047542E+002
+1.55442404007E+007, +3.31418772120E+001, +1.91303539816E+002
+1.57095158598E+007, +3.29666454720E+001, +1.93707430875E+002
+1.58747913189E+007, +3.33329535389E+001, +1.95816526062E+002
+1.60400667780E+007, +3.33702181305E+001, +1.98100252339E+002
+1.62053422371E+007, +3.35441880228E+001, +2.00421452594E+002
+1.63706176962E+007, +3.35411361562E+001, +2.02429084108E+002
+1.65358931553E+007, +3.38361022660E+001, +2.04597179210E+002
+1.67011686144E+007, +3.41808948583E+001, +2.06836909098E+002
+1.68664440735E+007, +3.39094516514E+001, +2.09269907062E+002
+1.70317195326E+007, +3.36422407286E+001, +2.11868374340E+002
+1.71969949917E+007, +3.37805225628E+001, +2.14160740895E+002
+1.73622704508E+007, +3.43087227527E+001, +2.16387000995E+002
+1.75275459098E+007, +3.41010146697E+001, +2.18569190770E+002
+1.76928213689E+007, +3.44071794364E+001, +2.21152293320E+002
+1.78580968280E+007, +3.42853552185E+001, +2.23269005880E+002
+1.80233722871E+007, +3.48480569684E+001, +2.25663799604E+002
+1.81886477462E+007, +3.45319914810E+001, +2.27971084208E+002
+1.83539232053E+007, +3.47951365432E+001, +2.30297555689E+002
+1.85191986644E+007, +3.51466034799E+001, +2.33099524470E+002
+1.86844741235E+007, +3.49043572083E+001, +2.34853434641E+002
+1.88497495826E+007, +3.52079293683E+001, +2.37530172358E+002
+1.90150250417E+007, +3.49820082799E+001, +2.40216018253E+002
+1.91803005008E+007, +3.53874445298E+001, +2.42498692349E+002
+1.93455759599E+007, +3.54400122779E+001, +2.44810875762E+002
+1.95108514190E+007, +3.59029590059E+001, +2.47412297676E+002
+1.96761268781E+007, +3.59846822460E+001, +2.49488272739E+002
+1.98414023372E+007, +3.61552860662E+001, +2.52253576399E+002
+2.00066777963E+007, +3.59270674061E+001, +2.54631272548E+002
+2.01719532554E+007, +3.62722000979E+001, +2.57225679584E+002
+2.03372287145E+007, +3.66753345144E+001, +2.59661689183E+002
+2.05025041736E+007, +3.68529568933E+001, +2.62297291819E+002
+2.06677796327E+007, +3.66954038991E+001, +2.64972341025E+002
+2.08330550918E+007, +3.66691473995E+001, +2.67392499750E+002
+2.09983305509E+007, +3.72162972087E+001, +2.69976231068E+002
+2.11636060100E+007, +3.71782905088E+001, +2.72576281734E+002
+2.13288814691E+007, +3.76073309062E+001, +2.75127661627E+002
+2.14941569282E+007, +3.76967718838E+001, +2.77557222769E+002
+2.16594323873E+007, +3.78338278692E+001, +2.80332238460E+002
+2.18247078464E+007, +3.81430022615E+001, +2.83085313746E+002
+2.19899833055E+007, +3.84235595935E+001, +2.85848232756E+002
+2.21552587646E+007, +3.84874655417E+001, +2.88179509369E+002
+2.23205342237E+007, +3.84779770233E+001, +2.90817707985E+002
+2.24858096828E+007, +3.86288467818E+001, +2.93661783812E+002
+2.26510851419E+007, +3.96459887074E+001, +2.96589326470E+002
+2.28163606010E+007, +3.95781035765E+001, +2.98961392531E+002
+2.29816360601E+007, +3.98946510963E+001, +3.01317283430E+002
+2.31469115192E+007, +4.04827330351E+001, +3.04353064885E+002
+2.33121869783E+007, +4.08128728943E+001, +3.07688032632E+002
+2.34774624374E+007, +4.07895058113E+001, +3.10129119678E+002
+2.36427378965E+007, +4.11358333652E+001, +3.12604968931E+002
+2.38080133556E+007, +4.14668174774E+001, +3.15310073893E+002
+2.39732888147E+007, +4.23577699940E+001, +3.18656833454E+002
+2.41385642738E+007, +4.18325482594E+001, +3.21143085003E+002
+2.43038397329E+007, +4.23459346822E+001, +3.23598681075E+002
+2.44691151920E+007, +4.23810681874E+001, +3.26518848504E+002
+2.46343906511E+007, +4.24182845683E+001, +3.29641564772E+002
+2.47996661102E+007, +4.29206229457E+001, +3.31953930251E+002
+2.49649415693E+007, +4.29890103061E+001, +3.35605913334E+002
+2.51302170284E+007, +4.32954804824E+001, +3.37818226406E+002
+2.52954924875E+007, +4.44976844180E+001, +3.40216716741E+002
+2.54607679466E+007, +4.43130327595E+001, +3.43072492861E+002
+2.56260434057E+007, +4.52235159687E+001, +3.45886190921E+002
+2.57913188648E+007, +4.48600174002E+001, +3.48596009478E+002
+2.59565943239E+007, +4.55572746766E+001, +3.51611867069E+002
+2.61218697830E+007, +4.58857836669E+001, +3.54650501297E+002
+2.62871452421E+007, +4.60042383915E+001, +3.56986895133E+002
+2.64524207012E+007, +4.55150720048E+001, +3.60226116429E+002
+2.66176961603E+007, +4.62758951559E+001, +3.63228621140E+002
+2.67829716194E+007, +4.59514022370E+001, +3.66066984614E+002
+2.69482470785E+007, +4.61630846724E+001, +3.69473135859E+002
+2.71135225376E+007, +4.66683923252E+001, +3.73150448471E+002
+2.72787979967E+007, +4.75766039674E+001, +3.75522992163E+002
+2.74440734558E+007, +4.73776393900E+001, +3.78995707093E+002
+2.76093489149E+007, +4.78269646966E+001, +3.81783858922E+002
+2.77746243740E+007, +4.80139477185E+001, +3.85279217635E+002
+2.79398998331E+007, +4.78095901760E+001, +3.88327024602E+002
+2.81051752922E+007, +4.87890089778E+001, +3.91118156045E+002
+2.82704507513E+007, +4.84929777089E+001, +3.95114361195E+002
+2.84357262104E+007, +4.89733772717E+001, +3.97880473230E+002
+2.86010016694E+007, +4.82155571747E+001, +4.02500498095E+002
+2.87662771285E+007, +4.92715587661E+001, +4.05397391842E+002
+2.89315525876E+007, +4.87765203538E+001, +4.08981239165E+002
+2.90968280467E+007, +4.99989232593E+001, +4.12759228017E+002
+2.92621035058E+007, +4.97597098206E+001, +4.15562128642E+002
+2.94273789649E+007, +5.03727610044E+001, +4.18700082135E+002
+2.95926544240E+007, +4.99315451293E+001, +4.22459892950E+002
+2.97579298831E+007, +5.10779018872E+001, +4.26120975229E+002
+2.99232053422E+007, +5.04942542191E+001, +4.30327130601E+002
+3.00884808013E+007, +5.21572748439E+001, +4.33828155156E+002
+3.02537562604E+007, +5.21904712834E+001, +4.36982853181E+002
+3.04190317195E+007, +5.22284516992E+001, +4.41174915687E+002
+3.05843071786E+007, +5.14147773915E+001, +4.44738588686E+002
+3.07495826377E+007, +5.23926195192E+001, +4.49200572498E+002
+3.09148580968E+007, +5.34988599375E+001, +4.52464503437E+002
+3.10801335559E+007, +5.38394255695E+001, +4.56678358175E+002
+3.12454090150E+007, +5.38071630449E+001, +4.60486942519E+002
+3.14106844741E+007, +5.42022679731E+001, +4.64490243470E+002
+3.15759599332E+007, +5.59079681207E+001, +4.68562405367E+002
+3.17412353923E+007, +5.55079991624E+001, +4.73724472366E+002
+3.19065108514E+007, +5.62895263462E+001, +4.78136101819E+002
+3.20717863105E+007, +5.59185836105E+001, +4.79937991520E+002
+3.22370617696E+007, +5.67076183243E+001, +4.84590922232E+002
+3.24023372287E+007, +5.74159923631E+001, +4.89374117824E+002
+3.25676126878E+007, +5.84097591640E+001, +4.93506399762E+002
+3.27328881469E+007, +5.86396963393E+001, +4.97763909460E+002
+3.28981636060E+007, +5.90114312146E+001, +5.01661816964E+002
+3.30634390651E+007, +6.05461777322E+001, +5.06759478465E+002
+3.32287145242E+007, +6.06418282333E+001, +5.13167239331E+002
+3.33939899833E+007, +6.06359883229E+001, +5.16764196682E+002
+3.35592654424E+007, +6.07842520772E+001, +5.20060977405E+002
+3.37245409015E+007, +6.17148118685E+001, +5.24493151933E+002
+3.38898163606E+007, +6.29194099248E+001, +5.29778963533E+002
+3.40550918197E+007, +6.40940376542E+001, +5.35102769865E+002
+3.42203672788E+007, +6.47439322052E+001, +5.39151820105E+002
+3.43856427379E+007, +6.55798368322E+001, +5.44308932884E+002
+3.45509181970E+007, +6.58213068242E+001, +5.49812130677E+002
+3.47161936561E+007, +6.72038751963E+001, +5.55482438149E+002
+3.48814691152E+007, +6.78561681171E+001, +5.59035634773E+002
+3.50467445743E+007, +6.86508852017E+001, +5.64743866110E+002
+3.52120200334E+007, +6.95816877720E+001, +5.70359982185E+002
+3.53772954925E+007, +6.85614985712E+001, +5.75465022372E+002
+3.55425709516E+007, +7.06844077569E+001, +5.80482102639E+002
+3.57078464107E+007, +7.09967177833E+001, +5.85388006388E+002
+3.58731218698E+007, +7.33446536025E+001, +5.92343880297E+002
+3.60383973289E+007, +7.32825223411E+001, +5.98364998708E+002
+3.62036727880E+007, +7.61910696113E+001, +6.03913396499E+002
+3.63689482471E+007, +7.69562060455E+001, +6.09002719326E+002
+3.65342237062E+007, +7.66608077895E+001, +6.15140684495E+002
+3.66994991653E+007, +7.66349570708E+001, +6.22625885480E+002
+3.68647746244E+007, +7.88365034740E+001, +6.24965335856E+002
+3.70300500835E+007, +7.96538640955E+001, +6.33603885307E+002
+3.71953255426E+007, +8.09676342229E+001, +6.41094382873E+002
+3.73606010017E+007, +8.29606164595E+001, +6.48944730903E+002
+3.75258764608E+007, +8.33623688514E+001, +6.55482827197E+002
+3.76911519199E+007, +8.51135684710E+001, +6.60990198110E+002
+3.78564273790E+007, +8.61751644609E+001, +6.67743048454E+002
+3.80217028381E+007, +8.77793213001E+001, +6.73947263207E+002
+3.81869782972E+007, +8.97954921881E+001, +6.80927472305E+002
+3.83522537563E+007, +9.01986165010E+001, +6.90159731262E+002
+3.85175292154E+007, +9.26384006941E+001, +6.96687005115E+002
+3.86828046745E+007, +9.41645198363E+001, +7.04852768040E+002
+3.88480801336E+007, +9.76147946257E+001, +7.13371826040E+002
+3.90133555927E+007, +9.78562570511E+001, +7.21354955218E+002
+3.91786310518E+007, +1.01449624905E+002, +7.31099680381E+002
+3.93439065109E+007, +1.05165455598E+002, +7.40387262462E+002
+3.95091819699E+007, +1.10639488669E+002, +7.46913800933E+002
+3.96744574290E+007, +1.10059258960E+002, +7.53207993432E+002
+3.98397328881E+007, +1.12642498516E+002, +7.63478293309E+002
+4.00050083472E+007, +1.15861567979E+002, +7.75437398005E+002
+4.01702838063E+007, +1.16376267752E+002, +7.83501673363E+002
+4.03355592654E+007, +1.21353995798E+002, +7.88319129235E+002
+4.05008347245E+007, +1.25158623873E+002, +8.00311107659E+002
+4.06661101836E+007, +1.30208597475E+002, +8.07161702678E+002
+4.08313856427E+007, +1.31332280786E+002, +8.18097711926E+002
+4.09966611018E+007, +1.34074885165E+002, +8.22625928851E+002
+4.11619365609E+007, +1.39634578458E+002, +8.33260264349E+002
+4.13272120200E+007, +1.48420510493E+002, +8.40270809776E+002
+4.14924874791E+007, +1.50492662363E+002, +8.52091957593E+002
+4.16577629382E+007, +1.54085346358E+002, +8.64313928948E+002
+4.18230383973E+007, +1.58227406885E+002, +8.70172443667E+002
+4.19883138564E+007, +1.58682886906E+002, +8.86387457321E+002
+4.21535893155E+007, +1.63202307216E+002, +8.95458579889E+002
+4.23188647746E+007, +1.68304929206E+002, +9.07601647845E+002
+4.24841402337E+007, +1.70203765789E+002, +9.22986908144E+002
+4.26494156928E+007, +1.72001873601E+002, +9.31098459185E+002
+4.28146911519E+007, +1.86634779416E+002, +9.42489997349E+002
+4.29799666110E+007, +1.86804773654E+002, +9.56860262541E+002
+4.31452420701E+007, +1.96803834878E+002, +9.77527582070E+002
+4.33105175292E+007, +2.03522774400E+002, +9.88970780412E+002
+4.34757929883E+007, +2.04159640258E+002, +1.00443166799E+003
+4.36410684474E+007, +2.08267841704E+002, +1.01640504920E+003
+4.38063439065E+007, +2.21481150395E+002, +1.03695261702E+003
+4.39716193656E+007, +2.33095827395E+002, +1.04616307061E+003
+4.41368948247E+007, +2.36850854453E+002, +1.06610652022E+003
+4.43021702838E+007, +2.49437765516E+002, +1.08586887216E+003
+4.44674457429E+007, +2.65578412568E+002, +1.10514551233E+003
+4.46327212020E+007, +2.72811984042E+002, +1.11360156601E+003
+4.47979966611E+007, +2.83770485778E+002, +1.13753238809E+003
+4.49632721202E+007, +3.01920923009E+002, +1.16331563004E+003
+4.51285475793E+007, +3.13243321977E+002, +1.18506102877E+003
+4.52938230384E+007, +3.35113649918E+002, +1.19899940436E+003
+4.54590984975E+007, +3.40690381750E+002, +1.21287400625E+003
+4.56243739566E+007, +3.70623708198E+002, +1.23968547512E+003
+4.57896494157E+007, +3.87791618452E+002, +1.25526538689E+003
+4.59549248748E+007, +4.08624757897E+002, +1.29327899971E+003
+4.61202003339E+007, +4.26197558953E+002, +1.31116995793E+003
+4.62854757930E+007, +4.54791469114E+002, +1.32412760594E+003
+4.64507512521E+007, +4.83109813401E+002, +1.34792178169E+003
+4.66160267112E+007, +5.11661046678E+002, +1.37231782335E+003
+4.67813021703E+007, +5.47623473209E+002, +1.39566223892E+003
+4.69465776294E+007, +5.78466014959E+002, +1.40476322297E+003
+4.71118530885E+007, +6.22524219664E+002, +1.43364124990E+003
+4.72771285476E+007, +6.62921369799E+002, +1.45163034018E+003
+4.74424040067E+007, +7.06320516027E+002, +1.46259171191E+003
+4.76076794658E+007, +7.50797891257E+002, +1.48017842642E+003
+4.77729549249E+007, +7.99781994565E+002, +1.49966584325E+003
+4.79382303840E+007, +8.48933836049E+002, +1.51013760619E+003
+4.81035058431E+007, +9.12417835638E+002, +1.51739927381E+003
+4.82687813022E+007, +9.59576090650E+002, +1.52541152749E+003
+4.84340567613E+007, +1.04070141828E+003, +1.52606323769E+003
+4.85993322204E+007, +1.11271398631E+003, +1.51293089425E+003
+4.87646076795E+007, +1.17429650406E+003, +1.49720549099E+003
+4.89298831386E+007, +1.23821579535E+003, +1.48790616963E+003
+4.90951585977E+007, +1.29018447719E+003, +1.46085850425E+003
+4.92604340568E+007, +1.34968817593E+003, +1.42241086964E+003
+4.94257095159E+007, +1.41383386512E+003, +1.37365237833E+003
+4.95909849750E+007, +1.46959403153E+003, +1.33570050615E+003
+4.97562604341E+007, +1.49809107945E+003, +1.27480194615E+003
+4.99215358932E+007, +1.56336763668E+003, +1.23021723609E+003
+5.00868113523E+007, +1.58947425527E+003, +1.17516302421E+003
+5.02520868114E+007, +1.63471390084E+003, +1.09837076160E+003
+5.04173622705E+007, +1.64407349135E+003, +1.02724778944E+003
+5.05826377295E+007, +1.63865141144E+003, +1.00211490371E+003
+5.07479131886E+007, +1.65082358860E+003, +9.44436882602E+002
+5.09131886477E+007, +1.64495640434E+003, +9.17253741930E+002
+5.10784641068E+007, +1.64470024126E+003, +8.47949265536E+002
+5.12437395659E+007, +1.65655858495E+003, +8.26901802461E+002
+5.14090150250E+007, +1.64029065749E+003, +7.96951776630E+002
+5.15742904841E+007, +1.65751734701E+003, +7.73063874632E+002
+5.17395659432E+007, +1.65723474150E+003, +7.52713643907E+002
+5.19048414023E+007, +1.66185972952E+003, +7.28144184660E+002
+5.20701168614E+007, +1.68236265003E+003, +7.02351246783E+002
+5.22353923205E+007, +1.70120130935E+003, +6.74884753617E+002
+5.24006677796E+007, +1.71479252377E+003, +6.55365080670E+002
+5.25659432387E+007, +1.73259053737E+003, +6.06889633975E+002
+5.27312186978E+007, +1.73734090856E+003, +5.75035100219E+002
+5.28964941569E+007, +1.76801094846E+003, +5.29880160438E+002
+5.30617696160E+007, +1.79272330745E+003, +4.99617037029E+002
+5.32270450751E+007, +1.79115628308E+003, +4.55285167129E+002
+5.33923205342E+007, +1.83589274108E+003, +3.94857512646E+002
+5.35575959933E+007, +1.83165103719E+003, +3.57558667413E+002
+5.37228714524E+007, +1.82911027443E+003, +2.93637362157E+002
+5.38881469115E+007, +1.81083103593E+003, +2.64603800713E+002
