"# Channel 1"
"# Trace 1"
Frequency, Formatted Data, Formatted Data
+1.00000000000E+005, +5.06797217439E+001, +7.11349493445E-001
+3.18898623279E+005, +5.07375869253E+001, +9.15038344085E-001
+5.37797246558E+005, +5.08017405845E+001, +1.62553997130E+000
+7.56695869837E+005, +5.07366646588E+001, +2.29454736324E+000
+9.75594493116E+005, +5.08061579248E+001, +2.96435622180E+000
+1.19449311640E+006, +5.08302274246E+001, +3.54238687696E+000
+1.41339173967E+006, +5.07339244268E+001, +4.22934974960E+000
+1.63229036295E+006, +5.08310595654E+001, +4.91071928957E+000
+1.85118898623E+006, +5.08293046840E+001, +5.69320438271E+000
+2.07008760951E+006, +5.07429643044E+001, +6.31695378300E+000
+2.28898623279E+006, +5.09277485523E+001, +7.15917374518E+000
+2.50788485607E+006, +5.09775688197E+001, +7.65833317176E+000
+2.72678347935E+006, +5.08309412758E+001, +8.37766726407E+000
+2.94568210263E+006, +5.09491585312E+001, +9.06730730982E+000
+3.16458072591E+006, +5.07614971727E+001, +9.85304669005E+000
+3.38347934919E+006, +5.09921398362E+001, +1.04762032585E+001
+3.60237797247E+006, +5.09841999724E+001, +1.10091346108E+001
+3.82127659574E+006, +5.09877026583E+001, +1.15913440176E+001
+4.04017521902E+006, +5.10414040490E+001, +1.23513355423E+001
+4.25907384230E+006, +5.10533685019E+001, +1.29551756398E+001
+4.47797246558E+006, +5.11397207546E+001, +1.37263361977E+001
+4.69687108886E+006, +5.09092104441E+001, +1.43560648192E+001
+4.91576971214E+006, +5.08829954562E+001, +1.50186046383E+001
+5.13466833542E+006, +5.09699375864E+001, +1.56733275232E+001
+5.35356695870E+006, +5.10415171570E+001, +1.64982368430E+001
+5.57246558198E+006, +5.10996187527E+001, +1.69044249106E+001
+5.79136420526E+006, +5.10676356348E+001, +1.78821943355E+001
+6.01026282854E+006, +5.11763935274E+001, +1.83017615749E+001
+6.22916145181E+006, +5.10615001865E+001, +1.92055097677E+001
+6.44806007509E+006, +5.11199091648E+001, +1.96903990490E+001
+6.66695869837E+006, +5.12113606762E+001, +2.03883458375E+001
+6.88585732165E+006, +5.11340648334E+001, +2.10294058258E+001
+7.10475594493E+006, +5.12217856419E+001, +2.17158107398E+001
+7.32365456821E+006, +5.11983839861E+001, +2.23410742516E+001
+7.54255319149E+006, +5.12113057182E+001, +2.29801028935E+001
+7.76145181477E+006, +5.13124219462E+001, +2.36960963249E+001
+7.98035043805E+006, +5.13175955437E+001, +2.43446297510E+001
+8.19924906133E+006, +5.13399820189E+001, +2.49948179301E+001
+8.41814768461E+006, +5.13857883922E+001, +2.56552982541E+001
+8.63704630788E+006, +5.13112190268E+001, +2.62763657220E+001
+8.85594493116E+006, +5.13623021542E+001, +2.69443749514E+001
+9.07484355444E+006, +5.12974925894E+001, +2.77366432971E+001
+9.29374217772E+006, +5.13912488774E+001, +2.83979593800E+001
+9.51264080100E+006, +5.14301606363E+001, +2.89813523883E+001
+9.73153942428E+006, +5.13336746498E+001, +2.96943897413E+001
+9.95043804756E+006, +5.13631188202E+001, +3.02418854478E+001
+1.01693366708E+007, +5.14427575466E+001, +3.09448163921E+001
+1.03882352941E+007, +5.14810384192E+001, +3.15757603775E+001
+1.06071339174E+007, +5.14465010409E+001, +3.22784349214E+001
+1.08260325407E+007, +5.14927576919E+001, +3.29254896244E+001
+1.10449311640E+007, +5.14815476004E+001, +3.35656360164E+001
+1.12638297872E+007, +5.14631659818E+001, +3.43016193467E+001
+1.14827284105E+007, +5.15700031385E+001, +3.49526220753E+001
+1.17016270338E+007, +5.15927558529E+001, +3.56283779008E+001
+1.19205256571E+007, +5.15271155916E+001, +3.62323373606E+001
+1.21394242804E+007, +5.15841962542E+001, +3.68378633765E+001
+1.23583229036E+007, +5.16214918004E+001, +3.76468826556E+001
+1.25772215269E+007, +5.15452519822E+001, +3.82426960046E+001
+1.27961201502E+007, +5.16243527535E+001, +3.88154529776E+001
+1.30150187735E+007, +5.16715064778E+001, +3.95211241096E+001
+1.32339173967E+007, +5.16646686784E+001, +4.03006066778E+001
+1.34528160200E+007, +5.16505021649E+001, +4.09105717897E+001
+1.36717146433E+007, +5.17158686353E+001, +4.15514596683E+001
+1.38906132666E+007, +5.16899775513E+001, +4.22376502488E+001
+1.41095118899E+007, +5.17193292846E+001, +4.28921426452E+001
+1.43284105131E+007, +5.17027903712E+001, +4.35620498706E+001
+1.45473091364E+007, +5.17337170735E+001, +4.43049741244E+001
+1.47662077597E+007, +5.17423208481E+001, +4.48961448783E+001
+1.49851063830E+007, +5.18234213816E+001, +4.55749264296E+001
+1.52040050063E+007, +5.17793441715E+001, +4.63347160853E+001
+1.54229036295E+007, +5.18207185268E+001, +4.69558867234E+001
+1.56418022528E+007, +5.17708049584E+001, +4.76189285378E+001
+1.58607008761E+007, +5.17956346558E+001, +4.82508236939E+001
+1.60795994994E+007, +5.18165381465E+001, +4.89320226053E+001
+1.62984981227E+007, +5.19325742494E+001, +4.95553994706E+001
+1.65173967459E+007, +5.19161203739E+001, +5.02986933987E+001
+1.67362953692E+007, +5.18650406682E+001, +5.09505059055E+001
+1.69551939925E+007, +5.18651832550E+001, +5.15772773970E+001
+1.71740926158E+007, +5.18470524143E+001, +5.23121709508E+001
+1.73929912390E+007, +5.19055297554E+001, +5.29914373123E+001
+1.76118898623E+007, +5.19949135076E+001, +5.35467625188E+001
+1.78307884856E+007, +5.19943823870E+001, +5.42324168334E+001
+1.80496871089E+007, +5.20112389512E+001, +5.49476621023E+001
+1.82685857322E+007, +5.19681256161E+001, +5.56149118188E+001
+1.84874843554E+007, +5.21096849283E+001, +5.62984893088E+001
+1.87063829787E+007, +5.20517516017E+001, +5.69494163500E+001
+1.89252816020E+007, +5.20895141884E+001, +5.76422081059E+001
+1.91441802253E+007, +5.20867758464E+001, +5.82474041277E+001
+1.93630788486E+007, +5.20797951592E+001, +5.89789090186E+001
+1.95819774718E+007, +5.22083679361E+001, +5.96618733803E+001
+1.98008760951E+007, +5.21244287866E+001, +6.03037746150E+001
+2.00197747184E+007, +5.21691886004E+001, +6.09798044980E+001
+2.02386733417E+007, +5.21681193812E+001, +6.17315505778E+001
+2.04575719650E+007, +5.21710750188E+001, +6.23725597491E+001
+2.06764705882E+007, +5.22371681031E+001, +6.30048391340E+001
+2.08953692115E+007, +5.22610279532E+001, +6.36991522124E+001
+2.11142678348E+007, +5.23187172141E+001, +6.43997785048E+001
+2.13331664581E+007, +5.23105132253E+001, +6.50643324816E+001
+2.15520650814E+007, +5.22944044816E+001, +6.57080149385E+001
+2.17709637046E+007, +5.23301697341E+001, +6.63773754449E+001
+2.19898623279E+007, +5.22870775586E+001, +6.71247016127E+001
+2.22087609512E+007, +5.23241289016E+001, +6.76996896369E+001
+2.24276595745E+007, +5.24134955932E+001, +6.85486115391E+001
+2.26465581977E+007, +5.23914550099E+001, +6.90984722673E+001
+2.28654568210E+007, +5.24742755732E+001, +6.97888135057E+001
+2.30843554443E+007, +5.24410282555E+001, +7.05071961103E+001
+2.33032540676E+007, +5.25338670214E+001, +7.11787094065E+001
+2.35221526909E+007, +5.24904504590E+001, +7.19450942605E+001
+2.37410513141E+007, +5.24009432283E+001, +7.25409568100E+001
+2.39599499374E+007, +5.24105483927E+001, +7.32470594575E+001
+2.41788485607E+007, +5.25109898753E+001, +7.38514206233E+001
+2.43977471840E+007, +5.25915550703E+001, +7.46251526737E+001
+2.46166458073E+007, +5.25490476005E+001, +7.52630684256E+001
+2.48355444305E+007, +5.25902713882E+001, +7.60060447687E+001
+2.50544430538E+007, +5.26708901147E+001, +7.66817194364E+001
+2.52733416771E+007, +5.26853681323E+001, +7.73793403608E+001
+2.54922403004E+007, +5.26911244494E+001, +7.80406847775E+001
+2.57111389237E+007, +5.26866055381E+001, +7.87687818166E+001
+2.59300375469E+007, +5.27229629247E+001, +7.93762147036E+001
+2.61489361702E+007, +5.28002354300E+001, +8.00083283922E+001
+2.63678347935E+007, +5.27754842497E+001, +8.07994867868E+001
+2.65867334168E+007, +5.28232166034E+001, +8.13782494795E+001
+2.68056320401E+007, +5.28785313294E+001, +8.21197097507E+001
+2.70245306633E+007, +5.27991801643E+001, +8.28053805250E+001
+2.72434292866E+007, +5.28493502081E+001, +8.35041125614E+001
+2.74623279099E+007, +5.29252514626E+001, +8.42932922210E+001
+2.76812265332E+007, +5.28826215885E+001, +8.48840632659E+001
+2.79001251564E+007, +5.28470782082E+001, +8.55531477061E+001
+2.81190237797E+007, +5.29477382109E+001, +8.63054934590E+001
+2.83379224030E+007, +5.30575037337E+001, +8.69412589110E+001
+2.85568210263E+007, +5.29476759007E+001, +8.77090742757E+001
+2.87757196496E+007, +5.29198928003E+001, +8.84962601713E+001
+2.89946182728E+007, +5.29858808904E+001, +8.91163523268E+001
+2.92135168961E+007, +5.29068656485E+001, +8.98552569763E+001
+2.94324155194E+007, +5.30989949382E+001, +9.05073357932E+001
+2.96513141427E+007, +5.30810993854E+001, +9.11516393814E+001
+2.98702127660E+007, +5.30105295479E+001, +9.19717573303E+001
+3.00891113892E+007, +5.31389836772E+001, +9.25955192621E+001
+3.03080100125E+007, +5.31648304769E+001, +9.32906572387E+001
+3.05269086358E+007, +5.32135815267E+001, +9.40741111235E+001
+3.07458072591E+007, +5.31776439034E+001, +9.46403203147E+001
+3.09647058824E+007, +5.31735611640E+001, +9.54837349166E+001
+3.11836045056E+007, +5.32158044846E+001, +9.61213739309E+001
+3.14025031289E+007, +5.32374896510E+001, +9.67608199796E+001
+3.16214017522E+007, +5.33119460818E+001, +9.74431049547E+001
+3.18403003755E+007, +5.32562413424E+001, +9.83847107803E+001
+3.20591989987E+007, +5.32642406844E+001, +9.89253919763E+001
+3.22780976220E+007, +5.34164270855E+001, +9.96759259795E+001
+3.24969962453E+007, +5.33765924546E+001, +1.00440329354E+002
+3.27158948686E+007, +5.34052495431E+001, +1.01112146141E+002
+3.29347934919E+007, +5.33433939723E+001, +1.01762915781E+002
+3.31536921151E+007, +5.34592124594E+001, +1.02412938335E+002
+3.33725907384E+007, +5.34284999263E+001, +1.03222941488E+002
+3.35914893617E+007, +5.35070578924E+001, +1.03937883588E+002
+3.38103879850E+007, +5.35090882931E+001, +1.04692143485E+002
+3.40292866083E+007, +5.34729774629E+001, +1.05391731149E+002
+3.42481852315E+007, +5.36095944248E+001, +1.06178705860E+002
+3.44670838548E+007, +5.36115392386E+001, +1.06808470278E+002
+3.46859824781E+007, +5.36823531066E+001, +1.07621759879E+002
+3.49048811014E+007, +5.36878383459E+001, +1.08306265957E+002
+3.51237797247E+007, +5.36734425212E+001, +1.08994526743E+002
+3.53426783479E+007, +5.37407517543E+001, +1.09685981561E+002
+3.55615769712E+007, +5.36996349354E+001, +1.10466674209E+002
+3.57804755945E+007, +5.38967124644E+001, +1.11099411174E+002
+3.59993742178E+007, +5.37352733097E+001, +1.11957158310E+002
+3.62182728411E+007, +5.38033651917E+001, +1.12555801610E+002
+3.64371714643E+007, +5.38530355894E+001, +1.13318428183E+002
+3.66560700876E+007, +5.38782315005E+001, +1.14160688635E+002
+3.68749687109E+007, +5.39552379302E+001, +1.14929306613E+002
+3.70938673342E+007, +5.39065282538E+001, +1.15566661479E+002
+3.73127659574E+007, +5.40060727755E+001, +1.16247749492E+002
+3.75316645807E+007, +5.38909966647E+001, +1.16922198580E+002
+3.77505632040E+007, +5.39379254645E+001, +1.17747864433E+002
+3.79694618273E+007, +5.40711671955E+001, +1.18425980208E+002
+3.81883604506E+007, +5.39787491455E+001, +1.19172689770E+002
+3.84072590738E+007, +5.40348137308E+001, +1.19996591209E+002
+3.86261576971E+007, +5.40115042637E+001, +1.20645532174E+002
+3.88450563204E+007, +5.42381468284E+001, +1.21295295668E+002
+3.90639549437E+007, +5.41819387212E+001, +1.22162427127E+002
+3.92828535670E+007, +5.40570562477E+001, +1.23112542656E+002
+3.95017521902E+007, +5.43231846143E+001, +1.23608752861E+002
+3.97206508135E+007, +5.42644188624E+001, +1.24378919702E+002
+3.99395494368E+007, +5.43315213733E+001, +1.25146750733E+002
+4.01584480601E+007, +5.44325656253E+001, +1.25910733067E+002
+4.03773466834E+007, +5.43552635655E+001, +1.26690128731E+002
+4.05962453066E+007, +5.42623455330E+001, +1.27625101071E+002
+4.08151439299E+007, +5.44462918543E+001, +1.27995400497E+002
+4.10340425532E+007, +5.43537354569E+001, +1.28868518239E+002
+4.12529411765E+007, +5.44079871851E+001, +1.29740934619E+002
+4.14718397997E+007, +5.43991116805E+001, +1.30515239514E+002
+4.16907384230E+007, +5.45440080118E+001, +1.31146693749E+002
+4.19096370463E+007, +5.46878153820E+001, +1.31940198371E+002
+4.21285356696E+007, +5.46570257891E+001, +1.32736130261E+002
+4.23474342929E+007, +5.45926744837E+001, +1.33596595787E+002
+4.25663329161E+007, +5.47965659321E+001, +1.34167359037E+002
+4.27852315394E+007, +5.46195483104E+001, +1.35037616977E+002
+4.30041301627E+007, +5.48278257929E+001, +1.35960932872E+002
+4.32230287860E+007, +5.48963494213E+001, +1.36638761352E+002
+4.34419274093E+007, +5.49327463452E+001, +1.37364828143E+002
+4.36608260325E+007, +5.48921231679E+001, +1.38111895880E+002
+4.38797246558E+007, +5.48164782175E+001, +1.38980497839E+002
+4.40986232791E+007, +5.49288066997E+001, +1.39716000416E+002
+4.43175219024E+007, +5.48407768219E+001, +1.40480277639E+002
+4.45364205257E+007, +5.49443964698E+001, +1.41235901408E+002
+4.47553191489E+007, +5.50027367088E+001, +1.42061461928E+002
+4.49742177722E+007, +5.51564066862E+001, +1.42755678980E+002
+4.51931163955E+007, +5.50275437778E+001, +1.43563479307E+002
+4.54120150188E+007, +5.50358711474E+001, +1.44387286046E+002
+4.56309136421E+007, +5.51169761975E+001, +1.45207679936E+002
+4.58498122653E+007, +5.51273399667E+001, +1.45777227766E+002
+4.60687108886E+007, +5.51685274919E+001, +1.46629139558E+002
+4.62876095119E+007, +5.50885985860E+001, +1.47439903853E+002
+4.65065081352E+007, +5.52898043606E+001, +1.48138788956E+002
+4.67254067584E+007, +5.54266923579E+001, +1.48944403714E+002
+4.69443053817E+007, +5.53028091320E+001, +1.49713601782E+002
+4.71632040050E+007, +5.53932459588E+001, +1.50560823776E+002
+4.73821026283E+007, +5.52659531007E+001, +1.51243097415E+002
+4.76010012516E+007, +5.54485035638E+001, +1.52174965742E+002
+4.78198998748E+007, +5.54027245540E+001, +1.52960378329E+002
+4.80387984981E+007, +5.53165795598E+001, +1.53792164524E+002
+4.82576971214E+007, +5.55891719080E+001, +1.54739352063E+002
+4.84765957447E+007, +5.57487990985E+001, +1.55406665756E+002
+4.86954943680E+007, +5.55935106352E+001, +1.56142161218E+002
+4.89143929912E+007, +5.57191402466E+001, +1.56892353207E+002
+4.91332916145E+007, +5.57289907267E+001, +1.57675766376E+002
+4.93521902378E+007, +5.55935022984E+001, +1.58563546785E+002
+4.95710888611E+007, +5.57675814243E+001, +1.59423539411E+002
+4.97899874844E+007, +5.59736502060E+001, +1.60138930861E+002
+5.00088861076E+007, +5.56246617385E+001, +1.61250482603E+002
+5.02277847309E+007, +5.59997285217E+001, +1.61751201725E+002
+5.04466833542E+007, +5.58970948418E+001, +1.62755102467E+002
+5.06655819775E+007, +5.59155002776E+001, +1.63586773460E+002
+5.08844806008E+007, +5.59843707290E+001, +1.64412785118E+002
+5.11033792240E+007, +5.60376835344E+001, +1.65280936382E+002
+5.13222778473E+007, +5.61706759952E+001, +1.66303755291E+002
+5.15411764706E+007, +5.62500242449E+001, +1.66868868454E+002
+5.17600750939E+007, +5.61103002515E+001, +1.67771230699E+002
+5.19789737171E+007, +5.62156767025E+001, +1.68552753998E+002
+5.21978723404E+007, +5.63653848588E+001, +1.69346181790E+002
+5.24167709637E+007, +5.61678109672E+001, +1.70109283188E+002
+5.26356695870E+007, +5.65162067063E+001, +1.70868250080E+002
+5.28545682103E+007, +5.64051610082E+001, +1.71862400364E+002
+5.30734668335E+007, +5.66002190629E+001, +1.72878493421E+002
+5.32923654568E+007, +5.62055723196E+001, +1.73684257700E+002
+5.35112640801E+007, +5.65191075231E+001, +1.74321908187E+002
+5.37301627034E+007, +5.66409446033E+001, +1.75310048864E+002
+5.39490613267E+007, +5.66454843352E+001, +1.76115654988E+002
+5.41679599499E+007, +5.66469728162E+001, +1.76950868216E+002
+5.43868585732E+007, +5.66799173417E+001, +1.77757341590E+002
+5.46057571965E+007, +5.66891966969E+001, +1.78785730448E+002
+5.48246558198E+007, +5.67586708997E+001, +1.79492744441E+002
+5.50435544431E+007, +5.68680229100E+001, +1.80616226900E+002
+5.52624530663E+007, +5.68330651425E+001, +1.81466209049E+002
+5.54813516896E+007, +5.68391036789E+001, +1.82173732359E+002
+5.57002503129E+007, +5.72862914985E+001, +1.82998869538E+002
+5.59191489362E+007, +5.71032655435E+001, +1.83894690107E+002
+5.61380475594E+007, +5.71805522037E+001, +1.84656284083E+002
+5.63569461827E+007, +5.71048580864E+001, +1.85636828577E+002
+5.65758448060E+007, +5.73073654118E+001, +1.86610262802E+002
+5.67947434293E+007, +5.71814405614E+001, +1.87487447251E+002
+5.70136420526E+007, +5.73574308535E+001, +1.88131307211E+002
+5.72325406758E+007, +5.73737507202E+001, +1.89247583603E+002
+5.74514392991E+007, +5.72903091014E+001, +1.89852560275E+002
+5.76703379224E+007, +5.73648058557E+001, +1.90827442532E+002
+5.78892365457E+007, +5.73647338871E+001, +1.91766167320E+002
+5.81081351690E+007, +5.78518446760E+001, +1.92857371959E+002
+5.83270337922E+007, +5.74763313091E+001, +1.93711049703E+002
+5.85459324155E+007, +5.78553239231E+001, +1.94772100314E+002
+5.87648310388E+007, +5.73887676328E+001, +1.95316685024E+002
+5.89837296621E+007, +5.79698953469E+001, +1.96495215245E+002
+5.92026282854E+007, +5.79757470982E+001, +1.97466395776E+002
+5.94215269086E+007, +5.78162715729E+001, +1.98147997561E+002
+5.96404255319E+007, +5.77202131922E+001, +1.99256369543E+002
+5.98593241552E+007, +5.79894666993E+001, +2.00198140598E+002
+6.00782227785E+007, +5.80171667297E+001, +2.01017337889E+002
+6.02971214018E+007, +5.80444794393E+001, +2.01833688912E+002
+6.05160200250E+007, +5.79441118976E+001, +2.03013256513E+002
+6.07349186483E+007, +5.81371350366E+001, +2.03520708856E+002
+6.09538172716E+007, +5.80411414650E+001, +2.04800469559E+002
+6.11727158949E+007, +5.82828061363E+001, +2.05786940511E+002
+6.13916145181E+007, +5.79214712623E+001, +2.06742996066E+002
+6.16105131414E+007, +5.84043912228E+001, +2.07514615426E+002
+6.18294117647E+007, +5.84994899484E+001, +2.08646086662E+002
+6.20483103880E+007, +5.83001362204E+001, +2.09515555814E+002
+6.22672090113E+007, +5.83846683665E+001, +2.10246850073E+002
+6.24861076345E+007, +5.88459846393E+001, +2.11304472486E+002
+6.27050062578E+007, +5.90370146154E+001, +2.12206190924E+002
+6.29239048811E+007, +5.85036832651E+001, +2.13322134908E+002
+6.31428035044E+007, +5.85981548867E+001, +2.14293634250E+002
+6.33617021277E+007, +5.91241395277E+001, +2.15070012250E+002
+6.35806007509E+007, +5.86143251453E+001, +2.16174024782E+002
+6.37994993742E+007, +5.87709538075E+001, +2.16973983698E+002
+6.40183979975E+007, +5.92224249631E+001, +2.17940657079E+002
+6.42372966208E+007, +5.90300574499E+001, +2.18939222683E+002
+6.44561952441E+007, +5.91281183172E+001, +2.20091891760E+002
+6.46750938673E+007, +5.93607434886E+001, +2.21093528602E+002
+6.48939924906E+007, +5.94349916649E+001, +2.21954084926E+002
+6.51128911139E+007, +5.92021108179E+001, +2.23191727904E+002
+6.53317897372E+007, +5.93181887523E+001, +2.24298949664E+002
+6.55506883605E+007, +5.95639650594E+001, +2.25319318155E+002
+6.57695869837E+007, +5.94832838697E+001, +2.26109536541E+002
+6.59884856070E+007, +5.94940960032E+001, +2.26871840507E+002
+6.62073842303E+007, +5.95249435608E+001, +2.28601251876E+002
+6.64262828536E+007, +5.95581862029E+001, +2.29101984614E+002
+6.66451814768E+007, +5.97600232510E+001, +2.30227819347E+002
+6.68640801001E+007, +5.97749046853E+001, +2.31133884017E+002
+6.70829787234E+007, +5.98112903637E+001, +2.32323188779E+002
+6.73018773467E+007, +6.00454502970E+001, +2.33107666810E+002
+6.75207759700E+007, +6.04974873116E+001, +2.34272676813E+002
+6.77396745932E+007, +6.01706589507E+001, +2.35412474942E+002
+6.79585732165E+007, +6.05494281079E+001, +2.36286312835E+002
+6.81774718398E+007, +6.01760646000E+001, +2.37628876027E+002
+6.83963704631E+007, +6.02852016477E+001, +2.38655837094E+002
+6.86152690864E+007, +6.03677697900E+001, +2.39657121256E+002
+6.88341677096E+007, +6.06463980048E+001, +2.40695223296E+002
+6.90530663329E+007, +6.10179306347E+001, +2.41778760841E+002
+6.92719649562E+007, +6.08819598674E+001, +2.42573536131E+002
+6.94908635795E+007, +6.08157768234E+001, +2.43571898739E+002
+6.97097622028E+007, +6.10579948422E+001, +2.44722371461E+002
+6.99286608260E+007, +6.09439007296E+001, +2.45740027212E+002
+7.01475594493E+007, +6.12352585098E+001, +2.47046547837E+002
