"# Channel 1"
"# Trace 1"
Frequency, Formatted Data, Formatted Data
+1.00000000000E+006, +5.14133147909E-001, +1.13110291463E+001
+1.16527545910E+006, +5.57276025172E-001, +1.31857027472E+001
+1.33055091820E+006, +6.49052755841E-001, +1.49731660855E+001
+1.49582637730E+006, +6.42758398950E-001, +1.68165725189E+001
+1.66110183639E+006, +6.91900726535E-001, +1.86533865312E+001
+1.82637729549E+006, +7.14804137603E-001, +2.04494277366E+001
+1.99165275459E+006, +7.41090574488E-001, +2.22794317256E+001
+2.15692821369E+006, +7.50704376591E-001, +2.41249025255E+001
+2.32220367279E+006, +7.26743251324E-001, +2.59639726380E+001
+2.48747913189E+006, +7.67279828810E-001, +2.77805511443E+001
+2.65275459098E+006, +7.62441594517E-001, +2.96047802504E+001
+2.81803005008E+006, +7.52011148011E-001, +3.14384373735E+001
+2.98330550918E+006, +7.57477760089E-001, +3.32056726795E+001
+3.14858096828E+006, +8.66875475497E-001, +3.50915565922E+001
+3.31385642738E+006, +9.06833689939E-001, +3.69271694429E+001
+3.47913188648E+006, +8.15416751339E-001, +3.87777077868E+001
+3.64440734558E+006, +8.61968223959E-001, +4.05375850825E+001
+3.80968280467E+006, +9.56196097063E-001, +4.24091545188E+001
+3.97495826377E+006, +9.52685112255E-001, +4.42717178393E+001
+4.14023372287E+006, +9.52128901560E-001, +4.62430583178E+001
+4.30550918197E+006, +9.95330572913E-001, +4.78281803033E+001
+4.47078464107E+006, +9.14355586962E-001, +4.97672762321E+001
+4.63606010017E+006, +9.47688539894E-001, +5.15708924156E+001
+4.80133555927E+006, +9.16171059666E-001, +5.34559613358E+001
+4.96661101836E+006, +9.88796375945E-001, +5.53272734311E+001
+5.13188647746E+006, +1.00505138117E+000, +5.71064652458E+001
+5.29716193656E+006, +1.00640696757E+000, +5.89043676646E+001
+5.46243739566E+006, +1.01336170844E+000, +6.08227368627E+001
+5.62771285476E+006, +1.11834017372E+000, +6.27056414431E+001
+5.79298831386E+006, +1.10134996789E+000, +6.45705739017E+001
+5.95826377295E+006, +1.17962757305E+000, +6.64215278570E+001
+6.12353923205E+006, +1.27592479453E+000, +6.82410550413E+001
+6.28881469115E+006, +1.12693766036E+000, +7.00977970135E+001
+6.45409015025E+006, +1.22008999234E+000, +7.19292489001E+001
+6.61936560935E+006, +1.14502738148E+000, +7.38373041363E+001
+6.78464106845E+006, +1.20095188169E+000, +7.57117466710E+001
+6.94991652755E+006, +1.22878897025E+000, +7.75490309004E+001
+7.11519198664E+006, +1.26942668702E+000, +7.94305127310E+001
+7.28046744574E+006, +1.26454189280E+000, +8.12771969007E+001
+7.44574290484E+006, +1.32600408309E+000, +8.31505521394E+001
+7.61101836394E+006, +1.34643608532E+000, +8.50150512829E+001
+7.77629382304E+006, +1.35523815728E+000, +8.68833223966E+001
+7.94156928214E+006, +1.29215406352E+000, +8.87601323493E+001
+8.10684474124E+006, +1.31857961572E+000, +9.05420926797E+001
+8.27212020033E+006, +1.39150306112E+000, +9.24734692648E+001
+8.43739565943E+006, +1.35021523743E+000, +9.44296755596E+001
+8.60267111853E+006, +1.31204872555E+000, +9.62339317797E+001
+8.76794657763E+006, +1.45188560350E+000, +9.81436005715E+001
+8.93322203673E+006, +1.37281286420E+000, +1.00094623968E+002
+9.09849749583E+006, +1.42525945813E+000, +1.01907832837E+002
+9.26377295492E+006, +1.31534246482E+000, +1.03908174119E+002
+9.42904841402E+006, +1.46305414003E+000, +1.05722818576E+002
+9.59432387312E+006, +1.43662263086E+000, +1.07538474098E+002
+9.75959933222E+006, +1.33056699572E+000, +1.09538804501E+002
+9.92487479132E+006, +1.40917559482E+000, +1.11313604372E+002
+1.00901502504E+007, +1.43892011543E+000, +1.13357188368E+002
+1.02554257095E+007, +1.43678025355E+000, +1.15235582413E+002
+1.04207011686E+007, +1.40371487720E+000, +1.17075452849E+002
+1.05859766277E+007, +1.40550256712E+000, +1.19162049531E+002
+1.07512520868E+007, +1.46833143077E+000, +1.20989733680E+002
+1.09165275459E+007, +1.42976153057E+000, +1.22975881958E+002
+1.10818030050E+007, +1.51059204541E+000, +1.24976310948E+002
+1.12470784641E+007, +1.49705682929E+000, +1.26716525368E+002
+1.14123539232E+007, +1.48212706962E+000, +1.28659830635E+002
+1.15776293823E+007, +1.57767443361E+000, +1.30734556542E+002
+1.17429048414E+007, +1.57252775931E+000, +1.32665071488E+002
+1.19081803005E+007, +1.54033963814E+000, +1.34675885215E+002
+1.20734557596E+007, +1.58157788357E+000, +1.36528596769E+002
+1.22387312187E+007, +1.53323880381E+000, +1.38416407720E+002
+1.24040066778E+007, +1.59320272429E+000, +1.40384470704E+002
+1.25692821369E+007, +1.60860613648E+000, +1.42350397064E+002
+1.27345575960E+007, +1.61578967067E+000, +1.44298335054E+002
+1.28998330551E+007, +1.70879073380E+000, +1.46439293876E+002
+1.30651085142E+007, +1.46615636354E+000, +1.48337004290E+002
+1.32303839733E+007, +1.82799826874E+000, +1.50490734417E+002
+1.33956594324E+007, +1.58030762967E+000, +1.52452736042E+002
+1.35609348915E+007, +1.69305909371E+000, +1.54375892534E+002
+1.37262103506E+007, +1.66963724133E+000, +1.56118743917E+002
+1.38914858097E+007, +1.75216953100E+000, +1.58285322957E+002
+1.40567612688E+007, +1.72699949064E+000, +1.60276541661E+002
+1.42220367279E+007, +1.72831939046E+000, +1.62295203683E+002
+1.43873121870E+007, +1.65710241037E+000, +1.64438969531E+002
+1.45525876461E+007, +1.72235769386E+000, +1.66342752461E+002
+1.47178631052E+007, +1.84399161802E+000, +1.68383749498E+002
+1.48831385643E+007, +1.88758628983E+000, +1.70077671048E+002
+1.50484140234E+007, +1.82057243312E+000, +1.72329941361E+002
+1.52136894825E+007, +1.69972365338E+000, +1.74562051993E+002
+1.53789649416E+007, +1.90152563532E+000, +1.76359336696E+002
+1.55442404007E+007, +1.89954180727E+000, +1.78584042466E+002
+1.57095158598E+007, +1.68654143183E+000, +1.80441107415E+002
+1.58747913189E+007, +2.07271800055E+000, +1.82633989561E+002
+1.60400667780E+007, +2.00421259315E+000, +1.84567383046E+002
+1.62053422371E+007, +2.09306020300E+000, +1.86684529173E+002
+1.63706176962E+007, +1.96594475133E+000, +1.88727795002E+002
+1.65358931553E+007, +2.11964045964E+000, +1.90895410512E+002
+1.67011686144E+007, +2.23759572236E+000, +1.93079101588E+002
+1.68664440735E+007, +2.12539636605E+000, +1.95005429366E+002
+1.70317195326E+007, +1.84378289701E+000, +1.97208920000E+002
+1.71969949917E+007, +1.78815172778E+000, +1.99424682125E+002
+1.73622704508E+007, +1.95225576109E+000, +2.01372955802E+002
+1.75275459098E+007, +1.83641885555E+000, +2.03464422043E+002
+1.76928213689E+007, +2.01835969994E+000, +2.05805458198E+002
+1.78580968280E+007, +2.21845076065E+000, +2.08008936514E+002
+1.80233722871E+007, +2.20829899679E+000, +2.09909739578E+002
+1.81886477462E+007, +2.11474738656E+000, +2.12176767754E+002
+1.83539232053E+007, +2.41541311322E+000, +2.14238750473E+002
+1.85191986644E+007, +2.40864348824E+000, +2.16725988338E+002
+1.86844741235E+007, +2.36299079782E+000, +2.18380220537E+002
+1.88497495826E+007, +2.20558053615E+000, +2.20693495685E+002
+1.90150250417E+007, +2.20244008781E+000, +2.23282756792E+002
+1.91803005008E+007, +2.35845578849E+000, +2.25291314571E+002
+1.93455759599E+007, +2.45729306425E+000, +2.27096730667E+002
+1.95108514190E+007, +2.62179098529E+000, +2.29864217701E+002
+1.96761268781E+007, +2.62769137502E+000, +2.32034391488E+002
+1.98414023372E+007, +2.71785833334E+000, +2.34146551244E+002
+2.00066777963E+007, +2.71362119782E+000, +2.36125801041E+002
+2.01719532554E+007, +2.58681925242E+000, +2.38449657708E+002
+2.03372287145E+007, +2.91829105156E+000, +2.40939884413E+002
+2.05025041736E+007, +2.98595821287E+000, +2.43403269954E+002
+2.06677796327E+007, +3.15060073377E+000, +2.45624910332E+002
+2.08330550918E+007, +2.84489687586E+000, +2.47473893053E+002
+2.09983305509E+007, +3.04236952203E+000, +2.50220937261E+002
+2.11636060100E+007, +2.88758044178E+000, +2.52228707089E+002
+2.13288814691E+007, +3.14330859341E+000, +2.54479546655E+002
+2.14941569282E+007, +3.01874161584E+000, +2.56857750288E+002
+2.16594323873E+007, +3.39899443985E+000, +2.59556170790E+002
+2.18247078464E+007, +3.26872296363E+000, +2.61863185789E+002
+2.19899833055E+007, +3.11491921265E+000, +2.64403492237E+002
+2.21552587646E+007, +2.95310688899E+000, +2.66121215199E+002
+2.23205342237E+007, +3.39368487122E+000, +2.68718156225E+002
+2.24858096828E+007, +3.34965524722E+000, +2.71320401550E+002
+2.26510851419E+007, +4.11026068596E+000, +2.73635398885E+002
+2.28163606010E+007, +3.81482552910E+000, +2.76353729513E+002
+2.29816360601E+007, +3.89319450593E+000, +2.78516142441E+002
+2.31469115192E+007, +4.70623894330E+000, +2.80944643196E+002
+2.33121869783E+007, +4.60525183017E+000, +2.84119206857E+002
+2.34774624374E+007, +5.09891597781E+000, +2.86209127672E+002
+2.36427378965E+007, +5.21821596615E+000, +2.88819963300E+002
+2.38080133556E+007, +5.29512345497E+000, +2.90907426416E+002
+2.39732888147E+007, +5.76862688043E+000, +2.93475962671E+002
+2.41385642738E+007, +5.96821249209E+000, +2.95835846811E+002
+2.43038397329E+007, +5.46549036612E+000, +2.98116528554E+002
+2.44691151920E+007, +5.78925747852E+000, +3.00176146294E+002
+2.46343906511E+007, +5.98981633971E+000, +3.03194811245E+002
+2.47996661102E+007, +6.34849336591E+000, +3.05299008762E+002
+2.49649415693E+007, +6.06941952943E+000, +3.08027762442E+002
+2.51302170284E+007, +6.43092222494E+000, +3.10744369431E+002
+2.52954924875E+007, +7.02614031243E+000, +3.13205180561E+002
+2.54607679466E+007, +6.81971287552E+000, +3.15651539429E+002
+2.56260434057E+007, +7.17131056985E+000, +3.17672637163E+002
+2.57913188648E+007, +7.29824955914E+000, +3.20595436190E+002
+2.59565943239E+007, +7.61376889856E+000, +3.22706771557E+002
+2.61218697830E+007, +7.79997271834E+000, +3.24695582319E+002
+2.62871452421E+007, +8.62040099517E+000, +3.27173130743E+002
+2.64524207012E+007, +7.70565232128E+000, +3.29874818621E+002
+2.66176961603E+007, +8.33761442967E+000, +3.32766950158E+002
+2.67829716194E+007, +8.28917219241E+000, +3.34692014677E+002
+2.69482470785E+007, +8.26344961073E+000, +3.37911426261E+002
+2.71135225376E+007, +8.38799651138E+000, +3.40839615334E+002
+2.72787979967E+007, +8.86540717906E+000, +3.43129727834E+002
+2.74440734558E+007, +8.72872264745E+000, +3.45351640365E+002
+2.76093489149E+007, +8.87373134268E+000, +3.47121307866E+002
+2.77746243740E+007, +8.76944092617E+000, +3.50365165136E+002
+2.79398998331E+007, +8.56817351928E+000, +3.53394021819E+002
+2.81051752922E+007, +9.45713597358E+000, +3.55375727176E+002
+2.82704507513E+007, +8.61284511005E+000, +3.58145149692E+002
+2.84357262104E+007, +8.57106781654E+000, +3.61124568728E+002
+2.86010016694E+007, +7.79330013037E+000, +3.64743833327E+002
+2.87662771285E+007, +8.08836908239E+000, +3.67350260420E+002
+2.89315525876E+007, +8.64039073831E+000, +3.69673268712E+002
+2.90968280467E+007, +7.96425765772E+000, +3.72586430089E+002
+2.92621035058E+007, +8.45666879812E+000, +3.74962580987E+002
+2.94273789649E+007, +8.66939361848E+000, +3.78251528694E+002
+2.95926544240E+007, +7.84307083622E+000, +3.81295393678E+002
+2.97579298831E+007, +8.78697594522E+000, +3.83974003942E+002
+2.99232053422E+007, +8.61636933482E+000, +3.87696688146E+002
+3.00884808013E+007, +9.09379162660E+000, +3.90390150154E+002
+3.02537562604E+007, +8.51876805943E+000, +3.93076041375E+002
+3.04190317195E+007, +8.71362027541E+000, +3.96766511482E+002
+3.05843071786E+007, +8.32330680920E+000, +3.98814331822E+002
+3.07495826377E+007, +8.27599032253E+000, +4.02653820710E+002
+3.09148580968E+007, +8.80144570738E+000, +4.06407883626E+002
+3.10801335559E+007, +9.00985889723E+000, +4.09083232713E+002
+3.12454090150E+007, +8.90691667825E+000, +4.12323049989E+002
+3.14106844741E+007, +8.08077049338E+000, +4.15080101411E+002
+3.15759599332E+007, +9.01997418854E+000, +4.18848171491E+002
+3.17412353923E+007, +9.29447053824E+000, +4.21879258663E+002
+3.19065108514E+007, +9.15830386917E+000, +4.25924515463E+002
+3.20717863105E+007, +8.70599649013E+000, +4.29048631788E+002
+3.22370617696E+007, +9.00349399767E+000, +4.31773725014E+002
+3.24023372287E+007, +8.42808102425E+000, +4.35052292109E+002
+3.25676126878E+007, +1.02042950848E+001, +4.39122602358E+002
+3.27328881469E+007, +1.02525983248E+001, +4.42117642986E+002
+3.28981636060E+007, +9.27241017039E+000, +4.45605714556E+002
+3.30634390651E+007, +1.00552576629E+001, +4.48932685173E+002
+3.32287145242E+007, +8.62797661278E+000, +4.53470369239E+002
+3.33939899833E+007, +9.73501811454E+000, +4.56804354544E+002
+3.35592654424E+007, +1.06632827868E+001, +4.60430428770E+002
+3.37245409015E+007, +1.11445413703E+001, +4.63565040089E+002
+3.38898163606E+007, +9.36098467627E+000, +4.67262912646E+002
+3.40550918197E+007, +1.06221883097E+001, +4.70376653079E+002
+3.42203672788E+007, +1.09562858647E+001, +4.74878860220E+002
+3.43856427379E+007, +1.08215249628E+001, +4.78789274005E+002
+3.45509181970E+007, +9.97328458882E+000, +4.82625266859E+002
+3.47161936561E+007, +1.15604571229E+001, +4.85715149259E+002
+3.48814691152E+007, +1.14213552462E+001, +4.89440874759E+002
+3.50467445743E+007, +1.22813401304E+001, +4.93985866381E+002
+3.52120200334E+007, +1.29799600395E+001, +4.98196418632E+002
+3.53772954925E+007, +1.15892652827E+001, +5.02031213119E+002
+3.55425709516E+007, +1.19612385281E+001, +5.06664915624E+002
+3.57078464107E+007, +1.15548330386E+001, +5.09745461229E+002
+3.58731218698E+007, +1.24651156521E+001, +5.14228533017E+002
+3.60383973289E+007, +1.16374569750E+001, +5.18830728394E+002
+3.62036727880E+007, +1.31493677961E+001, +5.22627150076E+002
+3.63689482471E+007, +1.36372481825E+001, +5.27040120911E+002
+3.65342237062E+007, +1.39290925435E+001, +5.30486798361E+002
+3.66994991653E+007, +1.20484100216E+001, +5.36579749625E+002
+3.68647746244E+007, +1.42261948869E+001, +5.40800626643E+002
+3.70300500835E+007, +1.24996133579E+001, +5.46425907208E+002
+3.71953255426E+007, +1.35404098576E+001, +5.51862031673E+002
+3.73606010017E+007, +1.40271812881E+001, +5.56939695166E+002
+3.75258764608E+007, +1.36265938646E+001, +5.63099637118E+002
+3.76911519199E+007, +1.43385119161E+001, +5.65344830766E+002
+3.78564273790E+007, +1.24543955275E+001, +5.69520739181E+002
+3.80217028381E+007, +1.45818855834E+001, +5.77211905702E+002
+3.81869782972E+007, +1.55280660612E+001, +5.79639868874E+002
+3.83522537563E+007, +1.66104211818E+001, +5.86539566403E+002
+3.85175292154E+007, +1.77348115395E+001, +5.90481666453E+002
+3.86828046745E+007, +1.69637730677E+001, +5.96652225989E+002
+3.88480801336E+007, +1.85331721980E+001, +6.02231093058E+002
+3.90133555927E+007, +2.03369184269E+001, +6.09097389952E+002
+3.91786310518E+007, +2.05299954012E+001, +6.14677514006E+002
+3.93439065109E+007, +2.06765281604E+001, +6.20872580803E+002
+3.95091819699E+007, +2.37246561506E+001, +6.25847952446E+002
+3.96744574290E+007, +2.40354231565E+001, +6.27712895998E+002
+3.98397328881E+007, +2.17493653417E+001, +6.36369021351E+002
+4.00050083472E+007, +2.36185855051E+001, +6.40452360902E+002
+4.01702838063E+007, +2.29504358113E+001, +6.45869847506E+002
+4.03355592654E+007, +2.36201857028E+001, +6.52095609835E+002
+4.05008347245E+007, +2.49826517917E+001, +6.58075831290E+002
+4.06661101836E+007, +2.50644287733E+001, +6.63283386109E+002
+4.08313856427E+007, +2.39919373526E+001, +6.71608378308E+002
+4.09966611018E+007, +2.52544385164E+001, +6.75234825339E+002
+4.11619365609E+007, +2.69889688782E+001, +6.81345929672E+002
+4.13272120200E+007, +2.71545594328E+001, +6.88953143244E+002
+4.14924874791E+007, +2.74843163509E+001, +6.95359066449E+002
+4.16577629382E+007, +2.45316154389E+001, +7.04244338383E+002
+4.18230383973E+007, +2.75836206367E+001, +7.09048330305E+002
+4.19883138564E+007, +2.65484819489E+001, +7.17813184124E+002
+4.21535893155E+007, +2.81687797009E+001, +7.23196359664E+002
+4.23188647746E+007, +2.83474881934E+001, +7.33361644947E+002
+4.24841402337E+007, +2.75473791662E+001, +7.43131819391E+002
+4.26494156928E+007, +2.60017023451E+001, +7.49072552641E+002
+4.28146911519E+007, +3.13223683993E+001, +7.60206242190E+002
+4.29799666110E+007, +3.03843004308E+001, +7.70781498982E+002
+4.31452420701E+007, +3.13378451399E+001, +7.78475252155E+002
+4.33105175292E+007, +3.29390095242E+001, +7.85759065058E+002
+4.34757929883E+007, +3.05057704771E+001, +7.96395118376E+002
+4.36410684474E+007, +3.16772356309E+001, +8.05801726134E+002
+4.38063439065E+007, +3.25878378612E+001, +8.16665275387E+002
+4.39716193656E+007, +3.74308134132E+001, +8.25800994124E+002
+4.41368948247E+007, +3.69281358895E+001, +8.38323000947E+002
+4.43021702838E+007, +3.95441416716E+001, +8.48737881049E+002
+4.44674457429E+007, +3.68818297383E+001, +8.64364752892E+002
+4.46327212020E+007, +4.56283600079E+001, +8.72168658382E+002
+4.47979966611E+007, +4.47684195946E+001, +8.85261230743E+002
+4.49632721202E+007, +4.80345173324E+001, +9.01070137493E+002
+4.51285475793E+007, +4.67169844724E+001, +9.13097188511E+002
+4.52938230384E+007, +5.44605396224E+001, +9.23504759063E+002
+4.54590984975E+007, +5.17229165448E+001, +9.35928387338E+002
+4.56243739566E+007, +6.12527092509E+001, +9.57261935834E+002
+4.57896494157E+007, +6.28678038215E+001, +9.63552447750E+002
+4.59549248748E+007, +6.72140689935E+001, +9.84547418009E+002
+4.61202003339E+007, +6.84155709355E+001, +1.00115782505E+003
+4.62854757930E+007, +7.77171006324E+001, +1.01773081647E+003
+4.64507512521E+007, +8.30318593533E+001, +1.03310636963E+003
+4.66160267112E+007, +8.88088787297E+001, +1.05285838818E+003
+4.67813021703E+007, +9.70871026210E+001, +1.07161640175E+003
+4.69465776294E+007, +1.04788745075E+002, +1.08808337068E+003
+4.71118530885E+007, +1.14146543275E+002, +1.10922339253E+003
+4.72771285476E+007, +1.24812804270E+002, +1.12548811670E+003
+4.74424040067E+007, +1.32071049797E+002, +1.15029284856E+003
+4.76076794658E+007, +1.46534920466E+002, +1.16660472406E+003
+4.77729549249E+007, +1.59183472172E+002, +1.18905829049E+003
+4.79382303840E+007, +1.66138517283E+002, +1.20916092566E+003
+4.81035058431E+007, +1.88400464064E+002, +1.23349818396E+003
+4.82687813022E+007, +2.01001807239E+002, +1.25085358229E+003
+4.84340567613E+007, +2.19195208758E+002, +1.27999102563E+003
+4.85993322204E+007, +2.48391409965E+002, +1.29747226153E+003
+4.87646076795E+007, +2.65506721603E+002, +1.31852355858E+003
+4.89298831386E+007, +2.86934294193E+002, +1.33977052462E+003
+4.90951585977E+007, +3.02794195196E+002, +1.36232833123E+003
+4.92604340568E+007, +3.39674139654E+002, +1.38307066892E+003
+4.94257095159E+007, +3.71225067460E+002, +1.40328692279E+003
+4.95909849750E+007, +3.92790344410E+002, +1.42263753531E+003
+4.97562604341E+007, +4.35215099924E+002, +1.42484407961E+003
+4.99215358932E+007, +4.60869577285E+002, +1.46273127909E+003
+5.00868113523E+007, +4.93795689806E+002, +1.48309915678E+003
+5.02520868114E+007, +5.43249169290E+002, +1.49018451262E+003
+5.04173622705E+007, +5.74485499377E+002, +1.50683043784E+003
+5.05826377295E+007, +6.06315201367E+002, +1.49584951092E+003
+5.07479131886E+007, +6.40486934046E+002, +1.50418200329E+003
+5.09131886477E+007, +6.64120350734E+002, +1.49673008591E+003
+5.10784641068E+007, +7.18090556738E+002, +1.49240798369E+003
+5.12437395659E+007, +7.53564472434E+002, +1.51437320417E+003
+5.14090150250E+007, +7.72836135012E+002, +1.50733196254E+003
+5.15742904841E+007, +7.91517349285E+002, +1.50908412866E+003
+5.17395659432E+007, +8.34259365577E+002, +1.50661815606E+003
+5.19048414023E+007, +8.65331440342E+002, +1.50779931017E+003
+5.20701168614E+007, +8.79579038546E+002, +1.52924135334E+003
+5.22353923205E+007, +9.00256537604E+002, +1.55269370990E+003
+5.24006677796E+007, +9.23125975913E+002, +1.54634595309E+003
+5.25659432387E+007, +9.86136560244E+002, +1.56417317441E+003
+5.27312186978E+007, +1.01228996907E+003, +1.57836939635E+003
+5.28964941569E+007, +1.05030265762E+003, +1.60942017763E+003
+5.30617696160E+007, +1.09941267246E+003, +1.62207736972E+003
+5.32270450751E+007, +1.13464883406E+003, +1.63391466262E+003
+5.33923205342E+007, +1.20978979005E+003, +1.69640162338E+003
+5.35575959933E+007, +1.26779154749E+003, +1.72353105948E+003
+5.37228714524E+007, +1.35392834848E+003, +1.71804864973E+003
+5.38881469115E+007, +1.43339538024E+003, +1.74302160695E+003
