"# Channel 1"
"# Trace 1"
Frequency, Formatted Data, Formatted Data
+1.00000000000E+005, +7.23891355607E+001, +2.90389588502E+000
+2.25031289111E+005, +7.23551385363E+001, +7.34440925024E+000
+3.50062578223E+005, +7.23676346962E+001, +1.15612569559E+001
+4.75093867334E+005, +7.23647120706E+001, +1.56926231963E+001
+6.00125156446E+005, +7.23037318996E+001, +1.98120044503E+001
+7.25156445557E+005, +7.22931821423E+001, +2.37209036129E+001
+8.50187734668E+005, +7.24724318820E+001, +2.79191814067E+001
+9.75219023780E+005, +7.24138347330E+001, +3.21445659188E+001
+1.10025031289E+006, +7.22941376640E+001, +3.61320079890E+001
+1.22528160200E+006, +7.23474046854E+001, +4.02173298408E+001
+1.35031289111E+006, +7.23575033243E+001, +4.43524649986E+001
+1.47534418023E+006, +7.24095576029E+001, +4.82839016853E+001
+1.60037546934E+006, +7.23580765005E+001, +5.24397624522E+001
+1.72540675845E+006, +7.23578287123E+001, +5.68030408812E+001
+1.85043804756E+006, +7.23748203401E+001, +6.06432376305E+001
+1.97546933667E+006, +7.24307991527E+001, +6.49188674589E+001
+2.10050062578E+006, +7.23294250874E+001, +6.88729708217E+001
+2.22553191489E+006, +7.22790030230E+001, +7.30683029563E+001
+2.35056320401E+006, +7.24255712129E+001, +7.72193469254E+001
+2.47559449312E+006, +7.25106720220E+001, +8.11617577654E+001
+2.60062578223E+006, +7.24041753374E+001, +8.53689530247E+001
+2.72565707134E+006, +7.25814911665E+001, +8.96680600012E+001
+2.85068836045E+006, +7.22947702876E+001, +9.36569457151E+001
+2.97571964956E+006, +7.24831447991E+001, +9.77328557248E+001
+3.10075093867E+006, +7.24509010143E+001, +1.02228902044E+002
+3.22578222778E+006, +7.26327352101E+001, +1.06156837578E+002
+3.35081351690E+006, +7.25403026441E+001, +1.10274765044E+002
+3.47584480601E+006, +7.29469178520E+001, +1.14346876247E+002
+3.60087609512E+006, +7.25468479750E+001, +1.18436203124E+002
+3.72590738423E+006, +7.28383352298E+001, +1.22702442766E+002
+3.85093867334E+006, +7.28213424427E+001, +1.27101305355E+002
+3.97596996245E+006, +7.27523708714E+001, +1.30627653815E+002
+4.10100125156E+006, +7.27985168019E+001, +1.34955248454E+002
+4.22603254068E+006, +7.29899491274E+001, +1.39274232036E+002
+4.35106382979E+006, +7.29527997510E+001, +1.43395795804E+002
+4.47609511890E+006, +7.34008201279E+001, +1.47633779069E+002
+4.60112640801E+006, +7.28750409682E+001, +1.51987073147E+002
+4.72615769712E+006, +7.30923210566E+001, +1.56256927308E+002
+4.85118898623E+006, +7.28820140592E+001, +1.60263562397E+002
+4.97622027534E+006, +7.32376767554E+001, +1.64702941664E+002
+5.10125156446E+006, +7.33372652913E+001, +1.68705675845E+002
+5.22628285357E+006, +7.34358598501E+001, +1.73237965465E+002
+5.35131414268E+006, +7.35403337882E+001, +1.77518289328E+002
+5.47634543179E+006, +7.32086023187E+001, +1.81536098160E+002
+5.60137672090E+006, +7.35631036725E+001, +1.86017158892E+002
+5.72640801001E+006, +7.40859265431E+001, +1.90280629464E+002
+5.85143929912E+006, +7.38639058288E+001, +1.94840451349E+002
+5.97647058824E+006, +7.35518083369E+001, +1.98959027402E+002
+6.10150187735E+006, +7.42155278881E+001, +2.02887399477E+002
+6.22653316646E+006, +7.38136392993E+001, +2.07023476721E+002
+6.35156445557E+006, +7.46691667794E+001, +2.11527195419E+002
+6.47659574468E+006, +7.48919985421E+001, +2.15964452478E+002
+6.60162703379E+006, +7.46747464566E+001, +2.20420275614E+002
+6.72665832290E+006, +7.50402836348E+001, +2.24497765640E+002
+6.85168961202E+006, +7.53749859375E+001, +2.29034818119E+002
+6.97672090113E+006, +7.56647367411E+001, +2.33337829928E+002
+7.10175219024E+006, +7.59264158283E+001, +2.37979269739E+002
+7.22678347935E+006, +7.59555754255E+001, +2.42134482624E+002
+7.35181476846E+006, +7.58060203775E+001, +2.46582186772E+002
+7.47684605757E+006, +7.61157152472E+001, +2.51312980135E+002
+7.60187734668E+006, +7.66255834723E+001, +2.55526300452E+002
+7.72690863579E+006, +7.65111556852E+001, +2.59910609507E+002
+7.85193992491E+006, +7.60772282744E+001, +2.64450479106E+002
+7.97697121402E+006, +7.67294631651E+001, +2.68980405706E+002
+8.10200250313E+006, +7.71042297677E+001, +2.73469658423E+002
+8.22703379224E+006, +7.71409873751E+001, +2.77920826991E+002
+8.35206508135E+006, +7.70527093167E+001, +2.82816047999E+002
+8.47709637046E+006, +7.75019348770E+001, +2.86953944823E+002
+8.60212765957E+006, +7.73648230649E+001, +2.91794517848E+002
+8.72715894869E+006, +7.78602045746E+001, +2.96798583910E+002
+8.85219023780E+006, +7.75734851107E+001, +3.01203576732E+002
+8.97722152691E+006, +7.81618387323E+001, +3.05820183475E+002
+9.10225281602E+006, +7.76306602410E+001, +3.10352089690E+002
+9.22728410513E+006, +7.85234614175E+001, +3.14735759010E+002
+9.35231539424E+006, +7.83230934125E+001, +3.19919315805E+002
+9.47734668335E+006, +7.88290586089E+001, +3.24774902661E+002
+9.60237797247E+006, +7.94140422296E+001, +3.29303149119E+002
+9.72740926158E+006, +7.88288321007E+001, +3.34524791263E+002
+9.85244055069E+006, +7.94187758209E+001, +3.38730427929E+002
+9.97747183980E+006, +8.00191932115E+001, +3.43677704128E+002
+1.01025031289E+007, +7.94153189759E+001, +3.47644187080E+002
+1.02275344180E+007, +7.99986931971E+001, +3.52885169811E+002
+1.03525657071E+007, +7.99116936512E+001, +3.58529645431E+002
+1.04775969962E+007, +8.01888268956E+001, +3.63385503900E+002
+1.06026282854E+007, +7.99903631964E+001, +3.68475179707E+002
+1.07276595745E+007, +8.06937915160E+001, +3.73112116149E+002
+1.08526908636E+007, +8.12759505187E+001, +3.76948219106E+002
+1.09777221527E+007, +8.11234552011E+001, +3.82202489671E+002
+1.11027534418E+007, +8.10609165832E+001, +3.87302349503E+002
+1.12277847309E+007, +8.19295806276E+001, +3.93180797527E+002
+1.13528160200E+007, +8.18649204054E+001, +3.97626380711E+002
+1.14778473091E+007, +8.10207617404E+001, +4.02334803654E+002
+1.16028785982E+007, +8.22309256329E+001, +4.07901458213E+002
+1.17279098874E+007, +8.19196566281E+001, +4.12947268499E+002
+1.18529411765E+007, +8.17073487188E+001, +4.18397705307E+002
+1.19779724656E+007, +8.18937640685E+001, +4.23740510876E+002
+1.21030037547E+007, +8.32255347481E+001, +4.28619948467E+002
+1.22280350438E+007, +8.29742828534E+001, +4.33332608474E+002
+1.23530663329E+007, +8.39155789062E+001, +4.39640277073E+002
+1.24780976220E+007, +8.26166838775E+001, +4.44472210732E+002
+1.26031289111E+007, +8.45032905020E+001, +4.49130215268E+002
+1.27281602003E+007, +8.27797342491E+001, +4.55199540398E+002
+1.28531914894E+007, +8.54035210069E+001, +4.60505875753E+002
+1.29782227785E+007, +8.52001770105E+001, +4.66008564778E+002
+1.31032540676E+007, +8.57110012316E+001, +4.71386053559E+002
+1.32282853567E+007, +8.49027080201E+001, +4.76576220006E+002
+1.33533166458E+007, +8.42251971148E+001, +4.82156088618E+002
+1.34783479349E+007, +8.58170760671E+001, +4.88101851891E+002
+1.36033792240E+007, +8.64620116475E+001, +4.95057530071E+002
+1.37284105131E+007, +8.62683974400E+001, +4.98569612884E+002
+1.38534418023E+007, +8.62470268405E+001, +5.04691335310E+002
+1.39784730914E+007, +8.71897040957E+001, +5.10512792958E+002
+1.41035043805E+007, +8.76654197104E+001, +5.16436885203E+002
+1.42285356696E+007, +8.87441193652E+001, +5.21377052493E+002
+1.43535669587E+007, +8.92785347664E+001, +5.27886645223E+002
+1.44785982478E+007, +8.83068442300E+001, +5.34821561920E+002
+1.46036295369E+007, +8.78012688183E+001, +5.39400158587E+002
+1.47286608260E+007, +8.98186953657E+001, +5.44450512623E+002
+1.48536921151E+007, +8.99074546485E+001, +5.50849882719E+002
+1.49787234043E+007, +9.06869676721E+001, +5.58220552391E+002
+1.51037546934E+007, +9.08857668679E+001, +5.62474154376E+002
+1.52287859825E+007, +9.03035978332E+001, +5.71028256416E+002
+1.53538172716E+007, +9.27766968979E+001, +5.72676035717E+002
+1.54788485607E+007, +9.20311657675E+001, +5.81027575500E+002
+1.56038798498E+007, +9.18174000123E+001, +5.88903358484E+002
+1.57289111389E+007, +9.22335644708E+001, +5.94324128383E+002
+1.58539424280E+007, +9.17332977649E+001, +6.00774721073E+002
+1.59789737171E+007, +9.28883625764E+001, +6.06601690411E+002
+1.61040050063E+007, +9.35006775171E+001, +6.13382400064E+002
+1.62290362954E+007, +9.19394602811E+001, +6.15881079526E+002
+1.63540675845E+007, +9.30996662243E+001, +6.25307181516E+002
+1.64790988736E+007, +9.68456820182E+001, +6.32855794241E+002
+1.66041301627E+007, +9.59704263260E+001, +6.37586702945E+002
+1.67291614518E+007, +9.41848281320E+001, +6.43452496222E+002
+1.68541927409E+007, +9.58802644646E+001, +6.51851826046E+002
+1.69792240300E+007, +9.58004049171E+001, +6.58764634984E+002
+1.71042553191E+007, +9.40659972360E+001, +6.67606742992E+002
+1.72292866083E+007, +9.75152727043E+001, +6.73803236338E+002
+1.73543178974E+007, +9.51649786987E+001, +6.81931960754E+002
+1.74793491865E+007, +9.80997801152E+001, +6.89667471452E+002
+1.76043804756E+007, +1.01362547289E+002, +6.92149147468E+002
+1.77294117647E+007, +9.96372363460E+001, +6.98675972262E+002
+1.78544430538E+007, +9.88237274816E+001, +7.08373349503E+002
+1.79794743429E+007, +1.00876957881E+002, +7.15938159053E+002
+1.81045056320E+007, +1.00107924894E+002, +7.28798230967E+002
+1.82295369212E+007, +1.02811858780E+002, +7.30021746569E+002
+1.83545682103E+007, +1.02498841553E+002, +7.36373389479E+002
+1.84795994994E+007, +1.03635888599E+002, +7.47028005952E+002
+1.86046307885E+007, +1.06415243991E+002, +7.51858271261E+002
+1.87296620776E+007, +1.03862174202E+002, +7.59313489949E+002
+1.88546933667E+007, +1.08585285918E+002, +7.66365238616E+002
+1.89797246558E+007, +1.06532190375E+002, +7.76693431591E+002
+1.91047559449E+007, +1.08704330400E+002, +7.83890084275E+002
+1.92297872340E+007, +1.07312120528E+002, +7.89901226624E+002
+1.93548185232E+007, +1.10753064033E+002, +8.02196182371E+002
+1.94798498123E+007, +1.13165316681E+002, +8.08249665950E+002
+1.96048811014E+007, +1.12456683694E+002, +8.11836242011E+002
+1.97299123905E+007, +1.13261343144E+002, +8.25761081511E+002
+1.98549436796E+007, +1.10891841438E+002, +8.32291879278E+002
+1.99799749687E+007, +1.11775706330E+002, +8.41108995967E+002
+2.01050062578E+007, +1.16668806751E+002, +8.53823746610E+002
+2.02300375469E+007, +1.15928316894E+002, +8.59257939657E+002
+2.03550688360E+007, +1.18701115376E+002, +8.68506679866E+002
+2.04801001252E+007, +1.17270044493E+002, +8.75163595844E+002
+2.06051314143E+007, +1.18414667901E+002, +8.87098957022E+002
+2.07301627034E+007, +1.17281369063E+002, +8.95492798174E+002
+2.08551939925E+007, +1.20542410099E+002, +9.06719819281E+002
+2.09802252816E+007, +1.21308659108E+002, +9.12481359138E+002
+2.11052565707E+007, +1.23982945633E+002, +9.23313721466E+002
+2.12302878598E+007, +1.25192733831E+002, +9.32011989400E+002
+2.13553191489E+007, +1.26475794190E+002, +9.44825504934E+002
+2.14803504380E+007, +1.28376235269E+002, +9.57470654320E+002
+2.16053817272E+007, +1.34631129609E+002, +9.63541975901E+002
+2.17304130163E+007, +1.31629461652E+002, +9.71699653753E+002
+2.18554443054E+007, +1.33868030765E+002, +9.84202135201E+002
+2.19804755945E+007, +1.35254340990E+002, +9.91978302380E+002
+2.21055068836E+007, +1.38134900521E+002, +1.00180181162E+003
+2.22305381727E+007, +1.45399517609E+002, +1.00997018625E+003
+2.23555694618E+007, +1.45808606451E+002, +1.02442498745E+003
+2.24806007509E+007, +1.43643041726E+002, +1.03337403226E+003
+2.26056320401E+007, +1.52295667893E+002, +1.04802455090E+003
+2.27306633292E+007, +1.51073652089E+002, +1.05489169430E+003
+2.28556946183E+007, +1.53068600134E+002, +1.06715103646E+003
+2.29807259074E+007, +1.55720345656E+002, +1.08473915391E+003
+2.31057571965E+007, +1.54562695192E+002, +1.08620800182E+003
+2.32307884856E+007, +1.67573700503E+002, +1.09782883719E+003
+2.33558197747E+007, +1.69077483660E+002, +1.10804707907E+003
+2.34808510638E+007, +1.69312595926E+002, +1.11944149389E+003
+2.36058823529E+007, +1.69800181149E+002, +1.13011265454E+003
+2.37309136421E+007, +1.79299225160E+002, +1.13553709728E+003
+2.38559449312E+007, +1.83070569183E+002, +1.15277611048E+003
+2.39809762203E+007, +1.77147096536E+002, +1.15124734214E+003
+2.41060075094E+007, +1.77626571349E+002, +1.16923247756E+003
+2.42310387985E+007, +1.80096633375E+002, +1.17582828157E+003
+2.43560700876E+007, +1.90316921885E+002, +1.19055479555E+003
+2.44811013767E+007, +1.93377581396E+002, +1.19318027424E+003
+2.46061326658E+007, +1.92251506987E+002, +1.19854283072E+003
+2.47311639549E+007, +1.98367592461E+002, +1.21450059423E+003
+2.48561952441E+007, +1.98440584509E+002, +1.23235037300E+003
+2.49812265332E+007, +1.96612273185E+002, +1.24008928618E+003
+2.51062578223E+007, +2.02708717998E+002, +1.24982262819E+003
+2.52312891114E+007, +1.95505445990E+002, +1.26284266949E+003
+2.53563204005E+007, +1.88972425693E+002, +1.27507639359E+003
+2.54813516896E+007, +2.02499360844E+002, +1.29178163131E+003
+2.56063829787E+007, +1.92562996553E+002, +1.31048182384E+003
+2.57314142678E+007, +1.94350163914E+002, +1.32194921473E+003
+2.58564455569E+007, +1.96888437856E+002, +1.33746167651E+003
+2.59814768461E+007, +1.99207551876E+002, +1.35293326570E+003
+2.61065081352E+007, +2.04858419511E+002, +1.37465741224E+003
+2.62315394243E+007, +2.04860834246E+002, +1.39247072768E+003
+2.63565707134E+007, +1.98868610879E+002, +1.40065279074E+003
+2.64816020025E+007, +1.98626426821E+002, +1.42083337674E+003
+2.66066332916E+007, +2.00419360785E+002, +1.43347575165E+003
+2.67316645807E+007, +2.14047050776E+002, +1.45828348498E+003
+2.68566958698E+007, +2.20068539159E+002, +1.47578791108E+003
+2.69817271589E+007, +2.24719702711E+002, +1.50042489809E+003
+2.71067584481E+007, +2.14552351109E+002, +1.51664244434E+003
+2.72317897372E+007, +2.16450232755E+002, +1.52107775703E+003
+2.73568210263E+007, +2.25289009734E+002, +1.54712482165E+003
+2.74818523154E+007, +2.29435184088E+002, +1.57838817503E+003
+2.76068836045E+007, +2.35508121960E+002, +1.59136693694E+003
+2.77319148936E+007, +2.46065843289E+002, +1.60253461927E+003
+2.78569461827E+007, +2.54277829734E+002, +1.61368099620E+003
+2.79819774718E+007, +2.60433725160E+002, +1.62734755484E+003
+2.81070087610E+007, +2.61561305923E+002, +1.65661184295E+003
+2.82320400501E+007, +2.58354134453E+002, +1.68674942075E+003
+2.83570713392E+007, +2.67448357512E+002, +1.69714791355E+003
+2.84821026283E+007, +2.48880112692E+002, +1.71633017040E+003
+2.86071339174E+007, +2.73612323554E+002, +1.73721932590E+003
+2.87321652065E+007, +2.65512208488E+002, +1.77730585067E+003
+2.88571964956E+007, +2.58851898518E+002, +1.79487089016E+003
+2.89822277847E+007, +2.66543090212E+002, +1.81249568989E+003
+2.91072590738E+007, +2.82183487702E+002, +1.83970883313E+003
+2.92322903630E+007, +2.78003368220E+002, +1.86986095455E+003
+2.93573216521E+007, +2.90919730395E+002, +1.90717854699E+003
+2.94823529412E+007, +2.84581512665E+002, +1.91895718897E+003
+2.96073842303E+007, +3.05349157414E+002, +1.95378471803E+003
+2.97324155194E+007, +3.04490593050E+002, +1.97308906006E+003
+2.98574468085E+007, +3.11836300552E+002, +2.00245032081E+003
+2.99824780976E+007, +3.28908799442E+002, +2.04261268409E+003
+3.01075093867E+007, +3.24936607912E+002, +2.07343981735E+003
+3.02325406758E+007, +3.19468313098E+002, +2.12171067093E+003
+3.03575719650E+007, +3.29204490059E+002, +2.16158542593E+003
+3.04826032541E+007, +3.56666737396E+002, +2.17007204793E+003
+3.06076345432E+007, +3.58768399041E+002, +2.20798379992E+003
+3.07326658323E+007, +3.59177659931E+002, +2.21796035348E+003
+3.08576971214E+007, +3.95371902371E+002, +2.25145117073E+003
+3.09827284105E+007, +3.98985041533E+002, +2.28341296989E+003
+3.11077596996E+007, +4.00822887335E+002, +2.34475279329E+003
+3.12327909887E+007, +3.64603595965E+002, +2.37693540083E+003
+3.13578222778E+007, +3.99520781241E+002, +2.43597963775E+003
+3.14828535670E+007, +4.35292356032E+002, +2.46553154723E+003
+3.16078848561E+007, +4.56487153661E+002, +2.46341515505E+003
+3.17329161452E+007, +4.48139541835E+002, +2.53529268470E+003
+3.18579474343E+007, +4.57696961044E+002, +2.57115027538E+003
+3.19829787234E+007, +4.63706583639E+002, +2.63876572925E+003
+3.21080100125E+007, +4.52633095386E+002, +2.67862681544E+003
+3.22330413016E+007, +4.91966428169E+002, +2.71636922698E+003
+3.23580725907E+007, +5.39071772518E+002, +2.77849762812E+003
+3.24831038798E+007, +5.18660227928E+002, +2.83638378922E+003
+3.26081351690E+007, +5.59344950147E+002, +2.89187684039E+003
+3.27331664581E+007, +5.87318600338E+002, +2.94925805820E+003
+3.28581977472E+007, +5.76364379532E+002, +2.96611877549E+003
+3.29832290363E+007, +6.34534041838E+002, +3.08963838046E+003
+3.31082603254E+007, +6.32408060561E+002, +3.17053848444E+003
+3.32332916145E+007, +6.71615708318E+002, +3.12731471174E+003
+3.33583229036E+007, +6.73313191156E+002, +3.22431116952E+003
+3.34833541927E+007, +6.90250834859E+002, +3.24890029161E+003
+3.36083854819E+007, +7.94290440106E+002, +3.43828348352E+003
+3.37334167710E+007, +7.47163808679E+002, +3.42844031983E+003
+3.38584480601E+007, +7.72934812924E+002, +3.51630543380E+003
+3.39834793492E+007, +7.44575509035E+002, +3.57964579476E+003
+3.41085106383E+007, +8.59508732931E+002, +3.67662838821E+003
+3.42335419274E+007, +8.97360648507E+002, +3.69877951529E+003
+3.43585732165E+007, +9.31456282232E+002, +3.85219428956E+003
+3.44836045056E+007, +9.82119089191E+002, +3.89088926242E+003
+3.46086357947E+007, +1.03553580623E+003, +3.94203323028E+003
+3.47336670839E+007, +1.07062851460E+003, +4.14523887388E+003
+3.48586983730E+007, +1.23530108559E+003, +4.21482615284E+003
+3.49837296621E+007, +1.23863159537E+003, +4.27656368714E+003
+3.51087609512E+007, +1.20598041571E+003, +4.44683664751E+003
+3.52337922403E+007, +1.29173287946E+003, +4.48054475846E+003
+3.53588235294E+007, +1.32750204305E+003, +4.65948794558E+003
+3.54838548185E+007, +1.36567188797E+003, +4.80522029947E+003
+3.56088861076E+007, +1.49308928552E+003, +4.91205885494E+003
+3.57339173967E+007, +1.84752427980E+003, +5.17563177692E+003
+3.58589486859E+007, +1.83173761919E+003, +5.31181223901E+003
+3.59839799750E+007, +1.85775923456E+003, +5.60321678631E+003
+3.61090112641E+007, +2.11049450301E+003, +5.52162907593E+003
+3.62340425532E+007, +2.24765000341E+003, +5.56103323834E+003
+3.63590738423E+007, +2.33766682243E+003, +5.82123280388E+003
+3.64841051314E+007, +2.31862055616E+003, +6.27305670258E+003
+3.66091364205E+007, +2.62877373700E+003, +6.35706474444E+003
+3.67341677096E+007, +2.93252483715E+003, +6.38111576640E+003
+3.68591989987E+007, +3.19380061228E+003, +6.72122934823E+003
+3.69842302879E+007, +3.19824255495E+003, +6.83825299509E+003
+3.71092615770E+007, +3.83487305567E+003, +7.01275236203E+003
+3.72342928661E+007, +4.03888471193E+003, +7.53896393665E+003
+3.73593241552E+007, +4.31467084163E+003, +8.10603405356E+003
+3.74843554443E+007, +5.11815397441E+003, +8.28683287000E+003
+3.76093867334E+007, +5.35483130307E+003, +8.53555103759E+003
+3.77344180225E+007, +6.02415813029E+003, +8.67452759900E+003
+3.78594493116E+007, +7.65000070845E+003, +9.30382148248E+003
+3.79844806008E+007, +8.05777795617E+003, +9.10131376659E+003
+3.81095118899E+007, +8.56589072713E+003, +9.37515785779E+003
+3.82345431790E+007, +9.32079980249E+003, +8.65595274254E+003
+3.83595744681E+007, +1.03852802396E+004, +8.27463884830E+003
+3.84846057572E+007, +1.24741081568E+004, +9.69601007167E+003
+3.86096370463E+007, +1.34720077809E+004, +9.69070010490E+003
+3.87346683354E+007, +1.58368848816E+004, +7.14519381405E+003
+3.88596996245E+007, +1.70114663618E+004, +6.10511944199E+003
+3.89847309136E+007, +1.91090833857E+004, +4.26440911243E+003
+3.91097622028E+007, +1.88376231116E+004, +1.93209620634E+003
+3.92347934919E+007, +1.76636088770E+004, +1.55921633258E+002
+3.93598247810E+007, +1.82379073279E+004, -2.79107212213E+003
+3.94848560701E+007, +1.83837328627E+004, -5.42344507507E+003
+3.96098873592E+007, +1.60915858668E+004, -7.33979544494E+003
+3.97349186483E+007, +1.36782679073E+004, -8.13582581214E+003
+3.98599499374E+007, +1.24002650294E+004, -8.69011842567E+003
+3.99849812265E+007, +1.15909501748E+004, -8.82018879882E+003
+4.01100125156E+007, +1.14817790067E+004, -1.04995532353E+004
