"# Channel 1"
"# Trace 1"
Frequency, Formatted Data, Formatted Data
+1.00000000000E+005, +6.60932500739E-001, +3.18470868956E+000
+2.25031289111E+005, +6.59028837311E-001, +7.05247380738E+000
+3.50062578223E+005, +7.08009560649E-001, +1.09244200803E+001
+4.75093867334E+005, +7.66265682151E-001, +1.48222928618E+001
+6.00125156446E+005, +8.65302487221E-001, +1.86294778282E+001
+7.25156445557E+005, +8.98754282519E-001, +2.25162365991E+001
+8.50187734668E+005, +8.65286854741E-001, +2.62577135155E+001
+9.75219023780E+005, +8.78832365364E-001, +3.01382196251E+001
+1.10025031289E+006, +1.02854927189E+000, +3.39633952455E+001
+1.22528160200E+006, +9.32489821441E-001, +3.77707225822E+001
+1.35031289111E+006, +9.61439989248E-001, +4.15409511661E+001
+1.47534418023E+006, +9.99948259057E-001, +4.54132784128E+001
+1.60037546934E+006, +1.03075605407E+000, +4.92064664358E+001
+1.72540675845E+006, +1.03056556942E+000, +5.29353941705E+001
+1.85043804756E+006, +1.07326563624E+000, +5.68222145549E+001
+1.97546933667E+006, +1.12354557123E+000, +6.06364043593E+001
+2.10050062578E+006, +1.03773422678E+000, +6.44925383303E+001
+2.22553191489E+006, +9.78048479991E-001, +6.83547683978E+001
+2.35056320401E+006, +1.00069480670E+000, +7.20496292051E+001
+2.47559449312E+006, +1.06468664052E+000, +7.59801370165E+001
+2.60062578223E+006, +1.03463070690E+000, +7.99155162657E+001
+2.72565707134E+006, +9.72924990910E-001, +8.37224903343E+001
+2.85068836045E+006, +1.11957448467E+000, +8.76407604077E+001
+2.97571964956E+006, +9.48680484170E-001, +9.13170405257E+001
+3.10075093867E+006, +1.08034249516E+000, +9.52658586024E+001
+3.22578222778E+006, +9.95265535104E-001, +9.89932121235E+001
+3.35081351690E+006, +8.43994676073E-001, +1.03128389914E+002
+3.47584480601E+006, +1.01204759336E+000, +1.06953775899E+002
+3.60087609512E+006, +9.68661863571E-001, +1.10903842950E+002
+3.72590738423E+006, +1.19572592423E+000, +1.14789594705E+002
+3.85093867334E+006, +1.11346566886E+000, +1.18382586077E+002
+3.97596996245E+006, +1.00982950625E+000, +1.22772152256E+002
+4.10100125156E+006, +1.16170814025E+000, +1.26396288670E+002
+4.22603254068E+006, +8.07384057503E-001, +1.30386347336E+002
+4.35106382979E+006, +8.11976047256E-001, +1.34094326217E+002
+4.47609511890E+006, +9.61733836327E-001, +1.38219773440E+002
+4.60112640801E+006, +1.07882203446E+000, +1.41906050817E+002
+4.72615769712E+006, +6.57333201438E-001, +1.46111106246E+002
+4.85118898623E+006, +8.08129550530E-001, +1.49775983299E+002
+4.97622027534E+006, +1.11449439509E+000, +1.53947349536E+002
+5.10125156446E+006, +6.94826181016E-001, +1.57831340870E+002
+5.22628285357E+006, +9.39101652533E-001, +1.61657791052E+002
+5.35131414268E+006, +5.91742845418E-001, +1.65749291454E+002
+5.47634543179E+006, +6.00480854186E-001, +1.69874521928E+002
+5.60137672090E+006, +8.88602370432E-001, +1.73735110890E+002
+5.72640801001E+006, +1.22107847066E+000, +1.77999242922E+002
+5.85143929912E+006, +1.11641143069E+000, +1.81818381537E+002
+5.97647058824E+006, +1.26249192653E+000, +1.86160127419E+002
+6.10150187735E+006, +6.86760824326E-001, +1.89827997062E+002
+6.22653316646E+006, +9.21743171085E-001, +1.94229098697E+002
+6.35156445557E+006, +9.70014717138E-001, +1.98223089779E+002
+6.47659574468E+006, +1.04571133916E+000, +2.02213989588E+002
+6.60162703379E+006, +9.24546419559E-001, +2.06452584042E+002
+6.72665832290E+006, +1.17893651523E+000, +2.10630246275E+002
+6.85168961202E+006, +1.14332037011E+000, +2.14342495962E+002
+6.97672090113E+006, +1.34737841661E+000, +2.18681251049E+002
+7.10175219024E+006, +1.15103331458E+000, +2.22931893093E+002
+7.22678347935E+006, +1.25600625146E+000, +2.27071182219E+002
+7.35181476846E+006, +1.02698065987E+000, +2.31511306805E+002
+7.47684605757E+006, +8.88292533103E-001, +2.35707828119E+002
+7.60187734668E+006, +8.53826175928E-001, +2.39463615698E+002
+7.72690863579E+006, +9.93659173398E-001, +2.43608288013E+002
+7.85193992491E+006, +1.41871403883E+000, +2.47800660729E+002
+7.97697121402E+006, +1.25270315676E+000, +2.52158500201E+002
+8.10200250313E+006, +1.05800422718E+000, +2.56456259875E+002
+8.22703379224E+006, +1.24224374622E+000, +2.60308382646E+002
+8.35206508135E+006, +1.07531500957E+000, +2.64710844695E+002
+8.47709637046E+006, +1.50361528202E+000, +2.69197782152E+002
+8.60212765957E+006, +1.28506606250E+000, +2.73709778305E+002
+8.72715894869E+006, +1.00711774070E+000, +2.77987935840E+002
+8.85219023780E+006, +1.32238249520E+000, +2.82218276053E+002
+8.97722152691E+006, +1.22533014288E+000, +2.86282124637E+002
+9.10225281602E+006, +8.53218406844E-001, +2.91016378145E+002
+9.22728410513E+006, +1.07417186810E+000, +2.94968601232E+002
+9.35231539424E+006, +1.37489012801E+000, +3.00015489486E+002
+9.47734668335E+006, +8.75196444611E-001, +3.03942913178E+002
+9.60237797247E+006, +1.27966025170E+000, +3.08406771356E+002
+9.72740926158E+006, +2.84498509482E-001, +3.12901063599E+002
+9.85244055069E+006, +4.03318607489E-001, +3.16948460160E+002
+9.97747183980E+006, +1.00097362505E+000, +3.21730078506E+002
+1.01025031289E+007, +8.40470290576E-001, +3.25939748617E+002
+1.02275344180E+007, +9.12052178296E-001, +3.30608119273E+002
+1.03525657071E+007, +3.86150801530E-001, +3.35276784722E+002
+1.04775969962E+007, +5.13127646285E-001, +3.40168940462E+002
+1.06026282854E+007, +5.55587515278E-001, +3.44635580733E+002
+1.07276595745E+007, +9.81458206386E-002, +3.49290058796E+002
+1.08526908636E+007, +1.96829365662E-001, +3.53266355339E+002
+1.09777221527E+007, +2.74930528180E-001, +3.58496045166E+002
+1.11027534418E+007, +7.50512910876E-001, +3.63179369066E+002
+1.12277847309E+007, -2.14205958142E-002, +3.67221338403E+002
+1.13528160200E+007, -2.14258814273E-001, +3.72567006814E+002
+1.14778473091E+007, +2.45199570697E-001, +3.76384293578E+002
+1.16028785982E+007, -1.06878604010E-002, +3.81161368456E+002
+1.17279098874E+007, -2.16016255719E-001, +3.86565033950E+002
+1.18529411765E+007, -5.89334826379E-001, +3.91352104112E+002
+1.19779724656E+007, +1.39461933016E+000, +3.96535269845E+002
+1.21030037547E+007, +4.95179319221E-001, +4.00680258463E+002
+1.22280350438E+007, +7.22416565173E-001, +4.04979726991E+002
+1.23530663329E+007, +4.84770398604E-002, +4.10587522710E+002
+1.24780976220E+007, -3.16411843349E-001, +4.16409980039E+002
+1.26031289111E+007, -5.13892053685E-001, +4.20717457407E+002
+1.27281602003E+007, -3.30524747618E-001, +4.25587346914E+002
+1.28531914894E+007, -1.94613942680E-001, +4.30352670050E+002
+1.29782227785E+007, -1.54500320084E-001, +4.35916381834E+002
+1.31032540676E+007, +5.54347467278E-001, +4.40214667141E+002
+1.32282853567E+007, -5.04131923482E-001, +4.44862568777E+002
+1.33533166458E+007, +2.43900663712E-001, +4.50191561532E+002
+1.34783479349E+007, +5.37121778309E-003, +4.55510921211E+002
+1.36033792240E+007, -1.09302102397E-001, +4.59878103850E+002
+1.37284105131E+007, -1.93228859941E-001, +4.65477384233E+002
+1.38534418023E+007, -4.10511796374E-001, +4.71871581236E+002
+1.39784730914E+007, +5.69279744713E-002, +4.76336462174E+002
+1.41035043805E+007, -1.65628025281E+000, +4.81285012461E+002
+1.42285356696E+007, -3.96957838696E-001, +4.87038834794E+002
+1.43535669587E+007, -1.59298032078E+000, +4.91763735909E+002
+1.44785982478E+007, +5.54096075899E-002, +4.97219751832E+002
+1.46036295369E+007, -1.82805003353E+000, +5.02806306333E+002
+1.47286608260E+007, -5.63690425478E-001, +5.08589719376E+002
+1.48536921151E+007, -8.04628692566E-001, +5.14527723619E+002
+1.49787234043E+007, -1.68914304206E+000, +5.19302629572E+002
+1.51037546934E+007, -3.81836140587E-001, +5.24144859503E+002
+1.52287859825E+007, -1.65241771733E+000, +5.30995728442E+002
+1.53538172716E+007, -1.71941578372E+000, +5.36702264863E+002
+1.54788485607E+007, -2.07938363349E+000, +5.40654346590E+002
+1.56038798498E+007, -1.63099489373E+000, +5.48211125281E+002
+1.57289111389E+007, -2.74401025044E-001, +5.51977587730E+002
+1.58539424280E+007, -2.60152804377E+000, +5.59914283027E+002
+1.59789737171E+007, -2.14930476632E+000, +5.66718111364E+002
+1.61040050063E+007, -1.86909068555E+000, +5.71794484243E+002
+1.62290362954E+007, -2.04665200805E+000, +5.76249602533E+002
+1.63540675845E+007, -2.86116576339E+000, +5.81464650750E+002
+1.64790988736E+007, -3.22934508190E+000, +5.87778302014E+002
+1.66041301627E+007, +7.17463089540E-002, +5.94639646587E+002
+1.67291614518E+007, -2.07241585942E+000, +5.98996343055E+002
+1.68541927409E+007, -2.46392924162E+000, +6.06497723831E+002
+1.69792240300E+007, -3.05362207745E+000, +6.12497275025E+002
+1.71042553191E+007, -5.48281096035E+000, +6.17072144538E+002
+1.72292866083E+007, -3.58885586651E+000, +6.27355030116E+002
+1.73543178974E+007, -4.20309267696E+000, +6.31235859879E+002
+1.74793491865E+007, -3.28884000145E+000, +6.40855178866E+002
+1.76043804756E+007, -3.61770274411E+000, +6.47437805975E+002
+1.77294117647E+007, -2.73652369003E+000, +6.51972824415E+002
+1.78544430538E+007, -3.21932534505E+000, +6.56671974166E+002
+1.79794743429E+007, -4.33151385099E+000, +6.63083636210E+002
+1.81045056320E+007, -3.00578032367E+000, +6.72006561131E+002
+1.82295369212E+007, -4.77248840397E+000, +6.79082957678E+002
+1.83545682103E+007, -2.82102235706E+000, +6.86639613417E+002
+1.84795994994E+007, -4.27985966645E+000, +6.91679980771E+002
+1.86046307885E+007, -1.76968792462E+000, +6.98848448964E+002
+1.87296620776E+007, -4.61283325045E+000, +7.06935185818E+002
+1.88546933667E+007, -4.08632694620E+000, +7.14593887998E+002
+1.89797246558E+007, -6.49166015760E+000, +7.19222009298E+002
+1.91047559449E+007, -3.44199958044E+000, +7.27189446747E+002
+1.92297872340E+007, -5.53111962206E+000, +7.33495327374E+002
+1.93548185232E+007, -6.01448285302E+000, +7.43261485124E+002
+1.94798498123E+007, -4.45509136340E+000, +7.50548465603E+002
+1.96048811014E+007, -3.63756835474E+000, +7.56840862622E+002
+1.97299123905E+007, -3.21353955358E+000, +7.65192340375E+002
+1.98549436796E+007, -1.88154288303E+000, +7.73304459833E+002
+1.99799749687E+007, -1.37074173529E+000, +7.79238282086E+002
+2.01050062578E+007, -5.14052976179E+000, +7.87745260449E+002
+2.02300375469E+007, -6.67875704165E+000, +7.91441582479E+002
+2.03550688360E+007, -3.44741374347E+000, +8.03660722946E+002
+2.04801001252E+007, -2.33687684522E+000, +8.09740116889E+002
+2.06051314143E+007, -5.87728389546E-001, +8.19674860762E+002
+2.07301627034E+007, +9.20203500382E-001, +8.30103325752E+002
+2.08551939925E+007, -2.66101801565E+000, +8.34398249167E+002
+2.09802252816E+007, -2.62496066935E+000, +8.48606651614E+002
+2.11052565707E+007, -3.08435605215E+000, +8.54021118414E+002
+2.12302878598E+007, -2.54562802839E+000, +8.66311710572E+002
+2.13553191489E+007, -5.64251366066E+000, +8.70287992571E+002
+2.14803504380E+007, +2.64427052558E+000, +8.83858630743E+002
+2.16053817272E+007, -6.19810681232E+000, +8.89949396255E+002
+2.17304130163E+007, +1.35170739888E+000, +8.95515310033E+002
+2.18554443054E+007, -3.78225917273E+000, +9.02710921710E+002
+2.19804755945E+007, -6.46174302419E+000, +9.12875053341E+002
+2.21055068836E+007, -3.56194279538E+000, +9.27826390468E+002
+2.22305381727E+007, -2.20060020434E+000, +9.32217089162E+002
+2.23555694618E+007, -1.50320974696E+000, +9.42608750833E+002
+2.24806007509E+007, -2.66753885575E+000, +9.54589824412E+002
+2.26056320401E+007, -5.31790789888E-001, +9.58556743454E+002
+2.27306633292E+007, +5.04063616811E+000, +9.71150286635E+002
+2.28556946183E+007, +3.65827173436E+000, +9.85122423381E+002
+2.29807259074E+007, +3.57182878639E+000, +9.92636000606E+002
+2.31057571965E+007, +2.69138061238E+000, +1.00165454984E+003
+2.32307884856E+007, +9.51036328577E+000, +1.01276214800E+003
+2.33558197747E+007, +8.61684035037E+000, +1.02368626856E+003
+2.34808510638E+007, +1.19941222141E+001, +1.03692117404E+003
+2.36058823529E+007, +8.76026692475E+000, +1.04174360881E+003
+2.37309136421E+007, +1.33104927754E+001, +1.04961786616E+003
+2.38559449312E+007, +1.03551795354E+001, +1.06090882594E+003
+2.39809762203E+007, +1.21110369811E+001, +1.06921265026E+003
+2.41060075094E+007, +9.42536196364E+000, +1.07595336158E+003
+2.42310387985E+007, +1.41104017957E+001, +1.08377248113E+003
+2.43560700876E+007, +1.34908655911E+001, +1.10009049192E+003
+2.44811013767E+007, +1.07204455207E+001, +1.10752149959E+003
+2.46061326658E+007, +1.42829605850E+001, +1.11583432498E+003
+2.47311639549E+007, +1.18216830562E+001, +1.12856601659E+003
+2.48561952441E+007, +1.51965082388E+001, +1.13356109873E+003
+2.49812265332E+007, +6.56522535396E+000, +1.15019216684E+003
+2.51062578223E+007, +1.80211069775E+001, +1.16057938140E+003
+2.52312891114E+007, +8.66341743381E+000, +1.18054459670E+003
+2.53563204005E+007, +1.24285571693E+001, +1.18404169958E+003
+2.54813516896E+007, +8.35799053988E+000, +1.19526446957E+003
+2.56063829787E+007, +1.50855586712E+001, +1.20619330380E+003
+2.57314142678E+007, +1.78585938117E+001, +1.22905784756E+003
+2.58564455569E+007, +4.51217998220E+000, +1.23297183726E+003
+2.59814768461E+007, +1.50335124516E+001, +1.24734013909E+003
+2.61065081352E+007, +4.51329648304E+000, +1.26348721961E+003
+2.62315394243E+007, +1.29454642342E+001, +1.27655436864E+003
+2.63565707134E+007, +9.24017726187E+000, +1.28625344350E+003
+2.64816020025E+007, +7.59229081425E+000, +1.29972606135E+003
+2.66066332916E+007, +9.68407309743E+000, +1.32067847898E+003
+2.67316645807E+007, +6.23574468535E+000, +1.33463322124E+003
+2.68566958698E+007, +3.29221016821E+000, +1.36021960571E+003
+2.69817271589E+007, +5.86186102592E+000, +1.37275786299E+003
+2.71067584481E+007, +1.18334614127E+001, +1.38385802505E+003
+2.72317897372E+007, +1.03165618860E+001, +1.39323643991E+003
+2.73568210263E+007, +1.14350863234E+001, +1.42087924262E+003
+2.74818523154E+007, +5.20981590615E+000, +1.42655804291E+003
+2.76068836045E+007, +1.33547670329E+001, +1.44337210205E+003
+2.77319148936E+007, +6.87546954421E+000, +1.45894876896E+003
+2.78569461827E+007, +1.23049242798E+001, +1.46981564938E+003
+2.79819774718E+007, +6.78448693210E-001, +1.48715782476E+003
+2.81070087610E+007, +6.25594578100E+000, +1.50971128948E+003
+2.82320400501E+007, +5.66955519786E+000, +1.52442232031E+003
+2.83570713392E+007, -4.32932958230E+000, +1.53755496111E+003
+2.84821026283E+007, +8.77085927501E+000, +1.55976555784E+003
+2.86071339174E+007, -1.56745838244E+000, +1.57365145490E+003
+2.87321652065E+007, +8.92770876095E+000, +1.59730871015E+003
+2.88571964956E+007, -1.49675610269E+001, +1.64530301012E+003
+2.89822277847E+007, +6.87583349192E+000, +1.64485795409E+003
+2.91072590738E+007, -8.97425151727E+000, +1.66636037799E+003
+2.92322903630E+007, -1.07541056140E+001, +1.69058119264E+003
+2.93573216521E+007, -8.26228573493E+000, +1.71927197608E+003
+2.94823529412E+007, -3.80746174331E+000, +1.72548247211E+003
+2.96073842303E+007, +1.21282805260E+000, +1.76082584222E+003
+2.97324155194E+007, -9.99315592870E+000, +1.78186661633E+003
+2.98574468085E+007, -2.37615509808E+001, +1.80571982824E+003
+2.99824780976E+007, -4.71249310761E+000, +1.84493950639E+003
+3.01075093867E+007, -5.91062701944E+000, +1.84975684669E+003
+3.02325406758E+007, -1.64626488363E+001, +1.88054259600E+003
+3.03575719650E+007, -9.75013234196E+000, +1.90776013646E+003
+3.04826032541E+007, -9.29027240632E+000, +1.92280831417E+003
+3.06076345432E+007, -3.87437155215E+000, +1.94770673999E+003
+3.07326658323E+007, -1.41296390898E+001, +1.99920168107E+003
+3.08576971214E+007, -8.35166232498E+000, +2.01692813295E+003
+3.09827284105E+007, -1.43510009758E+001, +2.02815504991E+003
+3.11077596996E+007, -1.65984986973E+001, +2.05774409172E+003
+3.12327909887E+007, -1.18018463277E+001, +2.11814435455E+003
+3.13578222778E+007, -1.93478813107E+000, +2.15125209859E+003
+3.14828535670E+007, -1.79267231592E+001, +2.18796403578E+003
+3.16078848561E+007, -5.65334087478E+000, +2.17469347401E+003
+3.17329161452E+007, -9.50804629447E+000, +2.26195570698E+003
+3.18579474343E+007, -2.05460719604E+001, +2.27300585768E+003
+3.19829787234E+007, -9.70039431489E-001, +2.31598269629E+003
+3.21080100125E+007, -1.42151376259E+001, +2.36722551692E+003
+3.22330413016E+007, -1.66355208641E+001, +2.39690012851E+003
+3.23580725907E+007, -2.17376385286E+001, +2.41471633208E+003
+3.24831038798E+007, -1.22284811373E+001, +2.47479458788E+003
+3.26081351690E+007, -1.96912621816E+001, +2.50914957372E+003
+3.27331664581E+007, +7.40259945139E+000, +2.55402629274E+003
+3.28581977472E+007, -2.42856598300E+001, +2.66131098288E+003
+3.29832290363E+007, +1.15780721431E+001, +2.69950337453E+003
+3.31082603254E+007, -5.20324278977E+000, +2.70453144176E+003
+3.32332916145E+007, -2.56357323572E+001, +2.76154614822E+003
+3.33583229036E+007, +1.79884010885E+001, +2.84236175644E+003
+3.34833541927E+007, +9.27859423077E+000, +2.85813931573E+003
+3.36083854819E+007, +1.05335688263E+000, +2.91073354738E+003
+3.37334167710E+007, -3.56272805400E+001, +2.97446010145E+003
+3.38584480601E+007, +1.69574061199E+000, +3.05492601149E+003
+3.39834793492E+007, -3.25051911645E+000, +3.12034607454E+003
+3.41085106383E+007, -8.33074630975E+000, +3.19952327535E+003
+3.42335419274E+007, +4.98247847130E+001, +3.23654214135E+003
+3.43585732165E+007, +2.06445446988E+001, +3.39229761531E+003
+3.44836045056E+007, -5.54147101843E+000, +3.38675055159E+003
+3.46086357947E+007, +4.18107995570E+001, +3.49301550256E+003
+3.47336670839E+007, +8.65429213845E+001, +3.56081112879E+003
+3.48586983730E+007, +5.25976182705E+001, +3.65136514412E+003
+3.49837296621E+007, -3.57642140471E+000, +3.67109506828E+003
+3.51087609512E+007, +6.00310433063E+000, +3.83317874037E+003
+3.52337922403E+007, +5.21257346349E+001, +3.85382144208E+003
+3.53588235294E+007, +6.45472480178E+001, +4.06265320831E+003
+3.54838548185E+007, +1.18923595796E+002, +4.14998101627E+003
+3.56088861076E+007, +7.28220757625E+001, +4.26660742587E+003
+3.57339173967E+007, +4.75999686138E+001, +4.26670859493E+003
+3.58589486859E+007, +6.40210454234E+001, +4.42109032663E+003
+3.59839799750E+007, -3.43153378200E+001, +4.52390704949E+003
+3.61090112641E+007, +9.18638286830E+001, +4.59444576073E+003
+3.62340425532E+007, +6.21144893978E+001, +4.91532010962E+003
+3.63590738423E+007, +1.06013681598E+002, +4.87537713520E+003
+3.64841051314E+007, +1.24929009906E+002, +5.25338116437E+003
+3.66091364205E+007, +1.05286553611E+002, +5.32642418968E+003
+3.67341677096E+007, +6.28750364205E+001, +5.46106267978E+003
+3.68591989987E+007, +3.20904587360E+001, +5.59304853031E+003
+3.69842302879E+007, +1.39291481381E+002, +5.72459270386E+003
+3.71092615770E+007, +2.91108220165E+002, +6.25441428493E+003
+3.72342928661E+007, +1.52282172347E+002, +6.44317892991E+003
+3.73593241552E+007, +1.51081271492E+002, +6.60600405867E+003
+3.74843554443E+007, +1.67846887778E+002, +7.05735719550E+003
+3.76093867334E+007, +1.37682670510E+002, +7.53692261717E+003
+3.77344180225E+007, +2.40896698808E+002, +7.65300738859E+003
+3.78594493116E+007, +3.03744332544E+002, +7.93959501462E+003
+3.79844806008E+007, +2.10920205484E+002, +8.37854426005E+003
+3.81095118899E+007, +1.67127309710E+002, +8.80960587286E+003
+3.82345431790E+007, +1.86216021589E+002, +9.39384745425E+003
+3.83595744681E+007, +4.76680953757E+002, +1.07951955814E+004
+3.84846057572E+007, +7.80453442145E+002, +1.07999408173E+004
+3.86096370463E+007, +1.00656771699E+003, +1.16129399855E+004
+3.87346683354E+007, +1.19562449940E+003, +1.20629704011E+004
+3.88596996245E+007, +1.21769896018E+003, +1.40203544067E+004
+3.89847309136E+007, +1.20414509541E+003, +1.55988395641E+004
+3.91097622028E+007, +2.56929456175E+003, +1.67771290989E+004
+3.92347934919E+007, +3.82629797646E+003, +2.01544591378E+004
+3.93598247810E+007, +4.50819945658E+003, +2.13077691401E+004
+3.94848560701E+007, +5.80326233935E+003, +2.21255671950E+004
+3.96098873592E+007, +1.14566083567E+004, +2.78034947183E+004
+3.97349186483E+007, +7.09732621716E+003, +3.33094953873E+004
+3.98599499374E+007, +2.22965772790E+004, +4.17699920869E+004
+3.99849812265E+007, +4.73279766195E+004, +4.22570834216E+004
+4.01100125156E+007, +6.56155892915E+004, +4.56242235649E+004
