"# Channel 1"
"# Trace 1"
Frequency, Formatted Data, Formatted Data
+1.00000000000E+005, +4.60250219166E+002, -2.63214223364E+003
+2.87609511890E+005, +1.05841793419E+002, -9.83937459559E+002
+4.75219023780E+005, +7.47193986881E+001, -6.01509740355E+002
+6.62828535670E+005, +6.55080534883E+001, -4.32019195705E+002
+8.50438047559E+005, +5.97388499479E+001, -3.36528697846E+002
+1.03804755945E+006, +5.67584171125E+001, -2.76878104862E+002
+1.22565707134E+006, +5.55269222673E+001, -2.35075988421E+002
+1.41326658323E+006, +5.44374040440E+001, -2.03962611587E+002
+1.60087609512E+006, +5.36427060569E+001, -1.80449066705E+002
+1.78848560701E+006, +5.25544647626E+001, -1.61865127102E+002
+1.97609511890E+006, +5.22031805758E+001, -1.46065054542E+002
+2.16370463079E+006, +5.22237759807E+001, -1.33682655405E+002
+2.35131414268E+006, +5.17863274476E+001, -1.23368771302E+002
+2.53892365457E+006, +5.13893683155E+001, -1.14168832209E+002
+2.72653316646E+006, +5.13905190347E+001, -1.06680911069E+002
+2.91414267835E+006, +5.12157999895E+001, -9.93651715042E+001
+3.10175219024E+006, +5.09346082725E+001, -9.38087132329E+001
+3.28936170213E+006, +5.09577239398E+001, -8.83590472562E+001
+3.47697121402E+006, +5.07673227058E+001, -8.38279528331E+001
+3.66458072591E+006, +5.06510024919E+001, -7.93426399128E+001
+3.85219023780E+006, +5.04539074325E+001, -7.56305124448E+001
+4.03979974969E+006, +5.03861161494E+001, -7.21251133373E+001
+4.22740926158E+006, +5.03695902459E+001, -6.89577999614E+001
+4.41501877347E+006, +5.03536383484E+001, -6.59802097940E+001
+4.60262828536E+006, +5.02353006678E+001, -6.34787129274E+001
+4.79023779725E+006, +5.02324035390E+001, -6.09259126814E+001
+4.97784730914E+006, +5.03301460452E+001, -5.86103090744E+001
+5.16545682103E+006, +5.01022862692E+001, -5.65536110982E+001
+5.35306633292E+006, +5.01564270223E+001, -5.46930887685E+001
+5.54067584481E+006, +4.99859556483E+001, -5.29257164132E+001
+5.72828535670E+006, +5.00754322332E+001, -5.11570052879E+001
+5.91589486859E+006, +5.00650150544E+001, -4.95431627354E+001
+6.10350438048E+006, +5.00235637366E+001, -4.79320034708E+001
+6.29111389237E+006, +4.99224896335E+001, -4.66080889900E+001
+6.47872340426E+006, +4.99844448846E+001, -4.52002090607E+001
+6.66633291615E+006, +4.99381909480E+001, -4.39842484958E+001
+6.85394242804E+006, +4.99729717769E+001, -4.27949548298E+001
+7.04155193992E+006, +4.98672284741E+001, -4.17111210452E+001
+7.22916145181E+006, +4.98618339382E+001, -4.06378572615E+001
+7.41677096370E+006, +4.98835732267E+001, -3.95962396171E+001
+7.60438047559E+006, +4.98060312156E+001, -3.86210004817E+001
+7.79198998748E+006, +4.98750196382E+001, -3.77729304400E+001
+7.97959949937E+006, +4.98131599006E+001, -3.68987850851E+001
+8.16720901126E+006, +4.98158031576E+001, -3.59987513416E+001
+8.35481852315E+006, +4.98015885893E+001, -3.52643539548E+001
+8.54242803504E+006, +4.98234252093E+001, -3.44767852898E+001
+8.73003754693E+006, +4.97952550947E+001, -3.37395726789E+001
+8.91764705882E+006, +4.97462995110E+001, -3.31034158547E+001
+9.10525657071E+006, +4.97351588718E+001, -3.24072082669E+001
+9.29286608260E+006, +4.97410159692E+001, -3.18588942861E+001
+9.48047559449E+006, +4.97674778144E+001, -3.11837745748E+001
+9.66808510638E+006, +4.97130765161E+001, -3.05763652839E+001
+9.85569461827E+006, +4.97189154973E+001, -3.00362422606E+001
+1.00433041302E+007, +4.97149207447E+001, -2.94815294833E+001
+1.02309136421E+007, +4.97165629878E+001, -2.89570000788E+001
+1.04185231539E+007, +4.97444497868E+001, -2.84512932417E+001
+1.06061326658E+007, +4.96920956986E+001, -2.79712629062E+001
+1.07937421777E+007, +4.96825437006E+001, -2.74809044733E+001
+1.09813516896E+007, +4.96691922279E+001, -2.70363109072E+001
+1.11689612015E+007, +4.96846490660E+001, -2.65932295048E+001
+1.13565707134E+007, +4.96639707525E+001, -2.61723009757E+001
+1.15441802253E+007, +4.96684909602E+001, -2.57569037048E+001
+1.17317897372E+007, +4.96511945647E+001, -2.53898589714E+001
+1.19193992491E+007, +4.96433807846E+001, -2.50045495722E+001
+1.21070087610E+007, +4.96230848773E+001, -2.46178484765E+001
+1.22946182728E+007, +4.96388348913E+001, -2.42670350776E+001
+1.24822277847E+007, +4.96194444686E+001, -2.39233879666E+001
+1.26698372966E+007, +4.96249196442E+001, -2.35951355082E+001
+1.28574468085E+007, +4.96428856763E+001, -2.32474780984E+001
+1.30450563204E+007, +4.96279153349E+001, -2.29604596492E+001
+1.32326658323E+007, +4.95989054008E+001, -2.26287812159E+001
+1.34202753442E+007, +4.96143681268E+001, -2.23220655083E+001
+1.36078848561E+007, +4.96091470167E+001, -2.20374745873E+001
+1.37954943680E+007, +4.95876757317E+001, -2.17577388243E+001
+1.39831038798E+007, +4.95953901505E+001, -2.14922882253E+001
+1.41707133917E+007, +4.95960410700E+001, -2.12115595497E+001
+1.43583229036E+007, +4.95855740716E+001, -2.09606812693E+001
+1.45459324155E+007, +4.95869135546E+001, -2.07085457469E+001
+1.47335419274E+007, +4.95983789808E+001, -2.04764818836E+001
+1.49211514393E+007, +4.95712937797E+001, -2.02326295986E+001
+1.51087609512E+007, +4.95730635330E+001, -1.99821406772E+001
+1.52963704631E+007, +4.95624202265E+001, -1.97710198388E+001
+1.54839799750E+007, +4.95381335482E+001, -1.95389138565E+001
+1.56715894869E+007, +4.95375213625E+001, -1.93357056105E+001
+1.58591989987E+007, +4.95603384829E+001, -1.91213299518E+001
+1.60468085106E+007, +4.95413739976E+001, -1.89119574594E+001
+1.62344180225E+007, +4.95426066061E+001, -1.87175868643E+001
+1.64220275344E+007, +4.95575726458E+001, -1.85038052843E+001
+1.66096370463E+007, +4.95262835178E+001, -1.83328929484E+001
+1.67972465582E+007, +4.95442048296E+001, -1.81305188110E+001
+1.69848560701E+007, +4.95355718079E+001, -1.79591069905E+001
+1.71724655820E+007, +4.95333497247E+001, -1.78082371124E+001
+1.73600750939E+007, +4.95166721353E+001, -1.76219072216E+001
+1.75476846058E+007, +4.95115435309E+001, -1.74272460216E+001
+1.77352941176E+007, +4.95223437282E+001, -1.72649731806E+001
+1.79229036295E+007, +4.95264828851E+001, -1.71131276411E+001
+1.81105131414E+007, +4.95104777014E+001, -1.69394211098E+001
+1.82981226533E+007, +4.95125765418E+001, -1.67903966296E+001
+1.84857321652E+007, +4.95090614250E+001, -1.66476401323E+001
+1.86733416771E+007, +4.94985603703E+001, -1.64992575328E+001
+1.88609511890E+007, +4.95081380737E+001, -1.63533045078E+001
+1.90485607009E+007, +4.94885531707E+001, -1.62066643666E+001
+1.92361702128E+007, +4.94885384429E+001, -1.60770703630E+001
+1.94237797247E+007, +4.94919631401E+001, -1.59377788962E+001
+1.96113892365E+007, +4.94758452103E+001, -1.58083893481E+001
+1.97989987484E+007, +4.94879372368E+001, -1.56749136520E+001
+1.99866082603E+007, +4.94659574960E+001, -1.55421621320E+001
+2.01742177722E+007, +4.94655070539E+001, -1.54178368975E+001
+2.03618272841E+007, +4.94560230036E+001, -1.53087271318E+001
+2.05494367960E+007, +4.94587670827E+001, -1.51771949440E+001
+2.07370463079E+007, +4.94506871184E+001, -1.50748261042E+001
+2.09246558198E+007, +4.94544319676E+001, -1.49431591328E+001
+2.11122653317E+007, +4.94419837313E+001, -1.48327327046E+001
+2.12998748436E+007, +4.94507865026E+001, -1.47264464814E+001
+2.14874843554E+007, +4.94292023534E+001, -1.46223909161E+001
+2.16750938673E+007, +4.94209283857E+001, -1.44979109792E+001
+2.18627033792E+007, +4.94099663022E+001, -1.43877181466E+001
+2.20503128911E+007, +4.94038939417E+001, -1.43102694748E+001
+2.22379224030E+007, +4.94022227447E+001, -1.41958972834E+001
+2.24255319149E+007, +4.93962191377E+001, -1.40947656315E+001
+2.26131414268E+007, +4.93929587089E+001, -1.40043529431E+001
+2.28007509387E+007, +4.93725584260E+001, -1.39000414192E+001
+2.29883604506E+007, +4.93555086620E+001, -1.37996792624E+001
+2.31759699625E+007, +4.93580330138E+001, -1.37041479178E+001
+2.33635794743E+007, +4.93474410261E+001, -1.36328583604E+001
+2.35511889862E+007, +4.93388262355E+001, -1.35379744148E+001
+2.37387984981E+007, +4.93174890067E+001, -1.34321559859E+001
+2.39264080100E+007, +4.92996320828E+001, -1.33465738957E+001
+2.41140175219E+007, +4.92932035916E+001, -1.32650321495E+001
+2.43016270338E+007, +4.92811207384E+001, -1.31694918933E+001
+2.44892365457E+007, +4.92697068491E+001, -1.30564643595E+001
+2.46768460576E+007, +4.92619476328E+001, -1.29713672750E+001
+2.48644555695E+007, +4.92451924376E+001, -1.28729309140E+001
+2.50520650814E+007, +4.92363188529E+001, -1.27748483389E+001
+2.52396745932E+007, +4.92316804393E+001, -1.26793306507E+001
+2.54272841051E+007, +4.92659055636E+001, -1.25970284446E+001
+2.56148936170E+007, +4.92637375742E+001, -1.25062985480E+001
+2.58025031289E+007, +4.92631031357E+001, -1.24152451072E+001
+2.59901126408E+007, +4.92688645952E+001, -1.23385113475E+001
+2.61777221527E+007, +4.93045378369E+001, -1.22781650728E+001
+2.63653316646E+007, +4.93004115071E+001, -1.21951468136E+001
+2.65529411765E+007, +4.93012824638E+001, -1.21287438017E+001
+2.67405506884E+007, +4.93079582216E+001, -1.20552500577E+001
+2.69281602003E+007, +4.93198273944E+001, -1.19938414336E+001
+2.71157697121E+007, +4.93221118058E+001, -1.19332983830E+001
+2.73033792240E+007, +4.93197478494E+001, -1.18582198627E+001
+2.74909887359E+007, +4.93370351006E+001, -1.18056567762E+001
+2.76785982478E+007, +4.93427176795E+001, -1.17494726687E+001
+2.78662077597E+007, +4.93407754369E+001, -1.16968711706E+001
+2.80538172716E+007, +4.93372757029E+001, -1.16472226236E+001
+2.82414267835E+007, +4.93451383614E+001, -1.15861262996E+001
+2.84290362954E+007, +4.93573161981E+001, -1.15254246331E+001
+2.86166458073E+007, +4.93515858206E+001, -1.14825558333E+001
+2.88042553191E+007, +4.93441404637E+001, -1.14313945855E+001
+2.89918648310E+007, +4.93483117339E+001, -1.13716568523E+001
+2.91794743429E+007, +4.93482122061E+001, -1.13302856755E+001
+2.93670838548E+007, +4.93549517613E+001, -1.12844659372E+001
+2.95546933667E+007, +4.93488081221E+001, -1.12309474683E+001
+2.97423028786E+007, +4.93399861072E+001, -1.11885239653E+001
+2.99299123905E+007, +4.93442445806E+001, -1.11519388015E+001
+3.01175219024E+007, +4.93453273279E+001, -1.11109900289E+001
+3.03051314143E+007, +4.93399224768E+001, -1.10491218917E+001
+3.04927409262E+007, +4.93300402594E+001, -1.10064639250E+001
+3.06803504380E+007, +4.93219211395E+001, -1.09653199396E+001
+3.08679599499E+007, +4.93193819891E+001, -1.09294390381E+001
+3.10555694618E+007, +4.93251984059E+001, -1.08827415478E+001
+3.12431789737E+007, +4.93236629514E+001, -1.08463518585E+001
+3.14307884856E+007, +4.93248667366E+001, -1.07941245088E+001
+3.16183979975E+007, +4.93231133839E+001, -1.07565555097E+001
+3.18060075094E+007, +4.93135256272E+001, -1.07326810741E+001
+3.19936170213E+007, +4.93107415563E+001, -1.06906997495E+001
+3.21812265332E+007, +4.93104271768E+001, -1.06473636694E+001
+3.23688360451E+007, +4.93063690851E+001, -1.06064029717E+001
+3.25564455569E+007, +4.92893988303E+001, -1.05744002356E+001
+3.27440550688E+007, +4.92865483395E+001, -1.05527655290E+001
+3.29316645807E+007, +4.92789552513E+001, -1.05066555745E+001
+3.31192740926E+007, +4.92825371076E+001, -1.04696860779E+001
+3.33068836045E+007, +4.92774509820E+001, -1.04441049338E+001
+3.34944931164E+007, +4.92727887472E+001, -1.04092998469E+001
+3.36821026283E+007, +4.92715289786E+001, -1.03750667096E+001
+3.38697121402E+007, +4.92674600412E+001, -1.03462737556E+001
+3.40573216521E+007, +4.92513229237E+001, -1.03053298884E+001
+3.42449311640E+007, +4.92507855952E+001, -1.02738691689E+001
+3.44325406758E+007, +4.92453737640E+001, -1.02513364550E+001
+3.46201501877E+007, +4.92440428551E+001, -1.02211644334E+001
+3.48077596996E+007, +4.92385183769E+001, -1.01913810419E+001
+3.49953692115E+007, +4.92269210409E+001, -1.01758322504E+001
+3.51829787234E+007, +4.92188996237E+001, -1.01219085895E+001
+3.53705882353E+007, +4.92076052795E+001, -1.00925373922E+001
+3.55581977472E+007, +4.92060012389E+001, -1.00680073143E+001
+3.57458072591E+007, +4.91955104041E+001, -1.00362564248E+001
+3.59334167710E+007, +4.91944079250E+001, -1.00086431002E+001
+3.61210262829E+007, +4.91956488136E+001, -9.99303437685E+000
+3.63086357947E+007, +4.91937723713E+001, -9.96142746309E+000
+3.64962453066E+007, +4.91900468295E+001, -9.93130515009E+000
+3.66838548185E+007, +4.91878191340E+001, -9.91645619641E+000
+3.68714643304E+007, +4.91776987043E+001, -9.89116679580E+000
+3.70590738423E+007, +4.91708418661E+001, -9.86659293589E+000
+3.72466833542E+007, +4.91633470935E+001, -9.84748035744E+000
+3.74342928661E+007, +4.91578778584E+001, -9.82367401558E+000
+3.76219023780E+007, +4.91528537434E+001, -9.80828378789E+000
+3.78095118899E+007, +4.91412165888E+001, -9.79506701323E+000
+3.79971214018E+007, +4.91371557571E+001, -9.77201969733E+000
+3.81847309136E+007, +4.91335894770E+001, -9.75811413807E+000
+3.83723404255E+007, +4.91229336434E+001, -9.73842578547E+000
+3.85599499374E+007, +4.91114146059E+001, -9.72432588796E+000
+3.87475594493E+007, +4.91010975407E+001, -9.71425284157E+000
+3.89351689612E+007, +4.90911252036E+001, -9.68303784094E+000
+3.91227784731E+007, +4.90773285963E+001, -9.67437938684E+000
+3.93103879850E+007, +4.90665254163E+001, -9.65909943915E+000
+3.94979974969E+007, +4.90584683942E+001, -9.64074647349E+000
+3.96856070088E+007, +4.90470859212E+001, -9.62388971778E+000
+3.98732165207E+007, +4.90318917593E+001, -9.61203207345E+000
+4.00608260325E+007, +4.90193299599E+001, -9.59319416195E+000
+4.02484355444E+007, +4.90006131049E+001, -9.57390387635E+000
+4.04360450563E+007, +4.89798281380E+001, -9.56526545033E+000
+4.06236545682E+007, +4.89645218366E+001, -9.54161292863E+000
+4.08112640801E+007, +4.89470576626E+001, -9.52426122814E+000
+4.09988735920E+007, +4.89452869728E+001, -9.48934268589E+000
+4.11864831039E+007, +4.89319807897E+001, -9.47572473380E+000
+4.13740926158E+007, +4.89261366050E+001, -9.45070838147E+000
+4.15617021277E+007, +4.89196510718E+001, -9.43146346779E+000
+4.17493116395E+007, +4.89109830253E+001, -9.42137872817E+000
+4.19369211514E+007, +4.89068014635E+001, -9.39395606436E+000
+4.21245306633E+007, +4.89056931892E+001, -9.37790580801E+000
+4.23121401752E+007, +4.88951358037E+001, -9.36307235473E+000
+4.24997496871E+007, +4.88892138525E+001, -9.35678822945E+000
+4.26873591990E+007, +4.88794514408E+001, -9.33949387828E+000
+4.28749687109E+007, +4.88754716646E+001, -9.33377837815E+000
+4.30625782228E+007, +4.88814443766E+001, -9.33034393734E+000
+4.32501877347E+007, +4.88758353245E+001, -9.31186987732E+000
+4.34377972466E+007, +4.88608867316E+001, -9.30448961254E+000
+4.36254067584E+007, +4.88599498770E+001, -9.30914703325E+000
+4.38130162703E+007, +4.88425563089E+001, -9.29129823444E+000
+4.40006257822E+007, +4.88353933917E+001, -9.29335936916E+000
+4.41882352941E+007, +4.88366002362E+001, -9.29601890832E+000
+4.43758448060E+007, +4.88339780245E+001, -9.29440203353E+000
+4.45634543179E+007, +4.87981818298E+001, -9.27379314740E+000
+4.47510638298E+007, +4.87987029014E+001, -9.27875283037E+000
+4.49386733417E+007, +4.87827797161E+001, -9.28244071706E+000
+4.51262828536E+007, +4.87732126198E+001, -9.25943997729E+000
+4.53138923655E+007, +4.87517691162E+001, -9.26376468462E+000
+4.55015018773E+007, +4.87479304962E+001, -9.25992859378E+000
+4.56891113892E+007, +4.87339857252E+001, -9.25880217221E+000
+4.58767209011E+007, +4.87107711430E+001, -9.26086729669E+000
+4.60643304130E+007, +4.86854950537E+001, -9.25494012661E+000
+4.62519399249E+007, +4.86755890644E+001, -9.24320399262E+000
+4.64395494368E+007, +4.86608016250E+001, -9.24487099710E+000
+4.66271589487E+007, +4.86402882093E+001, -9.23874266395E+000
+4.68147684606E+007, +4.86193840386E+001, -9.22795226876E+000
+4.70023779725E+007, +4.86059984520E+001, -9.21632584620E+000
+4.71899874844E+007, +4.85958092306E+001, -9.21292154958E+000
+4.73775969962E+007, +4.85885887756E+001, -9.20476036198E+000
+4.75652065081E+007, +4.85634225839E+001, -9.20901746581E+000
+4.77528160200E+007, +4.85582713742E+001, -9.18977578321E+000
+4.79404255319E+007, +4.85515009069E+001, -9.19111945878E+000
+4.81280350438E+007, +4.85390466498E+001, -9.19164613497E+000
+4.83156445557E+007, +4.85304216367E+001, -9.18487875511E+000
+4.85032540676E+007, +4.85272947623E+001, -9.18279338216E+000
+4.86908635795E+007, +4.85203700714E+001, -9.18067481102E+000
+4.88784730914E+007, +4.85108575964E+001, -9.19923762698E+000
+4.90660826033E+007, +4.85056854824E+001, -9.20482817551E+000
+4.92536921151E+007, +4.84955961840E+001, -9.21494302895E+000
+4.94413016270E+007, +4.84783903972E+001, -9.22623067494E+000
+4.96289111389E+007, +4.84655753751E+001, -9.22478748131E+000
+4.98165206508E+007, +4.84371572537E+001, -9.24024568000E+000
+5.00041301627E+007, +4.84170259510E+001, -9.24871593005E+000
+5.01917396746E+007, +4.83922787966E+001, -9.24323481759E+000
+5.03793491865E+007, +4.83711078449E+001, -9.23875334383E+000
+5.05669586984E+007, +4.83448869261E+001, -9.24437344671E+000
+5.07545682103E+007, +4.83359688547E+001, -9.24925409928E+000
+5.09421777222E+007, +4.83289315809E+001, -9.25260283059E+000
+5.11297872340E+007, +4.83098060138E+001, -9.24095031563E+000
+5.13173967459E+007, +4.82938676629E+001, -9.24795217517E+000
+5.15050062578E+007, +4.82714013363E+001, -9.26674671390E+000
+5.16926157697E+007, +4.82666728534E+001, -9.26603194578E+000
+5.18802252816E+007, +4.82554190980E+001, -9.26822671745E+000
+5.20678347935E+007, +4.82276933961E+001, -9.27237479507E+000
+5.22554443054E+007, +4.82182389741E+001, -9.28607421497E+000
+5.24430538173E+007, +4.81996705258E+001, -9.29357440619E+000
+5.26306633292E+007, +4.81921199412E+001, -9.30927109443E+000
+5.28182728411E+007, +4.81667991359E+001, -9.30921618729E+000
+5.30058823529E+007, +4.81684023518E+001, -9.32104445640E+000
+5.31934918648E+007, +4.81494012467E+001, -9.32998682048E+000
+5.33811013767E+007, +4.81456237566E+001, -9.35553709427E+000
+5.35687108886E+007, +4.81286950762E+001, -9.35359034421E+000
+5.37563204005E+007, +4.81062540073E+001, -9.38022412415E+000
+5.39439299124E+007, +4.81029842565E+001, -9.39568738758E+000
+5.41315394243E+007, +4.80817259049E+001, -9.42964002950E+000
+5.43191489362E+007, +4.80546569195E+001, -9.44853730506E+000
+5.45067584481E+007, +4.80394945011E+001, -9.46559874349E+000
+5.46943679599E+007, +4.80046041199E+001, -9.48065805932E+000
+5.48819774718E+007, +4.79853027767E+001, -9.50309876431E+000
+5.50695869837E+007, +4.79580381118E+001, -9.52186670113E+000
+5.52571964956E+007, +4.79406247438E+001, -9.53672591830E+000
+5.54448060075E+007, +4.79110346183E+001, -9.53919295548E+000
+5.56324155194E+007, +4.78920581000E+001, -9.55886688008E+000
+5.58200250313E+007, +4.78841975042E+001, -9.57212505020E+000
+5.60076345432E+007, +4.78715606735E+001, -9.58295815552E+000
+5.61952440551E+007, +4.78512774901E+001, -9.61329043183E+000
+5.63828535670E+007, +4.78620434473E+001, -9.62707125399E+000
+5.65704630788E+007, +4.78374383463E+001, -9.64546062140E+000
+5.67580725907E+007, +4.78235275565E+001, -9.68543443230E+000
+5.69456821026E+007, +4.78100769544E+001, -9.73182549437E+000
+5.71332916145E+007, +4.77985483427E+001, -9.76490723415E+000
+5.73209011264E+007, +4.77880372203E+001, -9.79672161617E+000
+5.75085106383E+007, +4.77729677572E+001, -9.84272214049E+000
+5.76961201502E+007, +4.77422595303E+001, -9.89734232012E+000
+5.78837296621E+007, +4.77158655556E+001, -9.93824008617E+000
+5.80713391740E+007, +4.76941987034E+001, -9.98832059994E+000
+5.82589486859E+007, +4.76663165545E+001, -1.00382177008E+001
+5.84465581977E+007, +4.76317189360E+001, -1.00903397642E+001
+5.86341677096E+007, +4.75981524966E+001, -1.01319527534E+001
+5.88217772215E+007, +4.75545657688E+001, -1.01906350302E+001
+5.90093867334E+007, +4.75135456322E+001, -1.02416454177E+001
+5.91969962453E+007, +4.74827107718E+001, -1.02865922442E+001
+5.93846057572E+007, +4.74394110494E+001, -1.03350626794E+001
+5.95722152691E+007, +4.74031484137E+001, -1.03893773542E+001
+5.97598247810E+007, +4.73667867071E+001, -1.04450621704E+001
+5.99474342929E+007, +4.73250749537E+001, -1.05097516937E+001
+6.01350438048E+007, +4.72707103384E+001, -1.05498237507E+001
