"# Channel 1"
"# Trace 1"
Frequency, Formatted Data, Formatted Data
+1.00000000000E+005, +6.69769811595E+001, +3.03001176837E+000
+2.25031289111E+005, +6.68558806131E+001, +7.39920089540E+000
+3.50062578223E+005, +6.68069113248E+001, +1.16650455346E+001
+4.75093867334E+005, +6.67846488120E+001, +1.57540335285E+001
+6.00125156446E+005, +6.68746849336E+001, +1.98771091735E+001
+7.25156445557E+005, +6.69364077071E+001, +2.39343342538E+001
+8.50187734668E+005, +6.68798608191E+001, +2.81418964417E+001
+9.75219023780E+005, +6.68405398313E+001, +3.22756914289E+001
+1.10025031289E+006, +6.69944472744E+001, +3.63207387613E+001
+1.22528160200E+006, +6.70342433373E+001, +4.05191342079E+001
+1.35031289111E+006, +6.70238991167E+001, +4.46016951813E+001
+1.47534418023E+006, +6.70833260693E+001, +4.87441889829E+001
+1.60037546934E+006, +6.70145374544E+001, +5.28650862092E+001
+1.72540675845E+006, +6.71074863773E+001, +5.70950570009E+001
+1.85043804756E+006, +6.70305307886E+001, +6.11496355563E+001
+1.97546933667E+006, +6.70093930485E+001, +6.54182549826E+001
+2.10050062578E+006, +6.70069851922E+001, +6.94758064583E+001
+2.22553191489E+006, +6.71231753106E+001, +7.36799836919E+001
+2.35056320401E+006, +6.69890621875E+001, +7.76660822142E+001
+2.47559449312E+006, +6.72569331562E+001, +8.19304015162E+001
+2.60062578223E+006, +6.70602574889E+001, +8.62001559020E+001
+2.72565707134E+006, +6.70002440812E+001, +9.01953738300E+001
+2.85068836045E+006, +6.70643601867E+001, +9.43493210979E+001
+2.97571964956E+006, +6.72862562641E+001, +9.86110499062E+001
+3.10075093867E+006, +6.73420507692E+001, +1.02887719736E+002
+3.22578222778E+006, +6.72036335016E+001, +1.07298256694E+002
+3.35081351690E+006, +6.74215652470E+001, +1.11157393727E+002
+3.47584480601E+006, +6.75888821250E+001, +1.15504002252E+002
+3.60087609512E+006, +6.77037355307E+001, +1.19478129707E+002
+3.72590738423E+006, +6.77430339383E+001, +1.23805433225E+002
+3.85093867334E+006, +6.77710786538E+001, +1.27665509077E+002
+3.97596996245E+006, +6.75264223729E+001, +1.32046037907E+002
+4.10100125156E+006, +6.78186007343E+001, +1.36502089676E+002
+4.22603254068E+006, +6.77465169642E+001, +1.40741876464E+002
+4.35106382979E+006, +6.77010345456E+001, +1.44916839355E+002
+4.47609511890E+006, +6.78911878987E+001, +1.49328026331E+002
+4.60112640801E+006, +6.80513589104E+001, +1.53883535498E+002
+4.72615769712E+006, +6.78915128167E+001, +1.57401097094E+002
+4.85118898623E+006, +6.79994171745E+001, +1.61758650742E+002
+4.97622027534E+006, +6.83566034365E+001, +1.66589805895E+002
+5.10125156446E+006, +6.80555646742E+001, +1.70506798291E+002
+5.22628285357E+006, +6.83537421731E+001, +1.75472564961E+002
+5.35131414268E+006, +6.81071073916E+001, +1.79361571284E+002
+5.47634543179E+006, +6.82217223926E+001, +1.83753182761E+002
+5.60137672090E+006, +6.87534010125E+001, +1.87703843817E+002
+5.72640801001E+006, +6.85099623836E+001, +1.92183502051E+002
+5.85143929912E+006, +6.89535415265E+001, +1.96675967145E+002
+5.97647058824E+006, +6.89662329332E+001, +2.01160698284E+002
+6.10150187735E+006, +6.91494366801E+001, +2.05673749216E+002
+6.22653316646E+006, +6.95757743262E+001, +2.09631140398E+002
+6.35156445557E+006, +6.92235417535E+001, +2.13835648846E+002
+6.47659574468E+006, +6.96050892830E+001, +2.18537000545E+002
+6.60162703379E+006, +6.96593906183E+001, +2.23036296765E+002
+6.72665832290E+006, +6.99997333503E+001, +2.27540152380E+002
+6.85168961202E+006, +7.00888451698E+001, +2.31834674725E+002
+6.97672090113E+006, +7.00261018352E+001, +2.36613503424E+002
+7.10175219024E+006, +7.04223807975E+001, +2.40988049139E+002
+7.22678347935E+006, +7.04515127585E+001, +2.45060769841E+002
+7.35181476846E+006, +7.07584578826E+001, +2.49750890512E+002
+7.47684605757E+006, +7.06085139497E+001, +2.54234367280E+002
+7.60187734668E+006, +7.13313599251E+001, +2.58567102216E+002
+7.72690863579E+006, +7.10714813122E+001, +2.63771027804E+002
+7.85193992491E+006, +7.10749609285E+001, +2.68309198339E+002
+7.97697121402E+006, +7.18464674558E+001, +2.72374515521E+002
+8.10200250313E+006, +7.15125057692E+001, +2.77154263805E+002
+8.22703379224E+006, +7.18668486170E+001, +2.81261770015E+002
+8.35206508135E+006, +7.22529113434E+001, +2.86531114780E+002
+8.47709637046E+006, +7.19730204730E+001, +2.91609423742E+002
+8.60212765957E+006, +7.21754108154E+001, +2.95607178072E+002
+8.72715894869E+006, +7.21469032282E+001, +3.00563325859E+002
+8.85219023780E+006, +7.21549851883E+001, +3.05079937992E+002
+8.97722152691E+006, +7.27532173774E+001, +3.10414779832E+002
+9.10225281602E+006, +7.28301974550E+001, +3.15310951902E+002
+9.22728410513E+006, +7.30336427296E+001, +3.19242051472E+002
+9.35231539424E+006, +7.30888000822E+001, +3.24494645256E+002
+9.47734668335E+006, +7.37091738077E+001, +3.29457367531E+002
+9.60237797247E+006, +7.41057704607E+001, +3.34050855955E+002
+9.72740926158E+006, +7.42207220197E+001, +3.39009505219E+002
+9.85244055069E+006, +7.41060896413E+001, +3.44016630490E+002
+9.97747183980E+006, +7.42133708983E+001, +3.49406795649E+002
+1.01025031289E+007, +7.43645132950E+001, +3.52897518810E+002
+1.02275344180E+007, +7.46140729659E+001, +3.58664947496E+002
+1.03525657071E+007, +7.48242193098E+001, +3.62718040508E+002
+1.04775969962E+007, +7.50995119152E+001, +3.68444819699E+002
+1.06026282854E+007, +7.48057771183E+001, +3.73522354653E+002
+1.07276595745E+007, +7.59952319728E+001, +3.78494740993E+002
+1.08526908636E+007, +7.58684231862E+001, +3.84313074054E+002
+1.09777221527E+007, +7.58048098456E+001, +3.88714178356E+002
+1.11027534418E+007, +7.64156231679E+001, +3.93359498047E+002
+1.12277847309E+007, +7.61417837930E+001, +3.98469082272E+002
+1.13528160200E+007, +7.67104080886E+001, +4.04004799271E+002
+1.14778473091E+007, +7.70672916485E+001, +4.09164831397E+002
+1.16028785982E+007, +7.65499214632E+001, +4.13313523167E+002
+1.17279098874E+007, +7.77684386662E+001, +4.19796979609E+002
+1.18529411765E+007, +7.70683194658E+001, +4.25228245976E+002
+1.19779724656E+007, +7.76363400043E+001, +4.30031856325E+002
+1.21030037547E+007, +7.77994214809E+001, +4.35013000795E+002
+1.22280350438E+007, +7.73210571838E+001, +4.41304599753E+002
+1.23530663329E+007, +7.80506826833E+001, +4.46424213517E+002
+1.24780976220E+007, +7.83982475708E+001, +4.50837229949E+002
+1.26031289111E+007, +7.80784877662E+001, +4.57395446205E+002
+1.27281602003E+007, +7.86346234451E+001, +4.63629041364E+002
+1.28531914894E+007, +7.85209048120E+001, +4.69160278851E+002
+1.29782227785E+007, +7.86708849626E+001, +4.74175395283E+002
+1.31032540676E+007, +7.94966821145E+001, +4.79813147399E+002
+1.32282853567E+007, +7.97148480489E+001, +4.83931921120E+002
+1.33533166458E+007, +7.95748156635E+001, +4.90281301424E+002
+1.34783479349E+007, +8.07583576681E+001, +4.96600169105E+002
+1.36033792240E+007, +8.10011877219E+001, +5.01886370212E+002
+1.37284105131E+007, +8.14711918067E+001, +5.09193952259E+002
+1.38534418023E+007, +8.14029867121E+001, +5.12556088190E+002
+1.39784730914E+007, +8.12128864017E+001, +5.20094438526E+002
+1.41035043805E+007, +8.33419554768E+001, +5.26331063656E+002
+1.42285356696E+007, +8.16281642472E+001, +5.31080088578E+002
+1.43535669587E+007, +8.13134854281E+001, +5.37789172842E+002
+1.44785982478E+007, +8.27205586299E+001, +5.42480678567E+002
+1.46036295369E+007, +8.36613714036E+001, +5.49969186220E+002
+1.47286608260E+007, +8.30180721003E+001, +5.56309405765E+002
+1.48536921151E+007, +8.48803982465E+001, +5.60587010307E+002
+1.49787234043E+007, +8.62927322365E+001, +5.68788042859E+002
+1.51037546934E+007, +8.63299806955E+001, +5.73330221951E+002
+1.52287859825E+007, +8.62778893295E+001, +5.79944178855E+002
+1.53538172716E+007, +8.70289327865E+001, +5.86569814690E+002
+1.54788485607E+007, +8.64642627202E+001, +5.92331852630E+002
+1.56038798498E+007, +8.50517166665E+001, +5.98923608028E+002
+1.57289111389E+007, +8.82618865985E+001, +6.05226734194E+002
+1.58539424280E+007, +8.79436352047E+001, +6.13467513541E+002
+1.59789737171E+007, +8.76014587947E+001, +6.18030893428E+002
+1.61040050063E+007, +8.70375008945E+001, +6.25453599285E+002
+1.62290362954E+007, +8.86915931977E+001, +6.34106793315E+002
+1.63540675845E+007, +8.93335794618E+001, +6.40274608659E+002
+1.64790988736E+007, +8.97677452048E+001, +6.46193018916E+002
+1.66041301627E+007, +8.85153397386E+001, +6.51248737250E+002
+1.67291614518E+007, +9.13775386613E+001, +6.58067698555E+002
+1.68541927409E+007, +9.31285763043E+001, +6.64431928007E+002
+1.69792240300E+007, +9.15116983155E+001, +6.73955751998E+002
+1.71042553191E+007, +8.81628351704E+001, +6.82319339001E+002
+1.72292866083E+007, +9.38475652831E+001, +6.89610996189E+002
+1.73543178974E+007, +9.40891415461E+001, +6.95316005974E+002
+1.74793491865E+007, +9.06376504956E+001, +7.01387528798E+002
+1.76043804756E+007, +9.45709477245E+001, +7.08254038666E+002
+1.77294117647E+007, +9.44691562699E+001, +7.16015036578E+002
+1.78544430538E+007, +9.54381910079E+001, +7.24345516105E+002
+1.79794743429E+007, +9.73959403960E+001, +7.34952600889E+002
+1.81045056320E+007, +9.68534107094E+001, +7.36687647676E+002
+1.82295369212E+007, +9.69268609267E+001, +7.47149098441E+002
+1.83545682103E+007, +9.69607741772E+001, +7.55051411246E+002
+1.84795994994E+007, +1.01616114069E+002, +7.64337423518E+002
+1.86046307885E+007, +1.00887592462E+002, +7.71461896904E+002
+1.87296620776E+007, +1.01254764469E+002, +7.80203368409E+002
+1.88546933667E+007, +1.01056824665E+002, +7.87860723182E+002
+1.89797246558E+007, +1.02850653983E+002, +7.97062450329E+002
+1.91047559449E+007, +1.01563011894E+002, +8.07078545353E+002
+1.92297872340E+007, +1.03941625006E+002, +8.10595748550E+002
+1.93548185232E+007, +1.06588268433E+002, +8.19044532657E+002
+1.94798498123E+007, +1.01869694519E+002, +8.30429384590E+002
+1.96048811014E+007, +1.09435666830E+002, +8.34980169794E+002
+1.97299123905E+007, +1.06265533286E+002, +8.41615846192E+002
+1.98549436796E+007, +1.11555762612E+002, +8.58694450476E+002
+1.99799749687E+007, +1.07635961981E+002, +8.59781388483E+002
+2.01050062578E+007, +1.12562008590E+002, +8.72028828593E+002
+2.02300375469E+007, +1.13176571466E+002, +8.78613956952E+002
+2.03550688360E+007, +1.14277104682E+002, +8.88582886074E+002
+2.04801001252E+007, +1.13415677471E+002, +9.04053499268E+002
+2.06051314143E+007, +1.11573552580E+002, +9.07647007992E+002
+2.07301627034E+007, +1.12829433317E+002, +9.16812072158E+002
+2.08551939925E+007, +1.14796309317E+002, +9.30388107738E+002
+2.09802252816E+007, +1.14938549164E+002, +9.35667425412E+002
+2.11052565707E+007, +1.16028539767E+002, +9.47742063989E+002
+2.12302878598E+007, +1.21864154056E+002, +9.58587787309E+002
+2.13553191489E+007, +1.23011348893E+002, +9.63628548983E+002
+2.14803504380E+007, +1.23205469915E+002, +9.82306411918E+002
+2.16053817272E+007, +1.20467561080E+002, +9.89532963095E+002
+2.17304130163E+007, +1.25272739355E+002, +9.98816291250E+002
+2.18554443054E+007, +1.32106000855E+002, +1.00924060832E+003
+2.19804755945E+007, +1.27420663137E+002, +1.02171779203E+003
+2.21055068836E+007, +1.33912248454E+002, +1.03040843230E+003
+2.22305381727E+007, +1.36358764357E+002, +1.04309529538E+003
+2.23555694618E+007, +1.38129881523E+002, +1.05327627441E+003
+2.24806007509E+007, +1.39822810117E+002, +1.06128635049E+003
+2.26056320401E+007, +1.41799538593E+002, +1.07762064960E+003
+2.27306633292E+007, +1.42153748588E+002, +1.09347677930E+003
+2.28556946183E+007, +1.45610482719E+002, +1.09633681399E+003
+2.29807259074E+007, +1.51118271305E+002, +1.10916949947E+003
+2.31057571965E+007, +1.53134431093E+002, +1.12788541422E+003
+2.32307884856E+007, +1.49683225412E+002, +1.13277351786E+003
+2.33558197747E+007, +1.55837878178E+002, +1.14115854233E+003
+2.34808510638E+007, +1.66535828711E+002, +1.15136704066E+003
+2.36058823529E+007, +1.62636576706E+002, +1.16556211270E+003
+2.37309136421E+007, +1.67082490577E+002, +1.17971250112E+003
+2.38559449312E+007, +1.73463077224E+002, +1.19160078468E+003
+2.39809762203E+007, +1.77481686366E+002, +1.20402435406E+003
+2.41060075094E+007, +1.79850245288E+002, +1.20735438358E+003
+2.42310387985E+007, +1.80845987697E+002, +1.21737640170E+003
+2.43560700876E+007, +1.79867270243E+002, +1.23364012763E+003
+2.44811013767E+007, +1.96353098902E+002, +1.24786608332E+003
+2.46061326658E+007, +1.91827427316E+002, +1.25159886509E+003
+2.47311639549E+007, +1.90712254153E+002, +1.27300510329E+003
+2.48561952441E+007, +1.90945899281E+002, +1.28108092978E+003
+2.49812265332E+007, +1.93746072666E+002, +1.27979323160E+003
+2.51062578223E+007, +1.86945988688E+002, +1.30572902577E+003
+2.52312891114E+007, +1.92414356552E+002, +1.32472959775E+003
+2.53563204005E+007, +1.94030313794E+002, +1.33204555638E+003
+2.54813516896E+007, +2.06514469665E+002, +1.35557835291E+003
+2.56063829787E+007, +1.89253617866E+002, +1.35864489393E+003
+2.57314142678E+007, +1.97987707622E+002, +1.37896413945E+003
+2.58564455569E+007, +2.01496449309E+002, +1.38752797701E+003
+2.59814768461E+007, +2.03298154823E+002, +1.40673398057E+003
+2.61065081352E+007, +1.95478663279E+002, +1.42613289451E+003
+2.62315394243E+007, +2.05233760101E+002, +1.43826998193E+003
+2.63565707134E+007, +1.97540124220E+002, +1.45542484281E+003
+2.64816020025E+007, +2.03251661953E+002, +1.47739448613E+003
+2.66066332916E+007, +2.18548054716E+002, +1.50711917296E+003
+2.67316645807E+007, +2.16483208273E+002, +1.51416533086E+003
+2.68566958698E+007, +2.08632379836E+002, +1.53675211108E+003
+2.69817271589E+007, +2.30783728044E+002, +1.54751759908E+003
+2.71067584481E+007, +2.26170389268E+002, +1.57634226977E+003
+2.72317897372E+007, +2.46139612006E+002, +1.58101875016E+003
+2.73568210263E+007, +2.41794296079E+002, +1.60046292516E+003
+2.74818523154E+007, +2.45732705003E+002, +1.62446442410E+003
+2.76068836045E+007, +2.51093516946E+002, +1.63657697195E+003
+2.77319148936E+007, +2.42872651014E+002, +1.66720077553E+003
+2.78569461827E+007, +2.42147266712E+002, +1.67338070444E+003
+2.79819774718E+007, +2.47334001495E+002, +1.70519693318E+003
+2.81070087610E+007, +2.50255674949E+002, +1.72379256384E+003
+2.82320400501E+007, +2.50371045062E+002, +1.74849386851E+003
+2.83570713392E+007, +2.65269503710E+002, +1.77313537915E+003
+2.84821026283E+007, +2.64593333324E+002, +1.79973923368E+003
+2.86071339174E+007, +2.67014946415E+002, +1.82504808647E+003
+2.87321652065E+007, +2.67423843771E+002, +1.82986782498E+003
+2.88571964956E+007, +2.74001043171E+002, +1.87474467040E+003
+2.89822277847E+007, +2.92007364279E+002, +1.90642441597E+003
+2.91072590738E+007, +2.80285379372E+002, +1.92428750551E+003
+2.92322903630E+007, +2.92240890570E+002, +1.96674659683E+003
+2.93573216521E+007, +2.96010112225E+002, +1.98944801213E+003
+2.94823529412E+007, +2.97593387415E+002, +2.01634693613E+003
+2.96073842303E+007, +3.12097852086E+002, +2.04483838157E+003
+2.97324155194E+007, +3.23037181593E+002, +2.08701498870E+003
+2.98574468085E+007, +3.35862750361E+002, +2.11357665610E+003
+2.99824780976E+007, +3.16515306997E+002, +2.13195712060E+003
+3.01075093867E+007, +3.40288114467E+002, +2.16777123935E+003
+3.02325406758E+007, +3.49160740746E+002, +2.18884118952E+003
+3.03575719650E+007, +3.55627760893E+002, +2.23714261625E+003
+3.04826032541E+007, +3.68949831778E+002, +2.27795670312E+003
+3.06076345432E+007, +3.67940846130E+002, +2.30297189733E+003
+3.07326658323E+007, +3.79156238124E+002, +2.33807341188E+003
+3.08576971214E+007, +3.92429032601E+002, +2.37797602424E+003
+3.09827284105E+007, +3.60329507456E+002, +2.43367246112E+003
+3.11077596996E+007, +4.21835649560E+002, +2.49198191948E+003
+3.12327909887E+007, +4.01829790423E+002, +2.50712211615E+003
+3.13578222778E+007, +4.14979782963E+002, +2.55206538482E+003
+3.14828535670E+007, +4.13413611257E+002, +2.63610369187E+003
+3.16078848561E+007, +4.62569081115E+002, +2.68338095366E+003
+3.17329161452E+007, +4.29637509238E+002, +2.72867234126E+003
+3.18579474343E+007, +4.57944714229E+002, +2.72581719716E+003
+3.19829787234E+007, +4.58995399113E+002, +2.81918645482E+003
+3.21080100125E+007, +4.96507332080E+002, +2.82448346076E+003
+3.22330413016E+007, +5.38189042745E+002, +2.90940427128E+003
+3.23580725907E+007, +5.20084916143E+002, +2.97652622949E+003
+3.24831038798E+007, +5.60632674207E+002, +3.01997265068E+003
+3.26081351690E+007, +5.76069994677E+002, +3.09327834639E+003
+3.27331664581E+007, +6.08138167595E+002, +3.14183625832E+003
+3.28581977472E+007, +5.63594459659E+002, +3.17409555133E+003
+3.29832290363E+007, +5.80196298368E+002, +3.28074727994E+003
+3.31082603254E+007, +6.17090409491E+002, +3.35818725318E+003
+3.32332916145E+007, +7.04492296156E+002, +3.41408160673E+003
+3.33583229036E+007, +7.24076980846E+002, +3.49526296741E+003
+3.34833541927E+007, +7.43780138928E+002, +3.57893798180E+003
+3.36083854819E+007, +7.40006875580E+002, +3.62637348719E+003
+3.37334167710E+007, +7.79875250807E+002, +3.73444326296E+003
+3.38584480601E+007, +8.28964990923E+002, +3.93195657601E+003
+3.39834793492E+007, +8.37940766610E+002, +3.95359441953E+003
+3.41085106383E+007, +9.28067896480E+002, +3.97442649460E+003
+3.42335419274E+007, +1.00987861491E+003, +4.07704341921E+003
+3.43585732165E+007, +8.86282656581E+002, +4.31061281974E+003
+3.44836045056E+007, +1.13509256636E+003, +4.41114466930E+003
+3.46086357947E+007, +1.08193487120E+003, +4.45486941735E+003
+3.47336670839E+007, +1.15309699329E+003, +4.57999742659E+003
+3.48586983730E+007, +1.18831111143E+003, +4.68872952922E+003
+3.49837296621E+007, +1.37294892983E+003, +4.87699953185E+003
+3.51087609512E+007, +1.49748347647E+003, +4.98795283934E+003
+3.52337922403E+007, +1.33511420089E+003, +5.16950147810E+003
+3.53588235294E+007, +1.55996174636E+003, +5.39940044354E+003
+3.54838548185E+007, +1.86146744726E+003, +5.40362074438E+003
+3.56088861076E+007, +1.89317786552E+003, +5.60300109730E+003
+3.57339173967E+007, +2.10774605407E+003, +5.99548810963E+003
+3.58589486859E+007, +2.34393075120E+003, +6.11429527785E+003
+3.59839799750E+007, +2.25166243684E+003, +6.52497287340E+003
+3.61090112641E+007, +2.51561380706E+003, +6.38453079705E+003
+3.62340425532E+007, +2.59945626385E+003, +6.77569409366E+003
+3.63590738423E+007, +3.05435959643E+003, +7.07769208331E+003
+3.64841051314E+007, +3.60959891384E+003, +7.46883871467E+003
+3.66091364205E+007, +3.50644922156E+003, +7.79757004826E+003
+3.67341677096E+007, +4.01144150731E+003, +7.83092954809E+003
+3.68591989987E+007, +4.44149042186E+003, +8.05669384553E+003
+3.69842302879E+007, +5.08702785818E+003, +8.14850167920E+003
+3.71092615770E+007, +5.97664229016E+003, +8.76978973503E+003
+3.72342928661E+007, +6.07303202563E+003, +8.65737355481E+003
+3.73593241552E+007, +6.89515984631E+003, +9.30365198216E+003
+3.74843554443E+007, +8.82928530565E+003, +9.77551373168E+003
+3.76093867334E+007, +8.90405486537E+003, +9.83257867023E+003
+3.77344180225E+007, +1.12528606212E+004, +9.86791686135E+003
+3.78594493116E+007, +1.03949008190E+004, +8.97232738602E+003
+3.79844806008E+007, +1.20673593450E+004, +8.39381471253E+003
+3.81095118899E+007, +1.36220787197E+004, +7.92992661127E+003
+3.82345431790E+007, +1.48345601502E+004, +7.72351131715E+003
+3.83595744681E+007, +1.72609462276E+004, +5.26020662267E+003
+3.84846057572E+007, +1.81101598041E+004, +2.72013191312E+003
+3.86096370463E+007, +1.85064799026E+004, +1.32128977623E+003
+3.87346683354E+007, +1.89337722678E+004, +4.40727986046E+002
+3.88596996245E+007, +1.90078854028E+004, -2.66277205936E+003
+3.89847309136E+007, +1.67251685560E+004, -5.10950727177E+003
+3.91097622028E+007, +1.68774502019E+004, -7.53963831709E+003
+3.92347934919E+007, +1.56655276694E+004, -7.09851379691E+003
+3.93598247810E+007, +1.35391503613E+004, -7.63415581480E+003
+3.94848560701E+007, +1.27526426854E+004, -8.44653807643E+003
+3.96098873592E+007, +1.09081972182E+004, -8.84269746476E+003
+3.97349186483E+007, +1.03694581993E+004, -8.48314579485E+003
+3.98599499374E+007, +8.18627872808E+003, -8.71778861690E+003
+3.99849812265E+007, +7.85943704097E+003, -8.30069487683E+003
+4.01100125156E+007, +6.53016036600E+003, -8.68402149889E+003
