"# Channel 1"
"# Trace 1"
Frequency, Formatted Data, Formatted Data
+1.00000000000E+005, +9.96449161357E+000, +3.46451157065E+000
+2.25031289111E+005, +1.00447505932E+001, +7.68323284389E+000
+3.50062578223E+005, +1.01435583190E+001, +1.18544734057E+001
+4.75093867334E+005, +1.02089123521E+001, +1.60719726131E+001
+6.00125156446E+005, +1.02246432144E+001, +2.01753521826E+001
+7.25156445557E+005, +1.02979210035E+001, +2.43616417093E+001
+8.50187734668E+005, +1.03352621804E+001, +2.84400969322E+001
+9.75219023780E+005, +1.03905498393E+001, +3.25614468678E+001
+1.10025031289E+006, +1.04600524450E+001, +3.67781731013E+001
+1.22528160200E+006, +1.05399615064E+001, +4.08621103778E+001
+1.35031289111E+006, +1.04798833334E+001, +4.49656520043E+001
+1.47534418023E+006, +1.05510241467E+001, +4.90871277308E+001
+1.60037546934E+006, +1.06034447828E+001, +5.31409854434E+001
+1.72540675845E+006, +1.06328688102E+001, +5.73498495625E+001
+1.85043804756E+006, +1.06488080095E+001, +6.14404390752E+001
+1.97546933667E+006, +1.07483045159E+001, +6.54818492667E+001
+2.10050062578E+006, +1.05858160318E+001, +6.97913553141E+001
+2.22553191489E+006, +1.07309669175E+001, +7.39222640784E+001
+2.35056320401E+006, +1.07140583567E+001, +7.80271551004E+001
+2.47559449312E+006, +1.08242182994E+001, +8.20948433144E+001
+2.60062578223E+006, +1.08061037344E+001, +8.63386996221E+001
+2.72565707134E+006, +1.08612860493E+001, +9.02765049268E+001
+2.85068836045E+006, +1.09862123392E+001, +9.44555988156E+001
+2.97571964956E+006, +1.06415923641E+001, +9.88453384663E+001
+3.10075093867E+006, +1.07766813799E+001, +1.03061046286E+002
+3.22578222778E+006, +1.08398914515E+001, +1.07243600847E+002
+3.35081351690E+006, +1.08045404465E+001, +1.11291385213E+002
+3.47584480601E+006, +1.09934341609E+001, +1.15772760569E+002
+3.60087609512E+006, +1.10032311361E+001, +1.19745614540E+002
+3.72590738423E+006, +1.11885218186E+001, +1.24028119934E+002
+3.85093867334E+006, +1.14059593339E+001, +1.28099952945E+002
+3.97596996245E+006, +1.15735194876E+001, +1.32157351738E+002
+4.10100125156E+006, +1.12073161741E+001, +1.36565008682E+002
+4.22603254068E+006, +1.13163933504E+001, +1.40958158836E+002
+4.35106382979E+006, +1.11271174993E+001, +1.45010697398E+002
+4.47609511890E+006, +1.12849882362E+001, +1.49169614157E+002
+4.60112640801E+006, +1.13762370227E+001, +1.53436227722E+002
+4.72615769712E+006, +1.15149651366E+001, +1.57867466362E+002
+4.85118898623E+006, +1.14872596496E+001, +1.61822081717E+002
+4.97622027534E+006, +1.19349556987E+001, +1.66668298221E+002
+5.10125156446E+006, +1.15081302322E+001, +1.70716119784E+002
+5.22628285357E+006, +1.17007146236E+001, +1.75162845292E+002
+5.35131414268E+006, +1.16317080353E+001, +1.79468783673E+002
+5.47634543179E+006, +1.21739804821E+001, +1.82978942241E+002
+5.60137672090E+006, +1.19844316772E+001, +1.87578103322E+002
+5.72640801001E+006, +1.27277511557E+001, +1.92207414785E+002
+5.85143929912E+006, +1.21283017659E+001, +1.96639293869E+002
+5.97647058824E+006, +1.22709129231E+001, +2.00807613016E+002
+6.10150187735E+006, +1.23297997389E+001, +2.05261197705E+002
+6.22653316646E+006, +1.31793650137E+001, +2.09943747662E+002
+6.35156445557E+006, +1.29822734426E+001, +2.13671964730E+002
+6.47659574468E+006, +1.32961228758E+001, +2.18142419844E+002
+6.60162703379E+006, +1.33498822507E+001, +2.22788648186E+002
+6.72665832290E+006, +1.33055953810E+001, +2.27258708816E+002
+6.85168961202E+006, +1.33839740674E+001, +2.31583630783E+002
+6.97672090113E+006, +1.38741311456E+001, +2.35982566766E+002
+7.10175219024E+006, +1.37994566218E+001, +2.40256572592E+002
+7.22678347935E+006, +1.36703524137E+001, +2.44863460401E+002
+7.35181476846E+006, +1.41151044351E+001, +2.49585643206E+002
+7.47684605757E+006, +1.38344202563E+001, +2.53865305194E+002
+7.60187734668E+006, +1.41548354370E+001, +2.57800268592E+002
+7.72690863579E+006, +1.42118562243E+001, +2.63098922965E+002
+7.85193992491E+006, +1.44663379096E+001, +2.67038678336E+002
+7.97697121402E+006, +1.41975492810E+001, +2.71651859569E+002
+8.10200250313E+006, +1.44355084203E+001, +2.76422873527E+002
+8.22703379224E+006, +1.44204022902E+001, +2.81078455566E+002
+8.35206508135E+006, +1.47478306474E+001, +2.85506448483E+002
+8.47709637046E+006, +1.45500006520E+001, +2.89861209073E+002
+8.60212765957E+006, +1.43746552138E+001, +2.94953455824E+002
+8.72715894869E+006, +1.44210945227E+001, +2.99073270300E+002
+8.85219023780E+006, +1.44892926676E+001, +3.04231458198E+002
+8.97722152691E+006, +1.46186996929E+001, +3.08531638267E+002
+9.10225281602E+006, +1.46637975829E+001, +3.13645876293E+002
+9.22728410513E+006, +1.41589010390E+001, +3.18624856088E+002
+9.35231539424E+006, +1.48926651874E+001, +3.22572885648E+002
+9.47734668335E+006, +1.49307520168E+001, +3.27757997731E+002
+9.60237797247E+006, +1.46456100303E+001, +3.32200405196E+002
+9.72740926158E+006, +1.47063734737E+001, +3.37559431406E+002
+9.85244055069E+006, +1.43000656436E+001, +3.42147670529E+002
+9.97747183980E+006, +1.46675070845E+001, +3.47979522470E+002
+1.01025031289E+007, +1.44736241616E+001, +3.52539753742E+002
+1.02275344180E+007, +1.48258707986E+001, +3.56904721680E+002
+1.03525657071E+007, +1.52315095208E+001, +3.62028445209E+002
+1.04775969962E+007, +1.54655872883E+001, +3.66988266805E+002
+1.06026282854E+007, +1.47989214582E+001, +3.72106966305E+002
+1.07276595745E+007, +1.49818528311E+001, +3.77190259175E+002
+1.08526908636E+007, +1.48352061078E+001, +3.81262560349E+002
+1.09777221527E+007, +1.53106289582E+001, +3.87177983411E+002
+1.11027534418E+007, +1.47262376585E+001, +3.91565013987E+002
+1.12277847309E+007, +1.57900482679E+001, +3.96516221018E+002
+1.13528160200E+007, +1.58627168628E+001, +4.01710427824E+002
+1.14778473091E+007, +1.50067211748E+001, +4.07904886908E+002
+1.16028785982E+007, +1.57477956289E+001, +4.13480034528E+002
+1.17279098874E+007, +1.49395797641E+001, +4.18768777703E+002
+1.18529411765E+007, +1.63731776354E+001, +4.23920934509E+002
+1.19779724656E+007, +1.56734327451E+001, +4.29104614963E+002
+1.21030037547E+007, +1.58588487251E+001, +4.35605191215E+002
+1.22280350438E+007, +1.52840081579E+001, +4.40139542093E+002
+1.23530663329E+007, +1.55220438366E+001, +4.45363059921E+002
+1.24780976220E+007, +1.58083678816E+001, +4.49978353972E+002
+1.26031289111E+007, +1.63044700755E+001, +4.55081436574E+002
+1.27281602003E+007, +1.59354053683E+001, +4.61840768022E+002
+1.28531914894E+007, +1.59880100535E+001, +4.67584371308E+002
+1.29782227785E+007, +1.55989369342E+001, +4.74215807468E+002
+1.31032540676E+007, +1.66333657972E+001, +4.79253667822E+002
+1.32282853567E+007, +1.66810696598E+001, +4.83431578519E+002
+1.33533166458E+007, +1.77297769149E+001, +4.90612248937E+002
+1.34783479349E+007, +1.67971030557E+001, +4.95909655122E+002
+1.36033792240E+007, +1.73994427134E+001, +4.99966299320E+002
+1.37284105131E+007, +1.70311209026E+001, +5.08008534636E+002
+1.38534418023E+007, +1.73020983599E+001, +5.13369038739E+002
+1.39784730914E+007, +1.78491560443E+001, +5.17901352194E+002
+1.41035043805E+007, +1.73228184246E+001, +5.24892736983E+002
+1.42285356696E+007, +1.78479543076E+001, +5.31053038438E+002
+1.43535669587E+007, +1.66379606795E+001, +5.38049327375E+002
+1.44785982478E+007, +1.86494873746E+001, +5.42332629171E+002
+1.46036295369E+007, +1.84853207421E+001, +5.49937313107E+002
+1.47286608260E+007, +1.78862948589E+001, +5.54788617419E+002
+1.48536921151E+007, +1.87726238322E+001, +5.62100993475E+002
+1.49787234043E+007, +1.98961858532E+001, +5.67320887661E+002
+1.51037546934E+007, +1.75111510965E+001, +5.74017898878E+002
+1.52287859825E+007, +1.75438829789E+001, +5.80472122261E+002
+1.53538172716E+007, +1.73661698685E+001, +5.85350363251E+002
+1.54788485607E+007, +1.79574434521E+001, +5.93497209854E+002
+1.56038798498E+007, +1.95611356735E+001, +6.00600021617E+002
+1.57289111389E+007, +1.92072350668E+001, +6.05312726266E+002
+1.58539424280E+007, +1.78118776215E+001, +6.14195749339E+002
+1.59789737171E+007, +2.06441022727E+001, +6.20297601469E+002
+1.61040050063E+007, +1.86064789684E+001, +6.25214804686E+002
+1.62290362954E+007, +2.00566426789E+001, +6.32397684842E+002
+1.63540675845E+007, +1.91621531266E+001, +6.39744052515E+002
+1.64790988736E+007, +1.95762680603E+001, +6.45721260682E+002
+1.66041301627E+007, +2.14923805170E+001, +6.53376686760E+002
+1.67291614518E+007, +2.00311000366E+001, +6.62604249815E+002
+1.68541927409E+007, +2.17422838331E+001, +6.69268037941E+002
+1.69792240300E+007, +2.17356306283E+001, +6.72693735951E+002
+1.71042553191E+007, +1.85449872356E+001, +6.83352704834E+002
+1.72292866083E+007, +2.03146725973E+001, +6.92305520366E+002
+1.73543178974E+007, +1.99112907087E+001, +6.96500416898E+002
+1.74793491865E+007, +1.93037040197E+001, +7.04903580961E+002
+1.76043804756E+007, +1.97302618273E+001, +7.13392199044E+002
+1.77294117647E+007, +2.00061718935E+001, +7.21854112472E+002
+1.78544430538E+007, +1.88709830307E+001, +7.28597777092E+002
+1.79794743429E+007, +2.03767995867E+001, +7.37272729544E+002
+1.81045056320E+007, +2.10053710827E+001, +7.44895508905E+002
+1.82295369212E+007, +2.45496782398E+001, +7.50267459061E+002
+1.83545682103E+007, +2.07636729385E+001, +7.60327097430E+002
+1.84795994994E+007, +2.30718095470E+001, +7.67636839284E+002
+1.86046307885E+007, +2.29694404213E+001, +7.73843846532E+002
+1.87296620776E+007, +2.54319862877E+001, +7.86832758190E+002
+1.88546933667E+007, +2.27991236356E+001, +7.90956563126E+002
+1.89797246558E+007, +2.38438840674E+001, +8.01428006945E+002
+1.91047559449E+007, +2.68736259398E+001, +8.08613437717E+002
+1.92297872340E+007, +2.94784310737E+001, +8.19617462597E+002
+1.93548185232E+007, +2.48265147135E+001, +8.27404984526E+002
+1.94798498123E+007, +2.52999427541E+001, +8.35108073851E+002
+1.96048811014E+007, +2.53767214471E+001, +8.43624777131E+002
+1.97299123905E+007, +2.70272919141E+001, +8.54403935954E+002
+1.98549436796E+007, +2.56102920361E+001, +8.62506034876E+002
+1.99799749687E+007, +2.96894760642E+001, +8.73522241233E+002
+2.01050062578E+007, +3.21502344442E+001, +8.86501703577E+002
+2.02300375469E+007, +2.74546586732E+001, +8.92701585380E+002
+2.03550688360E+007, +3.07787590930E+001, +9.03170049696E+002
+2.04801001252E+007, +2.76609343384E+001, +9.10827499689E+002
+2.06051314143E+007, +3.10456298735E+001, +9.22690791157E+002
+2.07301627034E+007, +3.44215482344E+001, +9.33742626309E+002
+2.08551939925E+007, +2.71862425198E+001, +9.43034580265E+002
+2.09802252816E+007, +3.19285171839E+001, +9.49017398995E+002
+2.11052565707E+007, +3.38359666767E+001, +9.55751805696E+002
+2.12302878598E+007, +3.91643713392E+001, +9.70561970804E+002
+2.13553191489E+007, +3.81080404645E+001, +9.76885167677E+002
+2.14803504380E+007, +3.82850996121E+001, +9.91317513032E+002
+2.16053817272E+007, +4.32194316914E+001, +9.97140730880E+002
+2.17304130163E+007, +4.11555208983E+001, +1.01330604750E+003
+2.18554443054E+007, +5.07120958164E+001, +1.02219442100E+003
+2.19804755945E+007, +4.84960819670E+001, +1.03660382935E+003
+2.21055068836E+007, +4.70825794153E+001, +1.04924210821E+003
+2.22305381727E+007, +4.78270703146E+001, +1.06110385516E+003
+2.23555694618E+007, +5.11552801452E+001, +1.07594850526E+003
+2.24806007509E+007, +5.29506354929E+001, +1.08388497263E+003
+2.26056320401E+007, +5.89039496734E+001, +1.09085045082E+003
+2.27306633292E+007, +6.50526734918E+001, +1.10436909957E+003
+2.28556946183E+007, +5.72579765586E+001, +1.11491097129E+003
+2.29807259074E+007, +6.82041534857E+001, +1.13085447356E+003
+2.31057571965E+007, +6.69365638006E+001, +1.13246560031E+003
+2.32307884856E+007, +7.16203941854E+001, +1.15183656059E+003
+2.33558197747E+007, +7.35133721365E+001, +1.16645400627E+003
+2.34808510638E+007, +7.41119739881E+001, +1.18152274773E+003
+2.36058823529E+007, +7.42807816194E+001, +1.18400620596E+003
+2.37309136421E+007, +7.79381619557E+001, +1.19543062491E+003
+2.38559449312E+007, +8.14347927016E+001, +1.19851557898E+003
+2.39809762203E+007, +8.06821812706E+001, +1.21955774994E+003
+2.41060075094E+007, +8.28486238160E+001, +1.21942203266E+003
+2.42310387985E+007, +8.52881216212E+001, +1.23599299522E+003
+2.43560700876E+007, +8.10514228445E+001, +1.25965920702E+003
+2.44811013767E+007, +9.05322801878E+001, +1.25982327506E+003
+2.46061326658E+007, +8.79716368574E+001, +1.27805025928E+003
+2.47311639549E+007, +7.56152384084E+001, +1.29382592733E+003
+2.48561952441E+007, +8.26174194148E+001, +1.30029044072E+003
+2.49812265332E+007, +8.06311727902E+001, +1.31670504468E+003
+2.51062578223E+007, +7.62148081736E+001, +1.35173637750E+003
+2.52312891114E+007, +7.73500472934E+001, +1.35007800830E+003
+2.53563204005E+007, +7.84551860441E+001, +1.36693608890E+003
+2.54813516896E+007, +8.44951961954E+001, +1.39905876752E+003
+2.56063829787E+007, +8.71228752213E+001, +1.40050847946E+003
+2.57314142678E+007, +9.07140733575E+001, +1.41472088149E+003
+2.58564455569E+007, +9.47647028713E+001, +1.44291042302E+003
+2.59814768461E+007, +7.91512170350E+001, +1.46212197694E+003
+2.61065081352E+007, +8.25409228826E+001, +1.47333828683E+003
+2.62315394243E+007, +9.21955011122E+001, +1.49507759759E+003
+2.63565707134E+007, +8.86602956829E+001, +1.51678691185E+003
+2.64816020025E+007, +9.50821370283E+001, +1.52964809476E+003
+2.66066332916E+007, +9.32174264187E+001, +1.55183949816E+003
+2.67316645807E+007, +1.02664636202E+002, +1.57150965459E+003
+2.68566958698E+007, +9.31838973280E+001, +1.59168912158E+003
+2.69817271589E+007, +9.88312122564E+001, +1.61506241909E+003
+2.71067584481E+007, +9.80879447597E+001, +1.63819384712E+003
+2.72317897372E+007, +1.05172049944E+002, +1.67054223278E+003
+2.73568210263E+007, +9.63029217170E+001, +1.68381171923E+003
+2.74818523154E+007, +1.00597409700E+002, +1.70646865475E+003
+2.76068836045E+007, +1.00563158899E+002, +1.72372310891E+003
+2.77319148936E+007, +1.07517759048E+002, +1.75415524450E+003
+2.78569461827E+007, +1.11668871950E+002, +1.78214978422E+003
+2.79819774718E+007, +1.22090312754E+002, +1.80717726142E+003
+2.81070087610E+007, +1.30033742604E+002, +1.83493666095E+003
+2.82320400501E+007, +1.21813514823E+002, +1.86944325343E+003
+2.83570713392E+007, +1.30087239105E+002, +1.87323585432E+003
+2.84821026283E+007, +1.25365483400E+002, +1.91478126864E+003
+2.86071339174E+007, +1.31235153632E+002, +1.94838835758E+003
+2.87321652065E+007, +1.36060481685E+002, +1.97138708336E+003
+2.88571964956E+007, +1.57453650628E+002, +2.01049448583E+003
+2.89822277847E+007, +1.60456534954E+002, +2.03386160803E+003
+2.91072590738E+007, +1.55266896561E+002, +2.05623584726E+003
+2.92322903630E+007, +1.56073488718E+002, +2.08688555163E+003
+2.93573216521E+007, +1.26181423475E+002, +2.14890725972E+003
+2.94823529412E+007, +1.62479232704E+002, +2.15196462449E+003
+2.96073842303E+007, +1.49079344191E+002, +2.19511427563E+003
+2.97324155194E+007, +1.62853792909E+002, +2.24031962659E+003
+2.98574468085E+007, +1.78209653740E+002, +2.27333341761E+003
+2.99824780976E+007, +1.67216378368E+002, +2.31180287329E+003
+3.01075093867E+007, +1.97202010163E+002, +2.37857589055E+003
+3.02325406758E+007, +2.16230511631E+002, +2.39773598573E+003
+3.03575719650E+007, +2.05727109424E+002, +2.44811674924E+003
+3.04826032541E+007, +2.03321156185E+002, +2.46217222557E+003
+3.06076345432E+007, +2.22553401235E+002, +2.55845808639E+003
+3.07326658323E+007, +2.11579779502E+002, +2.54858162100E+003
+3.08576971214E+007, +1.90831727548E+002, +2.62963090744E+003
+3.09827284105E+007, +2.19959744267E+002, +2.66313721467E+003
+3.11077596996E+007, +1.97436305149E+002, +2.70765664306E+003
+3.12327909887E+007, +2.54741436649E+002, +2.80165657382E+003
+3.13578222778E+007, +2.38596971008E+002, +2.84363877402E+003
+3.14828535670E+007, +2.57700648235E+002, +2.89910468544E+003
+3.16078848561E+007, +3.00151645188E+002, +2.94713838627E+003
+3.17329161452E+007, +3.04704509072E+002, +3.01225884790E+003
+3.18579474343E+007, +2.76664623780E+002, +3.10680638798E+003
+3.19829787234E+007, +3.10796471226E+002, +3.12321564275E+003
+3.21080100125E+007, +3.30740060768E+002, +3.23872456220E+003
+3.22330413016E+007, +3.67297992220E+002, +3.27110471351E+003
+3.23580725907E+007, +3.53731815159E+002, +3.38391705559E+003
+3.24831038798E+007, +4.03792846120E+002, +3.45477943995E+003
+3.26081351690E+007, +3.83841727610E+002, +3.50920066569E+003
+3.27331664581E+007, +3.67510337891E+002, +3.61979618478E+003
+3.28581977472E+007, +4.57855991520E+002, +3.64775472902E+003
+3.29832290363E+007, +4.67903773292E+002, +3.83761980311E+003
+3.31082603254E+007, +4.53260476391E+002, +3.96991574729E+003
+3.32332916145E+007, +4.90815703328E+002, +4.06854534129E+003
+3.33583229036E+007, +4.68952945916E+002, +4.10504414743E+003
+3.34833541927E+007, +5.50052857471E+002, +4.22368696003E+003
+3.36083854819E+007, +5.72019259228E+002, +4.33467910990E+003
+3.37334167710E+007, +5.57194978099E+002, +4.51267007913E+003
+3.38584480601E+007, +6.44292927396E+002, +4.63866671778E+003
+3.39834793492E+007, +6.97150836512E+002, +4.81948140561E+003
+3.41085106383E+007, +6.61402140144E+002, +5.00983024535E+003
+3.42335419274E+007, +9.32313568731E+002, +5.13236060824E+003
+3.43585732165E+007, +7.90118846092E+002, +5.35260633884E+003
+3.44836045056E+007, +9.95873890560E+002, +5.44471989441E+003
+3.46086357947E+007, +9.07762910526E+002, +5.75952166525E+003
+3.47336670839E+007, +1.07429009847E+003, +5.96884224625E+003
+3.48586983730E+007, +1.23385218009E+003, +6.14330686984E+003
+3.49837296621E+007, +1.20015647324E+003, +6.46796968043E+003
+3.51087609512E+007, +1.47255749718E+003, +6.64693288596E+003
+3.52337922403E+007, +1.44239795943E+003, +7.29794399275E+003
+3.53588235294E+007, +1.94807262183E+003, +7.21553936675E+003
+3.54838548185E+007, +1.86421554266E+003, +7.61689792984E+003
+3.56088861076E+007, +2.29088427027E+003, +7.93647653248E+003
+3.57339173967E+007, +2.24839924476E+003, +8.43523419360E+003
+3.58589486859E+007, +2.73769487395E+003, +8.79809949362E+003
+3.59839799750E+007, +3.39057741402E+003, +9.57348956341E+003
+3.61090112641E+007, +3.60119507389E+003, +9.24856421249E+003
+3.62340425532E+007, +4.08942391346E+003, +1.02955998763E+004
+3.63590738423E+007, +4.73418956891E+003, +1.17732419694E+004
+3.64841051314E+007, +6.66261162641E+003, +1.10894829631E+004
+3.66091364205E+007, +7.83541457752E+003, +1.27009089277E+004
+3.67341677096E+007, +8.75545102426E+003, +1.25705874819E+004
+3.68591989987E+007, +1.06419362486E+004, +1.22785879711E+004
+3.69842302879E+007, +1.34932401221E+004, +1.44802922298E+004
+3.71092615770E+007, +1.51106901622E+004, +1.21285992029E+004
+3.72342928661E+007, +1.84078017254E+004, +1.28898271505E+004
+3.73593241552E+007, +2.48778045978E+004, +1.06298334803E+004
+3.74843554443E+007, +2.30559111255E+004, +1.06844386228E+004
+3.76093867334E+007, +2.56795298447E+004, +5.87140622509E+003
+3.77344180225E+007, +2.11144577543E+004, +3.69109473846E+002
+3.78594493116E+007, +2.67633772724E+004, -9.13167473155E+001
+3.79844806008E+007, +2.48173269433E+004, -6.58534668599E+003
+3.81095118899E+007, +2.04234945310E+004, -6.87241406961E+003
+3.82345431790E+007, +1.69682377764E+004, -1.22504611148E+004
+3.83595744681E+007, +1.45639120260E+004, -1.12933512360E+004
+3.84846057572E+007, +1.28923942141E+004, -1.11973122824E+004
+3.86096370463E+007, +1.23169969633E+004, -1.11272167292E+004
+3.87346683354E+007, +1.02189410528E+004, -1.09049877919E+004
+3.88596996245E+007, +8.61694490827E+003, -1.00434586967E+004
+3.89847309136E+007, +8.24614285717E+003, -1.12733573890E+004
+3.91097622028E+007, +7.55229113580E+003, -1.07497457323E+004
+3.92347934919E+007, +6.50909498925E+003, -9.38756116481E+003
+3.93598247810E+007, +5.19329640907E+003, -9.24104915261E+003
+3.94848560701E+007, +5.13572096765E+003, -9.02991264612E+003
+3.96098873592E+007, +5.00296837305E+003, -8.22858308380E+003
+3.97349186483E+007, +4.05770379046E+003, -8.42417573442E+003
+3.98599499374E+007, +3.45617057171E+003, -7.78579815729E+003
+3.99849812265E+007, +3.40853292050E+003, -7.54634812587E+003
+4.01100125156E+007, +2.75791560899E+003, -7.46408521283E+003
