"# Channel 1"
"# Trace 1"
Frequency, Formatted Data, Formatted Data
+1.00000000000E+005, +5.12787987002E+001, +3.46674416671E+000
+2.87609511890E+005, +5.09805197731E+001, +1.00304518930E+001
+4.75219023780E+005, +5.11151342070E+001, +1.66297419682E+001
+6.62828535670E+005, +5.11523272945E+001, +2.30046472997E+001
+8.50438047559E+005, +5.11430444511E+001, +2.94492602542E+001
+1.03804755945E+006, +5.11024727529E+001, +3.60822961311E+001
+1.22565707134E+006, +5.12597081582E+001, +4.25006596116E+001
+1.41326658323E+006, +5.13408112315E+001, +4.88626135352E+001
+1.60087609512E+006, +5.14360353726E+001, +5.54020689168E+001
+1.78848560701E+006, +5.14188728251E+001, +6.19188495106E+001
+1.97609511890E+006, +5.15715233859E+001, +6.85062760877E+001
+2.16370463079E+006, +5.15106409794E+001, +7.50742284330E+001
+2.35131414268E+006, +5.16949598521E+001, +8.14775616561E+001
+2.53892365457E+006, +5.15190941457E+001, +8.77983518072E+001
+2.72653316646E+006, +5.17212944927E+001, +9.44958970369E+001
+2.91414267835E+006, +5.18172316584E+001, +1.01024225431E+002
+3.10175219024E+006, +5.18330718583E+001, +1.07428615791E+002
+3.28936170213E+006, +5.18428764926E+001, +1.13408047749E+002
+3.47697121402E+006, +5.19501189555E+001, +1.20205563274E+002
+3.66458072591E+006, +5.22026559666E+001, +1.27379739002E+002
+3.85219023780E+006, +5.20204750181E+001, +1.33189884811E+002
+4.03979974969E+006, +5.22898492970E+001, +1.40100424578E+002
+4.22740926158E+006, +5.24690524124E+001, +1.46547463155E+002
+4.41501877347E+006, +5.23864064257E+001, +1.53121352531E+002
+4.60262828536E+006, +5.24677485748E+001, +1.59801437778E+002
+4.79023779725E+006, +5.29190791078E+001, +1.66270032094E+002
+4.97784730914E+006, +5.27600341176E+001, +1.72869835856E+002
+5.16545682103E+006, +5.26025804853E+001, +1.79795330792E+002
+5.35306633292E+006, +5.27155843241E+001, +1.85835564351E+002
+5.54067584481E+006, +5.31643074752E+001, +1.93296185469E+002
+5.72828535670E+006, +5.31464925748E+001, +1.99932236095E+002
+5.91589486859E+006, +5.35652241970E+001, +2.06481000805E+002
+6.10350438048E+006, +5.38364453255E+001, +2.12321349797E+002
+6.29111389237E+006, +5.41443833694E+001, +2.19314964089E+002
+6.47872340426E+006, +5.42981105382E+001, +2.26417313291E+002
+6.66633291615E+006, +5.44477834559E+001, +2.33433691856E+002
+6.85394242804E+006, +5.46724213612E+001, +2.39929235249E+002
+7.04155193992E+006, +5.47955753867E+001, +2.46213862603E+002
+7.22916145181E+006, +5.51325681935E+001, +2.53447247118E+002
+7.41677096370E+006, +5.51128248588E+001, +2.60285067375E+002
+7.60438047559E+006, +5.56917453838E+001, +2.67600261445E+002
+7.79198998748E+006, +5.57417205133E+001, +2.74080405305E+002
+7.97959949937E+006, +5.59909843465E+001, +2.81268941160E+002
+8.16720901126E+006, +5.58884055430E+001, +2.88342484421E+002
+8.35481852315E+006, +5.63554706469E+001, +2.95369537589E+002
+8.54242803504E+006, +5.66708588707E+001, +3.02772955722E+002
+8.73003754693E+006, +5.64841541995E+001, +3.09625352036E+002
+8.91764705882E+006, +5.65979008631E+001, +3.16511244925E+002
+9.10525657071E+006, +5.69927757646E+001, +3.24163878288E+002
+9.29286608260E+006, +5.73275300229E+001, +3.31205163910E+002
+9.48047559449E+006, +5.77268096645E+001, +3.38094528142E+002
+9.66808510638E+006, +5.74167881035E+001, +3.45530376941E+002
+9.85569461827E+006, +5.71882245210E+001, +3.52792148965E+002
+1.00433041302E+007, +5.86304456607E+001, +3.59953669704E+002
+1.02309136421E+007, +5.81311880767E+001, +3.67295020843E+002
+1.04185231539E+007, +5.82468999699E+001, +3.74600504460E+002
+1.06061326658E+007, +5.83748367050E+001, +3.81588589599E+002
+1.07937421777E+007, +5.80257398585E+001, +3.88823304177E+002
+1.09813516896E+007, +5.88980088891E+001, +3.97041195283E+002
+1.11689612015E+007, +5.99083986688E+001, +4.04443993933E+002
+1.13565707134E+007, +5.91379261957E+001, +4.12483673630E+002
+1.15441802253E+007, +5.92987891446E+001, +4.20006929164E+002
+1.17317897372E+007, +6.00064873915E+001, +4.28122214527E+002
+1.19193992491E+007, +6.07916991802E+001, +4.35937003022E+002
+1.21070087610E+007, +6.00179421506E+001, +4.43003247837E+002
+1.22946182728E+007, +6.07619148866E+001, +4.51378559598E+002
+1.24822277847E+007, +5.92435510599E+001, +4.59053628728E+002
+1.26698372966E+007, +6.08013977998E+001, +4.67683408407E+002
+1.28574468085E+007, +6.12920999141E+001, +4.74013348447E+002
+1.30450563204E+007, +6.24161032136E+001, +4.83681568219E+002
+1.32326658323E+007, +6.19690025337E+001, +4.90748311733E+002
+1.34202753442E+007, +6.23993036586E+001, +5.00394923092E+002
+1.36078848561E+007, +6.27368453657E+001, +5.06707175419E+002
+1.37954943680E+007, +6.30434950838E+001, +5.15137984476E+002
+1.39831038798E+007, +6.41074138777E+001, +5.26044370268E+002
+1.41707133917E+007, +6.28597481024E+001, +5.32215611800E+002
+1.43583229036E+007, +6.40298764837E+001, +5.42160478757E+002
+1.45459324155E+007, +6.46068830053E+001, +5.48524472188E+002
+1.47335419274E+007, +6.46445443351E+001, +5.59466949661E+002
+1.49211514393E+007, +6.50543432654E+001, +5.67345928443E+002
+1.51087609512E+007, +6.68824314020E+001, +5.76750997370E+002
+1.52963704631E+007, +6.67198827519E+001, +5.84336277593E+002
+1.54839799750E+007, +6.69384758136E+001, +5.95463894306E+002
+1.56715894869E+007, +6.71900042694E+001, +6.02881750055E+002
+1.58591989987E+007, +6.64418530802E+001, +6.11372712361E+002
+1.60468085106E+007, +6.54906467176E+001, +6.20918287459E+002
+1.62344180225E+007, +6.54365980571E+001, +6.28865236879E+002
+1.64220275344E+007, +6.88873414212E+001, +6.39888604883E+002
+1.66096370463E+007, +6.95888323925E+001, +6.52051745837E+002
+1.67972465582E+007, +6.89209775287E+001, +6.58150175750E+002
+1.69848560701E+007, +7.20731394844E+001, +6.69066039951E+002
+1.71724655820E+007, +6.93581018423E+001, +6.80366211763E+002
+1.73600750939E+007, +6.87998165682E+001, +6.87179083692E+002
+1.75476846058E+007, +6.97993053019E+001, +6.97510508388E+002
+1.77352941176E+007, +7.16825523962E+001, +7.09094851130E+002
+1.79229036295E+007, +7.23630257755E+001, +7.19650707025E+002
+1.81105131414E+007, +7.14441369905E+001, +7.28665620135E+002
+1.82981226533E+007, +7.25040954425E+001, +7.39423747599E+002
+1.84857321652E+007, +7.41165136446E+001, +7.50402471397E+002
+1.86733416771E+007, +7.73638067759E+001, +7.59742598548E+002
+1.88609511890E+007, +7.54474061443E+001, +7.70873894975E+002
+1.90485607009E+007, +8.02723587752E+001, +7.82305346350E+002
+1.92361702128E+007, +7.95899410211E+001, +7.92891469806E+002
+1.94237797247E+007, +7.90020714870E+001, +8.01902031204E+002
+1.96113892365E+007, +7.87848910245E+001, +8.16422801717E+002
+1.97989987484E+007, +8.29426860108E+001, +8.24904653740E+002
+1.99866082603E+007, +8.27688602615E+001, +8.35690418072E+002
+2.01742177722E+007, +8.38220978170E+001, +8.48837077024E+002
+2.03618272841E+007, +8.39844462065E+001, +8.63422334135E+002
+2.05494367960E+007, +8.65044716077E+001, +8.71041655146E+002
+2.07370463079E+007, +8.57924942192E+001, +8.80117358207E+002
+2.09246558198E+007, +8.83768778331E+001, +8.98983899837E+002
+2.11122653317E+007, +8.75718894172E+001, +9.11961774385E+002
+2.12998748436E+007, +9.12802651311E+001, +9.20325727589E+002
+2.14874843554E+007, +9.08139815478E+001, +9.36043558150E+002
+2.16750938673E+007, +9.34555809302E+001, +9.51312156078E+002
+2.18627033792E+007, +9.23139666330E+001, +9.64209111991E+002
+2.20503128911E+007, +9.66903148321E+001, +9.75685500895E+002
+2.22379224030E+007, +9.91741784092E+001, +9.89507683256E+002
+2.24255319149E+007, +9.56454045655E+001, +9.99157507170E+002
+2.26131414268E+007, +9.87154370405E+001, +1.01677492676E+003
+2.28007509387E+007, +1.01464695630E+002, +1.02784435955E+003
+2.29883604506E+007, +1.04855959584E+002, +1.04271136064E+003
+2.31759699625E+007, +1.13286949206E+002, +1.05261779835E+003
+2.33635794743E+007, +1.14327089229E+002, +1.07136935969E+003
+2.35511889862E+007, +1.15872242212E+002, +1.08785819530E+003
+2.37387984981E+007, +1.20531303950E+002, +1.10031611093E+003
+2.39264080100E+007, +1.25202661920E+002, +1.11827512155E+003
+2.41140175219E+007, +1.29088395970E+002, +1.13667822120E+003
+2.43016270338E+007, +1.24696633973E+002, +1.14244032808E+003
+2.44892365457E+007, +1.32730007532E+002, +1.16001573416E+003
+2.46768460576E+007, +1.44183843252E+002, +1.17722959467E+003
+2.48644555695E+007, +1.34564887353E+002, +1.18527296616E+003
+2.50520650814E+007, +1.40584213879E+002, +1.19680471169E+003
+2.52396745932E+007, +1.40951108230E+002, +1.21228514712E+003
+2.54272841051E+007, +1.54260084003E+002, +1.23012173319E+003
+2.56148936170E+007, +1.36159148568E+002, +1.24896778365E+003
+2.58025031289E+007, +1.48822949212E+002, +1.25663921418E+003
+2.59901126408E+007, +1.50771699683E+002, +1.27489440470E+003
+2.61777221527E+007, +1.57407060421E+002, +1.29452544545E+003
+2.63653316646E+007, +1.54388424688E+002, +1.30924725837E+003
+2.65529411765E+007, +1.49946145569E+002, +1.32495776473E+003
+2.67405506884E+007, +1.56438696464E+002, +1.34330465637E+003
+2.69281602003E+007, +1.49023785443E+002, +1.35769255283E+003
+2.71157697121E+007, +1.55822969400E+002, +1.38414066753E+003
+2.73033792240E+007, +1.49382660755E+002, +1.40265813312E+003
+2.74909887359E+007, +1.54867853773E+002, +1.42189832295E+003
+2.76785982478E+007, +1.59098061375E+002, +1.45233921763E+003
+2.78662077597E+007, +1.60647226551E+002, +1.45719369535E+003
+2.80538172716E+007, +1.69858507586E+002, +1.49373441332E+003
+2.82414267835E+007, +1.64627461825E+002, +1.51873725806E+003
+2.84290362954E+007, +1.79345752571E+002, +1.52702694299E+003
+2.86166458073E+007, +1.67269609277E+002, +1.56012694578E+003
+2.88042553191E+007, +1.72687851883E+002, +1.59725266955E+003
+2.89918648310E+007, +1.75337553928E+002, +1.61883275324E+003
+2.91794743429E+007, +1.84127897590E+002, +1.62554536895E+003
+2.93670838548E+007, +1.82882821590E+002, +1.66307089232E+003
+2.95546933667E+007, +1.79869256657E+002, +1.69169078086E+003
+2.97423028786E+007, +1.92225483294E+002, +1.71935042325E+003
+2.99299123905E+007, +1.90468325806E+002, +1.74538512287E+003
+3.01175219024E+007, +1.85651620129E+002, +1.77997804566E+003
+3.03051314143E+007, +1.99335294235E+002, +1.80534445062E+003
+3.04927409262E+007, +1.78328741599E+002, +1.85605478120E+003
+3.06803504380E+007, +2.00984289786E+002, +1.87105131124E+003
+3.08679599499E+007, +1.94820375962E+002, +1.90907239900E+003
+3.10555694618E+007, +2.07139271457E+002, +1.93559099178E+003
+3.12431789737E+007, +2.26718300679E+002, +1.97880674774E+003
+3.14307884856E+007, +2.27921325473E+002, +2.02130188509E+003
+3.16183979975E+007, +2.21681982495E+002, +2.04336129543E+003
+3.18060075094E+007, +2.23675052811E+002, +2.08333163565E+003
+3.19936170213E+007, +2.49558811881E+002, +2.11385231771E+003
+3.21812265332E+007, +2.77192083979E+002, +2.15535137744E+003
+3.23688360451E+007, +2.53436918484E+002, +2.21104151753E+003
+3.25564455569E+007, +2.77205917435E+002, +2.22919076049E+003
+3.27440550688E+007, +3.00489888449E+002, +2.30216682864E+003
+3.29316645807E+007, +3.13880824690E+002, +2.34180953540E+003
+3.31192740926E+007, +2.81824327045E+002, +2.38884188041E+003
+3.33068836045E+007, +2.78643724511E+002, +2.43652772397E+003
+3.34944931164E+007, +3.37091604636E+002, +2.49815645222E+003
+3.36821026283E+007, +3.38528010205E+002, +2.52892089838E+003
+3.38697121402E+007, +3.10851626938E+002, +2.60912436517E+003
+3.40573216521E+007, +3.05864715782E+002, +2.66232579356E+003
+3.42449311640E+007, +3.68310405826E+002, +2.67345431890E+003
+3.44325406758E+007, +3.72268365701E+002, +2.79391918704E+003
+3.46201501877E+007, +3.75850634402E+002, +2.82543413813E+003
+3.48077596996E+007, +4.38029934278E+002, +2.91533019933E+003
+3.49953692115E+007, +4.64127412736E+002, +2.99975106852E+003
+3.51829787234E+007, +4.41447231168E+002, +3.00100055001E+003
+3.53705882353E+007, +4.59730506272E+002, +3.10802260440E+003
+3.55581977472E+007, +5.03450009096E+002, +3.24389042218E+003
+3.57458072591E+007, +5.47111470375E+002, +3.27776418492E+003
+3.59334167710E+007, +5.35189884861E+002, +3.35786113726E+003
+3.61210262829E+007, +5.88748972201E+002, +3.44683171551E+003
+3.63086357947E+007, +6.13329848926E+002, +3.47813661566E+003
+3.64962453066E+007, +6.39448750188E+002, +3.57384122846E+003
+3.66838548185E+007, +6.71020958722E+002, +3.77444459402E+003
+3.68714643304E+007, +7.06394066182E+002, +3.80766216260E+003
+3.70590738423E+007, +7.03498873595E+002, +3.94454555971E+003
+3.72466833542E+007, +7.62137130296E+002, +3.99994834389E+003
+3.74342928661E+007, +8.09739803981E+002, +4.10523833270E+003
+3.76219023780E+007, +9.46770418146E+002, +4.28951410338E+003
+3.78095118899E+007, +8.85134741544E+002, +4.45219061854E+003
+3.79971214018E+007, +1.04057382961E+003, +4.66480379970E+003
+3.81847309136E+007, +1.08641811269E+003, +4.70228556425E+003
+3.83723404255E+007, +1.38343581153E+003, +4.89563930234E+003
+3.85599499374E+007, +1.38351809107E+003, +5.18462479016E+003
+3.87475594493E+007, +1.40429378257E+003, +5.32794994327E+003
+3.89351689612E+007, +1.52481970939E+003, +5.55791035970E+003
+3.91227784731E+007, +1.77250351386E+003, +5.72872505626E+003
+3.93103879850E+007, +1.89696973349E+003, +6.17571617772E+003
+3.94979974969E+007, +2.02483963158E+003, +6.04281629421E+003
+3.96856070088E+007, +2.28939933957E+003, +6.55600807136E+003
+3.98732165207E+007, +2.49423740678E+003, +6.89691364011E+003
+4.00608260325E+007, +2.85243599029E+003, +7.14578799682E+003
+4.02484355444E+007, +3.41378779878E+003, +7.37357562273E+003
+4.04360450563E+007, +3.70499783187E+003, +7.84111320887E+003
+4.06236545682E+007, +3.98988641704E+003, +7.84830408601E+003
+4.08112640801E+007, +4.76382102431E+003, +8.09635515104E+003
+4.09988735920E+007, +5.83379334964E+003, +8.62867819222E+003
+4.11864831039E+007, +6.68769366594E+003, +8.82583702742E+003
+4.13740926158E+007, +6.95795569437E+003, +8.47239934011E+003
+4.15617021277E+007, +7.34347790049E+003, +9.19851928307E+003
+4.17493116395E+007, +9.34103830500E+003, +9.19243094464E+003
+4.19369211514E+007, +1.04860304969E+004, +8.91542750101E+003
+4.21245306633E+007, +1.15062471494E+004, +7.31664911783E+003
+4.23121401752E+007, +1.32401354128E+004, +7.90628472282E+003
+4.24997496871E+007, +1.31604753017E+004, +5.58280167330E+003
+4.26873591990E+007, +1.42508894731E+004, +4.77760917981E+003
+4.28749687109E+007, +1.59613312979E+004, +4.64820681336E+003
+4.30625782228E+007, +1.56478664741E+004, +2.12971838243E+003
+4.32501877347E+007, +1.57106961995E+004, +1.55892144750E+003
+4.34377972466E+007, +1.63475379117E+004, -1.41316820413E+003
+4.36254067584E+007, +1.69697201851E+004, -3.23375822296E+003
+4.38130162703E+007, +1.57921087255E+004, -4.03696215169E+003
+4.40006257822E+007, +1.30608871529E+004, -5.58567316726E+003
+4.41882352941E+007, +1.31954212674E+004, -6.92625895288E+003
+4.43758448060E+007, +1.16849919138E+004, -7.24108600615E+003
+4.45634543179E+007, +1.04954554129E+004, -8.77790297752E+003
+4.47510638298E+007, +8.68456435384E+003, -8.07051502282E+003
+4.49386733417E+007, +7.88554830611E+003, -7.66673145349E+003
+4.51262828536E+007, +7.09767224665E+003, -8.23373922898E+003
+4.53138923655E+007, +6.50794554047E+003, -7.71752788701E+003
+4.55015018773E+007, +5.22756379452E+003, -7.61364027598E+003
+4.56891113892E+007, +5.20911156785E+003, -7.17919439393E+003
+4.58767209011E+007, +4.78648631952E+003, -7.22051572529E+003
+4.60643304130E+007, +4.29251225524E+003, -6.94851175188E+003
+4.62519399249E+007, +3.85598722037E+003, -6.74320514355E+003
+4.64395494368E+007, +3.66389023708E+003, -6.41301044859E+003
+4.66271589487E+007, +3.37003834389E+003, -6.02850815448E+003
+4.68147684606E+007, +3.15890335797E+003, -5.95482759448E+003
+4.70023779725E+007, +2.99154854435E+003, -5.64716679803E+003
+4.71899874844E+007, +2.57077152440E+003, -5.50366056270E+003
+4.73775969962E+007, +2.42816348869E+003, -5.48414374943E+003
+4.75652065081E+007, +2.45064486217E+003, -5.06687673984E+003
+4.77528160200E+007, +2.18447293005E+003, -5.09833800833E+003
+4.79404255319E+007, +2.18955385514E+003, -4.89264052561E+003
+4.81280350438E+007, +1.84956299416E+003, -4.83240559952E+003
+4.83156445557E+007, +1.79967038351E+003, -4.62598689484E+003
+4.85032540676E+007, +1.63331790784E+003, -4.53428653335E+003
+4.86908635795E+007, +1.55405105625E+003, -4.46546489186E+003
+4.88784730914E+007, +1.46301413855E+003, -4.29437247389E+003
+4.90660826033E+007, +1.34143881282E+003, -4.16403201988E+003
+4.92536921151E+007, +1.28643683409E+003, -3.98102643008E+003
+4.94413016270E+007, +1.21550422947E+003, -3.88759553082E+003
+4.96289111389E+007, +1.18957010743E+003, -3.76160059650E+003
+4.98165206508E+007, +1.16738775129E+003, -3.73730165259E+003
+5.00041301627E+007, +1.10454756178E+003, -3.53430734519E+003
+5.01917396746E+007, +1.05471875096E+003, -3.48215963183E+003
+5.03793491865E+007, +1.04517589115E+003, -3.40944526840E+003
+5.05669586984E+007, +1.00742030854E+003, -3.32300563429E+003
+5.07545682103E+007, +9.51631304616E+002, -3.22418081608E+003
+5.09421777222E+007, +8.87638291026E+002, -3.12807138350E+003
+5.11297872340E+007, +8.57473170263E+002, -3.08136414408E+003
+5.13173967459E+007, +8.57128268452E+002, -3.04098961006E+003
+5.15050062578E+007, +8.18318029569E+002, -2.99956088803E+003
+5.16926157697E+007, +7.87721044294E+002, -2.93325708474E+003
+5.18802252816E+007, +7.28775241401E+002, -2.83631025741E+003
+5.20678347935E+007, +7.21273861381E+002, -2.81738134620E+003
+5.22554443054E+007, +7.45669638147E+002, -2.75039638671E+003
+5.24430538173E+007, +6.86601074432E+002, -2.69794911105E+003
+5.26306633292E+007, +6.72522391260E+002, -2.63715915763E+003
+5.28182728411E+007, +6.44648653143E+002, -2.58633116610E+003
+5.30058823529E+007, +6.15505291432E+002, -2.54552268821E+003
+5.31934918648E+007, +6.09731631778E+002, -2.47383150008E+003
+5.33811013767E+007, +5.67800012472E+002, -2.43717618011E+003
+5.35687108886E+007, +5.62530107780E+002, -2.35783831184E+003
+5.37563204005E+007, +5.56430178993E+002, -2.34411457737E+003
+5.39439299124E+007, +5.31450139267E+002, -2.31425597963E+003
+5.41315394243E+007, +5.04329073693E+002, -2.25308845038E+003
+5.43191489362E+007, +4.87734960392E+002, -2.20837935261E+003
+5.45067584481E+007, +4.73640125092E+002, -2.16301967091E+003
+5.46943679599E+007, +4.58854683365E+002, -2.14994576638E+003
+5.48819774718E+007, +4.45916161681E+002, -2.11330964960E+003
+5.50695869837E+007, +4.54162932344E+002, -2.05766145915E+003
+5.52571964956E+007, +4.30589267429E+002, -2.03880124731E+003
+5.54448060075E+007, +4.52832778226E+002, -1.99760093965E+003
+5.56324155194E+007, +4.20583204534E+002, -1.96922244622E+003
+5.58200250313E+007, +4.33231327002E+002, -1.93472103922E+003
+5.60076345432E+007, +4.07432618671E+002, -1.90993561140E+003
+5.61952440551E+007, +3.89144046160E+002, -1.86638621006E+003
+5.63828535670E+007, +3.90581353714E+002, -1.84564146692E+003
+5.65704630788E+007, +3.65525016257E+002, -1.82732877317E+003
+5.67580725907E+007, +3.54013747542E+002, -1.80244253124E+003
+5.69456821026E+007, +3.53974233921E+002, -1.76904408047E+003
+5.71332916145E+007, +3.35367703489E+002, -1.73865629192E+003
+5.73209011264E+007, +3.15269354601E+002, -1.71404873681E+003
+5.75085106383E+007, +2.97420668636E+002, -1.67675111022E+003
+5.76961201502E+007, +3.01003830521E+002, -1.64686096410E+003
+5.78837296621E+007, +2.84126026538E+002, -1.62879919719E+003
+5.80713391740E+007, +2.69685226917E+002, -1.59529455120E+003
+5.82589486859E+007, +2.81439473875E+002, -1.56628841973E+003
+5.84465581977E+007, +2.55030446986E+002, -1.54149527714E+003
+5.86341677096E+007, +2.55038529220E+002, -1.50846730327E+003
+5.88217772215E+007, +2.42200115384E+002, -1.47739348881E+003
+5.90093867334E+007, +2.43782788902E+002, -1.46004127599E+003
+5.91969962453E+007, +2.40484464218E+002, -1.43790316790E+003
+5.93846057572E+007, +2.28718710611E+002, -1.41065124374E+003
+5.95722152691E+007, +2.22703935432E+002, -1.38902216109E+003
+5.97598247810E+007, +2.17380233029E+002, -1.36867722002E+003
+5.99474342929E+007, +2.15061744830E+002, -1.34780826154E+003
+6.01350438048E+007, +2.07904907337E+002, -1.31548194613E+003
