"# Channel 1"
"# Trace 1"
Frequency, Formatted Data, Formatted Data
+1.00000000000E+005, -2.98434836331E+004, +1.15465658050E+004
+2.87609511890E+005, +5.27354174936E+004, -3.53890018503E+004
+4.75219023780E+005, +3.35778511855E+003, -1.70196059701E+005
+6.62828535670E+005, -4.20626903681E+004, -2.05827065795E+004
+8.50438047559E+005, -3.63572508746E+004, -5.74827820944E+004
+1.03804755945E+006, +1.21015332597E+005, -1.38564303807E+005
+1.22565707134E+006, -1.55556037966E+004, -1.20092049845E+005
+1.41326658323E+006, -2.41564893875E+004, -2.82604774804E+004
+1.60087609512E+006, -2.85192755875E+004, +7.33581612038E+003
+1.78848560701E+006, -2.68280867488E+004, +1.77566059148E+003
+1.97609511890E+006, -8.80019639670E+004, -4.16039194613E+004
+2.16370463079E+006, -2.37218766646E+004, -3.37114455855E+004
+2.35131414268E+006, -1.18824651932E+004, -8.70740038526E+003
+2.53892365457E+006, -1.21055087017E+004, -1.68370599334E+004
+2.72653316646E+006, -1.21907845392E+004, -8.54330027556E+003
+2.91414267835E+006, -1.12164181572E+004, -9.13866029827E+003
+3.10175219024E+006, -8.16082361572E+003, -7.44197691837E+003
+3.28936170213E+006, -5.82541697157E+003, -9.39549432025E+003
+3.47697121402E+006, -6.02705104697E+003, -8.10172120502E+003
+3.66458072591E+006, -5.62043321367E+003, -8.80608725780E+003
+3.85219023780E+006, -3.95559588944E+003, -7.49845137553E+003
+4.03979974969E+006, -3.79842945284E+003, -5.92543743177E+003
+4.22740926158E+006, -3.39312077597E+003, -6.56966834759E+003
+4.41501877347E+006, -3.45347946120E+003, -6.74891849273E+003
+4.60262828536E+006, -2.96436556407E+003, -6.63167660787E+003
+4.79023779725E+006, -2.43050227196E+003, -5.83094943092E+003
+4.97784730914E+006, -1.37187187587E+003, -6.45359577560E+003
+5.16545682103E+006, -2.26984290515E+003, -5.22292017089E+003
+5.35306633292E+006, -2.49452664181E+003, -4.93787796437E+003
+5.54067584481E+006, -1.84287838427E+003, -4.77454408747E+003
+5.72828535670E+006, -1.60571330170E+003, -4.70026499903E+003
+5.91589486859E+006, -1.62248396215E+003, -4.62550077858E+003
+6.10350438048E+006, -1.22714393475E+003, -4.40725846726E+003
+6.29111389237E+006, -8.96264885120E+002, -4.22903127183E+003
+6.47872340426E+006, -8.28955494158E+002, -4.24073006913E+003
+6.66633291615E+006, -8.44214139139E+002, -4.03566566854E+003
+6.85394242804E+006, -8.05191261342E+002, -4.09184961325E+003
+7.04155193992E+006, -5.83522260770E+002, -3.91179954244E+003
+7.22916145181E+006, -5.23736337103E+002, -3.83595828478E+003
+7.41677096370E+006, -5.62421376035E+002, -3.66570949322E+003
+7.60438047559E+006, -5.30389217645E+002, -3.62004134964E+003
+7.79198998748E+006, -4.73429799272E+002, -3.54836695202E+003
+7.97959949937E+006, -4.63270502115E+002, -3.34353064446E+003
+8.16720901126E+006, -3.33559205942E+002, -3.38209288994E+003
+8.35481852315E+006, -3.29123328072E+002, -3.32190831344E+003
+8.54242803504E+006, -3.99636153009E+002, -3.21380033126E+003
+8.73003754693E+006, -3.31106148688E+002, -3.00699235906E+003
+8.91764705882E+006, -3.60555658351E+002, -2.99546646833E+003
+9.10525657071E+006, -3.26953048196E+002, -2.82475791607E+003
+9.29286608260E+006, -3.52513188844E+002, -2.90341096130E+003
+9.48047559449E+006, -3.52637401771E+002, -2.86852940946E+003
+9.66808510638E+006, -3.24477396639E+002, -2.84154233429E+003
+9.85569461827E+006, -3.35387431728E+002, -2.72118008512E+003
+1.00433041302E+007, -2.38562107028E+002, -2.66493102835E+003
+1.02309136421E+007, -2.64078371324E+002, -2.64319214087E+003
+1.04185231539E+007, -2.95551808312E+002, -2.59994311512E+003
+1.06061326658E+007, -2.77890600428E+002, -2.54613941499E+003
+1.07937421777E+007, -2.49226286628E+002, -2.52013399189E+003
+1.09813516896E+007, -2.22260471149E+002, -2.41724533534E+003
+1.11689612015E+007, -1.67728481816E+002, -2.43192092973E+003
+1.13565707134E+007, -1.84985378323E+002, -2.40421134707E+003
+1.15441802253E+007, -2.23967168692E+002, -2.31156373815E+003
+1.17317897372E+007, -1.87256303941E+002, -2.31593376128E+003
+1.19193992491E+007, -1.93149971818E+002, -2.23841798113E+003
+1.21070087610E+007, -1.76807607019E+002, -2.21639126751E+003
+1.22946182728E+007, -2.21649004362E+002, -2.20932767667E+003
+1.24822277847E+007, -1.89398007689E+002, -2.17550518732E+003
+1.26698372966E+007, -1.86361153479E+002, -2.13021538914E+003
+1.28574468085E+007, -1.78283935845E+002, -2.14009856467E+003
+1.30450563204E+007, -1.83195626672E+002, -2.06121511438E+003
+1.32326658323E+007, -1.80446836146E+002, -2.05754367162E+003
+1.34202753442E+007, -1.41722937574E+002, -2.02092242876E+003
+1.36078848561E+007, -1.41059473923E+002, -1.98826414085E+003
+1.37954943680E+007, -1.40728439585E+002, -1.95413399224E+003
+1.39831038798E+007, -1.64495310698E+002, -1.91618130252E+003
+1.41707133917E+007, -1.41552997026E+002, -1.88765890081E+003
+1.43583229036E+007, -1.18543231427E+002, -1.85947420203E+003
+1.45459324155E+007, -1.18771414484E+002, -1.85769868565E+003
+1.47335419274E+007, -1.31598868181E+002, -1.82734244892E+003
+1.49211514393E+007, -1.31704629424E+002, -1.80038954891E+003
+1.51087609512E+007, -1.23115538184E+002, -1.77012311884E+003
+1.52963704631E+007, -1.15420539797E+002, -1.75999604309E+003
+1.54839799750E+007, -1.12290860608E+002, -1.72656706093E+003
+1.56715894869E+007, -7.64293346724E+001, -1.69171531897E+003
+1.58591989987E+007, -1.13368737413E+002, -1.69686970282E+003
+1.60468085106E+007, -1.15551985326E+002, -1.67414225899E+003
+1.62344180225E+007, -1.08208561206E+002, -1.63984463756E+003
+1.64220275344E+007, -1.16788006554E+002, -1.64662850924E+003
+1.66096370463E+007, -9.49106016685E+001, -1.59792036941E+003
+1.67972465582E+007, -8.87422187993E+001, -1.57504423488E+003
+1.69848560701E+007, -8.25674318901E+001, -1.56387833508E+003
+1.71724655820E+007, -1.14154730883E+002, -1.55259403740E+003
+1.73600750939E+007, -8.73568158321E+001, -1.51819064675E+003
+1.75476846058E+007, -9.14648719035E+001, -1.51460576991E+003
+1.77352941176E+007, -7.87219292025E+001, -1.49203489917E+003
+1.79229036295E+007, -7.22296265811E+001, -1.47392046621E+003
+1.81105131414E+007, -7.84365579259E+001, -1.47693972323E+003
+1.82981226533E+007, -6.95519422794E+001, -1.45608397299E+003
+1.84857321652E+007, -7.49587447219E+001, -1.42754524124E+003
+1.86733416771E+007, -6.56292231846E+001, -1.39758630866E+003
+1.88609511890E+007, -6.12784111115E+001, -1.38866027996E+003
+1.90485607009E+007, -5.89890963885E+001, -1.36745415666E+003
+1.92361702128E+007, -5.85886378468E+001, -1.36162964915E+003
+1.94237797247E+007, -5.09805302576E+001, -1.35209916299E+003
+1.96113892365E+007, -6.00896071360E+001, -1.33459014996E+003
+1.97989987484E+007, -5.02044371478E+001, -1.33491143855E+003
+1.99866082603E+007, -4.87465922815E+001, -1.31536440921E+003
+2.01742177722E+007, -5.06730854152E+001, -1.28721113954E+003
+2.03618272841E+007, -3.76397033071E+001, -1.28401283211E+003
+2.05494367960E+007, -4.02264825353E+001, -1.27172768143E+003
+2.07370463079E+007, -4.09693879646E+001, -1.25490472578E+003
+2.09246558198E+007, -4.23068678678E+001, -1.24037481419E+003
+2.11122653317E+007, -3.68979838924E+001, -1.23337031578E+003
+2.12998748436E+007, -3.29780146586E+001, -1.21887309744E+003
+2.14874843554E+007, -2.68693644721E+001, -1.21225967111E+003
+2.16750938673E+007, -1.95150919743E+001, -1.18772037618E+003
+2.18627033792E+007, -2.07419065516E+001, -1.17622613141E+003
+2.20503128911E+007, -1.60790441416E+001, -1.16466816183E+003
+2.22379224030E+007, -7.17002710259E+000, -1.15468088282E+003
+2.24255319149E+007, -1.01855049420E+001, -1.14760557773E+003
+2.26131414268E+007, -1.21071211666E+001, -1.13160899059E+003
+2.28007509387E+007, -4.43091483688E+000, -1.12639807934E+003
+2.29883604506E+007, +1.65610538673E+000, -1.10598566276E+003
+2.31759699625E+007, +6.68660664011E+000, -1.09709583163E+003
+2.33635794743E+007, +9.90306748613E+000, -1.09256978395E+003
+2.35511889862E+007, +1.50936506356E+001, -1.07937242188E+003
+2.37387984981E+007, +2.73677202821E+001, -1.06844840473E+003
+2.39264080100E+007, +2.89302681965E+001, -1.05977781463E+003
+2.41140175219E+007, +2.56515179863E+001, -1.05101725465E+003
+2.43016270338E+007, +3.81329350055E+001, -1.05340100630E+003
+2.44892365457E+007, +4.51103720373E+001, -1.04761913851E+003
+2.46768460576E+007, +5.11321793475E+001, -1.03252149422E+003
+2.48644555695E+007, +5.71520791151E+001, -1.04195019448E+003
+2.50520650814E+007, +5.59572464292E+001, -1.03363694150E+003
+2.52396745932E+007, +6.02648036078E+001, -1.04338569051E+003
+2.54272841051E+007, +6.22669699991E+001, -1.03249226161E+003
+2.56148936170E+007, +5.33837900353E+001, -1.04539818771E+003
+2.58025031289E+007, +5.43587230991E+001, -1.04066604873E+003
+2.59901126408E+007, +5.02579937082E+001, -1.02250323275E+003
+2.61777221527E+007, +4.40774720230E+001, -1.02773569063E+003
+2.63653316646E+007, +3.85232608529E+001, -1.02101623297E+003
+2.65529411765E+007, +3.36434290111E+001, -1.01190782652E+003
+2.67405506884E+007, +2.99656201822E+001, -1.00892049172E+003
+2.69281602003E+007, +2.38892812799E+001, -1.00632584586E+003
+2.71157697121E+007, +2.19967673743E+001, -9.88410569329E+002
+2.73033792240E+007, +2.21166631197E+001, -9.84330388364E+002
+2.74909887359E+007, +1.75046847745E+001, -9.81615430399E+002
+2.76785982478E+007, +2.37555516958E+001, -9.67739625522E+002
+2.78662077597E+007, +1.29088246444E+001, -9.60013584718E+002
+2.80538172716E+007, +1.34552197782E+001, -9.56258115187E+002
+2.82414267835E+007, +1.12379937160E+001, -9.48926593532E+002
+2.84290362954E+007, +1.85645450892E+001, -9.42365081861E+002
+2.86166458073E+007, +5.99065314402E+000, -9.32921446201E+002
+2.88042553191E+007, +5.39831949792E+000, -9.18573005592E+002
+2.89918648310E+007, +6.34435421879E-001, -9.10170699346E+002
+2.91794743429E+007, +7.17803026194E-001, -9.08257566785E+002
+2.93670838548E+007, -5.91664714956E+000, -9.00132526574E+002
+2.95546933667E+007, +3.37572599479E-001, -8.87483866859E+002
+2.97423028786E+007, -4.25713872689E+000, -8.86282697659E+002
+2.99299123905E+007, -6.03303896727E+000, -8.79256998342E+002
+3.01175219024E+007, -7.44251445808E+000, -8.67175168287E+002
+3.03051314143E+007, +9.77128329715E-001, -8.57684894980E+002
+3.04927409262E+007, -6.95359734521E+000, -8.51852002817E+002
+3.06803504380E+007, -5.89335974854E+000, -8.42995386390E+002
+3.08679599499E+007, -7.46947768869E+000, -8.35955808529E+002
+3.10555694618E+007, -8.73730442434E+000, -8.27602804296E+002
+3.12431789737E+007, -9.38585465578E+000, -8.22531599943E+002
+3.14307884856E+007, -3.63681203769E+000, -8.20788266229E+002
+3.16183979975E+007, -5.31365816539E+000, -8.11177217067E+002
+3.18060075094E+007, -4.97802621971E+000, -8.03798114377E+002
+3.19936170213E+007, -4.06212662848E+000, -7.97691606570E+002
+3.21812265332E+007, -1.97553884935E+000, -7.88632817547E+002
+3.23688360451E+007, -7.07762114412E+000, -7.82419193023E+002
+3.25564455569E+007, -5.80545049178E+000, -7.76837312557E+002
+3.27440550688E+007, -6.62324183086E+000, -7.66929859181E+002
+3.29316645807E+007, -5.63993287059E+000, -7.64236121148E+002
+3.31192740926E+007, -8.72796722028E+000, -7.58377719480E+002
+3.33068836045E+007, -8.08659003306E+000, -7.54206272747E+002
+3.34944931164E+007, -3.12945979968E+000, -7.43286939607E+002
+3.36821026283E+007, -6.32671110464E+000, -7.41189725390E+002
+3.38697121402E+007, -2.77646694210E+000, -7.34157995545E+002
+3.40573216521E+007, -5.46507467008E+000, -7.31210179787E+002
+3.42449311640E+007, -1.83868163988E+000, -7.22970817596E+002
+3.44325406758E+007, -3.64967896966E+000, -7.16471068488E+002
+3.46201501877E+007, +9.99274431332E-001, -7.20306732880E+002
+3.48077596996E+007, +1.63149178448E+000, -7.09264294477E+002
+3.49953692115E+007, -5.89298888856E-001, -7.01189097597E+002
+3.51829787234E+007, +1.73240918373E+000, -7.00051435331E+002
+3.53705882353E+007, +2.96081061186E+000, -6.93524857621E+002
+3.55581977472E+007, +4.53759634580E-001, -6.88192527478E+002
+3.57458072591E+007, +1.35815209641E+000, -6.84064211496E+002
+3.59334167710E+007, +4.25679092667E+000, -6.76085675668E+002
+3.61210262829E+007, +2.22912087775E-001, -6.71497388418E+002
+3.63086357947E+007, +4.19589387838E+000, -6.67650049645E+002
+3.64962453066E+007, +3.99457684522E+000, -6.66562792296E+002
+3.66838548185E+007, +4.33506802324E+000, -6.59304871553E+002
+3.68714643304E+007, +1.81258682259E+000, -6.55982909790E+002
+3.70590738423E+007, +3.91704298129E+000, -6.50693954687E+002
+3.72466833542E+007, +1.50358079996E+000, -6.43541708906E+002
+3.74342928661E+007, +5.60442739710E+000, -6.38286280039E+002
+3.76219023780E+007, +2.46017929735E+000, -6.32136073388E+002
+3.78095118899E+007, +3.35891464421E+000, -6.30769513621E+002
+3.79971214018E+007, +3.25392466812E+000, -6.24450369102E+002
+3.81847309136E+007, +4.99823684559E+000, -6.19351920493E+002
+3.83723404255E+007, +5.64910231794E+000, -6.13865884913E+002
+3.85599499374E+007, +3.42429829204E+000, -6.11294254551E+002
+3.87475594493E+007, +4.89738176177E+000, -6.03278927351E+002
+3.89351689612E+007, +7.36693916876E+000, -5.99843536852E+002
+3.91227784731E+007, +7.48659843312E+000, -5.96906506132E+002
+3.93103879850E+007, +8.64841933273E+000, -5.92034703005E+002
+3.94979974969E+007, +1.10918482089E+001, -5.88503620141E+002
+3.96856070088E+007, +8.20725614573E+000, -5.82360424121E+002
+3.98732165207E+007, +7.42837152157E+000, -5.77694995935E+002
+4.00608260325E+007, +1.17640190540E+001, -5.75550363757E+002
+4.02484355444E+007, +1.25621871911E+001, -5.68685292809E+002
+4.04360450563E+007, +1.28906785551E+001, -5.64565931610E+002
+4.06236545682E+007, +1.34380434555E+001, -5.59002741934E+002
+4.08112640801E+007, +1.54550605095E+001, -5.57704816009E+002
+4.09988735920E+007, +1.67991365014E+001, -5.52802846373E+002
+4.11864831039E+007, +1.73480568907E+001, -5.49649470083E+002
+4.13740926158E+007, +1.83381129772E+001, -5.48042686599E+002
+4.15617021277E+007, +1.91394700244E+001, -5.44278270884E+002
+4.17493116395E+007, +2.07889188236E+001, -5.41408705793E+002
+4.19369211514E+007, +1.81636795313E+001, -5.39335707157E+002
+4.21245306633E+007, +1.97509404017E+001, -5.33727295061E+002
+4.23121401752E+007, +1.88328405706E+001, -5.31078121825E+002
+4.24997496871E+007, +2.06191092431E+001, -5.29863035842E+002
+4.26873591990E+007, +1.90198467417E+001, -5.26563737747E+002
+4.28749687109E+007, +2.00950607070E+001, -5.22519382534E+002
+4.30625782228E+007, +1.96340145142E+001, -5.20493753955E+002
+4.32501877347E+007, +2.01522110432E+001, -5.16310906867E+002
+4.34377972466E+007, +1.79886853529E+001, -5.12163816662E+002
+4.36254067584E+007, +1.83376311645E+001, -5.08297801629E+002
+4.38130162703E+007, +1.87924505708E+001, -5.06632775546E+002
+4.40006257822E+007, +1.81165653350E+001, -5.02723729696E+002
+4.41882352941E+007, +1.77179957849E+001, -5.00126090338E+002
+4.43758448060E+007, +1.87121544698E+001, -4.96511341729E+002
+4.45634543179E+007, +1.87187168132E+001, -4.92927245397E+002
+4.47510638298E+007, +1.74341800502E+001, -4.87352750005E+002
+4.49386733417E+007, +1.80949072526E+001, -4.84325126238E+002
+4.51262828536E+007, +1.96342655101E+001, -4.80504978138E+002
+4.53138923655E+007, +2.10813490862E+001, -4.77587284008E+002
+4.55015018773E+007, +2.08142261524E+001, -4.73075732405E+002
+4.56891113892E+007, +2.11130414755E+001, -4.70665343385E+002
+4.58767209011E+007, +2.02572362702E+001, -4.67691411828E+002
+4.60643304130E+007, +2.06822597659E+001, -4.63860331384E+002
+4.62519399249E+007, +2.11808579517E+001, -4.59382648832E+002
+4.64395494368E+007, +2.14436241855E+001, -4.56701118553E+002
+4.66271589487E+007, +2.22829094918E+001, -4.54467997276E+002
+4.68147684606E+007, +2.44567234817E+001, -4.50295614532E+002
+4.70023779725E+007, +2.56065413479E+001, -4.48414413394E+002
+4.71899874844E+007, +2.51089036060E+001, -4.44540274524E+002
+4.73775969962E+007, +2.44693279463E+001, -4.43123891065E+002
+4.75652065081E+007, +2.49880217006E+001, -4.40446824864E+002
+4.77528160200E+007, +2.58048587757E+001, -4.36975538621E+002
+4.79404255319E+007, +2.59697382284E+001, -4.34262003090E+002
+4.81280350438E+007, +2.61930469953E+001, -4.32435494208E+002
+4.83156445557E+007, +2.64996965039E+001, -4.29680632628E+002
+4.85032540676E+007, +2.61547063488E+001, -4.27318327477E+002
+4.86908635795E+007, +2.51385567656E+001, -4.24973610906E+002
+4.88784730914E+007, +2.50128384041E+001, -4.21891522905E+002
+4.90660826033E+007, +2.32316805111E+001, -4.18148910583E+002
+4.92536921151E+007, +2.47034672822E+001, -4.15060105483E+002
+4.94413016270E+007, +2.56086162192E+001, -4.12951322714E+002
+4.96289111389E+007, +2.58326739603E+001, -4.09651745302E+002
+4.98165206508E+007, +2.44752394124E+001, -4.05804755286E+002
+5.00041301627E+007, +2.67372830579E+001, -4.02011219524E+002
+5.01917396746E+007, +2.74131536854E+001, -4.00424100446E+002
+5.03793491865E+007, +2.86500133687E+001, -3.99001490253E+002
+5.05669586984E+007, +2.89333205972E+001, -3.95548004696E+002
+5.07545682103E+007, +2.76856981914E+001, -3.93455094710E+002
+5.09421777222E+007, +2.87532058322E+001, -3.91219917698E+002
+5.11297872340E+007, +2.76426176995E+001, -3.88736242543E+002
+5.13173967459E+007, +2.83057417868E+001, -3.86494396991E+002
+5.15050062578E+007, +2.82185003330E+001, -3.84106819220E+002
+5.16926157697E+007, +2.81632789976E+001, -3.81867991020E+002
+5.18802252816E+007, +2.78997262817E+001, -3.78625895841E+002
+5.20678347935E+007, +2.78930860787E+001, -3.76059299345E+002
+5.22554443054E+007, +2.78919994130E+001, -3.74545132929E+002
+5.24430538173E+007, +2.71372363332E+001, -3.71883465479E+002
+5.26306633292E+007, +2.73304796174E+001, -3.69376634992E+002
+5.28182728411E+007, +2.69165609633E+001, -3.66364605901E+002
+5.30058823529E+007, +2.68562584937E+001, -3.64643271975E+002
+5.31934918648E+007, +2.66210487137E+001, -3.61605431268E+002
+5.33811013767E+007, +2.58803914173E+001, -3.58202304246E+002
+5.35687108886E+007, +2.61079647483E+001, -3.55897965086E+002
+5.37563204005E+007, +2.55751156059E+001, -3.53457685550E+002
+5.39439299124E+007, +2.50271895019E+001, -3.51139654169E+002
+5.41315394243E+007, +2.47926835998E+001, -3.48111520337E+002
+5.43191489362E+007, +2.51147263930E+001, -3.44026075291E+002
+5.45067584481E+007, +2.53353468750E+001, -3.42045055984E+002
+5.46943679599E+007, +2.53026289920E+001, -3.39070466484E+002
+5.48819774718E+007, +2.49861174023E+001, -3.36809477363E+002
+5.50695869837E+007, +2.65746798049E+001, -3.33967967665E+002
+5.52571964956E+007, +2.64043407216E+001, -3.31409339183E+002
+5.54448060075E+007, +2.72169276981E+001, -3.28968712832E+002
+5.56324155194E+007, +2.71461797449E+001, -3.27579218707E+002
+5.58200250313E+007, +2.73258080570E+001, -3.25075813148E+002
+5.60076345432E+007, +2.72068538774E+001, -3.22573645757E+002
+5.61952440551E+007, +2.61802211355E+001, -3.20637179001E+002
+5.63828535670E+007, +2.58910665108E+001, -3.18826092896E+002
+5.65704630788E+007, +2.56936028336E+001, -3.16803525054E+002
+5.67580725907E+007, +2.52095779177E+001, -3.13901088962E+002
+5.69456821026E+007, +2.46224141804E+001, -3.11901415734E+002
+5.71332916145E+007, +2.30421920929E+001, -3.08782927892E+002
+5.73209011264E+007, +2.25058917930E+001, -3.06333782279E+002
+5.75085106383E+007, +2.19366217834E+001, -3.03440956839E+002
+5.76961201502E+007, +2.21557041012E+001, -3.00686687151E+002
+5.78837296621E+007, +2.15712231684E+001, -2.97857925802E+002
+5.80713391740E+007, +2.09372398599E+001, -2.95368018532E+002
+5.82589486859E+007, +2.08749117500E+001, -2.91664930354E+002
+5.84465581977E+007, +2.02794598346E+001, -2.89364855773E+002
+5.86341677096E+007, +1.97486922903E+001, -2.85448927960E+002
+5.88217772215E+007, +1.99060466372E+001, -2.82922178057E+002
+5.90093867334E+007, +1.98581679187E+001, -2.79701347761E+002
+5.91969962453E+007, +1.97494440676E+001, -2.76754201599E+002
+5.93846057572E+007, +2.03368549546E+001, -2.74217003562E+002
+5.95722152691E+007, +1.97986149659E+001, -2.71446318815E+002
+5.97598247810E+007, +1.94302182539E+001, -2.68621102049E+002
+5.99474342929E+007, +1.98376025921E+001, -2.65850092827E+002
+6.01350438048E+007, +1.98594555175E+001, -2.62777745291E+002
