"# Channel 1"
"# Trace 1"
Frequency, Formatted Data, Formatted Data
+1.00000000000E+005, +1.00682135699E+001, +3.46352850102E+000
+2.25031289111E+005, +1.01732542019E+001, +7.68505542393E+000
+3.50062578223E+005, +1.02217827967E+001, +1.18625640898E+001
+4.75093867334E+005, +1.03187778590E+001, +1.60729611626E+001
+6.00125156446E+005, +1.03446441320E+001, +2.01616715519E+001
+7.25156445557E+005, +1.04001544839E+001, +2.43585153795E+001
+8.50187734668E+005, +1.04699167235E+001, +2.84350110354E+001
+9.75219023780E+005, +1.05066036162E+001, +3.25563377343E+001
+1.10025031289E+006, +1.05448604893E+001, +3.67867247898E+001
+1.22528160200E+006, +1.06036305642E+001, +4.08751273932E+001
+1.35031289111E+006, +1.06275291741E+001, +4.49777072698E+001
+1.47534418023E+006, +1.07163144525E+001, +4.90856682351E+001
+1.60037546934E+006, +1.06918749679E+001, +5.31754403741E+001
+1.72540675845E+006, +1.07250680165E+001, +5.73762585597E+001
+1.85043804756E+006, +1.07252270711E+001, +6.14858730130E+001
+1.97546933667E+006, +1.08605102972E+001, +6.55602797573E+001
+2.10050062578E+006, +1.06967335827E+001, +6.97946582990E+001
+2.22553191489E+006, +1.07604049916E+001, +7.39643174307E+001
+2.35056320401E+006, +1.08626910753E+001, +7.79874586642E+001
+2.47559449312E+006, +1.08271118787E+001, +8.20445404845E+001
+2.60062578223E+006, +1.09144563672E+001, +8.63041096632E+001
+2.72565707134E+006, +1.09226582067E+001, +9.04110819441E+001
+2.85068836045E+006, +1.11662867847E+001, +9.44687367350E+001
+2.97571964956E+006, +1.07260054203E+001, +9.89044500121E+001
+3.10075093867E+006, +1.08634602057E+001, +1.03106728036E+002
+3.22578222778E+006, +1.09955481880E+001, +1.07211814623E+002
+3.35081351690E+006, +1.09800334112E+001, +1.11487694595E+002
+3.47584480601E+006, +1.11348845322E+001, +1.15630767672E+002
+3.60087609512E+006, +1.11740539894E+001, +1.19866448533E+002
+3.72590738423E+006, +1.12159730941E+001, +1.23973102432E+002
+3.85093867334E+006, +1.14358815187E+001, +1.28211224891E+002
+3.97596996245E+006, +1.16341526939E+001, +1.32197421282E+002
+4.10100125156E+006, +1.12130546384E+001, +1.36582868070E+002
+4.22603254068E+006, +1.13507775433E+001, +1.40710482615E+002
+4.35106382979E+006, +1.13994114800E+001, +1.45154596772E+002
+4.47609511890E+006, +1.15440244681E+001, +1.49277570490E+002
+4.60112640801E+006, +1.14968049575E+001, +1.53690869738E+002
+4.72615769712E+006, +1.15680905687E+001, +1.57774046453E+002
+4.85118898623E+006, +1.16678685878E+001, +1.62097163192E+002
+4.97622027534E+006, +1.21302402406E+001, +1.66431504113E+002
+5.10125156446E+006, +1.18688769724E+001, +1.70849042669E+002
+5.22628285357E+006, +1.19291201919E+001, +1.75467802145E+002
+5.35131414268E+006, +1.17909221125E+001, +1.79222113143E+002
+5.47634543179E+006, +1.21952014398E+001, +1.83516442827E+002
+5.60137672090E+006, +1.22324232619E+001, +1.87951268728E+002
+5.72640801001E+006, +1.24361280916E+001, +1.92565872199E+002
+5.85143929912E+006, +1.22550851311E+001, +1.96967736738E+002
+5.97647058824E+006, +1.27972162380E+001, +2.00883609487E+002
+6.10150187735E+006, +1.26172942897E+001, +2.05561329550E+002
+6.22653316646E+006, +1.36083251686E+001, +2.09914414031E+002
+6.35156445557E+006, +1.29485116515E+001, +2.13878014943E+002
+6.47659574468E+006, +1.34232519142E+001, +2.18276742308E+002
+6.60162703379E+006, +1.33750397259E+001, +2.22865200902E+002
+6.72665832290E+006, +1.34282967802E+001, +2.27672005381E+002
+6.85168961202E+006, +1.36317923144E+001, +2.31756440645E+002
+6.97672090113E+006, +1.39505295250E+001, +2.36333936168E+002
+7.10175219024E+006, +1.40488684507E+001, +2.40456080532E+002
+7.22678347935E+006, +1.40708418971E+001, +2.45042537874E+002
+7.35181476846E+006, +1.44348273569E+001, +2.49588258472E+002
+7.47684605757E+006, +1.42583633787E+001, +2.54221106948E+002
+7.60187734668E+006, +1.42076438225E+001, +2.58528039782E+002
+7.72690863579E+006, +1.43506602142E+001, +2.63332896987E+002
+7.85193992491E+006, +1.44742992640E+001, +2.67213993219E+002
+7.97697121402E+006, +1.44916059304E+001, +2.71926888703E+002
+8.10200250313E+006, +1.46686122777E+001, +2.76922930278E+002
+8.22703379224E+006, +1.47517871910E+001, +2.81689331389E+002
+8.35206508135E+006, +1.50790917248E+001, +2.85772421211E+002
+8.47709637046E+006, +1.46995810315E+001, +2.90100667884E+002
+8.60212765957E+006, +1.44993760130E+001, +2.94967278811E+002
+8.72715894869E+006, +1.49461574785E+001, +2.99492575392E+002
+8.85219023780E+006, +1.48543148628E+001, +3.04996371084E+002
+8.97722152691E+006, +1.50223925308E+001, +3.08716876378E+002
+9.10225281602E+006, +1.50384184822E+001, +3.13893746717E+002
+9.22728410513E+006, +1.45285487140E+001, +3.19250134756E+002
+9.35231539424E+006, +1.49253658055E+001, +3.23264446092E+002
+9.47734668335E+006, +1.50217799202E+001, +3.28266439983E+002
+9.60237797247E+006, +1.50622946514E+001, +3.32697024774E+002
+9.72740926158E+006, +1.46214027429E+001, +3.37927101875E+002
+9.85244055069E+006, +1.46359897823E+001, +3.43293552754E+002
+9.97747183980E+006, +1.51212951119E+001, +3.48774583148E+002
+1.01025031289E+007, +1.47772212517E+001, +3.53167925449E+002
+1.02275344180E+007, +1.58368954051E+001, +3.57827136990E+002
+1.03525657071E+007, +1.55372143157E+001, +3.63058018062E+002
+1.04775969962E+007, +1.56753733485E+001, +3.67937317938E+002
+1.06026282854E+007, +1.49916041744E+001, +3.73439725806E+002
+1.07276595745E+007, +1.52799451035E+001, +3.78639345823E+002
+1.08526908636E+007, +1.52891738140E+001, +3.82985738530E+002
+1.09777221527E+007, +1.56707685476E+001, +3.87629332908E+002
+1.11027534418E+007, +1.57728283561E+001, +3.93140539004E+002
+1.12277847309E+007, +1.63267951289E+001, +3.97597058092E+002
+1.13528160200E+007, +1.67145981893E+001, +4.03518309553E+002
+1.14778473091E+007, +1.53528590381E+001, +4.09705593781E+002
+1.16028785982E+007, +1.55943753032E+001, +4.14384110945E+002
+1.17279098874E+007, +1.54178381262E+001, +4.20152411516E+002
+1.18529411765E+007, +1.62394408611E+001, +4.25028865677E+002
+1.19779724656E+007, +1.54200683896E+001, +4.30713444761E+002
+1.21030037547E+007, +1.67982425913E+001, +4.36600125394E+002
+1.22280350438E+007, +1.65916063816E+001, +4.41682815851E+002
+1.23530663329E+007, +1.65619987973E+001, +4.46786945109E+002
+1.24780976220E+007, +1.66378058688E+001, +4.51641585666E+002
+1.26031289111E+007, +1.63830357029E+001, +4.57845124658E+002
+1.27281602003E+007, +1.66158488523E+001, +4.63268356665E+002
+1.28531914894E+007, +1.63253286559E+001, +4.69071220462E+002
+1.29782227785E+007, +1.61800280371E+001, +4.74813245938E+002
+1.31032540676E+007, +1.83690128432E+001, +4.79881329683E+002
+1.32282853567E+007, +1.78193446449E+001, +4.85773814272E+002
+1.33533166458E+007, +1.78343817472E+001, +4.91896384643E+002
+1.34783479349E+007, +1.86780486527E+001, +4.96682343325E+002
+1.36033792240E+007, +1.79793106168E+001, +5.02456990124E+002
+1.37284105131E+007, +1.72993445740E+001, +5.09549638463E+002
+1.38534418023E+007, +1.77561640536E+001, +5.14987054942E+002
+1.39784730914E+007, +1.80610854188E+001, +5.20335756709E+002
+1.41035043805E+007, +1.82083351848E+001, +5.26829206762E+002
+1.42285356696E+007, +1.72530413326E+001, +5.33890531280E+002
+1.43535669587E+007, +1.71712680094E+001, +5.40823051498E+002
+1.44785982478E+007, +1.86899660933E+001, +5.45285918932E+002
+1.46036295369E+007, +1.95382253132E+001, +5.53271459324E+002
+1.47286608260E+007, +1.88322597253E+001, +5.57694307042E+002
+1.48536921151E+007, +2.02530486967E+001, +5.64614128449E+002
+1.49787234043E+007, +1.98604463443E+001, +5.70449088937E+002
+1.51037546934E+007, +1.84344989374E+001, +5.77374040845E+002
+1.52287859825E+007, +1.73806210361E+001, +5.84682296441E+002
+1.53538172716E+007, +1.81634205387E+001, +5.89863399934E+002
+1.54788485607E+007, +1.93223269382E+001, +5.95058236430E+002
+1.56038798498E+007, +1.87780839840E+001, +6.03986667854E+002
+1.57289111389E+007, +2.17111607550E+001, +6.10732165928E+002
+1.58539424280E+007, +1.86778178101E+001, +6.17838289689E+002
+1.59789737171E+007, +1.92856333471E+001, +6.23398777728E+002
+1.61040050063E+007, +1.99632302739E+001, +6.28249431968E+002
+1.62290362954E+007, +2.21243930126E+001, +6.36781006673E+002
+1.63540675845E+007, +2.07454064079E+001, +6.43200629382E+002
+1.64790988736E+007, +1.79946356643E+001, +6.50873665628E+002
+1.66041301627E+007, +2.20790647765E+001, +6.57935595358E+002
+1.67291614518E+007, +1.93676571695E+001, +6.65303726624E+002
+1.68541927409E+007, +2.16403741364E+001, +6.73251712434E+002
+1.69792240300E+007, +2.22583094134E+001, +6.77097955381E+002
+1.71042553191E+007, +1.74993720564E+001, +6.88654323330E+002
+1.72292866083E+007, +2.06846873274E+001, +6.95400454340E+002
+1.73543178974E+007, +1.92545030002E+001, +7.02436800430E+002
+1.74793491865E+007, +1.95494434060E+001, +7.12647950887E+002
+1.76043804756E+007, +2.19273446132E+001, +7.19471501344E+002
+1.77294117647E+007, +2.03375227805E+001, +7.24984095167E+002
+1.78544430538E+007, +2.17450203584E+001, +7.32580411278E+002
+1.79794743429E+007, +1.95170506375E+001, +7.39962595847E+002
+1.81045056320E+007, +2.15302501463E+001, +7.47705057715E+002
+1.82295369212E+007, +2.70524161013E+001, +7.58197370968E+002
+1.83545682103E+007, +2.48017195475E+001, +7.63644207923E+002
+1.84795994994E+007, +2.69217387002E+001, +7.72332523694E+002
+1.86046307885E+007, +2.58430045964E+001, +7.79605742672E+002
+1.87296620776E+007, +2.50435052693E+001, +7.90120557014E+002
+1.88546933667E+007, +2.48601933477E+001, +7.99005630810E+002
+1.89797246558E+007, +2.50424461956E+001, +8.06970077126E+002
+1.91047559449E+007, +2.63328825336E+001, +8.17773262020E+002
+1.92297872340E+007, +2.61751566224E+001, +8.25187108536E+002
+1.93548185232E+007, +2.69386249524E+001, +8.32737402849E+002
+1.94798498123E+007, +2.56010025745E+001, +8.44881396889E+002
+1.96048811014E+007, +2.75608802656E+001, +8.48214901633E+002
+1.97299123905E+007, +2.74156641407E+001, +8.61093482071E+002
+1.98549436796E+007, +2.57106305566E+001, +8.73084219051E+002
+1.99799749687E+007, +3.10130848905E+001, +8.78779448605E+002
+2.01050062578E+007, +3.00147327464E+001, +8.92395114752E+002
+2.02300375469E+007, +3.03592996002E+001, +8.98586596882E+002
+2.03550688360E+007, +3.64115895576E+001, +9.12524308852E+002
+2.04801001252E+007, +2.68943899236E+001, +9.21134586933E+002
+2.06051314143E+007, +3.36731898594E+001, +9.32462381179E+002
+2.07301627034E+007, +3.10611540209E+001, +9.42208252465E+002
+2.08551939925E+007, +3.15121063738E+001, +9.53604594155E+002
+2.09802252816E+007, +3.64538772301E+001, +9.56779204429E+002
+2.11052565707E+007, +3.84608286786E+001, +9.69704875023E+002
+2.12302878598E+007, +3.95888520303E+001, +9.81661766134E+002
+2.13553191489E+007, +4.19320055820E+001, +9.94365372871E+002
+2.14803504380E+007, +3.70724210655E+001, +1.00385866995E+003
+2.16053817272E+007, +4.22564893595E+001, +1.01179715067E+003
+2.17304130163E+007, +4.35876324287E+001, +1.02588756426E+003
+2.18554443054E+007, +5.02296429441E+001, +1.03699654253E+003
+2.19804755945E+007, +4.65412140499E+001, +1.05188358125E+003
+2.21055068836E+007, +4.95200351416E+001, +1.06191947586E+003
+2.22305381727E+007, +4.82577165706E+001, +1.07937476447E+003
+2.23555694618E+007, +5.53339454699E+001, +1.08484038704E+003
+2.24806007509E+007, +5.45753047503E+001, +1.09568556690E+003
+2.26056320401E+007, +5.37412969254E+001, +1.10679947459E+003
+2.27306633292E+007, +6.44702949980E+001, +1.12214471811E+003
+2.28556946183E+007, +6.69993259391E+001, +1.13241934524E+003
+2.29807259074E+007, +6.95056632105E+001, +1.14828226072E+003
+2.31057571965E+007, +7.37660327323E+001, +1.15641623585E+003
+2.32307884856E+007, +7.04309332284E+001, +1.16372335035E+003
+2.33558197747E+007, +8.66408600121E+001, +1.17950849693E+003
+2.34808510638E+007, +7.57788651823E+001, +1.19747026933E+003
+2.36058823529E+007, +8.18139861943E+001, +1.20465208800E+003
+2.37309136421E+007, +8.51480927698E+001, +1.21408353508E+003
+2.38559449312E+007, +8.00774339942E+001, +1.22042216638E+003
+2.39809762203E+007, +8.52551046203E+001, +1.23935980622E+003
+2.41060075094E+007, +9.04093244673E+001, +1.24202090085E+003
+2.42310387985E+007, +9.00072911797E+001, +1.26527579422E+003
+2.43560700876E+007, +8.54393112538E+001, +1.28242033462E+003
+2.44811013767E+007, +9.36748703484E+001, +1.28288518882E+003
+2.46061326658E+007, +9.72545072575E+001, +1.30196949689E+003
+2.47311639549E+007, +7.46868324375E+001, +1.31592189338E+003
+2.48561952441E+007, +8.42371285969E+001, +1.32488256875E+003
+2.49812265332E+007, +8.84389879050E+001, +1.34237257727E+003
+2.51062578223E+007, +8.81243900977E+001, +1.36693978304E+003
+2.52312891114E+007, +8.11767145256E+001, +1.37306879055E+003
+2.53563204005E+007, +7.87526531195E+001, +1.38996459134E+003
+2.54813516896E+007, +8.82274752607E+001, +1.41777096055E+003
+2.56063829787E+007, +9.01687186682E+001, +1.42195694200E+003
+2.57314142678E+007, +8.16233795925E+001, +1.45235372352E+003
+2.58564455569E+007, +9.08176278335E+001, +1.47732544416E+003
+2.59814768461E+007, +8.65136694503E+001, +1.48675481698E+003
+2.61065081352E+007, +9.46608172057E+001, +1.52018323617E+003
+2.62315394243E+007, +9.14761707443E+001, +1.51674845532E+003
+2.63565707134E+007, +1.01072130393E+002, +1.54621187559E+003
+2.64816020025E+007, +9.77621800144E+001, +1.56355222626E+003
+2.66066332916E+007, +8.05772166291E+001, +1.58831227596E+003
+2.67316645807E+007, +1.08257218430E+002, +1.59585106027E+003
+2.68566958698E+007, +9.01307597112E+001, +1.62397419987E+003
+2.69817271589E+007, +9.68646361484E+001, +1.65761581349E+003
+2.71067584481E+007, +9.90275368651E+001, +1.67341159046E+003
+2.72317897372E+007, +1.07840274862E+002, +1.70304066746E+003
+2.73568210263E+007, +1.05821377323E+002, +1.73251367051E+003
+2.74818523154E+007, +1.09397007444E+002, +1.74912221082E+003
+2.76068836045E+007, +1.29799665981E+002, +1.76333201016E+003
+2.77319148936E+007, +1.19826342460E+002, +1.80329706271E+003
+2.78569461827E+007, +1.13685805452E+002, +1.82361320869E+003
+2.79819774718E+007, +1.26541720062E+002, +1.84559310909E+003
+2.81070087610E+007, +1.27271171576E+002, +1.86583567063E+003
+2.82320400501E+007, +1.10825983572E+002, +1.90184188034E+003
+2.83570713392E+007, +1.61807068012E+002, +1.93796772418E+003
+2.84821026283E+007, +1.30531356349E+002, +1.97974390728E+003
+2.86071339174E+007, +1.36936447399E+002, +1.99613568428E+003
+2.87321652065E+007, +1.40628319494E+002, +2.02535419147E+003
+2.88571964956E+007, +1.57239712708E+002, +2.07844314784E+003
+2.89822277847E+007, +1.55384153030E+002, +2.09806064872E+003
+2.91072590738E+007, +1.62359295459E+002, +2.11892011011E+003
+2.92322903630E+007, +1.57850548503E+002, +2.16028977808E+003
+2.93573216521E+007, +1.59662581306E+002, +2.21213575473E+003
+2.94823529412E+007, +1.87270066081E+002, +2.24056506682E+003
+2.96073842303E+007, +1.59754794852E+002, +2.25710739004E+003
+2.97324155194E+007, +1.91720741744E+002, +2.30827266109E+003
+2.98574468085E+007, +2.01859942276E+002, +2.36233126613E+003
+2.99824780976E+007, +1.80090178797E+002, +2.40371323770E+003
+3.01075093867E+007, +2.03196386091E+002, +2.42752787592E+003
+3.02325406758E+007, +2.11057626560E+002, +2.47583834565E+003
+3.03575719650E+007, +2.11678396642E+002, +2.55365763354E+003
+3.04826032541E+007, +2.01724629080E+002, +2.54649130593E+003
+3.06076345432E+007, +2.42732703177E+002, +2.66237668940E+003
+3.07326658323E+007, +2.44713420703E+002, +2.64816051663E+003
+3.08576971214E+007, +2.22003113245E+002, +2.74187665650E+003
+3.09827284105E+007, +2.50659559382E+002, +2.76341561742E+003
+3.11077596996E+007, +1.95446889606E+002, +2.82461270778E+003
+3.12327909887E+007, +2.43857794620E+002, +2.90465228506E+003
+3.13578222778E+007, +2.44258923404E+002, +2.95659318912E+003
+3.14828535670E+007, +3.09430097223E+002, +3.07430140268E+003
+3.16078848561E+007, +3.03746674432E+002, +3.10416033835E+003
+3.17329161452E+007, +3.06093644361E+002, +3.16876599590E+003
+3.18579474343E+007, +2.96915848102E+002, +3.25399131577E+003
+3.19829787234E+007, +3.14639381122E+002, +3.25529515669E+003
+3.21080100125E+007, +3.62015363783E+002, +3.36068867737E+003
+3.22330413016E+007, +3.79414024192E+002, +3.44897020324E+003
+3.23580725907E+007, +3.84397837706E+002, +3.59727542081E+003
+3.24831038798E+007, +4.46572717004E+002, +3.68043189685E+003
+3.26081351690E+007, +3.87799035190E+002, +3.76678197315E+003
+3.27331664581E+007, +3.88122270929E+002, +3.87689478281E+003
+3.28581977472E+007, +4.73928759412E+002, +3.95771348723E+003
+3.29832290363E+007, +5.16079581804E+002, +4.05094415732E+003
+3.31082603254E+007, +5.25225117435E+002, +4.12870240559E+003
+3.32332916145E+007, +5.00988960065E+002, +4.25866365875E+003
+3.33583229036E+007, +5.31919295982E+002, +4.44815209340E+003
+3.34833541927E+007, +5.99803425121E+002, +4.62330463464E+003
+3.36083854819E+007, +5.79467536073E+002, +4.75184975776E+003
+3.37334167710E+007, +7.07444129611E+002, +4.93874916063E+003
+3.38584480601E+007, +7.29220747288E+002, +5.02045370287E+003
+3.39834793492E+007, +8.69757257093E+002, +5.16238048306E+003
+3.41085106383E+007, +7.67248272681E+002, +5.41908946946E+003
+3.42335419274E+007, +1.01466291123E+003, +5.50362746638E+003
+3.43585732165E+007, +9.94543858275E+002, +5.86385419421E+003
+3.44836045056E+007, +1.16831051863E+003, +6.05399799320E+003
+3.46086357947E+007, +1.44009360373E+003, +6.23113336700E+003
+3.47336670839E+007, +1.19434433485E+003, +6.69979271889E+003
+3.48586983730E+007, +1.52237324968E+003, +6.92283823135E+003
+3.49837296621E+007, +1.47495885032E+003, +7.28177741391E+003
+3.51087609512E+007, +1.90894980422E+003, +7.30894095538E+003
+3.52337922403E+007, +1.92201187941E+003, +8.05656937081E+003
+3.53588235294E+007, +2.52282130911E+003, +8.03424027191E+003
+3.54838548185E+007, +2.53846946061E+003, +9.09695921984E+003
+3.56088861076E+007, +2.88033765067E+003, +9.42575213884E+003
+3.57339173967E+007, +3.17217918977E+003, +9.15654466847E+003
+3.58589486859E+007, +3.73437270495E+003, +1.05427383572E+004
+3.59839799750E+007, +4.95110813906E+003, +1.10374811399E+004
+3.61090112641E+007, +4.55365055616E+003, +1.14461913384E+004
+3.62340425532E+007, +5.70778164931E+003, +1.27907956916E+004
+3.63590738423E+007, +7.14537511216E+003, +1.45035947405E+004
+3.64841051314E+007, +9.20880221211E+003, +1.30561922424E+004
+3.66091364205E+007, +1.10645603820E+004, +1.47063030993E+004
+3.67341677096E+007, +1.45169623894E+004, +1.37248455274E+004
+3.68591989987E+007, +1.84717171858E+004, +1.34524045386E+004
+3.69842302879E+007, +2.19194721825E+004, +1.41844886700E+004
+3.71092615770E+007, +2.18624480561E+004, +1.06623850563E+004
+3.72342928661E+007, +2.72829670772E+004, +4.75508209887E+003
+3.73593241552E+007, +2.70766967736E+004, -3.96729282122E+002
+3.74843554443E+007, +2.93490996246E+004, +4.13539253620E+002
+3.76093867334E+007, +2.51415089287E+004, -5.99294586931E+003
+3.77344180225E+007, +2.08477749535E+004, -7.77558129711E+003
+3.78594493116E+007, +2.19811968663E+004, -1.11578835448E+004
+3.79844806008E+007, +1.63168000256E+004, -1.09819317149E+004
+3.81095118899E+007, +1.41411829466E+004, -1.12220601287E+004
+3.82345431790E+007, +1.10202891117E+004, -1.22271325205E+004
+3.83595744681E+007, +9.76132757169E+003, -1.23596411816E+004
+3.84846057572E+007, +8.03124909712E+003, -1.12415824178E+004
+3.86096370463E+007, +7.38413916329E+003, -1.09060074442E+004
+3.87346683354E+007, +6.66646381210E+003, -1.01662660746E+004
+3.88596996245E+007, +5.70164212162E+003, -9.73614513717E+003
+3.89847309136E+007, +4.93158227865E+003, -9.71264984378E+003
+3.91097622028E+007, +4.84329960989E+003, -9.48674236091E+003
+3.92347934919E+007, +3.94225456867E+003, -8.43641442802E+003
+3.93598247810E+007, +3.48677781079E+003, -8.29646302430E+003
+3.94848560701E+007, +3.55842191893E+003, -7.89369536370E+003
+3.96098873592E+007, +3.22663447883E+003, -7.51182452960E+003
+3.97349186483E+007, +2.83463464487E+003, -7.41664895326E+003
+3.98599499374E+007, +2.46142172288E+003, -6.88343834634E+003
+3.99849812265E+007, +2.64867164869E+003, -6.68268987275E+003
+4.01100125156E+007, +1.87895932099E+003, -6.66168195977E+003
