"# Channel 1"
"# Trace 1"
Frequency, Formatted Data, Formatted Data
+1.00000000000E+005, +7.06585511643E+001, +2.91636113804E+000
+2.25031289111E+005, +7.06077249983E+001, +7.36905963861E+000
+3.50062578223E+005, +7.05903014945E+001, +1.16484622214E+001
+4.75093867334E+005, +7.06321712324E+001, +1.55873819681E+001
+6.00125156446E+005, +7.04780030382E+001, +1.97473227772E+001
+7.25156445557E+005, +7.06002869217E+001, +2.38057905977E+001
+8.50187734668E+005, +7.06999172403E+001, +2.79181767424E+001
+9.75219023780E+005, +7.07148838009E+001, +3.20081640106E+001
+1.10025031289E+006, +7.05880411641E+001, +3.60083823744E+001
+1.22528160200E+006, +7.05895126648E+001, +4.01725964493E+001
+1.35031289111E+006, +7.05622614304E+001, +4.43209376844E+001
+1.47534418023E+006, +7.06948549989E+001, +4.83492734683E+001
+1.60037546934E+006, +7.05777920631E+001, +5.23871421244E+001
+1.72540675845E+006, +7.05928466185E+001, +5.67565070161E+001
+1.85043804756E+006, +7.05711871384E+001, +6.06358937783E+001
+1.97546933667E+006, +7.06269936632E+001, +6.47799653659E+001
+2.10050062578E+006, +7.07365361544E+001, +6.88147643065E+001
+2.22553191489E+006, +7.05989333034E+001, +7.28873450661E+001
+2.35056320401E+006, +7.06512823240E+001, +7.70856643462E+001
+2.47559449312E+006, +7.08164209668E+001, +8.11971529062E+001
+2.60062578223E+006, +7.07866491219E+001, +8.53832252522E+001
+2.72565707134E+006, +7.08693801901E+001, +8.96140412964E+001
+2.85068836045E+006, +7.06642213257E+001, +9.37605798807E+001
+2.97571964956E+006, +7.07816430844E+001, +9.75905575560E+001
+3.10075093867E+006, +7.06665428383E+001, +1.01735825709E+002
+3.22578222778E+006, +7.07943275936E+001, +1.06006655450E+002
+3.35081351690E+006, +7.06415882045E+001, +1.10140467857E+002
+3.47584480601E+006, +7.09927947355E+001, +1.14192054410E+002
+3.60087609512E+006, +7.08284854210E+001, +1.18293526023E+002
+3.72590738423E+006, +7.09118755960E+001, +1.22733907883E+002
+3.85093867334E+006, +7.10408304567E+001, +1.26762488488E+002
+3.97596996245E+006, +7.09750614872E+001, +1.30574335563E+002
+4.10100125156E+006, +7.11677271722E+001, +1.35065927264E+002
+4.22603254068E+006, +7.11947173753E+001, +1.39564173875E+002
+4.35106382979E+006, +7.12393227221E+001, +1.43479140826E+002
+4.47609511890E+006, +7.14189234892E+001, +1.47619194558E+002
+4.60112640801E+006, +7.12320398241E+001, +1.51861011483E+002
+4.72615769712E+006, +7.12703309105E+001, +1.56049671364E+002
+4.85118898623E+006, +7.10759570024E+001, +1.60367499978E+002
+4.97622027534E+006, +7.14501632765E+001, +1.64277106092E+002
+5.10125156446E+006, +7.16832084966E+001, +1.68716089030E+002
+5.22628285357E+006, +7.18751697426E+001, +1.72851290045E+002
+5.35131414268E+006, +7.16493193241E+001, +1.77111353609E+002
+5.47634543179E+006, +7.13729643463E+001, +1.82073151225E+002
+5.60137672090E+006, +7.21875060291E+001, +1.85525621199E+002
+5.72640801001E+006, +7.23614507146E+001, +1.89918121667E+002
+5.85143929912E+006, +7.23195204489E+001, +1.94715910254E+002
+5.97647058824E+006, +7.22455588985E+001, +1.98493541179E+002
+6.10150187735E+006, +7.26581211685E+001, +2.02272537169E+002
+6.22653316646E+006, +7.23662958822E+001, +2.07480975100E+002
+6.35156445557E+006, +7.27096163894E+001, +2.11288686062E+002
+6.47659574468E+006, +7.29609853787E+001, +2.15911727133E+002
+6.60162703379E+006, +7.31183376531E+001, +2.20048985527E+002
+6.72665832290E+006, +7.34927241671E+001, +2.24362711900E+002
+6.85168961202E+006, +7.38595359197E+001, +2.28654782919E+002
+6.97672090113E+006, +7.37547893649E+001, +2.33287882239E+002
+7.10175219024E+006, +7.39681620899E+001, +2.37987778246E+002
+7.22678347935E+006, +7.41891748255E+001, +2.41865669538E+002
+7.35181476846E+006, +7.41769994365E+001, +2.46497082109E+002
+7.47684605757E+006, +7.43262418260E+001, +2.51215349762E+002
+7.60187734668E+006, +7.44513110067E+001, +2.55608474450E+002
+7.72690863579E+006, +7.45640766507E+001, +2.59780184474E+002
+7.85193992491E+006, +7.41423488964E+001, +2.64502242281E+002
+7.97697121402E+006, +7.48921964241E+001, +2.68478848228E+002
+8.10200250313E+006, +7.51680444757E+001, +2.73106972057E+002
+8.22703379224E+006, +7.51827411574E+001, +2.77752186078E+002
+8.35206508135E+006, +7.53204173489E+001, +2.82628511078E+002
+8.47709637046E+006, +7.56545128321E+001, +2.86815503610E+002
+8.60212765957E+006, +7.52018017962E+001, +2.91551813522E+002
+8.72715894869E+006, +7.59003495183E+001, +2.96649840124E+002
+8.85219023780E+006, +7.59450667815E+001, +3.00859740608E+002
+8.97722152691E+006, +7.63816509866E+001, +3.05437907344E+002
+9.10225281602E+006, +7.56870804780E+001, +3.10139876086E+002
+9.22728410513E+006, +7.63404727745E+001, +3.14933632730E+002
+9.35231539424E+006, +7.63594385582E+001, +3.19149132117E+002
+9.47734668335E+006, +7.68877332407E+001, +3.24224060827E+002
+9.60237797247E+006, +7.70290976239E+001, +3.28873799106E+002
+9.72740926158E+006, +7.72909467472E+001, +3.33532679160E+002
+9.85244055069E+006, +7.75408399902E+001, +3.38959125342E+002
+9.97747183980E+006, +7.78705916922E+001, +3.43374420087E+002
+1.01025031289E+007, +7.80932390769E+001, +3.47311743623E+002
+1.02275344180E+007, +7.78998624483E+001, +3.52503231546E+002
+1.03525657071E+007, +7.76068680825E+001, +3.57500386615E+002
+1.04775969962E+007, +7.86647593508E+001, +3.63015396645E+002
+1.06026282854E+007, +7.75278812452E+001, +3.67392671069E+002
+1.07276595745E+007, +7.89200414588E+001, +3.73017753948E+002
+1.08526908636E+007, +7.95034113797E+001, +3.76604994887E+002
+1.09777221527E+007, +7.98879101967E+001, +3.82452033318E+002
+1.11027534418E+007, +7.89136411515E+001, +3.86464257548E+002
+1.12277847309E+007, +8.02919491577E+001, +3.92698907025E+002
+1.13528160200E+007, +7.96827877772E+001, +3.96904366367E+002
+1.14778473091E+007, +7.94749185205E+001, +4.02687782814E+002
+1.16028785982E+007, +8.09870834746E+001, +4.07693990386E+002
+1.17279098874E+007, +7.97337580312E+001, +4.12867571171E+002
+1.18529411765E+007, +8.10186006044E+001, +4.17765959521E+002
+1.19779724656E+007, +8.17416609671E+001, +4.23470723205E+002
+1.21030037547E+007, +8.22333389818E+001, +4.28107938808E+002
+1.22280350438E+007, +8.07030997208E+001, +4.33296545179E+002
+1.23530663329E+007, +8.19385492892E+001, +4.38780708334E+002
+1.24780976220E+007, +8.18042424964E+001, +4.44714917441E+002
+1.26031289111E+007, +8.24608707697E+001, +4.49193943660E+002
+1.27281602003E+007, +8.20109596818E+001, +4.54599077182E+002
+1.28531914894E+007, +8.29348445280E+001, +4.59732256227E+002
+1.29782227785E+007, +8.29698995578E+001, +4.65679371539E+002
+1.31032540676E+007, +8.28134097475E+001, +4.71638300011E+002
+1.32282853567E+007, +8.33347529895E+001, +4.76046946204E+002
+1.33533166458E+007, +8.33930977980E+001, +4.81386740475E+002
+1.34783479349E+007, +8.35284781082E+001, +4.86668912538E+002
+1.36033792240E+007, +8.48603241622E+001, +4.94975077114E+002
+1.37284105131E+007, +8.50149631175E+001, +4.97636353489E+002
+1.38534418023E+007, +8.47826412986E+001, +5.03094824441E+002
+1.39784730914E+007, +8.50948924923E+001, +5.10541772447E+002
+1.41035043805E+007, +8.61975846582E+001, +5.15528528004E+002
+1.42285356696E+007, +8.65257047049E+001, +5.21082995213E+002
+1.43535669587E+007, +8.50798568204E+001, +5.27386778494E+002
+1.44785982478E+007, +8.64481846077E+001, +5.34328063539E+002
+1.46036295369E+007, +8.69384484257E+001, +5.38695233061E+002
+1.47286608260E+007, +8.77722592635E+001, +5.44516677282E+002
+1.48536921151E+007, +8.83930381898E+001, +5.51202530636E+002
+1.49787234043E+007, +8.88764241577E+001, +5.56974552985E+002
+1.51037546934E+007, +8.80816128254E+001, +5.61686316257E+002
+1.52287859825E+007, +8.84200878819E+001, +5.69371816355E+002
+1.53538172716E+007, +8.93222534710E+001, +5.73835272910E+002
+1.54788485607E+007, +8.98653922577E+001, +5.79449271080E+002
+1.56038798498E+007, +8.92325851333E+001, +5.88155737814E+002
+1.57289111389E+007, +9.03980240065E+001, +5.93479737170E+002
+1.58539424280E+007, +8.86191682337E+001, +5.99781449477E+002
+1.59789737171E+007, +9.08239673533E+001, +6.05780976688E+002
+1.61040050063E+007, +9.22365092828E+001, +6.13563275251E+002
+1.62290362954E+007, +9.15857346906E+001, +6.16304848847E+002
+1.63540675845E+007, +9.23162482400E+001, +6.25431302073E+002
+1.64790988736E+007, +9.30971808276E+001, +6.33587329213E+002
+1.66041301627E+007, +9.49555248863E+001, +6.35930220426E+002
+1.67291614518E+007, +9.37659451076E+001, +6.46545281373E+002
+1.68541927409E+007, +9.43586135209E+001, +6.52811913564E+002
+1.69792240300E+007, +9.30524645168E+001, +6.58733386027E+002
+1.71042553191E+007, +9.35746263553E+001, +6.68091223383E+002
+1.72292866083E+007, +9.43408148459E+001, +6.71102478415E+002
+1.73543178974E+007, +9.19427391150E+001, +6.78068088082E+002
+1.74793491865E+007, +9.56731702449E+001, +6.86840743816E+002
+1.76043804756E+007, +9.70639007013E+001, +6.93176926337E+002
+1.77294117647E+007, +9.74126681182E+001, +6.98480699584E+002
+1.78544430538E+007, +9.74039946629E+001, +7.08749314491E+002
+1.79794743429E+007, +9.93370020566E+001, +7.17171191118E+002
+1.81045056320E+007, +9.85494438752E+001, +7.26466894658E+002
+1.82295369212E+007, +1.01052709661E+002, +7.29594644861E+002
+1.83545682103E+007, +1.02795301542E+002, +7.34679654537E+002
+1.84795994994E+007, +1.01611368115E+002, +7.44734331149E+002
+1.86046307885E+007, +1.02945264465E+002, +7.51960891827E+002
+1.87296620776E+007, +1.02150615049E+002, +7.61626232060E+002
+1.88546933667E+007, +1.04856362607E+002, +7.66508301664E+002
+1.89797246558E+007, +1.07170438470E+002, +7.75627232356E+002
+1.91047559449E+007, +1.05849784421E+002, +7.83116076833E+002
+1.92297872340E+007, +1.06879015978E+002, +7.88866363001E+002
+1.93548185232E+007, +1.08765027312E+002, +8.01101177094E+002
+1.94798498123E+007, +1.10392233199E+002, +8.06752840636E+002
+1.96048811014E+007, +1.12366342073E+002, +8.15286949649E+002
+1.97299123905E+007, +1.08267302867E+002, +8.25078326887E+002
+1.98549436796E+007, +1.12330449192E+002, +8.32286363757E+002
+1.99799749687E+007, +1.07600800286E+002, +8.40613999024E+002
+2.01050062578E+007, +1.12202354270E+002, +8.52791260931E+002
+2.02300375469E+007, +1.13359310626E+002, +8.57038318647E+002
+2.03550688360E+007, +1.15201247177E+002, +8.65843612857E+002
+2.04801001252E+007, +1.15274994866E+002, +8.77450973791E+002
+2.06051314143E+007, +1.12119212359E+002, +8.83686292160E+002
+2.07301627034E+007, +1.12562898081E+002, +8.92189366665E+002
+2.08551939925E+007, +1.17857382089E+002, +9.08902829853E+002
+2.09802252816E+007, +1.15918695622E+002, +9.16921459449E+002
+2.11052565707E+007, +1.23156358486E+002, +9.23153357602E+002
+2.12302878598E+007, +1.26958477502E+002, +9.30307269733E+002
+2.13553191489E+007, +1.22941574616E+002, +9.41974125915E+002
+2.14803504380E+007, +1.29951589789E+002, +9.56513279664E+002
+2.16053817272E+007, +1.31305160122E+002, +9.62530156812E+002
+2.17304130163E+007, +1.31350850672E+002, +9.72365032271E+002
+2.18554443054E+007, +1.33252217975E+002, +9.84768337951E+002
+2.19804755945E+007, +1.28326311925E+002, +9.95972024259E+002
+2.21055068836E+007, +1.37141860504E+002, +1.00229613810E+003
+2.22305381727E+007, +1.38089745477E+002, +1.01455708826E+003
+2.23555694618E+007, +1.38976477060E+002, +1.02920062056E+003
+2.24806007509E+007, +1.37854075840E+002, +1.03222068870E+003
+2.26056320401E+007, +1.47593735512E+002, +1.04601263750E+003
+2.27306633292E+007, +1.46790754196E+002, +1.05833881957E+003
+2.28556946183E+007, +1.48907035096E+002, +1.06488896945E+003
+2.29807259074E+007, +1.51431609032E+002, +1.07988964220E+003
+2.31057571965E+007, +1.53468411361E+002, +1.08558570289E+003
+2.32307884856E+007, +1.55916097869E+002, +1.09152388291E+003
+2.33558197747E+007, +1.64634866825E+002, +1.10560818666E+003
+2.34808510638E+007, +1.68327953785E+002, +1.12035710449E+003
+2.36058823529E+007, +1.73852452581E+002, +1.12855354266E+003
+2.37309136421E+007, +1.74836100723E+002, +1.13935707542E+003
+2.38559449312E+007, +1.80902474416E+002, +1.15191300794E+003
+2.39809762203E+007, +1.70077767960E+002, +1.15227235690E+003
+2.41060075094E+007, +1.85056528818E+002, +1.17488432211E+003
+2.42310387985E+007, +1.79164333639E+002, +1.18045755259E+003
+2.43560700876E+007, +1.84158619115E+002, +1.19032693466E+003
+2.44811013767E+007, +1.90546261557E+002, +1.20067107602E+003
+2.46061326658E+007, +1.87607206441E+002, +1.20182421525E+003
+2.47311639549E+007, +1.90706314656E+002, +1.21694177946E+003
+2.48561952441E+007, +1.94322062445E+002, +1.23749364301E+003
+2.49812265332E+007, +1.97347466581E+002, +1.24387440734E+003
+2.51062578223E+007, +1.98036278569E+002, +1.25721184020E+003
+2.52312891114E+007, +1.89281713991E+002, +1.26428841940E+003
+2.53563204005E+007, +1.94023641834E+002, +1.27673082809E+003
+2.54813516896E+007, +1.93059618851E+002, +1.29496871991E+003
+2.56063829787E+007, +1.91307663785E+002, +1.31201903696E+003
+2.57314142678E+007, +1.95294318391E+002, +1.32274650049E+003
+2.58564455569E+007, +1.95701377852E+002, +1.34279664842E+003
+2.59814768461E+007, +1.96304617893E+002, +1.35827461144E+003
+2.61065081352E+007, +2.01433807655E+002, +1.37406312685E+003
+2.62315394243E+007, +2.05718658846E+002, +1.39185846899E+003
+2.63565707134E+007, +1.97954462298E+002, +1.39580820906E+003
+2.64816020025E+007, +2.03607924131E+002, +1.41623708611E+003
+2.66066332916E+007, +1.94697231847E+002, +1.43190522825E+003
+2.67316645807E+007, +2.11912100981E+002, +1.45429301787E+003
+2.68566958698E+007, +2.17252376245E+002, +1.46981966437E+003
+2.69817271589E+007, +2.26198878230E+002, +1.50675112185E+003
+2.71067584481E+007, +2.10734388744E+002, +1.52208272483E+003
+2.72317897372E+007, +2.19506846212E+002, +1.52717251160E+003
+2.73568210263E+007, +2.20145958011E+002, +1.55783090727E+003
+2.74818523154E+007, +2.33894174404E+002, +1.56147706797E+003
+2.76068836045E+007, +2.31949965957E+002, +1.60242595046E+003
+2.77319148936E+007, +2.39280626509E+002, +1.61065411817E+003
+2.78569461827E+007, +2.44301568463E+002, +1.62005128636E+003
+2.79819774718E+007, +2.43970577340E+002, +1.63352564986E+003
+2.81070087610E+007, +2.62694462291E+002, +1.66745985306E+003
+2.82320400501E+007, +2.41844319177E+002, +1.67700585430E+003
+2.83570713392E+007, +2.58258216456E+002, +1.69592146875E+003
+2.84821026283E+007, +2.39599329639E+002, +1.73575415759E+003
+2.86071339174E+007, +2.59838163219E+002, +1.74096406807E+003
+2.87321652065E+007, +2.54251513739E+002, +1.76684998356E+003
+2.88571964956E+007, +2.65993984069E+002, +1.80238346322E+003
+2.89822277847E+007, +2.61852975023E+002, +1.82640117035E+003
+2.91072590738E+007, +2.72736228036E+002, +1.85958340623E+003
+2.92322903630E+007, +2.78623601894E+002, +1.88007950655E+003
+2.93573216521E+007, +2.81900136701E+002, +1.92329468110E+003
+2.94823529412E+007, +2.83826149254E+002, +1.94868755937E+003
+2.96073842303E+007, +2.95006561820E+002, +1.96399155311E+003
+2.97324155194E+007, +2.76367751168E+002, +1.97057894343E+003
+2.98574468085E+007, +3.08169028856E+002, +2.02464207705E+003
+2.99824780976E+007, +3.11187783096E+002, +2.03332297717E+003
+3.01075093867E+007, +3.29241956613E+002, +2.07488548063E+003
+3.02325406758E+007, +3.14710624941E+002, +2.12783721337E+003
+3.03575719650E+007, +3.11655985146E+002, +2.14420931269E+003
+3.04826032541E+007, +3.25362701363E+002, +2.18248425937E+003
+3.06076345432E+007, +3.64247162956E+002, +2.19747692039E+003
+3.07326658323E+007, +3.69212021489E+002, +2.23707918438E+003
+3.08576971214E+007, +3.70491993728E+002, +2.27145484535E+003
+3.09827284105E+007, +3.97620153134E+002, +2.30607481621E+003
+3.11077596996E+007, +4.12718480303E+002, +2.34719023471E+003
+3.12327909887E+007, +3.69898899095E+002, +2.38536963964E+003
+3.13578222778E+007, +3.83626429097E+002, +2.45894482916E+003
+3.14828535670E+007, +4.35293718463E+002, +2.48615512189E+003
+3.16078848561E+007, +4.20044632572E+002, +2.49476790562E+003
+3.17329161452E+007, +4.41971941716E+002, +2.56102749435E+003
+3.18579474343E+007, +4.61163516762E+002, +2.62764723030E+003
+3.19829787234E+007, +4.65350912316E+002, +2.66252910774E+003
+3.21080100125E+007, +4.78395124899E+002, +2.68641887916E+003
+3.22330413016E+007, +4.99478872898E+002, +2.75425258175E+003
+3.23580725907E+007, +5.36139098734E+002, +2.81052511900E+003
+3.24831038798E+007, +5.25184408373E+002, +2.84767946415E+003
+3.26081351690E+007, +5.59381607626E+002, +2.92659381939E+003
+3.27331664581E+007, +5.81706442495E+002, +2.97547601077E+003
+3.28581977472E+007, +5.45274291375E+002, +2.95671044726E+003
+3.29832290363E+007, +6.13751693134E+002, +3.07421964309E+003
+3.31082603254E+007, +5.97887676424E+002, +3.16968401675E+003
+3.32332916145E+007, +6.74477088577E+002, +3.20284019091E+003
+3.33583229036E+007, +6.42475006266E+002, +3.28161805732E+003
+3.34833541927E+007, +6.72724549269E+002, +3.33191806743E+003
+3.36083854819E+007, +7.68389837452E+002, +3.46270286117E+003
+3.37334167710E+007, +7.30634303842E+002, +3.48375170192E+003
+3.38584480601E+007, +7.74275760181E+002, +3.57803814828E+003
+3.39834793492E+007, +7.42071987700E+002, +3.63838416295E+003
+3.41085106383E+007, +8.09850418993E+002, +3.75302211737E+003
+3.42335419274E+007, +9.21120600676E+002, +3.76512474077E+003
+3.43585732165E+007, +9.02718585932E+002, +4.00082572597E+003
+3.44836045056E+007, +1.06087560399E+003, +3.91894162070E+003
+3.46086357947E+007, +1.05225160296E+003, +4.07359586135E+003
+3.47336670839E+007, +1.14598819524E+003, +4.18337001754E+003
+3.48586983730E+007, +1.23195809665E+003, +4.29092386203E+003
+3.49837296621E+007, +1.16002820091E+003, +4.37645125897E+003
+3.51087609512E+007, +1.21397547408E+003, +4.49217849405E+003
+3.52337922403E+007, +1.33771698543E+003, +4.53728930911E+003
+3.53588235294E+007, +1.37961479122E+003, +4.78891923821E+003
+3.54838548185E+007, +1.48542939573E+003, +5.00712199851E+003
+3.56088861076E+007, +1.52808456756E+003, +5.05152654416E+003
+3.57339173967E+007, +1.67310302382E+003, +5.19704315920E+003
+3.58589486859E+007, +1.92091355339E+003, +5.40775271019E+003
+3.59839799750E+007, +1.81881402242E+003, +5.69003782157E+003
+3.61090112641E+007, +2.01400384021E+003, +5.56513626473E+003
+3.62340425532E+007, +2.38486553817E+003, +5.89393848501E+003
+3.63590738423E+007, +2.26927418540E+003, +6.04506338981E+003
+3.64841051314E+007, +2.26770351823E+003, +6.35431461566E+003
+3.66091364205E+007, +2.67087049256E+003, +6.52492833463E+003
+3.67341677096E+007, +2.90060640211E+003, +6.72889264101E+003
+3.68591989987E+007, +3.10392000434E+003, +7.20706938487E+003
+3.69842302879E+007, +3.24155081639E+003, +7.17369777252E+003
+3.71092615770E+007, +3.98215187329E+003, +7.23017594546E+003
+3.72342928661E+007, +4.07452571156E+003, +7.85789850725E+003
+3.73593241552E+007, +4.19396805931E+003, +8.13238301042E+003
+3.74843554443E+007, +5.20474905692E+003, +8.58489660283E+003
+3.76093867334E+007, +5.64806099541E+003, +8.57090981437E+003
+3.77344180225E+007, +6.14502263160E+003, +9.12002533652E+003
+3.78594493116E+007, +7.69571326167E+003, +9.41835309368E+003
+3.79844806008E+007, +8.81574523945E+003, +9.56317202500E+003
+3.81095118899E+007, +8.96371975496E+003, +9.87745564133E+003
+3.82345431790E+007, +1.00035688063E+004, +9.38604440543E+003
+3.83595744681E+007, +1.12665163657E+004, +9.26999407604E+003
+3.84846057572E+007, +1.38666351397E+004, +9.67473572633E+003
+3.86096370463E+007, +1.42627854100E+004, +9.66612292717E+003
+3.87346683354E+007, +1.76887467303E+004, +7.09040211208E+003
+3.88596996245E+007, +1.72556301534E+004, +6.26646178471E+003
+3.89847309136E+007, +1.94674591179E+004, +4.04439207433E+003
+3.91097622028E+007, +2.10453308506E+004, -9.62779023611E+002
+3.92347934919E+007, +1.93665453433E+004, -9.06937777659E+002
+3.93598247810E+007, +1.96158327440E+004, -4.20731994283E+003
+3.94848560701E+007, +1.75890683006E+004, -7.66026842497E+003
+3.96098873592E+007, +1.60059545316E+004, -7.80321916018E+003
+3.97349186483E+007, +1.31556685394E+004, -8.12968838823E+003
+3.98599499374E+007, +1.27158375287E+004, -8.75002133702E+003
+3.99849812265E+007, +1.18443231450E+004, -1.01864924613E+004
+4.01100125156E+007, +9.45063677576E+003, -9.81929206154E+003
