"# Channel 1"
"# Trace 1"
Frequency, Formatted Data, Formatted Data
+1.00000000000E+005, +3.69262440716E+001, +3.13580743009E+000
+2.25031289111E+005, +3.69368303120E+001, +7.29273654771E+000
+3.50062578223E+005, +3.69363435715E+001, +1.12733743122E+001
+4.75093867334E+005, +3.69442885513E+001, +1.52300996167E+001
+6.00125156446E+005, +3.69471286680E+001, +1.92267449295E+001
+7.25156445557E+005, +3.69890840188E+001, +2.33030899162E+001
+8.50187734668E+005, +3.69830005028E+001, +2.72862502544E+001
+9.75219023780E+005, +3.69889364675E+001, +3.12553114783E+001
+1.10025031289E+006, +3.69365015289E+001, +3.52464302910E+001
+1.22528160200E+006, +3.70349592927E+001, +3.93304062893E+001
+1.35031289111E+006, +3.70652679403E+001, +4.32652881858E+001
+1.47534418023E+006, +3.70212402009E+001, +4.73074541241E+001
+1.60037546934E+006, +3.70298219279E+001, +5.13255473629E+001
+1.72540675845E+006, +3.69474182154E+001, +5.53513953227E+001
+1.85043804756E+006, +3.68709510790E+001, +5.93364674587E+001
+1.97546933667E+006, +3.69570407484E+001, +6.33594652587E+001
+2.10050062578E+006, +3.70154075922E+001, +6.73773389702E+001
+2.22553191489E+006, +3.69485942193E+001, +7.14141954303E+001
+2.35056320401E+006, +3.69274578653E+001, +7.54191159571E+001
+2.47559449312E+006, +3.70277154033E+001, +7.95843726173E+001
+2.60062578223E+006, +3.69560132710E+001, +8.35672991388E+001
+2.72565707134E+006, +3.70303427845E+001, +8.76210977204E+001
+2.85068836045E+006, +3.70800163688E+001, +9.16774143738E+001
+2.97571964956E+006, +3.67796808032E+001, +9.58095407906E+001
+3.10075093867E+006, +3.71044521687E+001, +9.97778277430E+001
+3.22578222778E+006, +3.71622355746E+001, +1.03707547052E+002
+3.35081351690E+006, +3.71300516532E+001, +1.07936421847E+002
+3.47584480601E+006, +3.70798946943E+001, +1.11999684148E+002
+3.60087609512E+006, +3.72125163895E+001, +1.16123387780E+002
+3.72590738423E+006, +3.72620244137E+001, +1.20263279401E+002
+3.85093867334E+006, +3.70425079801E+001, +1.24182021722E+002
+3.97596996245E+006, +3.72812465906E+001, +1.28269645545E+002
+4.10100125156E+006, +3.73848077768E+001, +1.32528592500E+002
+4.22603254068E+006, +3.70981866258E+001, +1.36449183432E+002
+4.35106382979E+006, +3.75092011658E+001, +1.40628150276E+002
+4.47609511890E+006, +3.72546363109E+001, +1.45050204821E+002
+4.60112640801E+006, +3.71593621333E+001, +1.48923102531E+002
+4.72615769712E+006, +3.74115762544E+001, +1.53213853249E+002
+4.85118898623E+006, +3.74325934974E+001, +1.57160499128E+002
+4.97622027534E+006, +3.72453862727E+001, +1.61542069021E+002
+5.10125156446E+006, +3.73901019073E+001, +1.65585368773E+002
+5.22628285357E+006, +3.76974865080E+001, +1.69704902426E+002
+5.35131414268E+006, +3.80229286022E+001, +1.73953835994E+002
+5.47634543179E+006, +3.72064824272E+001, +1.77917139916E+002
+5.60137672090E+006, +3.76837794295E+001, +1.82627057255E+002
+5.72640801001E+006, +3.71536373004E+001, +1.86749389093E+002
+5.85143929912E+006, +3.70569404218E+001, +1.90651100656E+002
+5.97647058824E+006, +3.76083372919E+001, +1.95535698369E+002
+6.10150187735E+006, +3.75506880343E+001, +1.99415100805E+002
+6.22653316646E+006, +3.80719182198E+001, +2.03455191438E+002
+6.35156445557E+006, +3.81715335155E+001, +2.08123860483E+002
+6.47659574468E+006, +3.83978612309E+001, +2.12270590486E+002
+6.60162703379E+006, +3.85144304185E+001, +2.16705476573E+002
+6.72665832290E+006, +3.84667471402E+001, +2.20963032244E+002
+6.85168961202E+006, +3.87881629170E+001, +2.25282660140E+002
+6.97672090113E+006, +3.88101870386E+001, +2.29938848477E+002
+7.10175219024E+006, +3.88698250353E+001, +2.34022347260E+002
+7.22678347935E+006, +3.88955069130E+001, +2.38029139423E+002
+7.35181476846E+006, +3.89007209312E+001, +2.42519689730E+002
+7.47684605757E+006, +3.91194423323E+001, +2.46747166044E+002
+7.60187734668E+006, +3.92249280108E+001, +2.51322524119E+002
+7.72690863579E+006, +3.90543390399E+001, +2.56136635406E+002
+7.85193992491E+006, +3.91221690241E+001, +2.60685273250E+002
+7.97697121402E+006, +3.91721229387E+001, +2.64579435346E+002
+8.10200250313E+006, +3.98897467751E+001, +2.69357386617E+002
+8.22703379224E+006, +3.91726332478E+001, +2.73630669688E+002
+8.35206508135E+006, +3.94364067900E+001, +2.79031920756E+002
+8.47709637046E+006, +3.93363744159E+001, +2.82751637985E+002
+8.60212765957E+006, +3.97515564426E+001, +2.87568121479E+002
+8.72715894869E+006, +3.96189579388E+001, +2.92338189515E+002
+8.85219023780E+006, +4.03040973574E+001, +2.96793619401E+002
+8.97722152691E+006, +4.03652937015E+001, +3.01194532006E+002
+9.10225281602E+006, +3.95162892244E+001, +3.06135338233E+002
+9.22728410513E+006, +4.00301428575E+001, +3.10154445277E+002
+9.35231539424E+006, +4.03045571601E+001, +3.14858589029E+002
+9.47734668335E+006, +4.06364272268E+001, +3.19826238455E+002
+9.60237797247E+006, +4.03797047247E+001, +3.24982700565E+002
+9.72740926158E+006, +4.06253602695E+001, +3.28491230623E+002
+9.85244055069E+006, +4.09399586626E+001, +3.34224254817E+002
+9.97747183980E+006, +4.07607080313E+001, +3.38339868931E+002
+1.01025031289E+007, +4.06331451589E+001, +3.43935755645E+002
+1.02275344180E+007, +4.09353748541E+001, +3.48305474238E+002
+1.03525657071E+007, +4.10276757531E+001, +3.53520082978E+002
+1.04775969962E+007, +4.09575149926E+001, +3.57929737592E+002
+1.06026282854E+007, +4.10815771616E+001, +3.62204186987E+002
+1.07276595745E+007, +4.13735146690E+001, +3.67974858114E+002
+1.08526908636E+007, +4.17580095562E+001, +3.72833403282E+002
+1.09777221527E+007, +4.10208234440E+001, +3.76802454692E+002
+1.11027534418E+007, +4.13981838901E+001, +3.83052844992E+002
+1.12277847309E+007, +4.19370904856E+001, +3.87337142039E+002
+1.13528160200E+007, +4.22691396272E+001, +3.92573025935E+002
+1.14778473091E+007, +4.15181585367E+001, +3.97465236407E+002
+1.16028785982E+007, +4.22561100797E+001, +4.02685638380E+002
+1.17279098874E+007, +4.26652086318E+001, +4.07744155990E+002
+1.18529411765E+007, +4.27866589008E+001, +4.12521548852E+002
+1.19779724656E+007, +4.15626055166E+001, +4.18368369883E+002
+1.21030037547E+007, +4.21006975912E+001, +4.21523199519E+002
+1.22280350438E+007, +4.24582440593E+001, +4.27722962505E+002
+1.23530663329E+007, +4.28534596797E+001, +4.33188767559E+002
+1.24780976220E+007, +4.25652034920E+001, +4.38314578757E+002
+1.26031289111E+007, +4.26726091531E+001, +4.43696556774E+002
+1.27281602003E+007, +4.30223129512E+001, +4.50286135235E+002
+1.28531914894E+007, +4.33754039924E+001, +4.54683214131E+002
+1.29782227785E+007, +4.31605188381E+001, +4.61544650721E+002
+1.31032540676E+007, +4.24394213008E+001, +4.66440576277E+002
+1.32282853567E+007, +4.30823374705E+001, +4.70911033916E+002
+1.33533166458E+007, +4.31975786280E+001, +4.75869483660E+002
+1.34783479349E+007, +4.34801360676E+001, +4.82817202641E+002
+1.36033792240E+007, +4.35995381301E+001, +4.87254862407E+002
+1.37284105131E+007, +4.42856363278E+001, +4.92989253000E+002
+1.38534418023E+007, +4.49208120141E+001, +4.98404011949E+002
+1.39784730914E+007, +4.42385057137E+001, +5.04610414757E+002
+1.41035043805E+007, +4.34583879536E+001, +5.08886129264E+002
+1.42285356696E+007, +4.45010427300E+001, +5.15953068076E+002
+1.43535669587E+007, +4.45852682497E+001, +5.21576737461E+002
+1.44785982478E+007, +4.44572457562E+001, +5.27067240124E+002
+1.46036295369E+007, +4.48689501788E+001, +5.32303074256E+002
+1.47286608260E+007, +4.44531212147E+001, +5.38763571893E+002
+1.48536921151E+007, +4.59989126966E+001, +5.44005329129E+002
+1.49787234043E+007, +4.41684772576E+001, +5.49806374576E+002
+1.51037546934E+007, +4.55909529780E+001, +5.57482437683E+002
+1.52287859825E+007, +4.50282479090E+001, +5.62882309662E+002
+1.53538172716E+007, +4.60882560347E+001, +5.69355300860E+002
+1.54788485607E+007, +4.59367726129E+001, +5.75583108820E+002
+1.56038798498E+007, +4.68246651754E+001, +5.80914281576E+002
+1.57289111389E+007, +4.90633817596E+001, +5.88203835407E+002
+1.58539424280E+007, +4.64568091883E+001, +5.92605652401E+002
+1.59789737171E+007, +4.73128891865E+001, +5.98721339845E+002
+1.61040050063E+007, +4.78910351698E+001, +6.06902650086E+002
+1.62290362954E+007, +4.70382992613E+001, +6.13462856345E+002
+1.63540675845E+007, +4.76181103552E+001, +6.19659960227E+002
+1.64790988736E+007, +4.82091590170E+001, +6.24356332006E+002
+1.66041301627E+007, +4.82834324614E+001, +6.32022315429E+002
+1.67291614518E+007, +4.90951698019E+001, +6.39600607775E+002
+1.68541927409E+007, +4.96184302748E+001, +6.43198051627E+002
+1.69792240300E+007, +4.88611909695E+001, +6.50163362307E+002
+1.71042553191E+007, +4.93303910781E+001, +6.62496428222E+002
+1.72292866083E+007, +4.74772055814E+001, +6.67642179531E+002
+1.73543178974E+007, +4.70828118139E+001, +6.72831519148E+002
+1.74793491865E+007, +4.91177638183E+001, +6.79851594707E+002
+1.76043804756E+007, +4.83507215523E+001, +6.87448053786E+002
+1.77294117647E+007, +4.98535586894E+001, +6.97755694757E+002
+1.78544430538E+007, +4.85731900584E+001, +7.03263162838E+002
+1.79794743429E+007, +5.15703359743E+001, +7.08945517563E+002
+1.81045056320E+007, +5.10910282258E+001, +7.19716390192E+002
+1.82295369212E+007, +5.15191033901E+001, +7.23993664935E+002
+1.83545682103E+007, +5.14947478535E+001, +7.32331756833E+002
+1.84795994994E+007, +5.17371681712E+001, +7.39338073693E+002
+1.86046307885E+007, +5.42911954511E+001, +7.44087476222E+002
+1.87296620776E+007, +5.20341452620E+001, +7.52983217289E+002
+1.88546933667E+007, +5.48234765124E+001, +7.64901098406E+002
+1.89797246558E+007, +5.35407444969E+001, +7.71180739660E+002
+1.91047559449E+007, +5.55447889097E+001, +7.79850920006E+002
+1.92297872340E+007, +5.38466102413E+001, +7.82737780890E+002
+1.93548185232E+007, +5.88786564268E+001, +7.94218411805E+002
+1.94798498123E+007, +5.53711346441E+001, +8.01680768629E+002
+1.96048811014E+007, +5.87320055251E+001, +8.08511788993E+002
+1.97299123905E+007, +5.51644159191E+001, +8.15228708693E+002
+1.98549436796E+007, +5.55855194518E+001, +8.27042508463E+002
+1.99799749687E+007, +5.80788799525E+001, +8.35596383776E+002
+2.01050062578E+007, +5.35454494911E+001, +8.43216111790E+002
+2.02300375469E+007, +5.91651044069E+001, +8.50768315401E+002
+2.03550688360E+007, +5.94805922187E+001, +8.62552987711E+002
+2.04801001252E+007, +6.01987511264E+001, +8.69440626460E+002
+2.06051314143E+007, +5.86469810080E+001, +8.74898593934E+002
+2.07301627034E+007, +6.25298458572E+001, +8.84675727105E+002
+2.08551939925E+007, +6.23324045120E+001, +8.99013321648E+002
+2.09802252816E+007, +6.20102520853E+001, +9.04764094523E+002
+2.11052565707E+007, +6.38725850143E+001, +9.19958995624E+002
+2.12302878598E+007, +6.36748496694E+001, +9.25796478265E+002
+2.13553191489E+007, +6.76392518452E+001, +9.37200518112E+002
+2.14803504380E+007, +6.99387095318E+001, +9.47792531925E+002
+2.16053817272E+007, +6.94814410098E+001, +9.50552571641E+002
+2.17304130163E+007, +6.87031472725E+001, +9.70597805677E+002
+2.18554443054E+007, +6.75143829196E+001, +9.79653389447E+002
+2.19804755945E+007, +6.90356522640E+001, +9.86703540253E+002
+2.21055068836E+007, +7.17096011420E+001, +9.99236393631E+002
+2.22305381727E+007, +7.39906221480E+001, +1.00585672141E+003
+2.23555694618E+007, +7.39723139125E+001, +1.02035360233E+003
+2.24806007509E+007, +7.61290558255E+001, +1.02793099875E+003
+2.26056320401E+007, +7.57323181216E+001, +1.03798008753E+003
+2.27306633292E+007, +7.55945191547E+001, +1.05432183304E+003
+2.28556946183E+007, +8.72781945250E+001, +1.05972275589E+003
+2.29807259074E+007, +8.42665758313E+001, +1.07923451698E+003
+2.31057571965E+007, +8.68286706941E+001, +1.08930050407E+003
+2.32307884856E+007, +9.00560622983E+001, +1.08987623427E+003
+2.33558197747E+007, +9.12943648874E+001, +1.11095182868E+003
+2.34808510638E+007, +9.42179750757E+001, +1.10902778650E+003
+2.36058823529E+007, +8.83517253388E+001, +1.12615669273E+003
+2.37309136421E+007, +9.30363661920E+001, +1.14405703060E+003
+2.38559449312E+007, +9.60532124038E+001, +1.15138755292E+003
+2.39809762203E+007, +1.07229126199E+002, +1.15172266940E+003
+2.41060075094E+007, +1.07163574130E+002, +1.16764602837E+003
+2.42310387985E+007, +1.06813923019E+002, +1.18030344965E+003
+2.43560700876E+007, +1.02940611993E+002, +1.18598454489E+003
+2.44811013767E+007, +1.09775821702E+002, +1.20089300785E+003
+2.46061326658E+007, +1.02624111719E+002, +1.21348936710E+003
+2.47311639549E+007, +1.08456847291E+002, +1.22790473315E+003
+2.48561952441E+007, +1.06481320484E+002, +1.23615270923E+003
+2.49812265332E+007, +1.08027078043E+002, +1.24627862511E+003
+2.51062578223E+007, +1.05937035386E+002, +1.26758160351E+003
+2.52312891114E+007, +1.02565576655E+002, +1.28008716714E+003
+2.53563204005E+007, +1.15504891156E+002, +1.29461369838E+003
+2.54813516896E+007, +1.08646257126E+002, +1.30223457774E+003
+2.56063829787E+007, +1.05697589769E+002, +1.31806154670E+003
+2.57314142678E+007, +1.18107682565E+002, +1.32395340647E+003
+2.58564455569E+007, +1.14459402723E+002, +1.34362276128E+003
+2.59814768461E+007, +1.08499228762E+002, +1.35792450735E+003
+2.61065081352E+007, +1.08402529261E+002, +1.38661128695E+003
+2.62315394243E+007, +1.11126139735E+002, +1.39490947137E+003
+2.63565707134E+007, +1.12731749668E+002, +1.41441773810E+003
+2.64816020025E+007, +1.14232017404E+002, +1.43313054177E+003
+2.66066332916E+007, +1.19282788137E+002, +1.44981584506E+003
+2.67316645807E+007, +1.25773679286E+002, +1.46410173659E+003
+2.68566958698E+007, +1.10749835480E+002, +1.47173404012E+003
+2.69817271589E+007, +1.24302384642E+002, +1.51304378787E+003
+2.71067584481E+007, +1.23798194051E+002, +1.52192601268E+003
+2.72317897372E+007, +1.20733975902E+002, +1.55441724355E+003
+2.73568210263E+007, +1.28653184979E+002, +1.56560219680E+003
+2.74818523154E+007, +1.30234827975E+002, +1.57949404869E+003
+2.76068836045E+007, +1.41233136844E+002, +1.59878134335E+003
+2.77319148936E+007, +1.44108590114E+002, +1.60489265892E+003
+2.78569461827E+007, +1.52161377321E+002, +1.62687063764E+003
+2.79819774718E+007, +1.56908289827E+002, +1.64523411623E+003
+2.81070087610E+007, +1.39726541669E+002, +1.67913568930E+003
+2.82320400501E+007, +1.41283917340E+002, +1.67989906574E+003
+2.83570713392E+007, +1.42211353346E+002, +1.71682527455E+003
+2.84821026283E+007, +1.56315912823E+002, +1.74170783354E+003
+2.86071339174E+007, +1.42748839126E+002, +1.77508530094E+003
+2.87321652065E+007, +1.45319401442E+002, +1.79940880882E+003
+2.88571964956E+007, +1.46340918896E+002, +1.80143930254E+003
+2.89822277847E+007, +1.51076697630E+002, +1.83609862227E+003
+2.91072590738E+007, +1.74793162084E+002, +1.86661773344E+003
+2.92322903630E+007, +1.79743918541E+002, +1.88366847751E+003
+2.93573216521E+007, +1.80365721324E+002, +1.90575746037E+003
+2.94823529412E+007, +1.68536813953E+002, +1.96228120735E+003
+2.96073842303E+007, +1.87924609008E+002, +1.97867515776E+003
+2.97324155194E+007, +1.55795406111E+002, +1.98890878638E+003
+2.98574468085E+007, +1.62474723819E+002, +2.03446805733E+003
+2.99824780976E+007, +1.71345040397E+002, +2.05558218250E+003
+3.01075093867E+007, +1.72228695244E+002, +2.11600753915E+003
+3.02325406758E+007, +1.81500620826E+002, +2.13605241441E+003
+3.03575719650E+007, +2.06238137568E+002, +2.16930263637E+003
+3.04826032541E+007, +1.83684960903E+002, +2.19251585086E+003
+3.06076345432E+007, +2.24849898459E+002, +2.23733152371E+003
+3.07326658323E+007, +2.22896541996E+002, +2.26013147929E+003
+3.08576971214E+007, +2.10888522895E+002, +2.29980441075E+003
+3.09827284105E+007, +2.31499815089E+002, +2.34016529671E+003
+3.11077596996E+007, +2.00968008846E+002, +2.38711456731E+003
+3.12327909887E+007, +2.15487687584E+002, +2.42027483009E+003
+3.13578222778E+007, +2.52748789619E+002, +2.44594487480E+003
+3.14828535670E+007, +2.22482737112E+002, +2.54903467504E+003
+3.16078848561E+007, +2.41966687568E+002, +2.56059345103E+003
+3.17329161452E+007, +2.24492320246E+002, +2.58296582831E+003
+3.18579474343E+007, +2.37084132604E+002, +2.69363097059E+003
+3.19829787234E+007, +2.87781746688E+002, +2.70072322271E+003
+3.21080100125E+007, +2.57409162190E+002, +2.75576189987E+003
+3.22330413016E+007, +2.83621792636E+002, +2.83262034746E+003
+3.23580725907E+007, +3.42644593292E+002, +2.88817629120E+003
+3.24831038798E+007, +3.13409633297E+002, +2.91591032351E+003
+3.26081351690E+007, +3.60016862727E+002, +2.97560790942E+003
+3.27331664581E+007, +3.37470107799E+002, +3.07371304653E+003
+3.28581977472E+007, +3.67578604582E+002, +3.10171351943E+003
+3.29832290363E+007, +3.97684936150E+002, +3.14959406435E+003
+3.31082603254E+007, +3.85619075084E+002, +3.24531051764E+003
+3.32332916145E+007, +4.18711998300E+002, +3.30315965886E+003
+3.33583229036E+007, +4.91337260225E+002, +3.38139279312E+003
+3.34833541927E+007, +4.25706484651E+002, +3.50784688051E+003
+3.36083854819E+007, +4.96119507593E+002, +3.59352385694E+003
+3.37334167710E+007, +5.27677150468E+002, +3.67465378977E+003
+3.38584480601E+007, +6.01654550969E+002, +3.77737561411E+003
+3.39834793492E+007, +5.25044765575E+002, +3.79320283710E+003
+3.41085106383E+007, +5.33401847727E+002, +3.85576799322E+003
+3.42335419274E+007, +6.08838039356E+002, +3.98326193061E+003
+3.43585732165E+007, +6.69674060945E+002, +4.10197872523E+003
+3.44836045056E+007, +6.74508973024E+002, +4.15536274981E+003
+3.46086357947E+007, +6.38741955126E+002, +4.27643934348E+003
+3.47336670839E+007, +7.79338440313E+002, +4.32596528778E+003
+3.48586983730E+007, +8.81034104305E+002, +4.56428845593E+003
+3.49837296621E+007, +8.60641870376E+002, +4.71619227967E+003
+3.51087609512E+007, +9.55827069545E+002, +4.88308302963E+003
+3.52337922403E+007, +9.00040125240E+002, +5.12129045049E+003
+3.53588235294E+007, +1.14045681853E+003, +5.11508726183E+003
+3.54838548185E+007, +1.18408893093E+003, +5.23965002456E+003
+3.56088861076E+007, +1.16927514557E+003, +5.48611356484E+003
+3.57339173967E+007, +1.25363868667E+003, +5.67404245986E+003
+3.58589486859E+007, +1.18025916589E+003, +5.82483582328E+003
+3.59839799750E+007, +1.57364199954E+003, +5.90868074031E+003
+3.61090112641E+007, +1.43708040320E+003, +6.16456411804E+003
+3.62340425532E+007, +1.61988503138E+003, +6.43080749945E+003
+3.63590738423E+007, +2.08430912467E+003, +6.79500648018E+003
+3.64841051314E+007, +1.90577537865E+003, +7.17044847699E+003
+3.66091364205E+007, +2.22463729071E+003, +7.44081126972E+003
+3.67341677096E+007, +2.13007525979E+003, +7.76879349812E+003
+3.68591989987E+007, +2.66536715481E+003, +8.12957551613E+003
+3.69842302879E+007, +2.95490451584E+003, +8.58801196050E+003
+3.71092615770E+007, +3.09346963937E+003, +8.52994845638E+003
+3.72342928661E+007, +3.24455568411E+003, +9.71295520465E+003
+3.73593241552E+007, +4.17906596593E+003, +9.75339253558E+003
+3.74843554443E+007, +4.81680128951E+003, +9.94879524678E+003
+3.76093867334E+007, +5.40901686030E+003, +1.08109624690E+004
+3.77344180225E+007, +6.35347091822E+003, +1.14684459356E+004
+3.78594493116E+007, +7.13884501330E+003, +1.22161891253E+004
+3.79844806008E+007, +8.00508281557E+003, +1.36241270646E+004
+3.81095118899E+007, +1.10582698526E+004, +1.41389496993E+004
+3.82345431790E+007, +1.20838453937E+004, +1.40151376609E+004
+3.83595744681E+007, +1.60776634620E+004, +1.34736767996E+004
+3.84846057572E+007, +1.73490593373E+004, +1.23772644806E+004
+3.86096370463E+007, +2.04563320220E+004, +1.06308841987E+004
+3.87346683354E+007, +2.31137325728E+004, +9.68916048105E+003
+3.88596996245E+007, +2.71803284134E+004, +3.43253836859E+003
+3.89847309136E+007, +2.45594569787E+004, +4.86253306166E+001
+3.91097622028E+007, +2.70318073918E+004, -5.77826232682E+003
+3.92347934919E+007, +2.50501780154E+004, -7.96499528746E+003
+3.93598247810E+007, +2.03734262695E+004, -1.23804820649E+004
+3.94848560701E+007, +1.92830087758E+004, -1.13560153132E+004
+3.96098873592E+007, +1.35072280010E+004, -1.38646679181E+004
+3.97349186483E+007, +1.40173675700E+004, -1.43986337941E+004
+3.98599499374E+007, +1.15053151459E+004, -1.30001771195E+004
+3.99849812265E+007, +9.07187881049E+003, -1.17430862888E+004
+4.01100125156E+007, +7.13697331675E+003, -1.13134999734E+004
