"# Channel 1"
"# Trace 1"
Frequency, Formatted Data, Formatted Data
+1.00000000000E+005, +5.07142221394E+001, +3.25779686371E+000
+2.25031289111E+005, +5.06485532328E+001, +7.70268498554E+000
+3.50062578223E+005, +5.07084652280E+001, +1.21033528945E+001
+4.75093867334E+005, +5.07756244452E+001, +1.63943160619E+001
+6.00125156446E+005, +5.09417031333E+001, +2.06533909453E+001
+7.25156445557E+005, +5.08338638318E+001, +2.49668047113E+001
+8.50187734668E+005, +5.08705464154E+001, +2.91788348681E+001
+9.75219023780E+005, +5.10398356708E+001, +3.34421013162E+001
+1.10025031289E+006, +5.12118472036E+001, +3.77997885693E+001
+1.22528160200E+006, +5.11582416541E+001, +4.17387695610E+001
+1.35031289111E+006, +5.13244664132E+001, +4.60808854238E+001
+1.47534418023E+006, +5.13674750553E+001, +5.04914070066E+001
+1.60037546934E+006, +5.13596031596E+001, +5.45423537556E+001
+1.72540675845E+006, +5.15375786617E+001, +5.87394436693E+001
+1.85043804756E+006, +5.13695396497E+001, +6.31465344753E+001
+1.97546933667E+006, +5.15359664541E+001, +6.72645678845E+001
+2.10050062578E+006, +5.16059442905E+001, +7.17761854670E+001
+2.22553191489E+006, +5.16225742832E+001, +7.57440547906E+001
+2.35056320401E+006, +5.18774191483E+001, +8.00351651516E+001
+2.47559449312E+006, +5.17113912886E+001, +8.44950464430E+001
+2.60062578223E+006, +5.20602871271E+001, +8.86953228416E+001
+2.72565707134E+006, +5.21207847433E+001, +9.29535317727E+001
+2.85068836045E+006, +5.23691121754E+001, +9.70420704678E+001
+2.97571964956E+006, +5.24488377382E+001, +1.01589269270E+002
+3.10075093867E+006, +5.24483684811E+001, +1.05828502541E+002
+3.22578222778E+006, +5.24752307104E+001, +1.10018524358E+002
+3.35081351690E+006, +5.26516676808E+001, +1.14119851222E+002
+3.47584480601E+006, +5.26167433857E+001, +1.18545740320E+002
+3.60087609512E+006, +5.27228130675E+001, +1.22980257742E+002
+3.72590738423E+006, +5.42073790208E+001, +1.27763002267E+002
+3.85093867334E+006, +5.31961146313E+001, +1.31066994653E+002
+3.97596996245E+006, +5.29787601621E+001, +1.35820220237E+002
+4.10100125156E+006, +5.31226738233E+001, +1.40032031769E+002
+4.22603254068E+006, +5.28610352040E+001, +1.44422422457E+002
+4.35106382979E+006, +5.37157212711E+001, +1.48564157762E+002
+4.47609511890E+006, +5.37887167322E+001, +1.53088957782E+002
+4.60112640801E+006, +5.38448353798E+001, +1.57459532213E+002
+4.72615769712E+006, +5.42364209627E+001, +1.61485265455E+002
+4.85118898623E+006, +5.44906302924E+001, +1.65854722856E+002
+4.97622027534E+006, +5.43752191870E+001, +1.70532880198E+002
+5.10125156446E+006, +5.46995714224E+001, +1.74890761180E+002
+5.22628285357E+006, +5.51747467374E+001, +1.79711158892E+002
+5.35131414268E+006, +5.50530733979E+001, +1.83589951141E+002
+5.47634543179E+006, +5.55829245903E+001, +1.88091014684E+002
+5.60137672090E+006, +5.57144572523E+001, +1.92269747154E+002
+5.72640801001E+006, +5.58573433803E+001, +1.96422110014E+002
+5.85143929912E+006, +5.60523883538E+001, +2.01617871671E+002
+5.97647058824E+006, +5.64050626608E+001, +2.05579257729E+002
+6.10150187735E+006, +5.64332602520E+001, +2.09907788315E+002
+6.22653316646E+006, +5.65369402265E+001, +2.14979987179E+002
+6.35156445557E+006, +5.66826670320E+001, +2.18894525971E+002
+6.47659574468E+006, +5.70200765523E+001, +2.23535251616E+002
+6.60162703379E+006, +5.74356649983E+001, +2.28178048521E+002
+6.72665832290E+006, +5.77053092536E+001, +2.32605908960E+002
+6.85168961202E+006, +5.79304460309E+001, +2.37124461074E+002
+6.97672090113E+006, +5.80826555467E+001, +2.41483298593E+002
+7.10175219024E+006, +5.87488399168E+001, +2.46224624319E+002
+7.22678347935E+006, +5.89835682333E+001, +2.50635004201E+002
+7.35181476846E+006, +5.88971852889E+001, +2.55166993258E+002
+7.47684605757E+006, +5.95046096712E+001, +2.59478844273E+002
+7.60187734668E+006, +5.90322770374E+001, +2.64376294470E+002
+7.72690863579E+006, +5.98377295342E+001, +2.68910859512E+002
+7.85193992491E+006, +6.04734873735E+001, +2.73321160396E+002
+7.97697121402E+006, +6.04067864350E+001, +2.77971516927E+002
+8.10200250313E+006, +6.05053760171E+001, +2.82298779663E+002
+8.22703379224E+006, +6.11230431262E+001, +2.87246829134E+002
+8.35206508135E+006, +6.14409379022E+001, +2.91831811230E+002
+8.47709637046E+006, +6.13729819986E+001, +2.96745853698E+002
+8.60212765957E+006, +6.22191080616E+001, +3.01703906018E+002
+8.72715894869E+006, +6.19751362199E+001, +3.06379123098E+002
+8.85219023780E+006, +6.28526542517E+001, +3.10383686610E+002
+8.97722152691E+006, +6.30388290231E+001, +3.15580189874E+002
+9.10225281602E+006, +6.30315331076E+001, +3.20330429762E+002
+9.22728410513E+006, +6.38315553098E+001, +3.25099906190E+002
+9.35231539424E+006, +6.39164773426E+001, +3.30177972607E+002
+9.47734668335E+006, +6.37582040284E+001, +3.34877794623E+002
+9.60237797247E+006, +6.44094140030E+001, +3.39339058081E+002
+9.72740926158E+006, +6.40639720981E+001, +3.43537269451E+002
+9.85244055069E+006, +6.46343274523E+001, +3.49304869455E+002
+9.97747183980E+006, +6.43662390901E+001, +3.53667743546E+002
+1.01025031289E+007, +6.51868534706E+001, +3.59220546651E+002
+1.02275344180E+007, +6.44269665654E+001, +3.64152977952E+002
+1.03525657071E+007, +6.61432219517E+001, +3.69536017863E+002
+1.04775969962E+007, +6.60386698461E+001, +3.73647367122E+002
+1.06026282854E+007, +6.66431238210E+001, +3.78822337745E+002
+1.07276595745E+007, +6.71449787296E+001, +3.83058457871E+002
+1.08526908636E+007, +6.84927448443E+001, +3.87681327986E+002
+1.09777221527E+007, +6.68293481173E+001, +3.93638969504E+002
+1.11027534418E+007, +6.81305908062E+001, +3.99157928861E+002
+1.12277847309E+007, +6.89604082669E+001, +4.03525123022E+002
+1.13528160200E+007, +6.86244959844E+001, +4.08085747507E+002
+1.14778473091E+007, +6.94924848206E+001, +4.12766557522E+002
+1.16028785982E+007, +6.98204630661E+001, +4.18780699382E+002
+1.17279098874E+007, +6.91404552175E+001, +4.23581077737E+002
+1.18529411765E+007, +7.07459737441E+001, +4.29495457499E+002
+1.19779724656E+007, +7.08707207584E+001, +4.34931472873E+002
+1.21030037547E+007, +7.16734052033E+001, +4.39335291555E+002
+1.22280350438E+007, +7.12797570519E+001, +4.45066947894E+002
+1.23530663329E+007, +7.27569260034E+001, +4.49965035443E+002
+1.24780976220E+007, +7.27160572530E+001, +4.54838091347E+002
+1.26031289111E+007, +7.27581859306E+001, +4.60421572304E+002
+1.27281602003E+007, +7.26026712088E+001, +4.66146534345E+002
+1.28531914894E+007, +7.33927025294E+001, +4.70153186185E+002
+1.29782227785E+007, +7.28730535097E+001, +4.77386478940E+002
+1.31032540676E+007, +7.44811475479E+001, +4.82883650879E+002
+1.32282853567E+007, +7.46305955063E+001, +4.87161988986E+002
+1.33533166458E+007, +7.54347583013E+001, +4.93062916451E+002
+1.34783479349E+007, +7.57249073914E+001, +4.97001545150E+002
+1.36033792240E+007, +7.63405776044E+001, +5.03640396137E+002
+1.37284105131E+007, +7.82729076722E+001, +5.07625972982E+002
+1.38534418023E+007, +7.84114067226E+001, +5.14298057296E+002
+1.39784730914E+007, +7.75748883875E+001, +5.20687752975E+002
+1.41035043805E+007, +7.80095052682E+001, +5.26799435946E+002
+1.42285356696E+007, +7.82082729711E+001, +5.30749539287E+002
+1.43535669587E+007, +8.02904430507E+001, +5.37732653671E+002
+1.44785982478E+007, +7.95623097112E+001, +5.43229117393E+002
+1.46036295369E+007, +8.10855685816E+001, +5.50409113189E+002
+1.47286608260E+007, +7.97501089872E+001, +5.55332653192E+002
+1.48536921151E+007, +8.14551104545E+001, +5.60429029224E+002
+1.49787234043E+007, +8.14155711337E+001, +5.64996673600E+002
+1.51037546934E+007, +8.49431465084E+001, +5.72785995866E+002
+1.52287859825E+007, +8.42490706237E+001, +5.77393648391E+002
+1.53538172716E+007, +8.68104549091E+001, +5.83030239953E+002
+1.54788485607E+007, +8.55530770666E+001, +5.92678884304E+002
+1.56038798498E+007, +8.65420140756E+001, +5.96568024278E+002
+1.57289111389E+007, +8.40619176319E+001, +6.01700235435E+002
+1.58539424280E+007, +8.67465928678E+001, +6.07880866414E+002
+1.59789737171E+007, +8.76858115929E+001, +6.15452950028E+002
+1.61040050063E+007, +9.00463713471E+001, +6.19246935547E+002
+1.62290362954E+007, +8.88072718904E+001, +6.26313905815E+002
+1.63540675845E+007, +8.79332920987E+001, +6.33788073910E+002
+1.64790988736E+007, +8.97187622147E+001, +6.39050630369E+002
+1.66041301627E+007, +9.11943017450E+001, +6.48204795390E+002
+1.67291614518E+007, +9.32307737913E+001, +6.53371279665E+002
+1.68541927409E+007, +9.21408926044E+001, +6.59118768149E+002
+1.69792240300E+007, +9.30056288256E+001, +6.65495873017E+002
+1.71042553191E+007, +9.27880068642E+001, +6.72509911619E+002
+1.72292866083E+007, +9.34603976081E+001, +6.78642541537E+002
+1.73543178974E+007, +9.09931365177E+001, +6.87091362386E+002
+1.74793491865E+007, +9.79932611311E+001, +6.92755898890E+002
+1.76043804756E+007, +9.32899384435E+001, +7.01042995807E+002
+1.77294117647E+007, +9.75174277949E+001, +7.07236508179E+002
+1.78544430538E+007, +9.57310631399E+001, +7.11204189656E+002
+1.79794743429E+007, +9.88123022493E+001, +7.17558944725E+002
+1.81045056320E+007, +9.88100488776E+001, +7.26133106940E+002
+1.82295369212E+007, +1.01327134742E+002, +7.32745030882E+002
+1.83545682103E+007, +1.01655133507E+002, +7.39584203413E+002
+1.84795994994E+007, +1.01227281059E+002, +7.47685966539E+002
+1.86046307885E+007, +1.05099683567E+002, +7.54880392698E+002
+1.87296620776E+007, +1.06296318323E+002, +7.63753210476E+002
+1.88546933667E+007, +1.06014816571E+002, +7.67104138973E+002
+1.89797246558E+007, +1.08321744154E+002, +7.73932209520E+002
+1.91047559449E+007, +1.08855721448E+002, +7.83621941416E+002
+1.92297872340E+007, +1.07057866220E+002, +7.94276808932E+002
+1.93548185232E+007, +1.10845813833E+002, +8.00102671904E+002
+1.94798498123E+007, +1.07279938329E+002, +8.04626708421E+002
+1.96048811014E+007, +1.13749966381E+002, +8.12079532077E+002
+1.97299123905E+007, +1.14139575291E+002, +8.22476290396E+002
+1.98549436796E+007, +1.13331097265E+002, +8.26712867507E+002
+1.99799749687E+007, +1.15722553557E+002, +8.35176253897E+002
+2.01050062578E+007, +1.16796644054E+002, +8.48484250728E+002
+2.02300375469E+007, +1.17604178053E+002, +8.51470584870E+002
+2.03550688360E+007, +1.15989469329E+002, +8.55894457817E+002
+2.04801001252E+007, +1.20122016572E+002, +8.70439932125E+002
+2.06051314143E+007, +1.24700698041E+002, +8.74873506467E+002
+2.07301627034E+007, +1.24096552263E+002, +8.80722720865E+002
+2.08551939925E+007, +1.24956556668E+002, +8.95480693450E+002
+2.09802252816E+007, +1.24868986391E+002, +9.04015116659E+002
+2.11052565707E+007, +1.31990269036E+002, +9.09282564302E+002
+2.12302878598E+007, +1.29131584173E+002, +9.18592078960E+002
+2.13553191489E+007, +1.29019985160E+002, +9.24968732504E+002
+2.14803504380E+007, +1.32719070249E+002, +9.31557993288E+002
+2.16053817272E+007, +1.35556912101E+002, +9.47768410918E+002
+2.17304130163E+007, +1.34043747631E+002, +9.49081829673E+002
+2.18554443054E+007, +1.36384792058E+002, +9.58474958410E+002
+2.19804755945E+007, +1.36831189189E+002, +9.70915131535E+002
+2.21055068836E+007, +1.40096116942E+002, +9.76656944555E+002
+2.22305381727E+007, +1.42537533158E+002, +9.85845355469E+002
+2.23555694618E+007, +1.42931775384E+002, +9.95953167853E+002
+2.24806007509E+007, +1.40679018509E+002, +1.00183354144E+003
+2.26056320401E+007, +1.49570153612E+002, +1.01725193083E+003
+2.27306633292E+007, +1.47041261790E+002, +1.03010097986E+003
+2.28556946183E+007, +1.56170019146E+002, +1.03128975638E+003
+2.29807259074E+007, +1.61149332438E+002, +1.04165329158E+003
+2.31057571965E+007, +1.63278790880E+002, +1.05144595970E+003
+2.32307884856E+007, +1.55041201003E+002, +1.06377503260E+003
+2.33558197747E+007, +1.57669518918E+002, +1.08071122375E+003
+2.34808510638E+007, +1.66217717163E+002, +1.07903506171E+003
+2.36058823529E+007, +1.65330749364E+002, +1.10205167547E+003
+2.37309136421E+007, +1.68969196117E+002, +1.10887524265E+003
+2.38559449312E+007, +1.73357554696E+002, +1.11067108138E+003
+2.39809762203E+007, +1.81346396669E+002, +1.11801038472E+003
+2.41060075094E+007, +1.81122256588E+002, +1.13648225836E+003
+2.42310387985E+007, +1.79358291678E+002, +1.13855314296E+003
+2.43560700876E+007, +1.84145874019E+002, +1.15306743359E+003
+2.44811013767E+007, +1.86619624496E+002, +1.17162841041E+003
+2.46061326658E+007, +1.92239334089E+002, +1.17801349746E+003
+2.47311639549E+007, +1.92575703029E+002, +1.18569935673E+003
+2.48561952441E+007, +1.99734661673E+002, +1.19152162486E+003
+2.49812265332E+007, +2.02180761618E+002, +1.20594042285E+003
+2.51062578223E+007, +1.94585174567E+002, +1.21424505162E+003
+2.52312891114E+007, +2.03621576180E+002, +1.23380129119E+003
+2.53563204005E+007, +2.09776283639E+002, +1.23819629109E+003
+2.54813516896E+007, +2.16936556403E+002, +1.24323018048E+003
+2.56063829787E+007, +2.13856913769E+002, +1.25494343345E+003
+2.57314142678E+007, +2.15977666967E+002, +1.27896848470E+003
+2.58564455569E+007, +2.23947983931E+002, +1.28026176381E+003
+2.59814768461E+007, +2.22801742490E+002, +1.29938155969E+003
+2.61065081352E+007, +2.26658253096E+002, +1.31330646261E+003
+2.62315394243E+007, +2.29231002306E+002, +1.31984896524E+003
+2.63565707134E+007, +2.31475758684E+002, +1.32084350331E+003
+2.64816020025E+007, +2.41774791563E+002, +1.33706373551E+003
+2.66066332916E+007, +2.36037868511E+002, +1.35727142013E+003
+2.67316645807E+007, +2.39053899941E+002, +1.36277446911E+003
+2.68566958698E+007, +2.53133549475E+002, +1.37593304326E+003
+2.69817271589E+007, +2.51098188598E+002, +1.38938222743E+003
+2.71067584481E+007, +2.51358704395E+002, +1.40091843980E+003
+2.72317897372E+007, +2.57032956853E+002, +1.41291833483E+003
+2.73568210263E+007, +2.63531381726E+002, +1.41900175613E+003
+2.74818523154E+007, +2.60228212399E+002, +1.44346310720E+003
+2.76068836045E+007, +2.64383143427E+002, +1.45777804694E+003
+2.77319148936E+007, +2.61994886768E+002, +1.46896588065E+003
+2.78569461827E+007, +2.69724360094E+002, +1.49041660674E+003
+2.79819774718E+007, +2.78954115661E+002, +1.50180718810E+003
+2.81070087610E+007, +2.81273029243E+002, +1.51066898436E+003
+2.82320400501E+007, +2.95166728757E+002, +1.51998227865E+003
+2.83570713392E+007, +2.88996597353E+002, +1.54615815770E+003
+2.84821026283E+007, +2.93446537745E+002, +1.57242987596E+003
+2.86071339174E+007, +2.81812143116E+002, +1.57683376568E+003
+2.87321652065E+007, +2.96210177819E+002, +1.59785914724E+003
+2.88571964956E+007, +2.88153001379E+002, +1.61403226759E+003
+2.89822277847E+007, +3.00777866290E+002, +1.63580144353E+003
+2.91072590738E+007, +3.06634460152E+002, +1.66033873182E+003
+2.92322903630E+007, +3.07673417011E+002, +1.68061088636E+003
+2.93573216521E+007, +3.41919890151E+002, +1.67716267739E+003
+2.94823529412E+007, +3.31235744084E+002, +1.70496062788E+003
+2.96073842303E+007, +3.42998094280E+002, +1.72190252252E+003
+2.97324155194E+007, +3.42451902896E+002, +1.74742912520E+003
+2.98574468085E+007, +3.50091187092E+002, +1.76045026633E+003
+2.99824780976E+007, +3.29779415252E+002, +1.76997308291E+003
+3.01075093867E+007, +3.62769650990E+002, +1.79535047565E+003
+3.02325406758E+007, +3.63901500714E+002, +1.83195505393E+003
+3.03575719650E+007, +3.70048168998E+002, +1.85069616554E+003
+3.04826032541E+007, +3.57906727771E+002, +1.88472956085E+003
+3.06076345432E+007, +3.64496570464E+002, +1.89192494369E+003
+3.07326658323E+007, +3.80190216143E+002, +1.92581575133E+003
+3.08576971214E+007, +3.88424173099E+002, +1.95068977053E+003
+3.09827284105E+007, +4.01665106871E+002, +1.94374069837E+003
+3.11077596996E+007, +4.10040257199E+002, +2.00362054761E+003
+3.12327909887E+007, +4.02142260577E+002, +1.99896764137E+003
+3.13578222778E+007, +4.32704273497E+002, +2.02911327238E+003
+3.14828535670E+007, +4.36906488860E+002, +2.04687892053E+003
+3.16078848561E+007, +4.49757613507E+002, +2.07917509452E+003
+3.17329161452E+007, +4.58874302004E+002, +2.09298354024E+003
+3.18579474343E+007, +4.40497149139E+002, +2.10856163851E+003
+3.19829787234E+007, +4.83196805538E+002, +2.14478650706E+003
+3.21080100125E+007, +4.75431195456E+002, +2.20463585865E+003
+3.22330413016E+007, +4.75304285096E+002, +2.18966832813E+003
+3.23580725907E+007, +5.11660911458E+002, +2.25093013991E+003
+3.24831038798E+007, +5.30324021071E+002, +2.26388535368E+003
+3.26081351690E+007, +5.50263128796E+002, +2.32915520944E+003
+3.27331664581E+007, +5.43572427600E+002, +2.31518581937E+003
+3.28581977472E+007, +5.51713701685E+002, +2.34730025811E+003
+3.29832290363E+007, +5.66434449694E+002, +2.38930065682E+003
+3.31082603254E+007, +5.80115204752E+002, +2.43579194185E+003
+3.32332916145E+007, +6.03454109296E+002, +2.45320542922E+003
+3.33583229036E+007, +6.18454459442E+002, +2.49531032824E+003
+3.34833541927E+007, +6.01414391693E+002, +2.51736959132E+003
+3.36083854819E+007, +6.11036579137E+002, +2.56362381546E+003
+3.37334167710E+007, +6.71261515437E+002, +2.57343942832E+003
+3.38584480601E+007, +7.08805276612E+002, +2.65331574304E+003
+3.39834793492E+007, +6.79105804350E+002, +2.65528233506E+003
+3.41085106383E+007, +6.98598193760E+002, +2.70948697626E+003
+3.42335419274E+007, +7.25243816476E+002, +2.72571788891E+003
+3.43585732165E+007, +7.47233629079E+002, +2.81292034742E+003
+3.44836045056E+007, +7.80525029659E+002, +2.80744399600E+003
+3.46086357947E+007, +7.65746230927E+002, +2.88524050092E+003
+3.47336670839E+007, +8.96988649763E+002, +2.89789655796E+003
+3.48586983730E+007, +8.77868210029E+002, +2.98372685758E+003
+3.49837296621E+007, +8.91809398013E+002, +2.97575574736E+003
+3.51087609512E+007, +9.52415984343E+002, +3.04546856242E+003
+3.52337922403E+007, +9.16138403424E+002, +3.11955199018E+003
+3.53588235294E+007, +9.94684633519E+002, +3.14553584624E+003
+3.54838548185E+007, +9.98911520111E+002, +3.20938372152E+003
+3.56088861076E+007, +1.04837970850E+003, +3.25450256381E+003
+3.57339173967E+007, +1.00936899063E+003, +3.27534831939E+003
+3.58589486859E+007, +1.07427804934E+003, +3.32805854318E+003
+3.59839799750E+007, +1.16326416721E+003, +3.35916329189E+003
+3.61090112641E+007, +1.15764517724E+003, +3.42332047444E+003
+3.62340425532E+007, +1.20865560996E+003, +3.50834101928E+003
+3.63590738423E+007, +1.26078222249E+003, +3.54118265790E+003
+3.64841051314E+007, +1.33520921201E+003, +3.66013039604E+003
+3.66091364205E+007, +1.34632359482E+003, +3.68232250508E+003
+3.67341677096E+007, +1.46718853797E+003, +3.77518241186E+003
+3.68591989987E+007, +1.39151603580E+003, +3.80924367968E+003
+3.69842302879E+007, +1.58343281369E+003, +3.96350635051E+003
+3.71092615770E+007, +1.56237610748E+003, +3.92974363888E+003
+3.72342928661E+007, +1.69926403377E+003, +4.01150251594E+003
+3.73593241552E+007, +1.68402956378E+003, +4.14378412598E+003
+3.74843554443E+007, +1.84655394346E+003, +4.20465708870E+003
+3.76093867334E+007, +1.93025709000E+003, +4.30113205978E+003
+3.77344180225E+007, +2.01355099969E+003, +4.26778741615E+003
+3.78594493116E+007, +2.07576606782E+003, +4.39789368627E+003
+3.79844806008E+007, +2.13213354601E+003, +4.56490924389E+003
+3.81095118899E+007, +2.11359779340E+003, +4.60272426871E+003
+3.82345431790E+007, +2.52157912810E+003, +4.66961361128E+003
+3.83595744681E+007, +2.38031045724E+003, +4.70412981855E+003
+3.84846057572E+007, +2.53392998650E+003, +4.81049100675E+003
+3.86096370463E+007, +2.80188170797E+003, +5.08479756406E+003
+3.87346683354E+007, +2.85236805762E+003, +5.03890876877E+003
+3.88596996245E+007, +3.14649332437E+003, +5.11368320804E+003
+3.89847309136E+007, +3.12212223286E+003, +5.26735017705E+003
+3.91097622028E+007, +3.42835194902E+003, +5.05199754747E+003
+3.92347934919E+007, +3.61818015166E+003, +5.49444252864E+003
+3.93598247810E+007, +3.69753367898E+003, +5.13638274320E+003
+3.94848560701E+007, +4.04481712076E+003, +5.51278741234E+003
+3.96098873592E+007, +4.07061956998E+003, +5.50944921934E+003
+3.97349186483E+007, +4.49835747335E+003, +5.57729809403E+003
+3.98599499374E+007, +4.59419512271E+003, +5.76469882067E+003
+3.99849812265E+007, +5.06231692527E+003, +5.90719793984E+003
+4.01100125156E+007, +5.66187549725E+003, +6.02000014561E+003
