"# Channel 1"
"# Trace 1"
Frequency, Formatted Data, Formatted Data
+1.00000000000E+005, +6.35775304594E+002, -2.75947611799E+001
+2.25031289111E+005, +6.29788649045E+002, +8.23355318367E+000
+3.50062578223E+005, +6.24987731922E+002, +1.00933232690E+001
+4.75093867334E+005, +6.24234746323E+002, +1.53833408716E+001
+6.00125156446E+005, +6.28111253636E+002, +1.77364838437E+001
+7.25156445557E+005, +6.27425719584E+002, +2.29103004163E+001
+8.50187734668E+005, +6.27030256552E+002, +2.69462154058E+001
+9.75219023780E+005, +6.30503640948E+002, +3.31430467573E+001
+1.10025031289E+006, +6.31225914446E+002, +2.69126461046E+001
+1.22528160200E+006, +6.29597711826E+002, +3.50702319816E+001
+1.35031289111E+006, +6.29074420673E+002, +3.90824076961E+001
+1.47534418023E+006, +6.31377369575E+002, +4.37971731209E+001
+1.60037546934E+006, +6.32728125886E+002, +4.55470734753E+001
+1.72540675845E+006, +6.34558911964E+002, +4.97621007851E+001
+1.85043804756E+006, +6.33164797693E+002, +5.12743871465E+001
+1.97546933667E+006, +6.34874411018E+002, +5.95425466255E+001
+2.10050062578E+006, +6.37277166511E+002, +6.55300289750E+001
+2.22553191489E+006, +6.33636886751E+002, +7.06671220653E+001
+2.35056320401E+006, +6.36550348014E+002, +6.81119967516E+001
+2.47559449312E+006, +6.40243950076E+002, +7.22969355128E+001
+2.60062578223E+006, +6.36854515493E+002, +8.02471242132E+001
+2.72565707134E+006, +6.37378183459E+002, +7.93434237686E+001
+2.85068836045E+006, +6.37489945439E+002, +8.49400299268E+001
+2.97571964956E+006, +6.33066825818E+002, +8.53026797020E+001
+3.10075093867E+006, +6.35576960551E+002, +8.79335629957E+001
+3.22578222778E+006, +6.36586256201E+002, +9.63767753432E+001
+3.35081351690E+006, +6.36324109186E+002, +9.58558989372E+001
+3.47584480601E+006, +6.35035281469E+002, +1.04303955346E+002
+3.60087609512E+006, +6.39920581413E+002, +1.07051127577E+002
+3.72590738423E+006, +6.32804615105E+002, +1.07193886402E+002
+3.85093867334E+006, +6.36082825027E+002, +1.12321293748E+002
+3.97596996245E+006, +6.31093007403E+002, +1.16723763125E+002
+4.10100125156E+006, +6.37485210617E+002, +1.32580508865E+002
+4.22603254068E+006, +6.43529451639E+002, +1.24184672377E+002
+4.35106382979E+006, +6.38044285967E+002, +1.28164353019E+002
+4.47609511890E+006, +6.39590585048E+002, +1.28853446904E+002
+4.60112640801E+006, +6.41727684811E+002, +1.32998535480E+002
+4.72615769712E+006, +6.38589633054E+002, +1.38593396554E+002
+4.85118898623E+006, +6.37307610986E+002, +1.43853118724E+002
+4.97622027534E+006, +6.40207681454E+002, +1.45180432587E+002
+5.10125156446E+006, +6.40869917747E+002, +1.52178307655E+002
+5.22628285357E+006, +6.46191705196E+002, +1.49654112176E+002
+5.35131414268E+006, +6.43531341187E+002, +1.54441700564E+002
+5.47634543179E+006, +6.43001542856E+002, +1.60048852646E+002
+5.60137672090E+006, +6.41974530850E+002, +1.61772925448E+002
+5.72640801001E+006, +6.43169156906E+002, +1.66865023236E+002
+5.85143929912E+006, +6.49301104769E+002, +1.70249034616E+002
+5.97647058824E+006, +6.43770767981E+002, +1.74476862301E+002
+6.10150187735E+006, +6.46263617231E+002, +1.76450287937E+002
+6.22653316646E+006, +6.42889829354E+002, +1.80440050094E+002
+6.35156445557E+006, +6.45339993386E+002, +1.85104006946E+002
+6.47659574468E+006, +6.46246105366E+002, +1.88736003012E+002
+6.60162703379E+006, +6.48205379479E+002, +1.93147659645E+002
+6.72665832290E+006, +6.48241447648E+002, +1.93229564537E+002
+6.85168961202E+006, +6.46341712167E+002, +1.97746953324E+002
+6.97672090113E+006, +6.50063929433E+002, +2.04031393924E+002
+7.10175219024E+006, +6.51942281588E+002, +2.07634016675E+002
+7.22678347935E+006, +6.52880975387E+002, +2.09367133864E+002
+7.35181476846E+006, +6.51880507651E+002, +2.12371547442E+002
+7.47684605757E+006, +6.54247900239E+002, +2.18236916755E+002
+7.60187734668E+006, +6.58914209689E+002, +2.19999965380E+002
+7.72690863579E+006, +6.57160437811E+002, +2.24869489316E+002
+7.85193992491E+006, +6.55634891382E+002, +2.27429788440E+002
+7.97697121402E+006, +6.59617662591E+002, +2.30779251114E+002
+8.10200250313E+006, +6.59810423134E+002, +2.34028652619E+002
+8.22703379224E+006, +6.61207950499E+002, +2.41483405186E+002
+8.35206508135E+006, +6.64218007685E+002, +2.43379910557E+002
+8.47709637046E+006, +6.65031729186E+002, +2.49874598019E+002
+8.60212765957E+006, +6.65646439943E+002, +2.53057520928E+002
+8.72715894869E+006, +6.67357152765E+002, +2.59443357389E+002
+8.85219023780E+006, +6.66809058796E+002, +2.61173867201E+002
+8.97722152691E+006, +6.70565786351E+002, +2.61895405393E+002
+9.10225281602E+006, +6.76160276171E+002, +2.68804196952E+002
+9.22728410513E+006, +6.72366444366E+002, +2.74919044151E+002
+9.35231539424E+006, +6.75844229852E+002, +2.73683064890E+002
+9.47734668335E+006, +6.74770743074E+002, +2.80901377080E+002
+9.60237797247E+006, +6.80510309029E+002, +2.81331429729E+002
+9.72740926158E+006, +6.78923640095E+002, +2.88325538303E+002
+9.85244055069E+006, +6.83228686266E+002, +2.90533183856E+002
+9.97747183980E+006, +6.82980954806E+002, +2.94166574946E+002
+1.01025031289E+007, +6.86000205850E+002, +3.01197945633E+002
+1.02275344180E+007, +6.88936563460E+002, +3.02431090192E+002
+1.03525657071E+007, +6.90638609396E+002, +3.08190977778E+002
+1.04775969962E+007, +6.95506770389E+002, +3.11186812542E+002
+1.06026282854E+007, +6.93254054148E+002, +3.15381055499E+002
+1.07276595745E+007, +6.98321783639E+002, +3.19300220119E+002
+1.08526908636E+007, +6.98306005061E+002, +3.21159509191E+002
+1.09777221527E+007, +7.00781274272E+002, +3.22120575354E+002
+1.11027534418E+007, +6.99751763102E+002, +3.32168428175E+002
+1.12277847309E+007, +7.03926711363E+002, +3.35656234398E+002
+1.13528160200E+007, +7.07679389171E+002, +3.36068250223E+002
+1.14778473091E+007, +7.07587595110E+002, +3.41210304503E+002
+1.16028785982E+007, +7.15200252006E+002, +3.49586933003E+002
+1.17279098874E+007, +7.14698231922E+002, +3.49541202931E+002
+1.18529411765E+007, +7.15964531877E+002, +3.53911136245E+002
+1.19779724656E+007, +7.17425673975E+002, +3.59981508191E+002
+1.21030037547E+007, +7.19641925208E+002, +3.63093847560E+002
+1.22280350438E+007, +7.28427678344E+002, +3.69826190940E+002
+1.23530663329E+007, +7.27316196615E+002, +3.71045606935E+002
+1.24780976220E+007, +7.28083592150E+002, +3.75633475482E+002
+1.26031289111E+007, +7.31600742886E+002, +3.79170011049E+002
+1.27281602003E+007, +7.34542984353E+002, +3.85863963130E+002
+1.28531914894E+007, +7.35119897080E+002, +3.89241384137E+002
+1.29782227785E+007, +7.39661890766E+002, +3.90617897480E+002
+1.31032540676E+007, +7.41677216844E+002, +3.94412215655E+002
+1.32282853567E+007, +7.47371964835E+002, +4.00661081919E+002
+1.33533166458E+007, +7.47954578761E+002, +4.05477128696E+002
+1.34783479349E+007, +7.50880157769E+002, +4.07393180710E+002
+1.36033792240E+007, +7.56022358556E+002, +4.12615109484E+002
+1.37284105131E+007, +7.58085573507E+002, +4.23383328536E+002
+1.38534418023E+007, +7.56783540357E+002, +4.21743457682E+002
+1.39784730914E+007, +7.61141773527E+002, +4.28274294260E+002
+1.41035043805E+007, +7.66837980017E+002, +4.26058525657E+002
+1.42285356696E+007, +7.65719087571E+002, +4.36400493375E+002
+1.43535669587E+007, +7.73355434780E+002, +4.35438495890E+002
+1.44785982478E+007, +7.72481164236E+002, +4.43131333544E+002
+1.46036295369E+007, +7.79788158321E+002, +4.43352355572E+002
+1.47286608260E+007, +7.82947146644E+002, +4.48704085479E+002
+1.48536921151E+007, +7.85053838137E+002, +4.55159654584E+002
+1.49787234043E+007, +7.92660795644E+002, +4.54579505270E+002
+1.51037546934E+007, +7.93471576241E+002, +4.64178332919E+002
+1.52287859825E+007, +7.97075095745E+002, +4.71000709625E+002
+1.53538172716E+007, +7.96238076358E+002, +4.74607807054E+002
+1.54788485607E+007, +8.03818204753E+002, +4.80560741418E+002
+1.56038798498E+007, +8.05400457185E+002, +4.79942690413E+002
+1.57289111389E+007, +8.07920126732E+002, +4.86057471188E+002
+1.58539424280E+007, +8.09273999952E+002, +4.89207623834E+002
+1.59789737171E+007, +8.17041484223E+002, +4.93766255028E+002
+1.61040050063E+007, +8.23657363442E+002, +4.99225388572E+002
+1.62290362954E+007, +8.27452289506E+002, +5.05175963101E+002
+1.63540675845E+007, +8.29440003322E+002, +5.12073074050E+002
+1.64790988736E+007, +8.35804717116E+002, +5.12833082590E+002
+1.66041301627E+007, +8.38062899058E+002, +5.19254186531E+002
+1.67291614518E+007, +8.46003812516E+002, +5.23890710077E+002
+1.68541927409E+007, +8.46309356240E+002, +5.27046296813E+002
+1.69792240300E+007, +8.53757808176E+002, +5.32489894438E+002
+1.71042553191E+007, +8.54548959436E+002, +5.46274694792E+002
+1.72292866083E+007, +8.62904501318E+002, +5.47197822491E+002
+1.73543178974E+007, +8.72501706602E+002, +5.47770259409E+002
+1.74793491865E+007, +8.73360712438E+002, +5.51974342045E+002
+1.76043804756E+007, +8.80468416632E+002, +5.55710816832E+002
+1.77294117647E+007, +8.84468452599E+002, +5.60362524808E+002
+1.78544430538E+007, +8.87554096728E+002, +5.68860693923E+002
+1.79794743429E+007, +8.86258034620E+002, +5.70436686790E+002
+1.81045056320E+007, +8.92336460107E+002, +5.72087460537E+002
+1.82295369212E+007, +9.00263783770E+002, +5.79921803007E+002
+1.83545682103E+007, +9.02227761352E+002, +5.79569567354E+002
+1.84795994994E+007, +9.06723967922E+002, +5.86245858342E+002
+1.86046307885E+007, +9.11495149636E+002, +5.89233427917E+002
+1.87296620776E+007, +9.17796788937E+002, +5.95502280299E+002
+1.88546933667E+007, +9.23960597909E+002, +6.03959258095E+002
+1.89797246558E+007, +9.33122332724E+002, +6.06852144323E+002
+1.91047559449E+007, +9.35637836648E+002, +6.03592178719E+002
+1.92297872340E+007, +9.39653291375E+002, +6.15870583265E+002
+1.93548185232E+007, +9.46392235128E+002, +6.15297620679E+002
+1.94798498123E+007, +9.47035457601E+002, +6.23076637505E+002
+1.96048811014E+007, +9.64631599578E+002, +6.24882712535E+002
+1.97299123905E+007, +9.62193020712E+002, +6.28454465819E+002
+1.98549436796E+007, +9.77555274601E+002, +6.40695499908E+002
+1.99799749687E+007, +9.74668363079E+002, +6.43732399394E+002
+2.01050062578E+007, +9.74299214199E+002, +6.47184592345E+002
+2.02300375469E+007, +9.91994491281E+002, +6.44589228811E+002
+2.03550688360E+007, +1.00226968450E+003, +6.65675149856E+002
+2.04801001252E+007, +1.00880346311E+003, +6.62557354651E+002
+2.06051314143E+007, +1.01263259649E+003, +6.68412603382E+002
+2.07301627034E+007, +1.01849170603E+003, +6.70070547549E+002
+2.08551939925E+007, +1.02588608991E+003, +6.69936002726E+002
+2.09802252816E+007, +1.02240382918E+003, +6.81390905641E+002
+2.11052565707E+007, +1.03459118544E+003, +6.88305413740E+002
+2.12302878598E+007, +1.04552750671E+003, +6.80826245537E+002
+2.13553191489E+007, +1.04248952839E+003, +6.89437149728E+002
+2.14803504380E+007, +1.06968822227E+003, +6.96058920040E+002
+2.16053817272E+007, +1.06221975543E+003, +7.05527017128E+002
+2.17304130163E+007, +1.07228644077E+003, +7.02811054080E+002
+2.18554443054E+007, +1.08218765900E+003, +7.11989900016E+002
+2.19804755945E+007, +1.08847530845E+003, +7.22280105760E+002
+2.21055068836E+007, +1.10300938099E+003, +7.15698094803E+002
+2.22305381727E+007, +1.11316747776E+003, +7.13803596459E+002
+2.23555694618E+007, +1.11872987805E+003, +7.32032258897E+002
+2.24806007509E+007, +1.12102233523E+003, +7.30872692573E+002
+2.26056320401E+007, +1.13494499436E+003, +7.32525477358E+002
+2.27306633292E+007, +1.14830370359E+003, +7.44331903508E+002
+2.28556946183E+007, +1.15667356266E+003, +7.50504353043E+002
+2.29807259074E+007, +1.16712015377E+003, +7.51693554819E+002
+2.31057571965E+007, +1.16968143518E+003, +7.45281298920E+002
+2.32307884856E+007, +1.18271363522E+003, +7.46712865308E+002
+2.33558197747E+007, +1.18464362772E+003, +7.65150170157E+002
+2.34808510638E+007, +1.19329266280E+003, +7.60141589263E+002
+2.36058823529E+007, +1.20809706552E+003, +7.61603340441E+002
+2.37309136421E+007, +1.23253397269E+003, +7.71463153119E+002
+2.38559449312E+007, +1.22878842296E+003, +7.74498058983E+002
+2.39809762203E+007, +1.24334453736E+003, +7.73005239901E+002
+2.41060075094E+007, +1.25391590533E+003, +7.94086403452E+002
+2.42310387985E+007, +1.26457316980E+003, +7.77134636881E+002
+2.43560700876E+007, +1.27084712551E+003, +7.87482648249E+002
+2.44811013767E+007, +1.28944625293E+003, +7.93801773104E+002
+2.46061326658E+007, +1.30223791020E+003, +7.95075731743E+002
+2.47311639549E+007, +1.31456346105E+003, +7.99395268434E+002
+2.48561952441E+007, +1.32809537203E+003, +7.97357327305E+002
+2.49812265332E+007, +1.33406675135E+003, +8.03200794721E+002
+2.51062578223E+007, +1.34011656944E+003, +7.98353246046E+002
+2.52312891114E+007, +1.36723752129E+003, +8.09807476368E+002
+2.53563204005E+007, +1.36808827157E+003, +8.20741712639E+002
+2.54813516896E+007, +1.38808375569E+003, +8.27507642633E+002
+2.56063829787E+007, +1.39834555246E+003, +8.16778716359E+002
+2.57314142678E+007, +1.40427896688E+003, +8.30524310649E+002
+2.58564455569E+007, +1.41075792122E+003, +8.30919767802E+002
+2.59814768461E+007, +1.43633608912E+003, +8.21862790748E+002
+2.61065081352E+007, +1.45605343028E+003, +8.22049832336E+002
+2.62315394243E+007, +1.48750351467E+003, +8.19699728808E+002
+2.63565707134E+007, +1.49083079030E+003, +8.35185022090E+002
+2.64816020025E+007, +1.49940232119E+003, +8.29759210514E+002
+2.66066332916E+007, +1.51093575573E+003, +8.27951692082E+002
+2.67316645807E+007, +1.51574382043E+003, +8.25064487675E+002
+2.68566958698E+007, +1.54929668326E+003, +8.36234880408E+002
+2.69817271589E+007, +1.54737703232E+003, +8.37851431639E+002
+2.71067584481E+007, +1.57281124097E+003, +8.22357845885E+002
+2.72317897372E+007, +1.59831706250E+003, +8.24531400824E+002
+2.73568210263E+007, +1.60997460780E+003, +8.44945695176E+002
+2.74818523154E+007, +1.63156764236E+003, +8.45152454592E+002
+2.76068836045E+007, +1.62004991436E+003, +8.26049899374E+002
+2.77319148936E+007, +1.65810884765E+003, +8.41360970422E+002
+2.78569461827E+007, +1.64747027779E+003, +8.25654752180E+002
+2.79819774718E+007, +1.69068469070E+003, +8.47785415513E+002
+2.81070087610E+007, +1.70054059145E+003, +8.35541134166E+002
+2.82320400501E+007, +1.71992131640E+003, +8.19239947680E+002
+2.83570713392E+007, +1.72351094714E+003, +8.30716130640E+002
+2.84821026283E+007, +1.74085960931E+003, +8.36834612533E+002
+2.86071339174E+007, +1.75579242913E+003, +8.25453650556E+002
+2.87321652065E+007, +1.79560569712E+003, +8.16109411900E+002
+2.88571964956E+007, +1.82538027705E+003, +8.38626568865E+002
+2.89822277847E+007, +1.84816918689E+003, +8.18060290638E+002
+2.91072590738E+007, +1.85064236950E+003, +8.20986139352E+002
+2.92322903630E+007, +1.85820875043E+003, +8.19313997313E+002
+2.93573216521E+007, +1.90303443032E+003, +8.33830460725E+002
+2.94823529412E+007, +1.92750539472E+003, +8.03314742274E+002
+2.96073842303E+007, +1.90999505387E+003, +8.04097709430E+002
+2.97324155194E+007, +1.95530109704E+003, +7.98333186096E+002
+2.98574468085E+007, +1.98459908609E+003, +8.08353051482E+002
+2.99824780976E+007, +2.01484053232E+003, +7.87136481715E+002
+3.01075093867E+007, +2.03192011443E+003, +7.76513051670E+002
+3.02325406758E+007, +2.03321365927E+003, +7.59964015394E+002
+3.03575719650E+007, +2.08691781181E+003, +7.78271872152E+002
+3.04826032541E+007, +2.10323567555E+003, +7.56924435564E+002
+3.06076345432E+007, +2.11349084702E+003, +7.50620584023E+002
+3.07326658323E+007, +2.14956929868E+003, +7.24213846442E+002
+3.08576971214E+007, +2.14136431441E+003, +7.13496534205E+002
+3.09827284105E+007, +2.17497503562E+003, +7.12560407154E+002
+3.11077596996E+007, +2.21966836086E+003, +6.78555577725E+002
+3.12327909887E+007, +2.22966857950E+003, +6.77986957419E+002
+3.13578222778E+007, +2.24955724348E+003, +7.15000430383E+002
+3.14828535670E+007, +2.26421865016E+003, +6.58298648727E+002
+3.16078848561E+007, +2.29495587594E+003, +6.46020860772E+002
+3.17329161452E+007, +2.32794745206E+003, +6.46746705001E+002
+3.18579474343E+007, +2.34880354918E+003, +6.01233528091E+002
+3.19829787234E+007, +2.37624492776E+003, +6.02043753360E+002
+3.21080100125E+007, +2.38909476050E+003, +5.67219362735E+002
+3.22330413016E+007, +2.46709317313E+003, +5.58840682815E+002
+3.23580725907E+007, +2.42730192098E+003, +5.22844100958E+002
+3.24831038798E+007, +2.46661677683E+003, +5.04373413799E+002
+3.26081351690E+007, +2.52939982089E+003, +4.81652350573E+002
+3.27331664581E+007, +2.52621586770E+003, +4.89274895008E+002
+3.28581977472E+007, +2.52937039653E+003, +4.27936312359E+002
+3.29832290363E+007, +2.56825294311E+003, +3.77716477279E+002
+3.31082603254E+007, +2.56879435478E+003, +3.88668686870E+002
+3.32332916145E+007, +2.60778773689E+003, +3.67491614059E+002
+3.33583229036E+007, +2.59816841541E+003, +3.91372804635E+002
+3.34833541927E+007, +2.61670957054E+003, +3.31169117275E+002
+3.36083854819E+007, +2.62993531660E+003, +3.24334858715E+002
+3.37334167710E+007, +2.67721697069E+003, +2.55279668744E+002
+3.38584480601E+007, +2.68817487196E+003, +2.40340628357E+002
+3.39834793492E+007, +2.72056235640E+003, +1.97165139805E+002
+3.41085106383E+007, +2.71566975569E+003, +1.56767177064E+002
+3.42335419274E+007, +2.73566356669E+003, +1.29018172007E+002
+3.43585732165E+007, +2.73946657817E+003, +9.23851017565E+001
+3.44836045056E+007, +2.76128944669E+003, +9.55814772867E+001
+3.46086357947E+007, +2.77683852561E+003, +3.95147554218E+001
+3.47336670839E+007, +2.79619287645E+003, -5.18776891504E+001
+3.48586983730E+007, +2.82739769655E+003, -3.86305847328E+001
+3.49837296621E+007, +2.81779093312E+003, -1.21885772489E+002
+3.51087609512E+007, +2.84582052429E+003, -1.50475511016E+002
+3.52337922403E+007, +2.85324141033E+003, -2.06280427424E+002
+3.53588235294E+007, +2.81311816630E+003, -1.79059544863E+002
+3.54838548185E+007, +2.82418728915E+003, -2.37938145252E+002
+3.56088861076E+007, +2.81933529056E+003, -2.76339613493E+002
+3.57339173967E+007, +2.80496820963E+003, -3.32454566277E+002
+3.58589486859E+007, +2.86409769920E+003, -3.73313034204E+002
+3.59839799750E+007, +2.85757327926E+003, -3.50770547535E+002
+3.61090112641E+007, +2.83380230185E+003, -4.40483506082E+002
+3.62340425532E+007, +2.81621999271E+003, -4.71515950116E+002
+3.63590738423E+007, +2.81491711040E+003, -5.32538708507E+002
+3.64841051314E+007, +2.81432467909E+003, -5.30847036869E+002
+3.66091364205E+007, +2.81512050621E+003, -6.05570670013E+002
+3.67341677096E+007, +2.75368894985E+003, -6.22674318020E+002
+3.68591989987E+007, +2.81498079194E+003, -6.77125886193E+002
+3.69842302879E+007, +2.76925291962E+003, -7.09462972718E+002
+3.71092615770E+007, +2.73023909130E+003, -7.88367012525E+002
+3.72342928661E+007, +2.78219581987E+003, -7.67089296660E+002
+3.73593241552E+007, +2.72771207391E+003, -8.06685916488E+002
+3.74843554443E+007, +2.72419635171E+003, -8.55291988496E+002
+3.76093867334E+007, +2.68481225582E+003, -9.28609095832E+002
+3.77344180225E+007, +2.68914128976E+003, -9.19517262777E+002
+3.78594493116E+007, +2.63878463525E+003, -9.89040908931E+002
+3.79844806008E+007, +2.65715078874E+003, -1.01347894403E+003
+3.81095118899E+007, +2.62284977397E+003, -1.02727822570E+003
+3.82345431790E+007, +2.55245820399E+003, -1.03725851580E+003
+3.83595744681E+007, +2.57717396827E+003, -1.11262237782E+003
+3.84846057572E+007, +2.56182534381E+003, -1.12992437159E+003
+3.86096370463E+007, +2.55061342908E+003, -1.16776898143E+003
+3.87346683354E+007, +2.44657672267E+003, -1.15863930773E+003
+3.88596996245E+007, +2.44825884686E+003, -1.22684300441E+003
+3.89847309136E+007, +2.42368539967E+003, -1.22178812085E+003
+3.91097622028E+007, +2.39373115772E+003, -1.23914009581E+003
+3.92347934919E+007, +2.38654734755E+003, -1.26926002256E+003
+3.93598247810E+007, +2.35362358265E+003, -1.34478066609E+003
+3.94848560701E+007, +2.31365769840E+003, -1.36214002261E+003
+3.96098873592E+007, +2.28638496157E+003, -1.35125666815E+003
+3.97349186483E+007, +2.27537790023E+003, -1.38619086062E+003
+3.98599499374E+007, +2.23117358008E+003, -1.37988631965E+003
+3.99849812265E+007, +2.20076230391E+003, -1.39660187139E+003
+4.01100125156E+007, +2.17230163998E+003, -1.44343000892E+003
