"# Channel 1"
"# Trace 1"
Frequency, Formatted Data, Formatted Data
+1.00000000000E+005, +3.70454924819E+001, +3.47937457340E+000
+2.87609511890E+005, +3.69967162087E+001, +9.83209657952E+000
+4.75219023780E+005, +3.70958794265E+001, +1.62219985986E+001
+6.62828535670E+005, +3.70478699527E+001, +2.26793904536E+001
+8.50438047559E+005, +3.70490443946E+001, +2.90527431336E+001
+1.03804755945E+006, +3.70215708735E+001, +3.54570317542E+001
+1.22565707134E+006, +3.70892520343E+001, +4.18749378511E+001
+1.41326658323E+006, +3.70426355189E+001, +4.82837432575E+001
+1.60087609512E+006, +3.70646745788E+001, +5.47445658711E+001
+1.78848560701E+006, +3.71429886489E+001, +6.11408039804E+001
+1.97609511890E+006, +3.71768334172E+001, +6.74779293365E+001
+2.16370463079E+006, +3.72568245058E+001, +7.40120620134E+001
+2.35131414268E+006, +3.71100089529E+001, +8.03039856290E+001
+2.53892365457E+006, +3.72655852154E+001, +8.67802071072E+001
+2.72653316646E+006, +3.73183210783E+001, +9.32527004960E+001
+2.91414267835E+006, +3.73117910940E+001, +9.95740913637E+001
+3.10175219024E+006, +3.74696886889E+001, +1.05951037038E+002
+3.28936170213E+006, +3.74214433907E+001, +1.12464623986E+002
+3.47697121402E+006, +3.74527732209E+001, +1.18937352239E+002
+3.66458072591E+006, +3.74935459378E+001, +1.25486617021E+002
+3.85219023780E+006, +3.76543339425E+001, +1.31773673686E+002
+4.03979974969E+006, +3.76432787425E+001, +1.38076292000E+002
+4.22740926158E+006, +3.76711460876E+001, +1.44763852649E+002
+4.41501877347E+006, +3.80324666358E+001, +1.51246308095E+002
+4.60262828536E+006, +3.77936617411E+001, +1.57647692138E+002
+4.79023779725E+006, +3.79862668961E+001, +1.64238739473E+002
+4.97784730914E+006, +3.82590704353E+001, +1.70715584803E+002
+5.16545682103E+006, +3.81800850715E+001, +1.76963017291E+002
+5.35306633292E+006, +3.85193958678E+001, +1.83492718699E+002
+5.54067584481E+006, +3.81781051510E+001, +1.89961321752E+002
+5.72828535670E+006, +3.86453725034E+001, +1.96340902321E+002
+5.91589486859E+006, +3.86841186166E+001, +2.02889066532E+002
+6.10350438048E+006, +3.86353415293E+001, +2.09542166794E+002
+6.29111389237E+006, +3.88615395208E+001, +2.15860790755E+002
+6.47872340426E+006, +3.91738667722E+001, +2.22497420933E+002
+6.66633291615E+006, +3.94187548991E+001, +2.29091776265E+002
+6.85394242804E+006, +3.95642545323E+001, +2.35508789097E+002
+7.04155193992E+006, +3.96438621644E+001, +2.42317600616E+002
+7.22916145181E+006, +3.97566977745E+001, +2.48690245904E+002
+7.41677096370E+006, +4.01818075490E+001, +2.55213129447E+002
+7.60438047559E+006, +4.00568918633E+001, +2.61929075755E+002
+7.79198998748E+006, +4.04458334787E+001, +2.68324581403E+002
+7.97959949937E+006, +4.05119544194E+001, +2.75203055684E+002
+8.16720901126E+006, +4.05421400287E+001, +2.81612905005E+002
+8.35481852315E+006, +4.08459274366E+001, +2.88238188141E+002
+8.54242803504E+006, +4.09405167087E+001, +2.95051571779E+002
+8.73003754693E+006, +4.12668200694E+001, +3.01624323195E+002
+8.91764705882E+006, +4.15399972450E+001, +3.08447363345E+002
+9.10525657071E+006, +4.17278855281E+001, +3.14838557883E+002
+9.29286608260E+006, +4.19337788571E+001, +3.21662549641E+002
+9.48047559449E+006, +4.19789316464E+001, +3.28532281397E+002
+9.66808510638E+006, +4.22713586302E+001, +3.35174285358E+002
+9.85569461827E+006, +4.24159599527E+001, +3.41928265403E+002
+1.00433041302E+007, +4.25857834045E+001, +3.48829157224E+002
+1.02309136421E+007, +4.25653154887E+001, +3.55345081451E+002
+1.04185231539E+007, +4.27896375178E+001, +3.62057067154E+002
+1.06061326658E+007, +4.32130709652E+001, +3.68875954536E+002
+1.07937421777E+007, +4.35238929094E+001, +3.75827139879E+002
+1.09813516896E+007, +4.36488701648E+001, +3.82440240501E+002
+1.11689612015E+007, +4.41848766798E+001, +3.89038430247E+002
+1.13565707134E+007, +4.38169409015E+001, +3.96112099099E+002
+1.15441802253E+007, +4.43356491400E+001, +4.03333431885E+002
+1.17317897372E+007, +4.45333615482E+001, +4.09759117653E+002
+1.19193992491E+007, +4.48404474479E+001, +4.16634155461E+002
+1.21070087610E+007, +4.52781301901E+001, +4.23439407950E+002
+1.22946182728E+007, +4.52385528098E+001, +4.30576112040E+002
+1.24822277847E+007, +4.54991631314E+001, +4.37951283621E+002
+1.26698372966E+007, +4.59754450336E+001, +4.44629650018E+002
+1.28574468085E+007, +4.58523724100E+001, +4.51508691035E+002
+1.30450563204E+007, +4.62312612849E+001, +4.58843115969E+002
+1.32326658323E+007, +4.68139757199E+001, +4.65471573481E+002
+1.34202753442E+007, +4.67707619069E+001, +4.72456176954E+002
+1.36078848561E+007, +4.75409240165E+001, +4.79717933827E+002
+1.37954943680E+007, +4.74100778115E+001, +4.86376017323E+002
+1.39831038798E+007, +4.74436995087E+001, +4.93551123639E+002
+1.41707133917E+007, +4.79504724107E+001, +5.00773024415E+002
+1.43583229036E+007, +4.79928356659E+001, +5.07851920343E+002
+1.45459324155E+007, +4.89093896051E+001, +5.14761380581E+002
+1.47335419274E+007, +4.88323950318E+001, +5.22391038167E+002
+1.49211514393E+007, +4.95120787073E+001, +5.29330842688E+002
+1.51087609512E+007, +4.94260797384E+001, +5.36323114741E+002
+1.52963704631E+007, +4.98077260457E+001, +5.43886120943E+002
+1.54839799750E+007, +5.03756547362E+001, +5.50903677884E+002
+1.56715894869E+007, +5.07887632604E+001, +5.58183807503E+002
+1.58591989987E+007, +5.14056733977E+001, +5.65631178656E+002
+1.60468085106E+007, +5.07630558806E+001, +5.73011069421E+002
+1.62344180225E+007, +5.17840697325E+001, +5.80384780113E+002
+1.64220275344E+007, +5.15163109654E+001, +5.87064652435E+002
+1.66096370463E+007, +5.27277783422E+001, +5.94827853473E+002
+1.67972465582E+007, +5.26332262337E+001, +6.02158247194E+002
+1.69848560701E+007, +5.29034142315E+001, +6.10312098927E+002
+1.71724655820E+007, +5.22840874862E+001, +6.18025899897E+002
+1.73600750939E+007, +5.24997177329E+001, +6.26113826448E+002
+1.75476846058E+007, +5.36205138525E+001, +6.32672465895E+002
+1.77352941176E+007, +5.44530266197E+001, +6.40455235154E+002
+1.79229036295E+007, +5.47845154161E+001, +6.47988370941E+002
+1.81105131414E+007, +5.48457696507E+001, +6.55861653801E+002
+1.82981226533E+007, +5.51860805258E+001, +6.63467165798E+002
+1.84857321652E+007, +5.63228513652E+001, +6.70056922700E+002
+1.86733416771E+007, +5.64088060610E+001, +6.79030984268E+002
+1.88609511890E+007, +5.69710104901E+001, +6.85281249396E+002
+1.90485607009E+007, +5.84223305419E+001, +6.94201398320E+002
+1.92361702128E+007, +5.92701502181E+001, +7.01800498641E+002
+1.94237797247E+007, +5.79760644376E+001, +7.09873701802E+002
+1.96113892365E+007, +5.92794950559E+001, +7.17901209235E+002
+1.97989987484E+007, +6.02775454860E+001, +7.25405140611E+002
+1.99866082603E+007, +5.96844810871E+001, +7.32613075967E+002
+2.01742177722E+007, +6.04733166604E+001, +7.41235370899E+002
+2.03618272841E+007, +6.13839096234E+001, +7.48710872594E+002
+2.05494367960E+007, +6.14187569292E+001, +7.56557986003E+002
+2.07370463079E+007, +6.27186571529E+001, +7.64773369911E+002
+2.09246558198E+007, +6.29552647541E+001, +7.73556720930E+002
+2.11122653317E+007, +6.25789277944E+001, +7.81017595330E+002
+2.12998748436E+007, +6.29722075119E+001, +7.89830595320E+002
+2.14874843554E+007, +6.43246572336E+001, +7.98028608026E+002
+2.16750938673E+007, +6.42227717100E+001, +8.04801736552E+002
+2.18627033792E+007, +6.59962649626E+001, +8.15324336068E+002
+2.20503128911E+007, +6.61538284220E+001, +8.21587200608E+002
+2.22379224030E+007, +6.68844530827E+001, +8.30600271282E+002
+2.24255319149E+007, +6.82055650241E+001, +8.38711013249E+002
+2.26131414268E+007, +6.83737309852E+001, +8.46034451288E+002
+2.28007509387E+007, +6.91995946552E+001, +8.55370098211E+002
+2.29883604506E+007, +7.00806723944E+001, +8.63641326943E+002
+2.31759699625E+007, +7.06404218353E+001, +8.72953847323E+002
+2.33635794743E+007, +7.19584263964E+001, +8.79976482373E+002
+2.35511889862E+007, +7.17260552399E+001, +8.88967895205E+002
+2.37387984981E+007, +7.34509832333E+001, +8.97816641284E+002
+2.39264080100E+007, +7.32123251865E+001, +9.07939625235E+002
+2.41140175219E+007, +7.52109177888E+001, +9.16116574682E+002
+2.43016270338E+007, +7.55984740412E+001, +9.25961744134E+002
+2.44892365457E+007, +7.61247790249E+001, +9.33112069448E+002
+2.46768460576E+007, +7.56568114809E+001, +9.41729227474E+002
+2.48644555695E+007, +7.82206105000E+001, +9.49057617945E+002
+2.50520650814E+007, +7.77510528409E+001, +9.59745840519E+002
+2.52396745932E+007, +7.98683378450E+001, +9.68699691830E+002
+2.54272841051E+007, +8.07610104275E+001, +9.77911252576E+002
+2.56148936170E+007, +7.94280765724E+001, +9.87024314545E+002
+2.58025031289E+007, +8.31284856662E+001, +9.98566897465E+002
+2.59901126408E+007, +8.14315483183E+001, +1.00566128580E+003
+2.61777221527E+007, +8.41210592661E+001, +1.01647416100E+003
+2.63653316646E+007, +8.34446359897E+001, +1.02226741344E+003
+2.65529411765E+007, +8.44869372335E+001, +1.03425345757E+003
+2.67405506884E+007, +8.49045819381E+001, +1.04263385631E+003
+2.69281602003E+007, +8.55120143617E+001, +1.05242612064E+003
+2.71157697121E+007, +8.78837293494E+001, +1.06118338128E+003
+2.73033792240E+007, +8.59860102990E+001, +1.06980115062E+003
+2.74909887359E+007, +8.81161958170E+001, +1.08278932439E+003
+2.76785982478E+007, +9.02236522903E+001, +1.08812877754E+003
+2.78662077597E+007, +8.86983962471E+001, +1.10110867806E+003
+2.80538172716E+007, +9.11765012501E+001, +1.10943342254E+003
+2.82414267835E+007, +9.29098844087E+001, +1.11897168475E+003
+2.84290362954E+007, +9.32718962623E+001, +1.12918606427E+003
+2.86166458073E+007, +9.41332493162E+001, +1.13857621555E+003
+2.88042553191E+007, +9.83600976056E+001, +1.14773530672E+003
+2.89918648310E+007, +9.63066728187E+001, +1.15997732734E+003
+2.91794743429E+007, +9.63659229255E+001, +1.17069252242E+003
+2.93670838548E+007, +9.94365383901E+001, +1.18362955136E+003
+2.95546933667E+007, +9.98207632779E+001, +1.19057661459E+003
+2.97423028786E+007, +1.01350545904E+002, +1.20183711566E+003
+2.99299123905E+007, +1.01883447274E+002, +1.21320501911E+003
+3.01175219024E+007, +1.03074957307E+002, +1.22469224277E+003
+3.03051314143E+007, +1.03598922017E+002, +1.23419620518E+003
+3.04927409262E+007, +1.04310129966E+002, +1.24387805451E+003
+3.06803504380E+007, +1.07490031084E+002, +1.25345747561E+003
+3.08679599499E+007, +1.04944260787E+002, +1.26316631783E+003
+3.10555694618E+007, +1.08211024681E+002, +1.27513902608E+003
+3.12431789737E+007, +1.09142277566E+002, +1.28830348797E+003
+3.14307884856E+007, +1.12098385761E+002, +1.29777218219E+003
+3.16183979975E+007, +1.10122789949E+002, +1.31050015088E+003
+3.18060075094E+007, +1.13136408875E+002, +1.31934362160E+003
+3.19936170213E+007, +1.14067703710E+002, +1.33317831958E+003
+3.21812265332E+007, +1.15125927574E+002, +1.34155764809E+003
+3.23688360451E+007, +1.19495178040E+002, +1.35522853075E+003
+3.25564455569E+007, +1.16398229555E+002, +1.36646240132E+003
+3.27440550688E+007, +1.21766096845E+002, +1.37720430554E+003
+3.29316645807E+007, +1.20399605822E+002, +1.38851636009E+003
+3.31192740926E+007, +1.16913047869E+002, +1.40449110948E+003
+3.33068836045E+007, +1.21129867749E+002, +1.41066801521E+003
+3.34944931164E+007, +1.24593948110E+002, +1.42564408032E+003
+3.36821026283E+007, +1.26105001927E+002, +1.43654217135E+003
+3.38697121402E+007, +1.23105786224E+002, +1.44989617787E+003
+3.40573216521E+007, +1.31069133495E+002, +1.46389809342E+003
+3.42449311640E+007, +1.34182561013E+002, +1.47530638390E+003
+3.44325406758E+007, +1.32198121699E+002, +1.48369821950E+003
+3.46201501877E+007, +1.35742110945E+002, +1.50113895360E+003
+3.48077596996E+007, +1.31327430749E+002, +1.51392378362E+003
+3.49953692115E+007, +1.35190320641E+002, +1.52736231721E+003
+3.51829787234E+007, +1.37581257882E+002, +1.53745908372E+003
+3.53705882353E+007, +1.41869271923E+002, +1.55132757285E+003
+3.55581977472E+007, +1.45557098576E+002, +1.56646780353E+003
+3.57458072591E+007, +1.44103787276E+002, +1.58055847733E+003
+3.59334167710E+007, +1.41594891132E+002, +1.59128904323E+003
+3.61210262829E+007, +1.48055835166E+002, +1.60394477281E+003
+3.63086357947E+007, +1.44543824366E+002, +1.62054436094E+003
+3.64962453066E+007, +1.52298254948E+002, +1.63376709459E+003
+3.66838548185E+007, +1.50899966552E+002, +1.64446841991E+003
+3.68714643304E+007, +1.56067051638E+002, +1.66194337660E+003
+3.70590738423E+007, +1.57084059545E+002, +1.67432966011E+003
+3.72466833542E+007, +1.60175498112E+002, +1.69333893913E+003
+3.74342928661E+007, +1.55675453439E+002, +1.70231639379E+003
+3.76219023780E+007, +1.59741826683E+002, +1.72219193766E+003
+3.78095118899E+007, +1.70189391648E+002, +1.73215030951E+003
+3.79971214018E+007, +1.65822444764E+002, +1.74145577654E+003
+3.81847309136E+007, +1.68478200903E+002, +1.76083300072E+003
+3.83723404255E+007, +1.71578843008E+002, +1.78007605877E+003
+3.85599499374E+007, +1.71036826273E+002, +1.78901248222E+003
+3.87475594493E+007, +1.78070693879E+002, +1.80620054425E+003
+3.89351689612E+007, +1.74396824345E+002, +1.82558802471E+003
+3.91227784731E+007, +1.81403025301E+002, +1.83465415462E+003
+3.93103879850E+007, +1.80116481386E+002, +1.84794044409E+003
+3.94979974969E+007, +1.83332187177E+002, +1.87101906652E+003
+3.96856070088E+007, +1.92283112755E+002, +1.88514787561E+003
+3.98732165207E+007, +1.84390686359E+002, +1.90838114279E+003
+4.00608260325E+007, +1.91844983150E+002, +1.91972563069E+003
+4.02484355444E+007, +1.92317243491E+002, +1.93497930562E+003
+4.04360450563E+007, +1.92304813935E+002, +1.95738535563E+003
+4.06236545682E+007, +1.94351098902E+002, +1.97296158113E+003
+4.08112640801E+007, +2.06876200017E+002, +1.99104344503E+003
+4.09988735920E+007, +2.04888334202E+002, +2.00915199778E+003
+4.11864831039E+007, +2.15086821274E+002, +2.02263754962E+003
+4.13740926158E+007, +2.14092780081E+002, +2.04117910650E+003
+4.15617021277E+007, +2.14515292943E+002, +2.05955904678E+003
+4.17493116395E+007, +2.16046214118E+002, +2.08160483520E+003
+4.19369211514E+007, +2.18304906111E+002, +2.09962027935E+003
+4.21245306633E+007, +2.28296983599E+002, +2.11282208216E+003
+4.23121401752E+007, +2.29028927227E+002, +2.13362887084E+003
+4.24997496871E+007, +2.35072988999E+002, +2.14513920219E+003
+4.26873591990E+007, +2.31414142378E+002, +2.17346452384E+003
+4.28749687109E+007, +2.45079744642E+002, +2.19341445766E+003
+4.30625782228E+007, +2.40465931835E+002, +2.20613372164E+003
+4.32501877347E+007, +2.36547627048E+002, +2.23229942694E+003
+4.34377972466E+007, +2.55462916681E+002, +2.25194703420E+003
+4.36254067584E+007, +2.64107291236E+002, +2.27320801242E+003
+4.38130162703E+007, +2.54085396291E+002, +2.30353791426E+003
+4.40006257822E+007, +2.52746857301E+002, +2.31007156321E+003
+4.41882352941E+007, +2.64128349970E+002, +2.33160282063E+003
+4.43758448060E+007, +2.62768946913E+002, +2.35500645697E+003
+4.45634543179E+007, +2.79596835620E+002, +2.38790921511E+003
+4.47510638298E+007, +2.69927295362E+002, +2.40514858142E+003
+4.49386733417E+007, +2.76287401958E+002, +2.42722566016E+003
+4.51262828536E+007, +2.74817168723E+002, +2.45119415639E+003
+4.53138923655E+007, +2.74370967143E+002, +2.47481465257E+003
+4.55015018773E+007, +2.85336994028E+002, +2.49144451003E+003
+4.56891113892E+007, +2.96367933748E+002, +2.51438862285E+003
+4.58767209011E+007, +2.88082816690E+002, +2.54040768415E+003
+4.60643304130E+007, +2.86613153995E+002, +2.57377596753E+003
+4.62519399249E+007, +3.06349189239E+002, +2.58891511415E+003
+4.64395494368E+007, +3.14679843008E+002, +2.61502537535E+003
+4.66271589487E+007, +3.17391166646E+002, +2.63871078484E+003
+4.68147684606E+007, +3.16022752514E+002, +2.67647867709E+003
+4.70023779725E+007, +3.39411420106E+002, +2.68655363153E+003
+4.71899874844E+007, +3.32895420559E+002, +2.70929951685E+003
+4.73775969962E+007, +3.35242973565E+002, +2.75184560090E+003
+4.75652065081E+007, +3.46692383691E+002, +2.77483904257E+003
+4.77528160200E+007, +3.45435865054E+002, +2.80506005330E+003
+4.79404255319E+007, +3.63081117914E+002, +2.83251134443E+003
+4.81280350438E+007, +3.69978905497E+002, +2.86514956542E+003
+4.83156445557E+007, +3.71413286399E+002, +2.90117275227E+003
+4.85032540676E+007, +3.57624541949E+002, +2.91531474583E+003
+4.86908635795E+007, +3.82020216525E+002, +2.94723695462E+003
+4.88784730914E+007, +3.85670450773E+002, +2.97232756888E+003
+4.90660826033E+007, +3.96433190498E+002, +3.03073311586E+003
+4.92536921151E+007, +4.18231224594E+002, +3.04706327582E+003
+4.94413016270E+007, +4.25406123859E+002, +3.07933122127E+003
+4.96289111389E+007, +4.30976856599E+002, +3.11962584111E+003
+4.98165206508E+007, +4.33190820433E+002, +3.15663642252E+003
+5.00041301627E+007, +4.43872380801E+002, +3.17317262610E+003
+5.01917396746E+007, +4.51085269174E+002, +3.19947325742E+003
+5.03793491865E+007, +4.63170797210E+002, +3.25386606813E+003
+5.05669586984E+007, +4.71319819828E+002, +3.29219601683E+003
+5.07545682103E+007, +4.79851124692E+002, +3.32033614271E+003
+5.09421777222E+007, +5.05229916037E+002, +3.37103797698E+003
+5.11297872340E+007, +5.11375078528E+002, +3.39445090967E+003
+5.13173967459E+007, +5.22876697193E+002, +3.44112047463E+003
+5.15050062578E+007, +5.36916926440E+002, +3.46426034024E+003
+5.16926157697E+007, +5.39165490926E+002, +3.51887973075E+003
+5.18802252816E+007, +5.57212644292E+002, +3.55213020694E+003
+5.20678347935E+007, +5.72264093051E+002, +3.59103690928E+003
+5.22554443054E+007, +5.75018850083E+002, +3.64047874839E+003
+5.24430538173E+007, +5.68599630466E+002, +3.69875790780E+003
+5.26306633292E+007, +6.08875237482E+002, +3.74271822265E+003
+5.28182728411E+007, +6.21537323933E+002, +3.77529689010E+003
+5.30058823529E+007, +6.42425037361E+002, +3.83902717786E+003
+5.31934918648E+007, +6.44420106461E+002, +3.86617685775E+003
+5.33811013767E+007, +6.76511227835E+002, +3.92886988707E+003
+5.35687108886E+007, +6.78033729672E+002, +3.98429854841E+003
+5.37563204005E+007, +7.39099913524E+002, +4.05531601123E+003
+5.39439299124E+007, +6.98590450293E+002, +4.10172490108E+003
+5.41315394243E+007, +6.90444221553E+002, +4.16422244964E+003
+5.43191489362E+007, +7.88616572274E+002, +4.18747583923E+003
+5.45067584481E+007, +7.88168238138E+002, +4.24141247897E+003
+5.46943679599E+007, +7.97358182141E+002, +4.28945346328E+003
+5.48819774718E+007, +8.05049214651E+002, +4.33320506607E+003
+5.50695869837E+007, +8.41988470179E+002, +4.40854224980E+003
+5.52571964956E+007, +8.46386743809E+002, +4.46601011727E+003
+5.54448060075E+007, +8.60519267443E+002, +4.54300316303E+003
+5.56324155194E+007, +9.20680527067E+002, +4.60280054696E+003
+5.58200250313E+007, +9.05280183945E+002, +4.68120886697E+003
+5.60076345432E+007, +9.68317453758E+002, +4.69452656648E+003
+5.61952440551E+007, +9.72622012363E+002, +4.82074062329E+003
+5.63828535670E+007, +1.02460562581E+003, +4.82443965869E+003
+5.65704630788E+007, +1.04424817928E+003, +4.96145097531E+003
+5.67580725907E+007, +1.13857801766E+003, +5.02355043446E+003
+5.69456821026E+007, +1.14703922976E+003, +5.04919751381E+003
+5.71332916145E+007, +1.13608575788E+003, +5.14950996749E+003
+5.73209011264E+007, +1.19769955698E+003, +5.22790153360E+003
+5.75085106383E+007, +1.19231173119E+003, +5.35177019518E+003
+5.76961201502E+007, +1.21712282181E+003, +5.41099007824E+003
+5.78837296621E+007, +1.26141910494E+003, +5.49709509136E+003
+5.80713391740E+007, +1.33654105923E+003, +5.56296048735E+003
+5.82589486859E+007, +1.37501058968E+003, +5.68632666356E+003
+5.84465581977E+007, +1.42248488040E+003, +5.75824342544E+003
+5.86341677096E+007, +1.46814853562E+003, +5.92523549493E+003
+5.88217772215E+007, +1.54362974407E+003, +6.00864061585E+003
+5.90093867334E+007, +1.57572900842E+003, +6.05951837456E+003
+5.91969962453E+007, +1.62564330492E+003, +6.22369152012E+003
+5.93846057572E+007, +1.70352014595E+003, +6.27751571299E+003
+5.95722152691E+007, +1.79127859619E+003, +6.34891954809E+003
+5.97598247810E+007, +1.82872164212E+003, +6.56869506669E+003
+5.99474342929E+007, +1.97751580043E+003, +6.62209412372E+003
+6.01350438048E+007, +1.92362010150E+003, +6.77077614067E+003
