"# Channel 1"
"# Trace 1"
Frequency, Formatted Data, Formatted Data
+1.00000000000E+005, +7.24307815494E+002, -2.69692867864E+003
+2.87609511890E+005, +1.41727297325E+002, -1.00170906958E+003
+4.75219023780E+005, +8.07742627028E+001, -6.01550194406E+002
+6.62828535670E+005, +6.81930475460E+001, -4.34627186048E+002
+8.50438047559E+005, +6.05056683927E+001, -3.38135366725E+002
+1.03804755945E+006, +5.77701235988E+001, -2.75885629174E+002
+1.22565707134E+006, +5.55047510321E+001, -2.35297612326E+002
+1.41326658323E+006, +5.46597145944E+001, -2.04247530591E+002
+1.60087609512E+006, +5.39881561225E+001, -1.80591520616E+002
+1.78848560701E+006, +5.34813279133E+001, -1.61638574312E+002
+1.97609511890E+006, +5.28445332915E+001, -1.46479043265E+002
+2.16370463079E+006, +5.23594451684E+001, -1.33686793704E+002
+2.35131414268E+006, +5.18038461533E+001, -1.23365963015E+002
+2.53892365457E+006, +5.15664140856E+001, -1.14213016363E+002
+2.72653316646E+006, +5.14769613401E+001, -1.06510695108E+002
+2.91414267835E+006, +5.12782855064E+001, -9.97698093736E+001
+3.10175219024E+006, +5.10400126873E+001, -9.37375326985E+001
+3.28936170213E+006, +5.07220129895E+001, -8.84954349255E+001
+3.47697121402E+006, +5.05978610695E+001, -8.35310578839E+001
+3.66458072591E+006, +5.06710220062E+001, -7.91771715069E+001
+3.85219023780E+006, +5.04172055220E+001, -7.58113341595E+001
+4.03979974969E+006, +5.05546526819E+001, -7.22230746572E+001
+4.22740926158E+006, +5.04142520264E+001, -6.90278587039E+001
+4.41501877347E+006, +5.04535483122E+001, -6.61496899861E+001
+4.60262828536E+006, +5.04022694031E+001, -6.33780951414E+001
+4.79023779725E+006, +5.03562904263E+001, -6.10469788782E+001
+4.97784730914E+006, +5.02863469436E+001, -5.86952563653E+001
+5.16545682103E+006, +5.01180238238E+001, -5.65515282784E+001
+5.35306633292E+006, +5.02315353381E+001, -5.46291037863E+001
+5.54067584481E+006, +5.00797009932E+001, -5.28391582876E+001
+5.72828535670E+006, +5.01035979081E+001, -5.10668083702E+001
+5.91589486859E+006, +5.00399230483E+001, -4.94521818236E+001
+6.10350438048E+006, +5.00836120895E+001, -4.80191090087E+001
+6.29111389237E+006, +5.00810842690E+001, -4.65958624241E+001
+6.47872340426E+006, +4.99863570767E+001, -4.52565534168E+001
+6.66633291615E+006, +4.99590245169E+001, -4.39810726112E+001
+6.85394242804E+006, +4.99834276398E+001, -4.28206070239E+001
+7.04155193992E+006, +4.99135847199E+001, -4.17359263674E+001
+7.22916145181E+006, +4.99213985976E+001, -4.06622123533E+001
+7.41677096370E+006, +4.98571333351E+001, -3.96224088152E+001
+7.60438047559E+006, +4.98588784737E+001, -3.86519994760E+001
+7.79198998748E+006, +4.99072478240E+001, -3.77454025595E+001
+7.97959949937E+006, +4.98079811651E+001, -3.69741595265E+001
+8.16720901126E+006, +4.98653577250E+001, -3.59952557335E+001
+8.35481852315E+006, +4.98990043434E+001, -3.52299740403E+001
+8.54242803504E+006, +4.97513027180E+001, -3.44530917577E+001
+8.73003754693E+006, +4.98040145936E+001, -3.37854426626E+001
+8.91764705882E+006, +4.97810824416E+001, -3.31714229386E+001
+9.10525657071E+006, +4.97626880108E+001, -3.24702339294E+001
+9.29286608260E+006, +4.97674862997E+001, -3.17924164397E+001
+9.48047559449E+006, +4.97683818474E+001, -3.11859044608E+001
+9.66808510638E+006, +4.97602182094E+001, -3.05936848673E+001
+9.85569461827E+006, +4.97450622539E+001, -3.00392549546E+001
+1.00433041302E+007, +4.97309683664E+001, -2.94689463044E+001
+1.02309136421E+007, +4.97320441597E+001, -2.89694289475E+001
+1.04185231539E+007, +4.97304176598E+001, -2.84440812403E+001
+1.06061326658E+007, +4.96903816788E+001, -2.79760382796E+001
+1.07937421777E+007, +4.97053096185E+001, -2.75172316683E+001
+1.09813516896E+007, +4.96895631795E+001, -2.70444980543E+001
+1.11689612015E+007, +4.96866799429E+001, -2.66301533609E+001
+1.13565707134E+007, +4.96774177716E+001, -2.61920028281E+001
+1.15441802253E+007, +4.96818518412E+001, -2.57963671053E+001
+1.17317897372E+007, +4.96654623384E+001, -2.54071715468E+001
+1.19193992491E+007, +4.96620632122E+001, -2.50130779125E+001
+1.21070087610E+007, +4.96397040624E+001, -2.46372858283E+001
+1.22946182728E+007, +4.96570212085E+001, -2.42827371389E+001
+1.24822277847E+007, +4.96431839882E+001, -2.39164262384E+001
+1.26698372966E+007, +4.96618307086E+001, -2.35811696323E+001
+1.28574468085E+007, +4.96497387726E+001, -2.32742207277E+001
+1.30450563204E+007, +4.96218649250E+001, -2.29574802994E+001
+1.32326658323E+007, +4.96297227953E+001, -2.26570352649E+001
+1.34202753442E+007, +4.96273933800E+001, -2.23282917104E+001
+1.36078848561E+007, +4.96295233443E+001, -2.20570970449E+001
+1.37954943680E+007, +4.96124270727E+001, -2.17753497899E+001
+1.39831038798E+007, +4.96174646462E+001, -2.14866764411E+001
+1.41707133917E+007, +4.96210119628E+001, -2.12238554146E+001
+1.43583229036E+007, +4.96086450135E+001, -2.09800623563E+001
+1.45459324155E+007, +4.96099548025E+001, -2.07130832167E+001
+1.47335419274E+007, +4.96017801084E+001, -2.04607769988E+001
+1.49211514393E+007, +4.96024691611E+001, -2.02317197526E+001
+1.51087609512E+007, +4.95898052856E+001, -2.00033656422E+001
+1.52963704631E+007, +4.95908144632E+001, -1.97598167842E+001
+1.54839799750E+007, +4.95685403547E+001, -1.95464861012E+001
+1.56715894869E+007, +4.95871278367E+001, -1.93287376982E+001
+1.58591989987E+007, +4.95785600306E+001, -1.91279665836E+001
+1.60468085106E+007, +4.95831013520E+001, -1.89274949757E+001
+1.62344180225E+007, +4.95710717137E+001, -1.87082921529E+001
+1.64220275344E+007, +4.95564487041E+001, -1.85275368116E+001
+1.66096370463E+007, +4.95643618276E+001, -1.83137033074E+001
+1.67972465582E+007, +4.95448470378E+001, -1.81405727337E+001
+1.69848560701E+007, +4.95535260368E+001, -1.79540200885E+001
+1.71724655820E+007, +4.95634586445E+001, -1.77909270299E+001
+1.73600750939E+007, +4.95414359806E+001, -1.76214509569E+001
+1.75476846058E+007, +4.95430723372E+001, -1.74377658977E+001
+1.77352941176E+007, +4.95426501625E+001, -1.72606946509E+001
+1.79229036295E+007, +4.95215388879E+001, -1.71047891646E+001
+1.81105131414E+007, +4.95452502761E+001, -1.69430439709E+001
+1.82981226533E+007, +4.95226382045E+001, -1.67975402022E+001
+1.84857321652E+007, +4.95097135797E+001, -1.66400590218E+001
+1.86733416771E+007, +4.95356804640E+001, -1.65109943885E+001
+1.88609511890E+007, +4.95099877292E+001, -1.63584022774E+001
+1.90485607009E+007, +4.95209763290E+001, -1.62004508712E+001
+1.92361702128E+007, +4.95039510357E+001, -1.60761118411E+001
+1.94237797247E+007, +4.94909298036E+001, -1.59391987870E+001
+1.96113892365E+007, +4.95032265910E+001, -1.58083739450E+001
+1.97989987484E+007, +4.95013741732E+001, -1.56682154764E+001
+1.99866082603E+007, +4.94922778450E+001, -1.55510564781E+001
+2.01742177722E+007, +4.95004424157E+001, -1.54302396751E+001
+2.03618272841E+007, +4.94793531480E+001, -1.52847172509E+001
+2.05494367960E+007, +4.94806439475E+001, -1.51877597356E+001
+2.07370463079E+007, +4.94708448322E+001, -1.50738862218E+001
+2.09246558198E+007, +4.94655445623E+001, -1.49446842265E+001
+2.11122653317E+007, +4.94437443307E+001, -1.48347240946E+001
+2.12998748436E+007, +4.94514954315E+001, -1.47273225439E+001
+2.14874843554E+007, +4.94483254631E+001, -1.46219286607E+001
+2.16750938673E+007, +4.94296033816E+001, -1.45069419779E+001
+2.18627033792E+007, +4.94233960915E+001, -1.44043036615E+001
+2.20503128911E+007, +4.94384959216E+001, -1.42953981975E+001
+2.22379224030E+007, +4.94235690923E+001, -1.42106673585E+001
+2.24255319149E+007, +4.94035519316E+001, -1.41122525162E+001
+2.26131414268E+007, +4.94021866175E+001, -1.40211176716E+001
+2.28007509387E+007, +4.94095562214E+001, -1.39157519821E+001
+2.29883604506E+007, +4.93794731964E+001, -1.38190363835E+001
+2.31759699625E+007, +4.93799673764E+001, -1.37282465140E+001
+2.33635794743E+007, +4.93528044708E+001, -1.36421411051E+001
+2.35511889862E+007, +4.93594026030E+001, -1.35443055509E+001
+2.37387984981E+007, +4.93387707283E+001, -1.34484191047E+001
+2.39264080100E+007, +4.93089244518E+001, -1.33555126417E+001
+2.41140175219E+007, +4.93118367505E+001, -1.32648989557E+001
+2.43016270338E+007, +4.92834950991E+001, -1.31822430576E+001
+2.44892365457E+007, +4.92801748462E+001, -1.30796654997E+001
+2.46768460576E+007, +4.92685065407E+001, -1.29773377760E+001
+2.48644555695E+007, +4.92590719642E+001, -1.28959496635E+001
+2.50520650814E+007, +4.92613228786E+001, -1.27784676527E+001
+2.52396745932E+007, +4.92593416886E+001, -1.27023117869E+001
+2.54272841051E+007, +4.92615034348E+001, -1.25951731002E+001
+2.56148936170E+007, +4.92669954798E+001, -1.25020683763E+001
+2.58025031289E+007, +4.92786114402E+001, -1.24230278067E+001
+2.59901126408E+007, +4.92871745742E+001, -1.23438765477E+001
+2.61777221527E+007, +4.93118316130E+001, -1.22630059608E+001
+2.63653316646E+007, +4.93064991524E+001, -1.22095451463E+001
+2.65529411765E+007, +4.93221184427E+001, -1.21289068554E+001
+2.67405506884E+007, +4.93184207670E+001, -1.20633829340E+001
+2.69281602003E+007, +4.93131656867E+001, -1.20080344642E+001
+2.71157697121E+007, +4.93318615657E+001, -1.19330105168E+001
+2.73033792240E+007, +4.93354531747E+001, -1.18721946509E+001
+2.74909887359E+007, +4.93504453819E+001, -1.18021686533E+001
+2.76785982478E+007, +4.93517311048E+001, -1.17535515343E+001
+2.78662077597E+007, +4.93609743948E+001, -1.16994164547E+001
+2.80538172716E+007, +4.93558743452E+001, -1.16388379704E+001
+2.82414267835E+007, +4.93602522591E+001, -1.15840866015E+001
+2.84290362954E+007, +4.93651480160E+001, -1.15323348563E+001
+2.86166458073E+007, +4.93671308902E+001, -1.14732396660E+001
+2.88042553191E+007, +4.93583675194E+001, -1.14351013231E+001
+2.89918648310E+007, +4.93568420374E+001, -1.13812807160E+001
+2.91794743429E+007, +4.93624927668E+001, -1.13306898147E+001
+2.93670838548E+007, +4.93664414499E+001, -1.12929245149E+001
+2.95546933667E+007, +4.93537998869E+001, -1.12481116529E+001
+2.97423028786E+007, +4.93617380578E+001, -1.11860662460E+001
+2.99299123905E+007, +4.93637664738E+001, -1.11428312560E+001
+3.01175219024E+007, +4.93562797033E+001, -1.10952450024E+001
+3.03051314143E+007, +4.93571742651E+001, -1.10638897971E+001
+3.04927409262E+007, +4.93524861974E+001, -1.10163944090E+001
+3.06803504380E+007, +4.93531237122E+001, -1.09665585040E+001
+3.08679599499E+007, +4.93471012404E+001, -1.09310478524E+001
+3.10555694618E+007, +4.93465003341E+001, -1.08917807143E+001
+3.12431789737E+007, +4.93441336330E+001, -1.08504719354E+001
+3.14307884856E+007, +4.93312264227E+001, -1.08072187625E+001
+3.16183979975E+007, +4.93359684361E+001, -1.07709883439E+001
+3.18060075094E+007, +4.93325180303E+001, -1.07343869625E+001
+3.19936170213E+007, +4.93260429450E+001, -1.06982428113E+001
+3.21812265332E+007, +4.93166541118E+001, -1.06640965855E+001
+3.23688360451E+007, +4.93214603545E+001, -1.06276380826E+001
+3.25564455569E+007, +4.93154419829E+001, -1.05869029059E+001
+3.27440550688E+007, +4.93131726031E+001, -1.05504045499E+001
+3.29316645807E+007, +4.92968908938E+001, -1.05149396478E+001
+3.31192740926E+007, +4.92936464520E+001, -1.04793829731E+001
+3.33068836045E+007, +4.93042359856E+001, -1.04478139621E+001
+3.34944931164E+007, +4.92881743124E+001, -1.04232583365E+001
+3.36821026283E+007, +4.92910547291E+001, -1.03774121997E+001
+3.38697121402E+007, +4.92713437294E+001, -1.03559031108E+001
+3.40573216521E+007, +4.92705922425E+001, -1.03194081200E+001
+3.42449311640E+007, +4.92579311468E+001, -1.02946127434E+001
+3.44325406758E+007, +4.92608897260E+001, -1.02549111338E+001
+3.46201501877E+007, +4.92485477316E+001, -1.02359936860E+001
+3.48077596996E+007, +4.92468107014E+001, -1.01865389729E+001
+3.49953692115E+007, +4.92415227448E+001, -1.01592904857E+001
+3.51829787234E+007, +4.92280489497E+001, -1.01355693797E+001
+3.53705882353E+007, +4.92279469571E+001, -1.00924896937E+001
+3.55581977472E+007, +4.92218737745E+001, -1.00769379610E+001
+3.57458072591E+007, +4.92194161011E+001, -1.00504171158E+001
+3.59334167710E+007, +4.92173698168E+001, -1.00138063519E+001
+3.61210262829E+007, +4.92109529154E+001, -9.98635480767E+000
+3.63086357947E+007, +4.92055783667E+001, -9.96455887003E+000
+3.64962453066E+007, +4.92024124559E+001, -9.95384714718E+000
+3.66838548185E+007, +4.91898849721E+001, -9.92620464721E+000
+3.68714643304E+007, +4.91920499095E+001, -9.90437481748E+000
+3.70590738423E+007, +4.91929234715E+001, -9.86688346762E+000
+3.72466833542E+007, +4.91857292004E+001, -9.85869488328E+000
+3.74342928661E+007, +4.91798554497E+001, -9.83093489896E+000
+3.76219023780E+007, +4.91623644834E+001, -9.81436922691E+000
+3.78095118899E+007, +4.91555854570E+001, -9.79381789218E+000
+3.79971214018E+007, +4.91580217772E+001, -9.78003444841E+000
+3.81847309136E+007, +4.91501545489E+001, -9.76149035260E+000
+3.83723404255E+007, +4.91503851754E+001, -9.74229524974E+000
+3.85599499374E+007, +4.91402340536E+001, -9.71917459789E+000
+3.87475594493E+007, +4.91327045412E+001, -9.71418453348E+000
+3.89351689612E+007, +4.91192735339E+001, -9.69532429522E+000
+3.91227784731E+007, +4.91080591645E+001, -9.68493212824E+000
+3.93103879850E+007, +4.91036941590E+001, -9.66566471762E+000
+3.94979974969E+007, +4.90927360923E+001, -9.65764297737E+000
+3.96856070088E+007, +4.90811004186E+001, -9.64201696167E+000
+3.98732165207E+007, +4.90669881358E+001, -9.63689732996E+000
+4.00608260325E+007, +4.90498086250E+001, -9.62665085019E+000
+4.02484355444E+007, +4.90438216074E+001, -9.59943504795E+000
+4.04360450563E+007, +4.90190734270E+001, -9.59543059247E+000
+4.06236545682E+007, +4.90064091442E+001, -9.58387444100E+000
+4.08112640801E+007, +4.89961244715E+001, -9.56251446884E+000
+4.09988735920E+007, +4.89738598815E+001, -9.54082756616E+000
+4.11864831039E+007, +4.89596338111E+001, -9.52681467504E+000
+4.13740926158E+007, +4.89472174363E+001, -9.50535396145E+000
+4.15617021277E+007, +4.89358565198E+001, -9.50136158563E+000
+4.17493116395E+007, +4.89200499335E+001, -9.47587955404E+000
+4.19369211514E+007, +4.89148845797E+001, -9.45752047430E+000
+4.21245306633E+007, +4.89036048798E+001, -9.44897732414E+000
+4.23121401752E+007, +4.88797656790E+001, -9.42423614542E+000
+4.24997496871E+007, +4.88745981518E+001, -9.40606494722E+000
+4.26873591990E+007, +4.88684168397E+001, -9.38442753987E+000
+4.28749687109E+007, +4.88561203265E+001, -9.37774511276E+000
+4.30625782228E+007, +4.88619668280E+001, -9.36509341910E+000
+4.32501877347E+007, +4.88499841562E+001, -9.34797359832E+000
+4.34377972466E+007, +4.88395865251E+001, -9.33044423259E+000
+4.36254067584E+007, +4.88307360095E+001, -9.34156064939E+000
+4.38130162703E+007, +4.88286302430E+001, -9.32484320780E+000
+4.40006257822E+007, +4.88181942652E+001, -9.30693847360E+000
+4.41882352941E+007, +4.88066912262E+001, -9.29590321427E+000
+4.43758448060E+007, +4.88042755862E+001, -9.29619703408E+000
+4.45634543179E+007, +4.87964474440E+001, -9.30010327571E+000
+4.47510638298E+007, +4.87733449391E+001, -9.29372326101E+000
+4.49386733417E+007, +4.87710228807E+001, -9.28484450007E+000
+4.51262828536E+007, +4.87586943757E+001, -9.28350054936E+000
+4.53138923655E+007, +4.87439028128E+001, -9.28323331865E+000
+4.55015018773E+007, +4.87296622710E+001, -9.27784581755E+000
+4.56891113892E+007, +4.87138220299E+001, -9.26914874005E+000
+4.58767209011E+007, +4.86979772105E+001, -9.28631635475E+000
+4.60643304130E+007, +4.86792574740E+001, -9.28541484039E+000
+4.62519399249E+007, +4.86607899202E+001, -9.27364439647E+000
+4.64395494368E+007, +4.86570796991E+001, -9.25976872638E+000
+4.66271589487E+007, +4.86180607572E+001, -9.25721743456E+000
+4.68147684606E+007, +4.86148308538E+001, -9.24047226876E+000
+4.70023779725E+007, +4.86096971601E+001, -9.23679763914E+000
+4.71899874844E+007, +4.85816531690E+001, -9.23082572541E+000
+4.73775969962E+007, +4.85697635569E+001, -9.22474301872E+000
+4.75652065081E+007, +4.85613074406E+001, -9.21358343952E+000
+4.77528160200E+007, +4.85456799938E+001, -9.21309158293E+000
+4.79404255319E+007, +4.85358940285E+001, -9.20622823384E+000
+4.81280350438E+007, +4.85216175239E+001, -9.20643986283E+000
+4.83156445557E+007, +4.85247529581E+001, -9.18761145936E+000
+4.85032540676E+007, +4.85134311469E+001, -9.19809429914E+000
+4.86908635795E+007, +4.85097050642E+001, -9.20643653601E+000
+4.88784730914E+007, +4.84973536596E+001, -9.20403220168E+000
+4.90660826033E+007, +4.84843436758E+001, -9.21310350923E+000
+4.92536921151E+007, +4.84622816995E+001, -9.22313960261E+000
+4.94413016270E+007, +4.84570494346E+001, -9.22393609087E+000
+4.96289111389E+007, +4.84409179706E+001, -9.23941103448E+000
+4.98165206508E+007, +4.84135625841E+001, -9.24637183892E+000
+5.00041301627E+007, +4.84028885519E+001, -9.25045193325E+000
+5.01917396746E+007, +4.83785782259E+001, -9.23754503092E+000
+5.03793491865E+007, +4.83488609748E+001, -9.25043860293E+000
+5.05669586984E+007, +4.83324789414E+001, -9.25937297549E+000
+5.07545682103E+007, +4.83208288458E+001, -9.24677515451E+000
+5.09421777222E+007, +4.83052164903E+001, -9.24512131806E+000
+5.11297872340E+007, +4.82887582836E+001, -9.24741277165E+000
+5.13173967459E+007, +4.82745318523E+001, -9.24911519402E+000
+5.15050062578E+007, +4.82512449168E+001, -9.25446161167E+000
+5.16926157697E+007, +4.82542761238E+001, -9.25959864862E+000
+5.18802252816E+007, +4.82289878825E+001, -9.25634995159E+000
+5.20678347935E+007, +4.82221203335E+001, -9.26594853833E+000
+5.22554443054E+007, +4.82107904866E+001, -9.28147201544E+000
+5.24430538173E+007, +4.81979680623E+001, -9.27685418051E+000
+5.26306633292E+007, +4.81948514339E+001, -9.28245530542E+000
+5.28182728411E+007, +4.81716377358E+001, -9.28956594129E+000
+5.30058823529E+007, +4.81699709002E+001, -9.30553047690E+000
+5.31934918648E+007, +4.81600318468E+001, -9.30967659469E+000
+5.33811013767E+007, +4.81391578384E+001, -9.32705955017E+000
+5.35687108886E+007, +4.81292560498E+001, -9.33190471991E+000
+5.37563204005E+007, +4.81179057036E+001, -9.36270624878E+000
+5.39439299124E+007, +4.81098766331E+001, -9.38915018343E+000
+5.41315394243E+007, +4.80948753471E+001, -9.40056016638E+000
+5.43191489362E+007, +4.80785334785E+001, -9.43202230991E+000
+5.45067584481E+007, +4.80475853649E+001, -9.44670890836E+000
+5.46943679599E+007, +4.80272287769E+001, -9.47607343154E+000
+5.48819774718E+007, +4.80015963772E+001, -9.50449680670E+000
+5.50695869837E+007, +4.79661948682E+001, -9.52143845451E+000
+5.52571964956E+007, +4.79347531188E+001, -9.52755585378E+000
+5.54448060075E+007, +4.79176835816E+001, -9.54037149009E+000
+5.56324155194E+007, +4.78977473477E+001, -9.54930108647E+000
+5.58200250313E+007, +4.78732081336E+001, -9.55188480457E+000
+5.60076345432E+007, +4.78798339112E+001, -9.56796407719E+000
+5.61952440551E+007, +4.78549173122E+001, -9.58074555822E+000
+5.63828535670E+007, +4.78533568431E+001, -9.59218893004E+000
+5.65704630788E+007, +4.78502350476E+001, -9.62738367461E+000
+5.67580725907E+007, +4.78499218827E+001, -9.65795082217E+000
+5.69456821026E+007, +4.78406531084E+001, -9.69411991814E+000
+5.71332916145E+007, +4.78265272503E+001, -9.73664004802E+000
+5.73209011264E+007, +4.78122958947E+001, -9.76944218823E+000
+5.75085106383E+007, +4.77913246451E+001, -9.81444198639E+000
+5.76961201502E+007, +4.77710210881E+001, -9.85710815878E+000
+5.78837296621E+007, +4.77603679302E+001, -9.91047111780E+000
+5.80713391740E+007, +4.77362384243E+001, -9.94374421035E+000
+5.82589486859E+007, +4.77015597933E+001, -9.99994127938E+000
+5.84465581977E+007, +4.76752079268E+001, -1.00622537204E+001
+5.86341677096E+007, +4.76521054831E+001, -1.01108089946E+001
+5.88217772215E+007, +4.76183513525E+001, -1.01647648056E+001
+5.90093867334E+007, +4.75899361480E+001, -1.02120257186E+001
+5.91969962453E+007, +4.75404846148E+001, -1.02659076554E+001
+5.93846057572E+007, +4.74982980738E+001, -1.03105930048E+001
+5.95722152691E+007, +4.74731165376E+001, -1.03680938134E+001
+5.97598247810E+007, +4.74312094593E+001, -1.04314628480E+001
+5.99474342929E+007, +4.73894357713E+001, -1.04892299236E+001
+6.01350438048E+007, +4.73496560567E+001, -1.05438504182E+001
