"# Channel 1"
"# Trace 1"
Frequency, Formatted Data, Formatted Data
+1.00000000000E+005, +6.64428700963E-001, +3.17978559552E+000
+2.25031289111E+005, +6.65779040007E-001, +7.05857978194E+000
+3.50062578223E+005, +7.19036441010E-001, +1.09171508233E+001
+4.75093867334E+005, +7.69211280392E-001, +1.48205519517E+001
+6.00125156446E+005, +8.60525721959E-001, +1.86210092296E+001
+7.25156445557E+005, +9.09239449788E-001, +2.25029702219E+001
+8.50187734668E+005, +8.65371383504E-001, +2.62392212861E+001
+9.75219023780E+005, +8.90469335824E-001, +3.01177505008E+001
+1.10025031289E+006, +9.96670250457E-001, +3.39210847271E+001
+1.22528160200E+006, +9.73189573350E-001, +3.77424613771E+001
+1.35031289111E+006, +9.64355592256E-001, +4.15114834633E+001
+1.47534418023E+006, +1.02194176245E+000, +4.53539808892E+001
+1.60037546934E+006, +1.05150565748E+000, +4.91784423738E+001
+1.72540675845E+006, +1.01710014961E+000, +5.29600015688E+001
+1.85043804756E+006, +1.03346770437E+000, +5.67631913216E+001
+1.97546933667E+006, +1.12789546025E+000, +6.05831482132E+001
+2.10050062578E+006, +1.07196537471E+000, +6.44303971647E+001
+2.22553191489E+006, +9.99813565611E-001, +6.82700544325E+001
+2.35056320401E+006, +9.61693971138E-001, +7.20324263866E+001
+2.47559449312E+006, +1.03851182599E+000, +7.58817757386E+001
+2.60062578223E+006, +1.02741213204E+000, +7.98408517478E+001
+2.72565707134E+006, +9.87510286149E-001, +8.36899620414E+001
+2.85068836045E+006, +1.16079712601E+000, +8.75513796010E+001
+2.97571964956E+006, +8.62943410216E-001, +9.12575846838E+001
+3.10075093867E+006, +1.11069261636E+000, +9.52501453941E+001
+3.22578222778E+006, +1.00718329285E+000, +9.90080950354E+001
+3.35081351690E+006, +8.20705498981E-001, +1.03044915597E+002
+3.47584480601E+006, +9.77087162188E-001, +1.06863705558E+002
+3.60087609512E+006, +9.88044985422E-001, +1.10949728956E+002
+3.72590738423E+006, +1.17262157499E+000, +1.14696440449E+002
+3.85093867334E+006, +1.27320500870E+000, +1.18351899253E+002
+3.97596996245E+006, +1.04076525830E+000, +1.22718016626E+002
+4.10100125156E+006, +1.23750214488E+000, +1.26366376150E+002
+4.22603254068E+006, +8.65253007644E-001, +1.30204665384E+002
+4.35106382979E+006, +8.78748903513E-001, +1.33939851968E+002
+4.47609511890E+006, +1.05143078421E+000, +1.38154679601E+002
+4.60112640801E+006, +9.59441670935E-001, +1.41992441012E+002
+4.72615769712E+006, +1.02197105012E+000, +1.45952981057E+002
+4.85118898623E+006, +1.00406806190E+000, +1.49609509148E+002
+4.97622027534E+006, +1.17216672920E+000, +1.53797218586E+002
+5.10125156446E+006, +8.34325125400E-001, +1.57625214975E+002
+5.22628285357E+006, +9.55513874541E-001, +1.61625668710E+002
+5.35131414268E+006, +4.67801728986E-001, +1.65613763889E+002
+5.47634543179E+006, +5.81668905647E-001, +1.69864993938E+002
+5.60137672090E+006, +8.07922568150E-001, +1.73858339253E+002
+5.72640801001E+006, +1.04965584365E+000, +1.77726282238E+002
+5.85143929912E+006, +1.15286418544E+000, +1.82010795083E+002
+5.97647058824E+006, +1.39161086491E+000, +1.86022298949E+002
+6.10150187735E+006, +7.96305838444E-001, +1.89870630875E+002
+6.22653316646E+006, +1.16425353930E+000, +1.94290744708E+002
+6.35156445557E+006, +1.07251816704E+000, +1.98102470185E+002
+6.47659574468E+006, +1.01319973526E+000, +2.02449260230E+002
+6.60162703379E+006, +1.16234353357E+000, +2.06450601684E+002
+6.72665832290E+006, +1.26770516464E+000, +2.10566549601E+002
+6.85168961202E+006, +1.30294664636E+000, +2.14198550125E+002
+6.97672090113E+006, +1.22932666343E+000, +2.18671271052E+002
+7.10175219024E+006, +1.05173709227E+000, +2.23087356915E+002
+7.22678347935E+006, +1.42047624761E+000, +2.27138973352E+002
+7.35181476846E+006, +1.43257852279E+000, +2.31244530473E+002
+7.47684605757E+006, +1.22729131575E+000, +2.35771082829E+002
+7.60187734668E+006, +9.23743585950E-001, +2.39540677882E+002
+7.72690863579E+006, +1.25448166238E+000, +2.43733925198E+002
+7.85193992491E+006, +1.23087417776E+000, +2.47700289855E+002
+7.97697121402E+006, +1.40597630896E+000, +2.51984015616E+002
+8.10200250313E+006, +1.17507155960E+000, +2.56596326512E+002
+8.22703379224E+006, +1.30389377831E+000, +2.60568937834E+002
+8.35206508135E+006, +1.21967271128E+000, +2.64571775699E+002
+8.47709637046E+006, +1.59313951538E+000, +2.69009588841E+002
+8.60212765957E+006, +1.43410826944E+000, +2.73698084289E+002
+8.72715894869E+006, +1.60766920328E+000, +2.78082698789E+002
+8.85219023780E+006, +9.42316300406E-001, +2.81954897430E+002
+8.97722152691E+006, +1.33092004148E+000, +2.86349922326E+002
+9.10225281602E+006, +1.19905521133E+000, +2.90732399716E+002
+9.22728410513E+006, +9.90000129241E-001, +2.95288650372E+002
+9.35231539424E+006, +1.80923427630E+000, +2.99693717311E+002
+9.47734668335E+006, +1.57391675232E+000, +3.03441766140E+002
+9.60237797247E+006, +1.27294649696E+000, +3.08380184983E+002
+9.72740926158E+006, +2.09326503307E-001, +3.12574279817E+002
+9.85244055069E+006, +7.81132357553E-001, +3.17051361204E+002
+9.97747183980E+006, +1.03828137811E+000, +3.21870419586E+002
+1.01025031289E+007, +1.22707900814E+000, +3.26486727398E+002
+1.02275344180E+007, +5.33871522245E-001, +3.31237629289E+002
+1.03525657071E+007, +4.56816774317E-001, +3.35060610032E+002
+1.04775969962E+007, +8.85751004094E-001, +3.39725560565E+002
+1.06026282854E+007, +3.54732475344E-001, +3.44726225548E+002
+1.07276595745E+007, +5.08893812545E-001, +3.48928101876E+002
+1.08526908636E+007, +3.36723193597E-001, +3.53023148745E+002
+1.09777221527E+007, +5.22066727597E-001, +3.58030734703E+002
+1.11027534418E+007, +6.75532814911E-001, +3.63501371308E+002
+1.12277847309E+007, -4.43703629772E-002, +3.67191963467E+002
+1.13528160200E+007, +4.06477146141E-001, +3.72478738320E+002
+1.14778473091E+007, -7.38440642788E-002, +3.76112545266E+002
+1.16028785982E+007, -3.43360904590E-001, +3.80813267205E+002
+1.17279098874E+007, +7.04546537134E-001, +3.86403381299E+002
+1.18529411765E+007, -1.95114867615E-001, +3.91032009148E+002
+1.19779724656E+007, +1.22582612770E+000, +3.96392615637E+002
+1.21030037547E+007, +1.17580089641E+000, +3.99504325967E+002
+1.22280350438E+007, +5.72812534220E-002, +4.06144849893E+002
+1.23530663329E+007, -3.53129273444E-001, +4.10974095127E+002
+1.24780976220E+007, +3.83592754450E-001, +4.16213691281E+002
+1.26031289111E+007, +4.30716280202E-002, +4.20920528276E+002
+1.27281602003E+007, +2.25342596944E-001, +4.25405238808E+002
+1.28531914894E+007, +4.79675317550E-001, +4.30245648753E+002
+1.29782227785E+007, +4.01551158322E-001, +4.35483794465E+002
+1.31032540676E+007, +4.94334909430E-001, +4.39906119210E+002
+1.32282853567E+007, -1.18360969017E-001, +4.44977010456E+002
+1.33533166458E+007, -4.65292312399E-001, +4.50872522407E+002
+1.34783479349E+007, -6.81138415883E-001, +4.56305901668E+002
+1.36033792240E+007, +9.99428894928E-002, +4.61467151192E+002
+1.37284105131E+007, -3.19434181549E-001, +4.66582985894E+002
+1.38534418023E+007, +9.62727789629E-001, +4.71384535092E+002
+1.39784730914E+007, +6.21394021911E-002, +4.77470599691E+002
+1.41035043805E+007, -9.14563939044E-001, +4.81062538618E+002
+1.42285356696E+007, -7.95534222251E-001, +4.86762324380E+002
+1.43535669587E+007, -1.24486813095E+000, +4.92538119202E+002
+1.44785982478E+007, +4.26562719970E-001, +4.97822467294E+002
+1.46036295369E+007, -1.17358404083E+000, +5.02860491466E+002
+1.47286608260E+007, -1.61312666470E+000, +5.09025668050E+002
+1.48536921151E+007, -1.40504493498E-001, +5.14139726749E+002
+1.49787234043E+007, -1.87212005061E+000, +5.21453909922E+002
+1.51037546934E+007, -6.42726901288E-002, +5.25041449894E+002
+1.52287859825E+007, -7.58155757060E-001, +5.30680023489E+002
+1.53538172716E+007, -1.73048901122E+000, +5.37965980573E+002
+1.54788485607E+007, -9.21821356944E-001, +5.43098370569E+002
+1.56038798498E+007, -2.38093640237E+000, +5.48213810586E+002
+1.57289111389E+007, -3.10235321121E-002, +5.54258889461E+002
+1.58539424280E+007, -2.25060464553E+000, +5.58879454296E+002
+1.59789737171E+007, -2.79950545908E-001, +5.66996737235E+002
+1.61040050063E+007, -1.92794537756E+000, +5.71551504777E+002
+1.62290362954E+007, -1.15356575292E+000, +5.76922984346E+002
+1.63540675845E+007, -1.53461523840E+000, +5.82302591599E+002
+1.64790988736E+007, -1.97749108821E+000, +5.88973644613E+002
+1.66041301627E+007, +8.90818615263E-001, +5.95114561547E+002
+1.67291614518E+007, -8.96522927655E-001, +6.01492499092E+002
+1.68541927409E+007, -1.04690350945E+000, +6.08727677041E+002
+1.69792240300E+007, -2.63746818250E+000, +6.12274997459E+002
+1.71042553191E+007, -3.54138510182E+000, +6.18585286804E+002
+1.72292866083E+007, -4.29334827446E+000, +6.27467596706E+002
+1.73543178974E+007, -5.53898192417E+000, +6.33012372555E+002
+1.74793491865E+007, -3.73858238176E+000, +6.38285805087E+002
+1.76043804756E+007, -3.15014821042E+000, +6.48570940110E+002
+1.77294117647E+007, -3.83465286840E+000, +6.53346894577E+002
+1.78544430538E+007, -3.65248423677E+000, +6.59296495258E+002
+1.79794743429E+007, -3.18944971929E+000, +6.63343306763E+002
+1.81045056320E+007, -2.94589242855E+000, +6.73854934001E+002
+1.82295369212E+007, -4.25009173087E+000, +6.78240166040E+002
+1.83545682103E+007, -2.98491954066E-001, +6.87685348258E+002
+1.84795994994E+007, -2.78030051743E+000, +6.93000598586E+002
+1.86046307885E+007, -1.77315694782E+000, +7.01248626691E+002
+1.87296620776E+007, -2.79279167033E+000, +7.08499983478E+002
+1.88546933667E+007, -4.49710461727E+000, +7.15304277837E+002
+1.89797246558E+007, -5.23533461187E+000, +7.23223803011E+002
+1.91047559449E+007, -4.27304637173E+000, +7.29704364636E+002
+1.92297872340E+007, -5.97279770952E+000, +7.35677392906E+002
+1.93548185232E+007, -5.37988169857E+000, +7.42832670075E+002
+1.94798498123E+007, -6.47969084851E+000, +7.51382545179E+002
+1.96048811014E+007, -5.50107442329E+000, +7.58153461447E+002
+1.97299123905E+007, -2.06919843288E+000, +7.65739460972E+002
+1.98549436796E+007, -2.25128898705E+000, +7.73771910946E+002
+1.99799749687E+007, -2.92548934380E+000, +7.81665737264E+002
+2.01050062578E+007, -1.14174430056E+000, +7.89257642305E+002
+2.02300375469E+007, -5.29145611528E+000, +7.97430244266E+002
+2.03550688360E+007, -3.28174738983E+000, +8.07277507481E+002
+2.04801001252E+007, -1.39183614143E+000, +8.15630724258E+002
+2.06051314143E+007, -1.96852138030E+000, +8.22857675046E+002
+2.07301627034E+007, -2.88304931900E+000, +8.28514311953E+002
+2.08551939925E+007, -2.94156923048E+000, +8.38541034808E+002
+2.09802252816E+007, -2.51995462649E+000, +8.51244612691E+002
+2.11052565707E+007, -7.66773073151E+000, +8.57178932172E+002
+2.12302878598E+007, -3.81754671267E+000, +8.66589643533E+002
+2.13553191489E+007, -2.74728427444E+000, +8.75734995132E+002
+2.14803504380E+007, -8.84535154882E-001, +8.82266530422E+002
+2.16053817272E+007, -2.49470133736E+000, +8.90630640849E+002
+2.17304130163E+007, +2.95476740498E+000, +8.99065270377E+002
+2.18554443054E+007, -3.48203203531E+000, +9.07985033919E+002
+2.19804755945E+007, -7.94568322118E-001, +9.20636704572E+002
+2.21055068836E+007, -2.92590130132E+000, +9.30001763904E+002
+2.22305381727E+007, -2.85948423605E+000, +9.36647186254E+002
+2.23555694618E+007, -1.67316920390E+000, +9.45353724639E+002
+2.24806007509E+007, -1.80576189795E-001, +9.55917571644E+002
+2.26056320401E+007, +6.82348881159E+000, +9.59538372219E+002
+2.27306633292E+007, +5.21075554750E+000, +9.73799292229E+002
+2.28556946183E+007, +8.28328660291E-001, +9.89140846121E+002
+2.29807259074E+007, +7.87939463691E+000, +9.94787706516E+002
+2.31057571965E+007, +1.97720338621E+000, +1.00659145327E+003
+2.32307884856E+007, +7.42622490630E+000, +1.02123518025E+003
+2.33558197747E+007, +8.55908550470E+000, +1.02781412211E+003
+2.34808510638E+007, +9.94140535984E+000, +1.03912796364E+003
+2.36058823529E+007, +1.30784797028E+001, +1.04785041605E+003
+2.37309136421E+007, +1.38719234261E+001, +1.05269826422E+003
+2.38559449312E+007, +1.28320490713E+001, +1.06725378062E+003
+2.39809762203E+007, +1.61060031566E+001, +1.07538114858E+003
+2.41060075094E+007, +1.66879647577E+001, +1.08163442304E+003
+2.42310387985E+007, +1.47067272769E+001, +1.08910975999E+003
+2.43560700876E+007, +1.61156262404E+001, +1.10265429640E+003
+2.44811013767E+007, +1.42873308069E+001, +1.11069752131E+003
+2.46061326658E+007, +1.41916410964E+001, +1.12348807325E+003
+2.47311639549E+007, +1.65448301318E+001, +1.13615290980E+003
+2.48561952441E+007, +1.44453012474E+001, +1.14266221011E+003
+2.49812265332E+007, +1.37210490298E+001, +1.15559913910E+003
+2.51062578223E+007, +1.23795262001E+001, +1.16762656871E+003
+2.52312891114E+007, +8.79992918219E+000, +1.18671139198E+003
+2.53563204005E+007, +1.53392157216E+001, +1.19355177224E+003
+2.54813516896E+007, +7.42452820623E+000, +1.20600870134E+003
+2.56063829787E+007, +1.24869628678E+001, +1.21936391821E+003
+2.57314142678E+007, +1.38828504014E+001, +1.22868493792E+003
+2.58564455569E+007, +1.13702938699E+001, +1.24057684189E+003
+2.59814768461E+007, +1.25710137369E+001, +1.24894393061E+003
+2.61065081352E+007, +1.00937194780E+001, +1.26963238857E+003
+2.62315394243E+007, +8.49925490927E+000, +1.28954798805E+003
+2.63565707134E+007, +1.22111534810E+001, +1.30007159532E+003
+2.64816020025E+007, +7.08759298649E+000, +1.31283805819E+003
+2.66066332916E+007, +1.12639829681E+001, +1.32538575276E+003
+2.67316645807E+007, +1.18379381532E+001, +1.34882686708E+003
+2.68566958698E+007, +2.36891164683E+000, +1.37343374141E+003
+2.69817271589E+007, +8.67151079852E+000, +1.37375184645E+003
+2.71067584481E+007, +2.15730295849E+001, +1.39463412140E+003
+2.72317897372E+007, +3.30560845440E+000, +1.40567034656E+003
+2.73568210263E+007, +1.22167657073E+001, +1.42308807049E+003
+2.74818523154E+007, +2.45038229199E+000, +1.43803988838E+003
+2.76068836045E+007, +1.40680709176E+001, +1.44887751642E+003
+2.77319148936E+007, +9.91463154734E+000, +1.46921921380E+003
+2.78569461827E+007, +1.22421710674E+001, +1.49224391977E+003
+2.79819774718E+007, +4.86355614887E+000, +1.49966187080E+003
+2.81070087610E+007, +1.46424585832E+001, +1.51889754562E+003
+2.82320400501E+007, +3.76562166498E+000, +1.53863076916E+003
+2.83570713392E+007, +7.07870387078E+000, +1.55945004404E+003
+2.84821026283E+007, +3.60095374892E+000, +1.57428451330E+003
+2.86071339174E+007, +5.06176126596E+000, +1.58763629985E+003
+2.87321652065E+007, +1.15821006832E+001, +1.61993053979E+003
+2.88571964956E+007, +3.75623310071E+000, +1.65412417106E+003
+2.89822277847E+007, +2.04988688506E+000, +1.66689137821E+003
+2.91072590738E+007, -6.40314513034E+000, +1.68964894752E+003
+2.92322903630E+007, +2.63830461360E+000, +1.70275109686E+003
+2.93573216521E+007, -9.66967016527E+000, +1.74193066030E+003
+2.94823529412E+007, -1.31780803104E+001, +1.75560257456E+003
+2.96073842303E+007, -4.10000156155E+000, +1.77980877218E+003
+2.97324155194E+007, -1.48723906544E+001, +1.79192403055E+003
+2.98574468085E+007, -2.62248135619E+001, +1.83357983810E+003
+2.99824780976E+007, -5.96353542679E+000, +1.87163905323E+003
+3.01075093867E+007, +3.76989331944E+000, +1.87026830862E+003
+3.02325406758E+007, +2.77721219915E+000, +1.90925695034E+003
+3.03575719650E+007, -1.54068116001E+001, +1.93717842508E+003
+3.04826032541E+007, -4.13953060365E+000, +1.94974831547E+003
+3.06076345432E+007, -3.76240761913E+000, +1.98582512942E+003
+3.07326658323E+007, +7.66512949660E+000, +2.01903597688E+003
+3.08576971214E+007, -1.01256354102E+001, +2.03777989089E+003
+3.09827284105E+007, -5.20536725012E+000, +2.06831685979E+003
+3.11077596996E+007, -2.61687307965E+001, +2.10734486854E+003
+3.12327909887E+007, -6.72121082976E+000, +2.14372352271E+003
+3.13578222778E+007, +1.60813017270E+001, +2.17637128704E+003
+3.14828535670E+007, -3.72138971412E+000, +2.21165488987E+003
+3.16078848561E+007, -1.66771921951E+001, +2.24743825775E+003
+3.17329161452E+007, -2.87581181765E+001, +2.28895974131E+003
+3.18579474343E+007, -1.05678977997E+001, +2.32838330526E+003
+3.19829787234E+007, -6.39341825601E+000, +2.35821370056E+003
+3.21080100125E+007, -1.23421674292E+001, +2.40288049242E+003
+3.22330413016E+007, -1.22810682272E+001, +2.45693416641E+003
+3.23580725907E+007, -1.89054266605E+001, +2.45209215878E+003
+3.24831038798E+007, +3.16460963861E-001, +2.53386290539E+003
+3.26081351690E+007, -2.14350336194E+001, +2.55038117273E+003
+3.27331664581E+007, +2.35897807144E+001, +2.59308584458E+003
+3.28581977472E+007, -7.89435003236E+000, +2.67759002719E+003
+3.29832290363E+007, +2.19313433505E+000, +2.71973815969E+003
+3.31082603254E+007, +2.89793558294E+000, +2.78315908973E+003
+3.32332916145E+007, -6.16180865085E+000, +2.84966563238E+003
+3.33583229036E+007, -1.17155377576E+001, +2.92420295329E+003
+3.34833541927E+007, +4.98185371435E+000, +2.91601343830E+003
+3.36083854819E+007, -1.99460113691E+001, +3.00620932937E+003
+3.37334167710E+007, -3.68701095197E+001, +3.02833354803E+003
+3.38584480601E+007, -2.22136709038E+001, +3.13044617725E+003
+3.39834793492E+007, +1.59746701986E+001, +3.15675514363E+003
+3.41085106383E+007, -9.45141845783E-001, +3.26112022150E+003
+3.42335419274E+007, +1.65211131833E+001, +3.35202398073E+003
+3.43585732165E+007, +1.46303172114E+000, +3.44820466534E+003
+3.44836045056E+007, -3.92105217403E+000, +3.46592328098E+003
+3.46086357947E+007, +5.68171284074E+001, +3.58480347279E+003
+3.47336670839E+007, +1.43430304436E+002, +3.60625863061E+003
+3.48586983730E+007, +2.20678178565E+001, +3.75964346235E+003
+3.49837296621E+007, +3.51999549067E+001, +3.69285649511E+003
+3.51087609512E+007, +1.26117514951E+002, +3.94927372859E+003
+3.52337922403E+007, +7.90273859369E+001, +3.90942040701E+003
+3.53588235294E+007, +9.64237279480E+001, +4.15596001977E+003
+3.54838548185E+007, +6.75665445841E+001, +4.20969853638E+003
+3.56088861076E+007, +1.76994603778E+002, +4.41866507811E+003
+3.57339173967E+007, +1.62243043390E+002, +4.50645337590E+003
+3.58589486859E+007, +6.61595625325E+001, +4.58512414775E+003
+3.59839799750E+007, +5.87118999290E+001, +4.75351329210E+003
+3.61090112641E+007, +2.69616629584E+002, +4.80174292991E+003
+3.62340425532E+007, +2.12643298122E+001, +5.05123446140E+003
+3.63590738423E+007, +1.27933483712E+002, +5.25449924205E+003
+3.64841051314E+007, +1.49287264812E+002, +5.40218790046E+003
+3.66091364205E+007, +2.12436153551E+002, +5.51902216934E+003
+3.67341677096E+007, +2.82338567800E+002, +5.70841569966E+003
+3.68591989987E+007, +1.81312878385E+002, +6.06559454925E+003
+3.69842302879E+007, +1.90680485116E+002, +6.09208509160E+003
+3.71092615770E+007, +4.05674570207E+002, +6.64544777650E+003
+3.72342928661E+007, +2.72725133565E+002, +6.82800999545E+003
+3.73593241552E+007, +2.91738913254E+002, +7.09233653352E+003
+3.74843554443E+007, +2.15257774538E+002, +7.66141686489E+003
+3.76093867334E+007, +2.01895280827E+002, +7.86453482524E+003
+3.77344180225E+007, +4.00873422773E+002, +8.24786266318E+003
+3.78594493116E+007, +5.17748183777E+002, +8.36076254915E+003
+3.79844806008E+007, +3.92898648883E+002, +9.09839784493E+003
+3.81095118899E+007, +4.56763601765E+002, +9.30885270822E+003
+3.82345431790E+007, +3.54939578554E+002, +9.87270638809E+003
+3.83595744681E+007, +1.31187743342E+003, +1.13213891727E+004
+3.84846057572E+007, +1.31271202323E+003, +1.17497004826E+004
+3.86096370463E+007, +1.67873494334E+003, +1.31955418848E+004
+3.87346683354E+007, +1.88484555383E+003, +1.40331471069E+004
+3.88596996245E+007, +2.24712153305E+003, +1.51998427299E+004
+3.89847309136E+007, +1.68694472514E+003, +1.82933110786E+004
+3.91097622028E+007, +2.02550302090E+003, +1.93329224558E+004
+3.92347934919E+007, +4.34758007468E+003, +2.34442483692E+004
+3.93598247810E+007, +8.98368851682E+003, +2.59216265248E+004
+3.94848560701E+007, +6.56574764182E+003, +2.66252985946E+004
+3.96098873592E+007, +1.55746093192E+004, +3.56938961293E+004
+3.97349186483E+007, +1.58416428454E+004, +3.29409439856E+004
+3.98599499374E+007, +3.58706986007E+004, +3.57098609245E+004
+3.99849812265E+007, +6.80354147440E+004, +3.48849332822E+004
+4.01100125156E+007, +6.98906310096E+004, +1.09207735926E+004
