"# Channel 1"
"# Trace 1"
Frequency, Formatted Data, Formatted Data
+1.00000000000E+005, +6.73863421064E+001, +2.93136852463E+000
+2.25031289111E+005, +6.71460797792E+001, +7.38233929910E+000
+3.50062578223E+005, +6.71644516279E+001, +1.16177759952E+001
+4.75093867334E+005, +6.71336650464E+001, +1.57095564941E+001
+6.00125156446E+005, +6.71802400110E+001, +1.98242755204E+001
+7.25156445557E+005, +6.72045143018E+001, +2.39168242061E+001
+8.50187734668E+005, +6.73240921981E+001, +2.81380295043E+001
+9.75219023780E+005, +6.73210956398E+001, +3.22097612509E+001
+1.10025031289E+006, +6.73855331690E+001, +3.63018948458E+001
+1.22528160200E+006, +6.74529628624E+001, +4.05880959089E+001
+1.35031289111E+006, +6.73658150821E+001, +4.46011148045E+001
+1.47534418023E+006, +6.74076023991E+001, +4.88121254083E+001
+1.60037546934E+006, +6.74227189402E+001, +5.30263099899E+001
+1.72540675845E+006, +6.74528349887E+001, +5.70096007544E+001
+1.85043804756E+006, +6.74532958828E+001, +6.11429196217E+001
+1.97546933667E+006, +6.74413109479E+001, +6.52950298810E+001
+2.10050062578E+006, +6.74048625421E+001, +6.93808313578E+001
+2.22553191489E+006, +6.74174932616E+001, +7.37596882933E+001
+2.35056320401E+006, +6.73875434667E+001, +7.78372646010E+001
+2.47559449312E+006, +6.74635411405E+001, +8.19590884206E+001
+2.60062578223E+006, +6.74842951802E+001, +8.60132439492E+001
+2.72565707134E+006, +6.74184770494E+001, +9.01800616855E+001
+2.85068836045E+006, +6.75370469202E+001, +9.43543210773E+001
+2.97571964956E+006, +6.75205930234E+001, +9.86595309949E+001
+3.10075093867E+006, +6.76678182741E+001, +1.02922120339E+002
+3.22578222778E+006, +6.73778591802E+001, +1.07282692674E+002
+3.35081351690E+006, +6.78111583746E+001, +1.11088360237E+002
+3.47584480601E+006, +6.80955834378E+001, +1.15341199525E+002
+3.60087609512E+006, +6.79033822259E+001, +1.19717467749E+002
+3.72590738423E+006, +6.81361191185E+001, +1.23795763214E+002
+3.85093867334E+006, +6.81445567555E+001, +1.27809054741E+002
+3.97596996245E+006, +6.80762362148E+001, +1.32124840560E+002
+4.10100125156E+006, +6.82104639633E+001, +1.36450237617E+002
+4.22603254068E+006, +6.79463149580E+001, +1.40712022855E+002
+4.35106382979E+006, +6.80276046035E+001, +1.44624234052E+002
+4.47609511890E+006, +6.83154162365E+001, +1.48999011395E+002
+4.60112640801E+006, +6.85548483287E+001, +1.53500692049E+002
+4.72615769712E+006, +6.82922286296E+001, +1.57675980561E+002
+4.85118898623E+006, +6.82679818880E+001, +1.61865834068E+002
+4.97622027534E+006, +6.90230991485E+001, +1.66175548072E+002
+5.10125156446E+006, +6.85459119288E+001, +1.70547115126E+002
+5.22628285357E+006, +6.89122884532E+001, +1.74957821282E+002
+5.35131414268E+006, +6.88932840499E+001, +1.79274597728E+002
+5.47634543179E+006, +6.90138990702E+001, +1.83458487953E+002
+5.60137672090E+006, +6.88855715853E+001, +1.87908945646E+002
+5.72640801001E+006, +6.89735568063E+001, +1.92062982765E+002
+5.85143929912E+006, +6.92311788856E+001, +1.97152888472E+002
+5.97647058824E+006, +6.96864784332E+001, +2.01054043754E+002
+6.10150187735E+006, +6.94002936868E+001, +2.05078261910E+002
+6.22653316646E+006, +6.96795722296E+001, +2.09635255573E+002
+6.35156445557E+006, +6.97374063967E+001, +2.13964566791E+002
+6.47659574468E+006, +6.98032816806E+001, +2.18517891755E+002
+6.60162703379E+006, +7.00060880434E+001, +2.23103138276E+002
+6.72665832290E+006, +7.03421279927E+001, +2.27458382183E+002
+6.85168961202E+006, +7.03665551282E+001, +2.31678311319E+002
+6.97672090113E+006, +7.03894451065E+001, +2.36399595806E+002
+7.10175219024E+006, +7.06111327165E+001, +2.40579058425E+002
+7.22678347935E+006, +7.06903206768E+001, +2.45673772007E+002
+7.35181476846E+006, +7.11084922156E+001, +2.49925171565E+002
+7.47684605757E+006, +7.09706805084E+001, +2.54273765253E+002
+7.60187734668E+006, +7.15749266685E+001, +2.59053736856E+002
+7.72690863579E+006, +7.15396991819E+001, +2.63489248637E+002
+7.85193992491E+006, +7.15363338525E+001, +2.68333447076E+002
+7.97697121402E+006, +7.17766314436E+001, +2.72009267198E+002
+8.10200250313E+006, +7.19623900985E+001, +2.76904007393E+002
+8.22703379224E+006, +7.17616648396E+001, +2.82120307248E+002
+8.35206508135E+006, +7.22411351245E+001, +2.86824002914E+002
+8.47709637046E+006, +7.23289426817E+001, +2.91529347771E+002
+8.60212765957E+006, +7.25125528680E+001, +2.96041759645E+002
+8.72715894869E+006, +7.27322759884E+001, +3.00601814832E+002
+8.85219023780E+006, +7.29140440702E+001, +3.05206553708E+002
+8.97722152691E+006, +7.28449386769E+001, +3.09829375028E+002
+9.10225281602E+006, +7.35551704645E+001, +3.15139813603E+002
+9.22728410513E+006, +7.36449394211E+001, +3.19063355804E+002
+9.35231539424E+006, +7.37457405526E+001, +3.24605328303E+002
+9.47734668335E+006, +7.41913615882E+001, +3.29712723613E+002
+9.60237797247E+006, +7.44664223610E+001, +3.34382387416E+002
+9.72740926158E+006, +7.46408128983E+001, +3.38849993109E+002
+9.85244055069E+006, +7.43380050430E+001, +3.44017116227E+002
+9.97747183980E+006, +7.42136720896E+001, +3.49004604398E+002
+1.01025031289E+007, +7.43400389412E+001, +3.53352691389E+002
+1.02275344180E+007, +7.47969299180E+001, +3.58308987589E+002
+1.03525657071E+007, +7.54133739995E+001, +3.63046239628E+002
+1.04775969962E+007, +7.54394087779E+001, +3.69171628494E+002
+1.06026282854E+007, +7.57381458013E+001, +3.73268075918E+002
+1.07276595745E+007, +7.57698428827E+001, +3.78581398142E+002
+1.08526908636E+007, +7.57760055682E+001, +3.83512240456E+002
+1.09777221527E+007, +7.59572420277E+001, +3.88911291773E+002
+1.11027534418E+007, +7.60991740578E+001, +3.93817025793E+002
+1.12277847309E+007, +7.63445681461E+001, +3.97990135734E+002
+1.13528160200E+007, +7.66958923932E+001, +4.03962522545E+002
+1.14778473091E+007, +7.70723741717E+001, +4.09835354254E+002
+1.16028785982E+007, +7.66940302660E+001, +4.14756966775E+002
+1.17279098874E+007, +7.74726469652E+001, +4.20371487111E+002
+1.18529411765E+007, +7.76136240927E+001, +4.25627541506E+002
+1.19779724656E+007, +7.75615681510E+001, +4.31067108031E+002
+1.21030037547E+007, +7.90154090683E+001, +4.34733504587E+002
+1.22280350438E+007, +7.80323857011E+001, +4.41882374440E+002
+1.23530663329E+007, +7.81364012273E+001, +4.46933924362E+002
+1.24780976220E+007, +8.03112909733E+001, +4.51474603754E+002
+1.26031289111E+007, +7.92603799419E+001, +4.56087803093E+002
+1.27281602003E+007, +7.83587857264E+001, +4.63091768991E+002
+1.28531914894E+007, +7.91339847263E+001, +4.69156629257E+002
+1.29782227785E+007, +8.01493555322E+001, +4.74627173708E+002
+1.31032540676E+007, +7.97604687141E+001, +4.79008704394E+002
+1.32282853567E+007, +7.97871601511E+001, +4.84192043104E+002
+1.33533166458E+007, +8.03868876620E+001, +4.90534857847E+002
+1.34783479349E+007, +8.17167677411E+001, +4.97696949511E+002
+1.36033792240E+007, +8.08738165607E+001, +5.02667960548E+002
+1.37284105131E+007, +8.15421013851E+001, +5.08787971316E+002
+1.38534418023E+007, +8.18791102135E+001, +5.13620627265E+002
+1.39784730914E+007, +8.27889053637E+001, +5.19681294964E+002
+1.41035043805E+007, +8.28700170305E+001, +5.25759406363E+002
+1.42285356696E+007, +8.21111759067E+001, +5.32243576906E+002
+1.43535669587E+007, +8.23140067184E+001, +5.37703126170E+002
+1.44785982478E+007, +8.22261595711E+001, +5.42383120721E+002
+1.46036295369E+007, +8.41563045071E+001, +5.49665703634E+002
+1.47286608260E+007, +8.34933392061E+001, +5.55103844867E+002
+1.48536921151E+007, +8.50605719537E+001, +5.60441904102E+002
+1.49787234043E+007, +8.52988627783E+001, +5.68040978972E+002
+1.51037546934E+007, +8.58506780494E+001, +5.73963549102E+002
+1.52287859825E+007, +8.64653199176E+001, +5.80113030072E+002
+1.53538172716E+007, +8.53243440964E+001, +5.86441654505E+002
+1.54788485607E+007, +8.75721540752E+001, +5.93164236008E+002
+1.56038798498E+007, +8.64123188269E+001, +5.99363596748E+002
+1.57289111389E+007, +8.79574923712E+001, +6.06581403876E+002
+1.58539424280E+007, +8.88445647382E+001, +6.11446716282E+002
+1.59789737171E+007, +8.87647889884E+001, +6.17766787050E+002
+1.61040050063E+007, +8.80235372592E+001, +6.25801021107E+002
+1.62290362954E+007, +9.00505363787E+001, +6.34553068526E+002
+1.63540675845E+007, +9.05704025461E+001, +6.39969473907E+002
+1.64790988736E+007, +9.22568430187E+001, +6.46176077262E+002
+1.66041301627E+007, +8.96726456811E+001, +6.53490873425E+002
+1.67291614518E+007, +9.15724556472E+001, +6.59804955530E+002
+1.68541927409E+007, +9.20193789551E+001, +6.65938338415E+002
+1.69792240300E+007, +9.43196853363E+001, +6.74401525314E+002
+1.71042553191E+007, +8.81234385568E+001, +6.81439762467E+002
+1.72292866083E+007, +9.27976911815E+001, +6.90933188334E+002
+1.73543178974E+007, +9.24410054274E+001, +6.95756380829E+002
+1.74793491865E+007, +9.12337963489E+001, +7.02494150565E+002
+1.76043804756E+007, +9.54123782650E+001, +7.09434284599E+002
+1.77294117647E+007, +9.36154025439E+001, +7.15566308424E+002
+1.78544430538E+007, +9.52426964491E+001, +7.23811966896E+002
+1.79794743429E+007, +1.00636717814E+002, +7.30972397514E+002
+1.81045056320E+007, +9.98404024770E+001, +7.39769690018E+002
+1.82295369212E+007, +9.77244811884E+001, +7.49529635518E+002
+1.83545682103E+007, +9.93782930679E+001, +7.56853502935E+002
+1.84795994994E+007, +9.95989518572E+001, +7.64336172159E+002
+1.86046307885E+007, +1.01526649550E+002, +7.71289956047E+002
+1.87296620776E+007, +1.02053407087E+002, +7.80926347872E+002
+1.88546933667E+007, +1.04462705927E+002, +7.87430022499E+002
+1.89797246558E+007, +1.05568714532E+002, +7.97826360724E+002
+1.91047559449E+007, +1.02378141744E+002, +8.05668127445E+002
+1.92297872340E+007, +1.02595382008E+002, +8.10102378460E+002
+1.93548185232E+007, +1.07220521657E+002, +8.19067729416E+002
+1.94798498123E+007, +1.03480703760E+002, +8.31687681284E+002
+1.96048811014E+007, +1.07357801475E+002, +8.39791219294E+002
+1.97299123905E+007, +1.08728837902E+002, +8.44168720613E+002
+1.98549436796E+007, +1.09818176619E+002, +8.56363254150E+002
+1.99799749687E+007, +1.09282029557E+002, +8.64989534532E+002
+2.01050062578E+007, +1.13973127997E+002, +8.73281239847E+002
+2.02300375469E+007, +1.12570730485E+002, +8.80583751605E+002
+2.03550688360E+007, +1.14976893100E+002, +8.90697361060E+002
+2.04801001252E+007, +1.17218419673E+002, +9.03687227093E+002
+2.06051314143E+007, +1.12800433758E+002, +9.11490174498E+002
+2.07301627034E+007, +1.14733532969E+002, +9.18526096568E+002
+2.08551939925E+007, +1.16020487574E+002, +9.33752632435E+002
+2.09802252816E+007, +1.14100060640E+002, +9.38334245043E+002
+2.11052565707E+007, +1.19106249886E+002, +9.46865234671E+002
+2.12302878598E+007, +1.24907783868E+002, +9.57736290320E+002
+2.13553191489E+007, +1.26840722439E+002, +9.66646511982E+002
+2.14803504380E+007, +1.25392644806E+002, +9.81229441857E+002
+2.16053817272E+007, +1.24753486732E+002, +9.86684250550E+002
+2.17304130163E+007, +1.25229943749E+002, +1.00131842778E+003
+2.18554443054E+007, +1.34693677397E+002, +1.01195035119E+003
+2.19804755945E+007, +1.31157740185E+002, +1.02146624972E+003
+2.21055068836E+007, +1.34409946466E+002, +1.03199814997E+003
+2.22305381727E+007, +1.35950935627E+002, +1.04713333292E+003
+2.23555694618E+007, +1.37933585093E+002, +1.05370654570E+003
+2.24806007509E+007, +1.39192120311E+002, +1.06407351381E+003
+2.26056320401E+007, +1.36755565841E+002, +1.08247834424E+003
+2.27306633292E+007, +1.43706869545E+002, +1.09585956814E+003
+2.28556946183E+007, +1.42713433589E+002, +1.10253917166E+003
+2.29807259074E+007, +1.52605935368E+002, +1.11262727418E+003
+2.31057571965E+007, +1.48644467813E+002, +1.12521749260E+003
+2.32307884856E+007, +1.55540136679E+002, +1.12762328043E+003
+2.33558197747E+007, +1.63262282540E+002, +1.14500593854E+003
+2.34808510638E+007, +1.59875813721E+002, +1.15366840834E+003
+2.36058823529E+007, +1.63268868549E+002, +1.16961748625E+003
+2.37309136421E+007, +1.66866470231E+002, +1.18548117467E+003
+2.38559449312E+007, +1.78239919271E+002, +1.19459828734E+003
+2.39809762203E+007, +1.75971071499E+002, +1.20383616875E+003
+2.41060075094E+007, +1.77245522780E+002, +1.20982791099E+003
+2.42310387985E+007, +1.83332534656E+002, +1.22254154437E+003
+2.43560700876E+007, +1.81409506487E+002, +1.23347272728E+003
+2.44811013767E+007, +1.92127818142E+002, +1.25090394804E+003
+2.46061326658E+007, +1.98170735437E+002, +1.26529887489E+003
+2.47311639549E+007, +1.92750690690E+002, +1.27955171198E+003
+2.48561952441E+007, +1.91856142755E+002, +1.27962028330E+003
+2.49812265332E+007, +1.90410037727E+002, +1.28359475726E+003
+2.51062578223E+007, +1.99463972479E+002, +1.31394835832E+003
+2.52312891114E+007, +1.94256420391E+002, +1.32018115030E+003
+2.53563204005E+007, +1.98693795044E+002, +1.33581702402E+003
+2.54813516896E+007, +2.00258253965E+002, +1.34959986634E+003
+2.56063829787E+007, +1.93221413499E+002, +1.35690344103E+003
+2.57314142678E+007, +1.99127903562E+002, +1.38277465836E+003
+2.58564455569E+007, +1.99800996332E+002, +1.39496915995E+003
+2.59814768461E+007, +2.08006894956E+002, +1.41615597996E+003
+2.61065081352E+007, +2.09791563201E+002, +1.43703485145E+003
+2.62315394243E+007, +2.07224824374E+002, +1.44723623755E+003
+2.63565707134E+007, +2.11831547601E+002, +1.46264269739E+003
+2.64816020025E+007, +2.13024967603E+002, +1.48333000085E+003
+2.66066332916E+007, +2.20113456073E+002, +1.51240713567E+003
+2.67316645807E+007, +2.10848595167E+002, +1.52395048146E+003
+2.68566958698E+007, +2.32143944470E+002, +1.53503737734E+003
+2.69817271589E+007, +2.33329961583E+002, +1.56031277762E+003
+2.71067584481E+007, +2.33541684257E+002, +1.57969750520E+003
+2.72317897372E+007, +2.38780945266E+002, +1.59569522530E+003
+2.73568210263E+007, +2.45216433276E+002, +1.61855750666E+003
+2.74818523154E+007, +2.41555294034E+002, +1.62894604536E+003
+2.76068836045E+007, +2.45540935948E+002, +1.65136810034E+003
+2.77319148936E+007, +2.31718347957E+002, +1.67522420953E+003
+2.78569461827E+007, +2.37977157385E+002, +1.69327724208E+003
+2.79819774718E+007, +2.41669066454E+002, +1.71110441445E+003
+2.81070087610E+007, +2.58135150561E+002, +1.72647295722E+003
+2.82320400501E+007, +2.52430951141E+002, +1.75813360238E+003
+2.83570713392E+007, +2.57159417373E+002, +1.77885245149E+003
+2.84821026283E+007, +2.74068338638E+002, +1.81720647317E+003
+2.86071339174E+007, +2.65419444273E+002, +1.82457374538E+003
+2.87321652065E+007, +2.65140447498E+002, +1.83508705211E+003
+2.88571964956E+007, +2.75729486743E+002, +1.90294596037E+003
+2.89822277847E+007, +2.93574018971E+002, +1.91483451482E+003
+2.91072590738E+007, +2.79036284226E+002, +1.93651723764E+003
+2.92322903630E+007, +2.89800577501E+002, +1.98279313083E+003
+2.93573216521E+007, +3.03098966291E+002, +1.99410766573E+003
+2.94823529412E+007, +3.11141320933E+002, +2.03299668257E+003
+2.96073842303E+007, +3.21197374810E+002, +2.04912353159E+003
+2.97324155194E+007, +3.12877753847E+002, +2.09014517508E+003
+2.98574468085E+007, +3.25124578021E+002, +2.12187801896E+003
+2.99824780976E+007, +3.23533538411E+002, +2.17448791620E+003
+3.01075093867E+007, +3.52645418841E+002, +2.19982007842E+003
+3.02325406758E+007, +3.28148934468E+002, +2.21858704965E+003
+3.03575719650E+007, +3.64681284522E+002, +2.26194242510E+003
+3.04826032541E+007, +3.70348476426E+002, +2.29357696446E+003
+3.06076345432E+007, +3.69683554796E+002, +2.31808650221E+003
+3.07326658323E+007, +4.01856204455E+002, +2.36079727558E+003
+3.08576971214E+007, +4.16094255827E+002, +2.38090441762E+003
+3.09827284105E+007, +3.61792926581E+002, +2.45384907919E+003
+3.11077596996E+007, +4.02566202346E+002, +2.50841235489E+003
+3.12327909887E+007, +4.14192007665E+002, +2.51424925291E+003
+3.13578222778E+007, +4.37656819643E+002, +2.59030158931E+003
+3.14828535670E+007, +4.10535562587E+002, +2.63232494113E+003
+3.16078848561E+007, +4.88824717071E+002, +2.67441450253E+003
+3.17329161452E+007, +4.69397017722E+002, +2.71507530656E+003
+3.18579474343E+007, +4.90241777540E+002, +2.79584281296E+003
+3.19829787234E+007, +4.96679855155E+002, +2.82039611396E+003
+3.21080100125E+007, +4.78113118613E+002, +2.87703017433E+003
+3.22330413016E+007, +5.42971295493E+002, +2.90364163059E+003
+3.23580725907E+007, +5.73455150372E+002, +3.01920213749E+003
+3.24831038798E+007, +5.67553241977E+002, +3.08778691192E+003
+3.26081351690E+007, +5.86788835557E+002, +3.09658859923E+003
+3.27331664581E+007, +6.11053456101E+002, +3.19506294086E+003
+3.28581977472E+007, +5.96105926456E+002, +3.26587253389E+003
+3.29832290363E+007, +5.89102000207E+002, +3.37092847432E+003
+3.31082603254E+007, +6.51138699290E+002, +3.36598230301E+003
+3.32332916145E+007, +7.15960769477E+002, +3.46725331978E+003
+3.33583229036E+007, +7.91049162460E+002, +3.53635954135E+003
+3.34833541927E+007, +7.43713234795E+002, +3.62051705260E+003
+3.36083854819E+007, +7.55911248297E+002, +3.67017978745E+003
+3.37334167710E+007, +8.31942550573E+002, +3.81508540320E+003
+3.38584480601E+007, +8.63593065574E+002, +3.89447785012E+003
+3.39834793492E+007, +8.95218494836E+002, +3.99940457234E+003
+3.41085106383E+007, +9.50696064742E+002, +4.08278171081E+003
+3.42335419274E+007, +1.03411966918E+003, +4.20440049491E+003
+3.43585732165E+007, +1.02833818035E+003, +4.38767291003E+003
+3.44836045056E+007, +1.18524142596E+003, +4.50989522761E+003
+3.46086357947E+007, +1.19182067407E+003, +4.50950610928E+003
+3.47336670839E+007, +1.22311567768E+003, +4.69532346246E+003
+3.48586983730E+007, +1.20318438593E+003, +4.81677983988E+003
+3.49837296621E+007, +1.37590798272E+003, +4.92389393966E+003
+3.51087609512E+007, +1.43927739231E+003, +5.03399333236E+003
+3.52337922403E+007, +1.44640846994E+003, +5.31064505748E+003
+3.53588235294E+007, +1.61645138958E+003, +5.52991337899E+003
+3.54838548185E+007, +1.96605026753E+003, +5.58679767227E+003
+3.56088861076E+007, +1.93615943619E+003, +5.76059130357E+003
+3.57339173967E+007, +2.12861963586E+003, +6.14701044786E+003
+3.58589486859E+007, +2.55648078876E+003, +6.41258766829E+003
+3.59839799750E+007, +2.26518438254E+003, +6.54401400022E+003
+3.61090112641E+007, +2.49509232169E+003, +6.27143489020E+003
+3.62340425532E+007, +2.61673554587E+003, +7.00132730157E+003
+3.63590738423E+007, +3.14611709339E+003, +7.14845972539E+003
+3.64841051314E+007, +3.29652532415E+003, +7.74755004049E+003
+3.66091364205E+007, +3.87774509873E+003, +8.22594556303E+003
+3.67341677096E+007, +4.21567883279E+003, +8.04528219531E+003
+3.68591989987E+007, +4.32077492018E+003, +8.27460511331E+003
+3.69842302879E+007, +5.11309950826E+003, +8.25525853778E+003
+3.71092615770E+007, +6.47927075698E+003, +9.55607780806E+003
+3.72342928661E+007, +6.20485291735E+003, +9.01270987048E+003
+3.73593241552E+007, +8.16831200216E+003, +9.15706347695E+003
+3.74843554443E+007, +8.58979581120E+003, +1.00942546493E+004
+3.76093867334E+007, +9.78116978210E+003, +1.10631864817E+004
+3.77344180225E+007, +1.07676421243E+004, +9.10433343027E+003
+3.78594493116E+007, +1.14728279279E+004, +1.00137473861E+004
+3.79844806008E+007, +1.46612363318E+004, +8.65295255638E+003
+3.81095118899E+007, +1.37490379621E+004, +7.67481295273E+003
+3.82345431790E+007, +1.71072542367E+004, +7.84269561262E+003
+3.83595744681E+007, +1.88046821207E+004, +3.90767134194E+003
+3.84846057572E+007, +1.92613076250E+004, +2.11402549784E+003
+3.86096370463E+007, +1.96129549886E+004, +1.31601549941E+003
+3.87346683354E+007, +2.03122081944E+004, -2.91668184118E+002
+3.88596996245E+007, +1.87663421738E+004, -4.57154455624E+003
+3.89847309136E+007, +1.68277798929E+004, -6.10282965393E+003
+3.91097622028E+007, +1.54194703347E+004, -7.94345126458E+003
+3.92347934919E+007, +1.39789607845E+004, -8.08737481126E+003
+3.93598247810E+007, +1.23390483205E+004, -8.56648226589E+003
+3.94848560701E+007, +1.07279405623E+004, -8.74856396496E+003
+3.96098873592E+007, +1.02050130926E+004, -9.61545703758E+003
+3.97349186483E+007, +8.93120923544E+003, -9.08964351920E+003
+3.98599499374E+007, +7.73628140119E+003, -9.19667788801E+003
+3.99849812265E+007, +6.57185388133E+003, -8.81147281454E+003
+4.01100125156E+007, +6.02116909511E+003, -8.31443197193E+003
