"# Channel 1"
"# Trace 1"
Frequency, Formatted Data, Formatted Data
+1.00000000000E+005, +7.03096601620E+001, +2.87494364325E+000
+2.25031289111E+005, +7.02631405711E+001, +7.48515464571E+000
+3.50062578223E+005, +7.02340349251E+001, +1.15893271826E+001
+4.75093867334E+005, +7.03025375261E+001, +1.56515475035E+001
+6.00125156446E+005, +7.02727606760E+001, +1.97939499504E+001
+7.25156445557E+005, +7.01693475086E+001, +2.37692125499E+001
+8.50187734668E+005, +7.03524434010E+001, +2.79860682186E+001
+9.75219023780E+005, +7.03548132597E+001, +3.20734459151E+001
+1.10025031289E+006, +7.02156470749E+001, +3.60942882566E+001
+1.22528160200E+006, +7.03525127599E+001, +4.02106226997E+001
+1.35031289111E+006, +7.03348819430E+001, +4.44016556074E+001
+1.47534418023E+006, +7.03287931895E+001, +4.83621135323E+001
+1.60037546934E+006, +7.03277123306E+001, +5.24472583729E+001
+1.72540675845E+006, +7.03486622874E+001, +5.67377816247E+001
+1.85043804756E+006, +7.02692721215E+001, +6.07326508142E+001
+1.97546933667E+006, +7.03701128856E+001, +6.48700603715E+001
+2.10050062578E+006, +7.03058792338E+001, +6.90008394791E+001
+2.22553191489E+006, +7.02640447491E+001, +7.29704241173E+001
+2.35056320401E+006, +7.04025769329E+001, +7.73856923105E+001
+2.47559449312E+006, +7.03263639522E+001, +8.11442844123E+001
+2.60062578223E+006, +7.03773355427E+001, +8.52812953893E+001
+2.72565707134E+006, +7.06343841018E+001, +8.95930450993E+001
+2.85068836045E+006, +7.02010321912E+001, +9.36768521884E+001
+2.97571964956E+006, +7.05534894710E+001, +9.76021739392E+001
+3.10075093867E+006, +7.05124736166E+001, +1.01906096482E+002
+3.22578222778E+006, +7.04744321470E+001, +1.06143912286E+002
+3.35081351690E+006, +7.05240478879E+001, +1.10264309942E+002
+3.47584480601E+006, +7.08049499626E+001, +1.14392537208E+002
+3.60087609512E+006, +7.03681986968E+001, +1.18521827225E+002
+3.72590738423E+006, +7.07423994267E+001, +1.22728047710E+002
+3.85093867334E+006, +7.07342935415E+001, +1.26841741235E+002
+3.97596996245E+006, +7.05297717004E+001, +1.30165978512E+002
+4.10100125156E+006, +7.08727379176E+001, +1.35225120052E+002
+4.22603254068E+006, +7.06836856003E+001, +1.39737743129E+002
+4.35106382979E+006, +7.06950268961E+001, +1.43414544449E+002
+4.47609511890E+006, +7.13318061216E+001, +1.48095590907E+002
+4.60112640801E+006, +7.09788420127E+001, +1.52156164398E+002
+4.72615769712E+006, +7.10278049798E+001, +1.55970657448E+002
+4.85118898623E+006, +7.09593689822E+001, +1.60305771751E+002
+4.97622027534E+006, +7.15354154892E+001, +1.64396648994E+002
+5.10125156446E+006, +7.15112700028E+001, +1.68420254062E+002
+5.22628285357E+006, +7.15223878413E+001, +1.73033161578E+002
+5.35131414268E+006, +7.12104057023E+001, +1.77114237523E+002
+5.47634543179E+006, +7.08226444586E+001, +1.81789561354E+002
+5.60137672090E+006, +7.14897827257E+001, +1.85492525339E+002
+5.72640801001E+006, +7.17516593886E+001, +1.89987643479E+002
+5.85143929912E+006, +7.17892094011E+001, +1.94701183475E+002
+5.97647058824E+006, +7.14978682345E+001, +1.98544172686E+002
+6.10150187735E+006, +7.20938995465E+001, +2.02770018422E+002
+6.22653316646E+006, +7.14847700284E+001, +2.07548760475E+002
+6.35156445557E+006, +7.21445939611E+001, +2.11126838958E+002
+6.47659574468E+006, +7.26970979418E+001, +2.15879461100E+002
+6.60162703379E+006, +7.25864959681E+001, +2.20132119510E+002
+6.72665832290E+006, +7.28003530771E+001, +2.24549656107E+002
+6.85168961202E+006, +7.31174599569E+001, +2.28829863713E+002
+6.97672090113E+006, +7.34715185325E+001, +2.33169705987E+002
+7.10175219024E+006, +7.33683848640E+001, +2.37729495698E+002
+7.22678347935E+006, +7.34787783957E+001, +2.41968695082E+002
+7.35181476846E+006, +7.37294975306E+001, +2.46777027930E+002
+7.47684605757E+006, +7.39942441012E+001, +2.51182530515E+002
+7.60187734668E+006, +7.41962049539E+001, +2.55352909041E+002
+7.72690863579E+006, +7.43098413791E+001, +2.60057120757E+002
+7.85193992491E+006, +7.37133929722E+001, +2.64727927284E+002
+7.97697121402E+006, +7.45842731580E+001, +2.68880383992E+002
+8.10200250313E+006, +7.48268810075E+001, +2.73126723006E+002
+8.22703379224E+006, +7.48779110554E+001, +2.77964266596E+002
+8.35206508135E+006, +7.49479911777E+001, +2.82775836133E+002
+8.47709637046E+006, +7.54176236567E+001, +2.86909289414E+002
+8.60212765957E+006, +7.48320067145E+001, +2.91622136577E+002
+8.72715894869E+006, +7.53448730351E+001, +2.96738799408E+002
+8.85219023780E+006, +7.52793924442E+001, +3.01476965825E+002
+8.97722152691E+006, +7.63666934463E+001, +3.05188894690E+002
+9.10225281602E+006, +7.52816965544E+001, +3.10239959169E+002
+9.22728410513E+006, +7.64101056014E+001, +3.15043616439E+002
+9.35231539424E+006, +7.57437087503E+001, +3.19469995260E+002
+9.47734668335E+006, +7.65083892482E+001, +3.24364946089E+002
+9.60237797247E+006, +7.69693671141E+001, +3.28862359114E+002
+9.72740926158E+006, +7.64312362177E+001, +3.33674879926E+002
+9.85244055069E+006, +7.66034355541E+001, +3.38594968790E+002
+9.97747183980E+006, +7.76496944721E+001, +3.43320825532E+002
+1.01025031289E+007, +7.74716854779E+001, +3.47607901536E+002
+1.02275344180E+007, +7.75847654251E+001, +3.52538632414E+002
+1.03525657071E+007, +7.75268222058E+001, +3.57888385758E+002
+1.04775969962E+007, +7.78000759993E+001, +3.62844889239E+002
+1.06026282854E+007, +7.72594441681E+001, +3.67479777896E+002
+1.07276595745E+007, +7.76787788826E+001, +3.73035194086E+002
+1.08526908636E+007, +7.84666382771E+001, +3.77057696686E+002
+1.09777221527E+007, +7.91040529680E+001, +3.82127381756E+002
+1.11027534418E+007, +7.84517927144E+001, +3.87135050385E+002
+1.12277847309E+007, +7.92167148140E+001, +3.92420172149E+002
+1.13528160200E+007, +7.89333016462E+001, +3.97980975499E+002
+1.14778473091E+007, +7.78431199210E+001, +4.02631555851E+002
+1.16028785982E+007, +8.03417058748E+001, +4.07391684751E+002
+1.17279098874E+007, +7.91031419259E+001, +4.13213226026E+002
+1.18529411765E+007, +8.00890113538E+001, +4.17895274247E+002
+1.19779724656E+007, +8.06410990515E+001, +4.23783254895E+002
+1.21030037547E+007, +8.12005025072E+001, +4.28909327858E+002
+1.22280350438E+007, +8.04361477473E+001, +4.33542034315E+002
+1.23530663329E+007, +8.12014118219E+001, +4.38051430092E+002
+1.24780976220E+007, +8.06643229011E+001, +4.44298286498E+002
+1.26031289111E+007, +8.21672690043E+001, +4.48636499422E+002
+1.27281602003E+007, +8.16395340753E+001, +4.54250188526E+002
+1.28531914894E+007, +8.20979687583E+001, +4.60168552887E+002
+1.29782227785E+007, +8.23676703945E+001, +4.65289510191E+002
+1.31032540676E+007, +8.31506594725E+001, +4.71628804420E+002
+1.32282853567E+007, +8.22300817164E+001, +4.76010536933E+002
+1.33533166458E+007, +8.23127801009E+001, +4.80881321109E+002
+1.34783479349E+007, +8.28704836312E+001, +4.87597710954E+002
+1.36033792240E+007, +8.39979358439E+001, +4.94324109184E+002
+1.37284105131E+007, +8.37859162452E+001, +4.99080118042E+002
+1.38534418023E+007, +8.34741099523E+001, +5.02507128401E+002
+1.39784730914E+007, +8.40836430143E+001, +5.09743134996E+002
+1.41035043805E+007, +8.48782507262E+001, +5.14488118549E+002
+1.42285356696E+007, +8.44352518893E+001, +5.20074915147E+002
+1.43535669587E+007, +8.62064006217E+001, +5.26261606025E+002
+1.44785982478E+007, +8.53924812254E+001, +5.33501077062E+002
+1.46036295369E+007, +8.48731636068E+001, +5.38366959244E+002
+1.47286608260E+007, +8.68434398860E+001, +5.44026333380E+002
+1.48536921151E+007, +8.69057041475E+001, +5.50905348147E+002
+1.49787234043E+007, +8.80800603020E+001, +5.57101544395E+002
+1.51037546934E+007, +8.68876885697E+001, +5.62996144770E+002
+1.52287859825E+007, +8.86809789678E+001, +5.68274585401E+002
+1.53538172716E+007, +8.99823572303E+001, +5.72524648133E+002
+1.54788485607E+007, +8.89589258491E+001, +5.78567999134E+002
+1.56038798498E+007, +8.92209952882E+001, +5.88218899148E+002
+1.57289111389E+007, +8.90679677166E+001, +5.92434782258E+002
+1.58539424280E+007, +8.94894920193E+001, +5.98342257699E+002
+1.59789737171E+007, +8.83154228503E+001, +6.06081620509E+002
+1.61040050063E+007, +9.23958844277E+001, +6.12756585519E+002
+1.62290362954E+007, +9.19523604347E+001, +6.17062534569E+002
+1.63540675845E+007, +9.13839490865E+001, +6.23517502758E+002
+1.64790988736E+007, +9.32071503333E+001, +6.30959889918E+002
+1.66041301627E+007, +9.33414081264E+001, +6.37182952291E+002
+1.67291614518E+007, +9.17342698412E+001, +6.44326445814E+002
+1.68541927409E+007, +9.50110241867E+001, +6.50776167363E+002
+1.69792240300E+007, +9.43531768501E+001, +6.57029163183E+002
+1.71042553191E+007, +9.05809950569E+001, +6.67723798033E+002
+1.72292866083E+007, +9.36788881691E+001, +6.70923687980E+002
+1.73543178974E+007, +9.27039603171E+001, +6.77468738666E+002
+1.74793491865E+007, +9.39248210961E+001, +6.86893370518E+002
+1.76043804756E+007, +9.72452899568E+001, +6.89629674765E+002
+1.77294117647E+007, +9.80878092040E+001, +6.98730556703E+002
+1.78544430538E+007, +9.78757048226E+001, +7.07294140817E+002
+1.79794743429E+007, +9.66652385840E+001, +7.16336374419E+002
+1.81045056320E+007, +9.75920546113E+001, +7.25813946270E+002
+1.82295369212E+007, +9.87371661701E+001, +7.31025207249E+002
+1.83545682103E+007, +1.00217406038E+002, +7.34550264911E+002
+1.84795994994E+007, +9.99650768659E+001, +7.46766614570E+002
+1.86046307885E+007, +1.02867242020E+002, +7.51062429347E+002
+1.87296620776E+007, +1.01429598029E+002, +7.58080997791E+002
+1.88546933667E+007, +1.07113110269E+002, +7.64682759495E+002
+1.89797246558E+007, +1.02137033257E+002, +7.75607263872E+002
+1.91047559449E+007, +1.05176230032E+002, +7.81961508408E+002
+1.92297872340E+007, +1.03557874678E+002, +7.91154421631E+002
+1.93548185232E+007, +1.06645721762E+002, +8.00265074885E+002
+1.94798498123E+007, +1.09660166582E+002, +8.07215042584E+002
+1.96048811014E+007, +1.07990494890E+002, +8.12718082458E+002
+1.97299123905E+007, +1.10089401623E+002, +8.24505202040E+002
+1.98549436796E+007, +1.09699353524E+002, +8.29675529967E+002
+1.99799749687E+007, +1.07964556694E+002, +8.37156727828E+002
+2.01050062578E+007, +1.09794196676E+002, +8.46966978964E+002
+2.02300375469E+007, +1.14442321728E+002, +8.55669588543E+002
+2.03550688360E+007, +1.15451017809E+002, +8.61643139276E+002
+2.04801001252E+007, +1.18596299586E+002, +8.72536109391E+002
+2.06051314143E+007, +1.12705631571E+002, +8.83835235313E+002
+2.07301627034E+007, +1.13033271939E+002, +8.92459244562E+002
+2.08551939925E+007, +1.16825011780E+002, +9.02764207541E+002
+2.09802252816E+007, +1.15902632684E+002, +9.13361849539E+002
+2.11052565707E+007, +1.18240899983E+002, +9.19458823563E+002
+2.12302878598E+007, +1.19330936565E+002, +9.28359663573E+002
+2.13553191489E+007, +1.24112703229E+002, +9.42424566944E+002
+2.14803504380E+007, +1.23517979936E+002, +9.50459722848E+002
+2.16053817272E+007, +1.29701871708E+002, +9.58315190024E+002
+2.17304130163E+007, +1.26415578448E+002, +9.69568298675E+002
+2.18554443054E+007, +1.28968442646E+002, +9.81778858287E+002
+2.19804755945E+007, +1.29169288237E+002, +9.87621993759E+002
+2.21055068836E+007, +1.33506152758E+002, +9.98196292776E+002
+2.22305381727E+007, +1.40354589260E+002, +1.01079224269E+003
+2.23555694618E+007, +1.34333616454E+002, +1.02314001154E+003
+2.24806007509E+007, +1.35204056424E+002, +1.02945150387E+003
+2.26056320401E+007, +1.43912292704E+002, +1.04780518337E+003
+2.27306633292E+007, +1.43518807840E+002, +1.05262135046E+003
+2.28556946183E+007, +1.48893747195E+002, +1.05756569559E+003
+2.29807259074E+007, +1.47035761590E+002, +1.07874370197E+003
+2.31057571965E+007, +1.50054452365E+002, +1.07938602621E+003
+2.32307884856E+007, +1.58228370284E+002, +1.08606303964E+003
+2.33558197747E+007, +1.60449864513E+002, +1.10433299966E+003
+2.34808510638E+007, +1.65473543802E+002, +1.11085235005E+003
+2.36058823529E+007, +1.71635922468E+002, +1.11685428192E+003
+2.37309136421E+007, +1.72666231028E+002, +1.12875959996E+003
+2.38559449312E+007, +1.76377818014E+002, +1.14181809203E+003
+2.39809762203E+007, +1.71474740760E+002, +1.14797794281E+003
+2.41060075094E+007, +1.72168719629E+002, +1.15745302434E+003
+2.42310387985E+007, +1.74447258030E+002, +1.16297150219E+003
+2.43560700876E+007, +1.82280815463E+002, +1.18260306785E+003
+2.44811013767E+007, +1.78475127689E+002, +1.18524625030E+003
+2.46061326658E+007, +1.81836967387E+002, +1.19349707920E+003
+2.47311639549E+007, +1.82188344273E+002, +1.21136522054E+003
+2.48561952441E+007, +1.83757644593E+002, +1.22530353765E+003
+2.49812265332E+007, +1.86109158167E+002, +1.23729165537E+003
+2.51062578223E+007, +1.88923785353E+002, +1.24916004047E+003
+2.52312891114E+007, +1.87184406453E+002, +1.25339530024E+003
+2.53563204005E+007, +1.83283341827E+002, +1.27464422379E+003
+2.54813516896E+007, +1.92997979126E+002, +1.28598400948E+003
+2.56063829787E+007, +1.80774349732E+002, +1.30701760058E+003
+2.57314142678E+007, +1.85436034443E+002, +1.31219087244E+003
+2.58564455569E+007, +1.85908097281E+002, +1.33565803001E+003
+2.59814768461E+007, +1.89517460027E+002, +1.35211760583E+003
+2.61065081352E+007, +1.96639525614E+002, +1.36465742685E+003
+2.62315394243E+007, +1.92705589412E+002, +1.37930860509E+003
+2.63565707134E+007, +1.86662767395E+002, +1.38730294584E+003
+2.64816020025E+007, +1.90375583038E+002, +1.41492298591E+003
+2.66066332916E+007, +1.91828254348E+002, +1.42734282845E+003
+2.67316645807E+007, +2.03653254025E+002, +1.44939554153E+003
+2.68566958698E+007, +2.08980115693E+002, +1.47044058288E+003
+2.69817271589E+007, +2.09092311152E+002, +1.49730539544E+003
+2.71067584481E+007, +2.02356268300E+002, +1.51715385071E+003
+2.72317897372E+007, +2.14332109833E+002, +1.52539379949E+003
+2.73568210263E+007, +2.19581797033E+002, +1.52853773958E+003
+2.74818523154E+007, +2.21187443778E+002, +1.56382530974E+003
+2.76068836045E+007, +2.26068976398E+002, +1.57777882385E+003
+2.77319148936E+007, +2.45823796381E+002, +1.59447597481E+003
+2.78569461827E+007, +2.42928848236E+002, +1.60830261519E+003
+2.79819774718E+007, +2.45213442781E+002, +1.61979713152E+003
+2.81070087610E+007, +2.40973882277E+002, +1.66044676525E+003
+2.82320400501E+007, +2.39293708550E+002, +1.66700561540E+003
+2.83570713392E+007, +2.56265667440E+002, +1.69000433630E+003
+2.84821026283E+007, +2.45589619371E+002, +1.71963709261E+003
+2.86071339174E+007, +2.49374952991E+002, +1.73561352560E+003
+2.87321652065E+007, +2.62055292056E+002, +1.76367811751E+003
+2.88571964956E+007, +2.48626899269E+002, +1.78298311036E+003
+2.89822277847E+007, +2.64828940887E+002, +1.81006117206E+003
+2.91072590738E+007, +2.60403990693E+002, +1.82888798316E+003
+2.92322903630E+007, +2.72350088143E+002, +1.85907368006E+003
+2.93573216521E+007, +2.70924331722E+002, +1.89473271448E+003
+2.94823529412E+007, +2.77478356998E+002, +1.91973985450E+003
+2.96073842303E+007, +2.93600131579E+002, +1.92937995870E+003
+2.97324155194E+007, +2.94868647018E+002, +1.95439501757E+003
+2.98574468085E+007, +2.97119511943E+002, +2.00700248284E+003
+2.99824780976E+007, +3.19815557942E+002, +2.02395513116E+003
+3.01075093867E+007, +3.24300200605E+002, +2.04354717848E+003
+3.02325406758E+007, +3.11545930753E+002, +2.10057220534E+003
+3.03575719650E+007, +3.26678067703E+002, +2.10227222845E+003
+3.04826032541E+007, +3.13264985231E+002, +2.13489340557E+003
+3.06076345432E+007, +3.30494647175E+002, +2.17897454550E+003
+3.07326658323E+007, +3.53360272481E+002, +2.19569398439E+003
+3.08576971214E+007, +3.68688961377E+002, +2.24638708252E+003
+3.09827284105E+007, +3.84307067096E+002, +2.26814482500E+003
+3.11077596996E+007, +3.91961991569E+002, +2.32429536944E+003
+3.12327909887E+007, +3.76748113229E+002, +2.36557028128E+003
+3.13578222778E+007, +3.75433281581E+002, +2.42206151781E+003
+3.14828535670E+007, +4.13560883811E+002, +2.41603542541E+003
+3.16078848561E+007, +4.13691721176E+002, +2.43160865386E+003
+3.17329161452E+007, +4.21145164593E+002, +2.52768253554E+003
+3.18579474343E+007, +4.21353331546E+002, +2.56257331798E+003
+3.19829787234E+007, +4.45523366365E+002, +2.60654836235E+003
+3.21080100125E+007, +4.33186245286E+002, +2.61895807113E+003
+3.22330413016E+007, +4.81772052870E+002, +2.68525932989E+003
+3.23580725907E+007, +4.91236905036E+002, +2.73747143669E+003
+3.24831038798E+007, +4.74639273457E+002, +2.79853118437E+003
+3.26081351690E+007, +5.00691423665E+002, +2.83640846761E+003
+3.27331664581E+007, +5.70739603072E+002, +2.92375838750E+003
+3.28581977472E+007, +5.43408333697E+002, +2.92323622160E+003
+3.29832290363E+007, +5.41770974439E+002, +3.00178494962E+003
+3.31082603254E+007, +5.43379250706E+002, +3.10287731079E+003
+3.32332916145E+007, +6.69115878289E+002, +3.12574580894E+003
+3.33583229036E+007, +6.36357354895E+002, +3.15476230931E+003
+3.34833541927E+007, +6.25972374668E+002, +3.24023889577E+003
+3.36083854819E+007, +6.81585756716E+002, +3.36374570618E+003
+3.37334167710E+007, +6.71667493060E+002, +3.37493033051E+003
+3.38584480601E+007, +7.29467856402E+002, +3.52442343830E+003
+3.39834793492E+007, +7.23257542551E+002, +3.54740617693E+003
+3.41085106383E+007, +7.43807466197E+002, +3.58435684224E+003
+3.42335419274E+007, +8.03810668062E+002, +3.65469467836E+003
+3.43585732165E+007, +8.18293440963E+002, +3.83436841103E+003
+3.44836045056E+007, +9.45651965299E+002, +3.84407535918E+003
+3.46086357947E+007, +1.01750097871E+003, +3.94262808466E+003
+3.47336670839E+007, +1.04716411022E+003, +4.10221982035E+003
+3.48586983730E+007, +1.07926634702E+003, +4.12923988337E+003
+3.49837296621E+007, +1.11966411403E+003, +4.26313323230E+003
+3.51087609512E+007, +1.17744160108E+003, +4.39899908100E+003
+3.52337922403E+007, +1.33013810820E+003, +4.47953087113E+003
+3.53588235294E+007, +1.15874461987E+003, +4.56127754283E+003
+3.54838548185E+007, +1.33724926886E+003, +4.72447253424E+003
+3.56088861076E+007, +1.45870232689E+003, +4.78759069456E+003
+3.57339173967E+007, +1.59215978778E+003, +5.09436169021E+003
+3.58589486859E+007, +1.74754222960E+003, +5.12696377141E+003
+3.59839799750E+007, +1.60530677762E+003, +5.43729680653E+003
+3.61090112641E+007, +1.83827556445E+003, +5.32191042561E+003
+3.62340425532E+007, +2.08721920871E+003, +5.59551074080E+003
+3.63590738423E+007, +2.05328106452E+003, +5.79809368933E+003
+3.64841051314E+007, +2.22003006685E+003, +6.13321008969E+003
+3.66091364205E+007, +2.37029033263E+003, +6.30964287452E+003
+3.67341677096E+007, +2.57858957820E+003, +6.38060926303E+003
+3.68591989987E+007, +2.76546136705E+003, +6.68590084018E+003
+3.69842302879E+007, +2.81910354563E+003, +6.83694960479E+003
+3.71092615770E+007, +3.58689011176E+003, +6.78388220754E+003
+3.72342928661E+007, +3.66130767588E+003, +7.82624216320E+003
+3.73593241552E+007, +3.93608000406E+003, +8.02409359128E+003
+3.74843554443E+007, +4.47645616943E+003, +8.29091238491E+003
+3.76093867334E+007, +4.87967546764E+003, +8.40664469602E+003
+3.77344180225E+007, +5.27285407128E+003, +8.52156140878E+003
+3.78594493116E+007, +6.80576968897E+003, +9.59688758542E+003
+3.79844806008E+007, +7.57613451593E+003, +9.36422109355E+003
+3.81095118899E+007, +8.05731089437E+003, +9.52989830045E+003
+3.82345431790E+007, +8.78982585276E+003, +9.20835939063E+003
+3.83595744681E+007, +9.94854110203E+003, +9.41962650896E+003
+3.84846057572E+007, +1.15110571881E+004, +1.11307951447E+004
+3.86096370463E+007, +1.21055152121E+004, +9.75888180259E+003
+3.87346683354E+007, +1.52340981128E+004, +8.55940844712E+003
+3.88596996245E+007, +1.51165156556E+004, +7.26707508590E+003
+3.89847309136E+007, +1.74359698384E+004, +6.83318362801E+003
+3.91097622028E+007, +1.88266829830E+004, +3.71908676892E+003
+3.92347934919E+007, +1.87906182549E+004, +1.31334803428E+003
+3.93598247810E+007, +1.92893539284E+004, -1.12257512453E+003
+3.94848560701E+007, +1.89112639044E+004, -2.57996289653E+003
+3.96098873592E+007, +1.75263275195E+004, -5.91832527924E+003
+3.97349186483E+007, +1.52938127983E+004, -5.98468460233E+003
+3.98599499374E+007, +1.47944658488E+004, -7.24444944811E+003
+3.99849812265E+007, +1.32997997113E+004, -8.34572424767E+003
+4.01100125156E+007, +1.18239020127E+004, -1.00572358804E+004
