"# Channel 1"
"# Trace 1"
Frequency, Formatted Data, Formatted Data
+1.00000000000E+005, +5.12711630811E+001, +3.44620380446E+000
+2.87609511890E+005, +5.09800576554E+001, +9.94663005555E+000
+4.75219023780E+005, +5.11513962961E+001, +1.65416380385E+001
+6.62828535670E+005, +5.11993568981E+001, +2.29573096138E+001
+8.50438047559E+005, +5.11967411904E+001, +2.94786399005E+001
+1.03804755945E+006, +5.12276505945E+001, +3.60747325416E+001
+1.22565707134E+006, +5.12520573260E+001, +4.23494803824E+001
+1.41326658323E+006, +5.12830901621E+001, +4.88167084295E+001
+1.60087609512E+006, +5.15193691664E+001, +5.53605357380E+001
+1.78848560701E+006, +5.14344359691E+001, +6.18198603197E+001
+1.97609511890E+006, +5.16228605698E+001, +6.84177079844E+001
+2.16370463079E+006, +5.15423881084E+001, +7.48836800024E+001
+2.35131414268E+006, +5.17029805803E+001, +8.13383157690E+001
+2.53892365457E+006, +5.15332496111E+001, +8.74843732603E+001
+2.72653316646E+006, +5.18814433988E+001, +9.42006570960E+001
+2.91414267835E+006, +5.19292742911E+001, +1.00620081620E+002
+3.10175219024E+006, +5.18182773567E+001, +1.07033688377E+002
+3.28936170213E+006, +5.18625917196E+001, +1.13388703271E+002
+3.47697121402E+006, +5.20176277214E+001, +1.20067389667E+002
+3.66458072591E+006, +5.21568974218E+001, +1.26900750026E+002
+3.85219023780E+006, +5.18376230839E+001, +1.32925457570E+002
+4.03979974969E+006, +5.22317993873E+001, +1.39885304517E+002
+4.22740926158E+006, +5.24566594012E+001, +1.46140421412E+002
+4.41501877347E+006, +5.21889661387E+001, +1.52723365789E+002
+4.60262828536E+006, +5.29185852980E+001, +1.59528779503E+002
+4.79023779725E+006, +5.29862358710E+001, +1.65981899338E+002
+4.97784730914E+006, +5.32875973578E+001, +1.72298194755E+002
+5.16545682103E+006, +5.30124755953E+001, +1.79176257691E+002
+5.35306633292E+006, +5.28512423673E+001, +1.85715081773E+002
+5.54067584481E+006, +5.32000919612E+001, +1.92806147663E+002
+5.72828535670E+006, +5.30426430677E+001, +1.99346389352E+002
+5.91589486859E+006, +5.34257034009E+001, +2.05856459199E+002
+6.10350438048E+006, +5.42478214906E+001, +2.11934236323E+002
+6.29111389237E+006, +5.39539979525E+001, +2.19000690527E+002
+6.47872340426E+006, +5.43393927604E+001, +2.26099677353E+002
+6.66633291615E+006, +5.44164542341E+001, +2.32846719471E+002
+6.85394242804E+006, +5.44090619275E+001, +2.39551289582E+002
+7.04155193992E+006, +5.48165482383E+001, +2.46164662605E+002
+7.22916145181E+006, +5.50285622543E+001, +2.52914448383E+002
+7.41677096370E+006, +5.52374388244E+001, +2.59751796005E+002
+7.60438047559E+006, +5.52966519236E+001, +2.66644839659E+002
+7.79198998748E+006, +5.53244895228E+001, +2.73743218303E+002
+7.97959949937E+006, +5.60866121106E+001, +2.80561821282E+002
+8.16720901126E+006, +5.58937450365E+001, +2.87696334067E+002
+8.35481852315E+006, +5.65884998992E+001, +2.94613459715E+002
+8.54242803504E+006, +5.64043890480E+001, +3.02295770617E+002
+8.73003754693E+006, +5.65695659875E+001, +3.08890563203E+002
+8.91764705882E+006, +5.66912149324E+001, +3.15705774699E+002
+9.10525657071E+006, +5.68405445438E+001, +3.23308019355E+002
+9.29286608260E+006, +5.70787156233E+001, +3.30558918809E+002
+9.48047559449E+006, +5.75748626442E+001, +3.37590273529E+002
+9.66808510638E+006, +5.69628521032E+001, +3.44557559473E+002
+9.85569461827E+006, +5.73608823621E+001, +3.52208017263E+002
+1.00433041302E+007, +5.82853468791E+001, +3.59199348384E+002
+1.02309136421E+007, +5.81174426630E+001, +3.66597114347E+002
+1.04185231539E+007, +5.84547742229E+001, +3.73657027087E+002
+1.06061326658E+007, +5.88904298705E+001, +3.80887092572E+002
+1.07937421777E+007, +5.86184314486E+001, +3.88247979699E+002
+1.09813516896E+007, +5.94165945304E+001, +3.96545609470E+002
+1.11689612015E+007, +5.89825151946E+001, +4.04114661264E+002
+1.13565707134E+007, +5.99948212933E+001, +4.11360398557E+002
+1.15441802253E+007, +6.02244289187E+001, +4.18284230617E+002
+1.17317897372E+007, +6.00650126346E+001, +4.27035808485E+002
+1.19193992491E+007, +6.04926520061E+001, +4.34845168441E+002
+1.21070087610E+007, +6.06540662229E+001, +4.42392349496E+002
+1.22946182728E+007, +6.09890961788E+001, +4.50491462694E+002
+1.24822277847E+007, +5.98703936836E+001, +4.58734517312E+002
+1.26698372966E+007, +6.11531662407E+001, +4.66495759290E+002
+1.28574468085E+007, +6.06395590485E+001, +4.73133239002E+002
+1.30450563204E+007, +6.22534136541E+001, +4.82495489145E+002
+1.32326658323E+007, +6.24112999508E+001, +4.90010373384E+002
+1.34202753442E+007, +6.42340853462E+001, +4.99768569480E+002
+1.36078848561E+007, +6.33713530337E+001, +5.05440033268E+002
+1.37954943680E+007, +6.26145274782E+001, +5.15754369685E+002
+1.39831038798E+007, +6.41639491020E+001, +5.24202653144E+002
+1.41707133917E+007, +6.40482820419E+001, +5.30848828879E+002
+1.43583229036E+007, +6.47393464975E+001, +5.39449646164E+002
+1.45459324155E+007, +6.45645959410E+001, +5.48664794111E+002
+1.47335419274E+007, +6.50492365875E+001, +5.56668085033E+002
+1.49211514393E+007, +6.44746374368E+001, +5.66023556832E+002
+1.51087609512E+007, +6.49615064929E+001, +5.74546327524E+002
+1.52963704631E+007, +6.64405616523E+001, +5.84821232009E+002
+1.54839799750E+007, +6.48163249997E+001, +5.92368043743E+002
+1.56715894869E+007, +6.63502946032E+001, +6.01042501450E+002
+1.58591989987E+007, +6.66094447055E+001, +6.10368759185E+002
+1.60468085106E+007, +6.67199011894E+001, +6.19883173672E+002
+1.62344180225E+007, +6.51720306944E+001, +6.29337717739E+002
+1.64220275344E+007, +6.92973733841E+001, +6.39626610706E+002
+1.66096370463E+007, +7.10451432028E+001, +6.48001424595E+002
+1.67972465582E+007, +6.97583859454E+001, +6.57061826573E+002
+1.69848560701E+007, +7.14353439998E+001, +6.66930693961E+002
+1.71724655820E+007, +6.80167329619E+001, +6.78971571445E+002
+1.73600750939E+007, +7.04655995923E+001, +6.85531061698E+002
+1.75476846058E+007, +7.11261461040E+001, +6.97535392942E+002
+1.77352941176E+007, +7.27269190409E+001, +7.09219671692E+002
+1.79229036295E+007, +7.14033690722E+001, +7.16508336733E+002
+1.81105131414E+007, +7.26573108438E+001, +7.25483908187E+002
+1.82981226533E+007, +7.29820494767E+001, +7.39691786482E+002
+1.84857321652E+007, +7.36674347076E+001, +7.48039850888E+002
+1.86733416771E+007, +7.96573827935E+001, +7.59499376527E+002
+1.88609511890E+007, +7.58286505542E+001, +7.70473269024E+002
+1.90485607009E+007, +7.83941583661E+001, +7.81801189554E+002
+1.92361702128E+007, +7.68382694084E+001, +7.89582292143E+002
+1.94237797247E+007, +7.65071558892E+001, +8.01836019953E+002
+1.96113892365E+007, +8.22537083153E+001, +8.13266683842E+002
+1.97989987484E+007, +7.93314180096E+001, +8.25199569411E+002
+1.99866082603E+007, +8.11565294336E+001, +8.34401688594E+002
+2.01742177722E+007, +8.07542183974E+001, +8.45163570728E+002
+2.03618272841E+007, +8.46698305384E+001, +8.59941148765E+002
+2.05494367960E+007, +8.87336772750E+001, +8.70744674362E+002
+2.07370463079E+007, +8.42339548794E+001, +8.82485148653E+002
+2.09246558198E+007, +8.56158600793E+001, +8.96321076914E+002
+2.11122653317E+007, +8.31799027498E+001, +9.07887507171E+002
+2.12998748436E+007, +9.11021876900E+001, +9.17837309950E+002
+2.14874843554E+007, +9.69753713994E+001, +9.31591777795E+002
+2.16750938673E+007, +9.26694672956E+001, +9.49917054894E+002
+2.18627033792E+007, +9.36687354902E+001, +9.62977258221E+002
+2.20503128911E+007, +9.35144636167E+001, +9.73602081792E+002
+2.22379224030E+007, +1.00485493715E+002, +9.84339053507E+002
+2.24255319149E+007, +9.99379825490E+001, +9.93592828716E+002
+2.26131414268E+007, +1.00697762540E+002, +1.01298397081E+003
+2.28007509387E+007, +1.07403156318E+002, +1.02761464638E+003
+2.29883604506E+007, +1.04359202140E+002, +1.04301533791E+003
+2.31759699625E+007, +1.09892168787E+002, +1.05081048377E+003
+2.33635794743E+007, +1.14348609672E+002, +1.06642071764E+003
+2.35511889862E+007, +1.13686974979E+002, +1.08853006501E+003
+2.37387984981E+007, +1.17163869857E+002, +1.10197348690E+003
+2.39264080100E+007, +1.23159113185E+002, +1.11064815736E+003
+2.41140175219E+007, +1.24609565449E+002, +1.12808192094E+003
+2.43016270338E+007, +1.29982321482E+002, +1.14654101360E+003
+2.44892365457E+007, +1.31100971489E+002, +1.15601826840E+003
+2.46768460576E+007, +1.35322166782E+002, +1.17191586305E+003
+2.48644555695E+007, +1.35623054872E+002, +1.17598763466E+003
+2.50520650814E+007, +1.39509258944E+002, +1.19504003726E+003
+2.52396745932E+007, +1.38991806736E+002, +1.21503215902E+003
+2.54272841051E+007, +1.50458110500E+002, +1.22679005838E+003
+2.56148936170E+007, +1.38160841085E+002, +1.24066947483E+003
+2.58025031289E+007, +1.43290147076E+002, +1.24705736697E+003
+2.59901126408E+007, +1.47015495280E+002, +1.26895447845E+003
+2.61777221527E+007, +1.47354618558E+002, +1.28563202670E+003
+2.63653316646E+007, +1.45467609090E+002, +1.30572468058E+003
+2.65529411765E+007, +1.43333882933E+002, +1.32662311560E+003
+2.67405506884E+007, +1.44965487437E+002, +1.33273618654E+003
+2.69281602003E+007, +1.54354504922E+002, +1.36132948493E+003
+2.71157697121E+007, +1.62488022316E+002, +1.39569126415E+003
+2.73033792240E+007, +1.46143585928E+002, +1.39832344603E+003
+2.74909887359E+007, +1.48733871528E+002, +1.42189593699E+003
+2.76785982478E+007, +1.61603180962E+002, +1.44565167302E+003
+2.78662077597E+007, +1.59456579573E+002, +1.45785741622E+003
+2.80538172716E+007, +1.59551811208E+002, +1.49011023710E+003
+2.82414267835E+007, +1.65790439586E+002, +1.51321604395E+003
+2.84290362954E+007, +1.80173153283E+002, +1.53775892633E+003
+2.86166458073E+007, +1.62900516822E+002, +1.55987400777E+003
+2.88042553191E+007, +1.69101305713E+002, +1.58124584258E+003
+2.89918648310E+007, +1.74230064929E+002, +1.61593353242E+003
+2.91794743429E+007, +1.74498876634E+002, +1.63171859683E+003
+2.93670838548E+007, +1.79123395901E+002, +1.65951539160E+003
+2.95546933667E+007, +1.84268905324E+002, +1.69238042870E+003
+2.97423028786E+007, +1.84534891788E+002, +1.71811495643E+003
+2.99299123905E+007, +1.97978077019E+002, +1.73817330452E+003
+3.01175219024E+007, +1.82537790512E+002, +1.77818383078E+003
+3.03051314143E+007, +1.98769003292E+002, +1.80543365672E+003
+3.04927409262E+007, +1.85829717524E+002, +1.85819619157E+003
+3.06803504380E+007, +2.08393084349E+002, +1.86673067716E+003
+3.08679599499E+007, +1.98507728424E+002, +1.90189309624E+003
+3.10555694618E+007, +2.00626798852E+002, +1.93414465025E+003
+3.12431789737E+007, +2.26109775231E+002, +1.96348377654E+003
+3.14307884856E+007, +2.23145926316E+002, +2.00091479554E+003
+3.16183979975E+007, +1.97358425526E+002, +2.04175142646E+003
+3.18060075094E+007, +2.28530609322E+002, +2.07942036703E+003
+3.19936170213E+007, +2.47710723429E+002, +2.10397133589E+003
+3.21812265332E+007, +2.82665689103E+002, +2.13592276242E+003
+3.23688360451E+007, +2.52261038753E+002, +2.19609270185E+003
+3.25564455569E+007, +2.65995906252E+002, +2.25748818328E+003
+3.27440550688E+007, +2.99937882894E+002, +2.29380836982E+003
+3.29316645807E+007, +2.85686828164E+002, +2.34231156959E+003
+3.31192740926E+007, +2.86967196174E+002, +2.38980987453E+003
+3.33068836045E+007, +2.73820391665E+002, +2.43772098853E+003
+3.34944931164E+007, +3.22623571021E+002, +2.50480722902E+003
+3.36821026283E+007, +3.37401521504E+002, +2.52331172550E+003
+3.38697121402E+007, +2.98207215128E+002, +2.60660277634E+003
+3.40573216521E+007, +3.31877124316E+002, +2.65061390920E+003
+3.42449311640E+007, +3.74583300677E+002, +2.68850027559E+003
+3.44325406758E+007, +3.39706390897E+002, +2.79343587191E+003
+3.46201501877E+007, +3.42233572346E+002, +2.79980693219E+003
+3.48077596996E+007, +4.15590374566E+002, +2.90468111659E+003
+3.49953692115E+007, +4.58887041976E+002, +3.00472936071E+003
+3.51829787234E+007, +4.77632070640E+002, +3.02529479916E+003
+3.53705882353E+007, +4.98365820469E+002, +3.03477614472E+003
+3.55581977472E+007, +4.77855948208E+002, +3.20719151994E+003
+3.57458072591E+007, +5.38880138548E+002, +3.20246204067E+003
+3.59334167710E+007, +5.53595464615E+002, +3.32139977346E+003
+3.61210262829E+007, +5.93011226102E+002, +3.38875029533E+003
+3.63086357947E+007, +6.35461549488E+002, +3.49181979939E+003
+3.64962453066E+007, +6.15791588745E+002, +3.56693883089E+003
+3.66838548185E+007, +6.88736382106E+002, +3.73262448406E+003
+3.68714643304E+007, +6.88929764660E+002, +3.84076087541E+003
+3.70590738423E+007, +7.15720275775E+002, +3.87447783525E+003
+3.72466833542E+007, +7.74649323981E+002, +4.08018489467E+003
+3.74342928661E+007, +8.23177082076E+002, +4.13772391789E+003
+3.76219023780E+007, +8.95738752175E+002, +4.22640294778E+003
+3.78095118899E+007, +1.03010423266E+003, +4.38315158508E+003
+3.79971214018E+007, +1.02905721100E+003, +4.61958837379E+003
+3.81847309136E+007, +1.05377196201E+003, +4.70743518381E+003
+3.83723404255E+007, +1.25630323380E+003, +4.80595005102E+003
+3.85599499374E+007, +1.24589096918E+003, +5.08941724023E+003
+3.87475594493E+007, +1.48308041106E+003, +5.22563946694E+003
+3.89351689612E+007, +1.53018092039E+003, +5.56366400111E+003
+3.91227784731E+007, +1.82503165157E+003, +5.80982047445E+003
+3.93103879850E+007, +1.83549107546E+003, +6.13694573913E+003
+3.94979974969E+007, +2.05859894788E+003, +6.14797369426E+003
+3.96856070088E+007, +2.28661134230E+003, +6.54406799274E+003
+3.98732165207E+007, +2.48625340560E+003, +7.00434344873E+003
+4.00608260325E+007, +2.79861805636E+003, +7.09566838149E+003
+4.02484355444E+007, +3.12451562336E+003, +7.37177035750E+003
+4.04360450563E+007, +3.69289959905E+003, +7.79621724644E+003
+4.06236545682E+007, +3.78577484470E+003, +8.32701225768E+003
+4.08112640801E+007, +4.77469662996E+003, +8.45661399319E+003
+4.09988735920E+007, +5.74248548854E+003, +8.77941330085E+003
+4.11864831039E+007, +6.27063158834E+003, +9.33128256758E+003
+4.13740926158E+007, +7.33963720569E+003, +9.16802269548E+003
+4.15617021277E+007, +7.62390616521E+003, +9.63035166150E+003
+4.17493116395E+007, +9.19734427988E+003, +9.52110253923E+003
+4.19369211514E+007, +1.11435827568E+004, +9.09109426577E+003
+4.21245306633E+007, +1.12838121407E+004, +7.85286727760E+003
+4.23121401752E+007, +1.26611434205E+004, +8.37615097395E+003
+4.24997496871E+007, +1.38041083070E+004, +7.08570316155E+003
+4.26873591990E+007, +1.41834498099E+004, +5.44257932699E+003
+4.28749687109E+007, +1.58065975532E+004, +3.12601644647E+003
+4.30625782228E+007, +1.51733200318E+004, +1.98391903427E+003
+4.32501877347E+007, +1.59872679814E+004, +1.72203895998E+003
+4.34377972466E+007, +1.65293539346E+004, -1.93223186260E+003
+4.36254067584E+007, +1.62914069121E+004, -4.39072328430E+003
+4.38130162703E+007, +1.62632928448E+004, -5.16769803040E+003
+4.40006257822E+007, +1.36286379305E+004, -6.19985752415E+003
+4.41882352941E+007, +1.31166453528E+004, -7.05189084595E+003
+4.43758448060E+007, +1.09514943741E+004, -7.77128246457E+003
+4.45634543179E+007, +9.80872064228E+003, -8.27818693252E+003
+4.47510638298E+007, +8.89102409194E+003, -7.84828207200E+003
+4.49386733417E+007, +7.92185281139E+003, -8.16503750626E+003
+4.51262828536E+007, +6.72225296331E+003, -8.37211656802E+003
+4.53138923655E+007, +6.50671488515E+003, -7.93902730655E+003
+4.55015018773E+007, +5.50136242514E+003, -7.60008510656E+003
+4.56891113892E+007, +4.94171357202E+003, -7.13912748855E+003
+4.58767209011E+007, +4.80274315274E+003, -7.53696470861E+003
+4.60643304130E+007, +4.25965275477E+003, -7.02990382935E+003
+4.62519399249E+007, +3.88892639895E+003, -6.74057115108E+003
+4.64395494368E+007, +3.51138410842E+003, -6.41012696232E+003
+4.66271589487E+007, +3.22136264574E+003, -6.28386546689E+003
+4.68147684606E+007, +3.04370853556E+003, -5.96163880197E+003
+4.70023779725E+007, +2.96767786243E+003, -5.72808549321E+003
+4.71899874844E+007, +2.68110988886E+003, -5.51827028496E+003
+4.73775969962E+007, +2.36594045084E+003, -5.39964680694E+003
+4.75652065081E+007, +2.47625031969E+003, -5.24130236211E+003
+4.77528160200E+007, +2.24284762400E+003, -5.08629490644E+003
+4.79404255319E+007, +2.32696915702E+003, -4.88498547855E+003
+4.81280350438E+007, +1.98889809330E+003, -4.73771010034E+003
+4.83156445557E+007, +1.80993826807E+003, -4.57434411419E+003
+4.85032540676E+007, +1.75728431799E+003, -4.56457334981E+003
+4.86908635795E+007, +1.56949314655E+003, -4.38725169351E+003
+4.88784730914E+007, +1.48156342952E+003, -4.24018523111E+003
+4.90660826033E+007, +1.30178302914E+003, -4.13287643687E+003
+4.92536921151E+007, +1.27827633913E+003, -3.99187275860E+003
+4.94413016270E+007, +1.27979694371E+003, -3.87850914608E+003
+4.96289111389E+007, +1.18358794895E+003, -3.72398215837E+003
+4.98165206508E+007, +1.14872037487E+003, -3.69389426902E+003
+5.00041301627E+007, +1.08358080236E+003, -3.57317087611E+003
+5.01917396746E+007, +1.08781164244E+003, -3.53833345037E+003
+5.03793491865E+007, +1.04758658031E+003, -3.40308915990E+003
+5.05669586984E+007, +1.00428479109E+003, -3.33865955199E+003
+5.07545682103E+007, +9.26919476453E+002, -3.22648776209E+003
+5.09421777222E+007, +9.07048090378E+002, -3.11127335005E+003
+5.11297872340E+007, +8.87931852923E+002, -3.13634468959E+003
+5.13173967459E+007, +8.50669687729E+002, -3.03713102628E+003
+5.15050062578E+007, +8.14064617167E+002, -3.00311008892E+003
+5.16926157697E+007, +7.64329639108E+002, -2.92831004581E+003
+5.18802252816E+007, +7.16299529880E+002, -2.82746722319E+003
+5.20678347935E+007, +7.31420099968E+002, -2.81161130622E+003
+5.22554443054E+007, +7.29692899286E+002, -2.74169986431E+003
+5.24430538173E+007, +6.83203353241E+002, -2.68687431195E+003
+5.26306633292E+007, +6.70674498319E+002, -2.64615628925E+003
+5.28182728411E+007, +6.28773997507E+002, -2.59916763188E+003
+5.30058823529E+007, +6.19057619773E+002, -2.54727125216E+003
+5.31934918648E+007, +5.96067119058E+002, -2.44809501247E+003
+5.33811013767E+007, +5.76130673612E+002, -2.44263429250E+003
+5.35687108886E+007, +5.54815926115E+002, -2.38421575126E+003
+5.37563204005E+007, +5.41424140307E+002, -2.32547681469E+003
+5.39439299124E+007, +5.11498076104E+002, -2.30168059370E+003
+5.41315394243E+007, +4.93275624035E+002, -2.25212394778E+003
+5.43191489362E+007, +4.86685645167E+002, -2.21416994758E+003
+5.45067584481E+007, +4.98613838464E+002, -2.16678221214E+003
+5.46943679599E+007, +4.34294675154E+002, -2.13630073114E+003
+5.48819774718E+007, +4.46326437918E+002, -2.10162819717E+003
+5.50695869837E+007, +4.39168325813E+002, -2.04708797947E+003
+5.52571964956E+007, +4.33289741720E+002, -2.03977749189E+003
+5.54448060075E+007, +4.62738614888E+002, -1.99937084002E+003
+5.56324155194E+007, +4.25146523785E+002, -1.98062054910E+003
+5.58200250313E+007, +4.05042612303E+002, -1.91682565314E+003
+5.60076345432E+007, +4.12801736765E+002, -1.90869238861E+003
+5.61952440551E+007, +3.84070372150E+002, -1.86720296375E+003
+5.63828535670E+007, +3.76950578774E+002, -1.83308259722E+003
+5.65704630788E+007, +3.56403898804E+002, -1.83508839038E+003
+5.67580725907E+007, +3.49811108024E+002, -1.79189686054E+003
+5.69456821026E+007, +3.46348738556E+002, -1.77174438410E+003
+5.71332916145E+007, +3.26445394478E+002, -1.73428856266E+003
+5.73209011264E+007, +3.01235379405E+002, -1.70471089587E+003
+5.75085106383E+007, +2.90237225953E+002, -1.67853682072E+003
+5.76961201502E+007, +2.86535636684E+002, -1.64657116906E+003
+5.78837296621E+007, +2.75893435079E+002, -1.62699410969E+003
+5.80713391740E+007, +2.71446123587E+002, -1.60291041697E+003
+5.82589486859E+007, +2.68580848999E+002, -1.55508293499E+003
+5.84465581977E+007, +2.46992007962E+002, -1.54267273868E+003
+5.86341677096E+007, +2.44300723312E+002, -1.50293304803E+003
+5.88217772215E+007, +2.35163678977E+002, -1.47933717730E+003
+5.90093867334E+007, +2.35500197305E+002, -1.45408176079E+003
+5.91969962453E+007, +2.32756342417E+002, -1.42844275576E+003
+5.93846057572E+007, +2.19791113742E+002, -1.39381136397E+003
+5.95722152691E+007, +2.20056692268E+002, -1.37447339041E+003
+5.97598247810E+007, +2.19221479622E+002, -1.35971005712E+003
+5.99474342929E+007, +2.08662157752E+002, -1.33607218824E+003
+6.01350438048E+007, +2.03939452357E+002, -1.31041732672E+003
