"# Channel 1"
"# Trace 1"
Frequency, Formatted Data, Formatted Data
+1.00000000000E+005, +1.02398385208E+000, +3.23254059233E+000
+2.25031289111E+005, +1.01842014799E+000, +7.26021839954E+000
+3.50062578223E+005, +1.02786494079E+000, +1.13169758914E+001
+4.75093867334E+005, +1.05668289099E+000, +1.53779323771E+001
+6.00125156446E+005, +1.07012543623E+000, +1.94132775029E+001
+7.25156445557E+005, +1.12131949448E+000, +2.34206975820E+001
+8.50187734668E+005, +1.20536925998E+000, +2.74127466821E+001
+9.75219023780E+005, +1.20815924117E+000, +3.14400559626E+001
+1.10025031289E+006, +1.27052569026E+000, +3.53978978917E+001
+1.22528160200E+006, +1.33984354471E+000, +3.94457644072E+001
+1.35031289111E+006, +1.33510892480E+000, +4.34878329610E+001
+1.47534418023E+006, +1.37040718375E+000, +4.73756516978E+001
+1.60037546934E+006, +1.36817229373E+000, +5.13252331318E+001
+1.72540675845E+006, +1.42979520306E+000, +5.53580383356E+001
+1.85043804756E+006, +1.47148062775E+000, +5.92663161103E+001
+1.97546933667E+006, +1.45825402742E+000, +6.32383441918E+001
+2.10050062578E+006, +1.48259775137E+000, +6.72673214093E+001
+2.22553191489E+006, +1.44201054737E+000, +7.13959595388E+001
+2.35056320401E+006, +1.42733446984E+000, +7.52988577753E+001
+2.47559449312E+006, +1.41725300930E+000, +7.92288247286E+001
+2.60062578223E+006, +1.47166774426E+000, +8.31930719874E+001
+2.72565707134E+006, +1.50341955707E+000, +8.72539038598E+001
+2.85068836045E+006, +1.47024271915E+000, +9.13066214623E+001
+2.97571964956E+006, +1.50961988782E+000, +9.52206314835E+001
+3.10075093867E+006, +1.57562523272E+000, +9.94489095065E+001
+3.22578222778E+006, +1.57461525917E+000, +1.03335532434E+002
+3.35081351690E+006, +1.64264262827E+000, +1.07455363120E+002
+3.47584480601E+006, +1.69920231697E+000, +1.11242682334E+002
+3.60087609512E+006, +1.86019879645E+000, +1.15263957565E+002
+3.72590738423E+006, +1.63156503687E+000, +1.19593004157E+002
+3.85093867334E+006, +1.69497504733E+000, +1.23525635967E+002
+3.97596996245E+006, +1.80757194320E+000, +1.27378218336E+002
+4.10100125156E+006, +1.64703833970E+000, +1.31772121610E+002
+4.22603254068E+006, +1.54120554525E+000, +1.35360616183E+002
+4.35106382979E+006, +1.66485334357E+000, +1.39915134542E+002
+4.47609511890E+006, +1.82484251502E+000, +1.43708381006E+002
+4.60112640801E+006, +1.56982307095E+000, +1.48053742378E+002
+4.72615769712E+006, +1.41957301750E+000, +1.51781157845E+002
+4.85118898623E+006, +1.52788705345E+000, +1.55977094351E+002
+4.97622027534E+006, +1.50426530752E+000, +1.60273317711E+002
+5.10125156446E+006, +1.13413791256E+000, +1.64084832698E+002
+5.22628285357E+006, +1.62191836310E+000, +1.68286222015E+002
+5.35131414268E+006, +1.72027875944E+000, +1.72388415207E+002
+5.47634543179E+006, +1.42456616193E+000, +1.76805839108E+002
+5.60137672090E+006, +1.83327056803E+000, +1.81119574297E+002
+5.72640801001E+006, +1.48239358206E+000, +1.85087931824E+002
+5.85143929912E+006, +1.88085185444E+000, +1.89442554394E+002
+5.97647058824E+006, +1.87305381671E+000, +1.93345710031E+002
+6.10150187735E+006, +1.66794073517E+000, +1.97548867272E+002
+6.22653316646E+006, +2.08145777952E+000, +2.01642368937E+002
+6.35156445557E+006, +1.91243628889E+000, +2.06273372787E+002
+6.47659574468E+006, +2.17105743071E+000, +2.10638354819E+002
+6.60162703379E+006, +2.02297514905E+000, +2.14803612817E+002
+6.72665832290E+006, +2.02126611653E+000, +2.19003234967E+002
+6.85168961202E+006, +2.12765402674E+000, +2.23368223346E+002
+6.97672090113E+006, +2.08226457666E+000, +2.27545207721E+002
+7.10175219024E+006, +2.17464249988E+000, +2.31572446768E+002
+7.22678347935E+006, +2.18320745143E+000, +2.35922343528E+002
+7.35181476846E+006, +2.06574320099E+000, +2.40299537896E+002
+7.47684605757E+006, +1.98066587260E+000, +2.44997053233E+002
+7.60187734668E+006, +2.14680301498E+000, +2.48484741179E+002
+7.72690863579E+006, +2.59096005794E+000, +2.52841878891E+002
+7.85193992491E+006, +2.52945968958E+000, +2.57730988764E+002
+7.97697121402E+006, +2.54966202889E+000, +2.62216376110E+002
+8.10200250313E+006, +2.55361593074E+000, +2.66520349452E+002
+8.22703379224E+006, +2.15326563776E+000, +2.71087350839E+002
+8.35206508135E+006, +2.13042961305E+000, +2.75471985423E+002
+8.47709637046E+006, +2.24822098815E+000, +2.79696139879E+002
+8.60212765957E+006, +2.61619957907E+000, +2.84566853852E+002
+8.72715894869E+006, +2.03351678076E+000, +2.88812354087E+002
+8.85219023780E+006, +2.58561407713E+000, +2.93865134407E+002
+8.97722152691E+006, +2.49764211636E+000, +2.97771086014E+002
+9.10225281602E+006, +2.63080790685E+000, +3.02626108258E+002
+9.22728410513E+006, +2.26925249650E+000, +3.06742175079E+002
+9.35231539424E+006, +2.33705485398E+000, +3.11667555220E+002
+9.47734668335E+006, +2.35025133759E+000, +3.15472675318E+002
+9.60237797247E+006, +1.92899060729E+000, +3.20672143691E+002
+9.72740926158E+006, +2.74922652571E+000, +3.25684341679E+002
+9.85244055069E+006, +2.86730871804E+000, +3.29352063796E+002
+9.97747183980E+006, +2.40763384236E+000, +3.34153744929E+002
+1.01025031289E+007, +1.82612689771E+000, +3.38975343899E+002
+1.02275344180E+007, +2.25671427318E+000, +3.43791200311E+002
+1.03525657071E+007, +2.21595285196E+000, +3.48251011324E+002
+1.04775969962E+007, +2.57099951285E+000, +3.53195604022E+002
+1.06026282854E+007, +1.84801931020E+000, +3.57445100905E+002
+1.07276595745E+007, +2.23441244141E+000, +3.63016211554E+002
+1.08526908636E+007, +1.71241622718E+000, +3.67600955829E+002
+1.09777221527E+007, +1.52004034452E+000, +3.73243404095E+002
+1.11027534418E+007, +2.31415528828E+000, +3.77443154130E+002
+1.12277847309E+007, +2.11549971127E+000, +3.81763663668E+002
+1.13528160200E+007, +1.64195344931E+000, +3.87348988646E+002
+1.14778473091E+007, +1.55355894922E+000, +3.91881028486E+002
+1.16028785982E+007, +1.65571189781E+000, +3.97005038171E+002
+1.17279098874E+007, +2.03976294414E+000, +4.02507014762E+002
+1.18529411765E+007, +7.00505980880E-001, +4.06123883424E+002
+1.19779724656E+007, +1.83109145196E+000, +4.11425612255E+002
+1.21030037547E+007, +1.90842150742E+000, +4.17605779116E+002
+1.22280350438E+007, +1.62885305636E+000, +4.21958425419E+002
+1.23530663329E+007, +2.36117796302E+000, +4.28709287929E+002
+1.24780976220E+007, +1.54454512475E+000, +4.32552407970E+002
+1.26031289111E+007, +5.72752853159E-001, +4.37560028852E+002
+1.27281602003E+007, +9.00624150567E-001, +4.42612913228E+002
+1.28531914894E+007, +1.48653750557E+000, +4.48084864243E+002
+1.29782227785E+007, +4.97637465556E-001, +4.53317310717E+002
+1.31032540676E+007, +2.19867175015E+000, +4.58533428771E+002
+1.32282853567E+007, +9.16247475816E-001, +4.64240682369E+002
+1.33533166458E+007, +2.00913438428E+000, +4.68810489636E+002
+1.34783479349E+007, +2.95536372941E-001, +4.75862550039E+002
+1.36033792240E+007, +1.53518642684E+000, +4.80400196982E+002
+1.37284105131E+007, +4.78963632276E-001, +4.85386381995E+002
+1.38534418023E+007, +1.00229065748E+000, +4.90540720414E+002
+1.39784730914E+007, +1.60538141430E+000, +4.96058515489E+002
+1.41035043805E+007, +1.74488823108E+000, +5.02408593629E+002
+1.42285356696E+007, +8.53495222369E-001, +5.07780785648E+002
+1.43535669587E+007, +1.25956610473E+000, +5.14266610683E+002
+1.44785982478E+007, +2.29652179670E-001, +5.18343461588E+002
+1.46036295369E+007, +1.22911536336E+000, +5.24878854499E+002
+1.47286608260E+007, -1.27759980556E-001, +5.31151382339E+002
+1.48536921151E+007, +3.72513410344E-001, +5.36450515223E+002
+1.49787234043E+007, +1.88660985591E+000, +5.43368063508E+002
+1.51037546934E+007, +9.61068004169E-001, +5.46271808695E+002
+1.52287859825E+007, +9.84256032152E-001, +5.51530700438E+002
+1.53538172716E+007, +4.40225946910E-001, +5.59817441415E+002
+1.54788485607E+007, +1.34739158410E+000, +5.66542137561E+002
+1.56038798498E+007, +1.12933781726E+000, +5.71334163097E+002
+1.57289111389E+007, +1.13483017339E+000, +5.77204594071E+002
+1.58539424280E+007, +1.08781838184E+000, +5.82105351825E+002
+1.59789737171E+007, -7.46695173004E-001, +5.89546544282E+002
+1.61040050063E+007, +5.95485335993E-001, +5.95174221946E+002
+1.62290362954E+007, +5.82466528752E-001, +6.03487173107E+002
+1.63540675845E+007, +1.47039296373E+000, +6.09045635659E+002
+1.64790988736E+007, -6.50562824921E-002, +6.14198149448E+002
+1.66041301627E+007, -5.87847924086E-001, +6.21944829288E+002
+1.67291614518E+007, -4.51756101722E-001, +6.29989630221E+002
+1.68541927409E+007, +6.50312004110E-001, +6.36648774603E+002
+1.69792240300E+007, -2.48228707764E+000, +6.40587008526E+002
+1.71042553191E+007, -3.65141583863E+000, +6.49635095183E+002
+1.72292866083E+007, -1.55094172263E+000, +6.54627846722E+002
+1.73543178974E+007, -7.49570481680E-001, +6.64509016835E+002
+1.74793491865E+007, -8.91795745821E-001, +6.68303285234E+002
+1.76043804756E+007, -1.54313189896E+000, +6.76925145466E+002
+1.77294117647E+007, -1.18499417511E+000, +6.81559829190E+002
+1.78544430538E+007, -6.49282019635E-001, +6.90447122504E+002
+1.79794743429E+007, -8.70342822290E-001, +6.95244346268E+002
+1.81045056320E+007, -2.11386541656E+000, +7.06187415010E+002
+1.82295369212E+007, -9.79578397427E-001, +7.08816332621E+002
+1.83545682103E+007, -1.32237148549E+000, +7.20741259033E+002
+1.84795994994E+007, +3.88849108231E+000, +7.26114059869E+002
+1.86046307885E+007, +1.68682126409E-001, +7.33270355525E+002
+1.87296620776E+007, -1.37063663081E+000, +7.43627516583E+002
+1.88546933667E+007, -1.08927497450E+000, +7.47114219457E+002
+1.89797246558E+007, -3.43429568035E+000, +7.54175250489E+002
+1.91047559449E+007, +1.97193146539E+000, +7.62233721147E+002
+1.92297872340E+007, -1.39446082885E-002, +7.72560429934E+002
+1.93548185232E+007, -5.37477565003E-001, +7.79619764289E+002
+1.94798498123E+007, -1.37127804453E+000, +7.86900870083E+002
+1.96048811014E+007, -1.90890731811E+000, +7.94538482804E+002
+1.97299123905E+007, -3.51457954415E-001, +8.01941348018E+002
+1.98549436796E+007, -1.46829888539E+000, +8.13246350884E+002
+1.99799749687E+007, +1.36363874520E+000, +8.19121514669E+002
+2.01050062578E+007, -3.25357232017E+000, +8.27632813006E+002
+2.02300375469E+007, -7.04676957478E-001, +8.35995067242E+002
+2.03550688360E+007, -3.26506591805E+000, +8.48033693648E+002
+2.04801001252E+007, -1.35234728707E+000, +8.52749774171E+002
+2.06051314143E+007, +5.07939842396E-001, +8.66344937744E+002
+2.07301627034E+007, +1.12170470668E-001, +8.71354554831E+002
+2.08551939925E+007, +5.34087692705E-002, +8.81913897751E+002
+2.09802252816E+007, +2.16953414269E+000, +8.89008197807E+002
+2.11052565707E+007, +1.28408689531E-001, +9.01277734571E+002
+2.12302878598E+007, -2.24852697344E-001, +9.09705779888E+002
+2.13553191489E+007, +4.50720390416E+000, +9.11805724505E+002
+2.14803504380E+007, +9.33828968851E-001, +9.27392641411E+002
+2.16053817272E+007, -2.95668793543E+000, +9.40174182800E+002
+2.17304130163E+007, -1.04712925619E+000, +9.50047293773E+002
+2.18554443054E+007, +3.84971831089E+000, +9.59971310757E+002
+2.19804755945E+007, +1.34426510540E+000, +9.70468185609E+002
+2.21055068836E+007, -9.57451557957E-001, +9.82508480332E+002
+2.22305381727E+007, +4.11861145017E+000, +9.88857103051E+002
+2.23555694618E+007, +5.59051397252E+000, +1.00015894124E+003
+2.24806007509E+007, +5.84599746271E+000, +1.00775869312E+003
+2.26056320401E+007, +1.02001211494E+001, +1.02588954984E+003
+2.27306633292E+007, +8.51946213103E+000, +1.02777685644E+003
+2.28556946183E+007, +6.15317216989E+000, +1.04032782315E+003
+2.29807259074E+007, +9.44252310178E+000, +1.05671568892E+003
+2.31057571965E+007, +1.11464915746E+001, +1.06177849933E+003
+2.32307884856E+007, +1.70978207304E+001, +1.07887402615E+003
+2.33558197747E+007, +1.37017144162E+001, +1.08247851282E+003
+2.34808510638E+007, +1.54835864018E+001, +1.09338551132E+003
+2.36058823529E+007, +1.59092798759E+001, +1.11264795278E+003
+2.37309136421E+007, +1.65823667288E+001, +1.11769923939E+003
+2.38559449312E+007, +2.24025129408E+001, +1.13492562888E+003
+2.39809762203E+007, +1.82726793580E+001, +1.13819237447E+003
+2.41060075094E+007, +1.89030105235E+001, +1.14642034399E+003
+2.42310387985E+007, +2.20695894917E+001, +1.16731965653E+003
+2.43560700876E+007, +2.50086809893E+001, +1.16726433406E+003
+2.44811013767E+007, +2.15540355244E+001, +1.18215584097E+003
+2.46061326658E+007, +2.37579535760E+001, +1.19367444779E+003
+2.47311639549E+007, +1.23711130501E+001, +1.20042900099E+003
+2.48561952441E+007, +2.55123729136E+001, +1.22489443981E+003
+2.49812265332E+007, +2.46646305837E+001, +1.23618739912E+003
+2.51062578223E+007, +2.92109620996E+001, +1.23390113464E+003
+2.52312891114E+007, +2.25455773564E+001, +1.24655474212E+003
+2.53563204005E+007, +1.60532568810E+001, +1.27221267170E+003
+2.54813516896E+007, +1.19065388884E+001, +1.27960717841E+003
+2.56063829787E+007, +1.41669178924E+001, +1.29276477658E+003
+2.57314142678E+007, +1.86746237134E+001, +1.31336186660E+003
+2.58564455569E+007, +1.50952049400E+001, +1.32298026896E+003
+2.59814768461E+007, +2.48021919299E+001, +1.33952703510E+003
+2.61065081352E+007, +1.63426063674E+001, +1.35184478500E+003
+2.62315394243E+007, +6.65890530716E+000, +1.37456383239E+003
+2.63565707134E+007, +1.06056623140E+001, +1.38404030019E+003
+2.64816020025E+007, +1.31339701452E+001, +1.41309475424E+003
+2.66066332916E+007, +2.16457801904E+001, +1.41810814654E+003
+2.67316645807E+007, +1.92319865914E+001, +1.43893844459E+003
+2.68566958698E+007, +2.32817613265E+001, +1.45157916969E+003
+2.69817271589E+007, +2.16848283542E+001, +1.48003494868E+003
+2.71067584481E+007, +1.47797792814E+001, +1.49712635636E+003
+2.72317897372E+007, +2.62272015396E+001, +1.50387374193E+003
+2.73568210263E+007, +3.24109550847E+001, +1.52792278027E+003
+2.74818523154E+007, +2.63550555898E+001, +1.53866044292E+003
+2.76068836045E+007, +1.81914139474E+001, +1.55022954824E+003
+2.77319148936E+007, +3.40550692924E+001, +1.56504270874E+003
+2.78569461827E+007, +2.10910134866E+001, +1.59369342165E+003
+2.79819774718E+007, +1.83250632864E+001, +1.60800380830E+003
+2.81070087610E+007, +2.13282267584E+001, +1.63262974751E+003
+2.82320400501E+007, +1.16182244749E+001, +1.65927094344E+003
+2.83570713392E+007, +1.41526406926E+001, +1.66334436280E+003
+2.84821026283E+007, +1.75351467715E+001, +1.68876430360E+003
+2.86071339174E+007, -6.53581370259E+000, +1.71787792886E+003
+2.87321652065E+007, +2.32866072848E+001, +1.74361854368E+003
+2.88571964956E+007, +1.23496352672E+001, +1.76927385718E+003
+2.89822277847E+007, +1.43945210569E+001, +1.80773362844E+003
+2.91072590738E+007, +5.20904967553E+000, +1.83751907764E+003
+2.92322903630E+007, +8.24001772755E+000, +1.86217447544E+003
+2.93573216521E+007, +1.72134090561E+001, +1.87778483372E+003
+2.94823529412E+007, +2.06043256016E+001, +1.89718471304E+003
+2.96073842303E+007, +6.69114709522E-002, +1.94093824944E+003
+2.97324155194E+007, +1.00652421694E+001, +1.97125243992E+003
+2.98574468085E+007, +5.14322584965E+000, +2.00413811105E+003
+2.99824780976E+007, +2.20356492094E+001, +2.02772045233E+003
+3.01075093867E+007, +1.56050827653E+001, +2.03818442417E+003
+3.02325406758E+007, +1.17374398680E+000, +2.08707425007E+003
+3.03575719650E+007, -5.41295857504E+000, +2.11907226465E+003
+3.04826032541E+007, -3.43158141599E-001, +2.14813093916E+003
+3.06076345432E+007, +1.40831912275E+001, +2.15955226529E+003
+3.07326658323E+007, -4.61413651108E+000, +2.21075943180E+003
+3.08576971214E+007, -7.12078843803E-001, +2.23214874526E+003
+3.09827284105E+007, -2.48601249408E+001, +2.29870581071E+003
+3.11077596996E+007, -1.97110157794E+001, +2.32101508258E+003
+3.12327909887E+007, +7.08812512008E+000, +2.36292165155E+003
+3.13578222778E+007, +2.20989595008E+001, +2.39980582566E+003
+3.14828535670E+007, +2.22287660022E+001, +2.43926840483E+003
+3.16078848561E+007, +2.50370085365E+000, +2.48523093816E+003
+3.17329161452E+007, -1.47165696684E+000, +2.56247056020E+003
+3.18579474343E+007, -2.13755024469E+001, +2.64145007457E+003
+3.19829787234E+007, +4.54506166636E+000, +2.62415427261E+003
+3.21080100125E+007, +2.13875917807E+000, +2.69058935019E+003
+3.22330413016E+007, +7.14886360661E+000, +2.71898586898E+003
+3.23580725907E+007, -1.65063017115E+001, +2.78392272527E+003
+3.24831038798E+007, +1.39399778134E-001, +2.82690130053E+003
+3.26081351690E+007, +3.03749001707E+000, +2.89347896855E+003
+3.27331664581E+007, +1.05526088602E+001, +2.96301905459E+003
+3.28581977472E+007, -1.67364374735E+001, +3.06752647383E+003
+3.29832290363E+007, +3.99893069038E+001, +3.10877563759E+003
+3.31082603254E+007, -3.60945377755E+001, +3.15514674772E+003
+3.32332916145E+007, +5.80129992385E+001, +3.21417620479E+003
+3.33583229036E+007, -1.26522560182E+001, +3.33904740933E+003
+3.34833541927E+007, -1.71715841655E+001, +3.35368138002E+003
+3.36083854819E+007, -1.04651538567E+001, +3.43608280283E+003
+3.37334167710E+007, +2.57986386575E-001, +3.47598400444E+003
+3.38584480601E+007, +4.76951070913E+001, +3.58394171475E+003
+3.39834793492E+007, +2.83656492894E+001, +3.75345989997E+003
+3.41085106383E+007, +5.76167225358E+001, +3.83803490585E+003
+3.42335419274E+007, +4.72887420670E+001, +3.84847473356E+003
+3.43585732165E+007, +3.87696334163E+001, +4.00084562424E+003
+3.44836045056E+007, +9.48808716384E+001, +4.23577081450E+003
+3.46086357947E+007, +3.33040806807E+001, +4.26748453410E+003
+3.47336670839E+007, +1.95476064997E+001, +4.27798861660E+003
+3.48586983730E+007, +1.89935397683E+002, +4.48079597769E+003
+3.49837296621E+007, +9.14649254512E+001, +4.68419372787E+003
+3.51087609512E+007, +1.01559437167E+002, +4.79469857089E+003
+3.52337922403E+007, +2.11110604244E+002, +4.91242291453E+003
+3.53588235294E+007, +9.12880153208E+001, +5.00431058255E+003
+3.54838548185E+007, +2.72424809030E+002, +5.15889138088E+003
+3.56088861076E+007, +1.57948145543E+002, +5.47514881490E+003
+3.57339173967E+007, +1.50369993288E+002, +5.62376211805E+003
+3.58589486859E+007, +1.82790097332E+001, +5.69243500795E+003
+3.59839799750E+007, +1.98245512369E+002, +6.06055060532E+003
+3.61090112641E+007, +1.48638488666E+002, +6.36153488936E+003
+3.62340425532E+007, +1.82417203785E+002, +6.37199872381E+003
+3.63590738423E+007, +2.20142182504E+002, +6.77704595094E+003
+3.64841051314E+007, +2.85321988474E+002, +7.00144198688E+003
+3.66091364205E+007, +3.93884040621E+002, +7.30857935811E+003
+3.67341677096E+007, +2.36516722931E+002, +7.83886779243E+003
+3.68591989987E+007, +2.69224073493E+002, +8.29530673142E+003
+3.69842302879E+007, +6.13976462045E+002, +8.87855234292E+003
+3.71092615770E+007, +6.33615423838E+002, +9.22000089212E+003
+3.72342928661E+007, +1.46171543828E+002, +9.69089824952E+003
+3.73593241552E+007, +4.35111420665E+002, +1.11393004004E+004
+3.74843554443E+007, +4.09019489121E+002, +1.14078062927E+004
+3.76093867334E+007, +7.14976671887E+002, +1.14444884572E+004
+3.77344180225E+007, +8.14887536912E+002, +1.42797930502E+004
+3.78594493116E+007, +6.30496712507E+002, +1.45461478070E+004
+3.79844806008E+007, +1.28334732762E+003, +1.60130920832E+004
+3.81095118899E+007, +1.73645839635E+003, +1.76932636894E+004
+3.82345431790E+007, +1.16390194553E+003, +2.04154145466E+004
+3.83595744681E+007, +1.90770298265E+003, +2.18045776376E+004
+3.84846057572E+007, +2.28228329797E+003, +2.64128208808E+004
+3.86096370463E+007, +7.27526522079E+003, +3.50455317283E+004
+3.87346683354E+007, +1.19073526787E+004, +3.70126313667E+004
+3.88596996245E+007, +2.36987597142E+004, +5.63242200215E+004
+3.89847309136E+007, +4.57623055733E+004, +3.61866472356E+004
+3.91097622028E+007, +1.11905369501E+005, -7.10474711420E+003
+3.92347934919E+007, +8.15632059769E+004, -3.65305067976E+004
+3.93598247810E+007, +5.36311067179E+004, -4.60463606210E+004
+3.94848560701E+007, +2.54123568803E+004, -5.13019034364E+004
+3.96098873592E+007, +2.19648102437E+004, -4.51702632064E+004
+3.97349186483E+007, +1.25812487480E+004, -2.60259640957E+004
+3.98599499374E+007, +9.54481870943E+003, -2.35613438080E+004
+3.99849812265E+007, +3.93710050452E+003, -2.13137978475E+004
+4.01100125156E+007, +5.04673584222E+003, -1.88193010195E+004
