"# Channel 1"
"# Trace 1"
Frequency, Formatted Data, Formatted Data
+1.00000000000E+005, +3.70459398395E+001, +3.51370252342E+000
+2.87609511890E+005, +3.69722536760E+001, +9.82734576641E+000
+4.75219023780E+005, +3.70946028631E+001, +1.62113715466E+001
+6.62828535670E+005, +3.70597918280E+001, +2.26796410069E+001
+8.50438047559E+005, +3.70325165733E+001, +2.90996136516E+001
+1.03804755945E+006, +3.69986991772E+001, +3.55343869293E+001
+1.22565707134E+006, +3.70771553565E+001, +4.19018808286E+001
+1.41326658323E+006, +3.70892338189E+001, +4.83138264105E+001
+1.60087609512E+006, +3.71146655690E+001, +5.47535560915E+001
+1.78848560701E+006, +3.71265012632E+001, +6.11096285340E+001
+1.97609511890E+006, +3.71189669998E+001, +6.75725680891E+001
+2.16370463079E+006, +3.72931357787E+001, +7.40382463484E+001
+2.35131414268E+006, +3.71476684652E+001, +8.03484072286E+001
+2.53892365457E+006, +3.73260692801E+001, +8.68965733730E+001
+2.72653316646E+006, +3.73042228418E+001, +9.33372565864E+001
+2.91414267835E+006, +3.73166372764E+001, +9.97067978680E+001
+3.10175219024E+006, +3.73369972707E+001, +1.06122997842E+002
+3.28936170213E+006, +3.74866568304E+001, +1.12562190855E+002
+3.47697121402E+006, +3.75139353630E+001, +1.19019578460E+002
+3.66458072591E+006, +3.75331676712E+001, +1.25466299820E+002
+3.85219023780E+006, +3.76609544318E+001, +1.31823867455E+002
+4.03979974969E+006, +3.76492580591E+001, +1.38241554111E+002
+4.22740926158E+006, +3.75452799223E+001, +1.44966159258E+002
+4.41501877347E+006, +3.80163044226E+001, +1.51212096189E+002
+4.60262828536E+006, +3.79130899727E+001, +1.57760343530E+002
+4.79023779725E+006, +3.80421545825E+001, +1.64250854580E+002
+4.97784730914E+006, +3.80166741179E+001, +1.70722256917E+002
+5.16545682103E+006, +3.83015233703E+001, +1.77038877881E+002
+5.35306633292E+006, +3.84203053845E+001, +1.83717287846E+002
+5.54067584481E+006, +3.80419500516E+001, +1.89992247981E+002
+5.72828535670E+006, +3.85596255268E+001, +1.96627820951E+002
+5.91589486859E+006, +3.84657086574E+001, +2.03186479916E+002
+6.10350438048E+006, +3.85389835974E+001, +2.09482681655E+002
+6.29111389237E+006, +3.88811850581E+001, +2.16123929405E+002
+6.47872340426E+006, +3.91804929282E+001, +2.22656979337E+002
+6.66633291615E+006, +3.92260044872E+001, +2.29269205192E+002
+6.85394242804E+006, +3.94890281425E+001, +2.35764533087E+002
+7.04155193992E+006, +3.97077774197E+001, +2.42534960516E+002
+7.22916145181E+006, +3.97495734191E+001, +2.49024268296E+002
+7.41677096370E+006, +3.99939449079E+001, +2.55326289864E+002
+7.60438047559E+006, +4.00361994754E+001, +2.62088195225E+002
+7.79198998748E+006, +4.02488812364E+001, +2.68524192660E+002
+7.97959949937E+006, +4.04831217854E+001, +2.75308287327E+002
+8.16720901126E+006, +4.06230138528E+001, +2.81843162822E+002
+8.35481852315E+006, +4.07496634280E+001, +2.88520945317E+002
+8.54242803504E+006, +4.09815995838E+001, +2.95240253093E+002
+8.73003754693E+006, +4.13320171559E+001, +3.01897499502E+002
+8.91764705882E+006, +4.13689662786E+001, +3.08400347075E+002
+9.10525657071E+006, +4.17807604683E+001, +3.15239195156E+002
+9.29286608260E+006, +4.17504853322E+001, +3.21594380406E+002
+9.48047559449E+006, +4.20058679439E+001, +3.28773784197E+002
+9.66808510638E+006, +4.22648701051E+001, +3.35244404391E+002
+9.85569461827E+006, +4.22993486757E+001, +3.42221492099E+002
+1.00433041302E+007, +4.25393873655E+001, +3.49001888713E+002
+1.02309136421E+007, +4.27504580300E+001, +3.55534156770E+002
+1.04185231539E+007, +4.29624445581E+001, +3.61920370422E+002
+1.06061326658E+007, +4.33016830774E+001, +3.69191759086E+002
+1.07937421777E+007, +4.34816725550E+001, +3.75949042336E+002
+1.09813516896E+007, +4.35274484937E+001, +3.82634494338E+002
+1.11689612015E+007, +4.41616779187E+001, +3.89409200780E+002
+1.13565707134E+007, +4.37570322190E+001, +3.96520365626E+002
+1.15441802253E+007, +4.40219220160E+001, +4.03598625273E+002
+1.17317897372E+007, +4.41517555007E+001, +4.09915030016E+002
+1.19193992491E+007, +4.47965064887E+001, +4.16770230483E+002
+1.21070087610E+007, +4.50901635273E+001, +4.23782323357E+002
+1.22946182728E+007, +4.52575266753E+001, +4.30606633449E+002
+1.24822277847E+007, +4.51919606187E+001, +4.37955838901E+002
+1.26698372966E+007, +4.56307363089E+001, +4.45236893492E+002
+1.28574468085E+007, +4.60830154460E+001, +4.51867450358E+002
+1.30450563204E+007, +4.60980430102E+001, +4.59019664706E+002
+1.32326658323E+007, +4.65065071369E+001, +4.65772994106E+002
+1.34202753442E+007, +4.67917835715E+001, +4.72658632811E+002
+1.36078848561E+007, +4.74117220485E+001, +4.80093706359E+002
+1.37954943680E+007, +4.74401475071E+001, +4.86635431872E+002
+1.39831038798E+007, +4.75758450715E+001, +4.93782360650E+002
+1.41707133917E+007, +4.77543616344E+001, +5.00881996043E+002
+1.43583229036E+007, +4.77483482194E+001, +5.07953148431E+002
+1.45459324155E+007, +4.83001276553E+001, +5.15346248585E+002
+1.47335419274E+007, +4.88476344588E+001, +5.22390024269E+002
+1.49211514393E+007, +4.93310678344E+001, +5.29482557026E+002
+1.51087609512E+007, +4.93340229738E+001, +5.36074494622E+002
+1.52963704631E+007, +4.96733004211E+001, +5.44092768119E+002
+1.54839799750E+007, +5.02843685270E+001, +5.51295521391E+002
+1.56715894869E+007, +5.04818926464E+001, +5.58473559845E+002
+1.58591989987E+007, +5.13652836488E+001, +5.65878341767E+002
+1.60468085106E+007, +5.06620259365E+001, +5.73107388239E+002
+1.62344180225E+007, +5.13786657405E+001, +5.80562085443E+002
+1.64220275344E+007, +5.19614073842E+001, +5.87230375255E+002
+1.66096370463E+007, +5.20728704576E+001, +5.95265545404E+002
+1.67972465582E+007, +5.26225483217E+001, +6.02961055051E+002
+1.69848560701E+007, +5.23545661426E+001, +6.10450400007E+002
+1.71724655820E+007, +5.18558567183E+001, +6.17814607911E+002
+1.73600750939E+007, +5.22399101107E+001, +6.25858815428E+002
+1.75476846058E+007, +5.32904101206E+001, +6.33061380378E+002
+1.77352941176E+007, +5.45959229570E+001, +6.41139282212E+002
+1.79229036295E+007, +5.48730536274E+001, +6.48787397030E+002
+1.81105131414E+007, +5.51201092485E+001, +6.55764269555E+002
+1.82981226533E+007, +5.50777595498E+001, +6.63066994456E+002
+1.84857321652E+007, +5.62890357093E+001, +6.71012285479E+002
+1.86733416771E+007, +5.57724241096E+001, +6.79062058903E+002
+1.88609511890E+007, +5.66419783136E+001, +6.86761196580E+002
+1.90485607009E+007, +5.85012065436E+001, +6.94844044790E+002
+1.92361702128E+007, +5.89222173661E+001, +7.02832444927E+002
+1.94237797247E+007, +5.86309414175E+001, +7.09727190303E+002
+1.96113892365E+007, +5.90646058207E+001, +7.17962586647E+002
+1.97989987484E+007, +6.02305004894E+001, +7.26230089581E+002
+1.99866082603E+007, +5.97103212914E+001, +7.32245864745E+002
+2.01742177722E+007, +5.99494294703E+001, +7.41861304546E+002
+2.03618272841E+007, +6.14565576820E+001, +7.49321540582E+002
+2.05494367960E+007, +6.22531790546E+001, +7.57400994581E+002
+2.07370463079E+007, +6.25881398674E+001, +7.64033869372E+002
+2.09246558198E+007, +6.32795482117E+001, +7.73328333327E+002
+2.11122653317E+007, +6.28740912613E+001, +7.81393507366E+002
+2.12998748436E+007, +6.34160107553E+001, +7.89755251259E+002
+2.14874843554E+007, +6.34918280724E+001, +7.97580353715E+002
+2.16750938673E+007, +6.46173381570E+001, +8.05085686126E+002
+2.18627033792E+007, +6.47351950036E+001, +8.13688251498E+002
+2.20503128911E+007, +6.49022687421E+001, +8.22688804160E+002
+2.22379224030E+007, +6.62725436628E+001, +8.30373341168E+002
+2.24255319149E+007, +6.77141764381E+001, +8.38799798183E+002
+2.26131414268E+007, +6.77919439780E+001, +8.46662699017E+002
+2.28007509387E+007, +6.87777588509E+001, +8.56089836494E+002
+2.29883604506E+007, +7.00206603253E+001, +8.63427042002E+002
+2.31759699625E+007, +7.02821888802E+001, +8.73571268703E+002
+2.33635794743E+007, +7.19969081090E+001, +8.80925721133E+002
+2.35511889862E+007, +7.20967892628E+001, +8.88387784306E+002
+2.37387984981E+007, +7.25618864513E+001, +8.98550557617E+002
+2.39264080100E+007, +7.40340452417E+001, +9.06498554977E+002
+2.41140175219E+007, +7.38926157738E+001, +9.16918578304E+002
+2.43016270338E+007, +7.35069669507E+001, +9.25245336616E+002
+2.44892365457E+007, +7.52749466621E+001, +9.32878562703E+002
+2.46768460576E+007, +7.53331135717E+001, +9.42899574425E+002
+2.48644555695E+007, +7.69782530659E+001, +9.49386588698E+002
+2.50520650814E+007, +7.87846116243E+001, +9.59659187598E+002
+2.52396745932E+007, +7.91777789790E+001, +9.68200675315E+002
+2.54272841051E+007, +8.02656074339E+001, +9.77804969750E+002
+2.56148936170E+007, +7.75018440987E+001, +9.88071012393E+002
+2.58025031289E+007, +8.22606486710E+001, +9.96163056261E+002
+2.59901126408E+007, +8.20789673350E+001, +1.00645585693E+003
+2.61777221527E+007, +8.25484967814E+001, +1.01503025284E+003
+2.63653316646E+007, +8.39035681725E+001, +1.02311202308E+003
+2.65529411765E+007, +8.50401282763E+001, +1.03242000406E+003
+2.67405506884E+007, +8.45515197083E+001, +1.04315297650E+003
+2.69281602003E+007, +8.47549645604E+001, +1.05247891189E+003
+2.71157697121E+007, +8.71344533964E+001, +1.06191508175E+003
+2.73033792240E+007, +8.62479795003E+001, +1.07156789217E+003
+2.74909887359E+007, +8.84543251069E+001, +1.08216819401E+003
+2.76785982478E+007, +9.06154454825E+001, +1.08917371247E+003
+2.78662077597E+007, +9.04882374517E+001, +1.10034977035E+003
+2.80538172716E+007, +9.16556803636E+001, +1.11034155817E+003
+2.82414267835E+007, +9.29731262817E+001, +1.11831866453E+003
+2.84290362954E+007, +9.44553745550E+001, +1.12941747833E+003
+2.86166458073E+007, +9.45619493873E+001, +1.14002596675E+003
+2.88042553191E+007, +9.51000550384E+001, +1.14763174968E+003
+2.89918648310E+007, +9.74581282700E+001, +1.15830401424E+003
+2.91794743429E+007, +9.74537949888E+001, +1.17038631512E+003
+2.93670838548E+007, +1.01594021150E+002, +1.18229914596E+003
+2.95546933667E+007, +9.94337047738E+001, +1.18919572204E+003
+2.97423028786E+007, +1.00499602872E+002, +1.19979067761E+003
+2.99299123905E+007, +1.02505474993E+002, +1.21341580422E+003
+3.01175219024E+007, +1.03989881933E+002, +1.22367638633E+003
+3.03051314143E+007, +1.01558017778E+002, +1.23363768947E+003
+3.04927409262E+007, +1.02932247164E+002, +1.24498497334E+003
+3.06803504380E+007, +1.04383939067E+002, +1.25450832942E+003
+3.08679599499E+007, +1.02667107849E+002, +1.26264129245E+003
+3.10555694618E+007, +1.08971143720E+002, +1.27296053436E+003
+3.12431789737E+007, +1.06107770814E+002, +1.28906154831E+003
+3.14307884856E+007, +1.11054171675E+002, +1.29769339821E+003
+3.16183979975E+007, +1.10294670076E+002, +1.30815894681E+003
+3.18060075094E+007, +1.09287819383E+002, +1.31770124792E+003
+3.19936170213E+007, +1.10894584597E+002, +1.33152547368E+003
+3.21812265332E+007, +1.16119326551E+002, +1.34287814888E+003
+3.23688360451E+007, +1.19115609268E+002, +1.35488923486E+003
+3.25564455569E+007, +1.13892982288E+002, +1.36612400838E+003
+3.27440550688E+007, +1.20677655805E+002, +1.37691254752E+003
+3.29316645807E+007, +1.19363093132E+002, +1.38671415048E+003
+3.31192740926E+007, +1.19437893685E+002, +1.39979361239E+003
+3.33068836045E+007, +1.20966981685E+002, +1.41481224715E+003
+3.34944931164E+007, +1.22679432088E+002, +1.42299004751E+003
+3.36821026283E+007, +1.25409274779E+002, +1.43607576373E+003
+3.38697121402E+007, +1.26383457474E+002, +1.45230227233E+003
+3.40573216521E+007, +1.25287675039E+002, +1.46184295390E+003
+3.42449311640E+007, +1.28921682440E+002, +1.47366744200E+003
+3.44325406758E+007, +1.30501947340E+002, +1.48217371635E+003
+3.46201501877E+007, +1.32230282589E+002, +1.50229309585E+003
+3.48077596996E+007, +1.32690519293E+002, +1.51337829630E+003
+3.49953692115E+007, +1.35794492105E+002, +1.52227116777E+003
+3.51829787234E+007, +1.38498046022E+002, +1.53776415708E+003
+3.53705882353E+007, +1.41178819213E+002, +1.54955889369E+003
+3.55581977472E+007, +1.42473380863E+002, +1.56188908506E+003
+3.57458072591E+007, +1.41304688025E+002, +1.57901306948E+003
+3.59334167710E+007, +1.41590582582E+002, +1.58785608501E+003
+3.61210262829E+007, +1.48684526943E+002, +1.60453023817E+003
+3.63086357947E+007, +1.47588277237E+002, +1.61591714718E+003
+3.64962453066E+007, +1.54938719450E+002, +1.63491841963E+003
+3.66838548185E+007, +1.51597961744E+002, +1.64203828464E+003
+3.68714643304E+007, +1.53724408019E+002, +1.65481715177E+003
+3.70590738423E+007, +1.59398261889E+002, +1.67048228502E+003
+3.72466833542E+007, +1.53676535876E+002, +1.68627468370E+003
+3.74342928661E+007, +1.56211536717E+002, +1.70171825404E+003
+3.76219023780E+007, +1.57555640785E+002, +1.71892673431E+003
+3.78095118899E+007, +1.62555889239E+002, +1.72840846744E+003
+3.79971214018E+007, +1.67110809511E+002, +1.74232831215E+003
+3.81847309136E+007, +1.68824674309E+002, +1.76013472034E+003
+3.83723404255E+007, +1.70625751229E+002, +1.77852670969E+003
+3.85599499374E+007, +1.70950417382E+002, +1.78638422451E+003
+3.87475594493E+007, +1.75393958272E+002, +1.80501644592E+003
+3.89351689612E+007, +1.75960731679E+002, +1.81536191366E+003
+3.91227784731E+007, +1.77150004516E+002, +1.83316901425E+003
+3.93103879850E+007, +1.81637215849E+002, +1.84515012351E+003
+3.94979974969E+007, +1.87482483114E+002, +1.86648043387E+003
+3.96856070088E+007, +1.89104547225E+002, +1.88739440277E+003
+3.98732165207E+007, +1.89836377198E+002, +1.90079813292E+003
+4.00608260325E+007, +1.93610177470E+002, +1.91557267743E+003
+4.02484355444E+007, +1.89081377051E+002, +1.93051919609E+003
+4.04360450563E+007, +1.88745228367E+002, +1.95189308300E+003
+4.06236545682E+007, +1.98751794325E+002, +1.96896200197E+003
+4.08112640801E+007, +2.00427720571E+002, +1.98566162249E+003
+4.09988735920E+007, +2.03214965467E+002, +2.00403563396E+003
+4.11864831039E+007, +2.08109701010E+002, +2.01929249876E+003
+4.13740926158E+007, +2.05215820746E+002, +2.03851088014E+003
+4.15617021277E+007, +2.04546067390E+002, +2.05689111625E+003
+4.17493116395E+007, +2.11213596685E+002, +2.07098366337E+003
+4.19369211514E+007, +2.18278258134E+002, +2.09300552065E+003
+4.21245306633E+007, +2.28873212535E+002, +2.11183257163E+003
+4.23121401752E+007, +2.28708268776E+002, +2.12886441909E+003
+4.24997496871E+007, +2.33381761326E+002, +2.14123353829E+003
+4.26873591990E+007, +2.29804282593E+002, +2.16662347451E+003
+4.28749687109E+007, +2.40100788741E+002, +2.18311187636E+003
+4.30625782228E+007, +2.40546506354E+002, +2.20794619454E+003
+4.32501877347E+007, +2.31928578488E+002, +2.22440113367E+003
+4.34377972466E+007, +2.43934344205E+002, +2.24587341198E+003
+4.36254067584E+007, +2.40809939279E+002, +2.26261935744E+003
+4.38130162703E+007, +2.50782896191E+002, +2.30143531320E+003
+4.40006257822E+007, +2.54501709738E+002, +2.30528741188E+003
+4.41882352941E+007, +2.57374438001E+002, +2.33186920241E+003
+4.43758448060E+007, +2.75848186751E+002, +2.34373962149E+003
+4.45634543179E+007, +2.73773469539E+002, +2.37881714466E+003
+4.47510638298E+007, +2.74191057872E+002, +2.39997445186E+003
+4.49386733417E+007, +2.73440712493E+002, +2.42322017094E+003
+4.51262828536E+007, +2.79586311527E+002, +2.44446644884E+003
+4.53138923655E+007, +2.70833483706E+002, +2.47340696506E+003
+4.55015018773E+007, +2.86587548956E+002, +2.49355796226E+003
+4.56891113892E+007, +2.98831930711E+002, +2.51031402888E+003
+4.58767209011E+007, +2.84638627050E+002, +2.53008227283E+003
+4.60643304130E+007, +2.82946141963E+002, +2.55863957038E+003
+4.62519399249E+007, +3.05539226558E+002, +2.58210890498E+003
+4.64395494368E+007, +2.95732875144E+002, +2.61957178698E+003
+4.66271589487E+007, +3.16529976988E+002, +2.64406823335E+003
+4.68147684606E+007, +3.15710322685E+002, +2.66826389741E+003
+4.70023779725E+007, +3.33070487072E+002, +2.68770729458E+003
+4.71899874844E+007, +3.34751713261E+002, +2.71358605366E+003
+4.73775969962E+007, +3.27933741833E+002, +2.74199590667E+003
+4.75652065081E+007, +3.42732433940E+002, +2.76825001503E+003
+4.77528160200E+007, +3.45772852351E+002, +2.80094418835E+003
+4.79404255319E+007, +3.57512965674E+002, +2.83025184442E+003
+4.81280350438E+007, +3.61167893428E+002, +2.84934358181E+003
+4.83156445557E+007, +3.52390586053E+002, +2.88305639674E+003
+4.85032540676E+007, +3.62051932127E+002, +2.92524632355E+003
+4.86908635795E+007, +3.78599064041E+002, +2.93927672125E+003
+4.88784730914E+007, +3.91616069385E+002, +2.97699032905E+003
+4.90660826033E+007, +3.92377576582E+002, +3.01138867294E+003
+4.92536921151E+007, +4.01265305263E+002, +3.02476585840E+003
+4.94413016270E+007, +4.20054122148E+002, +3.06465776454E+003
+4.96289111389E+007, +4.30229451183E+002, +3.10455235726E+003
+4.98165206508E+007, +4.35051068578E+002, +3.14191401429E+003
+5.00041301627E+007, +4.43135759423E+002, +3.15891228069E+003
+5.01917396746E+007, +4.53200446363E+002, +3.19085578304E+003
+5.03793491865E+007, +4.65215986724E+002, +3.23501150362E+003
+5.05669586984E+007, +4.69096742188E+002, +3.26603366252E+003
+5.07545682103E+007, +4.64758668593E+002, +3.31525529435E+003
+5.09421777222E+007, +4.86007533536E+002, +3.35377504389E+003
+5.11297872340E+007, +4.97446715458E+002, +3.38204840656E+003
+5.13173967459E+007, +5.17606799321E+002, +3.41945253365E+003
+5.15050062578E+007, +5.17824213323E+002, +3.46645186373E+003
+5.16926157697E+007, +5.31436319376E+002, +3.50343763956E+003
+5.18802252816E+007, +5.41172110438E+002, +3.54471966469E+003
+5.20678347935E+007, +5.59456314380E+002, +3.56860821234E+003
+5.22554443054E+007, +5.79263753433E+002, +3.64033921690E+003
+5.24430538173E+007, +5.74149829309E+002, +3.66171177784E+003
+5.26306633292E+007, +6.21609785662E+002, +3.71348973346E+003
+5.28182728411E+007, +6.12101843447E+002, +3.74329605948E+003
+5.30058823529E+007, +6.24269069869E+002, +3.81601222117E+003
+5.31934918648E+007, +6.37734337573E+002, +3.84043460681E+003
+5.33811013767E+007, +6.82194572216E+002, +3.89171594608E+003
+5.35687108886E+007, +6.81746604430E+002, +3.96136338600E+003
+5.37563204005E+007, +7.19175410075E+002, +4.01358842125E+003
+5.39439299124E+007, +7.02778165289E+002, +4.04856205442E+003
+5.41315394243E+007, +6.98121971846E+002, +4.13950003466E+003
+5.43191489362E+007, +7.84455566390E+002, +4.16324900407E+003
+5.45067584481E+007, +7.30987672268E+002, +4.22429305873E+003
+5.46943679599E+007, +7.59109893579E+002, +4.27483106355E+003
+5.48819774718E+007, +8.01594889958E+002, +4.30506242207E+003
+5.50695869837E+007, +8.27139385695E+002, +4.38729543421E+003
+5.52571964956E+007, +8.38542148010E+002, +4.44135607577E+003
+5.54448060075E+007, +8.85383881107E+002, +4.51630923678E+003
+5.56324155194E+007, +8.80254732488E+002, +4.59702050014E+003
+5.58200250313E+007, +9.06262125809E+002, +4.60010140037E+003
+5.60076345432E+007, +9.45196795290E+002, +4.67383993500E+003
+5.61952440551E+007, +9.90601566679E+002, +4.77323027697E+003
+5.63828535670E+007, +1.01263068010E+003, +4.82285260639E+003
+5.65704630788E+007, +1.02420255287E+003, +4.89710266370E+003
+5.67580725907E+007, +1.08625903799E+003, +4.99063903847E+003
+5.69456821026E+007, +1.11650123952E+003, +5.04594215014E+003
+5.71332916145E+007, +1.13836603013E+003, +5.10492629203E+003
+5.73209011264E+007, +1.18347160377E+003, +5.19425054732E+003
+5.75085106383E+007, +1.17883601303E+003, +5.30683314096E+003
+5.76961201502E+007, +1.22007897298E+003, +5.35392198291E+003
+5.78837296621E+007, +1.23489142610E+003, +5.43057813749E+003
+5.80713391740E+007, +1.30547824557E+003, +5.48889045921E+003
+5.82589486859E+007, +1.31631157878E+003, +5.67757902248E+003
+5.84465581977E+007, +1.43968110228E+003, +5.68015682348E+003
+5.86341677096E+007, +1.41352419927E+003, +5.85037223087E+003
+5.88217772215E+007, +1.50973090151E+003, +5.92035601779E+003
+5.90093867334E+007, +1.59278909738E+003, +6.04713683337E+003
+5.91969962453E+007, +1.60435304700E+003, +6.12617648516E+003
+5.93846057572E+007, +1.69443313239E+003, +6.26055837385E+003
+5.95722152691E+007, +1.72963493156E+003, +6.31713421381E+003
+5.97598247810E+007, +1.81680024301E+003, +6.48168483637E+003
+5.99474342929E+007, +1.92928296551E+003, +6.56484693954E+003
+6.01350438048E+007, +2.01263338780E+003, +6.71848990290E+003
