"# Channel 1"
"# Trace 1"
Frequency, Formatted Data, Formatted Data
+1.00000000000E+005, +8.25484827207E-001, +3.64895090283E+000
+2.87609511890E+005, +7.99138566061E-001, +1.00041535655E+001
+4.75219023780E+005, +8.53350198016E-001, +1.66111038767E+001
+6.62828535670E+005, +9.87009474248E-001, +2.30047480988E+001
+8.50438047559E+005, +9.72157431550E-001, +2.94978468020E+001
+1.03804755945E+006, +9.89838429904E-001, +3.60885813213E+001
+1.22565707134E+006, +1.05025818007E+000, +4.24306510880E+001
+1.41326658323E+006, +1.19421385846E+000, +4.89225283232E+001
+1.60087609512E+006, +1.27508516327E+000, +5.53588141922E+001
+1.78848560701E+006, +1.22349772863E+000, +6.17883365355E+001
+1.97609511890E+006, +1.29618100379E+000, +6.82871412432E+001
+2.16370463079E+006, +1.35756793658E+000, +7.47621162024E+001
+2.35131414268E+006, +1.43129656869E+000, +8.11083725842E+001
+2.53892365457E+006, +1.24394113248E+000, +8.74965784530E+001
+2.72653316646E+006, +1.54554381229E+000, +9.39112517882E+001
+2.91414267835E+006, +1.44234008627E+000, +1.00574966480E+002
+3.10175219024E+006, +1.42701099045E+000, +1.06768101908E+002
+3.28936170213E+006, +1.41472014350E+000, +1.13246518273E+002
+3.47697121402E+006, +1.39162970405E+000, +1.19724162912E+002
+3.66458072591E+006, +1.56340719296E+000, +1.26334222348E+002
+3.85219023780E+006, +1.41071656929E+000, +1.32487587379E+002
+4.03979974969E+006, +1.69143420766E+000, +1.39148419356E+002
+4.22740926158E+006, +1.63537619072E+000, +1.45471516682E+002
+4.41501877347E+006, +1.50411948784E+000, +1.52062029338E+002
+4.60262828536E+006, +1.62623597905E+000, +1.58333705750E+002
+4.79023779725E+006, +1.75689173330E+000, +1.64996955308E+002
+4.97784730914E+006, +1.88384423693E+000, +1.71388449105E+002
+5.16545682103E+006, +1.47175122486E+000, +1.77915701361E+002
+5.35306633292E+006, +1.75617525449E+000, +1.84349615893E+002
+5.54067584481E+006, +1.55893991874E+000, +1.90801993424E+002
+5.72828535670E+006, +1.70501235610E+000, +1.97447675572E+002
+5.91589486859E+006, +1.94826696636E+000, +2.03961651748E+002
+6.10350438048E+006, +2.08379087160E+000, +2.10441145962E+002
+6.29111389237E+006, +1.99415253076E+000, +2.16831985763E+002
+6.47872340426E+006, +1.96526698127E+000, +2.23507283137E+002
+6.66633291615E+006, +2.04305244307E+000, +2.30025490879E+002
+6.85394242804E+006, +2.22402068691E+000, +2.36449921925E+002
+7.04155193992E+006, +1.95605219699E+000, +2.43023114183E+002
+7.22916145181E+006, +2.23499617473E+000, +2.49619869701E+002
+7.41677096370E+006, +2.19326731951E+000, +2.56282889733E+002
+7.60438047559E+006, +2.12090184023E+000, +2.62813050738E+002
+7.79198998748E+006, +2.36482852702E+000, +2.69207564952E+002
+7.97959949937E+006, +2.21221953079E+000, +2.75845168914E+002
+8.16720901126E+006, +2.30275165928E+000, +2.82811062252E+002
+8.35481852315E+006, +2.31563679906E+000, +2.89163900962E+002
+8.54242803504E+006, +2.34706658941E+000, +2.96281615736E+002
+8.73003754693E+006, +2.35710640929E+000, +3.02552272737E+002
+8.91764705882E+006, +2.17759030795E+000, +3.09125769298E+002
+9.10525657071E+006, +2.03998373501E+000, +3.15816979367E+002
+9.29286608260E+006, +2.19039165820E+000, +3.22378599823E+002
+9.48047559449E+006, +2.35281578663E+000, +3.29008133073E+002
+9.66808510638E+006, +2.12691851548E+000, +3.35897438607E+002
+9.85569461827E+006, +1.99567983446E+000, +3.42651164617E+002
+1.00433041302E+007, +2.38032662464E+000, +3.49230781887E+002
+1.02309136421E+007, +2.08267515103E+000, +3.55810523000E+002
+1.04185231539E+007, +2.35103076132E+000, +3.62750220306E+002
+1.06061326658E+007, +1.98211804791E+000, +3.69304146526E+002
+1.07937421777E+007, +2.27669141571E+000, +3.76299347628E+002
+1.09813516896E+007, +2.15930081251E+000, +3.83346085257E+002
+1.11689612015E+007, +2.23825541698E+000, +3.89822584045E+002
+1.13565707134E+007, +1.96018602875E+000, +3.96388836283E+002
+1.15441802253E+007, +1.86731459212E+000, +4.03572416489E+002
+1.17317897372E+007, +2.03669073133E+000, +4.10020188544E+002
+1.19193992491E+007, +1.86262339860E+000, +4.17023511124E+002
+1.21070087610E+007, +1.91848524413E+000, +4.23942744524E+002
+1.22946182728E+007, +2.06895015246E+000, +4.31187026308E+002
+1.24822277847E+007, +1.50887772854E+000, +4.37768129366E+002
+1.26698372966E+007, +1.69198140139E+000, +4.44845428760E+002
+1.28574468085E+007, +1.42323756869E+000, +4.51332769073E+002
+1.30450563204E+007, +1.54071090332E+000, +4.58395938851E+002
+1.32326658323E+007, +1.56871694064E+000, +4.65522632758E+002
+1.34202753442E+007, +2.15075662030E+000, +4.73108920900E+002
+1.36078848561E+007, +1.51336066813E+000, +4.79240476324E+002
+1.37954943680E+007, +1.37245349355E+000, +4.86416695581E+002
+1.39831038798E+007, +1.31706041017E+000, +4.93683771103E+002
+1.41707133917E+007, +1.52065965831E+000, +5.01250179980E+002
+1.43583229036E+007, +1.75264618327E+000, +5.07479656092E+002
+1.45459324155E+007, +1.57875298370E+000, +5.14884763092E+002
+1.47335419274E+007, +1.72041453589E+000, +5.21786754470E+002
+1.49211514393E+007, +1.21496177871E+000, +5.28777619315E+002
+1.51087609512E+007, +1.51880146338E+000, +5.36040919977E+002
+1.52963704631E+007, +1.33398842481E+000, +5.43556780393E+002
+1.54839799750E+007, +1.16739281217E+000, +5.50806866247E+002
+1.56715894869E+007, +1.18265590851E+000, +5.57880846315E+002
+1.58591989987E+007, +1.62118107788E+000, +5.64524848034E+002
+1.60468085106E+007, +7.27082986178E-001, +5.71848356076E+002
+1.62344180225E+007, +4.70492462968E-001, +5.79949766283E+002
+1.64220275344E+007, +1.07550158573E+000, +5.87017292046E+002
+1.66096370463E+007, +9.90050372603E-001, +5.94927783133E+002
+1.67972465582E+007, +4.67052020266E-001, +6.02020114111E+002
+1.69848560701E+007, +1.34645881081E+000, +6.09035388154E+002
+1.71724655820E+007, -4.11983539895E-002, +6.15536508269E+002
+1.73600750939E+007, +1.48000561929E-001, +6.23407951099E+002
+1.75476846058E+007, -3.59421053241E-001, +6.31063232221E+002
+1.77352941176E+007, +3.68013975198E-001, +6.39220408466E+002
+1.79229036295E+007, +8.38249436368E-001, +6.47005784469E+002
+1.81105131414E+007, +4.90596408317E-001, +6.53659099696E+002
+1.82981226533E+007, -1.59923313045E-001, +6.60693360303E+002
+1.84857321652E+007, +6.49967522752E-001, +6.68796274092E+002
+1.86733416771E+007, +6.26151959067E-001, +6.75236193171E+002
+1.88609511890E+007, +6.26372718590E-001, +6.82692680313E+002
+1.90485607009E+007, +7.15652710995E-001, +6.92098352192E+002
+1.92361702128E+007, +1.11712437545E+000, +6.98403232438E+002
+1.94237797247E+007, +4.17608890687E-003, +7.07061632525E+002
+1.96113892365E+007, +2.86258493372E-002, +7.14254041806E+002
+1.97989987484E+007, -3.32374754805E-001, +7.21618317876E+002
+1.99866082603E+007, +6.11231486230E-001, +7.29756781003E+002
+2.01742177722E+007, +4.69927115295E-001, +7.37794905215E+002
+2.03618272841E+007, +4.67143536905E-001, +7.45651841033E+002
+2.05494367960E+007, +2.02254962421E-001, +7.53733676104E+002
+2.07370463079E+007, -5.96227009629E-001, +7.60817806601E+002
+2.09246558198E+007, -2.88737619169E-002, +7.69238434875E+002
+2.11122653317E+007, -1.07047410568E+000, +7.76481605709E+002
+2.12998748436E+007, -2.48127206339E-001, +7.83962769503E+002
+2.14874843554E+007, -7.78040380313E-002, +7.91850898317E+002
+2.16750938673E+007, -1.78390623258E+000, +8.00952514471E+002
+2.18627033792E+007, -3.50497589654E-001, +8.09603981681E+002
+2.20503128911E+007, -2.86911824043E-001, +8.18121405287E+002
+2.22379224030E+007, +1.30400878644E+000, +8.25812512157E+002
+2.24255319149E+007, -3.05647041924E-001, +8.33322641905E+002
+2.26131414268E+007, -2.30644696665E+000, +8.42181702545E+002
+2.28007509387E+007, -3.97039709129E-001, +8.50441596573E+002
+2.29883604506E+007, -1.14263446014E+000, +8.59611741948E+002
+2.31759699625E+007, +3.98590148261E-001, +8.67390316079E+002
+2.33635794743E+007, -7.02534553979E-001, +8.75114296740E+002
+2.35511889862E+007, +9.60336207875E-001, +8.83783949247E+002
+2.37387984981E+007, -5.18505169815E-001, +8.93740827068E+002
+2.39264080100E+007, -1.08863526784E+000, +9.01468664381E+002
+2.41140175219E+007, -1.76805103879E+000, +9.10089200914E+002
+2.43016270338E+007, +2.86691053766E-001, +9.18598923575E+002
+2.44892365457E+007, -1.89774365675E-001, +9.26123253203E+002
+2.46768460576E+007, -6.92865532164E-001, +9.37547488194E+002
+2.48644555695E+007, -6.04801140866E-001, +9.42757910067E+002
+2.50520650814E+007, -3.64738694117E-001, +9.54738402183E+002
+2.52396745932E+007, -8.83085831692E-001, +9.60540317593E+002
+2.54272841051E+007, +2.19339655250E+000, +9.71859411299E+002
+2.56148936170E+007, -1.90123972002E+000, +9.79663790191E+002
+2.58025031289E+007, -2.45850649476E+000, +9.88919641996E+002
+2.59901126408E+007, -1.09018418534E+000, +9.96577639346E+002
+2.61777221527E+007, -1.31542847321E+000, +1.00553344535E+003
+2.63653316646E+007, +4.06839917264E-001, +1.01551609852E+003
+2.65529411765E+007, +3.23904113566E-001, +1.02349386588E+003
+2.67405506884E+007, -1.41699105659E+000, +1.03291501945E+003
+2.69281602003E+007, -1.85763442073E+000, +1.04072292053E+003
+2.71157697121E+007, +1.28215024905E-001, +1.05257300732E+003
+2.73033792240E+007, -1.51794078296E+000, +1.06095929610E+003
+2.74909887359E+007, -1.02755804139E+000, +1.07023080466E+003
+2.76785982478E+007, +3.31031480275E-001, +1.08130558933E+003
+2.78662077597E+007, -2.62612145506E-001, +1.08742696337E+003
+2.80538172716E+007, -1.40998506273E+000, +1.09854274240E+003
+2.82414267835E+007, -6.98656978381E-001, +1.10645241390E+003
+2.84290362954E+007, +1.27107356412E-001, +1.11578024109E+003
+2.86166458073E+007, -3.09211920281E+000, +1.12623716060E+003
+2.88042553191E+007, -2.92971921971E+000, +1.13893634745E+003
+2.89918648310E+007, -1.81713813486E+000, +1.14826086609E+003
+2.91794743429E+007, -2.13358328518E+000, +1.15622192802E+003
+2.93670838548E+007, -2.06300962917E+000, +1.16783769703E+003
+2.95546933667E+007, -1.28730837367E+000, +1.17723148876E+003
+2.97423028786E+007, -3.81124759042E+000, +1.18691936530E+003
+2.99299123905E+007, -2.58149728926E+000, +1.19408458254E+003
+3.01175219024E+007, -2.91313441244E+000, +1.20707966372E+003
+3.03051314143E+007, -2.34697047432E+000, +1.21805317722E+003
+3.04927409262E+007, -6.13456067363E+000, +1.22681545954E+003
+3.06803504380E+007, -5.42889204390E+000, +1.23746662375E+003
+3.08679599499E+007, -6.89655896608E+000, +1.24706456635E+003
+3.10555694618E+007, -6.72380029856E+000, +1.25975263429E+003
+3.12431789737E+007, -5.11988956681E+000, +1.26940052421E+003
+3.14307884856E+007, -3.55849646344E+000, +1.27898528410E+003
+3.16183979975E+007, -5.15132490062E+000, +1.29092198670E+003
+3.18060075094E+007, -8.35527080483E+000, +1.30167479423E+003
+3.19936170213E+007, -6.22810180585E+000, +1.31087611836E+003
+3.21812265332E+007, -4.51175077054E+000, +1.32119961992E+003
+3.23688360451E+007, -5.88815580586E+000, +1.33270432981E+003
+3.25564455569E+007, -9.84942929831E+000, +1.34398839268E+003
+3.27440550688E+007, -5.84732385657E+000, +1.35738513188E+003
+3.29316645807E+007, -4.70623924195E+000, +1.36631666962E+003
+3.31192740926E+007, -7.35587036890E+000, +1.37670100923E+003
+3.33068836045E+007, -9.79252246854E+000, +1.39056930653E+003
+3.34944931164E+007, -6.84775696839E+000, +1.40209642166E+003
+3.36821026283E+007, -6.27981055841E+000, +1.41114193209E+003
+3.38697121402E+007, -8.01233425603E+000, +1.42291336728E+003
+3.40573216521E+007, -1.12666499226E+001, +1.43565238979E+003
+3.42449311640E+007, -7.56939867459E+000, +1.44851520291E+003
+3.44325406758E+007, -1.25313570589E+001, +1.46502787043E+003
+3.46201501877E+007, -1.26713373673E+001, +1.46958479412E+003
+3.48077596996E+007, -6.24057326428E+000, +1.48670248571E+003
+3.49953692115E+007, -7.97364564240E+000, +1.49725244471E+003
+3.51829787234E+007, -1.00873782837E+001, +1.51106931388E+003
+3.53705882353E+007, -6.21600025868E+000, +1.52393552523E+003
+3.55581977472E+007, -1.06170109898E+001, +1.53401966357E+003
+3.57458072591E+007, -9.24335553469E+000, +1.54363752067E+003
+3.59334167710E+007, -6.09307971244E+000, +1.56223940560E+003
+3.61210262829E+007, -1.09249062204E+001, +1.56810494316E+003
+3.63086357947E+007, -9.27707925189E+000, +1.58576945723E+003
+3.64962453066E+007, -1.21538252955E+001, +1.59564508990E+003
+3.66838548185E+007, -1.10030725948E+001, +1.61249672532E+003
+3.68714643304E+007, -1.39244111749E+001, +1.62161442241E+003
+3.70590738423E+007, -1.01733567291E+001, +1.64020715407E+003
+3.72466833542E+007, -1.24274758835E+001, +1.65109444665E+003
+3.74342928661E+007, -6.99712926346E+000, +1.66327430047E+003
+3.76219023780E+007, -9.13301980847E+000, +1.67705087800E+003
+3.78095118899E+007, -1.29954029076E+001, +1.68897494761E+003
+3.79971214018E+007, -1.50595574993E+001, +1.70091577074E+003
+3.81847309136E+007, -1.26752189286E+001, +1.71977825511E+003
+3.83723404255E+007, -1.00203527717E+001, +1.73335198443E+003
+3.85599499374E+007, -1.64803118756E+001, +1.74643206577E+003
+3.87475594493E+007, -1.52967919455E+001, +1.76494697498E+003
+3.89351689612E+007, -1.31945224905E+001, +1.77891606692E+003
+3.91227784731E+007, -1.05508357608E+001, +1.78937317242E+003
+3.93103879850E+007, -1.08651671733E+001, +1.80662421921E+003
+3.94979974969E+007, -1.29283577582E+001, +1.81747338275E+003
+3.96856070088E+007, -1.55258382010E+001, +1.83740033436E+003
+3.98732165207E+007, -1.65595105434E+001, +1.85176881577E+003
+4.00608260325E+007, -1.52991253677E+001, +1.86504670097E+003
+4.02484355444E+007, -1.48357409034E+001, +1.88571021256E+003
+4.04360450563E+007, -1.85551420408E+001, +1.90124017931E+003
+4.06236545682E+007, -2.20705483896E+001, +1.91404429063E+003
+4.08112640801E+007, -1.91431704149E+001, +1.92686411515E+003
+4.09988735920E+007, -2.14189598339E+001, +1.94908273550E+003
+4.11864831039E+007, -2.10666299855E+001, +1.96795418830E+003
+4.13740926158E+007, -2.31185833101E+001, +1.98365289990E+003
+4.15617021277E+007, -2.35196401156E+001, +1.99409626166E+003
+4.17493116395E+007, -2.49057917918E+001, +2.01242171774E+003
+4.19369211514E+007, -2.00944240401E+001, +2.03372070996E+003
+4.21245306633E+007, -2.18167145940E+001, +2.05294312145E+003
+4.23121401752E+007, -2.66074545683E+001, +2.06279872744E+003
+4.24997496871E+007, -2.56502731356E+001, +2.08077770996E+003
+4.26873591990E+007, -2.62210638231E+001, +2.10032337668E+003
+4.28749687109E+007, -2.86255362637E+001, +2.12559810146E+003
+4.30625782228E+007, -2.56530247886E+001, +2.13341700895E+003
+4.32501877347E+007, -2.52907593263E+001, +2.15227688283E+003
+4.34377972466E+007, -2.75888323415E+001, +2.17509258118E+003
+4.36254067584E+007, -2.59835238708E+001, +2.19738196208E+003
+4.38130162703E+007, -3.21119866152E+001, +2.21587620456E+003
+4.40006257822E+007, -3.17481761011E+001, +2.24034770617E+003
+4.41882352941E+007, -3.28052693059E+001, +2.24710790657E+003
+4.43758448060E+007, -3.19048779104E+001, +2.27136270169E+003
+4.45634543179E+007, -2.92997133780E+001, +2.29134527310E+003
+4.47510638298E+007, -3.28180769465E+001, +2.31939122094E+003
+4.49386733417E+007, -3.75074866242E+001, +2.32762166566E+003
+4.51262828536E+007, -3.27652995575E+001, +2.35458281107E+003
+4.53138923655E+007, -3.74161036515E+001, +2.37097361476E+003
+4.55015018773E+007, -3.18974074279E+001, +2.40372237869E+003
+4.56891113892E+007, -3.36344215288E+001, +2.41693152816E+003
+4.58767209011E+007, -4.76841826899E+001, +2.43464441211E+003
+4.60643304130E+007, -4.84110801314E+001, +2.46750011712E+003
+4.62519399249E+007, -4.36751223639E+001, +2.47956294306E+003
+4.64395494368E+007, -4.71460974019E+001, +2.49946661710E+003
+4.66271589487E+007, -4.61253200393E+001, +2.52564882240E+003
+4.68147684606E+007, -4.54712855185E+001, +2.55787220512E+003
+4.70023779725E+007, -3.54060817660E+001, +2.56773877286E+003
+4.71899874844E+007, -4.06851019488E+001, +2.61064276620E+003
+4.73775969962E+007, -4.88847756411E+001, +2.62810186276E+003
+4.75652065081E+007, -5.20461991458E+001, +2.64817398946E+003
+4.77528160200E+007, -3.86185660306E+001, +2.67148561767E+003
+4.79404255319E+007, -4.49475822301E+001, +2.68934495343E+003
+4.81280350438E+007, -4.96619797925E+001, +2.72838465406E+003
+4.83156445557E+007, -5.77572033511E+001, +2.75770142630E+003
+4.85032540676E+007, -4.79707911991E+001, +2.78217030211E+003
+4.86908635795E+007, -5.89835987767E+001, +2.81507888193E+003
+4.88784730914E+007, -5.26584847169E+001, +2.83093540680E+003
+4.90660826033E+007, -6.70114506554E+001, +2.86473701356E+003
+4.92536921151E+007, -6.20151459735E+001, +2.88845649797E+003
+4.94413016270E+007, -4.49975961806E+001, +2.92819335615E+003
+4.96289111389E+007, -5.70427922171E+001, +2.95703400755E+003
+4.98165206508E+007, -6.03267252165E+001, +2.97111900681E+003
+5.00041301627E+007, -5.20089990790E+001, +3.01287244878E+003
+5.01917396746E+007, -6.46622160276E+001, +3.04420097029E+003
+5.03793491865E+007, -5.64464189117E+001, +3.06820977163E+003
+5.05669586984E+007, -6.35864887753E+001, +3.09131062423E+003
+5.07545682103E+007, -7.69790388218E+001, +3.14613832166E+003
+5.09421777222E+007, -5.78026052931E+001, +3.17212995069E+003
+5.11297872340E+007, -7.91626597646E+001, +3.19557083932E+003
+5.13173967459E+007, -6.67477455312E+001, +3.23836369829E+003
+5.15050062578E+007, -6.25833356258E+001, +3.24773794344E+003
+5.16926157697E+007, -6.84464687871E+001, +3.28957153535E+003
+5.18802252816E+007, -7.95207537192E+001, +3.35051320112E+003
+5.20678347935E+007, -8.40088513730E+001, +3.38048335468E+003
+5.22554443054E+007, -7.28692906180E+001, +3.39605477022E+003
+5.24430538173E+007, -8.46621485251E+001, +3.45049484733E+003
+5.26306633292E+007, -8.77156273815E+001, +3.48135356652E+003
+5.28182728411E+007, -9.33655434904E+001, +3.53246541378E+003
+5.30058823529E+007, -9.12988130310E+001, +3.55322642839E+003
+5.31934918648E+007, -7.82769836420E+001, +3.62764097967E+003
+5.33811013767E+007, -8.23059664330E+001, +3.64663266688E+003
+5.35687108886E+007, -8.55635471527E+001, +3.70862292625E+003
+5.37563204005E+007, -1.04507216658E+002, +3.73161801335E+003
+5.39439299124E+007, -9.36829189763E+001, +3.75246371532E+003
+5.41315394243E+007, -1.11497329131E+002, +3.81649372910E+003
+5.43191489362E+007, -9.33314269663E+001, +3.86776731517E+003
+5.45067584481E+007, -8.84322923627E+001, +3.90188406929E+003
+5.46943679599E+007, -1.20178652774E+002, +3.97435614280E+003
+5.48819774718E+007, -1.10700331593E+002, +3.98752031706E+003
+5.50695869837E+007, -1.12172932092E+002, +4.05632049605E+003
+5.52571964956E+007, -1.04505499250E+002, +4.09936004885E+003
+5.54448060075E+007, -8.30504661416E+001, +4.17462154975E+003
+5.56324155194E+007, -1.34156244882E+002, +4.20134760260E+003
+5.58200250313E+007, -1.15849585396E+002, +4.28256430127E+003
+5.60076345432E+007, -1.18080726655E+002, +4.34196211035E+003
+5.61952440551E+007, -1.37369982567E+002, +4.41147451524E+003
+5.63828535670E+007, -1.11088168169E+002, +4.45226426883E+003
+5.65704630788E+007, -1.30575172411E+002, +4.50034479488E+003
+5.67580725907E+007, -1.33550288678E+002, +4.57633710660E+003
+5.69456821026E+007, -1.28890133647E+002, +4.60687645132E+003
+5.71332916145E+007, -1.89516140987E+002, +4.67903711433E+003
+5.73209011264E+007, -1.65739910138E+002, +4.79541252839E+003
+5.75085106383E+007, -1.60117766099E+002, +4.83761886324E+003
+5.76961201502E+007, -1.66549119928E+002, +4.87516021601E+003
+5.78837296621E+007, -2.01832961678E+002, +4.95559132515E+003
+5.80713391740E+007, -1.72579772944E+002, +5.06278470810E+003
+5.82589486859E+007, -1.62498474883E+002, +5.12240953340E+003
+5.84465581977E+007, -1.94260279982E+002, +5.20171779006E+003
+5.86341677096E+007, -1.96351172082E+002, +5.32435889139E+003
+5.88217772215E+007, -2.17227161198E+002, +5.35846987732E+003
+5.90093867334E+007, -1.68134435325E+002, +5.45201544805E+003
+5.91969962453E+007, -2.08765735826E+002, +5.56460177891E+003
+5.93846057572E+007, -2.37415408417E+002, +5.61508092102E+003
+5.95722152691E+007, -1.97716349329E+002, +5.74090888180E+003
+5.97598247810E+007, -2.62917457371E+002, +5.82585775435E+003
+5.99474342929E+007, -2.57590125647E+002, +5.90280136788E+003
+6.01350438048E+007, -1.87931636186E+002, +6.04460586439E+003
