"# Channel 1"
"# Trace 1"
Frequency, Formatted Data, Formatted Data
+1.00000000000E+005, +5.03839903334E+001, +3.86070068219E+000
+2.87609511890E+005, +5.04638881573E+001, +1.00546027476E+001
+4.75219023780E+005, +5.05137777811E+001, +1.66953627381E+001
+6.62828535670E+005, +5.07716804594E+001, +2.30517986737E+001
+8.50438047559E+005, +5.08380384318E+001, +2.95081222681E+001
+1.03804755945E+006, +5.07657099741E+001, +3.60809550689E+001
+1.22565707134E+006, +5.09204860755E+001, +4.25503762914E+001
+1.41326658323E+006, +5.11751827685E+001, +4.90059601135E+001
+1.60087609512E+006, +5.11169670524E+001, +5.54853571072E+001
+1.78848560701E+006, +5.11615348275E+001, +6.17634327172E+001
+1.97609511890E+006, +5.10809423344E+001, +6.82749921826E+001
+2.16370463079E+006, +5.12532809953E+001, +7.49067389871E+001
+2.35131414268E+006, +5.16061438079E+001, +8.10647817928E+001
+2.53892365457E+006, +5.12684187557E+001, +8.76275742199E+001
+2.72653316646E+006, +5.17785014543E+001, +9.41374820784E+001
+2.91414267835E+006, +5.14175087384E+001, +1.00817559075E+002
+3.10175219024E+006, +5.17169769343E+001, +1.07077378239E+002
+3.28936170213E+006, +5.18449329964E+001, +1.13631373556E+002
+3.47697121402E+006, +5.18386313684E+001, +1.20046817088E+002
+3.66458072591E+006, +5.19283095978E+001, +1.26443653888E+002
+3.85219023780E+006, +5.22072339892E+001, +1.32880989589E+002
+4.03979974969E+006, +5.23849139793E+001, +1.39754355900E+002
+4.22740926158E+006, +5.21627366888E+001, +1.46345508233E+002
+4.41501877347E+006, +5.21706695440E+001, +1.52977157319E+002
+4.60262828536E+006, +5.24387210102E+001, +1.59176202367E+002
+4.79023779725E+006, +5.27318414722E+001, +1.66294178362E+002
+4.97784730914E+006, +5.32988438892E+001, +1.72574480548E+002
+5.16545682103E+006, +5.25928811988E+001, +1.79734895531E+002
+5.35306633292E+006, +5.25728320520E+001, +1.86350218099E+002
+5.54067584481E+006, +5.30413320988E+001, +1.92750502086E+002
+5.72828535670E+006, +5.32991508796E+001, +1.99993871396E+002
+5.91589486859E+006, +5.41992174915E+001, +2.05711339693E+002
+6.10350438048E+006, +5.37912957198E+001, +2.13247789882E+002
+6.29111389237E+006, +5.39395925667E+001, +2.20029067820E+002
+6.47872340426E+006, +5.39565278720E+001, +2.26640067626E+002
+6.66633291615E+006, +5.42981123337E+001, +2.33578995001E+002
+6.85394242804E+006, +5.47424252267E+001, +2.40259756465E+002
+7.04155193992E+006, +5.45793666983E+001, +2.46909658237E+002
+7.22916145181E+006, +5.52312153450E+001, +2.54029301025E+002
+7.41677096370E+006, +5.47357416079E+001, +2.61038298387E+002
+7.60438047559E+006, +5.53883657720E+001, +2.67687199531E+002
+7.79198998748E+006, +5.59913774290E+001, +2.74858814845E+002
+7.97959949937E+006, +5.60679596006E+001, +2.82112930565E+002
+8.16720901126E+006, +5.69669293938E+001, +2.89501248530E+002
+8.35481852315E+006, +5.58458611285E+001, +2.96163168740E+002
+8.54242803504E+006, +5.63507264692E+001, +3.03325291662E+002
+8.73003754693E+006, +5.71160824150E+001, +3.10549512601E+002
+8.91764705882E+006, +5.71374285919E+001, +3.18069470670E+002
+9.10525657071E+006, +5.64778999719E+001, +3.25248902807E+002
+9.29286608260E+006, +5.72514158235E+001, +3.32668776114E+002
+9.48047559449E+006, +5.68922628867E+001, +3.39364130230E+002
+9.66808510638E+006, +5.71930186913E+001, +3.46774578442E+002
+9.85569461827E+006, +5.74754783233E+001, +3.54723536727E+002
+1.00433041302E+007, +5.82051037920E+001, +3.61755402660E+002
+1.02309136421E+007, +5.79561125987E+001, +3.69315133232E+002
+1.04185231539E+007, +5.96649514690E+001, +3.77287897544E+002
+1.06061326658E+007, +5.88468691927E+001, +3.84333052864E+002
+1.07937421777E+007, +5.98004988294E+001, +3.92289877201E+002
+1.09813516896E+007, +5.99201708423E+001, +4.00693011284E+002
+1.11689612015E+007, +6.04157289909E+001, +4.07659984877E+002
+1.13565707134E+007, +6.05112480290E+001, +4.14195824205E+002
+1.15441802253E+007, +6.00576561825E+001, +4.24366876421E+002
+1.17317897372E+007, +6.08520434677E+001, +4.29797324409E+002
+1.19193992491E+007, +6.00779216526E+001, +4.39547385862E+002
+1.21070087610E+007, +6.15565492659E+001, +4.47570095090E+002
+1.22946182728E+007, +6.08455841900E+001, +4.55968717554E+002
+1.24822277847E+007, +6.17776547851E+001, +4.64050857707E+002
+1.26698372966E+007, +6.08773956184E+001, +4.71584586087E+002
+1.28574468085E+007, +6.17318130302E+001, +4.78822903175E+002
+1.30450563204E+007, +6.10682686710E+001, +4.87660184223E+002
+1.32326658323E+007, +6.17747306818E+001, +4.95268527409E+002
+1.34202753442E+007, +6.31261746730E+001, +5.04003640734E+002
+1.36078848561E+007, +6.29778614186E+001, +5.13170390397E+002
+1.37954943680E+007, +6.48982165683E+001, +5.20857006568E+002
+1.39831038798E+007, +6.30649136976E+001, +5.31220534649E+002
+1.41707133917E+007, +6.44611843875E+001, +5.39065141093E+002
+1.43583229036E+007, +6.59931358470E+001, +5.47736994780E+002
+1.45459324155E+007, +6.48423012840E+001, +5.57679333327E+002
+1.47335419274E+007, +6.57851730844E+001, +5.65322382308E+002
+1.49211514393E+007, +6.48257625426E+001, +5.75181542860E+002
+1.51087609512E+007, +6.59224773155E+001, +5.84593783768E+002
+1.52963704631E+007, +6.78976199905E+001, +5.91929449491E+002
+1.54839799750E+007, +6.61798653483E+001, +6.02463883015E+002
+1.56715894869E+007, +6.86399233786E+001, +6.12979464999E+002
+1.58591989987E+007, +6.98452764942E+001, +6.22187006583E+002
+1.60468085106E+007, +6.79381864355E+001, +6.30477806217E+002
+1.62344180225E+007, +6.93352506472E+001, +6.42951647781E+002
+1.64220275344E+007, +7.12429194341E+001, +6.48472129292E+002
+1.66096370463E+007, +7.00105012425E+001, +6.62449230725E+002
+1.67972465582E+007, +7.15856052043E+001, +6.70140479858E+002
+1.69848560701E+007, +7.32213656252E+001, +6.79542999280E+002
+1.71724655820E+007, +6.85597434434E+001, +6.90117866561E+002
+1.73600750939E+007, +7.12021030605E+001, +7.01450220954E+002
+1.75476846058E+007, +6.95764428857E+001, +7.10766110811E+002
+1.77352941176E+007, +7.28839916440E+001, +7.21664829658E+002
+1.79229036295E+007, +7.40455375901E+001, +7.32447529600E+002
+1.81105131414E+007, +7.76324183007E+001, +7.43291863952E+002
+1.82981226533E+007, +7.65398601121E+001, +7.52500548148E+002
+1.84857321652E+007, +7.66104173063E+001, +7.65775635823E+002
+1.86733416771E+007, +7.83378250132E+001, +7.75439498221E+002
+1.88609511890E+007, +7.71330785651E+001, +7.86057971843E+002
+1.90485607009E+007, +7.63134922515E+001, +8.00965967320E+002
+1.92361702128E+007, +8.10381595861E+001, +8.11377381644E+002
+1.94237797247E+007, +8.07269734864E+001, +8.23503113742E+002
+1.96113892365E+007, +8.25976812267E+001, +8.32735329933E+002
+1.97989987484E+007, +8.28656757305E+001, +8.45302648123E+002
+1.99866082603E+007, +8.51637520580E+001, +8.59091987148E+002
+2.01742177722E+007, +8.53098650852E+001, +8.73977104776E+002
+2.03618272841E+007, +8.51936848724E+001, +8.83349497942E+002
+2.05494367960E+007, +9.07681974136E+001, +8.98427704647E+002
+2.07370463079E+007, +8.63344486556E+001, +9.10033841540E+002
+2.09246558198E+007, +9.33655581200E+001, +9.22657521055E+002
+2.11122653317E+007, +9.03965339202E+001, +9.31921837509E+002
+2.12998748436E+007, +9.07321474153E+001, +9.48970577530E+002
+2.14874843554E+007, +9.47351142841E+001, +9.59408893586E+002
+2.16750938673E+007, +9.18238239261E+001, +9.76959520289E+002
+2.18627033792E+007, +1.00935177346E+002, +9.91516936157E+002
+2.20503128911E+007, +9.88661939272E+001, +1.00490251305E+003
+2.22379224030E+007, +1.05639228968E+002, +1.02255996490E+003
+2.24255319149E+007, +1.06078893662E+002, +1.03546892553E+003
+2.26131414268E+007, +1.08019914192E+002, +1.04883860818E+003
+2.28007509387E+007, +1.05419443364E+002, +1.06424018247E+003
+2.29883604506E+007, +1.08041480531E+002, +1.08173006973E+003
+2.31759699625E+007, +1.17155085016E+002, +1.09929276350E+003
+2.33635794743E+007, +1.18524576119E+002, +1.10871686551E+003
+2.35511889862E+007, +1.21742388570E+002, +1.12115624670E+003
+2.37387984981E+007, +1.31867685455E+002, +1.15096828827E+003
+2.39264080100E+007, +1.24619212284E+002, +1.16190278534E+003
+2.41140175219E+007, +1.29297105966E+002, +1.17951365494E+003
+2.43016270338E+007, +1.39657721049E+002, +1.19425765267E+003
+2.44892365457E+007, +1.38190586945E+002, +1.19811757191E+003
+2.46768460576E+007, +1.45772480516E+002, +1.22465945133E+003
+2.48644555695E+007, +1.45589861930E+002, +1.23845655469E+003
+2.50520650814E+007, +1.57972968308E+002, +1.25228110836E+003
+2.52396745932E+007, +1.46156682953E+002, +1.25881015153E+003
+2.54272841051E+007, +1.54467363592E+002, +1.28843315467E+003
+2.56148936170E+007, +1.63823437512E+002, +1.29326668074E+003
+2.58025031289E+007, +1.55138155576E+002, +1.31537748579E+003
+2.59901126408E+007, +1.55519980234E+002, +1.33653275415E+003
+2.61777221527E+007, +1.60091129051E+002, +1.35104088523E+003
+2.63653316646E+007, +1.59509561130E+002, +1.37904352631E+003
+2.65529411765E+007, +1.62092740855E+002, +1.39107561215E+003
+2.67405506884E+007, +1.62529774497E+002, +1.41393486155E+003
+2.69281602003E+007, +1.50950521555E+002, +1.43564874428E+003
+2.71157697121E+007, +1.54146002118E+002, +1.46659666940E+003
+2.73033792240E+007, +1.59759882069E+002, +1.48546673973E+003
+2.74909887359E+007, +1.66217727468E+002, +1.50543157308E+003
+2.76785982478E+007, +1.73751599490E+002, +1.52515144391E+003
+2.78662077597E+007, +1.59158884580E+002, +1.56299606698E+003
+2.80538172716E+007, +1.76182549077E+002, +1.57696395814E+003
+2.82414267835E+007, +1.72608799827E+002, +1.60010263479E+003
+2.84290362954E+007, +1.81673249700E+002, +1.62753394951E+003
+2.86166458073E+007, +1.88853426891E+002, +1.64487966104E+003
+2.88042553191E+007, +1.90153522352E+002, +1.68574747662E+003
+2.89918648310E+007, +1.99546297583E+002, +1.72645221508E+003
+2.91794743429E+007, +1.94753122431E+002, +1.74805830412E+003
+2.93670838548E+007, +1.99856372811E+002, +1.79911260797E+003
+2.95546933667E+007, +2.02907061783E+002, +1.81509979698E+003
+2.97423028786E+007, +1.98714396877E+002, +1.85128687153E+003
+2.99299123905E+007, +1.99740772022E+002, +1.86570352913E+003
+3.01175219024E+007, +2.05358294761E+002, +1.92540368803E+003
+3.03051314143E+007, +2.30901012113E+002, +1.95692483548E+003
+3.04927409262E+007, +2.12048668264E+002, +1.99096675579E+003
+3.06803504380E+007, +2.17457002131E+002, +2.03985092370E+003
+3.08679599499E+007, +2.16950539578E+002, +2.07731356059E+003
+3.10555694618E+007, +2.20485253857E+002, +2.13543576594E+003
+3.12431789737E+007, +2.36357493626E+002, +2.15263061478E+003
+3.14307884856E+007, +2.53056093148E+002, +2.18010996617E+003
+3.16183979975E+007, +2.79139491436E+002, +2.22259300368E+003
+3.18060075094E+007, +2.65434497487E+002, +2.29402558745E+003
+3.19936170213E+007, +2.75042827133E+002, +2.34877783486E+003
+3.21812265332E+007, +2.74263539173E+002, +2.37256641573E+003
+3.23688360451E+007, +3.10347236068E+002, +2.40606354607E+003
+3.25564455569E+007, +2.64744349184E+002, +2.48363684235E+003
+3.27440550688E+007, +3.24569732380E+002, +2.57036294730E+003
+3.29316645807E+007, +3.36919889329E+002, +2.59771487212E+003
+3.31192740926E+007, +3.69964554977E+002, +2.62059587673E+003
+3.33068836045E+007, +3.44209340021E+002, +2.70999855544E+003
+3.34944931164E+007, +3.95513656628E+002, +2.81544639400E+003
+3.36821026283E+007, +3.60442940821E+002, +2.85275360465E+003
+3.38697121402E+007, +4.29320575232E+002, +2.92418565730E+003
+3.40573216521E+007, +4.20854586095E+002, +3.00228032298E+003
+3.42449311640E+007, +4.60551999978E+002, +3.08969988635E+003
+3.44325406758E+007, +4.61005344592E+002, +3.18281757839E+003
+3.46201501877E+007, +5.07968169373E+002, +3.23033194322E+003
+3.48077596996E+007, +5.82102590150E+002, +3.25511836080E+003
+3.49953692115E+007, +5.96126720754E+002, +3.42263733062E+003
+3.51829787234E+007, +5.85908593467E+002, +3.44834487156E+003
+3.53705882353E+007, +6.18810877451E+002, +3.65377801166E+003
+3.55581977472E+007, +6.68499555317E+002, +3.64944383433E+003
+3.57458072591E+007, +6.82631572463E+002, +3.83315017229E+003
+3.59334167710E+007, +7.31270213764E+002, +3.94144524673E+003
+3.61210262829E+007, +6.75826673350E+002, +4.04308408149E+003
+3.63086357947E+007, +8.22764092996E+002, +4.08566336561E+003
+3.64962453066E+007, +8.61823510194E+002, +4.28702288115E+003
+3.66838548185E+007, +9.87433412024E+002, +4.41435857280E+003
+3.68714643304E+007, +9.81883632570E+002, +4.48775418907E+003
+3.70590738423E+007, +1.20343337122E+003, +4.77886769183E+003
+3.72466833542E+007, +1.18857798215E+003, +4.95091238546E+003
+3.74342928661E+007, +1.44106237136E+003, +5.11714074185E+003
+3.76219023780E+007, +1.53229682749E+003, +5.30315858574E+003
+3.78095118899E+007, +1.53369614881E+003, +5.42531298256E+003
+3.79971214018E+007, +1.72227393900E+003, +5.73389864758E+003
+3.81847309136E+007, +1.85266556531E+003, +5.97669326554E+003
+3.83723404255E+007, +2.09505326530E+003, +6.13282550900E+003
+3.85599499374E+007, +2.08582657467E+003, +6.58745123884E+003
+3.87475594493E+007, +2.49915145620E+003, +7.12106337976E+003
+3.89351689612E+007, +2.72357186599E+003, +7.15614372993E+003
+3.91227784731E+007, +3.44453225836E+003, +7.42304991489E+003
+3.93103879850E+007, +3.80021030706E+003, +7.49992684976E+003
+3.94979974969E+007, +3.88687781598E+003, +7.74154895117E+003
+3.96856070088E+007, +4.74184897028E+003, +8.65726895760E+003
+3.98732165207E+007, +5.22710345552E+003, +9.28395275365E+003
+4.00608260325E+007, +6.57298803071E+003, +9.17512283554E+003
+4.02484355444E+007, +7.86057674628E+003, +9.86647054525E+003
+4.04360450563E+007, +8.72451612534E+003, +9.08960637446E+003
+4.06236545682E+007, +1.01103357387E+004, +9.47521203916E+003
+4.08112640801E+007, +1.16698798622E+004, +8.78019692762E+003
+4.09988735920E+007, +1.38406313571E+004, +8.36230204311E+003
+4.11864831039E+007, +1.44700219810E+004, +7.35733171974E+003
+4.13740926158E+007, +1.60716876087E+004, +5.57672755357E+003
+4.15617021277E+007, +1.74821272548E+004, +4.94574082190E+003
+4.17493116395E+007, +1.61828014379E+004, +4.04366654103E+003
+4.19369211514E+007, +1.74256422214E+004, +2.53475591187E+002
+4.21245306633E+007, +1.71767295111E+004, -1.31384948534E+003
+4.23121401752E+007, +1.75024001926E+004, -3.15245360236E+003
+4.24997496871E+007, +1.57119876253E+004, -4.09515699318E+003
+4.26873591990E+007, +1.63492042855E+004, -6.31737158475E+003
+4.28749687109E+007, +1.24256248839E+004, -7.94796064157E+003
+4.30625782228E+007, +1.34293500115E+004, -7.85026201506E+003
+4.32501877347E+007, +1.04674427498E+004, -8.37807797756E+003
+4.34377972466E+007, +8.81670053495E+003, -8.77581834828E+003
+4.36254067584E+007, +8.31866321238E+003, -8.86398248426E+003
+4.38130162703E+007, +7.40557558710E+003, -8.03463024891E+003
+4.40006257822E+007, +6.07741731708E+003, -8.68088346359E+003
+4.41882352941E+007, +5.67859549736E+003, -8.29327830396E+003
+4.43758448060E+007, +5.02359292977E+003, -8.11794515038E+003
+4.45634543179E+007, +4.88642121844E+003, -7.59855041091E+003
+4.47510638298E+007, +3.85363672034E+003, -7.51721315582E+003
+4.49386733417E+007, +3.52561220933E+003, -7.06442279644E+003
+4.51262828536E+007, +3.21761667761E+003, -6.65923827340E+003
+4.53138923655E+007, +3.03424837340E+003, -6.57444478795E+003
+4.55015018773E+007, +2.72867993505E+003, -6.07544861592E+003
+4.56891113892E+007, +2.57785489876E+003, -5.91387074405E+003
+4.58767209011E+007, +2.31295529000E+003, -5.68101665644E+003
+4.60643304130E+007, +2.03415183544E+003, -5.55539220472E+003
+4.62519399249E+007, +2.05411207016E+003, -5.31935891292E+003
+4.64395494368E+007, +1.87408305903E+003, -5.14888395721E+003
+4.66271589487E+007, +1.83124813187E+003, -4.90592863579E+003
+4.68147684606E+007, +1.71100990420E+003, -4.66668098562E+003
+4.70023779725E+007, +1.61030690990E+003, -4.65828307069E+003
+4.71899874844E+007, +1.52587378346E+003, -4.41841618810E+003
+4.73775969962E+007, +1.41475609011E+003, -4.33032962740E+003
+4.75652065081E+007, +1.31121251588E+003, -4.31898126966E+003
+4.77528160200E+007, +1.30038801900E+003, -4.03850520902E+003
+4.79404255319E+007, +1.22408536565E+003, -4.05565635419E+003
+4.81280350438E+007, +1.18542337632E+003, -3.91653290654E+003
+4.83156445557E+007, +1.06356713501E+003, -3.73793006875E+003
+4.85032540676E+007, +1.03731149619E+003, -3.69074217849E+003
+4.86908635795E+007, +1.01527491570E+003, -3.62717209367E+003
+4.88784730914E+007, +9.50907185262E+002, -3.49048605522E+003
+4.90660826033E+007, +8.53729921687E+002, -3.42260766696E+003
+4.92536921151E+007, +8.29275906148E+002, -3.33888161399E+003
+4.94413016270E+007, +8.49551075827E+002, -3.24526570355E+003
+4.96289111389E+007, +7.61350913693E+002, -3.19604742023E+003
+4.98165206508E+007, +7.32189810297E+002, -3.09556575434E+003
+5.00041301627E+007, +7.46463611336E+002, -2.99418006547E+003
+5.01917396746E+007, +7.14509917584E+002, -2.93113229548E+003
+5.03793491865E+007, +7.13796788083E+002, -2.92745454177E+003
+5.05669586984E+007, +7.01772531259E+002, -2.79300098329E+003
+5.07545682103E+007, +6.76958252027E+002, -2.82053447140E+003
+5.09421777222E+007, +6.58804512308E+002, -2.71794370256E+003
+5.11297872340E+007, +6.01883146069E+002, -2.65996951932E+003
+5.13173967459E+007, +6.05698075276E+002, -2.58940708032E+003
+5.15050062578E+007, +5.73526501799E+002, -2.58580676066E+003
+5.16926157697E+007, +5.86816118920E+002, -2.51967168413E+003
+5.18802252816E+007, +5.57480824236E+002, -2.47324479135E+003
+5.20678347935E+007, +5.17638145310E+002, -2.40329611229E+003
+5.22554443054E+007, +5.41086271712E+002, -2.39959882437E+003
+5.24430538173E+007, +4.86450829537E+002, -2.34179419324E+003
+5.26306633292E+007, +4.80047109507E+002, -2.29203006876E+003
+5.28182728411E+007, +4.68823056106E+002, -2.24696959141E+003
+5.30058823529E+007, +4.63695025390E+002, -2.21734204717E+003
+5.31934918648E+007, +4.30081926042E+002, -2.19113962185E+003
+5.33811013767E+007, +4.45440211411E+002, -2.14455112190E+003
+5.35687108886E+007, +4.20613889816E+002, -2.11984472307E+003
+5.37563204005E+007, +4.10654315965E+002, -2.07439988726E+003
+5.39439299124E+007, +4.07584634469E+002, -2.03228448463E+003
+5.41315394243E+007, +3.81968374300E+002, -1.99545249384E+003
+5.43191489362E+007, +3.82321612865E+002, -1.95546618101E+003
+5.45067584481E+007, +3.76677911461E+002, -1.93213943586E+003
+5.46943679599E+007, +3.44617995296E+002, -1.89637040676E+003
+5.48819774718E+007, +3.59510513375E+002, -1.87357858186E+003
+5.50695869837E+007, +3.41948205890E+002, -1.82891718552E+003
+5.52571964956E+007, +3.50920774930E+002, -1.82284292989E+003
+5.54448060075E+007, +3.39624062203E+002, -1.75872382994E+003
+5.56324155194E+007, +3.37691155155E+002, -1.75121025222E+003
+5.58200250313E+007, +3.33227597858E+002, -1.72591696350E+003
+5.60076345432E+007, +3.33867982766E+002, -1.70238091959E+003
+5.61952440551E+007, +3.04408665328E+002, -1.69619051644E+003
+5.63828535670E+007, +2.92443954135E+002, -1.65787801568E+003
+5.65704630788E+007, +2.98296444274E+002, -1.65048639299E+003
+5.67580725907E+007, +2.74976400339E+002, -1.61220494976E+003
+5.69456821026E+007, +2.63933871859E+002, -1.59391557495E+003
+5.71332916145E+007, +2.47268966448E+002, -1.56662929362E+003
+5.73209011264E+007, +2.49275901283E+002, -1.53782933943E+003
+5.75085106383E+007, +2.45500429343E+002, -1.52123578629E+003
+5.76961201502E+007, +2.37247392432E+002, -1.50013576567E+003
+5.78837296621E+007, +2.30350715258E+002, -1.47372303561E+003
+5.80713391740E+007, +2.22488540568E+002, -1.45657711900E+003
+5.82589486859E+007, +2.11259335761E+002, -1.42242243690E+003
+5.84465581977E+007, +2.11608751833E+002, -1.40166988297E+003
+5.86341677096E+007, +2.00232153073E+002, -1.36821158569E+003
+5.88217772215E+007, +1.98021545408E+002, -1.36268672233E+003
+5.90093867334E+007, +1.98593483941E+002, -1.33108750834E+003
+5.91969962453E+007, +1.95700739024E+002, -1.31133295305E+003
+5.93846057572E+007, +1.94004702008E+002, -1.29264742596E+003
+5.95722152691E+007, +1.93346180192E+002, -1.27084573406E+003
+5.97598247810E+007, +1.78985645241E+002, -1.25244379672E+003
+5.99474342929E+007, +1.78846559333E+002, -1.23106174668E+003
+6.01350438048E+007, +1.76133422716E+002, -1.20954022954E+003
