"# Channel 1"
"# Trace 1"
Frequency, Formatted Data, Formatted Data
+1.00000000000E+005, +1.82288020782E+002, +6.22727406486E-001
+2.25031289111E+005, +1.81424569621E+002, +7.50017099277E+000
+3.50062578223E+005, +1.81308490172E+002, +1.16135771793E+001
+4.75093867334E+005, +1.81936958551E+002, +1.56707612626E+001
+6.00125156446E+005, +1.82216515898E+002, +1.96066161723E+001
+7.25156445557E+005, +1.81545912230E+002, +2.40521232646E+001
+8.50187734668E+005, +1.81886468497E+002, +2.84298801375E+001
+9.75219023780E+005, +1.81938632066E+002, +3.22971537137E+001
+1.10025031289E+006, +1.82093931972E+002, +3.61249300444E+001
+1.22528160200E+006, +1.82344791159E+002, +4.02654604676E+001
+1.35031289111E+006, +1.82046007824E+002, +4.43321603733E+001
+1.47534418023E+006, +1.82169286026E+002, +4.83300803285E+001
+1.60037546934E+006, +1.82829962268E+002, +5.23197757769E+001
+1.72540675845E+006, +1.82904880980E+002, +5.65858972255E+001
+1.85043804756E+006, +1.82288177218E+002, +6.11304144888E+001
+1.97546933667E+006, +1.82761691343E+002, +6.50574969163E+001
+2.10050062578E+006, +1.82983843136E+002, +6.92179712834E+001
+2.22553191489E+006, +1.82941981365E+002, +7.31800435043E+001
+2.35056320401E+006, +1.82951293266E+002, +7.76871327471E+001
+2.47559449312E+006, +1.83501769987E+002, +8.13815137437E+001
+2.60062578223E+006, +1.83245846203E+002, +8.55416145783E+001
+2.72565707134E+006, +1.83591720476E+002, +9.01413987613E+001
+2.85068836045E+006, +1.83985897914E+002, +9.31794714726E+001
+2.97571964956E+006, +1.83499243869E+002, +9.79035588670E+001
+3.10075093867E+006, +1.83969863057E+002, +1.01506910742E+002
+3.22578222778E+006, +1.83851365031E+002, +1.06042386287E+002
+3.35081351690E+006, +1.83602083298E+002, +1.10088825497E+002
+3.47584480601E+006, +1.84348371209E+002, +1.13909671731E+002
+3.60087609512E+006, +1.84418733058E+002, +1.18026578291E+002
+3.72590738423E+006, +1.84126622192E+002, +1.21917001155E+002
+3.85093867334E+006, +1.83808442376E+002, +1.26105403680E+002
+3.97596996245E+006, +1.84545140836E+002, +1.30720263624E+002
+4.10100125156E+006, +1.84395903394E+002, +1.34242099182E+002
+4.22603254068E+006, +1.84885555805E+002, +1.38858957132E+002
+4.35106382979E+006, +1.85032366269E+002, +1.42758792666E+002
+4.47609511890E+006, +1.85299800728E+002, +1.46908743504E+002
+4.60112640801E+006, +1.85983678378E+002, +1.51606975101E+002
+4.72615769712E+006, +1.85405412095E+002, +1.55849589379E+002
+4.85118898623E+006, +1.85887377644E+002, +1.59177389029E+002
+4.97622027534E+006, +1.86224191484E+002, +1.63753495146E+002
+5.10125156446E+006, +1.85852766479E+002, +1.68524889200E+002
+5.22628285357E+006, +1.86698192309E+002, +1.72797456756E+002
+5.35131414268E+006, +1.86861679573E+002, +1.75866630683E+002
+5.47634543179E+006, +1.87003373647E+002, +1.80826466902E+002
+5.60137672090E+006, +1.87120985416E+002, +1.85099101991E+002
+5.72640801001E+006, +1.87485692973E+002, +1.88158840633E+002
+5.85143929912E+006, +1.87825839070E+002, +1.92626552759E+002
+5.97647058824E+006, +1.88309047721E+002, +1.96885677129E+002
+6.10150187735E+006, +1.87890364443E+002, +2.00605072307E+002
+6.22653316646E+006, +1.88610082644E+002, +2.05422673170E+002
+6.35156445557E+006, +1.89222427552E+002, +2.09709543056E+002
+6.47659574468E+006, +1.89292177296E+002, +2.13800602823E+002
+6.60162703379E+006, +1.89544929323E+002, +2.17858508699E+002
+6.72665832290E+006, +1.90801881438E+002, +2.22362551752E+002
+6.85168961202E+006, +1.90802496225E+002, +2.26233489632E+002
+6.97672090113E+006, +1.90854597233E+002, +2.31376109485E+002
+7.10175219024E+006, +1.91405222337E+002, +2.35558599274E+002
+7.22678347935E+006, +1.91759869039E+002, +2.39734281221E+002
+7.35181476846E+006, +1.92238965196E+002, +2.43994968312E+002
+7.47684605757E+006, +1.92356239753E+002, +2.48459963149E+002
+7.60187734668E+006, +1.92920968623E+002, +2.52918480707E+002
+7.72690863579E+006, +1.92851171922E+002, +2.57643545241E+002
+7.85193992491E+006, +1.93896226233E+002, +2.61563966722E+002
+7.97697121402E+006, +1.94648146484E+002, +2.66023598835E+002
+8.10200250313E+006, +1.94808751028E+002, +2.70039901074E+002
+8.22703379224E+006, +1.94960457205E+002, +2.75177746589E+002
+8.35206508135E+006, +1.95549349252E+002, +2.79509531263E+002
+8.47709637046E+006, +1.95392765216E+002, +2.84430200605E+002
+8.60212765957E+006, +1.96149703804E+002, +2.88133171848E+002
+8.72715894869E+006, +1.96443677385E+002, +2.93057005533E+002
+8.85219023780E+006, +1.96884417181E+002, +2.97379963011E+002
+8.97722152691E+006, +1.97578926780E+002, +3.01879330950E+002
+9.10225281602E+006, +1.98117203325E+002, +3.07934361461E+002
+9.22728410513E+006, +1.98091103369E+002, +3.11033701613E+002
+9.35231539424E+006, +1.98953806848E+002, +3.16265128314E+002
+9.47734668335E+006, +1.98851339918E+002, +3.20211071270E+002
+9.60237797247E+006, +1.98454280842E+002, +3.25738626477E+002
+9.72740926158E+006, +2.00549885634E+002, +3.30194617581E+002
+9.85244055069E+006, +2.00583874942E+002, +3.34995030947E+002
+9.97747183980E+006, +2.01816800774E+002, +3.39584717539E+002
+1.01025031289E+007, +2.01684517875E+002, +3.45221727000E+002
+1.02275344180E+007, +2.03242836641E+002, +3.48995784056E+002
+1.03525657071E+007, +2.03247359311E+002, +3.53737714678E+002
+1.04775969962E+007, +2.04244174794E+002, +3.59227946109E+002
+1.06026282854E+007, +2.03733113815E+002, +3.63510576290E+002
+1.07276595745E+007, +2.04549410490E+002, +3.68749489563E+002
+1.08526908636E+007, +2.05248763724E+002, +3.74287177440E+002
+1.09777221527E+007, +2.06498376915E+002, +3.78949377304E+002
+1.11027534418E+007, +2.06454702871E+002, +3.83095581128E+002
+1.12277847309E+007, +2.07028503991E+002, +3.88912300163E+002
+1.13528160200E+007, +2.08448038590E+002, +3.93474165079E+002
+1.14778473091E+007, +2.07297520145E+002, +3.98609976954E+002
+1.16028785982E+007, +2.09044867303E+002, +4.03965144423E+002
+1.17279098874E+007, +2.10341331650E+002, +4.08868520919E+002
+1.18529411765E+007, +2.10848104110E+002, +4.14339607742E+002
+1.19779724656E+007, +2.10605810131E+002, +4.19205813078E+002
+1.21030037547E+007, +2.12417139177E+002, +4.23357518084E+002
+1.22280350438E+007, +2.12773153966E+002, +4.29805498918E+002
+1.23530663329E+007, +2.12741531801E+002, +4.33889135909E+002
+1.24780976220E+007, +2.14429293035E+002, +4.40177400635E+002
+1.26031289111E+007, +2.14751723621E+002, +4.45503489393E+002
+1.27281602003E+007, +2.15674637434E+002, +4.51336965617E+002
+1.28531914894E+007, +2.15487050148E+002, +4.55457049277E+002
+1.29782227785E+007, +2.17419729202E+002, +4.61095527117E+002
+1.31032540676E+007, +2.18983381063E+002, +4.65168302305E+002
+1.32282853567E+007, +2.19018915456E+002, +4.72290970009E+002
+1.33533166458E+007, +2.20334913698E+002, +4.76144521552E+002
+1.34783479349E+007, +2.20813417409E+002, +4.83019570327E+002
+1.36033792240E+007, +2.23258012265E+002, +4.88564418323E+002
+1.37284105131E+007, +2.20879196941E+002, +4.93668117283E+002
+1.38534418023E+007, +2.24149602040E+002, +4.99537252091E+002
+1.39784730914E+007, +2.23669047564E+002, +5.05811668195E+002
+1.41035043805E+007, +2.26762033699E+002, +5.11218464506E+002
+1.42285356696E+007, +2.28098682226E+002, +5.16553544926E+002
+1.43535669587E+007, +2.29397947038E+002, +5.22410725299E+002
+1.44785982478E+007, +2.31672141384E+002, +5.26293868731E+002
+1.46036295369E+007, +2.31806427356E+002, +5.34665256383E+002
+1.47286608260E+007, +2.33303084046E+002, +5.41002095482E+002
+1.48536921151E+007, +2.33876415942E+002, +5.46016938028E+002
+1.49787234043E+007, +2.34174504848E+002, +5.50951459774E+002
+1.51037546934E+007, +2.33775569651E+002, +5.58258931795E+002
+1.52287859825E+007, +2.34970214344E+002, +5.63255466700E+002
+1.53538172716E+007, +2.36238878852E+002, +5.70223721946E+002
+1.54788485607E+007, +2.37782381539E+002, +5.75747355603E+002
+1.56038798498E+007, +2.40712665577E+002, +5.80296765535E+002
+1.57289111389E+007, +2.40234514233E+002, +5.87851106910E+002
+1.58539424280E+007, +2.41356617116E+002, +5.92258616327E+002
+1.59789737171E+007, +2.44505285146E+002, +6.00334707822E+002
+1.61040050063E+007, +2.46345613807E+002, +6.08514813485E+002
+1.62290362954E+007, +2.45986540316E+002, +6.12942090710E+002
+1.63540675845E+007, +2.46462393607E+002, +6.18425496608E+002
+1.64790988736E+007, +2.49704079733E+002, +6.27563653617E+002
+1.66041301627E+007, +2.50373831788E+002, +6.33090697607E+002
+1.67291614518E+007, +2.52011112926E+002, +6.38727469091E+002
+1.68541927409E+007, +2.51407389065E+002, +6.43672904007E+002
+1.69792240300E+007, +2.51787322577E+002, +6.52241734457E+002
+1.71042553191E+007, +2.51587593071E+002, +6.61094104007E+002
+1.72292866083E+007, +2.54014594640E+002, +6.67720728781E+002
+1.73543178974E+007, +2.59132159308E+002, +6.75814276465E+002
+1.74793491865E+007, +2.59366885410E+002, +6.81705408163E+002
+1.76043804756E+007, +2.60128031718E+002, +6.89868519704E+002
+1.77294117647E+007, +2.61066804500E+002, +6.97339885925E+002
+1.78544430538E+007, +2.61653830519E+002, +7.03305664762E+002
+1.79794743429E+007, +2.63657770639E+002, +7.08438212329E+002
+1.81045056320E+007, +2.66817778927E+002, +7.16374744718E+002
+1.82295369212E+007, +2.67717490877E+002, +7.21968808780E+002
+1.83545682103E+007, +2.71124526261E+002, +7.32333695837E+002
+1.84795994994E+007, +2.70017460965E+002, +7.36907086623E+002
+1.86046307885E+007, +2.77085566525E+002, +7.47871122847E+002
+1.87296620776E+007, +2.74066860580E+002, +7.52846931530E+002
+1.88546933667E+007, +2.78565602292E+002, +7.63676078414E+002
+1.89797246558E+007, +2.80861269631E+002, +7.67416256799E+002
+1.91047559449E+007, +2.87295487538E+002, +7.77655113408E+002
+1.92297872340E+007, +2.83723969648E+002, +7.84254872778E+002
+1.93548185232E+007, +2.87959079512E+002, +7.90711733250E+002
+1.94798498123E+007, +2.87996699044E+002, +7.97469294309E+002
+1.96048811014E+007, +2.92800882103E+002, +8.09433283838E+002
+1.97299123905E+007, +2.91511882175E+002, +8.12141185339E+002
+1.98549436796E+007, +2.96399799161E+002, +8.28800882489E+002
+1.99799749687E+007, +2.95650411283E+002, +8.35285047142E+002
+2.01050062578E+007, +2.99470912963E+002, +8.40918727003E+002
+2.02300375469E+007, +3.06205498464E+002, +8.50959705463E+002
+2.03550688360E+007, +3.03925256911E+002, +8.55387653334E+002
+2.04801001252E+007, +3.08755728584E+002, +8.67992955461E+002
+2.06051314143E+007, +3.08890339722E+002, +8.78792604713E+002
+2.07301627034E+007, +3.10451923674E+002, +8.87988034775E+002
+2.08551939925E+007, +3.18480890501E+002, +8.96819844917E+002
+2.09802252816E+007, +3.14018927166E+002, +8.97911802772E+002
+2.11052565707E+007, +3.15824735475E+002, +9.09510015878E+002
+2.12302878598E+007, +3.24211467962E+002, +9.22962050995E+002
+2.13553191489E+007, +3.22531061916E+002, +9.27787702323E+002
+2.14803504380E+007, +3.26802016484E+002, +9.42907812670E+002
+2.16053817272E+007, +3.32205162255E+002, +9.46132062098E+002
+2.17304130163E+007, +3.34044938118E+002, +9.57433758925E+002
+2.18554443054E+007, +3.36063434706E+002, +9.64288958813E+002
+2.19804755945E+007, +3.37993076861E+002, +9.78204060703E+002
+2.21055068836E+007, +3.42006941006E+002, +9.91816070002E+002
+2.22305381727E+007, +3.50004822835E+002, +1.00280066870E+003
+2.23555694618E+007, +3.49555684247E+002, +1.00986373371E+003
+2.24806007509E+007, +3.52756657424E+002, +1.01368992749E+003
+2.26056320401E+007, +3.59707788900E+002, +1.03265275948E+003
+2.27306633292E+007, +3.54434374986E+002, +1.03994147242E+003
+2.28556946183E+007, +3.61746001201E+002, +1.05049593272E+003
+2.29807259074E+007, +3.68504252776E+002, +1.06179788522E+003
+2.31057571965E+007, +3.71072620742E+002, +1.07359396261E+003
+2.32307884856E+007, +3.81882237953E+002, +1.08428892649E+003
+2.33558197747E+007, +3.78336488204E+002, +1.08780922710E+003
+2.34808510638E+007, +3.76706617773E+002, +1.10011364906E+003
+2.36058823529E+007, +3.87695390950E+002, +1.11688105872E+003
+2.37309136421E+007, +3.91836918350E+002, +1.13926161899E+003
+2.38559449312E+007, +3.98438877889E+002, +1.14382261291E+003
+2.39809762203E+007, +4.04078506918E+002, +1.15298830355E+003
+2.41060075094E+007, +3.96206166536E+002, +1.16838775508E+003
+2.42310387985E+007, +4.12671268527E+002, +1.18225942886E+003
+2.43560700876E+007, +4.10166978744E+002, +1.19245022405E+003
+2.44811013767E+007, +4.17110056032E+002, +1.20078007579E+003
+2.46061326658E+007, +4.26734549122E+002, +1.22068557255E+003
+2.47311639549E+007, +4.29342707524E+002, +1.23306854088E+003
+2.48561952441E+007, +4.37627872275E+002, +1.25276833279E+003
+2.49812265332E+007, +4.34620294661E+002, +1.26673628463E+003
+2.51062578223E+007, +4.47217682474E+002, +1.27774413894E+003
+2.52312891114E+007, +4.55336472617E+002, +1.29032044767E+003
+2.53563204005E+007, +4.60839214042E+002, +1.30091977046E+003
+2.54813516896E+007, +4.63064909773E+002, +1.31922726645E+003
+2.56063829787E+007, +4.73521521793E+002, +1.34744669157E+003
+2.57314142678E+007, +4.68562667604E+002, +1.34855919529E+003
+2.58564455569E+007, +4.74625014373E+002, +1.35437556639E+003
+2.59814768461E+007, +4.95565081993E+002, +1.37533366262E+003
+2.61065081352E+007, +5.04487839815E+002, +1.40423050171E+003
+2.62315394243E+007, +5.25727767487E+002, +1.42001798372E+003
+2.63565707134E+007, +5.17356080779E+002, +1.43880866320E+003
+2.64816020025E+007, +5.27456318888E+002, +1.44167992729E+003
+2.66066332916E+007, +5.38667848003E+002, +1.44752617232E+003
+2.67316645807E+007, +5.37601702744E+002, +1.45872919783E+003
+2.68566958698E+007, +5.46123845738E+002, +1.49293845920E+003
+2.69817271589E+007, +5.53639844358E+002, +1.50605407380E+003
+2.71067584481E+007, +5.66605239037E+002, +1.52730098046E+003
+2.72317897372E+007, +5.85330083572E+002, +1.56056798904E+003
+2.73568210263E+007, +5.74406729268E+002, +1.56237124237E+003
+2.74818523154E+007, +5.86262315668E+002, +1.58701904857E+003
+2.76068836045E+007, +6.06439441027E+002, +1.59511688989E+003
+2.77319148936E+007, +6.12480668034E+002, +1.61677563132E+003
+2.78569461827E+007, +6.26476134379E+002, +1.62809537726E+003
+2.79819774718E+007, +6.38890250035E+002, +1.64873235186E+003
+2.81070087610E+007, +6.44331552224E+002, +1.68129796716E+003
+2.82320400501E+007, +6.65231696040E+002, +1.70409354115E+003
+2.83570713392E+007, +6.69727666266E+002, +1.71125626431E+003
+2.84821026283E+007, +6.83128095179E+002, +1.74150501319E+003
+2.86071339174E+007, +6.88395710341E+002, +1.75736619987E+003
+2.87321652065E+007, +7.23776799523E+002, +1.77975055734E+003
+2.88571964956E+007, +7.18445427238E+002, +1.80884690877E+003
+2.89822277847E+007, +7.42922180969E+002, +1.83247760311E+003
+2.91072590738E+007, +7.35240377404E+002, +1.85222393371E+003
+2.92322903630E+007, +7.55717755998E+002, +1.87714481035E+003
+2.93573216521E+007, +7.73043224977E+002, +1.92252878386E+003
+2.94823529412E+007, +7.94510964662E+002, +1.92582620282E+003
+2.96073842303E+007, +8.06509378473E+002, +1.95795140826E+003
+2.97324155194E+007, +8.28118614773E+002, +1.99755574640E+003
+2.98574468085E+007, +8.40537421532E+002, +2.02356196508E+003
+2.99824780976E+007, +8.44713583154E+002, +2.05600146536E+003
+3.01075093867E+007, +8.73761982298E+002, +2.08216521752E+003
+3.02325406758E+007, +9.14377621896E+002, +2.09379667854E+003
+3.03575719650E+007, +9.16255530202E+002, +2.11724597703E+003
+3.04826032541E+007, +9.60307102213E+002, +2.14601254056E+003
+3.06076345432E+007, +9.71408659634E+002, +2.18143023850E+003
+3.07326658323E+007, +1.02018600240E+003, +2.24510243353E+003
+3.08576971214E+007, +1.01898239071E+003, +2.24731327738E+003
+3.09827284105E+007, +1.05131157406E+003, +2.28991334356E+003
+3.11077596996E+007, +1.10065652873E+003, +2.34066221498E+003
+3.12327909887E+007, +1.09416600406E+003, +2.36516258072E+003
+3.13578222778E+007, +1.09420904489E+003, +2.39714591456E+003
+3.14828535670E+007, +1.16619096221E+003, +2.44527312844E+003
+3.16078848561E+007, +1.20524385092E+003, +2.50274872000E+003
+3.17329161452E+007, +1.20494889482E+003, +2.50076843204E+003
+3.18579474343E+007, +1.28002808051E+003, +2.52398992666E+003
+3.19829787234E+007, +1.31605538307E+003, +2.63556470157E+003
+3.21080100125E+007, +1.36047971498E+003, +2.62532503161E+003
+3.22330413016E+007, +1.39877252919E+003, +2.75671549045E+003
+3.23580725907E+007, +1.47015778629E+003, +2.69886511849E+003
+3.24831038798E+007, +1.51042539918E+003, +2.81405592859E+003
+3.26081351690E+007, +1.51727025258E+003, +2.85742652672E+003
+3.27331664581E+007, +1.59115360884E+003, +2.85572666513E+003
+3.28581977472E+007, +1.62569782891E+003, +2.90126903126E+003
+3.29832290363E+007, +1.74804938381E+003, +2.98483630480E+003
+3.31082603254E+007, +1.72748012934E+003, +3.01636062386E+003
+3.32332916145E+007, +1.79747504373E+003, +3.06799935217E+003
+3.33583229036E+007, +1.86609081426E+003, +3.08112332637E+003
+3.34833541927E+007, +1.94742557925E+003, +3.12586323272E+003
+3.36083854819E+007, +2.01596567229E+003, +3.10697471323E+003
+3.37334167710E+007, +2.11570824320E+003, +3.21226962462E+003
+3.38584480601E+007, +2.24624046364E+003, +3.26098205904E+003
+3.39834793492E+007, +2.32329487918E+003, +3.32489688390E+003
+3.41085106383E+007, +2.39011489801E+003, +3.37256123596E+003
+3.42335419274E+007, +2.52497435885E+003, +3.43955368533E+003
+3.43585732165E+007, +2.65698321894E+003, +3.46996969020E+003
+3.44836045056E+007, +2.67497912117E+003, +3.55191322406E+003
+3.46086357947E+007, +2.78436219441E+003, +3.62566692113E+003
+3.47336670839E+007, +3.00139027840E+003, +3.61173939662E+003
+3.48586983730E+007, +3.15095868106E+003, +3.68367901852E+003
+3.49837296621E+007, +3.25318388397E+003, +3.54914229364E+003
+3.51087609512E+007, +3.49267012793E+003, +3.71613452116E+003
+3.52337922403E+007, +3.60314711466E+003, +3.73292062104E+003
+3.53588235294E+007, +3.69004228692E+003, +3.65388137471E+003
+3.54838548185E+007, +3.92644583112E+003, +3.79151596742E+003
+3.56088861076E+007, +4.14576184237E+003, +3.80366024174E+003
+3.57339173967E+007, +4.24588661185E+003, +3.68602204551E+003
+3.58589486859E+007, +4.64401622010E+003, +3.84064941094E+003
+3.59839799750E+007, +4.72647911697E+003, +3.89697624494E+003
+3.61090112641E+007, +4.93414015248E+003, +3.81811386739E+003
+3.62340425532E+007, +5.17699898836E+003, +3.72734132252E+003
+3.63590738423E+007, +5.67012056712E+003, +3.66296645509E+003
+3.64841051314E+007, +5.66420708593E+003, +3.53798413716E+003
+3.66091364205E+007, +6.07865532566E+003, +3.35727266867E+003
+3.67341677096E+007, +6.25719361831E+003, +2.94171632722E+003
+3.68591989987E+007, +6.75491897329E+003, +2.94642303300E+003
+3.69842302879E+007, +6.76993376899E+003, +2.86195622296E+003
+3.71092615770E+007, +7.16485339074E+003, +2.22828165802E+003
+3.72342928661E+007, +7.47117717254E+003, +2.36223158129E+003
+3.73593241552E+007, +7.47616995031E+003, +1.79885439088E+003
+3.74843554443E+007, +7.78959711916E+003, +1.96286152858E+003
+3.76093867334E+007, +7.80649293429E+003, +1.37575158199E+003
+3.77344180225E+007, +7.87401840452E+003, +9.32360684357E+002
+3.78594493116E+007, +8.19462058009E+003, +3.16970268175E+002
+3.79844806008E+007, +8.19944952194E+003, +1.01875908709E+002
+3.81095118899E+007, +8.19425518621E+003, -2.21156779945E+002
+3.82345431790E+007, +7.97277631198E+003, -5.40656291874E+002
+3.83595744681E+007, +8.29780592119E+003, -8.72761374861E+002
+3.84846057572E+007, +7.85986962612E+003, -1.78576445559E+003
+3.86096370463E+007, +7.95307625183E+003, -2.04115016589E+003
+3.87346683354E+007, +7.37981537101E+003, -2.28824454899E+003
+3.88596996245E+007, +7.33410067965E+003, -2.72128322764E+003
+3.89847309136E+007, +6.96639731462E+003, -2.85234983004E+003
+3.91097622028E+007, +6.95901760664E+003, -3.01824790450E+003
+3.92347934919E+007, +6.51981522647E+003, -3.26586374891E+003
+3.93598247810E+007, +6.11848902842E+003, -3.48835773627E+003
+3.94848560701E+007, +6.04735856568E+003, -3.72297226120E+003
+3.96098873592E+007, +5.61064040332E+003, -3.84553595552E+003
+3.97349186483E+007, +5.55871444963E+003, -4.03779525205E+003
+3.98599499374E+007, +5.42225641299E+003, -4.08103208040E+003
+3.99849812265E+007, +4.82259530158E+003, -4.09952465610E+003
+4.01100125156E+007, +4.73021758492E+003, -4.10796680810E+003
