"# Channel 1"
"# Trace 1"
Frequency, Formatted Data, Formatted Data
+1.00000000000E+005, +1.09911843456E+000, +3.23063773631E+000
+2.25031289111E+005, +1.09562678658E+000, +7.27272118460E+000
+3.50062578223E+005, +1.11412965613E+000, +1.13080952782E+001
+4.75093867334E+005, +1.12920822962E+000, +1.53649399130E+001
+6.00125156446E+005, +1.13664237821E+000, +1.94025356238E+001
+7.25156445557E+005, +1.20486441091E+000, +2.33942171362E+001
+8.50187734668E+005, +1.28836727743E+000, +2.73849046000E+001
+9.75219023780E+005, +1.25708409552E+000, +3.13611886978E+001
+1.10025031289E+006, +1.33430754909E+000, +3.53632745460E+001
+1.22528160200E+006, +1.40342570117E+000, +3.93814934169E+001
+1.35031289111E+006, +1.40829581435E+000, +4.34302285321E+001
+1.47534418023E+006, +1.46263468057E+000, +4.73259272623E+001
+1.60037546934E+006, +1.42712044021E+000, +5.12645853717E+001
+1.72540675845E+006, +1.51763932590E+000, +5.52671855001E+001
+1.85043804756E+006, +1.60360401748E+000, +5.92039640672E+001
+1.97546933667E+006, +1.54613911187E+000, +6.31986634843E+001
+2.10050062578E+006, +1.53946349732E+000, +6.71989861826E+001
+2.22553191489E+006, +1.47721620914E+000, +7.13354731127E+001
+2.35056320401E+006, +1.48564578660E+000, +7.52569885446E+001
+2.47559449312E+006, +1.54531556724E+000, +7.91737937615E+001
+2.60062578223E+006, +1.54101267368E+000, +8.30374903392E+001
+2.72565707134E+006, +1.60262319031E+000, +8.70656665365E+001
+2.85068836045E+006, +1.64151722796E+000, +9.11641910976E+001
+2.97571964956E+006, +1.64825593710E+000, +9.52127184306E+001
+3.10075093867E+006, +1.59669239366E+000, +9.93263308651E+001
+3.22578222778E+006, +1.70296996427E+000, +1.03182399091E+002
+3.35081351690E+006, +1.76902866438E+000, +1.07244512129E+002
+3.47584480601E+006, +1.80664143073E+000, +1.11201002347E+002
+3.60087609512E+006, +1.79068701956E+000, +1.15288115102E+002
+3.72590738423E+006, +1.69058845603E+000, +1.19520511799E+002
+3.85093867334E+006, +1.87039234987E+000, +1.23277109465E+002
+3.97596996245E+006, +1.84915626800E+000, +1.27406712960E+002
+4.10100125156E+006, +1.57834367171E+000, +1.31402815061E+002
+4.22603254068E+006, +1.77562161051E+000, +1.35220268102E+002
+4.35106382979E+006, +1.80139767540E+000, +1.39594443993E+002
+4.47609511890E+006, +1.87519106198E+000, +1.43628454718E+002
+4.60112640801E+006, +1.48566547230E+000, +1.47890568477E+002
+4.72615769712E+006, +1.37155530475E+000, +1.51718998245E+002
+4.85118898623E+006, +1.81286476781E+000, +1.55875291301E+002
+4.97622027534E+006, +1.68179580359E+000, +1.60080599744E+002
+5.10125156446E+006, +1.42659605719E+000, +1.63777803603E+002
+5.22628285357E+006, +1.74046436568E+000, +1.68187114575E+002
+5.35131414268E+006, +1.58107388935E+000, +1.72270350425E+002
+5.47634543179E+006, +1.77034326250E+000, +1.76761404493E+002
+5.60137672090E+006, +2.17882809085E+000, +1.81043738179E+002
+5.72640801001E+006, +1.54415717009E+000, +1.84805552686E+002
+5.85143929912E+006, +1.89725764515E+000, +1.89002750974E+002
+5.97647058824E+006, +1.83832353667E+000, +1.93004202516E+002
+6.10150187735E+006, +1.52385013316E+000, +1.97536649152E+002
+6.22653316646E+006, +1.86581475722E+000, +2.01350596883E+002
+6.35156445557E+006, +1.96905836573E+000, +2.06093397936E+002
+6.47659574468E+006, +2.29428140669E+000, +2.10264634667E+002
+6.60162703379E+006, +2.00817444576E+000, +2.14474958629E+002
+6.72665832290E+006, +2.11969782399E+000, +2.18827639998E+002
+6.85168961202E+006, +2.27783810148E+000, +2.23059749003E+002
+6.97672090113E+006, +1.92165598657E+000, +2.27424891381E+002
+7.10175219024E+006, +2.30257646688E+000, +2.31415338278E+002
+7.22678347935E+006, +2.11963014618E+000, +2.35758418682E+002
+7.35181476846E+006, +2.36697667987E+000, +2.40008781476E+002
+7.47684605757E+006, +2.03277558907E+000, +2.44613716076E+002
+7.60187734668E+006, +2.33408238413E+000, +2.48414741362E+002
+7.72690863579E+006, +2.48487536303E+000, +2.52781364809E+002
+7.85193992491E+006, +2.66992581724E+000, +2.57416612966E+002
+7.97697121402E+006, +2.83724221598E+000, +2.61785242053E+002
+8.10200250313E+006, +2.45160767713E+000, +2.66341141777E+002
+8.22703379224E+006, +2.41293198904E+000, +2.70860406055E+002
+8.35206508135E+006, +2.41519332212E+000, +2.75215117145E+002
+8.47709637046E+006, +2.32748331789E+000, +2.79491316015E+002
+8.60212765957E+006, +2.43944446695E+000, +2.84287196404E+002
+8.72715894869E+006, +2.46113765815E+000, +2.88102085733E+002
+8.85219023780E+006, +2.62830886170E+000, +2.93342057051E+002
+8.97722152691E+006, +2.30404107596E+000, +2.97961577821E+002
+9.10225281602E+006, +2.56078172509E+000, +3.02517272653E+002
+9.22728410513E+006, +2.70980990091E+000, +3.06620377069E+002
+9.35231539424E+006, +2.14756340072E+000, +3.11698796042E+002
+9.47734668335E+006, +2.12328390223E+000, +3.15403697858E+002
+9.60237797247E+006, +2.10782468428E+000, +3.20428255425E+002
+9.72740926158E+006, +2.41872112198E+000, +3.25032330531E+002
+9.85244055069E+006, +3.30551914280E+000, +3.29517277335E+002
+9.97747183980E+006, +2.30778020591E+000, +3.34098139683E+002
+1.01025031289E+007, +2.49418020910E+000, +3.38559330694E+002
+1.02275344180E+007, +3.03324318090E+000, +3.43770557431E+002
+1.03525657071E+007, +2.40785684121E+000, +3.48455044844E+002
+1.04775969962E+007, +1.81854465532E+000, +3.52697157204E+002
+1.06026282854E+007, +2.02780355406E+000, +3.57439949398E+002
+1.07276595745E+007, +2.27555693768E+000, +3.62575748327E+002
+1.08526908636E+007, +2.76338507245E+000, +3.67647237853E+002
+1.09777221527E+007, +2.58813942929E+000, +3.72546947110E+002
+1.11027534418E+007, +2.58828832070E+000, +3.76980145777E+002
+1.12277847309E+007, +2.04023907832E+000, +3.81393220573E+002
+1.13528160200E+007, +1.23869692385E+000, +3.86628704130E+002
+1.14778473091E+007, +2.81588870054E+000, +3.91714493751E+002
+1.16028785982E+007, +1.57608932760E+000, +3.96785583328E+002
+1.17279098874E+007, +2.47805709391E+000, +4.02008914124E+002
+1.18529411765E+007, +1.54394244607E+000, +4.06656766044E+002
+1.19779724656E+007, +1.26152935493E+000, +4.12148048429E+002
+1.21030037547E+007, +1.62489100023E+000, +4.17108334615E+002
+1.22280350438E+007, +1.71897453833E+000, +4.22164659071E+002
+1.23530663329E+007, +2.13348311276E+000, +4.28370341578E+002
+1.24780976220E+007, +1.46005062720E+000, +4.31843612390E+002
+1.26031289111E+007, +1.49135649397E+000, +4.36948826113E+002
+1.27281602003E+007, +1.80346134673E+000, +4.42427916835E+002
+1.28531914894E+007, +1.67260629849E+000, +4.47719442119E+002
+1.29782227785E+007, +1.28751715322E+000, +4.52876195688E+002
+1.31032540676E+007, +2.21598167161E+000, +4.58422604223E+002
+1.32282853567E+007, +1.46409758962E+000, +4.63826739227E+002
+1.33533166458E+007, +1.40243414725E+000, +4.68975929842E+002
+1.34783479349E+007, +5.10501855505E-001, +4.75357442931E+002
+1.36033792240E+007, +1.87225198064E+000, +4.80326261301E+002
+1.37284105131E+007, +1.23955295322E+000, +4.85685151825E+002
+1.38534418023E+007, +1.49738805974E+000, +4.90704317653E+002
+1.39784730914E+007, +9.63234334972E-001, +4.95763329875E+002
+1.41035043805E+007, +8.60726436802E-001, +5.02189286713E+002
+1.42285356696E+007, +1.99138471777E+000, +5.07074123965E+002
+1.43535669587E+007, +1.83763117337E+000, +5.13649737095E+002
+1.44785982478E+007, +9.97356979930E-001, +5.18065585940E+002
+1.46036295369E+007, +1.12479054805E+000, +5.22969681138E+002
+1.47286608260E+007, -1.51412645671E+000, +5.31507523767E+002
+1.48536921151E+007, +9.33442060899E-001, +5.36506254976E+002
+1.49787234043E+007, +2.01895905296E+000, +5.41786073669E+002
+1.51037546934E+007, +8.87210602909E-001, +5.46134838637E+002
+1.52287859825E+007, +9.89432090739E-001, +5.52387838475E+002
+1.53538172716E+007, +1.31519563247E+000, +5.58912976194E+002
+1.54788485607E+007, +6.06052103221E-001, +5.65703513207E+002
+1.56038798498E+007, +1.69713153922E+000, +5.71550672720E+002
+1.57289111389E+007, +4.64041645888E-002, +5.79734548651E+002
+1.58539424280E+007, +6.65007616436E-001, +5.84061077264E+002
+1.59789737171E+007, +2.41928322902E+000, +5.90229547480E+002
+1.61040050063E+007, +1.14806851437E+000, +5.95253801410E+002
+1.62290362954E+007, +9.37945179722E-001, +6.01230828598E+002
+1.63540675845E+007, +4.32019299948E-001, +6.09063415091E+002
+1.64790988736E+007, +1.35212769526E+000, +6.14851360569E+002
+1.66041301627E+007, +1.28216307748E-001, +6.21699301755E+002
+1.67291614518E+007, -6.29459708648E-001, +6.29178286332E+002
+1.68541927409E+007, +6.96961871875E-001, +6.35108026214E+002
+1.69792240300E+007, -6.19030421516E-001, +6.40248391587E+002
+1.71042553191E+007, -2.15553787006E+000, +6.50601620252E+002
+1.72292866083E+007, -1.15003878474E+000, +6.54400589972E+002
+1.73543178974E+007, -1.16158448846E+000, +6.62117785936E+002
+1.74793491865E+007, -1.14138361028E+000, +6.68177490789E+002
+1.76043804756E+007, -3.34517199820E+000, +6.77659501065E+002
+1.77294117647E+007, +5.35516589545E-001, +6.80534378056E+002
+1.78544430538E+007, +8.80367124154E-001, +6.89633422271E+002
+1.79794743429E+007, +1.35518891348E-001, +6.95364736713E+002
+1.81045056320E+007, -1.86332765225E+000, +7.07684236094E+002
+1.82295369212E+007, -1.55247291110E+000, +7.10682441507E+002
+1.83545682103E+007, +4.87938541037E-001, +7.19484165778E+002
+1.84795994994E+007, +1.39617971935E+000, +7.25141884958E+002
+1.86046307885E+007, +1.73421807217E+000, +7.33771063357E+002
+1.87296620776E+007, -3.97636390186E-001, +7.41386498699E+002
+1.88546933667E+007, -1.80246049214E+000, +7.48130634312E+002
+1.89797246558E+007, -1.10424741432E+000, +7.53601681202E+002
+1.91047559449E+007, -1.09955562140E+000, +7.63389192296E+002
+1.92297872340E+007, +6.57660212041E-001, +7.73906978333E+002
+1.93548185232E+007, +1.59446686763E+000, +7.77469688801E+002
+1.94798498123E+007, -2.53158662230E+000, +7.85021560413E+002
+1.96048811014E+007, +1.98147456709E-001, +7.92588324799E+002
+1.97299123905E+007, +4.55974320159E-001, +8.00787391488E+002
+1.98549436796E+007, -2.46487866071E+000, +8.13953432107E+002
+1.99799749687E+007, +1.50545574871E+000, +8.19477979872E+002
+2.01050062578E+007, -2.12872637082E+000, +8.27568537029E+002
+2.02300375469E+007, +1.76050808866E+000, +8.37629659221E+002
+2.03550688360E+007, -1.69093317270E+000, +8.49265323136E+002
+2.04801001252E+007, -7.73989018499E-001, +8.54880945970E+002
+2.06051314143E+007, -6.87449004563E-002, +8.68963291781E+002
+2.07301627034E+007, +1.70229903987E+000, +8.73266859171E+002
+2.08551939925E+007, +6.99747063274E-002, +8.84913595764E+002
+2.09802252816E+007, +5.14255330757E-001, +8.86535836119E+002
+2.11052565707E+007, -9.67400910249E-001, +9.01396809776E+002
+2.12302878598E+007, -3.04604409848E+000, +9.10986140047E+002
+2.13553191489E+007, +1.83428296348E+000, +9.15916234217E+002
+2.14803504380E+007, +3.74771536758E+000, +9.26412687590E+002
+2.16053817272E+007, -4.18969693729E-002, +9.38807513078E+002
+2.17304130163E+007, -6.70933217849E-001, +9.47547986672E+002
+2.18554443054E+007, +6.48461771072E+000, +9.55546950897E+002
+2.19804755945E+007, +2.02575892870E+000, +9.68753932696E+002
+2.21055068836E+007, +2.75568287781E+000, +9.79606639840E+002
+2.22305381727E+007, +1.63263536166E+000, +9.89265993618E+002
+2.23555694618E+007, +7.12456799614E+000, +1.00234036507E+003
+2.24806007509E+007, +7.56456055417E+000, +1.01108437991E+003
+2.26056320401E+007, +1.35216171410E+001, +1.02480584124E+003
+2.27306633292E+007, +1.07992991559E+001, +1.02732325700E+003
+2.28556946183E+007, +7.51656586056E+000, +1.04267568291E+003
+2.29807259074E+007, +1.62168620409E+001, +1.05828765782E+003
+2.31057571965E+007, +1.19617395901E+001, +1.06266146118E+003
+2.32307884856E+007, +1.55635227656E+001, +1.07825609554E+003
+2.33558197747E+007, +1.76011438533E+001, +1.07730696187E+003
+2.34808510638E+007, +1.39617835342E+001, +1.09232430263E+003
+2.36058823529E+007, +1.49864328108E+001, +1.10973928995E+003
+2.37309136421E+007, +2.16021675051E+001, +1.11618539727E+003
+2.38559449312E+007, +2.09205440241E+001, +1.13633180272E+003
+2.39809762203E+007, +1.93733478553E+001, +1.14041376015E+003
+2.41060075094E+007, +1.85197903209E+001, +1.15098399218E+003
+2.42310387985E+007, +2.55064132176E+001, +1.16058660704E+003
+2.43560700876E+007, +2.67149956254E+001, +1.16563568309E+003
+2.44811013767E+007, +2.27545608772E+001, +1.18600779873E+003
+2.46061326658E+007, +2.69027926534E+001, +1.19667539595E+003
+2.47311639549E+007, +2.04633641016E+001, +1.19757328466E+003
+2.48561952441E+007, +2.79078307375E+001, +1.21583678125E+003
+2.49812265332E+007, +2.23141617699E+001, +1.24005328114E+003
+2.51062578223E+007, +2.87835603395E+001, +1.23635125855E+003
+2.52312891114E+007, +1.38452210159E+001, +1.24980024716E+003
+2.53563204005E+007, +1.80003256767E+001, +1.27659400599E+003
+2.54813516896E+007, +1.19034116784E+001, +1.28489818397E+003
+2.56063829787E+007, +1.10639137556E+001, +1.28823356939E+003
+2.57314142678E+007, +2.24418907410E+001, +1.31818230050E+003
+2.58564455569E+007, +1.71340262386E+001, +1.32471722380E+003
+2.59814768461E+007, +2.02218842839E+001, +1.33995655482E+003
+2.61065081352E+007, +1.09798248464E+001, +1.35048003709E+003
+2.62315394243E+007, +1.03923597612E+001, +1.37316888562E+003
+2.63565707134E+007, +1.73188550560E+001, +1.38543989688E+003
+2.64816020025E+007, +1.79314796090E+001, +1.40484270653E+003
+2.66066332916E+007, +2.18843457990E+001, +1.42807745683E+003
+2.67316645807E+007, +1.62293563590E+001, +1.43211008388E+003
+2.68566958698E+007, +2.34876392444E+001, +1.46479162958E+003
+2.69817271589E+007, +1.80434883076E+001, +1.48015267717E+003
+2.71067584481E+007, +2.35414019999E+001, +1.50143207663E+003
+2.72317897372E+007, +2.54645141511E+001, +1.51086433606E+003
+2.73568210263E+007, +3.85464479104E+001, +1.54257684454E+003
+2.74818523154E+007, +2.55208581590E+001, +1.53031046223E+003
+2.76068836045E+007, +2.66492232883E+001, +1.56279967272E+003
+2.77319148936E+007, +2.27420033306E+001, +1.57510824932E+003
+2.78569461827E+007, +2.12310546114E+001, +1.59628817720E+003
+2.79819774718E+007, +1.78696441869E+001, +1.62359886976E+003
+2.81070087610E+007, +1.94007751596E+001, +1.63665341180E+003
+2.82320400501E+007, +1.44121753356E+000, +1.67075413095E+003
+2.83570713392E+007, +1.07364635178E+001, +1.67690726132E+003
+2.84821026283E+007, +2.01519535893E+001, +1.71063889295E+003
+2.86071339174E+007, -4.65269963679E+000, +1.72499631310E+003
+2.87321652065E+007, +1.66918076594E+001, +1.75896677674E+003
+2.88571964956E+007, +1.04380993667E+001, +1.79488606347E+003
+2.89822277847E+007, -3.27375137987E+000, +1.80777676445E+003
+2.91072590738E+007, +1.72725483979E+001, +1.83166129980E+003
+2.92322903630E+007, -5.59224290066E+000, +1.86749929257E+003
+2.93573216521E+007, +7.30257428592E+000, +1.88416325749E+003
+2.94823529412E+007, +1.74072376204E+001, +1.91967892182E+003
+2.96073842303E+007, +1.38450273824E+000, +1.93825802238E+003
+2.97324155194E+007, +1.23337588753E+001, +1.98526969023E+003
+2.98574468085E+007, +5.00975684317E+000, +2.01177976700E+003
+2.99824780976E+007, +1.69454747855E+000, +2.05207566545E+003
+3.01075093867E+007, +1.11640939992E+001, +2.06111511277E+003
+3.02325406758E+007, +1.32271860938E+001, +2.08914863172E+003
+3.03575719650E+007, +8.09540093874E+000, +2.11892386446E+003
+3.04826032541E+007, +4.20378835468E+000, +2.17074294580E+003
+3.06076345432E+007, +2.33145722944E+000, +2.18349793343E+003
+3.07326658323E+007, -1.43631946292E+001, +2.23228015729E+003
+3.08576971214E+007, -1.34017963784E+001, +2.27191963543E+003
+3.09827284105E+007, -5.96326883862E+000, +2.31268613213E+003
+3.11077596996E+007, +8.30967115543E+000, +2.33995593960E+003
+3.12327909887E+007, +2.64810958219E+001, +2.38309980589E+003
+3.13578222778E+007, +1.36727256956E+001, +2.41215243258E+003
+3.14828535670E+007, +9.92926953672E+000, +2.46401230405E+003
+3.16078848561E+007, +1.86534436850E+001, +2.48747021694E+003
+3.17329161452E+007, -3.33963372612E+000, +2.55432789926E+003
+3.18579474343E+007, -9.92170246128E+000, +2.64205192227E+003
+3.19829787234E+007, -2.76111290273E+001, +2.66877058888E+003
+3.21080100125E+007, +1.86096999834E+001, +2.73473989286E+003
+3.22330413016E+007, +7.06215456456E+000, +2.74110519603E+003
+3.23580725907E+007, +5.25453233667E-001, +2.82599048537E+003
+3.24831038798E+007, +2.36668940313E+001, +2.87302663794E+003
+3.26081351690E+007, -1.50215905768E+001, +2.91781588707E+003
+3.27331664581E+007, -8.10635624665E-001, +2.97296263775E+003
+3.28581977472E+007, -1.03904244401E+001, +3.10102130993E+003
+3.29832290363E+007, +2.75702117118E+001, +3.11006446337E+003
+3.31082603254E+007, -4.02701610659E+001, +3.13665759279E+003
+3.32332916145E+007, +2.38713149479E+001, +3.26783855434E+003
+3.33583229036E+007, +4.66859190910E+000, +3.33555975909E+003
+3.34833541927E+007, -2.03195564430E+001, +3.37427408906E+003
+3.36083854819E+007, +2.25623356815E+001, +3.47255280682E+003
+3.37334167710E+007, +7.92490415316E+000, +3.55608043150E+003
+3.38584480601E+007, +3.64507248339E+001, +3.63739130665E+003
+3.39834793492E+007, -7.80998688670E-001, +3.77812829904E+003
+3.41085106383E+007, +8.85946328764E+001, +3.92917427407E+003
+3.42335419274E+007, +5.05805835295E+001, +3.89593529992E+003
+3.43585732165E+007, -8.49163305270E+000, +4.08641011865E+003
+3.44836045056E+007, +1.26809922672E+002, +4.25858697984E+003
+3.46086357947E+007, +1.45843814637E+002, +4.32790598394E+003
+3.47336670839E+007, +5.80325233881E+001, +4.40448680000E+003
+3.48586983730E+007, +3.84528643486E+001, +4.57456993898E+003
+3.49837296621E+007, +1.47479118577E+002, +4.67384689932E+003
+3.51087609512E+007, +1.42846881991E+002, +4.88216897927E+003
+3.52337922403E+007, +1.33901103590E+002, +4.88325527639E+003
+3.53588235294E+007, +3.26124727481E+001, +5.14477725095E+003
+3.54838548185E+007, +1.99203675388E+002, +5.19717915253E+003
+3.56088861076E+007, +1.88228423735E+002, +5.54676869054E+003
+3.57339173967E+007, +1.81487209467E+002, +5.68263984964E+003
+3.58589486859E+007, +1.25821826677E+002, +6.06321645731E+003
+3.59839799750E+007, +3.36840695698E+002, +6.26609430558E+003
+3.61090112641E+007, +8.90493940614E+001, +6.60426931449E+003
+3.62340425532E+007, -2.28477829891E+001, +6.67253558440E+003
+3.63590738423E+007, +2.96556333270E+002, +6.85897317952E+003
+3.64841051314E+007, +3.51848221729E+002, +7.11346827244E+003
+3.66091364205E+007, +3.76887228224E+002, +7.90368570234E+003
+3.67341677096E+007, +5.86281599548E+002, +8.28547308936E+003
+3.68591989987E+007, +3.39694738435E+002, +8.71931005758E+003
+3.69842302879E+007, +8.17989249591E+002, +9.01458982229E+003
+3.71092615770E+007, +6.32587783043E+002, +9.65288480950E+003
+3.72342928661E+007, +1.74480600029E+002, +9.98704205922E+003
+3.73593241552E+007, -1.59629401913E+002, +1.23076661761E+004
+3.74843554443E+007, +1.64109272238E+002, +1.20318612322E+004
+3.76093867334E+007, +9.61296278678E+002, +1.22822412364E+004
+3.77344180225E+007, +1.78946856749E+003, +1.46969603360E+004
+3.78594493116E+007, +1.39006028489E+003, +1.62346618624E+004
+3.79844806008E+007, +2.03508273048E+003, +1.75354130444E+004
+3.81095118899E+007, +2.47189505849E+003, +2.01655010196E+004
+3.82345431790E+007, +3.38575764133E+003, +2.38608734424E+004
+3.83595744681E+007, +2.96491106381E+003, +2.48192219407E+004
+3.84846057572E+007, +5.94547798685E+003, +2.85637984507E+004
+3.86096370463E+007, +1.11482156215E+004, +4.48920854627E+004
+3.87346683354E+007, +3.08063375002E+004, +4.45343798890E+004
+3.88596996245E+007, +8.10701614417E+004, +8.35058648107E+004
+3.89847309136E+007, +9.11010605774E+004, +6.64652551494E+003
+3.91097622028E+007, +7.50635031577E+004, -2.51219702770E+004
+3.92347934919E+007, +5.06427474936E+004, -4.61017810000E+004
+3.93598247810E+007, +3.78710554286E+004, -3.54074981912E+004
+3.94848560701E+007, +1.73585109477E+004, -3.30955456914E+004
+3.96098873592E+007, +1.12446439012E+004, -3.21951635897E+004
+3.97349186483E+007, +8.29840852996E+003, -2.21797212879E+004
+3.98599499374E+007, +7.92918295408E+003, -2.02041428933E+004
+3.99849812265E+007, +4.49947049045E+003, -1.70889983055E+004
+4.01100125156E+007, +4.61555476214E+003, -1.64043031825E+004
