"# Channel 1"
"# Trace 1"
Frequency, Formatted Data, Formatted Data
+1.00000000000E+005, +1.02041161933E+000, +3.23594427896E+000
+2.25031289111E+005, +1.01761290648E+000, +7.27186932225E+000
+3.50062578223E+005, +1.02781333034E+000, +1.12958999086E+001
+4.75093867334E+005, +1.05893681061E+000, +1.53656743224E+001
+6.00125156446E+005, +1.07775961223E+000, +1.93974700371E+001
+7.25156445557E+005, +1.12307649770E+000, +2.34048414618E+001
+8.50187734668E+005, +1.18774331134E+000, +2.74038681290E+001
+9.75219023780E+005, +1.18180496258E+000, +3.13943194219E+001
+1.10025031289E+006, +1.27659217970E+000, +3.53872354208E+001
+1.22528160200E+006, +1.31678837697E+000, +3.94083151606E+001
+1.35031289111E+006, +1.32445891065E+000, +4.34877106842E+001
+1.47534418023E+006, +1.40641699443E+000, +4.73500021448E+001
+1.60037546934E+006, +1.33909691264E+000, +5.13337407572E+001
+1.72540675845E+006, +1.43266039564E+000, +5.53265301442E+001
+1.85043804756E+006, +1.47732096404E+000, +5.92213155079E+001
+1.97546933667E+006, +1.45579744670E+000, +6.32637393567E+001
+2.10050062578E+006, +1.48296089789E+000, +6.72420213405E+001
+2.22553191489E+006, +1.40065100091E+000, +7.13126599392E+001
+2.35056320401E+006, +1.44309407061E+000, +7.53031685304E+001
+2.47559449312E+006, +1.40350160739E+000, +7.92016936190E+001
+2.60062578223E+006, +1.46003436460E+000, +8.31233693883E+001
+2.72565707134E+006, +1.50398708356E+000, +8.71209694595E+001
+2.85068836045E+006, +1.51638951198E+000, +9.12057930622E+001
+2.97571964956E+006, +1.49903282669E+000, +9.51547682276E+001
+3.10075093867E+006, +1.45395376052E+000, +9.94194383559E+001
+3.22578222778E+006, +1.63667082218E+000, +1.03181008303E+002
+3.35081351690E+006, +1.73744115604E+000, +1.07281047108E+002
+3.47584480601E+006, +1.69230587421E+000, +1.11141971013E+002
+3.60087609512E+006, +1.81144491616E+000, +1.15179931401E+002
+3.72590738423E+006, +1.74534562990E+000, +1.19536965892E+002
+3.85093867334E+006, +1.69113705152E+000, +1.23308941851E+002
+3.97596996245E+006, +1.73884926299E+000, +1.27305754214E+002
+4.10100125156E+006, +1.68274915716E+000, +1.31557787644E+002
+4.22603254068E+006, +1.59225476169E+000, +1.35240089769E+002
+4.35106382979E+006, +1.69403128911E+000, +1.39597365697E+002
+4.47609511890E+006, +1.89828990258E+000, +1.43625628782E+002
+4.60112640801E+006, +1.51924498626E+000, +1.47836436413E+002
+4.72615769712E+006, +1.47460174141E+000, +1.51928122297E+002
+4.85118898623E+006, +1.41540629387E+000, +1.55886950027E+002
+4.97622027534E+006, +1.47486208016E+000, +1.60332075092E+002
+5.10125156446E+006, +1.27610094261E+000, +1.64025127537E+002
+5.22628285357E+006, +1.61544092124E+000, +1.67993596501E+002
+5.35131414268E+006, +1.42448555460E+000, +1.72270307319E+002
+5.47634543179E+006, +1.70618755432E+000, +1.76558893159E+002
+5.60137672090E+006, +1.86304427037E+000, +1.81001932665E+002
+5.72640801001E+006, +1.48551787112E+000, +1.84879109389E+002
+5.85143929912E+006, +1.81898777441E+000, +1.89150412722E+002
+5.97647058824E+006, +2.05086453895E+000, +1.93063563202E+002
+6.10150187735E+006, +1.71763721731E+000, +1.97564349787E+002
+6.22653316646E+006, +1.97908227036E+000, +2.01763845780E+002
+6.35156445557E+006, +1.98896389282E+000, +2.06124319694E+002
+6.47659574468E+006, +2.33515549929E+000, +2.10216936126E+002
+6.60162703379E+006, +1.69098684198E+000, +2.14909026997E+002
+6.72665832290E+006, +2.08245611629E+000, +2.18787300412E+002
+6.85168961202E+006, +2.35525734570E+000, +2.23199276838E+002
+6.97672090113E+006, +1.96644122740E+000, +2.27400588429E+002
+7.10175219024E+006, +1.87173505590E+000, +2.31339483649E+002
+7.22678347935E+006, +2.03706281900E+000, +2.35739985576E+002
+7.35181476846E+006, +2.05491345793E+000, +2.40147883337E+002
+7.47684605757E+006, +2.05980958040E+000, +2.44769282434E+002
+7.60187734668E+006, +2.23082223900E+000, +2.48918171343E+002
+7.72690863579E+006, +2.27596769675E+000, +2.52914013783E+002
+7.85193992491E+006, +2.58992319630E+000, +2.57163029980E+002
+7.97697121402E+006, +2.51154304608E+000, +2.61957478813E+002
+8.10200250313E+006, +2.09484528836E+000, +2.66505663836E+002
+8.22703379224E+006, +2.53589095495E+000, +2.71029866809E+002
+8.35206508135E+006, +2.28091179585E+000, +2.75152450734E+002
+8.47709637046E+006, +2.28952793437E+000, +2.79540348404E+002
+8.60212765957E+006, +2.28127102033E+000, +2.83922569472E+002
+8.72715894869E+006, +2.51587811055E+000, +2.88803878721E+002
+8.85219023780E+006, +2.40109027108E+000, +2.93228404843E+002
+8.97722152691E+006, +2.64979722884E+000, +2.98004626138E+002
+9.10225281602E+006, +2.72161201494E+000, +3.02468394778E+002
+9.22728410513E+006, +2.45732950139E+000, +3.06980665805E+002
+9.35231539424E+006, +2.04889696610E+000, +3.11181068883E+002
+9.47734668335E+006, +2.42183335286E+000, +3.15472229560E+002
+9.60237797247E+006, +2.36954280240E+000, +3.20371342426E+002
+9.72740926158E+006, +2.47596250143E+000, +3.25194634424E+002
+9.85244055069E+006, +2.88118158847E+000, +3.29725995273E+002
+9.97747183980E+006, +2.28529585497E+000, +3.34438350332E+002
+1.01025031289E+007, +2.12734076028E+000, +3.38371850980E+002
+1.02275344180E+007, +2.57661852937E+000, +3.43598688790E+002
+1.03525657071E+007, +2.40924884086E+000, +3.48231201421E+002
+1.04775969962E+007, +2.58618324643E+000, +3.52903962708E+002
+1.06026282854E+007, +1.85903031408E+000, +3.57809465270E+002
+1.07276595745E+007, +2.16390870616E+000, +3.62653888564E+002
+1.08526908636E+007, +2.30454557499E+000, +3.67776632810E+002
+1.09777221527E+007, +2.46413788323E+000, +3.72785087542E+002
+1.11027534418E+007, +2.23384376171E+000, +3.76930450926E+002
+1.12277847309E+007, +1.95132452349E+000, +3.81685096844E+002
+1.13528160200E+007, +1.57240973114E+000, +3.87099399407E+002
+1.14778473091E+007, +2.43723643984E+000, +3.91878540332E+002
+1.16028785982E+007, +1.29533259294E+000, +3.97016836858E+002
+1.17279098874E+007, +2.01930649037E+000, +4.02053701901E+002
+1.18529411765E+007, +1.05690090968E+000, +4.06703218322E+002
+1.19779724656E+007, +1.32859115266E+000, +4.11178649177E+002
+1.21030037547E+007, +1.73206667846E+000, +4.16943717196E+002
+1.22280350438E+007, +1.44417394346E+000, +4.22041359766E+002
+1.23530663329E+007, +2.46093720347E+000, +4.28622097071E+002
+1.24780976220E+007, +1.67315064360E+000, +4.32665502819E+002
+1.26031289111E+007, +1.64671073367E+000, +4.37337197132E+002
+1.27281602003E+007, +1.35349298820E+000, +4.41614198847E+002
+1.28531914894E+007, +2.34326523560E+000, +4.47944474155E+002
+1.29782227785E+007, +8.32471146356E-001, +4.53148331436E+002
+1.31032540676E+007, +2.11403469755E+000, +4.58237526879E+002
+1.32282853567E+007, +1.87542726734E+000, +4.64334456764E+002
+1.33533166458E+007, +2.42797848813E+000, +4.68388405216E+002
+1.34783479349E+007, +1.16071891563E+000, +4.75678605948E+002
+1.36033792240E+007, +1.54397075715E+000, +4.79729831863E+002
+1.37284105131E+007, +1.40163847799E+000, +4.85268873526E+002
+1.38534418023E+007, +1.58182076420E+000, +4.89882812572E+002
+1.39784730914E+007, +2.10656843824E+000, +4.94497271509E+002
+1.41035043805E+007, +1.68795637012E+000, +5.02449730857E+002
+1.42285356696E+007, +1.81610070375E+000, +5.07540703472E+002
+1.43535669587E+007, +2.10737141331E+000, +5.13299496505E+002
+1.44785982478E+007, +5.46492031558E-001, +5.17750515511E+002
+1.46036295369E+007, +5.66069815436E-001, +5.23705600759E+002
+1.47286608260E+007, +2.47963204208E-001, +5.31792353253E+002
+1.48536921151E+007, +5.91225604561E-001, +5.36558409392E+002
+1.49787234043E+007, +1.57979557473E+000, +5.41943462840E+002
+1.51037546934E+007, +2.53259393030E-001, +5.46505735615E+002
+1.52287859825E+007, +8.24930115780E-001, +5.51422762198E+002
+1.53538172716E+007, +1.17908130708E-001, +5.58918342464E+002
+1.54788485607E+007, +8.14948056078E-001, +5.65972636800E+002
+1.56038798498E+007, +5.75061536378E-001, +5.70615322533E+002
+1.57289111389E+007, +1.14048609737E+000, +5.78544522798E+002
+1.58539424280E+007, +5.11414824364E-001, +5.83242544905E+002
+1.59789737171E+007, +2.05750481403E-002, +5.89138745090E+002
+1.61040050063E+007, +9.84391648298E-001, +5.96193915144E+002
+1.62290362954E+007, +2.65971626892E-001, +6.02543295976E+002
+1.63540675845E+007, +9.69591583108E-001, +6.08565880321E+002
+1.64790988736E+007, +5.97899040107E-001, +6.15233494187E+002
+1.66041301627E+007, -1.24012153792E+000, +6.20626808694E+002
+1.67291614518E+007, -5.80421083653E-002, +6.30316587907E+002
+1.68541927409E+007, -7.05151774257E-001, +6.34704243684E+002
+1.69792240300E+007, -2.38970537342E+000, +6.41147698732E+002
+1.71042553191E+007, -5.40117643902E+000, +6.49139976162E+002
+1.72292866083E+007, -2.24162801150E+000, +6.53018182937E+002
+1.73543178974E+007, -1.32235070834E+000, +6.63078827539E+002
+1.74793491865E+007, -3.31883134508E+000, +6.68541005859E+002
+1.76043804756E+007, -2.27519964786E+000, +6.75693511485E+002
+1.77294117647E+007, -2.09832790010E+000, +6.80024150751E+002
+1.78544430538E+007, -1.66157673565E-001, +6.89113224542E+002
+1.79794743429E+007, -1.04834323122E+000, +6.95562377263E+002
+1.81045056320E+007, -2.29674959540E+000, +7.03759302318E+002
+1.82295369212E+007, -8.75679310531E-001, +7.10366688320E+002
+1.83545682103E+007, -1.94384146527E+000, +7.17767600489E+002
+1.84795994994E+007, +3.06046094516E-001, +7.24253330592E+002
+1.86046307885E+007, +1.22276077070E+000, +7.31960345437E+002
+1.87296620776E+007, -1.61627227814E+000, +7.38648759624E+002
+1.88546933667E+007, -1.27382736786E+000, +7.45574087062E+002
+1.89797246558E+007, +8.16465721388E-002, +7.52526739100E+002
+1.91047559449E+007, -5.12814135375E-001, +7.59791100268E+002
+1.92297872340E+007, -3.43041483653E-001, +7.73538040464E+002
+1.93548185232E+007, +1.34152523454E+000, +7.80645948886E+002
+1.94798498123E+007, -1.60866311186E+000, +7.85307383007E+002
+1.96048811014E+007, -2.14383358153E+000, +7.93207782665E+002
+1.97299123905E+007, -3.19732058569E+000, +8.01222449006E+002
+1.98549436796E+007, -1.71844879723E+000, +8.13336053757E+002
+1.99799749687E+007, +1.36379584282E+000, +8.17098203346E+002
+2.01050062578E+007, -1.19238776419E+000, +8.25221009214E+002
+2.02300375469E+007, +1.30367887553E+000, +8.35144665542E+002
+2.03550688360E+007, -2.83811875198E+000, +8.45330718561E+002
+2.04801001252E+007, -1.57277853500E+000, +8.51397305613E+002
+2.06051314143E+007, +8.10802344409E-001, +8.65702078453E+002
+2.07301627034E+007, +4.72823074973E-001, +8.73984188365E+002
+2.08551939925E+007, +9.76061820235E-002, +8.82814644965E+002
+2.09802252816E+007, +1.75047593948E+000, +8.86188955318E+002
+2.11052565707E+007, -7.58139826834E-001, +8.97152719808E+002
+2.12302878598E+007, -3.01683693060E+000, +9.10003025879E+002
+2.13553191489E+007, +1.42590445144E+000, +9.11521120017E+002
+2.14803504380E+007, +2.35869123177E+000, +9.24204761455E+002
+2.16053817272E+007, -6.78199769892E-001, +9.38896073667E+002
+2.17304130163E+007, -3.29015874672E+000, +9.49572893569E+002
+2.18554443054E+007, +6.28720508158E+000, +9.56141475542E+002
+2.19804755945E+007, +4.31745771215E-001, +9.67127137886E+002
+2.21055068836E+007, -1.86947460280E+000, +9.79686472390E+002
+2.22305381727E+007, -1.59079259969E+000, +9.87284573958E+002
+2.23555694618E+007, +4.70268224255E+000, +1.00005973531E+003
+2.24806007509E+007, +9.96865777891E+000, +1.00731820030E+003
+2.26056320401E+007, +4.98170476427E+000, +1.01995552732E+003
+2.27306633292E+007, +7.10210154539E+000, +1.02580080294E+003
+2.28556946183E+007, +6.43924777383E+000, +1.03780115823E+003
+2.29807259074E+007, +8.57960965398E+000, +1.05830869587E+003
+2.31057571965E+007, +1.15728044261E+001, +1.06215773711E+003
+2.32307884856E+007, +8.84069956663E+000, +1.07469325594E+003
+2.33558197747E+007, +1.30003426838E+001, +1.07932370986E+003
+2.34808510638E+007, +1.43425597290E+001, +1.09408665028E+003
+2.36058823529E+007, +1.51646621418E+001, +1.10284577080E+003
+2.37309136421E+007, +1.47154589055E+001, +1.11496946222E+003
+2.38559449312E+007, +2.08493187375E+001, +1.13618104614E+003
+2.39809762203E+007, +2.31719607777E+001, +1.13725617711E+003
+2.41060075094E+007, +2.42644957883E+001, +1.14831181415E+003
+2.42310387985E+007, +2.57680882896E+001, +1.16525754878E+003
+2.43560700876E+007, +3.22937094095E+001, +1.17241889363E+003
+2.44811013767E+007, +2.29910223625E+001, +1.18507468293E+003
+2.46061326658E+007, +2.97912014101E+001, +1.19825536187E+003
+2.47311639549E+007, +2.41943876009E+001, +1.20288920914E+003
+2.48561952441E+007, +3.49879559559E+001, +1.21785437850E+003
+2.49812265332E+007, +2.52167121909E+001, +1.23319704860E+003
+2.51062578223E+007, +3.22682031498E+001, +1.23864205029E+003
+2.52312891114E+007, +2.85088449340E+001, +1.24782988462E+003
+2.53563204005E+007, +2.16510253894E+001, +1.26588667346E+003
+2.54813516896E+007, +1.62486895539E+001, +1.28172422668E+003
+2.56063829787E+007, +2.47037614414E+001, +1.28941306692E+003
+2.57314142678E+007, +2.62685213585E+001, +1.30927490003E+003
+2.58564455569E+007, +2.19186161174E+001, +1.32011094944E+003
+2.59814768461E+007, +2.29621129883E+001, +1.33641360997E+003
+2.61065081352E+007, +2.41741075339E+001, +1.34835741296E+003
+2.62315394243E+007, +4.77817989068E+000, +1.37475616876E+003
+2.63565707134E+007, +1.06654592279E+001, +1.39388085997E+003
+2.64816020025E+007, +1.92199737121E+001, +1.40073254841E+003
+2.66066332916E+007, +2.46195646556E+001, +1.41917072025E+003
+2.67316645807E+007, +1.46830024240E+001, +1.42684519377E+003
+2.68566958698E+007, +2.41715691400E+001, +1.45041164515E+003
+2.69817271589E+007, +1.01300160354E+001, +1.47561432358E+003
+2.71067584481E+007, +1.67378289944E+001, +1.49379518932E+003
+2.72317897372E+007, +2.46187403788E+001, +1.49898909634E+003
+2.73568210263E+007, +4.97636912578E+001, +1.51722126384E+003
+2.74818523154E+007, +3.13370449908E+001, +1.53523393003E+003
+2.76068836045E+007, +2.22703864276E+001, +1.55082533758E+003
+2.77319148936E+007, +3.26406421744E+001, +1.56623350643E+003
+2.78569461827E+007, +2.25005434522E+001, +1.57800577049E+003
+2.79819774718E+007, +1.51925951601E+001, +1.61179472831E+003
+2.81070087610E+007, +2.41859021957E+001, +1.62025387684E+003
+2.82320400501E+007, +6.05781069376E+000, +1.65516523495E+003
+2.83570713392E+007, +6.40388487307E+000, +1.68019926020E+003
+2.84821026283E+007, +2.03579588098E+001, +1.69366955685E+003
+2.86071339174E+007, -5.59375856861E+000, +1.71700304297E+003
+2.87321652065E+007, +1.34164698331E+001, +1.74076019211E+003
+2.88571964956E+007, +1.53695584538E+001, +1.76228393098E+003
+2.89822277847E+007, +1.41626473042E+001, +1.77672990225E+003
+2.91072590738E+007, +1.00644641110E+001, +1.82062537716E+003
+2.92322903630E+007, +2.74187414010E+000, +1.85652151449E+003
+2.93573216521E+007, +3.77827860834E+000, +1.87609591278E+003
+2.94823529412E+007, +1.54191991100E+001, +1.89648294984E+003
+2.96073842303E+007, +2.08218275642E+000, +1.93755686742E+003
+2.97324155194E+007, +4.28585398043E+000, +1.96882398869E+003
+2.98574468085E+007, +1.32724787201E+001, +1.99472277003E+003
+2.99824780976E+007, -3.46478994367E+000, +2.01994130938E+003
+3.01075093867E+007, +1.26237393917E+001, +2.06040101158E+003
+3.02325406758E+007, -2.24516068963E+000, +2.06749516430E+003
+3.03575719650E+007, +7.80810797751E+000, +2.10886735264E+003
+3.04826032541E+007, -7.69472687462E+000, +2.12334295857E+003
+3.06076345432E+007, +4.90149282247E+000, +2.15494066157E+003
+3.07326658323E+007, -9.34589243806E+000, +2.20144753052E+003
+3.08576971214E+007, -1.33281201545E+001, +2.24124105679E+003
+3.09827284105E+007, -1.30255201345E+001, +2.29308272022E+003
+3.11077596996E+007, -1.05294047669E+001, +2.31977056112E+003
+3.12327909887E+007, +7.41857293154E+000, +2.36778675149E+003
+3.13578222778E+007, +1.10210720540E+001, +2.39700955377E+003
+3.14828535670E+007, +1.95487769811E+001, +2.43921339145E+003
+3.16078848561E+007, +1.82174736416E+001, +2.46510607339E+003
+3.17329161452E+007, +1.06062558642E+001, +2.52178182301E+003
+3.18579474343E+007, -1.18484070502E+001, +2.61282741808E+003
+3.19829787234E+007, -8.23806012553E+000, +2.61036988556E+003
+3.21080100125E+007, +2.28897993233E+001, +2.69981889518E+003
+3.22330413016E+007, -1.08091068334E+001, +2.71235909474E+003
+3.23580725907E+007, -1.61936325140E+001, +2.79387492940E+003
+3.24831038798E+007, -1.85453050133E+000, +2.80959596781E+003
+3.26081351690E+007, +2.11396766512E+000, +2.86347979194E+003
+3.27331664581E+007, +9.79958911782E+000, +2.92496746711E+003
+3.28581977472E+007, -2.44708065686E+001, +3.04762400739E+003
+3.29832290363E+007, +1.41280681321E+001, +3.07259585819E+003
+3.31082603254E+007, -3.10030744510E+001, +3.08366660944E+003
+3.32332916145E+007, -9.28179395966E+000, +3.20926955926E+003
+3.33583229036E+007, -2.87484923819E+001, +3.27026567480E+003
+3.34833541927E+007, -1.63437413703E+001, +3.31850922554E+003
+3.36083854819E+007, +1.19761625403E+001, +3.40901524231E+003
+3.37334167710E+007, -2.08308636832E+000, +3.49284187563E+003
+3.38584480601E+007, -4.85233078388E+000, +3.56853222338E+003
+3.39834793492E+007, +3.05151339479E+001, +3.72088025228E+003
+3.41085106383E+007, +6.49307046065E+001, +3.78023171222E+003
+3.42335419274E+007, +8.46305192612E+001, +3.82388220780E+003
+3.43585732165E+007, +1.56199975849E+001, +3.94596444145E+003
+3.44836045056E+007, +1.82101482178E+002, +4.09741129409E+003
+3.46086357947E+007, +7.06341327448E+001, +4.21984623057E+003
+3.47336670839E+007, +1.24574776411E+002, +4.35141537312E+003
+3.48586983730E+007, +4.93045770723E+001, +4.36113681659E+003
+3.49837296621E+007, +1.57154989656E+002, +4.54555574602E+003
+3.51087609512E+007, +1.35683696198E+002, +4.74113037807E+003
+3.52337922403E+007, +1.50371828398E+002, +4.83320222515E+003
+3.53588235294E+007, +5.15868857889E+001, +5.07388338162E+003
+3.54838548185E+007, +1.79188548308E+002, +5.10795978474E+003
+3.56088861076E+007, +5.28759887773E+001, +5.36948905334E+003
+3.57339173967E+007, +1.81381417759E+002, +5.62208589293E+003
+3.58589486859E+007, +7.43478375932E+001, +5.65712664490E+003
+3.59839799750E+007, +3.15998395615E+002, +5.90111446155E+003
+3.61090112641E+007, +1.21507518238E+002, +6.27614500398E+003
+3.62340425532E+007, +2.63041719267E+002, +6.25285402792E+003
+3.63590738423E+007, +2.71187644141E+002, +6.66173652618E+003
+3.64841051314E+007, +2.80492741262E+002, +7.00619233942E+003
+3.66091364205E+007, +4.45540744866E+002, +7.32115300503E+003
+3.67341677096E+007, +4.06910599162E+002, +7.65750763219E+003
+3.68591989987E+007, +5.58931692218E+001, +8.01002493477E+003
+3.69842302879E+007, +4.38434125028E+002, +8.43242339410E+003
+3.71092615770E+007, +4.75504085842E+002, +8.91113103264E+003
+3.72342928661E+007, +4.12097549189E+002, +9.46230763520E+003
+3.73593241552E+007, +2.95146118227E+002, +1.11527072243E+004
+3.74843554443E+007, +3.51299423297E+002, +1.15121453983E+004
+3.76093867334E+007, +6.08507512568E+002, +1.16014313747E+004
+3.77344180225E+007, +1.15161555020E+003, +1.33879187745E+004
+3.78594493116E+007, +6.95477173918E+002, +1.46011338641E+004
+3.79844806008E+007, +2.45299679707E+003, +1.62101446205E+004
+3.81095118899E+007, +1.27696887206E+003, +1.77845225886E+004
+3.82345431790E+007, +2.53524997278E+003, +2.06319898578E+004
+3.83595744681E+007, +3.78093120449E+003, +2.11034049987E+004
+3.84846057572E+007, +3.95786795336E+003, +2.56502075663E+004
+3.86096370463E+007, +2.46914114198E+003, +3.22631941395E+004
+3.87346683354E+007, +1.12334663349E+004, +3.10940316232E+004
+3.88596996245E+007, +2.13133998684E+004, +5.69478916808E+004
+3.89847309136E+007, +4.45448330557E+004, +3.63607350636E+004
+3.91097622028E+007, +9.20814192646E+004, +1.61769021561E+004
+3.92347934919E+007, +7.08000218230E+004, +1.60744377071E+003
+3.93598247810E+007, +7.59654271128E+004, -3.88831373930E+004
+3.94848560701E+007, +1.41604706040E+004, -5.36795825926E+004
+3.96098873592E+007, +2.37511188554E+004, -4.15358286366E+004
+3.97349186483E+007, +1.30947000878E+004, -2.37646010419E+004
+3.98599499374E+007, +1.20181240205E+004, -2.44063424563E+004
+3.99849812265E+007, +5.58964591096E+003, -2.12111588221E+004
+4.01100125156E+007, +4.90800172952E+003, -2.04985098807E+004
