"# Channel 1"
"# Trace 1"
Frequency, Formatted Data, Formatted Data
+1.00000000000E+005, +6.66783939987E+001, +2.94634539206E+000
+2.25031289111E+005, +6.66066763461E+001, +7.49777809878E+000
+3.50062578223E+005, +6.65727397572E+001, +1.15853458983E+001
+4.75093867334E+005, +6.65248695021E+001, +1.57861892635E+001
+6.00125156446E+005, +6.66473125439E+001, +1.98381916121E+001
+7.25156445557E+005, +6.66028569252E+001, +2.40281701287E+001
+8.50187734668E+005, +6.66503437021E+001, +2.82321224907E+001
+9.75219023780E+005, +6.65464956259E+001, +3.22666689986E+001
+1.10025031289E+006, +6.66768870807E+001, +3.65065676842E+001
+1.22528160200E+006, +6.66816678333E+001, +4.05476712831E+001
+1.35031289111E+006, +6.68158332066E+001, +4.46886235232E+001
+1.47534418023E+006, +6.67156690137E+001, +4.87535102167E+001
+1.60037546934E+006, +6.67349907510E+001, +5.29294578599E+001
+1.72540675845E+006, +6.68221082735E+001, +5.72726203319E+001
+1.85043804756E+006, +6.66884855991E+001, +6.14637004677E+001
+1.97546933667E+006, +6.67974960297E+001, +6.52708839430E+001
+2.10050062578E+006, +6.69137527501E+001, +6.97157896527E+001
+2.22553191489E+006, +6.67630416043E+001, +7.37812147371E+001
+2.35056320401E+006, +6.69376473863E+001, +7.79831924828E+001
+2.47559449312E+006, +6.68736347482E+001, +8.20559663005E+001
+2.60062578223E+006, +6.69770006046E+001, +8.61909379802E+001
+2.72565707134E+006, +6.68255141998E+001, +9.03389766683E+001
+2.85068836045E+006, +6.69022320603E+001, +9.44647667228E+001
+2.97571964956E+006, +6.71774071094E+001, +9.87409368429E+001
+3.10075093867E+006, +6.71234880114E+001, +1.02890461073E+002
+3.22578222778E+006, +6.69872717365E+001, +1.06961491416E+002
+3.35081351690E+006, +6.70206566925E+001, +1.11223543840E+002
+3.47584480601E+006, +6.71567320156E+001, +1.15460207888E+002
+3.60087609512E+006, +6.72471939552E+001, +1.19733505201E+002
+3.72590738423E+006, +6.74951460533E+001, +1.23788604642E+002
+3.85093867334E+006, +6.73201384974E+001, +1.28016667026E+002
+3.97596996245E+006, +6.74926371945E+001, +1.31881710589E+002
+4.10100125156E+006, +6.75360392547E+001, +1.36172589142E+002
+4.22603254068E+006, +6.78422401314E+001, +1.40905614888E+002
+4.35106382979E+006, +6.79374422376E+001, +1.44942042128E+002
+4.47609511890E+006, +6.79080138921E+001, +1.49363750435E+002
+4.60112640801E+006, +6.75829022462E+001, +1.53436880272E+002
+4.72615769712E+006, +6.79765535264E+001, +1.58053158402E+002
+4.85118898623E+006, +6.76405595796E+001, +1.61840292209E+002
+4.97622027534E+006, +6.81270192629E+001, +1.66290034912E+002
+5.10125156446E+006, +6.80311152997E+001, +1.70731393093E+002
+5.22628285357E+006, +6.82303939663E+001, +1.74540468950E+002
+5.35131414268E+006, +6.85485616018E+001, +1.79576567681E+002
+5.47634543179E+006, +6.84550806484E+001, +1.83362520336E+002
+5.60137672090E+006, +6.90014110440E+001, +1.87922182723E+002
+5.72640801001E+006, +6.88624159761E+001, +1.92018836139E+002
+5.85143929912E+006, +6.88180260112E+001, +1.96623257082E+002
+5.97647058824E+006, +6.91247299502E+001, +2.00636235291E+002
+6.10150187735E+006, +6.91401675780E+001, +2.04941033828E+002
+6.22653316646E+006, +6.98657961170E+001, +2.09531848231E+002
+6.35156445557E+006, +6.95193191687E+001, +2.13959099559E+002
+6.47659574468E+006, +6.96276860090E+001, +2.18181381972E+002
+6.60162703379E+006, +7.00485712559E+001, +2.22394316570E+002
+6.72665832290E+006, +7.02235088794E+001, +2.26756563571E+002
+6.85168961202E+006, +7.05234852706E+001, +2.31560611490E+002
+6.97672090113E+006, +7.02783424314E+001, +2.36187452884E+002
+7.10175219024E+006, +7.03487213889E+001, +2.40209708366E+002
+7.22678347935E+006, +7.07500604225E+001, +2.44354117967E+002
+7.35181476846E+006, +7.07700880532E+001, +2.49467522772E+002
+7.47684605757E+006, +7.10383696907E+001, +2.53548932542E+002
+7.60187734668E+006, +7.11474704307E+001, +2.58220947183E+002
+7.72690863579E+006, +7.16484030777E+001, +2.62354761249E+002
+7.85193992491E+006, +7.13445109585E+001, +2.67547207495E+002
+7.97697121402E+006, +7.17396682563E+001, +2.71760397026E+002
+8.10200250313E+006, +7.19151879491E+001, +2.76241007066E+002
+8.22703379224E+006, +7.16857819704E+001, +2.81218797309E+002
+8.35206508135E+006, +7.18585287098E+001, +2.85735746891E+002
+8.47709637046E+006, +7.23676824198E+001, +2.90685567424E+002
+8.60212765957E+006, +7.23392513274E+001, +2.94611469126E+002
+8.72715894869E+006, +7.21640701156E+001, +2.99928578860E+002
+8.85219023780E+006, +7.21669542307E+001, +3.04693963575E+002
+8.97722152691E+006, +7.24264838907E+001, +3.09525992666E+002
+9.10225281602E+006, +7.31775820484E+001, +3.13779624971E+002
+9.22728410513E+006, +7.38281018452E+001, +3.18866504214E+002
+9.35231539424E+006, +7.31432644344E+001, +3.24176718362E+002
+9.47734668335E+006, +7.34541950539E+001, +3.28984762731E+002
+9.60237797247E+006, +7.39478283926E+001, +3.33554057525E+002
+9.72740926158E+006, +7.36549401376E+001, +3.38078007026E+002
+9.85244055069E+006, +7.45748297364E+001, +3.42534215008E+002
+9.97747183980E+006, +7.45661605921E+001, +3.48027683872E+002
+1.01025031289E+007, +7.39208187386E+001, +3.53309661001E+002
+1.02275344180E+007, +7.46539476726E+001, +3.57958411485E+002
+1.03525657071E+007, +7.50809483986E+001, +3.62932419772E+002
+1.04775969962E+007, +7.51419392503E+001, +3.68108903666E+002
+1.06026282854E+007, +7.58441626745E+001, +3.73072814371E+002
+1.07276595745E+007, +7.49490938658E+001, +3.78337174402E+002
+1.08526908636E+007, +7.61664566161E+001, +3.82820446608E+002
+1.09777221527E+007, +7.58748573609E+001, +3.87715552631E+002
+1.11027534418E+007, +7.56699536967E+001, +3.93481538359E+002
+1.12277847309E+007, +7.61408481233E+001, +3.98704895600E+002
+1.13528160200E+007, +7.61855189855E+001, +4.04518505082E+002
+1.14778473091E+007, +7.67350433813E+001, +4.09508927912E+002
+1.16028785982E+007, +7.69604464243E+001, +4.14911462575E+002
+1.17279098874E+007, +7.80271180297E+001, +4.19763288408E+002
+1.18529411765E+007, +7.86381019200E+001, +4.24663216954E+002
+1.19779724656E+007, +7.78332920831E+001, +4.30382913926E+002
+1.21030037547E+007, +7.83198915460E+001, +4.35842291834E+002
+1.22280350438E+007, +7.82774228141E+001, +4.41381315133E+002
+1.23530663329E+007, +7.92293241011E+001, +4.46954201707E+002
+1.24780976220E+007, +7.97008392155E+001, +4.52344122987E+002
+1.26031289111E+007, +7.93500055489E+001, +4.57314060389E+002
+1.27281602003E+007, +7.92708242475E+001, +4.61925740200E+002
+1.28531914894E+007, +8.09162182865E+001, +4.68953398000E+002
+1.29782227785E+007, +8.02311985636E+001, +4.75034827301E+002
+1.31032540676E+007, +8.01240839290E+001, +4.79131509362E+002
+1.32282853567E+007, +8.13252825673E+001, +4.85471006349E+002
+1.33533166458E+007, +8.20578459888E+001, +4.92389118063E+002
+1.34783479349E+007, +8.20543509645E+001, +4.97689119785E+002
+1.36033792240E+007, +8.12983819236E+001, +5.01711922868E+002
+1.37284105131E+007, +8.19282751510E+001, +5.07106336135E+002
+1.38534418023E+007, +8.29636671675E+001, +5.15809472407E+002
+1.39784730914E+007, +8.36638127057E+001, +5.19343844501E+002
+1.41035043805E+007, +8.33860669683E+001, +5.27414245244E+002
+1.42285356696E+007, +8.37175699262E+001, +5.32197137981E+002
+1.43535669587E+007, +8.36927789295E+001, +5.38714035618E+002
+1.44785982478E+007, +8.62428161367E+001, +5.46015509491E+002
+1.46036295369E+007, +8.58401953302E+001, +5.50985123907E+002
+1.47286608260E+007, +8.45623814810E+001, +5.57727497351E+002
+1.48536921151E+007, +8.47807563649E+001, +5.64369984422E+002
+1.49787234043E+007, +8.72024122744E+001, +5.70125465790E+002
+1.51037546934E+007, +8.60961753619E+001, +5.75483291083E+002
+1.52287859825E+007, +8.64184950729E+001, +5.83160387983E+002
+1.53538172716E+007, +8.83070067690E+001, +5.87465277029E+002
+1.54788485607E+007, +8.97187697875E+001, +5.95176830834E+002
+1.56038798498E+007, +8.88468458277E+001, +6.01839830151E+002
+1.57289111389E+007, +8.85616750043E+001, +6.09403242901E+002
+1.58539424280E+007, +9.15441066010E+001, +6.16686044645E+002
+1.59789737171E+007, +8.98744970254E+001, +6.20981016708E+002
+1.61040050063E+007, +9.07234654396E+001, +6.25891297288E+002
+1.62290362954E+007, +9.12095023264E+001, +6.34529122363E+002
+1.63540675845E+007, +9.16901358005E+001, +6.40067824601E+002
+1.64790988736E+007, +9.25159767975E+001, +6.48647948412E+002
+1.66041301627E+007, +9.10029815921E+001, +6.54332051290E+002
+1.67291614518E+007, +9.30051301477E+001, +6.62492486711E+002
+1.68541927409E+007, +9.52743263012E+001, +6.69142214844E+002
+1.69792240300E+007, +9.36426188638E+001, +6.77325478886E+002
+1.71042553191E+007, +9.34169397237E+001, +6.87057562251E+002
+1.72292866083E+007, +9.41956249444E+001, +6.91230487407E+002
+1.73543178974E+007, +9.62497542844E+001, +6.97660322539E+002
+1.74793491865E+007, +9.63603328299E+001, +7.07595808240E+002
+1.76043804756E+007, +9.79563324443E+001, +7.15597172089E+002
+1.77294117647E+007, +9.69869217203E+001, +7.23043617604E+002
+1.78544430538E+007, +1.01789443953E+002, +7.29641699902E+002
+1.79794743429E+007, +9.86219275217E+001, +7.37506517259E+002
+1.81045056320E+007, +1.00742718568E+002, +7.47909420445E+002
+1.82295369212E+007, +1.01299961134E+002, +7.54235692041E+002
+1.83545682103E+007, +1.02931745912E+002, +7.60434071009E+002
+1.84795994994E+007, +1.02059509924E+002, +7.70535387885E+002
+1.86046307885E+007, +1.05638271248E+002, +7.76416641071E+002
+1.87296620776E+007, +1.02628323259E+002, +7.86335986508E+002
+1.88546933667E+007, +1.02624905421E+002, +7.92308742569E+002
+1.89797246558E+007, +1.05667996896E+002, +7.99151717635E+002
+1.91047559449E+007, +1.06418071171E+002, +8.07575977009E+002
+1.92297872340E+007, +1.10572200542E+002, +8.18806098185E+002
+1.93548185232E+007, +1.13334722138E+002, +8.29794382062E+002
+1.94798498123E+007, +1.11092331941E+002, +8.37130838788E+002
+1.96048811014E+007, +1.15391135379E+002, +8.45444769315E+002
+1.97299123905E+007, +1.12743182737E+002, +8.53766701423E+002
+1.98549436796E+007, +1.09716397464E+002, +8.63750254361E+002
+1.99799749687E+007, +1.15879237400E+002, +8.72237063214E+002
+2.01050062578E+007, +1.14549905383E+002, +8.77162658365E+002
+2.02300375469E+007, +1.16909404703E+002, +8.87970215999E+002
+2.03550688360E+007, +1.17617434834E+002, +8.99372911490E+002
+2.04801001252E+007, +1.20300230795E+002, +9.12513585625E+002
+2.06051314143E+007, +1.20585141341E+002, +9.16568633156E+002
+2.07301627034E+007, +1.22855707865E+002, +9.28170489455E+002
+2.08551939925E+007, +1.26243445178E+002, +9.39642368877E+002
+2.09802252816E+007, +1.24110200141E+002, +9.49400576048E+002
+2.11052565707E+007, +1.27369404915E+002, +9.59656737448E+002
+2.12302878598E+007, +1.28606611801E+002, +9.71512232280E+002
+2.13553191489E+007, +1.33965921709E+002, +9.77657109591E+002
+2.14803504380E+007, +1.36940621664E+002, +9.99209621453E+002
+2.16053817272E+007, +1.34674396182E+002, +1.00279076862E+003
+2.17304130163E+007, +1.39267619155E+002, +1.01637122523E+003
+2.18554443054E+007, +1.40979534756E+002, +1.02443954704E+003
+2.19804755945E+007, +1.42737567439E+002, +1.03402546701E+003
+2.21055068836E+007, +1.44702815363E+002, +1.04227492629E+003
+2.22305381727E+007, +1.46126941435E+002, +1.05250327726E+003
+2.23555694618E+007, +1.47057371826E+002, +1.07313322215E+003
+2.24806007509E+007, +1.57106460443E+002, +1.08447922035E+003
+2.26056320401E+007, +1.53548678423E+002, +1.09866972306E+003
+2.27306633292E+007, +1.59687533376E+002, +1.10561208808E+003
+2.28556946183E+007, +1.61403789579E+002, +1.11171368572E+003
+2.29807259074E+007, +1.59405779481E+002, +1.13255385537E+003
+2.31057571965E+007, +1.67965415948E+002, +1.14093924832E+003
+2.32307884856E+007, +1.77494258130E+002, +1.15439836454E+003
+2.33558197747E+007, +1.71516363522E+002, +1.16268300764E+003
+2.34808510638E+007, +1.70175140492E+002, +1.17673719533E+003
+2.36058823529E+007, +1.83263158193E+002, +1.18094899111E+003
+2.37309136421E+007, +1.81510415277E+002, +1.19891717966E+003
+2.38559449312E+007, +1.86449247199E+002, +1.21265793500E+003
+2.39809762203E+007, +1.98183791566E+002, +1.21604535758E+003
+2.41060075094E+007, +1.94387416004E+002, +1.24211653124E+003
+2.42310387985E+007, +1.90492758403E+002, +1.23338931598E+003
+2.43560700876E+007, +1.99205135321E+002, +1.25422836854E+003
+2.44811013767E+007, +1.99707038584E+002, +1.26726276496E+003
+2.46061326658E+007, +1.99034130630E+002, +1.27393193787E+003
+2.47311639549E+007, +1.99352864134E+002, +1.29694914392E+003
+2.48561952441E+007, +2.04832523391E+002, +1.30702986877E+003
+2.49812265332E+007, +2.18038294650E+002, +1.31956268400E+003
+2.51062578223E+007, +2.07359189360E+002, +1.33380178378E+003
+2.52312891114E+007, +2.09772617401E+002, +1.35311672420E+003
+2.53563204005E+007, +2.11529856702E+002, +1.36076336001E+003
+2.54813516896E+007, +2.11577430273E+002, +1.37252672227E+003
+2.56063829787E+007, +2.14872611473E+002, +1.38952758781E+003
+2.57314142678E+007, +2.26421986904E+002, +1.42081073838E+003
+2.58564455569E+007, +2.22967330350E+002, +1.43868478399E+003
+2.59814768461E+007, +2.13729374225E+002, +1.45292883366E+003
+2.61065081352E+007, +2.17984222268E+002, +1.46762205102E+003
+2.62315394243E+007, +2.31620516645E+002, +1.48483157469E+003
+2.63565707134E+007, +2.25798335013E+002, +1.52168452324E+003
+2.64816020025E+007, +2.33959102540E+002, +1.53233348881E+003
+2.66066332916E+007, +2.41593813287E+002, +1.55887106950E+003
+2.67316645807E+007, +2.50258005672E+002, +1.56328739775E+003
+2.68566958698E+007, +2.50496492682E+002, +1.59834515297E+003
+2.69817271589E+007, +2.52451289445E+002, +1.60371700293E+003
+2.71067584481E+007, +2.67910132817E+002, +1.62818237755E+003
+2.72317897372E+007, +2.64787498785E+002, +1.63632305199E+003
+2.73568210263E+007, +2.73470373029E+002, +1.68227916261E+003
+2.74818523154E+007, +2.82551702833E+002, +1.68173839247E+003
+2.76068836045E+007, +2.82878659973E+002, +1.70343056513E+003
+2.77319148936E+007, +2.75371730858E+002, +1.71218905456E+003
+2.78569461827E+007, +2.73197358659E+002, +1.72946209048E+003
+2.79819774718E+007, +2.76594508416E+002, +1.76658172030E+003
+2.81070087610E+007, +2.79318858847E+002, +1.79712046813E+003
+2.82320400501E+007, +3.12172303775E+002, +1.82436458231E+003
+2.83570713392E+007, +3.04287917656E+002, +1.86711166568E+003
+2.84821026283E+007, +3.22648590916E+002, +1.87599202841E+003
+2.86071339174E+007, +3.03611293282E+002, +1.91751841967E+003
+2.87321652065E+007, +3.12106645372E+002, +1.94483279822E+003
+2.88571964956E+007, +3.05929667267E+002, +1.97332890111E+003
+2.89822277847E+007, +3.49103596644E+002, +1.98843152518E+003
+2.91072590738E+007, +3.16684182509E+002, +2.03452324466E+003
+2.92322903630E+007, +3.34823497260E+002, +2.07737325165E+003
+2.93573216521E+007, +3.44090961541E+002, +2.09643021252E+003
+2.94823529412E+007, +3.61043432040E+002, +2.13599377316E+003
+2.96073842303E+007, +3.92260924421E+002, +2.16001519429E+003
+2.97324155194E+007, +3.75169991860E+002, +2.20570113082E+003
+2.98574468085E+007, +4.06146460362E+002, +2.26782658821E+003
+2.99824780976E+007, +4.17309503090E+002, +2.27624763031E+003
+3.01075093867E+007, +4.15767387520E+002, +2.34391982488E+003
+3.02325406758E+007, +4.28815386980E+002, +2.35695550768E+003
+3.03575719650E+007, +4.44530304358E+002, +2.39795764797E+003
+3.04826032541E+007, +4.42678506792E+002, +2.43449329722E+003
+3.06076345432E+007, +4.56454303742E+002, +2.49641290325E+003
+3.07326658323E+007, +4.76951581900E+002, +2.50660717159E+003
+3.08576971214E+007, +4.90666639379E+002, +2.54943527887E+003
+3.09827284105E+007, +4.91972887488E+002, +2.59195618534E+003
+3.11077596996E+007, +4.97308684884E+002, +2.63791369674E+003
+3.12327909887E+007, +5.21904055423E+002, +2.73226911949E+003
+3.13578222778E+007, +5.54902009001E+002, +2.77057020493E+003
+3.14828535670E+007, +5.68761953039E+002, +2.82415949600E+003
+3.16078848561E+007, +5.73754799103E+002, +2.88942488016E+003
+3.17329161452E+007, +6.20277707174E+002, +2.94926644226E+003
+3.18579474343E+007, +6.35291171821E+002, +2.95036064164E+003
+3.19829787234E+007, +6.69601210816E+002, +3.03870359868E+003
+3.21080100125E+007, +6.53479928307E+002, +3.16826940317E+003
+3.22330413016E+007, +6.92115814000E+002, +3.15825678939E+003
+3.23580725907E+007, +7.29154255357E+002, +3.28699658792E+003
+3.24831038798E+007, +7.79114056535E+002, +3.33552356817E+003
+3.26081351690E+007, +7.98000001237E+002, +3.42824477571E+003
+3.27331664581E+007, +8.45481804573E+002, +3.43600947985E+003
+3.28581977472E+007, +8.20980092297E+002, +3.53249112675E+003
+3.29832290363E+007, +9.11780234828E+002, +3.69520228854E+003
+3.31082603254E+007, +9.60633693439E+002, +3.73224086576E+003
+3.32332916145E+007, +1.02040731818E+003, +3.81472699138E+003
+3.33583229036E+007, +1.01976821842E+003, +3.92130661014E+003
+3.34833541927E+007, +1.17214710289E+003, +4.06495173772E+003
+3.36083854819E+007, +1.19842515017E+003, +4.08363525666E+003
+3.37334167710E+007, +1.27483282285E+003, +4.23511954862E+003
+3.38584480601E+007, +1.25013107535E+003, +4.20415590263E+003
+3.39834793492E+007, +1.36435835543E+003, +4.41704227912E+003
+3.41085106383E+007, +1.44624259260E+003, +4.57991863456E+003
+3.42335419274E+007, +1.60597629414E+003, +4.64944390053E+003
+3.43585732165E+007, +1.64039421966E+003, +4.79684206273E+003
+3.44836045056E+007, +1.75547055977E+003, +5.03517673266E+003
+3.46086357947E+007, +1.99413730808E+003, +5.04188810235E+003
+3.47336670839E+007, +2.17450386265E+003, +5.14621609107E+003
+3.48586983730E+007, +2.18486857696E+003, +5.34820998456E+003
+3.49837296621E+007, +2.28693813359E+003, +5.59134048008E+003
+3.51087609512E+007, +2.42287664165E+003, +5.81806773319E+003
+3.52337922403E+007, +2.79903431003E+003, +6.01338034323E+003
+3.53588235294E+007, +3.00641085476E+003, +6.25443642856E+003
+3.54838548185E+007, +3.08944711727E+003, +6.13754799968E+003
+3.56088861076E+007, +3.34589772303E+003, +6.19114753567E+003
+3.57339173967E+007, +3.62409684012E+003, +6.82938414127E+003
+3.58589486859E+007, +3.68345080731E+003, +6.73132681452E+003
+3.59839799750E+007, +4.21533999193E+003, +7.01729045511E+003
+3.61090112641E+007, +4.74370537630E+003, +7.81396805037E+003
+3.62340425532E+007, +5.04880805513E+003, +7.80665380278E+003
+3.63590738423E+007, +5.47603852566E+003, +7.69215514558E+003
+3.64841051314E+007, +6.22676458205E+003, +8.14805365782E+003
+3.66091364205E+007, +6.76045009427E+003, +7.60698376823E+003
+3.67341677096E+007, +7.84045785413E+003, +8.32783221582E+003
+3.68591989987E+007, +8.87652895060E+003, +7.86995891851E+003
+3.69842302879E+007, +9.12230968985E+003, +8.24041838543E+003
+3.71092615770E+007, +1.00279078415E+004, +8.27502203131E+003
+3.72342928661E+007, +1.18939856093E+004, +8.00057161004E+003
+3.73593241552E+007, +1.25818372597E+004, +7.03614981176E+003
+3.74843554443E+007, +1.44065728651E+004, +6.77984509431E+003
+3.76093867334E+007, +1.52397918755E+004, +4.99984659689E+003
+3.77344180225E+007, +1.72541016918E+004, +4.23110130615E+003
+3.78594493116E+007, +1.73108401778E+004, +2.84050258167E+003
+3.79844806008E+007, +1.95285357080E+004, +1.42283319052E+003
+3.81095118899E+007, +1.82859555970E+004, -1.04316938017E+003
+3.82345431790E+007, +1.76631305053E+004, -2.47172139470E+003
+3.83595744681E+007, +1.67765365458E+004, -5.10197480113E+003
+3.84846057572E+007, +1.44247446836E+004, -6.65406757007E+003
+3.86096370463E+007, +1.33118915401E+004, -7.66119909432E+003
+3.87346683354E+007, +1.21616990001E+004, -8.17096457857E+003
+3.88596996245E+007, +1.04083637323E+004, -9.17141894609E+003
+3.89847309136E+007, +9.85116106162E+003, -9.68699603684E+003
+3.91097622028E+007, +8.18321760863E+003, -8.68708943252E+003
+3.92347934919E+007, +6.78286252974E+003, -8.49403889977E+003
+3.93598247810E+007, +6.15093586639E+003, -8.43601044303E+003
+3.94848560701E+007, +5.43251395160E+003, -8.68027716861E+003
+3.96098873592E+007, +5.31431897128E+003, -8.02432349191E+003
+3.97349186483E+007, +4.37460334363E+003, -7.92984434874E+003
+3.98599499374E+007, +4.36068002348E+003, -7.43614667750E+003
+3.99849812265E+007, +3.50725341849E+003, -7.01020530885E+003
+4.01100125156E+007, +3.30063690360E+003, -6.95824199605E+003
