"# Channel 1"
"# Trace 1"
Frequency, Formatted Data, Formatted Data
+1.00000000000E+005, +2.63332169842E+002, -2.27962436255E+000
+2.25031289111E+005, +2.61802279238E+002, +7.14442735512E+000
+3.50062578223E+005, +2.61179598250E+002, +1.07926944810E+001
+4.75093867334E+005, +2.61749010886E+002, +1.51238065417E+001
+6.00125156446E+005, +2.61672161706E+002, +1.88979106055E+001
+7.25156445557E+005, +2.61924022673E+002, +2.26791321150E+001
+8.50187734668E+005, +2.61769304584E+002, +2.74960407889E+001
+9.75219023780E+005, +2.62323290312E+002, +3.08228862304E+001
+1.10025031289E+006, +2.62449203099E+002, +3.42731212667E+001
+1.22528160200E+006, +2.62659650274E+002, +3.79851627196E+001
+1.35031289111E+006, +2.63621236854E+002, +4.23418098698E+001
+1.47534418023E+006, +2.63187104528E+002, +4.63985940641E+001
+1.60037546934E+006, +2.63795957142E+002, +4.96111024629E+001
+1.72540675845E+006, +2.63845383150E+002, +5.39301135234E+001
+1.85043804756E+006, +2.63576431247E+002, +5.85550663824E+001
+1.97546933667E+006, +2.63258759419E+002, +6.14799270124E+001
+2.10050062578E+006, +2.63742006885E+002, +6.55726263054E+001
+2.22553191489E+006, +2.63705184839E+002, +6.99085821696E+001
+2.35056320401E+006, +2.63593278327E+002, +7.41175964344E+001
+2.47559449312E+006, +2.64530946876E+002, +7.81452660344E+001
+2.60062578223E+006, +2.63999341328E+002, +8.15377726113E+001
+2.72565707134E+006, +2.64367867768E+002, +8.55739426902E+001
+2.85068836045E+006, +2.65406797768E+002, +8.90374212111E+001
+2.97571964956E+006, +2.63893848987E+002, +9.20836105646E+001
+3.10075093867E+006, +2.64476629708E+002, +9.69482530141E+001
+3.22578222778E+006, +2.64224434398E+002, +1.00058300234E+002
+3.35081351690E+006, +2.64769473086E+002, +1.04334330101E+002
+3.47584480601E+006, +2.64534535429E+002, +1.07300369442E+002
+3.60087609512E+006, +2.65310856390E+002, +1.12798963025E+002
+3.72590738423E+006, +2.63895636311E+002, +1.16981620030E+002
+3.85093867334E+006, +2.64648343154E+002, +1.20555332299E+002
+3.97596996245E+006, +2.64745349678E+002, +1.24477286682E+002
+4.10100125156E+006, +2.64704064252E+002, +1.28641371094E+002
+4.22603254068E+006, +2.65127720985E+002, +1.32671966178E+002
+4.35106382979E+006, +2.65746613982E+002, +1.35667022188E+002
+4.47609511890E+006, +2.66047858130E+002, +1.38904460036E+002
+4.60112640801E+006, +2.67027261469E+002, +1.43510077624E+002
+4.72615769712E+006, +2.66630346083E+002, +1.46971500515E+002
+4.85118898623E+006, +2.65568162582E+002, +1.51170691800E+002
+4.97622027534E+006, +2.67357775893E+002, +1.54966217352E+002
+5.10125156446E+006, +2.67069156837E+002, +1.60228446433E+002
+5.22628285357E+006, +2.67960727972E+002, +1.62440580528E+002
+5.35131414268E+006, +2.67440955145E+002, +1.67544504227E+002
+5.47634543179E+006, +2.69045394965E+002, +1.71592231483E+002
+5.60137672090E+006, +2.68191014487E+002, +1.76244128079E+002
+5.72640801001E+006, +2.68348005613E+002, +1.77887116923E+002
+5.85143929912E+006, +2.68916373272E+002, +1.83433477057E+002
+5.97647058824E+006, +2.68058534261E+002, +1.86488988712E+002
+6.10150187735E+006, +2.68657500609E+002, +1.90930785823E+002
+6.22653316646E+006, +2.69941641158E+002, +1.94492352518E+002
+6.35156445557E+006, +2.69913913981E+002, +1.99472876828E+002
+6.47659574468E+006, +2.70103776356E+002, +2.03339622942E+002
+6.60162703379E+006, +2.70709854185E+002, +2.06927092370E+002
+6.72665832290E+006, +2.71033099035E+002, +2.10164800817E+002
+6.85168961202E+006, +2.71453563636E+002, +2.14687013456E+002
+6.97672090113E+006, +2.71714234688E+002, +2.19923112545E+002
+7.10175219024E+006, +2.72503841264E+002, +2.23077531418E+002
+7.22678347935E+006, +2.73348035985E+002, +2.27376464594E+002
+7.35181476846E+006, +2.74200854457E+002, +2.30924449789E+002
+7.47684605757E+006, +2.73775680863E+002, +2.35759692642E+002
+7.60187734668E+006, +2.74835651013E+002, +2.39907890313E+002
+7.72690863579E+006, +2.74370213206E+002, +2.43908666567E+002
+7.85193992491E+006, +2.75420033343E+002, +2.47333249136E+002
+7.97697121402E+006, +2.75905231640E+002, +2.51534527227E+002
+8.10200250313E+006, +2.76076657474E+002, +2.55865667915E+002
+8.22703379224E+006, +2.76839401360E+002, +2.60224567877E+002
+8.35206508135E+006, +2.77056590403E+002, +2.64371079432E+002
+8.47709637046E+006, +2.76729586486E+002, +2.70583327242E+002
+8.60212765957E+006, +2.77382998609E+002, +2.73659354404E+002
+8.72715894869E+006, +2.78067843653E+002, +2.77819781965E+002
+8.85219023780E+006, +2.79189068070E+002, +2.81375736834E+002
+8.97722152691E+006, +2.80064320328E+002, +2.85707714035E+002
+9.10225281602E+006, +2.80860416291E+002, +2.91685010337E+002
+9.22728410513E+006, +2.80198172455E+002, +2.94906422230E+002
+9.35231539424E+006, +2.80654294729E+002, +2.99807577619E+002
+9.47734668335E+006, +2.80971246603E+002, +3.03257129562E+002
+9.60237797247E+006, +2.81510922959E+002, +3.08079966673E+002
+9.72740926158E+006, +2.82662844096E+002, +3.12354937379E+002
+9.85244055069E+006, +2.84369951000E+002, +3.17728559984E+002
+9.97747183980E+006, +2.84763143166E+002, +3.21571251650E+002
+1.01025031289E+007, +2.84067664302E+002, +3.26443496127E+002
+1.02275344180E+007, +2.85986250652E+002, +3.30099827840E+002
+1.03525657071E+007, +2.85476369069E+002, +3.35561844622E+002
+1.04775969962E+007, +2.86150863192E+002, +3.40486055195E+002
+1.06026282854E+007, +2.87093447955E+002, +3.45171597320E+002
+1.07276595745E+007, +2.88100610221E+002, +3.49055249843E+002
+1.08526908636E+007, +2.88768862453E+002, +3.54707598527E+002
+1.09777221527E+007, +2.90224256882E+002, +3.57970553798E+002
+1.11027534418E+007, +2.89908340343E+002, +3.62971436158E+002
+1.12277847309E+007, +2.91244318058E+002, +3.67011327122E+002
+1.13528160200E+007, +2.91595000097E+002, +3.71936727059E+002
+1.14778473091E+007, +2.91798656856E+002, +3.76778443086E+002
+1.16028785982E+007, +2.93517594436E+002, +3.82651340682E+002
+1.17279098874E+007, +2.94399797838E+002, +3.87141286846E+002
+1.18529411765E+007, +2.95028416497E+002, +3.91790991317E+002
+1.19779724656E+007, +2.95598860752E+002, +3.97453952023E+002
+1.21030037547E+007, +2.96448261964E+002, +4.00782262651E+002
+1.22280350438E+007, +2.99471772844E+002, +4.07483549970E+002
+1.23530663329E+007, +2.98326391910E+002, +4.10811300878E+002
+1.24780976220E+007, +2.99344043589E+002, +4.15797123800E+002
+1.26031289111E+007, +3.01035063194E+002, +4.22484841163E+002
+1.27281602003E+007, +3.00632362114E+002, +4.26483413703E+002
+1.28531914894E+007, +3.01607028488E+002, +4.32374661468E+002
+1.29782227785E+007, +3.04542459742E+002, +4.36555052231E+002
+1.31032540676E+007, +3.03840084211E+002, +4.41011287561E+002
+1.32282853567E+007, +3.06191273392E+002, +4.48094555386E+002
+1.33533166458E+007, +3.07078746628E+002, +4.52285976577E+002
+1.34783479349E+007, +3.07206141625E+002, +4.56343549889E+002
+1.36033792240E+007, +3.09209046770E+002, +4.62873564656E+002
+1.37284105131E+007, +3.08331650487E+002, +4.68742893489E+002
+1.38534418023E+007, +3.10811490840E+002, +4.70737282878E+002
+1.39784730914E+007, +3.09936413756E+002, +4.78487207255E+002
+1.41035043805E+007, +3.13295358982E+002, +4.83173305804E+002
+1.42285356696E+007, +3.15048235562E+002, +4.89134627845E+002
+1.43535669587E+007, +3.14484717647E+002, +4.95545713100E+002
+1.44785982478E+007, +3.15729087838E+002, +4.99846352646E+002
+1.46036295369E+007, +3.19129945016E+002, +5.05976414937E+002
+1.47286608260E+007, +3.19401260150E+002, +5.12173156833E+002
+1.48536921151E+007, +3.19797539480E+002, +5.17650276049E+002
+1.49787234043E+007, +3.20877600843E+002, +5.20828406734E+002
+1.51037546934E+007, +3.21983368000E+002, +5.29259020123E+002
+1.52287859825E+007, +3.20745975143E+002, +5.35592646276E+002
+1.53538172716E+007, +3.25020521233E+002, +5.39883594806E+002
+1.54788485607E+007, +3.26463409913E+002, +5.45171054297E+002
+1.56038798498E+007, +3.28503657605E+002, +5.49147205113E+002
+1.57289111389E+007, +3.27648004175E+002, +5.56600966189E+002
+1.58539424280E+007, +3.29608705603E+002, +5.60368347782E+002
+1.59789737171E+007, +3.31066947602E+002, +5.67883101943E+002
+1.61040050063E+007, +3.35973612412E+002, +5.73734768252E+002
+1.62290362954E+007, +3.35501680402E+002, +5.81019844803E+002
+1.63540675845E+007, +3.37747746888E+002, +5.86321347958E+002
+1.64790988736E+007, +3.38397594104E+002, +5.93816874448E+002
+1.66041301627E+007, +3.40873234674E+002, +6.00883773797E+002
+1.67291614518E+007, +3.41504096977E+002, +6.07303499419E+002
+1.68541927409E+007, +3.41365826131E+002, +6.12474888682E+002
+1.69792240300E+007, +3.41321553755E+002, +6.18718490304E+002
+1.71042553191E+007, +3.41354055401E+002, +6.29090131310E+002
+1.72292866083E+007, +3.45673565239E+002, +6.34333719473E+002
+1.73543178974E+007, +3.51096068703E+002, +6.40422932082E+002
+1.74793491865E+007, +3.49895117743E+002, +6.45070401602E+002
+1.76043804756E+007, +3.55535570309E+002, +6.54374085553E+002
+1.77294117647E+007, +3.55322740486E+002, +6.61203773157E+002
+1.78544430538E+007, +3.57593002868E+002, +6.66132221122E+002
+1.79794743429E+007, +3.54149084526E+002, +6.71344280610E+002
+1.81045056320E+007, +3.61090328400E+002, +6.76318998332E+002
+1.82295369212E+007, +3.62509720442E+002, +6.88472433367E+002
+1.83545682103E+007, +3.63124570902E+002, +6.91360905781E+002
+1.84795994994E+007, +3.63496383746E+002, +6.99423147718E+002
+1.86046307885E+007, +3.69164738909E+002, +7.07120411124E+002
+1.87296620776E+007, +3.69734952675E+002, +7.12617560833E+002
+1.88546933667E+007, +3.70745419299E+002, +7.22948227225E+002
+1.89797246558E+007, +3.75691013459E+002, +7.29552909038E+002
+1.91047559449E+007, +3.81830987652E+002, +7.32498321303E+002
+1.92297872340E+007, +3.78034574865E+002, +7.42333556560E+002
+1.93548185232E+007, +3.83647650057E+002, +7.48224239456E+002
+1.94798498123E+007, +3.84668861957E+002, +7.53614805575E+002
+1.96048811014E+007, +3.84656560587E+002, +7.62866850029E+002
+1.97299123905E+007, +3.91639130308E+002, +7.70518577027E+002
+1.98549436796E+007, +3.93580473496E+002, +7.82340557089E+002
+1.99799749687E+007, +3.92952689122E+002, +7.88378271992E+002
+2.01050062578E+007, +3.94365866851E+002, +7.93235842725E+002
+2.02300375469E+007, +4.00875875603E+002, +8.00885262160E+002
+2.03550688360E+007, +4.02130614364E+002, +8.11806283493E+002
+2.04801001252E+007, +4.09233618270E+002, +8.22553505112E+002
+2.06051314143E+007, +4.09286289484E+002, +8.28828749981E+002
+2.07301627034E+007, +4.10511542567E+002, +8.35570592443E+002
+2.08551939925E+007, +4.14001748234E+002, +8.47035994274E+002
+2.09802252816E+007, +4.11236261785E+002, +8.47580174625E+002
+2.11052565707E+007, +4.19742329788E+002, +8.59027547872E+002
+2.12302878598E+007, +4.19842552265E+002, +8.71620871754E+002
+2.13553191489E+007, +4.27009489766E+002, +8.74985402806E+002
+2.14803504380E+007, +4.30866408105E+002, +8.86745200557E+002
+2.16053817272E+007, +4.33835551653E+002, +8.93205670813E+002
+2.17304130163E+007, +4.37983707484E+002, +9.03596573502E+002
+2.18554443054E+007, +4.37670570994E+002, +9.12849647248E+002
+2.19804755945E+007, +4.45041676586E+002, +9.26758416013E+002
+2.21055068836E+007, +4.49332889702E+002, +9.30286232702E+002
+2.22305381727E+007, +4.53856673955E+002, +9.41929300184E+002
+2.23555694618E+007, +4.55027092112E+002, +9.52634690075E+002
+2.24806007509E+007, +4.55026766232E+002, +9.54045631772E+002
+2.26056320401E+007, +4.64433249916E+002, +9.70527045943E+002
+2.27306633292E+007, +4.67406819703E+002, +9.81735566593E+002
+2.28556946183E+007, +4.74676391356E+002, +9.92753188588E+002
+2.29807259074E+007, +4.73332518268E+002, +9.98320678705E+002
+2.31057571965E+007, +4.83436598375E+002, +1.00807386250E+003
+2.32307884856E+007, +4.85496466609E+002, +1.02081119644E+003
+2.33558197747E+007, +4.94919494174E+002, +1.02709644034E+003
+2.34808510638E+007, +4.92287848410E+002, +1.04030706338E+003
+2.36058823529E+007, +5.01802353914E+002, +1.04740411531E+003
+2.37309136421E+007, +5.00753972765E+002, +1.06624693936E+003
+2.38559449312E+007, +5.14832544671E+002, +1.07364990808E+003
+2.39809762203E+007, +5.21062935615E+002, +1.08558255602E+003
+2.41060075094E+007, +5.18464854900E+002, +1.10443981360E+003
+2.42310387985E+007, +5.30583014699E+002, +1.10519370940E+003
+2.43560700876E+007, +5.35170635771E+002, +1.12173527789E+003
+2.44811013767E+007, +5.35493894102E+002, +1.12982451830E+003
+2.46061326658E+007, +5.46470098455E+002, +1.14625893480E+003
+2.47311639549E+007, +5.45109349736E+002, +1.16059564845E+003
+2.48561952441E+007, +5.56028399531E+002, +1.17464848790E+003
+2.49812265332E+007, +5.57700247357E+002, +1.18874829116E+003
+2.51062578223E+007, +5.77623805079E+002, +1.19166286036E+003
+2.52312891114E+007, +5.80469919331E+002, +1.20120031467E+003
+2.53563204005E+007, +5.75932252650E+002, +1.21138298615E+003
+2.54813516896E+007, +5.87886125411E+002, +1.23365089581E+003
+2.56063829787E+007, +5.96387317550E+002, +1.25308020937E+003
+2.57314142678E+007, +6.00444914944E+002, +1.26509623080E+003
+2.58564455569E+007, +6.04372052912E+002, +1.26680056645E+003
+2.59814768461E+007, +6.20797358758E+002, +1.28463398308E+003
+2.61065081352E+007, +6.35729708849E+002, +1.29815283197E+003
+2.62315394243E+007, +6.48228528080E+002, +1.32115880014E+003
+2.63565707134E+007, +6.56313525992E+002, +1.32486378430E+003
+2.64816020025E+007, +6.58940888517E+002, +1.34808130917E+003
+2.66066332916E+007, +6.64782043977E+002, +1.35216717555E+003
+2.67316645807E+007, +6.73008502433E+002, +1.36966492226E+003
+2.68566958698E+007, +6.82610849016E+002, +1.38901461593E+003
+2.69817271589E+007, +6.92347823749E+002, +1.41201083604E+003
+2.71067584481E+007, +7.09924121746E+002, +1.42225512570E+003
+2.72317897372E+007, +7.08520957715E+002, +1.45501647992E+003
+2.73568210263E+007, +7.22158592466E+002, +1.45700959441E+003
+2.74818523154E+007, +7.26676739326E+002, +1.47773553329E+003
+2.76068836045E+007, +7.45195501443E+002, +1.48420062772E+003
+2.77319148936E+007, +7.56204145925E+002, +1.50827605791E+003
+2.78569461827E+007, +7.66071313371E+002, +1.51065524919E+003
+2.79819774718E+007, +7.69869453296E+002, +1.53834610964E+003
+2.81070087610E+007, +7.89449446702E+002, +1.55475305324E+003
+2.82320400501E+007, +8.13462117539E+002, +1.57987525717E+003
+2.83570713392E+007, +8.15028964557E+002, +1.59887094731E+003
+2.84821026283E+007, +8.25620266456E+002, +1.59607241170E+003
+2.86071339174E+007, +8.43237987576E+002, +1.62404808808E+003
+2.87321652065E+007, +8.71711015681E+002, +1.63824540923E+003
+2.88571964956E+007, +8.67102798438E+002, +1.68902893062E+003
+2.89822277847E+007, +8.83647944894E+002, +1.68827191828E+003
+2.91072590738E+007, +9.02956560702E+002, +1.71816906162E+003
+2.92322903630E+007, +9.17775079028E+002, +1.74678635373E+003
+2.93573216521E+007, +9.43754388555E+002, +1.78960475074E+003
+2.94823529412E+007, +9.45684686156E+002, +1.76859929640E+003
+2.96073842303E+007, +9.71782200539E+002, +1.79473314786E+003
+2.97324155194E+007, +9.83751089986E+002, +1.82725746785E+003
+2.98574468085E+007, +1.01494980382E+003, +1.86331772117E+003
+2.99824780976E+007, +1.02838635052E+003, +1.89252631107E+003
+3.01075093867E+007, +1.05015282901E+003, +1.91438371681E+003
+3.02325406758E+007, +1.08987817914E+003, +1.93558464285E+003
+3.03575719650E+007, +1.10051585581E+003, +1.94492552811E+003
+3.04826032541E+007, +1.10487289507E+003, +1.96699403037E+003
+3.06076345432E+007, +1.12750201372E+003, +1.99483500065E+003
+3.07326658323E+007, +1.20776715310E+003, +2.05293849463E+003
+3.08576971214E+007, +1.20912980456E+003, +2.05728670562E+003
+3.09827284105E+007, +1.22789316053E+003, +2.06317560289E+003
+3.11077596996E+007, +1.27482550225E+003, +2.12258863836E+003
+3.12327909887E+007, +1.27350605036E+003, +2.15931618388E+003
+3.13578222778E+007, +1.30216543390E+003, +2.17534049601E+003
+3.14828535670E+007, +1.35875805992E+003, +2.14404132355E+003
+3.16078848561E+007, +1.40000828490E+003, +2.24626902487E+003
+3.17329161452E+007, +1.40749671923E+003, +2.24959282407E+003
+3.18579474343E+007, +1.47581000444E+003, +2.25468353023E+003
+3.19829787234E+007, +1.51083023196E+003, +2.33494972631E+003
+3.21080100125E+007, +1.55541994836E+003, +2.32564872973E+003
+3.22330413016E+007, +1.62493363551E+003, +2.45694043331E+003
+3.23580725907E+007, +1.67959763118E+003, +2.40551999543E+003
+3.24831038798E+007, +1.72832061180E+003, +2.49490517064E+003
+3.26081351690E+007, +1.70631852512E+003, +2.47533154408E+003
+3.27331664581E+007, +1.79593736063E+003, +2.50940809726E+003
+3.28581977472E+007, +1.83841796647E+003, +2.59367784956E+003
+3.29832290363E+007, +1.94582995829E+003, +2.60580343997E+003
+3.31082603254E+007, +1.95904833565E+003, +2.61942789346E+003
+3.32332916145E+007, +2.00870985934E+003, +2.67632266415E+003
+3.33583229036E+007, +1.98500093137E+003, +2.65926798807E+003
+3.34833541927E+007, +2.16575740539E+003, +2.66832812806E+003
+3.36083854819E+007, +2.25028575644E+003, +2.66027532862E+003
+3.37334167710E+007, +2.25441044530E+003, +2.78479656592E+003
+3.38584480601E+007, +2.35163633670E+003, +2.77797368896E+003
+3.39834793492E+007, +2.42996532980E+003, +2.85889374115E+003
+3.41085106383E+007, +2.59243299930E+003, +2.85837897384E+003
+3.42335419274E+007, +2.68254900349E+003, +2.90481495065E+003
+3.43585732165E+007, +2.74941392390E+003, +2.91086386706E+003
+3.44836045056E+007, +2.76909719679E+003, +2.90118908102E+003
+3.46086357947E+007, +2.94513627120E+003, +2.95422379306E+003
+3.47336670839E+007, +3.13336900350E+003, +2.91317130829E+003
+3.48586983730E+007, +3.13089226144E+003, +2.99256627581E+003
+3.49837296621E+007, +3.33960373181E+003, +2.92482485302E+003
+3.51087609512E+007, +3.43887652504E+003, +2.97821979849E+003
+3.52337922403E+007, +3.62169822527E+003, +2.96004588601E+003
+3.53588235294E+007, +3.69504355670E+003, +2.96034727592E+003
+3.54838548185E+007, +3.88871268735E+003, +2.92426696656E+003
+3.56088861076E+007, +4.04305806562E+003, +2.88895529762E+003
+3.57339173967E+007, +4.09206775831E+003, +2.95221966268E+003
+3.58589486859E+007, +4.31317186707E+003, +2.79996201415E+003
+3.59839799750E+007, +4.51065342852E+003, +2.92804159278E+003
+3.61090112641E+007, +4.57730252189E+003, +2.78294755797E+003
+3.62340425532E+007, +4.80848930282E+003, +2.72785578300E+003
+3.63590738423E+007, +5.08551219079E+003, +2.69586912584E+003
+3.64841051314E+007, +5.14642111127E+003, +2.61327238372E+003
+3.66091364205E+007, +5.41227350854E+003, +2.37591326670E+003
+3.67341677096E+007, +5.63655576911E+003, +1.99815943618E+003
+3.68591989987E+007, +5.86302776724E+003, +1.93247594388E+003
+3.69842302879E+007, +5.87624953600E+003, +1.88483212509E+003
+3.71092615770E+007, +6.18474417097E+003, +1.59142461213E+003
+3.72342928661E+007, +6.36109811704E+003, +1.65500017103E+003
+3.73593241552E+007, +6.43971496582E+003, +1.31636725822E+003
+3.74843554443E+007, +6.68631102985E+003, +1.18631975002E+003
+3.76093867334E+007, +6.55072574263E+003, +9.04571101277E+002
+3.77344180225E+007, +6.52351150057E+003, +5.66825250543E+002
+3.78594493116E+007, +6.65813507680E+003, +2.44600297605E+002
+3.79844806008E+007, +6.92928162425E+003, -3.29596181969E+001
+3.81095118899E+007, +6.71463708232E+003, -2.98621725402E+002
+3.82345431790E+007, +6.66713654671E+003, -4.01633034040E+002
+3.83595744681E+007, +6.83654198382E+003, -7.55090123370E+002
+3.84846057572E+007, +6.54219750762E+003, -1.29723914268E+003
+3.86096370463E+007, +6.73749432445E+003, -1.47950765187E+003
+3.87346683354E+007, +6.19429843826E+003, -1.52362999536E+003
+3.88596996245E+007, +6.31632988299E+003, -2.08880719239E+003
+3.89847309136E+007, +6.09629906223E+003, -2.23775365486E+003
+3.91097622028E+007, +5.99756974798E+003, -2.15137775967E+003
+3.92347934919E+007, +5.86730188503E+003, -2.45792307570E+003
+3.93598247810E+007, +5.63130154784E+003, -2.84622128777E+003
+3.94848560701E+007, +5.38702724843E+003, -3.00562244805E+003
+3.96098873592E+007, +5.28000098345E+003, -2.98885775976E+003
+3.97349186483E+007, +5.05819950412E+003, -3.09939909791E+003
+3.98599499374E+007, +5.07269530360E+003, -3.20282929880E+003
+3.99849812265E+007, +4.71838758822E+003, -3.35841788246E+003
+4.01100125156E+007, +4.52358038191E+003, -3.45251617770E+003
