"# Channel 1"
"# Trace 1"
Frequency, Formatted Data, Formatted Data
+1.00000000000E+005, +1.10627853284E+000, +3.28186490208E+000
+2.25031289111E+005, +1.12543231739E+000, +7.33461992669E+000
+3.50062578223E+005, +1.16496597105E+000, +1.13979681813E+001
+4.75093867334E+005, +1.21348721176E+000, +1.54381974883E+001
+6.00125156446E+005, +1.26595534980E+000, +1.94681268412E+001
+7.25156445557E+005, +1.30356792469E+000, +2.34841103921E+001
+8.50187734668E+005, +1.36521488727E+000, +2.75134103995E+001
+9.75219023780E+005, +1.41521928898E+000, +3.15414222890E+001
+1.10025031289E+006, +1.48429936682E+000, +3.55500442098E+001
+1.22528160200E+006, +1.53544324784E+000, +3.95604978495E+001
+1.35031289111E+006, +1.60084847680E+000, +4.35787821836E+001
+1.47534418023E+006, +1.64257858816E+000, +4.75271406586E+001
+1.60037546934E+006, +1.66988502144E+000, +5.14929166085E+001
+1.72540675845E+006, +1.72657443542E+000, +5.54891036461E+001
+1.85043804756E+006, +1.78006299014E+000, +5.95006959737E+001
+1.97546933667E+006, +1.79761505728E+000, +6.34552950162E+001
+2.10050062578E+006, +1.91772761196E+000, +6.74390897490E+001
+2.22553191489E+006, +1.93271635838E+000, +7.14852425917E+001
+2.35056320401E+006, +1.92873640478E+000, +7.54198970020E+001
+2.47559449312E+006, +1.96569627821E+000, +7.94084582706E+001
+2.60062578223E+006, +2.10660859614E+000, +8.34541185626E+001
+2.72565707134E+006, +1.99961554384E+000, +8.74444894956E+001
+2.85068836045E+006, +2.13645969587E+000, +9.14257774794E+001
+2.97571964956E+006, +2.11142859843E+000, +9.53284155241E+001
+3.10075093867E+006, +2.15844306930E+000, +9.95075819953E+001
+3.22578222778E+006, +2.14149257775E+000, +1.03364600300E+002
+3.35081351690E+006, +2.21708158267E+000, +1.07438359339E+002
+3.47584480601E+006, +2.28788781990E+000, +1.11408666741E+002
+3.60087609512E+006, +2.24751894810E+000, +1.15378411709E+002
+3.72590738423E+006, +2.16810002329E+000, +1.19437564213E+002
+3.85093867334E+006, +1.68291423974E+000, +1.23659687350E+002
+3.97596996245E+006, +1.27999162535E+000, +1.28105962074E+002
+4.10100125156E+006, +6.53028421157E+000, +1.31384476689E+002
+4.22603254068E+006, +2.52750708845E+000, +1.35035463627E+002
+4.35106382979E+006, +2.49741574230E+000, +1.39211880145E+002
+4.47609511890E+006, +2.34423352820E+000, +1.43537494043E+002
+4.60112640801E+006, +2.25474178985E+000, +1.47770735690E+002
+4.72615769712E+006, +2.44095404562E+000, +1.51934141561E+002
+4.85118898623E+006, +2.28949246953E+000, +1.55924813692E+002
+4.97622027534E+006, +2.43077609475E+000, +1.59951913035E+002
+5.10125156446E+006, +2.47009629356E+000, +1.64097771849E+002
+5.22628285357E+006, +2.39273965758E+000, +1.68348715126E+002
+5.35131414268E+006, +2.53555020001E+000, +1.72343090491E+002
+5.47634543179E+006, +2.34726082111E+000, +1.76438005097E+002
+5.60137672090E+006, +2.07819003227E+000, +1.80481385507E+002
+5.72640801001E+006, +2.24954249293E+000, +1.84673889987E+002
+5.85143929912E+006, +2.44337121632E+000, +1.89131830437E+002
+5.97647058824E+006, +2.39752286736E+000, +1.93039685191E+002
+6.10150187735E+006, +2.48495534431E+000, +1.97151441679E+002
+6.22653316646E+006, +2.23742811520E+000, +2.01291766715E+002
+6.35156445557E+006, +2.34192687221E+000, +2.05728556180E+002
+6.47659574468E+006, +2.21548334323E+000, +2.09987545805E+002
+6.60162703379E+006, +2.42130923817E+000, +2.14436412000E+002
+6.72665832290E+006, +2.70038357520E+000, +2.18780152396E+002
+6.85168961202E+006, +2.52631329538E+000, +2.22807878428E+002
+6.97672090113E+006, +2.53689924200E+000, +2.26969543515E+002
+7.10175219024E+006, +2.47335111446E+000, +2.31301133041E+002
+7.22678347935E+006, +2.78812615062E+000, +2.35603847173E+002
+7.35181476846E+006, +2.75029466345E+000, +2.39917442700E+002
+7.47684605757E+006, +2.71302883886E+000, +2.44042847443E+002
+7.60187734668E+006, +2.66168367497E+000, +2.48413134733E+002
+7.72690863579E+006, +3.13672306839E+000, +2.52909332808E+002
+7.85193992491E+006, +3.11572881148E+000, +2.57199581811E+002
+7.97697121402E+006, +2.94566837150E+000, +2.61499555330E+002
+8.10200250313E+006, +3.20083359113E+000, +2.65896147839E+002
+8.22703379224E+006, +3.45466146595E+000, +2.70091095853E+002
+8.35206508135E+006, +3.12357009314E+000, +2.74600449704E+002
+8.47709637046E+006, +2.97442649450E+000, +2.78788455756E+002
+8.60212765957E+006, +3.20023509821E+000, +2.83081436166E+002
+8.72715894869E+006, +3.79796830281E+000, +2.87289470094E+002
+8.85219023780E+006, +4.02256332951E+000, +2.90979014431E+002
+8.97722152691E+006, +4.12300013066E+000, +2.95478250585E+002
+9.10225281602E+006, +3.85285175238E+000, +3.00236889309E+002
+9.22728410513E+006, +3.39899193669E+000, +3.04731547487E+002
+9.35231539424E+006, +3.29211406972E+000, +3.09503902557E+002
+9.47734668335E+006, +3.54639515536E+000, +3.13485320438E+002
+9.60237797247E+006, +4.30969602300E+000, +3.17032917423E+002
+9.72740926158E+006, +4.16940165574E+000, +3.20378457870E+002
+9.85244055069E+006, +4.86394703476E+000, +3.24706176563E+002
+9.97747183980E+006, +5.17170177621E+000, +3.28024245994E+002
+1.01025031289E+007, +5.16683578585E+000, +3.32030832785E+002
+1.02275344180E+007, +5.28623612659E+000, +3.36541344995E+002
+1.03525657071E+007, +5.05486382423E+000, +3.40623922038E+002
+1.04775969962E+007, +4.95399148825E+000, +3.45382595756E+002
+1.06026282854E+007, +5.38102345064E+000, +3.49861069280E+002
+1.07276595745E+007, +4.46133889518E+000, +3.55138359397E+002
+1.08526908636E+007, +4.33576684130E+000, +3.59727586260E+002
+1.09777221527E+007, +4.97290002936E+000, +3.65425880002E+002
+1.11027534418E+007, +4.59886305729E+000, +3.71185101944E+002
+1.12277847309E+007, +4.30867051254E+000, +3.76361846857E+002
+1.13528160200E+007, +4.06966494199E+000, +3.82243583184E+002
+1.14778473091E+007, +3.05586406292E+000, +3.88383466070E+002
+1.16028785982E+007, +2.84132638800E+000, +3.93198429900E+002
+1.17279098874E+007, +2.95044812584E+000, +3.96915433419E+002
+1.18529411765E+007, +3.28875109569E+000, +4.02048835262E+002
+1.19779724656E+007, +3.20223537523E+000, +4.07038031891E+002
+1.21030037547E+007, +2.86822609047E+000, +4.12063331773E+002
+1.22280350438E+007, +2.96071056436E+000, +4.16843692775E+002
+1.23530663329E+007, +2.37905220269E+000, +4.22284227408E+002
+1.24780976220E+007, +2.72556868359E+000, +4.27208209133E+002
+1.26031289111E+007, +2.42691944216E+000, +4.32340080471E+002
+1.27281602003E+007, +2.44027289037E+000, +4.37048915550E+002
+1.28531914894E+007, +2.29925281651E+000, +4.41876721910E+002
+1.29782227785E+007, +2.10413771215E+000, +4.46649779292E+002
+1.31032540676E+007, +2.37608746455E+000, +4.51646172134E+002
+1.32282853567E+007, +2.24903146611E+000, +4.57778601376E+002
+1.33533166458E+007, +2.13629274273E+000, +4.62791373010E+002
+1.34783479349E+007, +1.95313712924E+000, +4.65984120650E+002
+1.36033792240E+007, +2.44528050123E+000, +4.73726511366E+002
+1.37284105131E+007, +3.08758895582E+000, +4.78717656987E+002
+1.38534418023E+007, +2.80444817969E+000, +4.83740861962E+002
+1.39784730914E+007, +2.37097102013E+000, +4.90015915023E+002
+1.41035043805E+007, +2.48103830739E+000, +4.95059020115E+002
+1.42285356696E+007, +2.04651122825E+000, +4.98735702025E+002
+1.43535669587E+007, +2.46474849971E+000, +5.04646071655E+002
+1.44785982478E+007, +1.10999042526E+000, +5.11391671091E+002
+1.46036295369E+007, +1.58272497055E+000, +5.17025776568E+002
+1.47286608260E+007, +9.02204063568E-001, +5.21206524882E+002
+1.48536921151E+007, +1.17781622739E+000, +5.26871868106E+002
+1.49787234043E+007, +1.48395312661E+000, +5.32404273491E+002
+1.51037546934E+007, +1.10860855010E+000, +5.39162756521E+002
+1.52287859825E+007, +1.65286974531E+000, +5.44943330260E+002
+1.53538172716E+007, +2.59193953133E+000, +5.50253685770E+002
+1.54788485607E+007, +2.68358104886E+000, +5.55104814519E+002
+1.56038798498E+007, +1.58312044293E+000, +5.62043407845E+002
+1.57289111389E+007, +7.37804488595E-001, +5.68397912209E+002
+1.58539424280E+007, +3.12381772322E+000, +5.74287861480E+002
+1.59789737171E+007, +1.78174640327E+000, +5.78814435755E+002
+1.61040050063E+007, +3.15929680215E+000, +5.85351052401E+002
+1.62290362954E+007, +9.76423943897E-001, +5.92548787844E+002
+1.63540675845E+007, +2.23763260698E+000, +5.97916951492E+002
+1.64790988736E+007, +1.62189699355E+000, +6.04019152243E+002
+1.66041301627E+007, +1.83481956349E+000, +6.11649709100E+002
+1.67291614518E+007, +2.16996337059E+000, +6.16906855845E+002
+1.68541927409E+007, +2.28353838167E+000, +6.23760264806E+002
+1.69792240300E+007, +2.89835434404E+000, +6.29867584536E+002
+1.71042553191E+007, +8.08843993016E-001, +6.34652404159E+002
+1.72292866083E+007, +2.82807710206E+000, +6.41783259155E+002
+1.73543178974E+007, +1.52493758731E+000, +6.47675540811E+002
+1.74793491865E+007, +1.03506622596E+000, +6.53925937934E+002
+1.76043804756E+007, +1.09825107762E+000, +6.63095050694E+002
+1.77294117647E+007, -8.46034593279E-001, +6.65461954783E+002
+1.78544430538E+007, +1.30866879006E+000, +6.75735061789E+002
+1.79794743429E+007, +2.53469279847E-001, +6.81850954992E+002
+1.81045056320E+007, -6.72239971545E-001, +6.89151604521E+002
+1.82295369212E+007, -6.05410002324E-002, +6.96161361472E+002
+1.83545682103E+007, +2.63766523430E+000, +7.03539315867E+002
+1.84795994994E+007, -2.15794552035E-001, +7.09046184016E+002
+1.86046307885E+007, +2.32059434717E+000, +7.17517699329E+002
+1.87296620776E+007, +2.40703466500E+000, +7.22212901300E+002
+1.88546933667E+007, +3.57558792003E-001, +7.31163770807E+002
+1.89797246558E+007, +2.15418450761E+000, +7.37200380628E+002
+1.91047559449E+007, +1.24609086595E+000, +7.47457063983E+002
+1.92297872340E+007, +8.66054198743E-001, +7.54246024000E+002
+1.93548185232E+007, +2.05223281908E+000, +7.61353941238E+002
+1.94798498123E+007, +7.79874296849E-001, +7.69145597747E+002
+1.96048811014E+007, +2.57031859743E+000, +7.76037179954E+002
+1.97299123905E+007, +4.61160156237E+000, +7.84247630468E+002
+1.98549436796E+007, +1.69951229132E+000, +7.92366642878E+002
+1.99799749687E+007, +2.03938331239E+000, +7.97995657336E+002
+2.01050062578E+007, +1.54572739287E+000, +8.06279442468E+002
+2.02300375469E+007, +2.08044642401E+000, +8.15574691137E+002
+2.03550688360E+007, -5.79449373372E-002, +8.24048137768E+002
+2.04801001252E+007, +1.91775632115E+000, +8.32599839428E+002
+2.06051314143E+007, +2.49204827723E+000, +8.39361790813E+002
+2.07301627034E+007, +2.88497440561E+000, +8.46808134894E+002
+2.08551939925E+007, +2.42034869798E+000, +8.58083618734E+002
+2.09802252816E+007, +4.04133197362E+000, +8.64241733328E+002
+2.11052565707E+007, +3.01349308124E+000, +8.74061464108E+002
+2.12302878598E+007, +1.05776645260E+000, +8.84140878852E+002
+2.13553191489E+007, +4.56560148757E+000, +8.92337592021E+002
+2.14803504380E+007, +7.63814374911E+000, +9.02485073933E+002
+2.16053817272E+007, +2.58172133594E+000, +9.11350647223E+002
+2.17304130163E+007, +3.57236959705E+000, +9.21375628133E+002
+2.18554443054E+007, +7.09839800931E+000, +9.32158114184E+002
+2.19804755945E+007, +1.19909931185E+000, +9.37976489369E+002
+2.21055068836E+007, +4.32191101132E+000, +9.46463987021E+002
+2.22305381727E+007, +3.74395893926E+000, +9.61470635959E+002
+2.23555694618E+007, +8.92621464189E+000, +9.72051100928E+002
+2.24806007509E+007, +5.14650782801E+000, +9.82203284812E+002
+2.26056320401E+007, +7.08389521891E+000, +9.87956739915E+002
+2.27306633292E+007, +8.91140045054E+000, +9.96890006932E+002
+2.28556946183E+007, +1.59940014649E+001, +1.00928007180E+003
+2.29807259074E+007, +1.50305039760E+001, +1.02262855966E+003
+2.31057571965E+007, +1.06445584949E+001, +1.03248579319E+003
+2.32307884856E+007, +1.48628618992E+001, +1.04398138737E+003
+2.33558197747E+007, +1.55740117367E+001, +1.05248493449E+003
+2.34808510638E+007, +1.90293432607E+001, +1.06249258744E+003
+2.36058823529E+007, +1.91783942015E+001, +1.07305525867E+003
+2.37309136421E+007, +1.74308134564E+001, +1.08281873949E+003
+2.38559449312E+007, +2.53696312015E+001, +1.09390874842E+003
+2.39809762203E+007, +2.45609270341E+001, +1.10014325733E+003
+2.41060075094E+007, +2.22649938278E+001, +1.11623629427E+003
+2.42310387985E+007, +2.59227562356E+001, +1.11818587373E+003
+2.43560700876E+007, +2.46056992407E+001, +1.13120604442E+003
+2.44811013767E+007, +2.39369413993E+001, +1.13742746251E+003
+2.46061326658E+007, +2.45469518718E+001, +1.14884513989E+003
+2.47311639549E+007, +2.77971415220E+001, +1.15440951388E+003
+2.48561952441E+007, +2.70754275048E+001, +1.16904306338E+003
+2.49812265332E+007, +2.66875387143E+001, +1.18947562653E+003
+2.51062578223E+007, +2.83019768746E+001, +1.19111798478E+003
+2.52312891114E+007, +3.23361799592E+001, +1.20697771267E+003
+2.53563204005E+007, +2.57966665602E+001, +1.20832915385E+003
+2.54813516896E+007, +2.07309107475E+001, +1.23267603507E+003
+2.56063829787E+007, +1.93812009284E+001, +1.23819258890E+003
+2.57314142678E+007, +2.50289941093E+001, +1.25505623235E+003
+2.58564455569E+007, +1.58288944462E+001, +1.26798548799E+003
+2.59814768461E+007, +1.68639096438E+001, +1.28136949097E+003
+2.61065081352E+007, +1.88215978099E+001, +1.29932734608E+003
+2.62315394243E+007, +8.70837508365E+000, +1.31499705941E+003
+2.63565707134E+007, +1.43601179337E+001, +1.32875282643E+003
+2.64816020025E+007, +1.82175453832E+001, +1.34411824463E+003
+2.66066332916E+007, +1.68457498607E+001, +1.35724474687E+003
+2.67316645807E+007, +1.66784409528E+001, +1.37445389902E+003
+2.68566958698E+007, +1.45217961973E+001, +1.38693131374E+003
+2.69817271589E+007, +1.09366769509E+001, +1.40280056061E+003
+2.71067584481E+007, +1.15000101187E+001, +1.42396583546E+003
+2.72317897372E+007, +9.79950326124E+000, +1.44570776199E+003
+2.73568210263E+007, +1.20672212736E+001, +1.45952677532E+003
+2.74818523154E+007, +7.26128123637E+000, +1.47213248859E+003
+2.76068836045E+007, +2.17536007457E+001, +1.49780942132E+003
+2.77319148936E+007, +2.09540221098E+001, +1.51728154385E+003
+2.78569461827E+007, +2.59750781243E+001, +1.53091694110E+003
+2.79819774718E+007, +1.62804909683E+001, +1.54514512817E+003
+2.81070087610E+007, +2.16169650144E+001, +1.57645467857E+003
+2.82320400501E+007, +2.35907503868E+001, +1.58018145315E+003
+2.83570713392E+007, +2.02368356830E+001, +1.60001177824E+003
+2.84821026283E+007, +1.26802749844E+001, +1.61541552016E+003
+2.86071339174E+007, +3.17636991049E+001, +1.64453364722E+003
+2.87321652065E+007, +1.71936462660E+001, +1.65889801169E+003
+2.88571964956E+007, +1.60262155590E+001, +1.68146026773E+003
+2.89822277847E+007, +2.20102838185E+001, +1.69701141283E+003
+2.91072590738E+007, +1.17684248668E+001, +1.73492264222E+003
+2.92322903630E+007, +1.92483983062E+001, +1.74137222631E+003
+2.93573216521E+007, +2.42495181712E+001, +1.78086282567E+003
+2.94823529412E+007, +2.57810169910E+001, +1.79217511935E+003
+2.96073842303E+007, +3.29019817024E+001, +1.83229581485E+003
+2.97324155194E+007, +4.32709588225E+001, +1.84733073899E+003
+2.98574468085E+007, +3.25700798908E+001, +1.86860931671E+003
+2.99824780976E+007, +3.09513072102E+001, +1.91122654925E+003
+3.01075093867E+007, +3.61220548631E+001, +1.92250460436E+003
+3.02325406758E+007, +3.20620349891E+001, +1.95711098306E+003
+3.03575719650E+007, +3.76552439627E+001, +1.99219780595E+003
+3.04826032541E+007, +4.41334446691E+001, +2.03107750245E+003
+3.06076345432E+007, +3.53176196245E+001, +2.06224613741E+003
+3.07326658323E+007, +3.84854286473E+001, +2.08411008707E+003
+3.08576971214E+007, +4.28750181996E+001, +2.12242717284E+003
+3.09827284105E+007, +5.06174858750E+001, +2.13192053893E+003
+3.11077596996E+007, +3.66722774500E+001, +2.19258838843E+003
+3.12327909887E+007, +3.69440533029E+001, +2.17982272537E+003
+3.13578222778E+007, +3.84246011945E+001, +2.23698726575E+003
+3.14828535670E+007, +4.93576374361E+001, +2.29124653171E+003
+3.16078848561E+007, +5.58740477922E+001, +2.31472234741E+003
+3.17329161452E+007, +6.11519278692E+001, +2.34210692548E+003
+3.18579474343E+007, +6.14083150391E+001, +2.39046530095E+003
+3.19829787234E+007, +8.22723996221E+001, +2.42627351153E+003
+3.21080100125E+007, +7.74184217199E+001, +2.46619688358E+003
+3.22330413016E+007, +4.94227571421E+001, +2.52885535596E+003
+3.23580725907E+007, +7.65848801824E+001, +2.54886150159E+003
+3.24831038798E+007, +6.73897873491E+001, +2.60165643963E+003
+3.26081351690E+007, +1.07028075540E+002, +2.64073874812E+003
+3.27331664581E+007, +8.39314088218E+001, +2.71669629825E+003
+3.28581977472E+007, +1.11151941935E+002, +2.75677785555E+003
+3.29832290363E+007, +1.12219355329E+002, +2.77643417117E+003
+3.31082603254E+007, +1.32405711453E+002, +2.85929675734E+003
+3.32332916145E+007, +1.14145401131E+002, +2.90348201021E+003
+3.33583229036E+007, +1.52001898199E+002, +2.97814620512E+003
+3.34833541927E+007, +1.47674084303E+002, +3.04046961538E+003
+3.36083854819E+007, +1.37280868379E+002, +3.06506249656E+003
+3.37334167710E+007, +1.97529256776E+002, +3.14512492275E+003
+3.38584480601E+007, +1.76179930966E+002, +3.18859495773E+003
+3.39834793492E+007, +1.85225488693E+002, +3.29198134001E+003
+3.41085106383E+007, +1.94902742785E+002, +3.37111049801E+003
+3.42335419274E+007, +2.01095067989E+002, +3.45238238019E+003
+3.43585732165E+007, +2.08356527339E+002, +3.49972805646E+003
+3.44836045056E+007, +2.11196851157E+002, +3.62048094511E+003
+3.46086357947E+007, +2.90514256570E+002, +3.66413182048E+003
+3.47336670839E+007, +2.46458500946E+002, +3.78990691823E+003
+3.48586983730E+007, +2.75353395582E+002, +3.87486785557E+003
+3.49837296621E+007, +3.06752791710E+002, +3.94808169759E+003
+3.51087609512E+007, +3.43031559179E+002, +4.00551867857E+003
+3.52337922403E+007, +3.37093494021E+002, +4.16407491300E+003
+3.53588235294E+007, +3.63636442647E+002, +4.26441494376E+003
+3.54838548185E+007, +4.28033678921E+002, +4.40488691059E+003
+3.56088861076E+007, +4.49823991886E+002, +4.55944568051E+003
+3.57339173967E+007, +4.62180426787E+002, +4.64150909203E+003
+3.58589486859E+007, +4.68017076885E+002, +4.79190621536E+003
+3.59839799750E+007, +5.14401443235E+002, +4.98100537900E+003
+3.61090112641E+007, +5.46003610270E+002, +5.08062933516E+003
+3.62340425532E+007, +5.59796708765E+002, +5.21169468430E+003
+3.63590738423E+007, +6.15495683270E+002, +5.38156043077E+003
+3.64841051314E+007, +7.93401339390E+002, +5.63889589352E+003
+3.66091364205E+007, +7.99188446745E+002, +5.89096355369E+003
+3.67341677096E+007, +8.00568584133E+002, +6.09582896753E+003
+3.68591989987E+007, +8.28151341294E+002, +6.52706494597E+003
+3.69842302879E+007, +1.10018762011E+003, +6.67132680209E+003
+3.71092615770E+007, +1.19831516909E+003, +6.90357143645E+003
+3.72342928661E+007, +1.40794062410E+003, +7.26385186994E+003
+3.73593241552E+007, +1.36007691512E+003, +7.62876395432E+003
+3.74843554443E+007, +1.71314579144E+003, +8.06766969562E+003
+3.76093867334E+007, +1.89861631329E+003, +8.49454304585E+003
+3.77344180225E+007, +1.87778548045E+003, +8.79718588791E+003
+3.78594493116E+007, +2.53632150740E+003, +9.35390220248E+003
+3.79844806008E+007, +2.53827036425E+003, +9.79174369507E+003
+3.81095118899E+007, +2.88004785512E+003, +1.05368738103E+004
+3.82345431790E+007, +3.44127388860E+003, +1.11287957636E+004
+3.83595744681E+007, +4.11367854605E+003, +1.16275965462E+004
+3.84846057572E+007, +5.32123060534E+003, +1.35930080906E+004
+3.86096370463E+007, +5.45832211573E+003, +1.33890644601E+004
+3.87346683354E+007, +7.67274854136E+003, +1.45560526887E+004
+3.88596996245E+007, +9.47335958879E+003, +1.57856717359E+004
+3.89847309136E+007, +1.07313241324E+004, +1.49216149577E+004
+3.91097622028E+007, +1.70474524218E+004, +1.80386975682E+004
+3.92347934919E+007, +1.54565885733E+004, +1.85687047422E+004
+3.93598247810E+007, +2.15252445016E+004, +1.57081711270E+004
+3.94848560701E+007, +2.67037171816E+004, +1.47858712083E+004
+3.96098873592E+007, +3.32307156149E+004, +4.38937449874E+003
+3.97349186483E+007, +3.37144359245E+004, -1.76766119763E+003
+3.98599499374E+007, +2.99884521001E+004, -2.61614351860E+003
+3.99849812265E+007, +3.48792278023E+004, -7.52972182357E+003
+4.01100125156E+007, +2.25732527393E+004, -1.37257906399E+004
