"# Channel 1"
"# Trace 1"
Frequency, Formatted Data, Formatted Data
+1.00000000000E+005, +1.30784951865E+001, +3.05689388343E+000
+2.25031289111E+005, +1.30748457817E+001, +6.84722083218E+000
+3.50062578223E+005, +1.30656075371E+001, +1.06661424684E+001
+4.75093867334E+005, +1.30525953882E+001, +1.44651936555E+001
+6.00125156446E+005, +1.30600824789E+001, +1.82587847822E+001
+7.25156445557E+005, +1.31028348371E+001, +2.20813388572E+001
+8.50187734668E+005, +1.30817403499E+001, +2.58912268119E+001
+9.75219023780E+005, +1.30808966056E+001, +2.96709414889E+001
+1.10025031289E+006, +1.30650459395E+001, +3.34512896139E+001
+1.22528160200E+006, +1.31038322169E+001, +3.72655118752E+001
+1.35031289111E+006, +1.30313277537E+001, +4.10242820790E+001
+1.47534418023E+006, +1.30553174751E+001, +4.48836126674E+001
+1.60037546934E+006, +1.30438902480E+001, +4.86240237742E+001
+1.72540675845E+006, +1.30935107084E+001, +5.25445906655E+001
+1.85043804756E+006, +1.30410871548E+001, +5.62810947628E+001
+1.97546933667E+006, +1.31142373625E+001, +6.00644996514E+001
+2.10050062578E+006, +1.30508353806E+001, +6.39111807717E+001
+2.22553191489E+006, +1.30280993753E+001, +6.77011252575E+001
+2.35056320401E+006, +1.31911518759E+001, +7.15943519093E+001
+2.47559449312E+006, +1.31488020144E+001, +7.53164580018E+001
+2.60062578223E+006, +1.31283072540E+001, +7.92459333187E+001
+2.72565707134E+006, +1.30867857816E+001, +8.29150682348E+001
+2.85068836045E+006, +1.30363737815E+001, +8.69137638765E+001
+2.97571964956E+006, +1.31300010199E+001, +9.07681920340E+001
+3.10075093867E+006, +1.31384223063E+001, +9.46151855713E+001
+3.22578222778E+006, +1.29854563522E+001, +9.85516339211E+001
+3.35081351690E+006, +1.32795044388E+001, +1.02457869104E+002
+3.47584480601E+006, +1.33128264024E+001, +1.06519330863E+002
+3.60087609512E+006, +1.32196413437E+001, +1.10252265811E+002
+3.72590738423E+006, +1.32339079068E+001, +1.14323745132E+002
+3.85093867334E+006, +1.32217917056E+001, +1.18141826789E+002
+3.97596996245E+006, +1.32058822400E+001, +1.22237169862E+002
+4.10100125156E+006, +1.37213353248E+001, +1.25955840949E+002
+4.22603254068E+006, +1.33679233781E+001, +1.29680320243E+002
+4.35106382979E+006, +1.33061494761E+001, +1.33749438888E+002
+4.47609511890E+006, +1.32508958620E+001, +1.37808723695E+002
+4.60112640801E+006, +1.35301826879E+001, +1.41710618498E+002
+4.72615769712E+006, +1.36462626967E+001, +1.45456112039E+002
+4.85118898623E+006, +1.38838489405E+001, +1.49664555315E+002
+4.97622027534E+006, +1.33739649876E+001, +1.53741284839E+002
+5.10125156446E+006, +1.36899592437E+001, +1.57632528651E+002
+5.22628285357E+006, +1.37907052900E+001, +1.61625361535E+002
+5.35131414268E+006, +1.40477159285E+001, +1.65915386563E+002
+5.47634543179E+006, +1.39258476418E+001, +1.69635767145E+002
+5.60137672090E+006, +1.38254685409E+001, +1.73691586472E+002
+5.72640801001E+006, +1.40888311040E+001, +1.78299231658E+002
+5.85143929912E+006, +1.41827714430E+001, +1.82347468447E+002
+5.97647058824E+006, +1.42496357670E+001, +1.86790232223E+002
+6.10150187735E+006, +1.45560367970E+001, +1.90072522918E+002
+6.22653316646E+006, +1.38136664791E+001, +1.94014348811E+002
+6.35156445557E+006, +1.46017871803E+001, +1.98476180287E+002
+6.47659574468E+006, +1.47219544091E+001, +2.02391781418E+002
+6.60162703379E+006, +1.50822049382E+001, +2.07292930845E+002
+6.72665832290E+006, +1.49318469478E+001, +2.11100577969E+002
+6.85168961202E+006, +1.46817082924E+001, +2.15611490418E+002
+6.97672090113E+006, +1.49044395932E+001, +2.19810878946E+002
+7.10175219024E+006, +1.52826231918E+001, +2.23835418250E+002
+7.22678347935E+006, +1.54607695656E+001, +2.28043877725E+002
+7.35181476846E+006, +1.53003394172E+001, +2.32432446875E+002
+7.47684605757E+006, +1.54617491532E+001, +2.36471782111E+002
+7.60187734668E+006, +1.53025341338E+001, +2.40887663498E+002
+7.72690863579E+006, +1.57103379964E+001, +2.45695687977E+002
+7.85193992491E+006, +1.60651997248E+001, +2.50105864776E+002
+7.97697121402E+006, +1.52750385458E+001, +2.54776546268E+002
+8.10200250313E+006, +1.54322606574E+001, +2.59017678479E+002
+8.22703379224E+006, +1.60620660214E+001, +2.63523973078E+002
+8.35206508135E+006, +1.55390697026E+001, +2.68226754198E+002
+8.47709637046E+006, +1.63620518503E+001, +2.72584691449E+002
+8.60212765957E+006, +1.57587303749E+001, +2.76624706349E+002
+8.72715894869E+006, +1.68139672395E+001, +2.81030032451E+002
+8.85219023780E+006, +1.62926143282E+001, +2.84913268629E+002
+8.97722152691E+006, +1.59534851711E+001, +2.90203934180E+002
+9.10225281602E+006, +1.69062710690E+001, +2.94981100625E+002
+9.22728410513E+006, +1.67734741629E+001, +2.98889736423E+002
+9.35231539424E+006, +1.67441251816E+001, +3.03265269323E+002
+9.47734668335E+006, +1.64458767676E+001, +3.08272743221E+002
+9.60237797247E+006, +1.73312239046E+001, +3.12826514333E+002
+9.72740926158E+006, +1.67792816743E+001, +3.17861043605E+002
+9.85244055069E+006, +1.69403964174E+001, +3.23633715454E+002
+9.97747183980E+006, +1.63882746168E+001, +3.27175617072E+002
+1.01025031289E+007, +1.83090726779E+001, +3.31146803414E+002
+1.02275344180E+007, +1.69063135644E+001, +3.36194618307E+002
+1.03525657071E+007, +1.77629130820E+001, +3.41348762931E+002
+1.04775969962E+007, +1.78761348879E+001, +3.45908386930E+002
+1.06026282854E+007, +1.79842832686E+001, +3.51648638277E+002
+1.07276595745E+007, +1.77364660860E+001, +3.56931763150E+002
+1.08526908636E+007, +1.79257675062E+001, +3.61822768809E+002
+1.09777221527E+007, +1.87126889573E+001, +3.66432513437E+002
+1.11027534418E+007, +1.85330963687E+001, +3.71980503408E+002
+1.12277847309E+007, +1.74523593744E+001, +3.77255235902E+002
+1.13528160200E+007, +1.87985899136E+001, +3.81744627961E+002
+1.14778473091E+007, +1.89598065691E+001, +3.86874643411E+002
+1.16028785982E+007, +1.83744893847E+001, +3.92080638629E+002
+1.17279098874E+007, +1.88848358941E+001, +3.98101137486E+002
+1.18529411765E+007, +1.82796102695E+001, +4.03435655071E+002
+1.19779724656E+007, +1.92810086439E+001, +4.07905485373E+002
+1.21030037547E+007, +1.79666884389E+001, +4.13635430824E+002
+1.22280350438E+007, +1.87878121953E+001, +4.19731971863E+002
+1.23530663329E+007, +1.90141836361E+001, +4.24506768805E+002
+1.24780976220E+007, +1.92629618658E+001, +4.29668720024E+002
+1.26031289111E+007, +1.98445026849E+001, +4.35694846913E+002
+1.27281602003E+007, +2.08168206030E+001, +4.40836918465E+002
+1.28531914894E+007, +1.98884834384E+001, +4.47195840584E+002
+1.29782227785E+007, +2.09065131836E+001, +4.52295352796E+002
+1.31032540676E+007, +2.00680583332E+001, +4.57378052393E+002
+1.32282853567E+007, +2.07767999511E+001, +4.63970042140E+002
+1.33533166458E+007, +2.07406785280E+001, +4.69983614233E+002
+1.34783479349E+007, +2.10187620772E+001, +4.74933002285E+002
+1.36033792240E+007, +2.08282227077E+001, +4.82648633167E+002
+1.37284105131E+007, +2.09564915695E+001, +4.85580958866E+002
+1.38534418023E+007, +2.17344745437E+001, +4.94217006435E+002
+1.39784730914E+007, +2.14780758331E+001, +5.00744027573E+002
+1.41035043805E+007, +2.18630760118E+001, +5.06073881231E+002
+1.42285356696E+007, +2.14628166718E+001, +5.12165155376E+002
+1.43535669587E+007, +2.13523168769E+001, +5.18201462023E+002
+1.44785982478E+007, +2.28468250487E+001, +5.24760510081E+002
+1.46036295369E+007, +2.38625206972E+001, +5.32189188037E+002
+1.47286608260E+007, +2.24005084388E+001, +5.37717165097E+002
+1.48536921151E+007, +2.35490525885E+001, +5.43004943574E+002
+1.49787234043E+007, +2.36933890496E+001, +5.52444570152E+002
+1.51037546934E+007, +2.40204634411E+001, +5.57095744355E+002
+1.52287859825E+007, +2.52787976502E+001, +5.65493755896E+002
+1.53538172716E+007, +2.48726366516E+001, +5.71102321197E+002
+1.54788485607E+007, +2.58845931295E+001, +5.79478473388E+002
+1.56038798498E+007, +2.72010206074E+001, +5.86954788559E+002
+1.57289111389E+007, +2.71808299603E+001, +5.92843759564E+002
+1.58539424280E+007, +2.37419528275E+001, +6.00336164186E+002
+1.59789737171E+007, +2.60278045719E+001, +6.06132820890E+002
+1.61040050063E+007, +2.61454587467E+001, +6.12789258397E+002
+1.62290362954E+007, +2.63436272144E+001, +6.22288775700E+002
+1.63540675845E+007, +2.52167170933E+001, +6.29643871100E+002
+1.64790988736E+007, +2.62197712607E+001, +6.35286764268E+002
+1.66041301627E+007, +2.75983064513E+001, +6.45581067572E+002
+1.67291614518E+007, +2.77340349454E+001, +6.53606473579E+002
+1.68541927409E+007, +2.83510399104E+001, +6.58660392526E+002
+1.69792240300E+007, +2.96667603308E+001, +6.69469871667E+002
+1.71042553191E+007, +2.33597863356E+001, +6.75130573864E+002
+1.72292866083E+007, +2.42586177090E+001, +6.86480516334E+002
+1.73543178974E+007, +3.20910859907E+001, +6.93365206336E+002
+1.74793491865E+007, +2.84110260614E+001, +7.02013171728E+002
+1.76043804756E+007, +2.80761665617E+001, +7.08132276794E+002
+1.77294117647E+007, +2.96259748305E+001, +7.19132710151E+002
+1.78544430538E+007, +2.72437755057E+001, +7.29129220436E+002
+1.79794743429E+007, +3.10034054632E+001, +7.33460473651E+002
+1.81045056320E+007, +3.08582847171E+001, +7.46664675321E+002
+1.82295369212E+007, +3.54644292931E+001, +7.55515833844E+002
+1.83545682103E+007, +3.52379773619E+001, +7.65055090033E+002
+1.84795994994E+007, +3.34839999450E+001, +7.71724395158E+002
+1.86046307885E+007, +3.37001552238E+001, +7.85393775819E+002
+1.87296620776E+007, +3.21981427659E+001, +7.96408118712E+002
+1.88546933667E+007, +3.83353525734E+001, +8.05345458964E+002
+1.89797246558E+007, +3.83080577694E+001, +8.15875131069E+002
+1.91047559449E+007, +3.71716309135E+001, +8.22351462518E+002
+1.92297872340E+007, +3.44276760206E+001, +8.31667743231E+002
+1.93548185232E+007, +3.78183432719E+001, +8.42596760803E+002
+1.94798498123E+007, +3.99778019426E+001, +8.51770729907E+002
+1.96048811014E+007, +3.90725205534E+001, +8.64680647287E+002
+1.97299123905E+007, +3.74252925340E+001, +8.78663932005E+002
+1.98549436796E+007, +4.37538017140E+001, +8.87002924438E+002
+1.99799749687E+007, +4.30073598116E+001, +9.01120545931E+002
+2.01050062578E+007, +4.72966826867E+001, +9.05764659040E+002
+2.02300375469E+007, +4.82305425582E+001, +9.19628823740E+002
+2.03550688360E+007, +4.61102421083E+001, +9.32921453630E+002
+2.04801001252E+007, +4.20472996185E+001, +9.46079227877E+002
+2.06051314143E+007, +4.96128700189E+001, +9.60217796851E+002
+2.07301627034E+007, +5.48335654442E+001, +9.67217750527E+002
+2.08551939925E+007, +5.44758222982E+001, +9.79278921818E+002
+2.09802252816E+007, +4.89834317718E+001, +9.96065994877E+002
+2.11052565707E+007, +5.32881028770E+001, +1.00830447991E+003
+2.12302878598E+007, +5.80092671352E+001, +1.02253794841E+003
+2.13553191489E+007, +5.87887751541E+001, +1.03880704198E+003
+2.14803504380E+007, +5.92044024105E+001, +1.04660871970E+003
+2.16053817272E+007, +6.57668622813E+001, +1.06654683526E+003
+2.17304130163E+007, +6.77738729068E+001, +1.08425823547E+003
+2.18554443054E+007, +7.52402555810E+001, +1.09896967157E+003
+2.19804755945E+007, +7.58130338895E+001, +1.10204213450E+003
+2.21055068836E+007, +7.46532466084E+001, +1.11884853126E+003
+2.22305381727E+007, +7.38276684990E+001, +1.14589529069E+003
+2.23555694618E+007, +7.80838709245E+001, +1.15697715068E+003
+2.24806007509E+007, +8.81339613884E+001, +1.16830301800E+003
+2.26056320401E+007, +7.75503543205E+001, +1.19209971772E+003
+2.27306633292E+007, +8.52572675530E+001, +1.19856436210E+003
+2.28556946183E+007, +1.00173887696E+002, +1.22178333706E+003
+2.29807259074E+007, +9.38759330808E+001, +1.24126391976E+003
+2.31057571965E+007, +9.81082534239E+001, +1.25391599818E+003
+2.32307884856E+007, +1.03275821076E+002, +1.26856406317E+003
+2.33558197747E+007, +1.10974962360E+002, +1.29028171336E+003
+2.34808510638E+007, +1.07011825182E+002, +1.29994368347E+003
+2.36058823529E+007, +1.05929690884E+002, +1.33121670240E+003
+2.37309136421E+007, +1.23538433653E+002, +1.34839295617E+003
+2.38559449312E+007, +1.19055466003E+002, +1.36819204770E+003
+2.39809762203E+007, +1.39362534110E+002, +1.38556575842E+003
+2.41060075094E+007, +1.46834424886E+002, +1.40489884474E+003
+2.42310387985E+007, +1.24121799256E+002, +1.42327889321E+003
+2.43560700876E+007, +1.46880503188E+002, +1.44931997954E+003
+2.44811013767E+007, +1.60248576525E+002, +1.45900869408E+003
+2.46061326658E+007, +1.67461359071E+002, +1.48629354983E+003
+2.47311639549E+007, +1.74382952646E+002, +1.52409530254E+003
+2.48561952441E+007, +1.62434395673E+002, +1.53995181390E+003
+2.49812265332E+007, +1.77598342725E+002, +1.56694377217E+003
+2.51062578223E+007, +1.77544065523E+002, +1.57790654588E+003
+2.52312891114E+007, +1.97933154904E+002, +1.60630588322E+003
+2.53563204005E+007, +1.95629845521E+002, +1.61611858425E+003
+2.54813516896E+007, +2.11703362678E+002, +1.66168811444E+003
+2.56063829787E+007, +2.05938093423E+002, +1.67860852812E+003
+2.57314142678E+007, +2.14557166595E+002, +1.71237077041E+003
+2.58564455569E+007, +2.32810989753E+002, +1.72413897074E+003
+2.59814768461E+007, +2.34130432133E+002, +1.75574584116E+003
+2.61065081352E+007, +2.40215729898E+002, +1.78678943216E+003
+2.62315394243E+007, +2.31279696077E+002, +1.82198979689E+003
+2.63565707134E+007, +2.44559222856E+002, +1.84061023316E+003
+2.64816020025E+007, +2.57716657734E+002, +1.88614292907E+003
+2.66066332916E+007, +2.67955536962E+002, +1.90201169830E+003
+2.67316645807E+007, +2.72045295630E+002, +1.93313220657E+003
+2.68566958698E+007, +2.79600047494E+002, +1.98275572878E+003
+2.69817271589E+007, +2.97668320931E+002, +2.02740972164E+003
+2.71067584481E+007, +2.85958093569E+002, +2.07404638200E+003
+2.72317897372E+007, +3.04292417251E+002, +2.11874903046E+003
+2.73568210263E+007, +2.95893857533E+002, +2.15562471337E+003
+2.74818523154E+007, +3.46967646399E+002, +2.21937255785E+003
+2.76068836045E+007, +3.64557339463E+002, +2.24276299238E+003
+2.77319148936E+007, +3.57907909819E+002, +2.29236961371E+003
+2.78569461827E+007, +3.81921928721E+002, +2.34672020835E+003
+2.79819774718E+007, +3.75939973939E+002, +2.38428889153E+003
+2.81070087610E+007, +4.16224651155E+002, +2.43506601828E+003
+2.82320400501E+007, +3.91666007372E+002, +2.51244536087E+003
+2.83570713392E+007, +4.21929490643E+002, +2.58649458161E+003
+2.84821026283E+007, +4.66177052056E+002, +2.62871630252E+003
+2.86071339174E+007, +4.64006251712E+002, +2.68801930396E+003
+2.87321652065E+007, +5.09615575942E+002, +2.76349443501E+003
+2.88571964956E+007, +5.25552153695E+002, +2.81275874252E+003
+2.89822277847E+007, +5.34424169856E+002, +2.83365674862E+003
+2.91072590738E+007, +5.44673828390E+002, +2.90176837336E+003
+2.92322903630E+007, +5.69024159716E+002, +2.97884633752E+003
+2.93573216521E+007, +6.32302587715E+002, +3.13770494086E+003
+2.94823529412E+007, +5.99208270648E+002, +3.29347968780E+003
+2.96073842303E+007, +7.20582387184E+002, +3.40568336541E+003
+2.97324155194E+007, +8.05039066029E+002, +3.41922492615E+003
+2.98574468085E+007, +8.70913909730E+002, +3.50218006453E+003
+2.99824780976E+007, +8.68191806392E+002, +3.48950708202E+003
+3.01075093867E+007, +8.70511194431E+002, +3.75605193513E+003
+3.02325406758E+007, +8.83705085470E+002, +3.90420319151E+003
+3.03575719650E+007, +8.71677827942E+002, +4.03284738004E+003
+3.04826032541E+007, +1.03791317163E+003, +4.12177836066E+003
+3.06076345432E+007, +1.27379743223E+003, +4.17939327246E+003
+3.07326658323E+007, +1.39445069416E+003, +4.54818684959E+003
+3.08576971214E+007, +1.31666095687E+003, +4.53849377799E+003
+3.09827284105E+007, +1.45275630810E+003, +4.65955959300E+003
+3.11077596996E+007, +1.76813041002E+003, +5.00351392859E+003
+3.12327909887E+007, +1.87594642182E+003, +5.04077261961E+003
+3.13578222778E+007, +1.74095135187E+003, +5.50313412452E+003
+3.14828535670E+007, +2.40692228236E+003, +5.73702781026E+003
+3.16078848561E+007, +2.29866333242E+003, +6.07651803294E+003
+3.17329161452E+007, +2.91011768216E+003, +6.59137252487E+003
+3.18579474343E+007, +3.18081159391E+003, +6.22699296614E+003
+3.19829787234E+007, +3.19815533896E+003, +6.92210697269E+003
+3.21080100125E+007, +3.90852712051E+003, +7.56995117919E+003
+3.22330413016E+007, +4.77111891966E+003, +7.30527110222E+003
+3.23580725907E+007, +5.28161322160E+003, +8.29867156138E+003
+3.24831038798E+007, +6.38537488624E+003, +7.67645331509E+003
+3.26081351690E+007, +6.99190097778E+003, +7.99897102268E+003
+3.27331664581E+007, +8.33944518017E+003, +7.98636787383E+003
+3.28581977472E+007, +8.68222926278E+003, +8.64569116394E+003
+3.29832290363E+007, +1.03327840617E+004, +7.78045332431E+003
+3.31082603254E+007, +1.30073259142E+004, +7.08461046395E+003
+3.32332916145E+007, +1.39602432808E+004, +4.74836715787E+003
+3.33583229036E+007, +1.49620445033E+004, +4.66217979051E+003
+3.34833541927E+007, +1.58963101716E+004, +3.63109955915E+003
+3.36083854819E+007, +1.74363312813E+004, +7.07368985113E+002
+3.37334167710E+007, +1.61677916365E+004, -2.29072598521E+003
+3.38584480601E+007, +1.50871095771E+004, -4.84122870165E+003
+3.39834793492E+007, +1.43588998855E+004, -5.99609949553E+003
+3.41085106383E+007, +1.14761958836E+004, -6.64154406777E+003
+3.42335419274E+007, +1.02653884155E+004, -6.58826986446E+003
+3.43585732165E+007, +9.61491517088E+003, -8.03569528004E+003
+3.44836045056E+007, +7.78916369288E+003, -8.24054197173E+003
+3.46086357947E+007, +6.40417084454E+003, -7.20513158107E+003
+3.47336670839E+007, +6.24836084105E+003, -7.54778388195E+003
+3.48586983730E+007, +5.53909456302E+003, -7.26557977434E+003
+3.49837296621E+007, +4.84244350444E+003, -6.85071048521E+003
+3.51087609512E+007, +4.63413252923E+003, -6.64006161690E+003
+3.52337922403E+007, +3.48167150638E+003, -6.72545301001E+003
+3.53588235294E+007, +3.41437752447E+003, -6.11531800529E+003
+3.54838548185E+007, +3.23308077817E+003, -5.85167899527E+003
+3.56088861076E+007, +2.52404652505E+003, -5.63880188945E+003
+3.57339173967E+007, +2.53668669456E+003, -5.41975843975E+003
+3.58589486859E+007, +2.38381721725E+003, -5.11366421749E+003
+3.59839799750E+007, +2.19646869329E+003, -4.91260753756E+003
+3.61090112641E+007, +1.94547056995E+003, -4.73162744324E+003
+3.62340425532E+007, +1.79974448112E+003, -4.55449714252E+003
+3.63590738423E+007, +1.70322669222E+003, -4.56495065064E+003
+3.64841051314E+007, +1.56797784812E+003, -4.19957467482E+003
+3.66091364205E+007, +1.48380917588E+003, -4.10628814372E+003
+3.67341677096E+007, +1.43961975909E+003, -3.98585590308E+003
+3.68591989987E+007, +1.26624211913E+003, -3.96402333016E+003
+3.69842302879E+007, +1.25931402145E+003, -3.67899829869E+003
+3.71092615770E+007, +1.21910198793E+003, -3.62018168563E+003
+3.72342928661E+007, +1.12272257152E+003, -3.50176840096E+003
+3.73593241552E+007, +1.09604427967E+003, -3.38182603218E+003
+3.74843554443E+007, +9.35210303946E+002, -3.31706050277E+003
+3.76093867334E+007, +9.55756043527E+002, -3.24105803616E+003
+3.77344180225E+007, +9.49510434288E+002, -3.15575890557E+003
+3.78594493116E+007, +8.92158828610E+002, -3.08191136184E+003
+3.79844806008E+007, +8.78532868322E+002, -2.99485013659E+003
+3.81095118899E+007, +8.26962278365E+002, -2.88699344633E+003
+3.82345431790E+007, +7.91554826120E+002, -2.84556095781E+003
+3.83595744681E+007, +7.46856447642E+002, -2.73415746337E+003
+3.84846057572E+007, +7.59094102717E+002, -2.68134828701E+003
+3.86096370463E+007, +7.26236123334E+002, -2.65772042007E+003
+3.87346683354E+007, +6.77053257909E+002, -2.59297047758E+003
+3.88596996245E+007, +6.47911195910E+002, -2.53778882233E+003
+3.89847309136E+007, +6.51434302087E+002, -2.48243736864E+003
+3.91097622028E+007, +6.37051655589E+002, -2.41829699377E+003
+3.92347934919E+007, +5.98928398700E+002, -2.39031179064E+003
+3.93598247810E+007, +5.81682967505E+002, -2.33414614662E+003
+3.94848560701E+007, +5.55747050981E+002, -2.26383635868E+003
+3.96098873592E+007, +5.42937141479E+002, -2.20028090881E+003
+3.97349186483E+007, +5.26002836637E+002, -2.19016038141E+003
+3.98599499374E+007, +4.98845288481E+002, -2.15101347804E+003
+3.99849812265E+007, +4.79600605045E+002, -2.08738684929E+003
+4.01100125156E+007, +4.76884742117E+002, -2.06193213649E+003
