"# Channel 1"
"# Trace 1"
Frequency, Formatted Data, Formatted Data
+1.00000000000E+005, +9.90890864487E+000, +3.47914835236E+000
+2.25031289111E+005, +1.00108568976E+001, +7.69918726881E+000
+3.50062578223E+005, +1.00666467405E+001, +1.18893870344E+001
+4.75093867334E+005, +1.01529521171E+001, +1.61091655275E+001
+6.00125156446E+005, +1.01705158108E+001, +2.01929577209E+001
+7.25156445557E+005, +1.02424743371E+001, +2.44012073014E+001
+8.50187734668E+005, +1.02847766184E+001, +2.84906036079E+001
+9.75219023780E+005, +1.03088918909E+001, +3.26360175707E+001
+1.10025031289E+006, +1.03923433047E+001, +3.68328651862E+001
+1.22528160200E+006, +1.04818362528E+001, +4.09348826910E+001
+1.35031289111E+006, +1.04627539702E+001, +4.50885163792E+001
+1.47534418023E+006, +1.05140104237E+001, +4.92162942683E+001
+1.60037546934E+006, +1.05628171748E+001, +5.33025145580E+001
+1.72540675845E+006, +1.05687635578E+001, +5.74724685613E+001
+1.85043804756E+006, +1.05887841716E+001, +6.15856606138E+001
+1.97546933667E+006, +1.07097632045E+001, +6.56291660446E+001
+2.10050062578E+006, +1.05163630255E+001, +6.99289594091E+001
+2.22553191489E+006, +1.06531773507E+001, +7.41057221649E+001
+2.35056320401E+006, +1.06740375303E+001, +7.81803992268E+001
+2.47559449312E+006, +1.06809118996E+001, +8.22251712851E+001
+2.60062578223E+006, +1.08287074304E+001, +8.64916671068E+001
+2.72565707134E+006, +1.08740875919E+001, +9.05042868312E+001
+2.85068836045E+006, +1.08915952026E+001, +9.46201816929E+001
+2.97571964956E+006, +1.06167844466E+001, +9.91352979299E+001
+3.10075093867E+006, +1.06902577755E+001, +1.03255475669E+002
+3.22578222778E+006, +1.06876530204E+001, +1.07400321009E+002
+3.35081351690E+006, +1.07174557838E+001, +1.11680220281E+002
+3.47584480601E+006, +1.09395971555E+001, +1.15990918919E+002
+3.60087609512E+006, +1.09525796045E+001, +1.20097894299E+002
+3.72590738423E+006, +1.10902133403E+001, +1.24151275568E+002
+3.85093867334E+006, +1.12841598857E+001, +1.28307729682E+002
+3.97596996245E+006, +1.14253443854E+001, +1.32284872327E+002
+4.10100125156E+006, +1.11401749323E+001, +1.36823025048E+002
+4.22603254068E+006, +1.12457398803E+001, +1.41073674949E+002
+4.35106382979E+006, +1.11704674534E+001, +1.45260397527E+002
+4.47609511890E+006, +1.11836275332E+001, +1.49451381200E+002
+4.60112640801E+006, +1.12594349703E+001, +1.53860217592E+002
+4.72615769712E+006, +1.13669762597E+001, +1.58418072219E+002
+4.85118898623E+006, +1.13334280529E+001, +1.62207143321E+002
+4.97622027534E+006, +1.18871370061E+001, +1.66830848193E+002
+5.10125156446E+006, +1.17324257819E+001, +1.71217196608E+002
+5.22628285357E+006, +1.17923971028E+001, +1.75652680689E+002
+5.35131414268E+006, +1.16306837397E+001, +1.79455296856E+002
+5.47634543179E+006, +1.19503258060E+001, +1.83677452342E+002
+5.60137672090E+006, +1.20816419268E+001, +1.88264929207E+002
+5.72640801001E+006, +1.25350277032E+001, +1.92653209972E+002
+5.85143929912E+006, +1.20115974578E+001, +1.96970709230E+002
+5.97647058824E+006, +1.24453795936E+001, +2.01597509903E+002
+6.10150187735E+006, +1.20159024435E+001, +2.06001705478E+002
+6.22653316646E+006, +1.29186968474E+001, +2.10351108916E+002
+6.35156445557E+006, +1.28941995877E+001, +2.14191024374E+002
+6.47659574468E+006, +1.30963041287E+001, +2.18511160227E+002
+6.60162703379E+006, +1.31108668553E+001, +2.23179837723E+002
+6.72665832290E+006, +1.35548942560E+001, +2.27941699975E+002
+6.85168961202E+006, +1.35811532886E+001, +2.32227767756E+002
+6.97672090113E+006, +1.37971331047E+001, +2.36598163709E+002
+7.10175219024E+006, +1.38133719831E+001, +2.40576566634E+002
+7.22678347935E+006, +1.38439368991E+001, +2.45357512025E+002
+7.35181476846E+006, +1.43016692877E+001, +2.50250998773E+002
+7.47684605757E+006, +1.40669585969E+001, +2.54597385718E+002
+7.60187734668E+006, +1.38703418105E+001, +2.58658920776E+002
+7.72690863579E+006, +1.39095381068E+001, +2.63567380845E+002
+7.85193992491E+006, +1.41547713686E+001, +2.67524117799E+002
+7.97697121402E+006, +1.39557198147E+001, +2.72356376605E+002
+8.10200250313E+006, +1.45535554932E+001, +2.76970308390E+002
+8.22703379224E+006, +1.44261661642E+001, +2.81441017765E+002
+8.35206508135E+006, +1.47606640460E+001, +2.86432597997E+002
+8.47709637046E+006, +1.44667392569E+001, +2.90727523539E+002
+8.60212765957E+006, +1.39304127685E+001, +2.95315008560E+002
+8.72715894869E+006, +1.44740079048E+001, +2.99643098393E+002
+8.85219023780E+006, +1.44709913478E+001, +3.05400831752E+002
+8.97722152691E+006, +1.47954399166E+001, +3.09479694971E+002
+9.10225281602E+006, +1.44947089500E+001, +3.14014970949E+002
+9.22728410513E+006, +1.44966396036E+001, +3.19811873923E+002
+9.35231539424E+006, +1.47082073230E+001, +3.23557530313E+002
+9.47734668335E+006, +1.51942332695E+001, +3.28565529269E+002
+9.60237797247E+006, +1.46657000333E+001, +3.33165402192E+002
+9.72740926158E+006, +1.42588325591E+001, +3.38278769993E+002
+9.85244055069E+006, +1.39643606793E+001, +3.43259199704E+002
+9.97747183980E+006, +1.45504159669E+001, +3.48847017128E+002
+1.01025031289E+007, +1.45411539340E+001, +3.53622121831E+002
+1.02275344180E+007, +1.50223940144E+001, +3.57722833286E+002
+1.03525657071E+007, +1.46420905326E+001, +3.63700008055E+002
+1.04775969962E+007, +1.47648452205E+001, +3.68470152354E+002
+1.06026282854E+007, +1.55228266489E+001, +3.73117726216E+002
+1.07276595745E+007, +1.49627111870E+001, +3.78749869551E+002
+1.08526908636E+007, +1.46489497776E+001, +3.82761774834E+002
+1.09777221527E+007, +1.52304647222E+001, +3.87575560435E+002
+1.11027534418E+007, +1.50337776501E+001, +3.92952651646E+002
+1.12277847309E+007, +1.56036320635E+001, +3.98291385659E+002
+1.13528160200E+007, +1.59076745553E+001, +4.03394276557E+002
+1.14778473091E+007, +1.45476846663E+001, +4.09357360458E+002
+1.16028785982E+007, +1.61130220329E+001, +4.13688980866E+002
+1.17279098874E+007, +1.51561548445E+001, +4.19974347172E+002
+1.18529411765E+007, +1.69495644541E+001, +4.25178142302E+002
+1.19779724656E+007, +1.45215525922E+001, +4.31228488906E+002
+1.21030037547E+007, +1.61880518827E+001, +4.35711767410E+002
+1.22280350438E+007, +1.55442609964E+001, +4.42225117308E+002
+1.23530663329E+007, +1.57868794255E+001, +4.46484100176E+002
+1.24780976220E+007, +1.66861693834E+001, +4.52190657560E+002
+1.26031289111E+007, +1.58065221399E+001, +4.57007491560E+002
+1.27281602003E+007, +1.58085371088E+001, +4.63110611127E+002
+1.28531914894E+007, +1.57608293595E+001, +4.68347779988E+002
+1.29782227785E+007, +1.56960762229E+001, +4.75303129108E+002
+1.31032540676E+007, +1.79151663971E+001, +4.81089853048E+002
+1.32282853567E+007, +1.68976905337E+001, +4.86093325885E+002
+1.33533166458E+007, +1.68342981411E+001, +4.92675621559E+002
+1.34783479349E+007, +1.71116781994E+001, +4.96850127470E+002
+1.36033792240E+007, +1.85067636129E+001, +5.01913746113E+002
+1.37284105131E+007, +1.69440062759E+001, +5.09745147483E+002
+1.38534418023E+007, +1.72360782590E+001, +5.15572997715E+002
+1.39784730914E+007, +1.80142384853E+001, +5.20324763163E+002
+1.41035043805E+007, +1.84677999376E+001, +5.26134541829E+002
+1.42285356696E+007, +1.67491494182E+001, +5.33604176055E+002
+1.43535669587E+007, +1.77175121129E+001, +5.39826190862E+002
+1.44785982478E+007, +1.85026088184E+001, +5.44318772935E+002
+1.46036295369E+007, +1.84365981714E+001, +5.52391459994E+002
+1.47286608260E+007, +1.72952824866E+001, +5.57666350298E+002
+1.48536921151E+007, +1.90692455522E+001, +5.63956661101E+002
+1.49787234043E+007, +1.96815794844E+001, +5.70236500509E+002
+1.51037546934E+007, +1.90272639299E+001, +5.76890323306E+002
+1.52287859825E+007, +1.72534710126E+001, +5.83165934612E+002
+1.53538172716E+007, +1.73715468813E+001, +5.87550120571E+002
+1.54788485607E+007, +1.77229131890E+001, +5.94932537798E+002
+1.56038798498E+007, +1.93371789659E+001, +6.03355476715E+002
+1.57289111389E+007, +1.88615162652E+001, +6.09233530737E+002
+1.58539424280E+007, +1.71356831824E+001, +6.17107178862E+002
+1.59789737171E+007, +1.91496510784E+001, +6.21913900167E+002
+1.61040050063E+007, +1.96606195312E+001, +6.28780374777E+002
+1.62290362954E+007, +2.04795367353E+001, +6.35333518344E+002
+1.63540675845E+007, +1.93547494787E+001, +6.41859730240E+002
+1.64790988736E+007, +1.84072087521E+001, +6.49417101613E+002
+1.66041301627E+007, +2.03725382950E+001, +6.57435096967E+002
+1.67291614518E+007, +2.05780546046E+001, +6.65140424832E+002
+1.68541927409E+007, +2.13093706741E+001, +6.72190412925E+002
+1.69792240300E+007, +2.15864312372E+001, +6.75867986639E+002
+1.71042553191E+007, +1.78321853121E+001, +6.86068380507E+002
+1.72292866083E+007, +1.93519218133E+001, +6.94394091379E+002
+1.73543178974E+007, +1.87339856323E+001, +7.00527732114E+002
+1.74793491865E+007, +1.98305032258E+001, +7.08344450079E+002
+1.76043804756E+007, +2.16831783180E+001, +7.16555008724E+002
+1.77294117647E+007, +1.88089136335E+001, +7.24279132381E+002
+1.78544430538E+007, +2.05548648479E+001, +7.32266240409E+002
+1.79794743429E+007, +2.01129295110E+001, +7.37652653502E+002
+1.81045056320E+007, +2.13008504539E+001, +7.44841218758E+002
+1.82295369212E+007, +2.55330155969E+001, +7.57730706791E+002
+1.83545682103E+007, +2.41103425420E+001, +7.63296450511E+002
+1.84795994994E+007, +2.48841804968E+001, +7.70889786677E+002
+1.86046307885E+007, +2.64613080574E+001, +7.78399834578E+002
+1.87296620776E+007, +2.35109067845E+001, +7.89750368470E+002
+1.88546933667E+007, +2.53600735153E+001, +7.99059797388E+002
+1.89797246558E+007, +2.68350452606E+001, +8.04379419837E+002
+1.91047559449E+007, +2.61109037407E+001, +8.10906305788E+002
+1.92297872340E+007, +2.79777084803E+001, +8.22329638059E+002
+1.93548185232E+007, +2.53276372208E+001, +8.27983232067E+002
+1.94798498123E+007, +2.22757204855E+001, +8.41645668883E+002
+1.96048811014E+007, +2.79469951896E+001, +8.46558548776E+002
+1.97299123905E+007, +2.81721606406E+001, +8.58295397237E+002
+1.98549436796E+007, +2.86127246995E+001, +8.68444528211E+002
+1.99799749687E+007, +2.90461302245E+001, +8.80558219076E+002
+2.01050062578E+007, +2.87774548416E+001, +8.91840956041E+002
+2.02300375469E+007, +3.11785538860E+001, +8.96889635984E+002
+2.03550688360E+007, +3.47861900542E+001, +9.12178277238E+002
+2.04801001252E+007, +3.23630231218E+001, +9.18878365897E+002
+2.06051314143E+007, +3.45152834201E+001, +9.26590080396E+002
+2.07301627034E+007, +3.49711899879E+001, +9.35315161212E+002
+2.08551939925E+007, +3.21002603664E+001, +9.52061138144E+002
+2.09802252816E+007, +3.32919333665E+001, +9.51574141001E+002
+2.11052565707E+007, +3.92568937562E+001, +9.64268460292E+002
+2.12302878598E+007, +3.99454531523E+001, +9.79404561094E+002
+2.13553191489E+007, +3.65282593611E+001, +9.87707740924E+002
+2.14803504380E+007, +4.06414439632E+001, +9.96223343282E+002
+2.16053817272E+007, +4.45205458319E+001, +1.00631979464E+003
+2.17304130163E+007, +4.50943930303E+001, +1.02250586842E+003
+2.18554443054E+007, +4.93789063843E+001, +1.03424974834E+003
+2.19804755945E+007, +4.63143818784E+001, +1.04771068590E+003
+2.21055068836E+007, +4.85650534665E+001, +1.05269383716E+003
+2.22305381727E+007, +5.26211655075E+001, +1.06825401137E+003
+2.23555694618E+007, +5.47670316884E+001, +1.07799248915E+003
+2.24806007509E+007, +5.75158285942E+001, +1.09176776609E+003
+2.26056320401E+007, +5.85427203049E+001, +1.09946403723E+003
+2.27306633292E+007, +6.30791910329E+001, +1.10676907193E+003
+2.28556946183E+007, +6.31453016031E+001, +1.11888606929E+003
+2.29807259074E+007, +6.50453259275E+001, +1.13168639889E+003
+2.31057571965E+007, +6.79281876601E+001, +1.14199466523E+003
+2.32307884856E+007, +7.37058695189E+001, +1.15704099664E+003
+2.33558197747E+007, +7.55850454762E+001, +1.16809401599E+003
+2.34808510638E+007, +7.17657426412E+001, +1.17912668236E+003
+2.36058823529E+007, +7.43401677049E+001, +1.19048770090E+003
+2.37309136421E+007, +7.78462364485E+001, +1.19610355121E+003
+2.38559449312E+007, +7.14370320874E+001, +1.20471464710E+003
+2.39809762203E+007, +7.76071191132E+001, +1.21877460434E+003
+2.41060075094E+007, +7.41680049831E+001, +1.22461738742E+003
+2.42310387985E+007, +7.68280203619E+001, +1.25107689569E+003
+2.43560700876E+007, +7.27112495982E+001, +1.26607463350E+003
+2.44811013767E+007, +7.67987400813E+001, +1.27146659562E+003
+2.46061326658E+007, +8.79118165888E+001, +1.28870694208E+003
+2.47311639549E+007, +6.76847298758E+001, +1.30271398069E+003
+2.48561952441E+007, +7.71709417603E+001, +1.31629088425E+003
+2.49812265332E+007, +7.86607556981E+001, +1.32679877747E+003
+2.51062578223E+007, +7.63400539929E+001, +1.35226556088E+003
+2.52312891114E+007, +7.49390908837E+001, +1.36038673976E+003
+2.53563204005E+007, +6.51539598108E+001, +1.37975718457E+003
+2.54813516896E+007, +8.47958970026E+001, +1.41209795843E+003
+2.56063829787E+007, +8.40350815093E+001, +1.40796613211E+003
+2.57314142678E+007, +8.11320654999E+001, +1.43420434993E+003
+2.58564455569E+007, +8.42603506965E+001, +1.45185194901E+003
+2.59814768461E+007, +7.73204395963E+001, +1.47208359816E+003
+2.61065081352E+007, +7.57350078776E+001, +1.48999299018E+003
+2.62315394243E+007, +8.17188359022E+001, +1.50232194133E+003
+2.63565707134E+007, +9.23328149500E+001, +1.53765758598E+003
+2.64816020025E+007, +9.83021910063E+001, +1.55547670520E+003
+2.66066332916E+007, +8.60716372463E+001, +1.56709604986E+003
+2.67316645807E+007, +9.61858842766E+001, +1.59595389650E+003
+2.68566958698E+007, +8.80059169820E+001, +1.61184249972E+003
+2.69817271589E+007, +9.22934037395E+001, +1.63041014944E+003
+2.71067584481E+007, +9.28905805755E+001, +1.64588806970E+003
+2.72317897372E+007, +9.87729252091E+001, +1.67727558645E+003
+2.73568210263E+007, +9.23448937551E+001, +1.70251707041E+003
+2.74818523154E+007, +9.05898733232E+001, +1.72408271059E+003
+2.76068836045E+007, +1.15536009172E+002, +1.74202828627E+003
+2.77319148936E+007, +1.09402762866E+002, +1.77714163942E+003
+2.78569461827E+007, +1.02740039269E+002, +1.79370431804E+003
+2.79819774718E+007, +1.20928515637E+002, +1.83054402332E+003
+2.81070087610E+007, +1.20860377297E+002, +1.85610045059E+003
+2.82320400501E+007, +1.18545936738E+002, +1.88097463578E+003
+2.83570713392E+007, +1.19578690985E+002, +1.90387962922E+003
+2.84821026283E+007, +1.15937439381E+002, +1.93941547166E+003
+2.86071339174E+007, +1.22052319264E+002, +1.96754233086E+003
+2.87321652065E+007, +1.32074382015E+002, +1.99523104129E+003
+2.88571964956E+007, +1.48512707376E+002, +2.03507573381E+003
+2.89822277847E+007, +1.44774566479E+002, +2.05787099763E+003
+2.91072590738E+007, +1.55044908546E+002, +2.09472957128E+003
+2.92322903630E+007, +1.65170201158E+002, +2.13194814031E+003
+2.93573216521E+007, +1.46447169199E+002, +2.15962810343E+003
+2.94823529412E+007, +1.56317320758E+002, +2.17687560086E+003
+2.96073842303E+007, +1.36768221192E+002, +2.21785501186E+003
+2.97324155194E+007, +1.62392489430E+002, +2.26776933871E+003
+2.98574468085E+007, +1.90875508479E+002, +2.31057930363E+003
+2.99824780976E+007, +1.69775211031E+002, +2.36481106460E+003
+3.01075093867E+007, +2.00609706245E+002, +2.37755983706E+003
+3.02325406758E+007, +2.03503855870E+002, +2.43933681276E+003
+3.03575719650E+007, +1.95410168497E+002, +2.50106824245E+003
+3.04826032541E+007, +2.27548570636E+002, +2.51351864323E+003
+3.06076345432E+007, +2.41330316361E+002, +2.61319134946E+003
+3.07326658323E+007, +2.18045880832E+002, +2.58061085569E+003
+3.08576971214E+007, +1.80948745820E+002, +2.67326522900E+003
+3.09827284105E+007, +2.10407285847E+002, +2.71265686398E+003
+3.11077596996E+007, +1.79240564368E+002, +2.75174149009E+003
+3.12327909887E+007, +2.34140058721E+002, +2.84200175794E+003
+3.13578222778E+007, +2.40019959565E+002, +2.87935161946E+003
+3.14828535670E+007, +2.72670919088E+002, +2.94781128914E+003
+3.16078848561E+007, +2.51201406259E+002, +2.99753292486E+003
+3.17329161452E+007, +2.70963969487E+002, +3.11048719630E+003
+3.18579474343E+007, +2.21983137064E+002, +3.15261228525E+003
+3.19829787234E+007, +2.66023259070E+002, +3.15682662570E+003
+3.21080100125E+007, +3.03265501791E+002, +3.27568911910E+003
+3.22330413016E+007, +3.62184445722E+002, +3.42353058266E+003
+3.23580725907E+007, +3.54731990585E+002, +3.40985130981E+003
+3.24831038798E+007, +3.41120318216E+002, +3.53037135499E+003
+3.26081351690E+007, +3.52088372482E+002, +3.56813290763E+003
+3.27331664581E+007, +3.58229305523E+002, +3.66705141846E+003
+3.28581977472E+007, +4.18988969833E+002, +3.75991646070E+003
+3.29832290363E+007, +4.31223399552E+002, +3.88543540880E+003
+3.31082603254E+007, +3.90901038734E+002, +4.05394009098E+003
+3.32332916145E+007, +4.80168692332E+002, +4.19050074763E+003
+3.33583229036E+007, +4.68685434280E+002, +4.22984166607E+003
+3.34833541927E+007, +4.66915787498E+002, +4.37657714953E+003
+3.36083854819E+007, +5.37458131202E+002, +4.41711165778E+003
+3.37334167710E+007, +5.58407127457E+002, +4.62185621151E+003
+3.38584480601E+007, +5.75788631354E+002, +4.77096928680E+003
+3.39834793492E+007, +7.12299496721E+002, +4.95130024623E+003
+3.41085106383E+007, +6.47302236649E+002, +5.12009451901E+003
+3.42335419274E+007, +8.28879957215E+002, +5.33696769430E+003
+3.43585732165E+007, +7.31835153851E+002, +5.38069852715E+003
+3.44836045056E+007, +9.59455740396E+002, +5.50677889465E+003
+3.46086357947E+007, +1.05394117376E+003, +5.85406685979E+003
+3.47336670839E+007, +8.56250991712E+002, +6.14158431568E+003
+3.48586983730E+007, +1.01927731915E+003, +6.37463536753E+003
+3.49837296621E+007, +1.22698711505E+003, +6.77012536983E+003
+3.51087609512E+007, +1.27556477274E+003, +6.84668857686E+003
+3.52337922403E+007, +1.36842029581E+003, +7.36665030069E+003
+3.53588235294E+007, +1.92799273247E+003, +7.36558355015E+003
+3.54838548185E+007, +1.70566798304E+003, +8.13889953175E+003
+3.56088861076E+007, +2.12486400074E+003, +8.55459296244E+003
+3.57339173967E+007, +2.48687500869E+003, +8.70831598060E+003
+3.58589486859E+007, +2.91263947860E+003, +9.04885808834E+003
+3.59839799750E+007, +3.04885720157E+003, +9.26728965056E+003
+3.61090112641E+007, +3.37487624763E+003, +9.52860430404E+003
+3.62340425532E+007, +3.80060366466E+003, +1.09709338295E+004
+3.63590738423E+007, +4.28652480068E+003, +1.23757050902E+004
+3.64841051314E+007, +6.58158091582E+003, +1.23316689745E+004
+3.66091364205E+007, +6.92624608424E+003, +1.37118177489E+004
+3.67341677096E+007, +9.45100006881E+003, +1.29077312745E+004
+3.68591989987E+007, +1.07594741814E+004, +1.36044492397E+004
+3.69842302879E+007, +1.26738743038E+004, +1.52697155135E+004
+3.71092615770E+007, +1.43606697172E+004, +1.47735829421E+004
+3.72342928661E+007, +1.77956518603E+004, +1.11436547886E+004
+3.73593241552E+007, +2.68544522605E+004, +1.28892843104E+004
+3.74843554443E+007, +2.22290681154E+004, +1.01151912118E+004
+3.76093867334E+007, +2.71662602005E+004, +6.10200247534E+003
+3.77344180225E+007, +2.64568273186E+004, +2.27265089161E+003
+3.78594493116E+007, +2.85198541732E+004, -3.87940357016E+003
+3.79844806008E+007, +2.69111827920E+004, -7.95078402777E+003
+3.81095118899E+007, +2.28558019829E+004, -8.83192103788E+003
+3.82345431790E+007, +1.62340079179E+004, -1.42261537313E+004
+3.83595744681E+007, +1.61241281479E+004, -1.42273601258E+004
+3.84846057572E+007, +1.37315662242E+004, -1.21174237613E+004
+3.86096370463E+007, +1.16251746861E+004, -1.20781583683E+004
+3.87346683354E+007, +1.02131197129E+004, -1.22818974630E+004
+3.88596996245E+007, +9.08572801364E+003, -1.05547828961E+004
+3.89847309136E+007, +7.84284386418E+003, -1.14342342604E+004
+3.91097622028E+007, +6.69928847281E+003, -1.15061178651E+004
+3.92347934919E+007, +5.69589507762E+003, -1.03190548266E+004
+3.93598247810E+007, +4.78962411932E+003, -1.00061078487E+004
+3.94848560701E+007, +4.47667474221E+003, -9.43318027472E+003
+3.96098873592E+007, +4.31027708066E+003, -8.88281110135E+003
+3.97349186483E+007, +3.52191903494E+003, -8.67253486137E+003
+3.98599499374E+007, +3.00080965356E+003, -7.87927797855E+003
+3.99849812265E+007, +3.11170187216E+003, -7.84199793166E+003
+4.01100125156E+007, +2.17210586897E+003, -7.63614980322E+003
