"# Channel 1"
"# Trace 1"
Frequency, Formatted Data, Formatted Data
+1.00000000000E+005, +6.73918033514E+001, +3.06360204836E+000
+2.25031289111E+005, +6.71847293904E+001, +7.42412510812E+000
+3.50062578223E+005, +6.71783683813E+001, +1.15843158560E+001
+4.75093867334E+005, +6.71296391247E+001, +1.57933265054E+001
+6.00125156446E+005, +6.72205744690E+001, +1.98536283673E+001
+7.25156445557E+005, +6.72808503367E+001, +2.39274082396E+001
+8.50187734668E+005, +6.73776045227E+001, +2.81279959192E+001
+9.75219023780E+005, +6.73521722953E+001, +3.21130045434E+001
+1.10025031289E+006, +6.73294479174E+001, +3.63018188621E+001
+1.22528160200E+006, +6.73345079751E+001, +4.05342615743E+001
+1.35031289111E+006, +6.74600828710E+001, +4.46944876890E+001
+1.47534418023E+006, +6.73635836791E+001, +4.88100331778E+001
+1.60037546934E+006, +6.74829236435E+001, +5.29445795275E+001
+1.72540675845E+006, +6.75023350356E+001, +5.71482745026E+001
+1.85043804756E+006, +6.74397473425E+001, +6.11210607496E+001
+1.97546933667E+006, +6.74996440975E+001, +6.54687173360E+001
+2.10050062578E+006, +6.75656069618E+001, +6.94568739846E+001
+2.22553191489E+006, +6.75214998349E+001, +7.36904089358E+001
+2.35056320401E+006, +6.74436009409E+001, +7.77874372803E+001
+2.47559449312E+006, +6.76564416048E+001, +8.20533376776E+001
+2.60062578223E+006, +6.73652874833E+001, +8.60003400071E+001
+2.72565707134E+006, +6.75842737810E+001, +9.01700135414E+001
+2.85068836045E+006, +6.75522675937E+001, +9.43276892991E+001
+2.97571964956E+006, +6.75411284113E+001, +9.87464525532E+001
+3.10075093867E+006, +6.76904165948E+001, +1.02889994712E+002
+3.22578222778E+006, +6.75320102767E+001, +1.07178570000E+002
+3.35081351690E+006, +6.79825659934E+001, +1.11179549873E+002
+3.47584480601E+006, +6.78493215088E+001, +1.15359797748E+002
+3.60087609512E+006, +6.78804438416E+001, +1.19589255685E+002
+3.72590738423E+006, +6.82465190156E+001, +1.23868724942E+002
+3.85093867334E+006, +6.79341605741E+001, +1.28091145788E+002
+3.97596996245E+006, +6.79440382358E+001, +1.32084211216E+002
+4.10100125156E+006, +6.84186465975E+001, +1.36567727892E+002
+4.22603254068E+006, +6.80430389699E+001, +1.40958829376E+002
+4.35106382979E+006, +6.80411701175E+001, +1.44617547342E+002
+4.47609511890E+006, +6.80605266565E+001, +1.49151880367E+002
+4.60112640801E+006, +6.83534074412E+001, +1.53478623626E+002
+4.72615769712E+006, +6.81243064326E+001, +1.57921295137E+002
+4.85118898623E+006, +6.80414432598E+001, +1.61949422625E+002
+4.97622027534E+006, +6.88471249111E+001, +1.66515711240E+002
+5.10125156446E+006, +6.87498446775E+001, +1.70908182864E+002
+5.22628285357E+006, +6.91066270316E+001, +1.75283991875E+002
+5.35131414268E+006, +6.87084551559E+001, +1.79231552014E+002
+5.47634543179E+006, +6.87526639573E+001, +1.83786453166E+002
+5.60137672090E+006, +6.90778957588E+001, +1.87782723415E+002
+5.72640801001E+006, +6.89899877520E+001, +1.92172156964E+002
+5.85143929912E+006, +6.96381294648E+001, +1.96707583452E+002
+5.97647058824E+006, +6.96344290344E+001, +2.00863010507E+002
+6.10150187735E+006, +6.98179295455E+001, +2.05442192888E+002
+6.22653316646E+006, +6.96256979105E+001, +2.09609810528E+002
+6.35156445557E+006, +6.98535406470E+001, +2.13982559004E+002
+6.47659574468E+006, +7.01098664932E+001, +2.18851040925E+002
+6.60162703379E+006, +7.02378313377E+001, +2.23159354360E+002
+6.72665832290E+006, +7.04893509154E+001, +2.27564472932E+002
+6.85168961202E+006, +7.02391611692E+001, +2.31745968695E+002
+6.97672090113E+006, +7.06078477315E+001, +2.36487534763E+002
+7.10175219024E+006, +7.07629117960E+001, +2.40810880840E+002
+7.22678347935E+006, +7.09904497291E+001, +2.45762180408E+002
+7.35181476846E+006, +7.09283480977E+001, +2.49680876153E+002
+7.47684605757E+006, +7.11138925898E+001, +2.54283131324E+002
+7.60187734668E+006, +7.17832736691E+001, +2.59263929878E+002
+7.72690863579E+006, +7.15919841731E+001, +2.63566879225E+002
+7.85193992491E+006, +7.16684122701E+001, +2.68240059790E+002
+7.97697121402E+006, +7.18161601635E+001, +2.71966447480E+002
+8.10200250313E+006, +7.16001670041E+001, +2.77581670578E+002
+8.22703379224E+006, +7.22458663362E+001, +2.81851413574E+002
+8.35206508135E+006, +7.25667148133E+001, +2.86581622189E+002
+8.47709637046E+006, +7.24712022226E+001, +2.91570342090E+002
+8.60212765957E+006, +7.26985947777E+001, +2.96216564981E+002
+8.72715894869E+006, +7.27273679208E+001, +3.00448224726E+002
+8.85219023780E+006, +7.30657992157E+001, +3.05148247623E+002
+8.97722152691E+006, +7.33109083962E+001, +3.10442014284E+002
+9.10225281602E+006, +7.34857088702E+001, +3.15185546501E+002
+9.22728410513E+006, +7.35855800167E+001, +3.19344406492E+002
+9.35231539424E+006, +7.40499424005E+001, +3.24672927113E+002
+9.47734668335E+006, +7.40798193619E+001, +3.29746525978E+002
+9.60237797247E+006, +7.50318568746E+001, +3.34267639819E+002
+9.72740926158E+006, +7.42998898270E+001, +3.38639737088E+002
+9.85244055069E+006, +7.43504790819E+001, +3.44222402985E+002
+9.97747183980E+006, +7.47442279381E+001, +3.49152729512E+002
+1.01025031289E+007, +7.48887437846E+001, +3.52872778538E+002
+1.02275344180E+007, +7.51252211273E+001, +3.58847774651E+002
+1.03525657071E+007, +7.51754772462E+001, +3.62943175350E+002
+1.04775969962E+007, +7.55088376422E+001, +3.68384233935E+002
+1.06026282854E+007, +7.54802499859E+001, +3.73293124417E+002
+1.07276595745E+007, +7.56603222714E+001, +3.78420721819E+002
+1.08526908636E+007, +7.51079701316E+001, +3.83813178389E+002
+1.09777221527E+007, +7.61432545969E+001, +3.88966853411E+002
+1.11027534418E+007, +7.64223218167E+001, +3.93320966303E+002
+1.12277847309E+007, +7.66445419352E+001, +3.99312209186E+002
+1.13528160200E+007, +7.70421935376E+001, +4.04138304454E+002
+1.14778473091E+007, +7.66189108810E+001, +4.09684138480E+002
+1.16028785982E+007, +7.65488257953E+001, +4.14247973957E+002
+1.17279098874E+007, +7.77660498591E+001, +4.20353733790E+002
+1.18529411765E+007, +7.67923931781E+001, +4.25612881140E+002
+1.19779724656E+007, +7.77357957744E+001, +4.30108881391E+002
+1.21030037547E+007, +7.85091957727E+001, +4.35644390617E+002
+1.22280350438E+007, +7.78105920244E+001, +4.42058423747E+002
+1.23530663329E+007, +7.87898370540E+001, +4.47124201727E+002
+1.24780976220E+007, +7.92510737719E+001, +4.51625675169E+002
+1.26031289111E+007, +7.89997653072E+001, +4.56922802131E+002
+1.27281602003E+007, +7.95375354044E+001, +4.62896861996E+002
+1.28531914894E+007, +7.93650632388E+001, +4.68168709565E+002
+1.29782227785E+007, +7.93145635246E+001, +4.74237936906E+002
+1.31032540676E+007, +7.83354729156E+001, +4.79501498248E+002
+1.32282853567E+007, +7.99147912200E+001, +4.84989252391E+002
+1.33533166458E+007, +8.15815830395E+001, +4.91509555228E+002
+1.34783479349E+007, +8.05826176623E+001, +4.97288574777E+002
+1.36033792240E+007, +8.09289625725E+001, +5.02254748111E+002
+1.37284105131E+007, +8.18629323837E+001, +5.08988367689E+002
+1.38534418023E+007, +8.23434084329E+001, +5.13144773677E+002
+1.39784730914E+007, +8.24671121971E+001, +5.18917452764E+002
+1.41035043805E+007, +8.19719207121E+001, +5.25182680349E+002
+1.42285356696E+007, +8.14416876042E+001, +5.31547708521E+002
+1.43535669587E+007, +8.22806386959E+001, +5.37211888923E+002
+1.44785982478E+007, +8.20147251552E+001, +5.41449231208E+002
+1.46036295369E+007, +8.35629441681E+001, +5.50772639756E+002
+1.47286608260E+007, +8.36144957845E+001, +5.55528277719E+002
+1.48536921151E+007, +8.42605944219E+001, +5.61270983678E+002
+1.49787234043E+007, +8.48267555992E+001, +5.67935102323E+002
+1.51037546934E+007, +8.57128963737E+001, +5.73571541301E+002
+1.52287859825E+007, +8.62925115458E+001, +5.81955363176E+002
+1.53538172716E+007, +8.50758098284E+001, +5.86222261586E+002
+1.54788485607E+007, +8.77535523853E+001, +5.92661966124E+002
+1.56038798498E+007, +8.67324057980E+001, +5.98532081244E+002
+1.57289111389E+007, +8.67791826016E+001, +6.06933160805E+002
+1.58539424280E+007, +9.06287327951E+001, +6.11812231481E+002
+1.59789737171E+007, +8.98294076769E+001, +6.18344984901E+002
+1.61040050063E+007, +8.83733807299E+001, +6.24799210937E+002
+1.62290362954E+007, +8.90031705332E+001, +6.33505402580E+002
+1.63540675845E+007, +9.06911359956E+001, +6.39299188354E+002
+1.64790988736E+007, +8.96148936734E+001, +6.45494420123E+002
+1.66041301627E+007, +9.00085477295E+001, +6.51490382614E+002
+1.67291614518E+007, +9.06018557103E+001, +6.60001775007E+002
+1.68541927409E+007, +9.27788417359E+001, +6.67037937837E+002
+1.69792240300E+007, +9.34386535262E+001, +6.74293535527E+002
+1.71042553191E+007, +8.90000130962E+001, +6.81897681255E+002
+1.72292866083E+007, +9.23099830941E+001, +6.88215535767E+002
+1.73543178974E+007, +9.14756110851E+001, +6.96788056230E+002
+1.74793491865E+007, +9.19023011322E+001, +7.00019638357E+002
+1.76043804756E+007, +9.42437353965E+001, +7.09439204966E+002
+1.77294117647E+007, +9.32184106580E+001, +7.15989430577E+002
+1.78544430538E+007, +9.48066090547E+001, +7.22641369844E+002
+1.79794743429E+007, +9.80879115944E+001, +7.32817845051E+002
+1.81045056320E+007, +9.94486005312E+001, +7.36964482284E+002
+1.82295369212E+007, +9.76286050198E+001, +7.47874628479E+002
+1.83545682103E+007, +9.78838193372E+001, +7.56203396415E+002
+1.84795994994E+007, +1.00964700924E+002, +7.66527910173E+002
+1.86046307885E+007, +9.89498149147E+001, +7.70627658212E+002
+1.87296620776E+007, +1.01102578797E+002, +7.82875400707E+002
+1.88546933667E+007, +1.03940414632E+002, +7.87856983432E+002
+1.89797246558E+007, +1.05215017562E+002, +7.95156124997E+002
+1.91047559449E+007, +1.02520349803E+002, +8.01588488442E+002
+1.92297872340E+007, +1.04915066079E+002, +8.13031329342E+002
+1.93548185232E+007, +1.06044594586E+002, +8.19378984221E+002
+1.94798498123E+007, +1.05399624753E+002, +8.29133290110E+002
+1.96048811014E+007, +1.07972922830E+002, +8.34827251463E+002
+1.97299123905E+007, +1.09173778636E+002, +8.45744712027E+002
+1.98549436796E+007, +1.10446728407E+002, +8.55584572050E+002
+1.99799749687E+007, +1.09119780538E+002, +8.62168516854E+002
+2.01050062578E+007, +1.11795451712E+002, +8.74452066548E+002
+2.02300375469E+007, +1.13368517341E+002, +8.77012234301E+002
+2.03550688360E+007, +1.11002867049E+002, +8.87218522616E+002
+2.04801001252E+007, +1.16264782900E+002, +8.98639776446E+002
+2.06051314143E+007, +1.11089988689E+002, +9.12913810718E+002
+2.07301627034E+007, +1.14027628827E+002, +9.18626415295E+002
+2.08551939925E+007, +1.18655427269E+002, +9.25550642401E+002
+2.09802252816E+007, +1.15558661913E+002, +9.40149939306E+002
+2.11052565707E+007, +1.19241969790E+002, +9.47840521241E+002
+2.12302878598E+007, +1.21061863663E+002, +9.54705466081E+002
+2.13553191489E+007, +1.23816082335E+002, +9.62560602882E+002
+2.14803504380E+007, +1.24799599745E+002, +9.78101700838E+002
+2.16053817272E+007, +1.23390129503E+002, +9.85630280226E+002
+2.17304130163E+007, +1.28004603860E+002, +9.96951165091E+002
+2.18554443054E+007, +1.31581057020E+002, +1.00862921429E+003
+2.19804755945E+007, +1.33580922837E+002, +1.02024777144E+003
+2.21055068836E+007, +1.32028358243E+002, +1.02798366592E+003
+2.22305381727E+007, +1.35464387027E+002, +1.04360633581E+003
+2.23555694618E+007, +1.38303893061E+002, +1.05206548627E+003
+2.24806007509E+007, +1.41208086160E+002, +1.05694881249E+003
+2.26056320401E+007, +1.39244309154E+002, +1.07275551661E+003
+2.27306633292E+007, +1.42182146102E+002, +1.09481704845E+003
+2.28556946183E+007, +1.46206234787E+002, +1.09668141451E+003
+2.29807259074E+007, +1.52595670049E+002, +1.11132033202E+003
+2.31057571965E+007, +1.48071607508E+002, +1.12283922033E+003
+2.32307884856E+007, +1.53623412485E+002, +1.12714965415E+003
+2.33558197747E+007, +1.61366946316E+002, +1.14713726758E+003
+2.34808510638E+007, +1.57135649212E+002, +1.14932284265E+003
+2.36058823529E+007, +1.65619808593E+002, +1.16473658163E+003
+2.37309136421E+007, +1.67956861092E+002, +1.18195182547E+003
+2.38559449312E+007, +1.76632655340E+002, +1.19093269391E+003
+2.39809762203E+007, +1.79207043742E+002, +1.19804168145E+003
+2.41060075094E+007, +1.82148872477E+002, +1.20595069249E+003
+2.42310387985E+007, +1.84961424157E+002, +1.22325103902E+003
+2.43560700876E+007, +1.84223816451E+002, +1.22632596523E+003
+2.44811013767E+007, +1.89283779626E+002, +1.24088313749E+003
+2.46061326658E+007, +1.95496665603E+002, +1.25105548447E+003
+2.47311639549E+007, +1.97491834858E+002, +1.26728021398E+003
+2.48561952441E+007, +1.86936199134E+002, +1.27709030338E+003
+2.49812265332E+007, +1.91988459430E+002, +1.28173303298E+003
+2.51062578223E+007, +1.93147607366E+002, +1.30454304403E+003
+2.52312891114E+007, +1.89140278945E+002, +1.31940558945E+003
+2.53563204005E+007, +1.92013521200E+002, +1.32760720849E+003
+2.54813516896E+007, +1.92988436112E+002, +1.34215303427E+003
+2.56063829787E+007, +1.95440201235E+002, +1.35392948876E+003
+2.57314142678E+007, +1.94233464518E+002, +1.37833279052E+003
+2.58564455569E+007, +1.96625627252E+002, +1.38000176597E+003
+2.59814768461E+007, +2.00895736866E+002, +1.40348096383E+003
+2.61065081352E+007, +1.92796903688E+002, +1.42257326848E+003
+2.62315394243E+007, +2.16989275285E+002, +1.43966913478E+003
+2.63565707134E+007, +2.14174739405E+002, +1.45442238547E+003
+2.64816020025E+007, +2.08138369014E+002, +1.47978855380E+003
+2.66066332916E+007, +2.21051960341E+002, +1.50918812545E+003
+2.67316645807E+007, +2.17730225253E+002, +1.51302551077E+003
+2.68566958698E+007, +2.20133238722E+002, +1.52052741906E+003
+2.69817271589E+007, +2.32814200264E+002, +1.55399231065E+003
+2.71067584481E+007, +2.18456497172E+002, +1.56291292294E+003
+2.72317897372E+007, +2.33734180029E+002, +1.58033737584E+003
+2.73568210263E+007, +2.47737380806E+002, +1.60158679814E+003
+2.74818523154E+007, +2.40540146425E+002, +1.62033863580E+003
+2.76068836045E+007, +2.44314497196E+002, +1.62868152557E+003
+2.77319148936E+007, +2.29517955579E+002, +1.66454227902E+003
+2.78569461827E+007, +2.38341389310E+002, +1.66768336430E+003
+2.79819774718E+007, +2.32674603417E+002, +1.70360846749E+003
+2.81070087610E+007, +2.50144609948E+002, +1.71453136927E+003
+2.82320400501E+007, +2.50486264610E+002, +1.75362232837E+003
+2.83570713392E+007, +2.53232675443E+002, +1.77023849698E+003
+2.84821026283E+007, +2.84491831589E+002, +1.80965339328E+003
+2.86071339174E+007, +2.60307774694E+002, +1.80402959183E+003
+2.87321652065E+007, +2.63880150216E+002, +1.83716451841E+003
+2.88571964956E+007, +2.67847518057E+002, +1.86625865651E+003
+2.89822277847E+007, +2.86851379088E+002, +1.89672648349E+003
+2.91072590738E+007, +2.73329494770E+002, +1.92837527045E+003
+2.92322903630E+007, +2.87215121660E+002, +1.95659137961E+003
+2.93573216521E+007, +2.86633857602E+002, +1.98820062522E+003
+2.94823529412E+007, +2.98330109182E+002, +2.01206495428E+003
+2.96073842303E+007, +3.15644854653E+002, +2.03464649785E+003
+2.97324155194E+007, +3.13884995576E+002, +2.07497095202E+003
+2.98574468085E+007, +3.10051834186E+002, +2.12359426853E+003
+2.99824780976E+007, +3.29720837252E+002, +2.12840146421E+003
+3.01075093867E+007, +3.45346953090E+002, +2.17162619044E+003
+3.02325406758E+007, +3.15489740624E+002, +2.20670829983E+003
+3.03575719650E+007, +3.53982118348E+002, +2.25705766748E+003
+3.04826032541E+007, +3.62760281058E+002, +2.28394689596E+003
+3.06076345432E+007, +3.82022715054E+002, +2.31322490239E+003
+3.07326658323E+007, +3.55667549309E+002, +2.33817107534E+003
+3.08576971214E+007, +4.01467547789E+002, +2.35579594966E+003
+3.09827284105E+007, +3.72252404494E+002, +2.41210395109E+003
+3.11077596996E+007, +4.05437108062E+002, +2.47240022627E+003
+3.12327909887E+007, +4.05082366619E+002, +2.48917552121E+003
+3.13578222778E+007, +4.36082986028E+002, +2.55949467204E+003
+3.14828535670E+007, +4.20457197588E+002, +2.61424361730E+003
+3.16078848561E+007, +4.51797182440E+002, +2.64701607425E+003
+3.17329161452E+007, +4.45638620912E+002, +2.69669084686E+003
+3.18579474343E+007, +4.62886768427E+002, +2.72688322717E+003
+3.19829787234E+007, +4.81398594742E+002, +2.78494449570E+003
+3.21080100125E+007, +5.05484522507E+002, +2.83489139100E+003
+3.22330413016E+007, +5.04548836450E+002, +2.88448220117E+003
+3.23580725907E+007, +5.10889116113E+002, +2.96616020430E+003
+3.24831038798E+007, +5.33084161182E+002, +2.99202062405E+003
+3.26081351690E+007, +5.47266464636E+002, +3.05603577638E+003
+3.27331664581E+007, +5.86383190052E+002, +3.11363982566E+003
+3.28581977472E+007, +5.83160029896E+002, +3.19146734638E+003
+3.29832290363E+007, +5.59389163524E+002, +3.22043501932E+003
+3.31082603254E+007, +6.96747114204E+002, +3.31319835408E+003
+3.32332916145E+007, +7.22642238960E+002, +3.40655176975E+003
+3.33583229036E+007, +7.01293337769E+002, +3.45546439718E+003
+3.34833541927E+007, +6.91383321833E+002, +3.52355362461E+003
+3.36083854819E+007, +7.01994907433E+002, +3.56331789545E+003
+3.37334167710E+007, +7.61946333855E+002, +3.71379577056E+003
+3.38584480601E+007, +7.74192243445E+002, +3.87412047253E+003
+3.39834793492E+007, +8.50905447520E+002, +3.92848991838E+003
+3.41085106383E+007, +8.45481507068E+002, +3.90077941039E+003
+3.42335419274E+007, +1.00481583110E+003, +4.04577223541E+003
+3.43585732165E+007, +9.33408949273E+002, +4.25192164600E+003
+3.44836045056E+007, +1.09120862049E+003, +4.39196688559E+003
+3.46086357947E+007, +1.07604048118E+003, +4.43830700982E+003
+3.47336670839E+007, +1.12478791805E+003, +4.58504321084E+003
+3.48586983730E+007, +1.14834959935E+003, +4.64666647414E+003
+3.49837296621E+007, +1.27083653400E+003, +4.80169795239E+003
+3.51087609512E+007, +1.37271362878E+003, +5.00423324048E+003
+3.52337922403E+007, +1.38419588089E+003, +5.09410608065E+003
+3.53588235294E+007, +1.42086765206E+003, +5.39463687712E+003
+3.54838548185E+007, +1.73073961511E+003, +5.48977359527E+003
+3.56088861076E+007, +1.74579141483E+003, +5.66415681619E+003
+3.57339173967E+007, +1.89014258921E+003, +5.92559056042E+003
+3.58589486859E+007, +2.13233903289E+003, +6.26939600752E+003
+3.59839799750E+007, +2.12839642196E+003, +6.23658248894E+003
+3.61090112641E+007, +2.33395849328E+003, +6.34266075492E+003
+3.62340425532E+007, +2.30635122623E+003, +6.59624543447E+003
+3.63590738423E+007, +2.69480111478E+003, +6.98557964504E+003
+3.64841051314E+007, +3.05756546146E+003, +7.18879824473E+003
+3.66091364205E+007, +3.20437815002E+003, +7.63771525578E+003
+3.67341677096E+007, +3.53679513853E+003, +7.77248113410E+003
+3.68591989987E+007, +3.89507740368E+003, +8.02749556869E+003
+3.69842302879E+007, +4.60272476025E+003, +7.97137006248E+003
+3.71092615770E+007, +6.04078140053E+003, +8.74803629524E+003
+3.72342928661E+007, +5.83972314997E+003, +8.62388978585E+003
+3.73593241552E+007, +6.54082531550E+003, +9.07899768635E+003
+3.74843554443E+007, +7.72521682935E+003, +9.23746909754E+003
+3.76093867334E+007, +8.45337977765E+003, +9.90963743661E+003
+3.77344180225E+007, +9.33182384906E+003, +1.00719946849E+004
+3.78594493116E+007, +9.66695903866E+003, +9.51351109863E+003
+3.79844806008E+007, +1.17138815124E+004, +9.02955133597E+003
+3.81095118899E+007, +1.24428310692E+004, +8.77088601090E+003
+3.82345431790E+007, +1.44667320920E+004, +9.29050364929E+003
+3.83595744681E+007, +1.62402815597E+004, +8.33171734587E+003
+3.84846057572E+007, +1.84151759798E+004, +4.74671743263E+003
+3.86096370463E+007, +1.85398831293E+004, +5.00074310316E+003
+3.87346683354E+007, +2.05828672546E+004, +1.55257475475E+003
+3.88596996245E+007, +1.96098314830E+004, -2.77315338762E+003
+3.89847309136E+007, +1.96413547122E+004, -3.03228126088E+003
+3.91097622028E+007, +1.73547084634E+004, -6.22217342447E+003
+3.92347934919E+007, +1.44692127997E+004, -7.46109133639E+003
+3.93598247810E+007, +1.38473166922E+004, -6.21031592632E+003
+3.94848560701E+007, +1.24227072783E+004, -7.51546283590E+003
+3.96098873592E+007, +1.17484759056E+004, -8.69124957763E+003
+3.97349186483E+007, +1.11099281206E+004, -9.24450526280E+003
+3.98599499374E+007, +9.56969040752E+003, -9.93376539907E+003
+3.99849812265E+007, +8.87679885185E+003, -8.34638965480E+003
+4.01100125156E+007, +7.51731090525E+003, -8.60720519203E+003
