"# Channel 1"
"# Trace 1"
Frequency, Formatted Data, Formatted Data
+1.00000000000E+005, +1.14170718140E+000, +3.23537469279E+000
+2.25031289111E+005, +1.14834864013E+000, +7.30503804961E+000
+3.50062578223E+005, +1.15147474509E+000, +1.13699549632E+001
+4.75093867334E+005, +1.23876438904E+000, +1.53651064009E+001
+6.00125156446E+005, +1.21741319930E+000, +1.94315426286E+001
+7.25156445557E+005, +1.19326504436E+000, +2.34641670316E+001
+8.50187734668E+005, +1.33513927269E+000, +2.74844855955E+001
+9.75219023780E+005, +1.32003180348E+000, +3.14813542370E+001
+1.10025031289E+006, +1.34805559822E+000, +3.54597472519E+001
+1.22528160200E+006, +1.46290940724E+000, +3.94194773452E+001
+1.35031289111E+006, +1.45526024516E+000, +4.34625475543E+001
+1.47534418023E+006, +1.43593019989E+000, +4.74267117874E+001
+1.60037546934E+006, +1.53734143969E+000, +5.14641287019E+001
+1.72540675845E+006, +1.63734245452E+000, +5.54338768176E+001
+1.85043804756E+006, +1.60263869095E+000, +5.93595295014E+001
+1.97546933667E+006, +1.57659004732E+000, +6.34926857857E+001
+2.10050062578E+006, +1.63716140436E+000, +6.73830668201E+001
+2.22553191489E+006, +1.65948176828E+000, +7.12370700559E+001
+2.35056320401E+006, +1.65274478607E+000, +7.54786892108E+001
+2.47559449312E+006, +1.60448742243E+000, +7.93084696883E+001
+2.60062578223E+006, +1.59779134393E+000, +8.34435587170E+001
+2.72565707134E+006, +1.53835141894E+000, +8.72240388022E+001
+2.85068836045E+006, +1.73626383920E+000, +9.13163897599E+001
+2.97571964956E+006, +1.61206314851E+000, +9.53026385212E+001
+3.10075093867E+006, +1.48246682814E+000, +9.94371945267E+001
+3.22578222778E+006, +1.69160370453E+000, +1.03192034165E+002
+3.35081351690E+006, +1.69409606153E+000, +1.07415484932E+002
+3.47584480601E+006, +1.75255359575E+000, +1.11339279668E+002
+3.60087609512E+006, +1.76007239016E+000, +1.15470167325E+002
+3.72590738423E+006, +1.92402629872E+000, +1.19477908804E+002
+3.85093867334E+006, +1.75124431510E+000, +1.23647970322E+002
+3.97596996245E+006, +1.65081862604E+000, +1.27640946473E+002
+4.10100125156E+006, +1.96233455182E+000, +1.31962109295E+002
+4.22603254068E+006, +1.77096863474E+000, +1.35721074624E+002
+4.35106382979E+006, +1.75851351880E+000, +1.39988427089E+002
+4.47609511890E+006, +1.79918075003E+000, +1.44003750140E+002
+4.60112640801E+006, +1.59572620377E+000, +1.48107711605E+002
+4.72615769712E+006, +1.63638781519E+000, +1.52104192570E+002
+4.85118898623E+006, +1.75670283662E+000, +1.56219033441E+002
+4.97622027534E+006, +1.59857433507E+000, +1.60009413238E+002
+5.10125156446E+006, +1.96324606003E+000, +1.64499752212E+002
+5.22628285357E+006, +1.54753196197E+000, +1.68607125114E+002
+5.35131414268E+006, +2.13956655089E+000, +1.72732684889E+002
+5.47634543179E+006, +1.93702679003E+000, +1.76849245061E+002
+5.60137672090E+006, +1.88489141725E+000, +1.81300443498E+002
+5.72640801001E+006, +1.44587831149E+000, +1.85550251932E+002
+5.85143929912E+006, +1.97733749529E+000, +1.89109104451E+002
+5.97647058824E+006, +2.19005058217E+000, +1.94055194082E+002
+6.10150187735E+006, +1.98088753621E+000, +1.98175333385E+002
+6.22653316646E+006, +1.92028677343E+000, +2.02010214051E+002
+6.35156445557E+006, +2.35319156783E+000, +2.06456823271E+002
+6.47659574468E+006, +2.27534185227E+000, +2.10673812429E+002
+6.60162703379E+006, +2.03106316061E+000, +2.15328473412E+002
+6.72665832290E+006, +2.08381146901E+000, +2.19268910740E+002
+6.85168961202E+006, +2.12898085347E+000, +2.23370649048E+002
+6.97672090113E+006, +2.31964909730E+000, +2.27540831094E+002
+7.10175219024E+006, +2.21438991700E+000, +2.31880880084E+002
+7.22678347935E+006, +2.36944947331E+000, +2.36163014038E+002
+7.35181476846E+006, +2.01069723449E+000, +2.40835156064E+002
+7.47684605757E+006, +2.31656250319E+000, +2.45126416857E+002
+7.60187734668E+006, +2.61288324687E+000, +2.49254923577E+002
+7.72690863579E+006, +2.05080430717E+000, +2.53810061108E+002
+7.85193992491E+006, +2.44683300830E+000, +2.58473278484E+002
+7.97697121402E+006, +2.47763754303E+000, +2.62708064857E+002
+8.10200250313E+006, +2.47526959945E+000, +2.67079184950E+002
+8.22703379224E+006, +2.28679721930E+000, +2.71742009706E+002
+8.35206508135E+006, +2.49317335522E+000, +2.75933629111E+002
+8.47709637046E+006, +2.45533492842E+000, +2.80470251101E+002
+8.60212765957E+006, +2.25664277113E+000, +2.84751078190E+002
+8.72715894869E+006, +2.43468800556E+000, +2.89532148166E+002
+8.85219023780E+006, +2.90608086886E+000, +2.93923157258E+002
+8.97722152691E+006, +2.50104770159E+000, +2.98511686859E+002
+9.10225281602E+006, +2.79112014637E+000, +3.03018981032E+002
+9.22728410513E+006, +2.41380246214E+000, +3.07518009590E+002
+9.35231539424E+006, +2.28374208916E+000, +3.12227556048E+002
+9.47734668335E+006, +2.50061206942E+000, +3.16918834043E+002
+9.60237797247E+006, +2.23338540051E+000, +3.20645984698E+002
+9.72740926158E+006, +2.80016178211E+000, +3.26155012901E+002
+9.85244055069E+006, +2.70206198006E+000, +3.30087211107E+002
+9.97747183980E+006, +2.43500352812E+000, +3.35513899496E+002
+1.01025031289E+007, +2.77270844424E+000, +3.39855155064E+002
+1.02275344180E+007, +1.81674411135E+000, +3.44939380326E+002
+1.03525657071E+007, +2.73311323648E+000, +3.49474878939E+002
+1.04775969962E+007, +2.37212909391E+000, +3.54422420377E+002
+1.06026282854E+007, +2.81549389533E+000, +3.59222699430E+002
+1.07276595745E+007, +1.75823340568E+000, +3.63376603002E+002
+1.08526908636E+007, +2.48835679265E+000, +3.68230856250E+002
+1.09777221527E+007, +2.45262445132E+000, +3.72579240559E+002
+1.11027534418E+007, +3.02305389511E+000, +3.77912243631E+002
+1.12277847309E+007, +1.48954992123E+000, +3.82804647249E+002
+1.13528160200E+007, +2.38650845597E+000, +3.87641401044E+002
+1.14778473091E+007, +1.95801753846E+000, +3.93094878660E+002
+1.16028785982E+007, +2.91294141790E+000, +3.97756139800E+002
+1.17279098874E+007, +2.52516689541E+000, +4.03760509733E+002
+1.18529411765E+007, +2.97080881311E+000, +4.08094468664E+002
+1.19779724656E+007, +2.30727984603E+000, +4.12870076813E+002
+1.21030037547E+007, +2.43170322927E+000, +4.17599820158E+002
+1.22280350438E+007, +1.41927535354E+000, +4.22789049079E+002
+1.23530663329E+007, +1.96584269125E+000, +4.29339536851E+002
+1.24780976220E+007, +2.87997215812E+000, +4.32467491861E+002
+1.26031289111E+007, +1.63301823976E+000, +4.38035299995E+002
+1.27281602003E+007, +2.05157878325E+000, +4.44350248372E+002
+1.28531914894E+007, +1.13150172629E+000, +4.48318351874E+002
+1.29782227785E+007, +1.40125438281E+000, +4.54637853601E+002
+1.31032540676E+007, +1.49048450857E+000, +4.59281859214E+002
+1.32282853567E+007, +1.84006365789E+000, +4.65004942077E+002
+1.33533166458E+007, +2.10638086768E+000, +4.69060503049E+002
+1.34783479349E+007, +2.38560788511E+000, +4.74644935560E+002
+1.36033792240E+007, +1.76148857962E+000, +4.81795847587E+002
+1.37284105131E+007, +1.70812408824E+000, +4.86011254803E+002
+1.38534418023E+007, +1.14270565802E+000, +4.90420431649E+002
+1.39784730914E+007, +9.09660517828E-001, +4.97937810844E+002
+1.41035043805E+007, +2.62561347144E+000, +5.03825973556E+002
+1.42285356696E+007, +1.04173355208E+000, +5.08698560273E+002
+1.43535669587E+007, +1.74194037641E+000, +5.15524236078E+002
+1.44785982478E+007, +1.00599602367E+000, +5.18715559766E+002
+1.46036295369E+007, +1.16034409418E+000, +5.25468045445E+002
+1.47286608260E+007, +8.50040126636E-001, +5.30682796296E+002
+1.48536921151E+007, +3.82862926693E-001, +5.37372338496E+002
+1.49787234043E+007, +1.27788307984E+000, +5.43339447860E+002
+1.51037546934E+007, +1.72713750752E+000, +5.49968318774E+002
+1.52287859825E+007, +3.48308075557E-001, +5.54449144392E+002
+1.53538172716E+007, +8.14091066326E-001, +5.60096169675E+002
+1.54788485607E+007, +2.08228875513E+000, +5.67111152037E+002
+1.56038798498E+007, +1.16057831104E+000, +5.71237759084E+002
+1.57289111389E+007, +6.28598542870E-001, +5.79099745291E+002
+1.58539424280E+007, -1.17536673536E-001, +5.86641721275E+002
+1.59789737171E+007, +9.25315957277E-003, +5.90636883571E+002
+1.61040050063E+007, +7.30574720376E-001, +5.98710150464E+002
+1.62290362954E+007, +1.64965970009E+000, +6.04212885706E+002
+1.63540675845E+007, -3.80842811503E-002, +6.10510716620E+002
+1.64790988736E+007, +1.93539879844E+000, +6.18197292974E+002
+1.66041301627E+007, -1.18468006820E+000, +6.23415346414E+002
+1.67291614518E+007, -1.59779969191E-002, +6.28835842273E+002
+1.68541927409E+007, +1.31396054048E+000, +6.37646285463E+002
+1.69792240300E+007, -5.97278918666E-001, +6.42348079221E+002
+1.71042553191E+007, -1.56948584066E+000, +6.48343228738E+002
+1.72292866083E+007, -1.95210124603E+000, +6.56890678196E+002
+1.73543178974E+007, -3.33289479697E+000, +6.62823042566E+002
+1.74793491865E+007, +1.49434892151E+000, +6.70460761251E+002
+1.76043804756E+007, -2.12960496898E-001, +6.76516550933E+002
+1.77294117647E+007, +1.90157739016E+000, +6.84220265486E+002
+1.78544430538E+007, -9.79229898042E-001, +6.89666751762E+002
+1.79794743429E+007, +1.58891491673E-001, +6.98946606534E+002
+1.81045056320E+007, -3.38203345169E+000, +7.06102448351E+002
+1.82295369212E+007, -1.21630594383E+000, +7.14044819424E+002
+1.83545682103E+007, +8.14652779403E-001, +7.21759541554E+002
+1.84795994994E+007, -9.69718092645E-002, +7.27292616119E+002
+1.86046307885E+007, -1.70890340741E-001, +7.35744204743E+002
+1.87296620776E+007, +1.10334682945E+000, +7.40597837846E+002
+1.88546933667E+007, -7.74091886118E-001, +7.48296672160E+002
+1.89797246558E+007, +2.83945276704E+000, +7.57615102563E+002
+1.91047559449E+007, +3.05716500413E+000, +7.67162706652E+002
+1.92297872340E+007, -5.98335926075E-001, +7.72501161281E+002
+1.93548185232E+007, +1.11096587676E+000, +7.80055076449E+002
+1.94798498123E+007, +8.63439339572E-001, +7.90151424062E+002
+1.96048811014E+007, -1.27523107474E+000, +7.96769529511E+002
+1.97299123905E+007, +1.77166193328E+000, +8.04471866908E+002
+1.98549436796E+007, +7.63765777061E-001, +8.15261353872E+002
+1.99799749687E+007, +4.47658363223E+000, +8.17438838437E+002
+2.01050062578E+007, +1.40460927834E+000, +8.31890076554E+002
+2.02300375469E+007, +2.02934567392E+000, +8.36090572489E+002
+2.03550688360E+007, +3.26436418533E+000, +8.47805215205E+002
+2.04801001252E+007, +2.46436617436E+000, +8.54205125505E+002
+2.06051314143E+007, +3.06249600418E-001, +8.65094899896E+002
+2.07301627034E+007, -2.97359622509E-001, +8.75845804928E+002
+2.08551939925E+007, +4.04458475202E+000, +8.84907994334E+002
+2.09802252816E+007, +1.15225595315E+000, +8.92940842111E+002
+2.11052565707E+007, +3.35241391049E+000, +8.98584067255E+002
+2.12302878598E+007, +3.58745704110E+000, +9.14847728262E+002
+2.13553191489E+007, +6.48560274503E+000, +9.20182606130E+002
+2.14803504380E+007, -5.71675644526E-001, +9.32065715947E+002
+2.16053817272E+007, +2.28741181562E+000, +9.43400609585E+002
+2.17304130163E+007, +7.68287159677E+000, +9.49121225893E+002
+2.18554443054E+007, +5.44606793634E+000, +9.58634586855E+002
+2.19804755945E+007, +7.49605034883E+000, +9.64838181391E+002
+2.21055068836E+007, +2.64622092012E+000, +9.81261646983E+002
+2.22305381727E+007, +3.01770885901E+000, +9.86078439980E+002
+2.23555694618E+007, +5.54775034566E+000, +9.98138260677E+002
+2.24806007509E+007, +1.22420604650E+001, +1.00986634485E+003
+2.26056320401E+007, +7.55127423384E+000, +1.02375951007E+003
+2.27306633292E+007, +4.93117991815E+000, +1.03382484792E+003
+2.28556946183E+007, +1.05832085552E+001, +1.04158731275E+003
+2.29807259074E+007, +1.35732781897E+001, +1.04682275068E+003
+2.31057571965E+007, +1.48955047416E+001, +1.06772660230E+003
+2.32307884856E+007, +1.73184351250E+001, +1.07496937489E+003
+2.33558197747E+007, +1.91708268404E+001, +1.09084230067E+003
+2.34808510638E+007, +1.84105858525E+001, +1.09923090453E+003
+2.36058823529E+007, +1.79744201512E+001, +1.10783967117E+003
+2.37309136421E+007, +2.06231861779E+001, +1.11414792084E+003
+2.38559449312E+007, +2.11002009207E+001, +1.11788080972E+003
+2.39809762203E+007, +2.54827663081E+001, +1.13066280015E+003
+2.41060075094E+007, +2.20920883575E+001, +1.15303824461E+003
+2.42310387985E+007, +2.19419819451E+001, +1.14724065273E+003
+2.43560700876E+007, +1.84176091633E+001, +1.16900243837E+003
+2.44811013767E+007, +2.49218357846E+001, +1.17736041333E+003
+2.46061326658E+007, +1.77002697870E+001, +1.19501026914E+003
+2.47311639549E+007, +2.50102936000E+001, +1.20085803008E+003
+2.48561952441E+007, +1.91153794073E+001, +1.21149560186E+003
+2.49812265332E+007, +1.98293215670E+001, +1.22586086578E+003
+2.51062578223E+007, +1.67091419403E+001, +1.24047624629E+003
+2.52312891114E+007, +2.67435440590E+001, +1.25843232823E+003
+2.53563204005E+007, +2.02908618520E+001, +1.26353786902E+003
+2.54813516896E+007, +1.85591017711E+001, +1.28327920875E+003
+2.56063829787E+007, +1.85901784260E+001, +1.30767313043E+003
+2.57314142678E+007, +1.46465848545E+001, +1.31774099053E+003
+2.58564455569E+007, +1.26797719831E+001, +1.32837021422E+003
+2.59814768461E+007, +1.29767149342E+001, +1.35108397097E+003
+2.61065081352E+007, +7.85437015539E+000, +1.36850136871E+003
+2.62315394243E+007, +2.12493779221E+001, +1.37455630388E+003
+2.63565707134E+007, +1.21673162723E+001, +1.39580562681E+003
+2.64816020025E+007, +1.05488282339E+001, +1.41742503869E+003
+2.66066332916E+007, +1.95133311438E+001, +1.42654142812E+003
+2.67316645807E+007, +6.60389845573E+000, +1.44364854698E+003
+2.68566958698E+007, +1.17418661890E+001, +1.46304960144E+003
+2.69817271589E+007, +1.59043625671E+001, +1.48779025287E+003
+2.71067584481E+007, +1.25433951505E+001, +1.50463003618E+003
+2.72317897372E+007, +1.46230469941E+001, +1.51867562345E+003
+2.73568210263E+007, +2.09056544474E+001, +1.53365692142E+003
+2.74818523154E+007, +1.63413290171E+001, +1.55232876468E+003
+2.76068836045E+007, +1.95643081913E+001, +1.57680133282E+003
+2.77319148936E+007, +2.18842569900E+001, +1.59154001864E+003
+2.78569461827E+007, +1.69744047945E+001, +1.61037352525E+003
+2.79819774718E+007, +7.08038746297E+000, +1.64144736825E+003
+2.81070087610E+007, +9.09915788245E+000, +1.65685095722E+003
+2.82320400501E+007, +6.24002540128E+000, +1.68182943254E+003
+2.83570713392E+007, +2.24551025174E+001, +1.68828534542E+003
+2.84821026283E+007, +6.21184164337E-001, +1.71214791070E+003
+2.86071339174E+007, +1.53030030291E+000, +1.74428204387E+003
+2.87321652065E+007, +1.64919720903E+001, +1.75307386023E+003
+2.88571964956E+007, +6.66328104901E+000, +1.79212532798E+003
+2.89822277847E+007, +2.77001855442E+001, +1.81603633903E+003
+2.91072590738E+007, +1.64993641416E+001, +1.85554245113E+003
+2.92322903630E+007, -1.17717459153E+001, +1.87700200322E+003
+2.93573216521E+007, +3.38351685663E+000, +1.91857902778E+003
+2.94823529412E+007, +1.15142355612E+001, +1.90939047842E+003
+2.96073842303E+007, +1.32790507392E+001, +1.94403348861E+003
+2.97324155194E+007, +8.78357309577E+000, +1.98057055481E+003
+2.98574468085E+007, +6.42270236677E+000, +2.01576965157E+003
+2.99824780976E+007, -5.35282775705E-001, +2.03100925759E+003
+3.01075093867E+007, +8.79637930953E+000, +2.06062198421E+003
+3.02325406758E+007, -1.55950822260E+001, +2.11566752178E+003
+3.03575719650E+007, +7.77833596258E+000, +2.11332428590E+003
+3.04826032541E+007, +1.27436270935E+001, +2.19245502311E+003
+3.06076345432E+007, -1.21051392871E+001, +2.23122462192E+003
+3.07326658323E+007, +1.67914406216E+001, +2.22977488982E+003
+3.08576971214E+007, -1.14318164390E+001, +2.28999670434E+003
+3.09827284105E+007, +1.93962614250E+001, +2.34260822663E+003
+3.11077596996E+007, +3.58769255917E+000, +2.36484776344E+003
+3.12327909887E+007, +7.75702575039E-001, +2.40332836187E+003
+3.13578222778E+007, -7.65793423339E+000, +2.44892723782E+003
+3.14828535670E+007, +1.26844945804E+001, +2.52658161544E+003
+3.16078848561E+007, +4.86956572627E+000, +2.55054029423E+003
+3.17329161452E+007, -1.29391708209E+001, +2.59406493745E+003
+3.18579474343E+007, +4.89383211842E+001, +2.64929218053E+003
+3.19829787234E+007, +2.80306322559E-001, +2.65817992085E+003
+3.21080100125E+007, +2.46155564075E+001, +2.67873489608E+003
+3.22330413016E+007, -5.83683862463E+000, +2.76321374990E+003
+3.23580725907E+007, +1.57213615056E+001, +2.84627310379E+003
+3.24831038798E+007, +3.68384608100E+001, +2.87597024280E+003
+3.26081351690E+007, +9.01432784924E+000, +2.95001556817E+003
+3.27331664581E+007, +2.75436080252E+001, +2.98322024527E+003
+3.28581977472E+007, +2.90382558401E+001, +3.09201861337E+003
+3.29832290363E+007, +2.47016731749E+001, +3.16313127696E+003
+3.31082603254E+007, -3.47115877547E+000, +3.17319120003E+003
+3.32332916145E+007, +2.48971470509E+001, +3.26410916029E+003
+3.33583229036E+007, +2.08388713312E+000, +3.41536012131E+003
+3.34833541927E+007, -2.65252213212E+001, +3.46650068190E+003
+3.36083854819E+007, -3.98399192247E+001, +3.55696989114E+003
+3.37334167710E+007, +6.41492210752E+001, +3.59054505903E+003
+3.38584480601E+007, +3.34142307556E+001, +3.62700270514E+003
+3.39834793492E+007, +2.64094450892E+001, +3.87002734237E+003
+3.41085106383E+007, +7.33663418014E+001, +3.89945956734E+003
+3.42335419274E+007, +8.07146961370E+001, +3.98523727411E+003
+3.43585732165E+007, +2.80695387780E+001, +4.15720951302E+003
+3.44836045056E+007, +3.03675430898E+001, +4.22710631771E+003
+3.46086357947E+007, +3.42453793978E+001, +4.27189060459E+003
+3.47336670839E+007, +1.63339448201E+002, +4.47987020766E+003
+3.48586983730E+007, +1.32925646538E+002, +4.46492809480E+003
+3.49837296621E+007, +6.24213156203E+001, +4.67168512599E+003
+3.51087609512E+007, +1.78812644079E+002, +4.87711630197E+003
+3.52337922403E+007, +1.43938316278E+002, +5.01375415856E+003
+3.53588235294E+007, +1.68658221140E+002, +5.16345303680E+003
+3.54838548185E+007, +2.70419386525E+002, +5.38845064318E+003
+3.56088861076E+007, +4.71984521267E+001, +5.56353952036E+003
+3.57339173967E+007, +1.67065787298E+002, +5.82046108574E+003
+3.58589486859E+007, +2.06334892824E+002, +6.12981861072E+003
+3.59839799750E+007, +7.69659171252E+001, +6.32493010372E+003
+3.61090112641E+007, +3.20928969452E+002, +6.55651054667E+003
+3.62340425532E+007, +3.67849487436E+002, +6.68932495570E+003
+3.63590738423E+007, +2.83798146231E+002, +7.36397054856E+003
+3.64841051314E+007, +1.18883044286E+002, +7.62151050466E+003
+3.66091364205E+007, +2.29916314553E+002, +7.82686581110E+003
+3.67341677096E+007, +2.57453407874E+002, +8.37350764272E+003
+3.68591989987E+007, +3.35146523381E+002, +8.53758510091E+003
+3.69842302879E+007, +7.56528261765E+002, +9.49300698310E+003
+3.71092615770E+007, +2.59941519667E+001, +1.02670068977E+004
+3.72342928661E+007, +4.17438813057E+002, +1.05501592980E+004
+3.73593241552E+007, -5.90407325714E+002, +1.17359051680E+004
+3.74843554443E+007, -5.32626152577E+001, +1.24094292909E+004
+3.76093867334E+007, +1.10166926503E+003, +1.40103030385E+004
+3.77344180225E+007, +8.94851842681E+002, +1.49672160219E+004
+3.78594493116E+007, +1.58267107158E+003, +1.63180077512E+004
+3.79844806008E+007, +1.18240019226E+003, +1.73582031125E+004
+3.81095118899E+007, +1.78398540112E+002, +2.26098182763E+004
+3.82345431790E+007, +2.76016551979E+003, +2.30255167062E+004
+3.83595744681E+007, -8.72633407622E+002, +2.98324224798E+004
+3.84846057572E+007, +7.81315445260E+003, +4.18975198214E+004
+3.86096370463E+007, +1.52398353412E+004, +4.30218989468E+004
+3.87346683354E+007, +1.96227327682E+004, +5.87304563548E+004
+3.88596996245E+007, +7.48068802691E+004, +1.37368815698E+005
+3.89847309136E+007, +1.56126649738E+005, -8.34480419339E+004
+3.91097622028E+007, +5.21958038246E+004, -7.70893408417E+004
+3.92347934919E+007, +1.71961251731E+004, -8.20238765700E+004
+3.93598247810E+007, +1.42890930759E+004, -4.12574948863E+004
+3.94848560701E+007, +7.59553647037E+003, -3.32793571119E+004
+3.96098873592E+007, +6.43373934703E+003, -2.75450202556E+004
+3.97349186483E+007, +4.13565191953E+003, -2.29791106928E+004
+3.98599499374E+007, +4.55370744177E+003, -2.04910557378E+004
+3.99849812265E+007, +3.02600508016E+003, -1.82121588867E+004
+4.01100125156E+007, +2.50758540961E+003, -1.47362956492E+004
