"# Channel 1"
"# Trace 1"
Frequency, Formatted Data, Formatted Data
+1.00000000000E+005, +1.13177736241E+000, +3.23965051509E+000
+2.25031289111E+005, +1.14327137913E+000, +7.29124321186E+000
+3.50062578223E+005, +1.13860794810E+000, +1.13629104594E+001
+4.75093867334E+005, +1.22051952621E+000, +1.53426728373E+001
+6.00125156446E+005, +1.20611344894E+000, +1.93866189591E+001
+7.25156445557E+005, +1.17849099520E+000, +2.34268216207E+001
+8.50187734668E+005, +1.32233254424E+000, +2.74745969820E+001
+9.75219023780E+005, +1.31028375715E+000, +3.14507884049E+001
+1.10025031289E+006, +1.33088154392E+000, +3.54648001098E+001
+1.22528160200E+006, +1.45233972342E+000, +3.93994494106E+001
+1.35031289111E+006, +1.44353104464E+000, +4.34323555676E+001
+1.47534418023E+006, +1.41198534157E+000, +4.74384304492E+001
+1.60037546934E+006, +1.51973291167E+000, +5.14403413714E+001
+1.72540675845E+006, +1.61209091128E+000, +5.53597772743E+001
+1.85043804756E+006, +1.60810594263E+000, +5.93326260993E+001
+1.97546933667E+006, +1.56655347937E+000, +6.33827087733E+001
+2.10050062578E+006, +1.54650723992E+000, +6.72956515608E+001
+2.22553191489E+006, +1.61440503789E+000, +7.11636341192E+001
+2.35056320401E+006, +1.65318750497E+000, +7.53754253564E+001
+2.47559449312E+006, +1.57752014218E+000, +7.92754058612E+001
+2.60062578223E+006, +1.58349589508E+000, +8.33485837876E+001
+2.72565707134E+006, +1.51505070976E+000, +8.71553362633E+001
+2.85068836045E+006, +1.68011063214E+000, +9.11349572617E+001
+2.97571964956E+006, +1.63321416503E+000, +9.51904035291E+001
+3.10075093867E+006, +1.52812362668E+000, +9.94967594970E+001
+3.22578222778E+006, +1.63980728900E+000, +1.03038744662E+002
+3.35081351690E+006, +1.63810775813E+000, +1.07337205324E+002
+3.47584480601E+006, +1.81951872412E+000, +1.11314494676E+002
+3.60087609512E+006, +1.64639559563E+000, +1.15282275356E+002
+3.72590738423E+006, +1.77082138099E+000, +1.19433245149E+002
+3.85093867334E+006, +1.72624373646E+000, +1.23351923439E+002
+3.97596996245E+006, +1.78433294952E+000, +1.27405778127E+002
+4.10100125156E+006, +1.91498159082E+000, +1.31849195400E+002
+4.22603254068E+006, +1.79558716793E+000, +1.35745294361E+002
+4.35106382979E+006, +1.71546405967E+000, +1.39789770181E+002
+4.47609511890E+006, +1.74913681580E+000, +1.43924847674E+002
+4.60112640801E+006, +1.64730627031E+000, +1.48127549217E+002
+4.72615769712E+006, +1.56376482859E+000, +1.52142037613E+002
+4.85118898623E+006, +1.73649549293E+000, +1.55907071978E+002
+4.97622027534E+006, +1.65892641726E+000, +1.59968149277E+002
+5.10125156446E+006, +2.00316695851E+000, +1.64522302848E+002
+5.22628285357E+006, +1.51992430577E+000, +1.68469548384E+002
+5.35131414268E+006, +2.06006262527E+000, +1.73004619586E+002
+5.47634543179E+006, +1.90335109905E+000, +1.76769427765E+002
+5.60137672090E+006, +1.49797511110E+000, +1.81130570242E+002
+5.72640801001E+006, +1.57160082732E+000, +1.85498487884E+002
+5.85143929912E+006, +1.95393504169E+000, +1.88930997974E+002
+5.97647058824E+006, +2.21110809338E+000, +1.93567231507E+002
+6.10150187735E+006, +1.81925810603E+000, +1.98130982999E+002
+6.22653316646E+006, +1.70883007417E+000, +2.01797710508E+002
+6.35156445557E+006, +2.23152283894E+000, +2.06306722800E+002
+6.47659574468E+006, +2.05562593454E+000, +2.10504146015E+002
+6.60162703379E+006, +2.01418345903E+000, +2.15073008178E+002
+6.72665832290E+006, +2.07810989533E+000, +2.19214045505E+002
+6.85168961202E+006, +1.97959461828E+000, +2.23407067666E+002
+6.97672090113E+006, +2.26620833714E+000, +2.27278703509E+002
+7.10175219024E+006, +2.27689837007E+000, +2.31974360455E+002
+7.22678347935E+006, +2.25789599256E+000, +2.35981427431E+002
+7.35181476846E+006, +2.08024484968E+000, +2.40622089988E+002
+7.47684605757E+006, +2.39349612834E+000, +2.44920540574E+002
+7.60187734668E+006, +2.48888426437E+000, +2.49150746597E+002
+7.72690863579E+006, +2.30242822553E+000, +2.53682977647E+002
+7.85193992491E+006, +2.65595470963E+000, +2.58114532544E+002
+7.97697121402E+006, +2.17189222752E+000, +2.62384353816E+002
+8.10200250313E+006, +2.39240787783E+000, +2.66811085523E+002
+8.22703379224E+006, +2.33155469269E+000, +2.71239220299E+002
+8.35206508135E+006, +2.29662148534E+000, +2.75704756618E+002
+8.47709637046E+006, +2.54077302374E+000, +2.80269363613E+002
+8.60212765957E+006, +2.87068200302E+000, +2.84761197891E+002
+8.72715894869E+006, +2.36060333808E+000, +2.89075147532E+002
+8.85219023780E+006, +2.61291223965E+000, +2.93596265533E+002
+8.97722152691E+006, +2.25837922931E+000, +2.98147930350E+002
+9.10225281602E+006, +2.63576708986E+000, +3.02836512712E+002
+9.22728410513E+006, +2.87635001244E+000, +3.07144781277E+002
+9.35231539424E+006, +2.45560347377E+000, +3.12223629132E+002
+9.47734668335E+006, +2.45176344424E+000, +3.16589768980E+002
+9.60237797247E+006, +2.14383003256E+000, +3.20653342626E+002
+9.72740926158E+006, +2.58389129066E+000, +3.26112531782E+002
+9.85244055069E+006, +2.11039251074E+000, +3.30287265835E+002
+9.97747183980E+006, +2.73040132034E+000, +3.35476472741E+002
+1.01025031289E+007, +2.43109616125E+000, +3.39055654126E+002
+1.02275344180E+007, +2.29648067219E+000, +3.44722424901E+002
+1.03525657071E+007, +2.46487591885E+000, +3.48971206610E+002
+1.04775969962E+007, +1.72675189575E+000, +3.53719249673E+002
+1.06026282854E+007, +1.67507254879E+000, +3.58540395239E+002
+1.07276595745E+007, +2.17104239896E+000, +3.63525522176E+002
+1.08526908636E+007, +1.64436152623E+000, +3.68085120182E+002
+1.09777221527E+007, +2.70587578289E+000, +3.72546194131E+002
+1.11027534418E+007, +2.95483931471E+000, +3.77981898615E+002
+1.12277847309E+007, +1.66670813783E+000, +3.82294690855E+002
+1.13528160200E+007, +1.80322222552E+000, +3.87810455766E+002
+1.14778473091E+007, +1.82413813118E+000, +3.93047493644E+002
+1.16028785982E+007, +3.29533829561E+000, +3.97578749122E+002
+1.17279098874E+007, +2.42807746464E+000, +4.03146962311E+002
+1.18529411765E+007, +2.42518551677E+000, +4.07892123790E+002
+1.19779724656E+007, +2.42171931235E+000, +4.13303732498E+002
+1.21030037547E+007, +2.35850047979E+000, +4.16961307497E+002
+1.22280350438E+007, +1.46117378758E+000, +4.22285119668E+002
+1.23530663329E+007, +2.49790039994E+000, +4.28894209663E+002
+1.24780976220E+007, +2.20994674313E+000, +4.33062674321E+002
+1.26031289111E+007, +2.04810276630E+000, +4.37629824071E+002
+1.27281602003E+007, +1.51290336809E+000, +4.43831934024E+002
+1.28531914894E+007, +1.59285797930E+000, +4.48138258566E+002
+1.29782227785E+007, +2.02035232141E+000, +4.54967613261E+002
+1.31032540676E+007, +1.81189295986E+000, +4.59686361258E+002
+1.32282853567E+007, +2.06815832347E+000, +4.64747275036E+002
+1.33533166458E+007, +1.81761923111E+000, +4.70140618990E+002
+1.34783479349E+007, +1.45501234645E+000, +4.74069942470E+002
+1.36033792240E+007, +1.04645306032E+000, +4.80834682992E+002
+1.37284105131E+007, +1.94449988591E+000, +4.85852569841E+002
+1.38534418023E+007, +4.54073553629E-002, +4.91695301241E+002
+1.39784730914E+007, +7.42122183285E-001, +4.97923607501E+002
+1.41035043805E+007, +1.85178682194E+000, +5.02930201140E+002
+1.42285356696E+007, +2.06382398946E+000, +5.08081004905E+002
+1.43535669587E+007, +2.09362060087E+000, +5.14807978307E+002
+1.44785982478E+007, +9.52415247300E-001, +5.18781629455E+002
+1.46036295369E+007, -2.13327322594E-002, +5.26040656961E+002
+1.47286608260E+007, +7.87624157886E-001, +5.30443189726E+002
+1.48536921151E+007, +4.76433280353E-001, +5.38350355689E+002
+1.49787234043E+007, +8.03492899581E-001, +5.43979634050E+002
+1.51037546934E+007, +1.58324438250E+000, +5.49446388356E+002
+1.52287859825E+007, +1.57234175299E+000, +5.54351534614E+002
+1.53538172716E+007, -6.48660496125E-001, +5.60832627463E+002
+1.54788485607E+007, +1.11325421210E+000, +5.67243165776E+002
+1.56038798498E+007, +1.40614536961E+000, +5.72111100151E+002
+1.57289111389E+007, -5.54770136966E-001, +5.79909606150E+002
+1.58539424280E+007, +2.41303678566E+000, +5.85806662306E+002
+1.59789737171E+007, -7.96864768455E-002, +5.90128834329E+002
+1.61040050063E+007, -4.12292836806E-003, +5.97804747303E+002
+1.62290362954E+007, +7.01983973271E-001, +6.03834929036E+002
+1.63540675845E+007, +1.24601457036E+000, +6.08821207888E+002
+1.64790988736E+007, +8.79844996872E-001, +6.15817517309E+002
+1.66041301627E+007, -9.31625992528E-001, +6.25886904536E+002
+1.67291614518E+007, -6.52317883684E-001, +6.29403396410E+002
+1.68541927409E+007, -1.02401017938E-001, +6.36521883121E+002
+1.69792240300E+007, +2.05282783115E+000, +6.41772180125E+002
+1.71042553191E+007, -2.26285516755E+000, +6.50302011283E+002
+1.72292866083E+007, -2.34068986348E+000, +6.56306755398E+002
+1.73543178974E+007, -9.56768186764E-001, +6.62573962267E+002
+1.74793491865E+007, +9.60748723468E-002, +6.70891106594E+002
+1.76043804756E+007, +3.70143234549E-001, +6.76730665022E+002
+1.77294117647E+007, +9.42512352290E-001, +6.84451396814E+002
+1.78544430538E+007, -1.08080871216E+000, +6.91226284444E+002
+1.79794743429E+007, +5.23631662113E-001, +6.98723147291E+002
+1.81045056320E+007, -6.36270616554E-001, +7.05827169786E+002
+1.82295369212E+007, -3.93131465263E-001, +7.12495200493E+002
+1.83545682103E+007, +1.95571092889E+000, +7.22844339841E+002
+1.84795994994E+007, -1.43282500748E+000, +7.29000635237E+002
+1.86046307885E+007, -1.35127400645E+000, +7.37207465705E+002
+1.87296620776E+007, -2.09516504509E-001, +7.43165479988E+002
+1.88546933667E+007, +7.63563950214E-001, +7.51746235859E+002
+1.89797246558E+007, +1.96601956649E+000, +7.58819184664E+002
+1.91047559449E+007, +1.17021773301E+000, +7.66019528020E+002
+1.92297872340E+007, +1.71568452325E+000, +7.75777564931E+002
+1.93548185232E+007, +1.96642643288E+000, +7.80646906005E+002
+1.94798498123E+007, -1.98449608279E+000, +7.90771082169E+002
+1.96048811014E+007, -1.07956734071E+000, +7.96689907158E+002
+1.97299123905E+007, -9.14787792867E-001, +8.05616138361E+002
+1.98549436796E+007, -8.33752090076E-001, +8.10157306430E+002
+1.99799749687E+007, +2.16967432179E+000, +8.21256957988E+002
+2.01050062578E+007, -5.35646468205E-001, +8.29944947688E+002
+2.02300375469E+007, +8.38321576895E-001, +8.40264050147E+002
+2.03550688360E+007, +5.59201764741E+000, +8.49758774801E+002
+2.04801001252E+007, +2.43671290988E+000, +8.56415431444E+002
+2.06051314143E+007, +7.27402531711E-001, +8.65314179766E+002
+2.07301627034E+007, -1.71789645315E+000, +8.76880208349E+002
+2.08551939925E+007, +2.75421433534E+000, +8.83652871954E+002
+2.09802252816E+007, +2.17929187894E+000, +8.93551936107E+002
+2.11052565707E+007, +1.66171583729E-001, +8.99709225873E+002
+2.12302878598E+007, +1.95872456091E+000, +9.13838147385E+002
+2.13553191489E+007, +1.31389659090E+000, +9.23804784726E+002
+2.14803504380E+007, +7.43018364966E-001, +9.33879606179E+002
+2.16053817272E+007, +3.03651045189E+000, +9.44222852766E+002
+2.17304130163E+007, +6.71874577287E+000, +9.48848818036E+002
+2.18554443054E+007, +3.67365353382E+000, +9.63936915066E+002
+2.19804755945E+007, +6.98055298854E+000, +9.69832510375E+002
+2.21055068836E+007, -9.29623598493E-001, +9.86858413961E+002
+2.22305381727E+007, +3.69292587871E+000, +9.89412490472E+002
+2.23555694618E+007, +1.01196767221E-001, +1.00057043763E+003
+2.24806007509E+007, +5.30543791885E+000, +1.01325994133E+003
+2.26056320401E+007, +7.06858862202E+000, +1.02742643180E+003
+2.27306633292E+007, +8.66941520375E+000, +1.03832869181E+003
+2.28556946183E+007, +9.53870780280E+000, +1.04553511963E+003
+2.29807259074E+007, +1.02103704312E+001, +1.05184175083E+003
+2.31057571965E+007, +1.69598282396E+001, +1.07476265746E+003
+2.32307884856E+007, +1.57886192059E+001, +1.07556128364E+003
+2.33558197747E+007, +2.08120730598E+001, +1.08735527614E+003
+2.34808510638E+007, +1.42179508842E+001, +1.10101773384E+003
+2.36058823529E+007, +1.97574563841E+001, +1.10531431021E+003
+2.37309136421E+007, +2.19439458869E+001, +1.11548129842E+003
+2.38559449312E+007, +1.94305117917E+001, +1.12506894757E+003
+2.39809762203E+007, +2.31196340956E+001, +1.14108128431E+003
+2.41060075094E+007, +1.72655856782E+001, +1.14978550550E+003
+2.42310387985E+007, +2.19657930130E+001, +1.15259492692E+003
+2.43560700876E+007, +1.66305198650E+001, +1.18127308825E+003
+2.44811013767E+007, +2.24077090401E+001, +1.18658122089E+003
+2.46061326658E+007, +1.36145940758E+001, +1.19718821387E+003
+2.47311639549E+007, +2.03699851135E+001, +1.20667022363E+003
+2.48561952441E+007, +1.92222821999E+001, +1.21513104118E+003
+2.49812265332E+007, +1.77466986184E+001, +1.23373244304E+003
+2.51062578223E+007, +1.50467455510E+001, +1.24272584667E+003
+2.52312891114E+007, +2.49649635891E+001, +1.26842696178E+003
+2.53563204005E+007, +1.78069943440E+001, +1.27292656331E+003
+2.54813516896E+007, +1.70041541326E+001, +1.29738612619E+003
+2.56063829787E+007, +1.14928551561E+001, +1.30950580944E+003
+2.57314142678E+007, +1.45646591017E+001, +1.32307403469E+003
+2.58564455569E+007, +1.03574186562E+001, +1.33816277305E+003
+2.59814768461E+007, +3.82692020206E+000, +1.35788910510E+003
+2.61065081352E+007, +9.04092829896E+000, +1.36878639915E+003
+2.62315394243E+007, +2.05813689520E+001, +1.37440428931E+003
+2.63565707134E+007, +1.41840141156E+001, +1.40451794050E+003
+2.64816020025E+007, +1.76991545409E+001, +1.41054760066E+003
+2.66066332916E+007, +1.48438308896E+001, +1.42500801802E+003
+2.67316645807E+007, +9.32909581914E+000, +1.44933993293E+003
+2.68566958698E+007, +5.70573429915E+000, +1.47478464340E+003
+2.69817271589E+007, +1.61009045330E+001, +1.48537075645E+003
+2.71067584481E+007, +9.80094702123E+000, +1.50283697953E+003
+2.72317897372E+007, +1.63488249286E+001, +1.53470033488E+003
+2.73568210263E+007, +1.87845020619E+001, +1.54189933766E+003
+2.74818523154E+007, +1.38989052356E+001, +1.55968269223E+003
+2.76068836045E+007, +1.88830118513E+001, +1.58399880206E+003
+2.77319148936E+007, +2.03585184851E+001, +1.60886574240E+003
+2.78569461827E+007, +1.28861367102E+001, +1.62284351436E+003
+2.79819774718E+007, +6.84883914496E+000, +1.64381956677E+003
+2.81070087610E+007, +5.85913314573E+000, +1.65470498746E+003
+2.82320400501E+007, +8.35656825161E+000, +1.67283798280E+003
+2.83570713392E+007, +1.90079200658E+001, +1.69571861871E+003
+2.84821026283E+007, -8.25198615314E+000, +1.71567870185E+003
+2.86071339174E+007, -6.73516994823E+000, +1.76076899069E+003
+2.87321652065E+007, +2.12625909289E+001, +1.76977382171E+003
+2.88571964956E+007, +8.60352597625E+000, +1.79721393485E+003
+2.89822277847E+007, +1.76201211931E+001, +1.81863932019E+003
+2.91072590738E+007, +4.12126919848E+000, +1.87522536185E+003
+2.92322903630E+007, -1.19505053289E+001, +1.88422770391E+003
+2.93573216521E+007, +6.57241075145E+000, +1.91521618218E+003
+2.94823529412E+007, +9.28196747687E+000, +1.91398518664E+003
+2.96073842303E+007, +1.48671591430E+001, +1.95271649646E+003
+2.97324155194E+007, +3.01079436712E+000, +1.99298316758E+003
+2.98574468085E+007, +2.19652907852E+001, +2.01053256985E+003
+2.99824780976E+007, -7.14628946970E+000, +2.05610747488E+003
+3.01075093867E+007, +1.56150624919E+001, +2.08358549338E+003
+3.02325406758E+007, -1.19191449346E+001, +2.12438336350E+003
+3.03575719650E+007, -2.49510611326E+000, +2.13456621786E+003
+3.04826032541E+007, +7.06589159139E+000, +2.20464084160E+003
+3.06076345432E+007, -8.31523059131E+000, +2.23898962077E+003
+3.07326658323E+007, +9.36775968284E+000, +2.26376748731E+003
+3.08576971214E+007, -1.06818694994E+001, +2.30585858654E+003
+3.09827284105E+007, +1.04655197875E+001, +2.34243322565E+003
+3.11077596996E+007, -9.57759100397E+000, +2.39052959065E+003
+3.12327909887E+007, -6.14341748626E+000, +2.41350889428E+003
+3.13578222778E+007, +2.16400250451E+001, +2.46379446688E+003
+3.14828535670E+007, +2.58043616494E+000, +2.53311830788E+003
+3.16078848561E+007, -4.28168289321E+000, +2.56824017187E+003
+3.17329161452E+007, -8.21868623052E+000, +2.62879867377E+003
+3.18579474343E+007, +3.14736892768E+001, +2.64546277843E+003
+3.19829787234E+007, -5.25174430867E-001, +2.69224949618E+003
+3.21080100125E+007, +5.45570405281E+001, +2.75576215780E+003
+3.22330413016E+007, +1.19398453189E+000, +2.81316911114E+003
+3.23580725907E+007, +5.41003946355E+000, +2.86345288442E+003
+3.24831038798E+007, +5.62586654198E+001, +2.93070724681E+003
+3.26081351690E+007, +7.19859560135E+000, +2.97954215269E+003
+3.27331664581E+007, +1.55278862214E+001, +3.03027892414E+003
+3.28581977472E+007, +8.38997852426E+000, +3.12013561053E+003
+3.29832290363E+007, +3.60073934036E+001, +3.15791375870E+003
+3.31082603254E+007, +3.53742669835E+001, +3.24910203218E+003
+3.32332916145E+007, +3.21984392329E+001, +3.34515768755E+003
+3.33583229036E+007, -1.05096353834E+001, +3.45265983841E+003
+3.34833541927E+007, +5.16443901775E-001, +3.49839260279E+003
+3.36083854819E+007, -1.81779014566E+001, +3.57534822949E+003
+3.37334167710E+007, +5.94286115982E+001, +3.65146189288E+003
+3.38584480601E+007, +4.99602836768E+001, +3.69821328613E+003
+3.39834793492E+007, +6.39825893675E+001, +3.90352960158E+003
+3.41085106383E+007, +5.67209597587E+001, +3.95263987348E+003
+3.42335419274E+007, +2.35445208747E+001, +4.08282623418E+003
+3.43585732165E+007, +9.45838255489E+001, +4.23025542595E+003
+3.44836045056E+007, +6.58307652060E+001, +4.39652447131E+003
+3.46086357947E+007, +1.82890665568E+001, +4.39429928661E+003
+3.47336670839E+007, +9.55287669083E+001, +4.66945514719E+003
+3.48586983730E+007, +1.31295458176E+002, +4.67087715808E+003
+3.49837296621E+007, +8.47092290133E+001, +4.84988434646E+003
+3.51087609512E+007, +5.64641470709E+001, +4.95681325205E+003
+3.52337922403E+007, +1.10674088351E+002, +5.19652620971E+003
+3.53588235294E+007, +1.90152598029E+002, +5.36902701024E+003
+3.54838548185E+007, +3.24194709604E+001, +5.51493131661E+003
+3.56088861076E+007, +2.06235256571E+002, +5.69996931471E+003
+3.57339173967E+007, +9.79560691925E+001, +5.81799230921E+003
+3.58589486859E+007, +2.09978553770E+002, +6.13778012421E+003
+3.59839799750E+007, -2.33839232977E+001, +6.57782878789E+003
+3.61090112641E+007, +2.20010362092E+002, +6.81145746953E+003
+3.62340425532E+007, +1.15912326358E+002, +6.89249663364E+003
+3.63590738423E+007, +2.09758140972E+002, +7.42048009162E+003
+3.64841051314E+007, +9.47903958733E+001, +7.70294594977E+003
+3.66091364205E+007, +3.91310380659E+002, +7.80755379388E+003
+3.67341677096E+007, +2.85142005595E+002, +8.49561304748E+003
+3.68591989987E+007, +3.25637334837E+002, +8.98510725577E+003
+3.69842302879E+007, +4.89240440973E+002, +9.88870428678E+003
+3.71092615770E+007, +2.62916496220E+002, +1.06405760264E+004
+3.72342928661E+007, -4.84964189150E+001, +1.04971956423E+004
+3.73593241552E+007, -3.17922272587E+002, +1.19809453970E+004
+3.74843554443E+007, -1.11759925757E+002, +1.31548773849E+004
+3.76093867334E+007, +1.04093844255E+003, +1.38547839936E+004
+3.77344180225E+007, +1.52294872144E+003, +1.49184105116E+004
+3.78594493116E+007, +2.25933761867E+003, +1.72881881302E+004
+3.79844806008E+007, +1.22591471315E+003, +1.95773786937E+004
+3.81095118899E+007, +3.27359088315E+003, +2.31338155666E+004
+3.82345431790E+007, +2.56388696084E+003, +2.53094311647E+004
+3.83595744681E+007, -1.70029060504E+003, +3.39112343067E+004
+3.84846057572E+007, +1.22170614445E+004, +5.66815798979E+004
+3.86096370463E+007, +1.02227226441E+004, +5.57792937521E+004
+3.87346683354E+007, +3.12625309092E+004, +5.46803463825E+004
+3.88596996245E+007, +2.00386671855E+005, +1.78899274897E+005
+3.89847309136E+007, +9.24958979379E+004, -6.10487842990E+004
+3.91097622028E+007, +3.90361319318E+004, -5.37422196563E+004
+3.92347934919E+007, +1.28075398778E+004, -5.05373576648E+004
+3.93598247810E+007, +1.34281298665E+004, -3.32023254515E+004
+3.94848560701E+007, +4.45607145928E+003, -3.04185643593E+004
+3.96098873592E+007, +5.69332065261E+003, -2.51473787690E+004
+3.97349186483E+007, +2.84547320167E+003, -2.09800521894E+004
+3.98599499374E+007, +3.11476423721E+003, -1.85613511599E+004
+3.99849812265E+007, +2.31072562853E+003, -1.72817204827E+004
+4.01100125156E+007, +8.86589795113E+002, -1.46520654906E+004
