"# Channel 1"
"# Trace 1"
Frequency, Formatted Data, Formatted Data
+1.00000000000E+005, +5.03727534132E+001, +3.93100459026E+000
+2.87609511890E+005, +5.04478853824E+001, +1.00379518720E+001
+4.75219023780E+005, +5.05485022421E+001, +1.67071853095E+001
+6.62828535670E+005, +5.07990653512E+001, +2.31233236803E+001
+8.50438047559E+005, +5.08200176930E+001, +2.95635408128E+001
+1.03804755945E+006, +5.08905690115E+001, +3.60949602619E+001
+1.22565707134E+006, +5.08920709112E+001, +4.25680355307E+001
+1.41326658323E+006, +5.11906149889E+001, +4.91236450239E+001
+1.60087609512E+006, +5.11345995508E+001, +5.56232936081E+001
+1.78848560701E+006, +5.11706247490E+001, +6.19718282564E+001
+1.97609511890E+006, +5.10826167329E+001, +6.84104292180E+001
+2.16370463079E+006, +5.12732518085E+001, +7.50780489634E+001
+2.35131414268E+006, +5.13791701406E+001, +8.12412422881E+001
+2.53892365457E+006, +5.13018715219E+001, +8.78671813186E+001
+2.72653316646E+006, +5.16928052884E+001, +9.43024625516E+001
+2.91414267835E+006, +5.13805950646E+001, +1.01087237077E+002
+3.10175219024E+006, +5.17381858512E+001, +1.07386563511E+002
+3.28936170213E+006, +5.19003942712E+001, +1.13919146114E+002
+3.47697121402E+006, +5.17885556262E+001, +1.20280053614E+002
+3.66458072591E+006, +5.17805132375E+001, +1.26772980356E+002
+3.85219023780E+006, +5.23143338071E+001, +1.33324146984E+002
+4.03979974969E+006, +5.24197987279E+001, +1.39988336339E+002
+4.22740926158E+006, +5.22693519689E+001, +1.46485202751E+002
+4.41501877347E+006, +5.22304759838E+001, +1.53365966266E+002
+4.60262828536E+006, +5.25904055258E+001, +1.59603183825E+002
+4.79023779725E+006, +5.26851229934E+001, +1.66409801381E+002
+4.97784730914E+006, +5.28989590395E+001, +1.72981296597E+002
+5.16545682103E+006, +5.24619988284E+001, +1.79824715411E+002
+5.35306633292E+006, +5.28595700978E+001, +1.86357618874E+002
+5.54067584481E+006, +5.28063593133E+001, +1.92807497729E+002
+5.72828535670E+006, +5.34493206060E+001, +2.00058163776E+002
+5.91589486859E+006, +5.36790262827E+001, +2.06219434312E+002
+6.10350438048E+006, +5.39578345329E+001, +2.13649587032E+002
+6.29111389237E+006, +5.38265100366E+001, +2.20206876852E+002
+6.47872340426E+006, +5.39465228428E+001, +2.27031361501E+002
+6.66633291615E+006, +5.43563115784E+001, +2.33667833645E+002
+6.85394242804E+006, +5.47180783031E+001, +2.40468631277E+002
+7.04155193992E+006, +5.47092577712E+001, +2.47506385988E+002
+7.22916145181E+006, +5.52808077900E+001, +2.54427507079E+002
+7.41677096370E+006, +5.51898998290E+001, +2.61339011243E+002
+7.60438047559E+006, +5.52103823373E+001, +2.68332002464E+002
+7.79198998748E+006, +5.57801972168E+001, +2.75404697805E+002
+7.97959949937E+006, +5.57008056412E+001, +2.81684379055E+002
+8.16720901126E+006, +5.66634345381E+001, +2.89603910971E+002
+8.35481852315E+006, +5.61835467278E+001, +2.96191558849E+002
+8.54242803504E+006, +5.66926026121E+001, +3.03912980001E+002
+8.73003754693E+006, +5.68386870674E+001, +3.11089302728E+002
+8.91764705882E+006, +5.74375757931E+001, +3.18346527262E+002
+9.10525657071E+006, +5.62966871835E+001, +3.26005595392E+002
+9.29286608260E+006, +5.73980281701E+001, +3.33137895052E+002
+9.48047559449E+006, +5.73797181816E+001, +3.40039023675E+002
+9.66808510638E+006, +5.74819792350E+001, +3.47930660917E+002
+9.85569461827E+006, +5.74399685130E+001, +3.54710099685E+002
+1.00433041302E+007, +5.82932907704E+001, +3.62231453448E+002
+1.02309136421E+007, +5.83778456506E+001, +3.70471746127E+002
+1.04185231539E+007, +5.85282741127E+001, +3.77120920359E+002
+1.06061326658E+007, +5.87513152596E+001, +3.84904818403E+002
+1.07937421777E+007, +5.99420493857E+001, +3.93699643872E+002
+1.09813516896E+007, +5.96089924211E+001, +4.00776742956E+002
+1.11689612015E+007, +6.10478515072E+001, +4.08400448835E+002
+1.13565707134E+007, +5.97458678824E+001, +4.14838924602E+002
+1.15441802253E+007, +5.95339031111E+001, +4.23280540909E+002
+1.17317897372E+007, +6.11360743181E+001, +4.31049347384E+002
+1.19193992491E+007, +5.99046440268E+001, +4.39789764637E+002
+1.21070087610E+007, +6.09541560446E+001, +4.48134909272E+002
+1.22946182728E+007, +6.08768879358E+001, +4.56523021201E+002
+1.24822277847E+007, +6.13992535551E+001, +4.63284934085E+002
+1.26698372966E+007, +6.12612658553E+001, +4.71744705811E+002
+1.28574468085E+007, +6.25558313674E+001, +4.79959863873E+002
+1.30450563204E+007, +6.16255380755E+001, +4.88023618981E+002
+1.32326658323E+007, +6.18300272655E+001, +4.96016176067E+002
+1.34202753442E+007, +6.39087628457E+001, +5.05257147875E+002
+1.36078848561E+007, +6.31465290615E+001, +5.12977066492E+002
+1.37954943680E+007, +6.32627468042E+001, +5.20838270098E+002
+1.39831038798E+007, +6.35156529853E+001, +5.31156658423E+002
+1.41707133917E+007, +6.53589421048E+001, +5.40135867243E+002
+1.43583229036E+007, +6.51733214795E+001, +5.48913378082E+002
+1.45459324155E+007, +6.46920066750E+001, +5.57119511736E+002
+1.47335419274E+007, +6.62103139814E+001, +5.65016820177E+002
+1.49211514393E+007, +6.51208651832E+001, +5.74368056712E+002
+1.51087609512E+007, +6.59567189859E+001, +5.84635641750E+002
+1.52963704631E+007, +6.84236683736E+001, +5.93891043313E+002
+1.54839799750E+007, +6.52024432541E+001, +6.02809936292E+002
+1.56715894869E+007, +6.95897399372E+001, +6.12428247628E+002
+1.58591989987E+007, +6.86015801939E+001, +6.21439425560E+002
+1.60468085106E+007, +6.70386546667E+001, +6.31591496194E+002
+1.62344180225E+007, +6.82664985471E+001, +6.42889063450E+002
+1.64220275344E+007, +7.07484958936E+001, +6.49093515364E+002
+1.66096370463E+007, +7.00444761024E+001, +6.61010782709E+002
+1.67972465582E+007, +6.98353346464E+001, +6.71214971046E+002
+1.69848560701E+007, +7.13476035049E+001, +6.81163617914E+002
+1.71724655820E+007, +6.90201052263E+001, +6.88666370409E+002
+1.73600750939E+007, +7.05118232138E+001, +7.00848250373E+002
+1.75476846058E+007, +7.11989345703E+001, +7.10337609720E+002
+1.77352941176E+007, +7.24509110534E+001, +7.26352290900E+002
+1.79229036295E+007, +7.48449653629E+001, +7.30771842406E+002
+1.81105131414E+007, +7.42145835610E+001, +7.42869887683E+002
+1.82981226533E+007, +7.63263368797E+001, +7.51505520322E+002
+1.84857321652E+007, +7.71630364850E+001, +7.66357965260E+002
+1.86733416771E+007, +7.77752633525E+001, +7.73135447785E+002
+1.88609511890E+007, +7.70685309602E+001, +7.87436009563E+002
+1.90485607009E+007, +7.73244365984E+001, +8.02399080391E+002
+1.92361702128E+007, +7.92328210072E+001, +8.11064821143E+002
+1.94237797247E+007, +8.31198911785E+001, +8.19711415287E+002
+1.96113892365E+007, +8.13658002347E+001, +8.31903518149E+002
+1.97989987484E+007, +8.47489249825E+001, +8.47815074414E+002
+1.99866082603E+007, +8.70963217919E+001, +8.59482438722E+002
+2.01742177722E+007, +8.86520075451E+001, +8.72692299407E+002
+2.03618272841E+007, +8.59817649256E+001, +8.83175532000E+002
+2.05494367960E+007, +8.86342719792E+001, +8.96016824937E+002
+2.07370463079E+007, +8.63857217964E+001, +9.08369562322E+002
+2.09246558198E+007, +8.97521082610E+001, +9.22479419299E+002
+2.11122653317E+007, +8.99635593791E+001, +9.31217530872E+002
+2.12998748436E+007, +9.22519937571E+001, +9.48931383048E+002
+2.14874843554E+007, +9.20828825020E+001, +9.58029625770E+002
+2.16750938673E+007, +9.66121467312E+001, +9.73107287599E+002
+2.18627033792E+007, +9.71075259873E+001, +9.90044485014E+002
+2.20503128911E+007, +9.30660233271E+001, +1.00067895635E+003
+2.22379224030E+007, +1.04999725949E+002, +1.01621139008E+003
+2.24255319149E+007, +1.03641075269E+002, +1.03052892213E+003
+2.26131414268E+007, +1.08415486419E+002, +1.04492741897E+003
+2.28007509387E+007, +1.04584530425E+002, +1.05919625329E+003
+2.29883604506E+007, +1.06989910846E+002, +1.08211524105E+003
+2.31759699625E+007, +1.20520646828E+002, +1.10069214488E+003
+2.33635794743E+007, +1.10313336317E+002, +1.10964424959E+003
+2.35511889862E+007, +1.24191206168E+002, +1.12099188664E+003
+2.37387984981E+007, +1.23698062117E+002, +1.14624995988E+003
+2.39264080100E+007, +1.26018125489E+002, +1.15494892842E+003
+2.41140175219E+007, +1.31291318448E+002, +1.17511332865E+003
+2.43016270338E+007, +1.34778212152E+002, +1.18851988090E+003
+2.44892365457E+007, +1.31881296392E+002, +1.19634640935E+003
+2.46768460576E+007, +1.43272506227E+002, +1.22249608931E+003
+2.48644555695E+007, +1.50582821597E+002, +1.24210795004E+003
+2.50520650814E+007, +1.48999185594E+002, +1.25392526296E+003
+2.52396745932E+007, +1.41287505551E+002, +1.25718721987E+003
+2.54272841051E+007, +1.51609155991E+002, +1.28210807821E+003
+2.56148936170E+007, +1.62214441046E+002, +1.29307647021E+003
+2.58025031289E+007, +1.61564377807E+002, +1.30794295512E+003
+2.59901126408E+007, +1.54739268722E+002, +1.33350875259E+003
+2.61777221527E+007, +1.61961436837E+002, +1.35280785712E+003
+2.63653316646E+007, +1.60093489055E+002, +1.36934027209E+003
+2.65529411765E+007, +1.61383684848E+002, +1.37903177575E+003
+2.67405506884E+007, +1.55822308505E+002, +1.40181397335E+003
+2.69281602003E+007, +1.57179743118E+002, +1.43522056870E+003
+2.71157697121E+007, +1.58234904834E+002, +1.45343940136E+003
+2.73033792240E+007, +1.59643343438E+002, +1.47628791148E+003
+2.74909887359E+007, +1.65919289763E+002, +1.49443672778E+003
+2.76785982478E+007, +1.79635587816E+002, +1.51858618514E+003
+2.78662077597E+007, +1.67907888049E+002, +1.54785626248E+003
+2.80538172716E+007, +1.77609595115E+002, +1.57012697241E+003
+2.82414267835E+007, +1.87450504631E+002, +1.58950145074E+003
+2.84290362954E+007, +1.81735259265E+002, +1.61602480080E+003
+2.86166458073E+007, +1.84537768603E+002, +1.64505731752E+003
+2.88042553191E+007, +1.90906524600E+002, +1.68070992748E+003
+2.89918648310E+007, +1.92357655598E+002, +1.71774135753E+003
+2.91794743429E+007, +1.97188085023E+002, +1.73773716151E+003
+2.93670838548E+007, +1.91111976941E+002, +1.77893795109E+003
+2.95546933667E+007, +1.89639561430E+002, +1.80834933267E+003
+2.97423028786E+007, +1.95606510220E+002, +1.84810063793E+003
+2.99299123905E+007, +2.06890332907E+002, +1.85247150174E+003
+3.01175219024E+007, +2.07659309003E+002, +1.89762169119E+003
+3.03051314143E+007, +2.27608534418E+002, +1.94353706214E+003
+3.04927409262E+007, +2.18055304714E+002, +1.96684537901E+003
+3.06803504380E+007, +2.26925453162E+002, +2.02079323982E+003
+3.08679599499E+007, +2.20529427994E+002, +2.05066204551E+003
+3.10555694618E+007, +2.31304279037E+002, +2.09042257885E+003
+3.12431789737E+007, +2.39829182616E+002, +2.13089916755E+003
+3.14307884856E+007, +2.37122983079E+002, +2.15907629478E+003
+3.16183979975E+007, +2.70350618753E+002, +2.20885265327E+003
+3.18060075094E+007, +2.65304385852E+002, +2.24212883050E+003
+3.19936170213E+007, +2.74603283734E+002, +2.30028929555E+003
+3.21812265332E+007, +2.85730639813E+002, +2.36552024585E+003
+3.23688360451E+007, +2.96281209827E+002, +2.39225621252E+003
+3.25564455569E+007, +2.78611740831E+002, +2.44113882306E+003
+3.27440550688E+007, +3.22927927372E+002, +2.51361744888E+003
+3.29316645807E+007, +3.23412078274E+002, +2.56506213772E+003
+3.31192740926E+007, +3.36938517996E+002, +2.62059958831E+003
+3.33068836045E+007, +3.59543330271E+002, +2.64986019795E+003
+3.34944931164E+007, +3.64886480975E+002, +2.76403894739E+003
+3.36821026283E+007, +3.49019669085E+002, +2.83619791563E+003
+3.38697121402E+007, +4.24837384185E+002, +2.83320347062E+003
+3.40573216521E+007, +4.47742831973E+002, +2.96610699688E+003
+3.42449311640E+007, +4.51247743103E+002, +3.02622324887E+003
+3.44325406758E+007, +4.44293046995E+002, +3.11200492998E+003
+3.46201501877E+007, +4.81596695300E+002, +3.12372305588E+003
+3.48077596996E+007, +5.30639684780E+002, +3.18496070274E+003
+3.49953692115E+007, +5.42746973518E+002, +3.38225364524E+003
+3.51829787234E+007, +5.65128781724E+002, +3.42748662397E+003
+3.53705882353E+007, +6.04489798609E+002, +3.54896439197E+003
+3.55581977472E+007, +6.33683508228E+002, +3.62784310899E+003
+3.57458072591E+007, +6.82547134274E+002, +3.69892258681E+003
+3.59334167710E+007, +7.53852582039E+002, +3.87645278762E+003
+3.61210262829E+007, +7.11479646816E+002, +3.84955471280E+003
+3.63086357947E+007, +8.14721397935E+002, +4.03942913845E+003
+3.64962453066E+007, +7.97350359097E+002, +4.14464478707E+003
+3.66838548185E+007, +8.27475183300E+002, +4.30547652468E+003
+3.68714643304E+007, +9.14336519617E+002, +4.38033667549E+003
+3.70590738423E+007, +1.05038513884E+003, +4.65262935412E+003
+3.72466833542E+007, +1.11942399936E+003, +4.82086900447E+003
+3.74342928661E+007, +1.22814208614E+003, +4.94479982617E+003
+3.76219023780E+007, +1.49638398261E+003, +5.17195812541E+003
+3.78095118899E+007, +1.32593643428E+003, +5.41647275373E+003
+3.79971214018E+007, +1.55738677957E+003, +5.50319700221E+003
+3.81847309136E+007, +1.63458087474E+003, +5.78829164549E+003
+3.83723404255E+007, +1.89055400781E+003, +5.98390658246E+003
+3.85599499374E+007, +1.91334389408E+003, +6.14637579806E+003
+3.87475594493E+007, +2.43623056509E+003, +6.73632069794E+003
+3.89351689612E+007, +2.56747492398E+003, +6.94943845755E+003
+3.91227784731E+007, +2.98672032270E+003, +7.05067400788E+003
+3.93103879850E+007, +3.36009267627E+003, +7.54679648749E+003
+3.94979974969E+007, +3.56167925508E+003, +7.65090143271E+003
+3.96856070088E+007, +4.08914624012E+003, +7.98153759855E+003
+3.98732165207E+007, +4.32799633233E+003, +8.65452492920E+003
+4.00608260325E+007, +5.27414654256E+003, +8.33949673572E+003
+4.02484355444E+007, +6.13315576081E+003, +9.48236136765E+003
+4.04360450563E+007, +7.10567481881E+003, +9.11942213217E+003
+4.06236545682E+007, +8.27683198438E+003, +9.48211700638E+003
+4.08112640801E+007, +9.36819923575E+003, +9.86550050018E+003
+4.09988735920E+007, +1.15192481514E+004, +9.18308462770E+003
+4.11864831039E+007, +1.27678298113E+004, +8.22356550994E+003
+4.13740926158E+007, +1.45101448589E+004, +7.38277001764E+003
+4.15617021277E+007, +1.50045830662E+004, +6.33532683474E+003
+4.17493116395E+007, +1.50708924716E+004, +4.61735448577E+003
+4.19369211514E+007, +1.76648822615E+004, +3.29127287776E+003
+4.21245306633E+007, +1.74250812018E+004, +1.64173624949E+002
+4.23121401752E+007, +1.73977586930E+004, -1.30892374649E+002
+4.24997496871E+007, +1.83495716459E+004, -2.41581854601E+003
+4.26873591990E+007, +1.67491913371E+004, -4.75947453155E+003
+4.28749687109E+007, +1.46008921522E+004, -5.93325098258E+003
+4.30625782228E+007, +1.43981179786E+004, -8.43229734308E+003
+4.32501877347E+007, +1.32633581874E+004, -8.26286702274E+003
+4.34377972466E+007, +1.13717574367E+004, -8.10094135384E+003
+4.36254067584E+007, +9.78287135003E+003, -9.21767082092E+003
+4.38130162703E+007, +8.23781575298E+003, -8.73805056372E+003
+4.40006257822E+007, +7.35056745927E+003, -9.07974143782E+003
+4.41882352941E+007, +7.02055692003E+003, -8.37833350836E+003
+4.43758448060E+007, +5.75224255507E+003, -8.32838512986E+003
+4.45634543179E+007, +5.26957012279E+003, -8.03097421232E+003
+4.47510638298E+007, +4.60442806078E+003, -8.12770858539E+003
+4.49386733417E+007, +3.81495064850E+003, -7.49019603441E+003
+4.51262828536E+007, +3.63804047020E+003, -7.14821409550E+003
+4.53138923655E+007, +3.38685481999E+003, -6.93650486857E+003
+4.55015018773E+007, +3.32449556268E+003, -6.35040478815E+003
+4.56891113892E+007, +2.86206675184E+003, -6.34410656655E+003
+4.58767209011E+007, +2.52284423930E+003, -6.11492662699E+003
+4.60643304130E+007, +2.41480278756E+003, -5.75604918292E+003
+4.62519399249E+007, +2.19474472529E+003, -5.54790047446E+003
+4.64395494368E+007, +2.12533767820E+003, -5.41928963020E+003
+4.66271589487E+007, +1.92281658914E+003, -5.18628984329E+003
+4.68147684606E+007, +1.75969473097E+003, -4.97776537697E+003
+4.70023779725E+007, +1.76087407869E+003, -4.83574170593E+003
+4.71899874844E+007, +1.66115512481E+003, -4.69897199254E+003
+4.73775969962E+007, +1.53095919774E+003, -4.63370076833E+003
+4.75652065081E+007, +1.41611775708E+003, -4.47501348909E+003
+4.77528160200E+007, +1.34364660232E+003, -4.22799100247E+003
+4.79404255319E+007, +1.32852224922E+003, -4.15392699180E+003
+4.81280350438E+007, +1.28995740888E+003, -4.06599118798E+003
+4.83156445557E+007, +1.24698274802E+003, -4.02222461796E+003
+4.85032540676E+007, +1.16874902988E+003, -3.86532721189E+003
+4.86908635795E+007, +1.06090393440E+003, -3.79858819276E+003
+4.88784730914E+007, +1.04843252579E+003, -3.70376432013E+003
+4.90660826033E+007, +9.69251945458E+002, -3.59204981510E+003
+4.92536921151E+007, +9.20191373620E+002, -3.47447284449E+003
+4.94413016270E+007, +8.79229459068E+002, -3.38994123647E+003
+4.96289111389E+007, +8.69932196928E+002, -3.33088727461E+003
+4.98165206508E+007, +7.82357041199E+002, -3.22795107803E+003
+5.00041301627E+007, +8.02370912132E+002, -3.14141863786E+003
+5.01917396746E+007, +7.85798391705E+002, -3.05138492227E+003
+5.03793491865E+007, +8.07323784298E+002, -3.00747990689E+003
+5.05669586984E+007, +7.60463789591E+002, -2.90939280539E+003
+5.07545682103E+007, +7.24458501563E+002, -2.86451702957E+003
+5.09421777222E+007, +7.16790749544E+002, -2.80675241084E+003
+5.11297872340E+007, +6.56205077980E+002, -2.77093298280E+003
+5.13173967459E+007, +6.48051100175E+002, -2.67969181698E+003
+5.15050062578E+007, +6.31775111134E+002, -2.67371112654E+003
+5.16926157697E+007, +6.47069773717E+002, -2.59397458239E+003
+5.18802252816E+007, +6.09961076135E+002, -2.53300669072E+003
+5.20678347935E+007, +5.51589267859E+002, -2.49064888681E+003
+5.22554443054E+007, +5.97151231637E+002, -2.45597016329E+003
+5.24430538173E+007, +5.11593514667E+002, -2.40937731120E+003
+5.26306633292E+007, +5.28602086425E+002, -2.39378633339E+003
+5.28182728411E+007, +5.15462721189E+002, -2.32295052326E+003
+5.30058823529E+007, +5.08495446129E+002, -2.30968520728E+003
+5.31934918648E+007, +4.94399618901E+002, -2.26110899737E+003
+5.33811013767E+007, +4.90529237280E+002, -2.21568235424E+003
+5.35687108886E+007, +4.54902539800E+002, -2.18624607649E+003
+5.37563204005E+007, +4.38822085909E+002, -2.15281723205E+003
+5.39439299124E+007, +4.51405117330E+002, -2.13291360713E+003
+5.41315394243E+007, +4.29794784395E+002, -2.07564141113E+003
+5.43191489362E+007, +4.21214372310E+002, -2.03564624969E+003
+5.45067584481E+007, +4.09139397715E+002, -2.00794668517E+003
+5.46943679599E+007, +3.96345316921E+002, -1.96604010899E+003
+5.48819774718E+007, +3.86793836938E+002, -1.94252861333E+003
+5.50695869837E+007, +3.84312809592E+002, -1.90025146876E+003
+5.52571964956E+007, +3.81581550249E+002, -1.87022568316E+003
+5.54448060075E+007, +3.71726592881E+002, -1.82041475345E+003
+5.56324155194E+007, +3.68391907923E+002, -1.82696102669E+003
+5.58200250313E+007, +3.60514703781E+002, -1.78957962025E+003
+5.60076345432E+007, +3.52798431369E+002, -1.77002666251E+003
+5.61952440551E+007, +3.38190136581E+002, -1.74767874009E+003
+5.63828535670E+007, +3.35716733414E+002, -1.71928426848E+003
+5.65704630788E+007, +3.27565440891E+002, -1.70864705537E+003
+5.67580725907E+007, +3.10329728590E+002, -1.67801653406E+003
+5.69456821026E+007, +2.92216402592E+002, -1.65999917543E+003
+5.71332916145E+007, +2.72919944055E+002, -1.64099433316E+003
+5.73209011264E+007, +2.79325036145E+002, -1.60184353256E+003
+5.75085106383E+007, +2.74029969819E+002, -1.58544187426E+003
+5.76961201502E+007, +2.63826282314E+002, -1.56281099882E+003
+5.78837296621E+007, +2.46588422561E+002, -1.53117524025E+003
+5.80713391740E+007, +2.52041206363E+002, -1.51675157263E+003
+5.82589486859E+007, +2.44981053464E+002, -1.48028981764E+003
+5.84465581977E+007, +2.26673481008E+002, -1.46041925572E+003
+5.86341677096E+007, +2.23371848625E+002, -1.43456041425E+003
+5.88217772215E+007, +2.17419808448E+002, -1.42764888120E+003
+5.90093867334E+007, +2.17330641059E+002, -1.38489564119E+003
+5.91969962453E+007, +2.08319122604E+002, -1.36275749162E+003
+5.93846057572E+007, +2.08307209301E+002, -1.34603991003E+003
+5.95722152691E+007, +2.08506265414E+002, -1.32095024580E+003
+5.97598247810E+007, +1.95643294449E+002, -1.29108327183E+003
+5.99474342929E+007, +1.94678405070E+002, -1.28471933156E+003
+6.01350438048E+007, +1.90647507049E+002, -1.25762964592E+003
