"# Channel 1"
"# Trace 1"
Frequency, Formatted Data, Formatted Data
+1.00000000000E+005, +7.28748469287E+002, -2.67880891410E+003
+2.87609511890E+005, +1.40501134678E+002, -9.92864793833E+002
+4.75219023780E+005, +8.08512553350E+001, -6.02730458575E+002
+6.62828535670E+005, +6.75101789836E+001, -4.35066757984E+002
+8.50438047559E+005, +6.03302485887E+001, -3.39016709573E+002
+1.03804755945E+006, +5.73283160342E+001, -2.76804756540E+002
+1.22565707134E+006, +5.56638990317E+001, -2.35884639311E+002
+1.41326658323E+006, +5.49897345859E+001, -2.04772907072E+002
+1.60087609512E+006, +5.42577758601E+001, -1.81152485618E+002
+1.78848560701E+006, +5.35189047422E+001, -1.62017683843E+002
+1.97609511890E+006, +5.29071067006E+001, -1.46585456530E+002
+2.16370463079E+006, +5.22871985277E+001, -1.33718812955E+002
+2.35131414268E+006, +5.17214637446E+001, -1.23747702310E+002
+2.53892365457E+006, +5.14970941843E+001, -1.14498562606E+002
+2.72653316646E+006, +5.16059352473E+001, -1.06616933915E+002
+2.91414267835E+006, +5.12737141592E+001, -9.99560078815E+001
+3.10175219024E+006, +5.10571452519E+001, -9.39263334484E+001
+3.28936170213E+006, +5.06841977116E+001, -8.85465267708E+001
+3.47697121402E+006, +5.06911835308E+001, -8.37845375607E+001
+3.66458072591E+006, +5.07133408422E+001, -7.93101578596E+001
+3.85219023780E+006, +5.04618016278E+001, -7.59303356357E+001
+4.03979974969E+006, +5.06210290401E+001, -7.23600499343E+001
+4.22740926158E+006, +5.05054228301E+001, -6.91722546766E+001
+4.41501877347E+006, +5.04387808831E+001, -6.62085983762E+001
+4.60262828536E+006, +5.04899139365E+001, -6.34934447235E+001
+4.79023779725E+006, +5.03057505278E+001, -6.11336431614E+001
+4.97784730914E+006, +5.02904489350E+001, -5.88051410927E+001
+5.16545682103E+006, +5.00255152777E+001, -5.67264899724E+001
+5.35306633292E+006, +5.02360523173E+001, -5.47182091494E+001
+5.54067584481E+006, +5.00397609586E+001, -5.28859671957E+001
+5.72828535670E+006, +5.01061479294E+001, -5.10989967135E+001
+5.91589486859E+006, +5.00771652566E+001, -4.95407962197E+001
+6.10350438048E+006, +5.00495150306E+001, -4.81268693701E+001
+6.29111389237E+006, +5.00121526414E+001, -4.66306706133E+001
+6.47872340426E+006, +4.99488323034E+001, -4.53434225170E+001
+6.66633291615E+006, +4.99906238183E+001, -4.40759841977E+001
+6.85394242804E+006, +4.99537948030E+001, -4.28968052570E+001
+7.04155193992E+006, +4.99063109102E+001, -4.18113187016E+001
+7.22916145181E+006, +4.99692114312E+001, -4.07107757653E+001
+7.41677096370E+006, +4.98751525068E+001, -3.96767606369E+001
+7.60438047559E+006, +4.98526656479E+001, -3.87476432289E+001
+7.79198998748E+006, +4.99157710811E+001, -3.77571718711E+001
+7.97959949937E+006, +4.97944103675E+001, -3.69699583482E+001
+8.16720901126E+006, +4.98262402520E+001, -3.61120235279E+001
+8.35481852315E+006, +4.98337621372E+001, -3.53478871599E+001
+8.54242803504E+006, +4.97691009753E+001, -3.45007037741E+001
+8.73003754693E+006, +4.98114449429E+001, -3.38545731733E+001
+8.91764705882E+006, +4.97547603748E+001, -3.31932903805E+001
+9.10525657071E+006, +4.97865735305E+001, -3.24866562769E+001
+9.29286608260E+006, +4.98059797956E+001, -3.18431672283E+001
+9.48047559449E+006, +4.97643291752E+001, -3.12496322810E+001
+9.66808510638E+006, +4.97474049124E+001, -3.06507399174E+001
+9.85569461827E+006, +4.97378965147E+001, -3.01080459525E+001
+1.00433041302E+007, +4.97307318847E+001, -2.95359902088E+001
+1.02309136421E+007, +4.97261030649E+001, -2.90124266731E+001
+1.04185231539E+007, +4.97232626908E+001, -2.85044530759E+001
+1.06061326658E+007, +4.96963064954E+001, -2.80435087485E+001
+1.07937421777E+007, +4.97057240906E+001, -2.75717888658E+001
+1.09813516896E+007, +4.96740894395E+001, -2.70981905238E+001
+1.11689612015E+007, +4.96693533038E+001, -2.66864260420E+001
+1.13565707134E+007, +4.96736221425E+001, -2.62528583886E+001
+1.15441802253E+007, +4.96882431182E+001, -2.58552696669E+001
+1.17317897372E+007, +4.96528206328E+001, -2.54520783089E+001
+1.19193992491E+007, +4.96526143377E+001, -2.50642710809E+001
+1.21070087610E+007, +4.96455670597E+001, -2.46969695590E+001
+1.22946182728E+007, +4.96536959608E+001, -2.43427219085E+001
+1.24822277847E+007, +4.96394591557E+001, -2.39507396101E+001
+1.26698372966E+007, +4.96448247300E+001, -2.36375035035E+001
+1.28574468085E+007, +4.96390810443E+001, -2.33232789007E+001
+1.30450563204E+007, +4.96276148357E+001, -2.30110033468E+001
+1.32326658323E+007, +4.96187274817E+001, -2.27051184740E+001
+1.34202753442E+007, +4.96165457587E+001, -2.23828185764E+001
+1.36078848561E+007, +4.96178509756E+001, -2.21004659322E+001
+1.37954943680E+007, +4.95982214958E+001, -2.18221791203E+001
+1.39831038798E+007, +4.96073530728E+001, -2.15314546650E+001
+1.41707133917E+007, +4.96190960458E+001, -2.12666045116E+001
+1.43583229036E+007, +4.96022495820E+001, -2.10252841370E+001
+1.45459324155E+007, +4.96002587701E+001, -2.07544017768E+001
+1.47335419274E+007, +4.96039831302E+001, -2.05097930976E+001
+1.49211514393E+007, +4.95977895468E+001, -2.02711513947E+001
+1.51087609512E+007, +4.95857723468E+001, -2.00421235034E+001
+1.52963704631E+007, +4.95873037977E+001, -1.98016390991E+001
+1.54839799750E+007, +4.95665284993E+001, -1.95785122316E+001
+1.56715894869E+007, +4.95796978490E+001, -1.93742784926E+001
+1.58591989987E+007, +4.95719392535E+001, -1.91735439991E+001
+1.60468085106E+007, +4.95710774809E+001, -1.89633147307E+001
+1.62344180225E+007, +4.95619684605E+001, -1.87512394307E+001
+1.64220275344E+007, +4.95492718164E+001, -1.85560878267E+001
+1.66096370463E+007, +4.95625260561E+001, -1.83496832266E+001
+1.67972465582E+007, +4.95488250590E+001, -1.81855765612E+001
+1.69848560701E+007, +4.95470342454E+001, -1.79884880674E+001
+1.71724655820E+007, +4.95475860708E+001, -1.78345548361E+001
+1.73600750939E+007, +4.95360947861E+001, -1.76557828303E+001
+1.75476846058E+007, +4.95337523987E+001, -1.74713541330E+001
+1.77352941176E+007, +4.95455498189E+001, -1.72937814599E+001
+1.79229036295E+007, +4.95185920745E+001, -1.71470525203E+001
+1.81105131414E+007, +4.95415922774E+001, -1.69829693186E+001
+1.82981226533E+007, +4.95090457616E+001, -1.68356576967E+001
+1.84857321652E+007, +4.95081821830E+001, -1.66754892991E+001
+1.86733416771E+007, +4.95362476062E+001, -1.65460164016E+001
+1.88609511890E+007, +4.95045598724E+001, -1.64018062945E+001
+1.90485607009E+007, +4.95087889312E+001, -1.62453719456E+001
+1.92361702128E+007, +4.94960464735E+001, -1.61176753381E+001
+1.94237797247E+007, +4.94803662814E+001, -1.59799335452E+001
+1.96113892365E+007, +4.94888576438E+001, -1.58352550809E+001
+1.97989987484E+007, +4.94935599074E+001, -1.57079177471E+001
+1.99866082603E+007, +4.94992483588E+001, -1.55840604571E+001
+2.01742177722E+007, +4.94966533875E+001, -1.54640282125E+001
+2.03618272841E+007, +4.94777720390E+001, -1.53161172273E+001
+2.05494367960E+007, +4.94814433021E+001, -1.52178962574E+001
+2.07370463079E+007, +4.94707012651E+001, -1.51017481385E+001
+2.09246558198E+007, +4.94535649644E+001, -1.49770495111E+001
+2.11122653317E+007, +4.94448082207E+001, -1.48686188212E+001
+2.12998748436E+007, +4.94561126911E+001, -1.47640393509E+001
+2.14874843554E+007, +4.94466552228E+001, -1.46648686782E+001
+2.16750938673E+007, +4.94348352068E+001, -1.45428604574E+001
+2.18627033792E+007, +4.94213153460E+001, -1.44447498060E+001
+2.20503128911E+007, +4.94287463856E+001, -1.43340659309E+001
+2.22379224030E+007, +4.94231618827E+001, -1.42522421135E+001
+2.24255319149E+007, +4.94059580390E+001, -1.41477923102E+001
+2.26131414268E+007, +4.93989991036E+001, -1.40585448173E+001
+2.28007509387E+007, +4.94023253225E+001, -1.39526529369E+001
+2.29883604506E+007, +4.93754491386E+001, -1.38568359532E+001
+2.31759699625E+007, +4.93791484240E+001, -1.37619805079E+001
+2.33635794743E+007, +4.93516684882E+001, -1.36792365456E+001
+2.35511889862E+007, +4.93480377388E+001, -1.35848408611E+001
+2.37387984981E+007, +4.93425498933E+001, -1.34856778372E+001
+2.39264080100E+007, +4.93102810764E+001, -1.33909392296E+001
+2.41140175219E+007, +4.93109527292E+001, -1.33018613930E+001
+2.43016270338E+007, +4.92806783883E+001, -1.32186406219E+001
+2.44892365457E+007, +4.92736399560E+001, -1.31057741814E+001
+2.46768460576E+007, +4.92769790978E+001, -1.30118725622E+001
+2.48644555695E+007, +4.92590002419E+001, -1.29223529777E+001
+2.50520650814E+007, +4.92604159641E+001, -1.28136068039E+001
+2.52396745932E+007, +4.92596848081E+001, -1.27320352656E+001
+2.54272841051E+007, +4.92603128754E+001, -1.26304628141E+001
+2.56148936170E+007, +4.92711782557E+001, -1.25428527305E+001
+2.58025031289E+007, +4.92866094301E+001, -1.24690526743E+001
+2.59901126408E+007, +4.92945182979E+001, -1.23880809421E+001
+2.61777221527E+007, +4.92970371368E+001, -1.23163888553E+001
+2.63653316646E+007, +4.92973648349E+001, -1.22366684125E+001
+2.65529411765E+007, +4.93119149189E+001, -1.21711259729E+001
+2.67405506884E+007, +4.93094035823E+001, -1.20993671918E+001
+2.69281602003E+007, +4.93115709034E+001, -1.20394156984E+001
+2.71157697121E+007, +4.93284221892E+001, -1.19699527245E+001
+2.73033792240E+007, +4.93307391053E+001, -1.18998388504E+001
+2.74909887359E+007, +4.93427719798E+001, -1.18378633794E+001
+2.76785982478E+007, +4.93566452453E+001, -1.17822899542E+001
+2.78662077597E+007, +4.93614817890E+001, -1.17416491825E+001
+2.80538172716E+007, +4.93527642359E+001, -1.16816959902E+001
+2.82414267835E+007, +4.93536541079E+001, -1.16162694072E+001
+2.84290362954E+007, +4.93563103655E+001, -1.15704902544E+001
+2.86166458073E+007, +4.93539007919E+001, -1.15079133567E+001
+2.88042553191E+007, +4.93600050061E+001, -1.14661035866E+001
+2.89918648310E+007, +4.93529614758E+001, -1.14177595420E+001
+2.91794743429E+007, +4.93610495108E+001, -1.13651999207E+001
+2.93670838548E+007, +4.93627061114E+001, -1.13213676073E+001
+2.95546933667E+007, +4.93553097084E+001, -1.12835279956E+001
+2.97423028786E+007, +4.93600458863E+001, -1.12174041137E+001
+2.99299123905E+007, +4.93605192796E+001, -1.11755794688E+001
+3.01175219024E+007, +4.93581144324E+001, -1.11305746657E+001
+3.03051314143E+007, +4.93455737897E+001, -1.10972572976E+001
+3.04927409262E+007, +4.93506124977E+001, -1.10530722725E+001
+3.06803504380E+007, +4.93453277361E+001, -1.10030518509E+001
+3.08679599499E+007, +4.93459956958E+001, -1.09653100331E+001
+3.10555694618E+007, +4.93286028998E+001, -1.09204404116E+001
+3.12431789737E+007, +4.93394229199E+001, -1.08886296082E+001
+3.14307884856E+007, +4.93223290855E+001, -1.08484032717E+001
+3.16183979975E+007, +4.93300291833E+001, -1.08124345178E+001
+3.18060075094E+007, +4.93137986974E+001, -1.07710966694E+001
+3.19936170213E+007, +4.93235263511E+001, -1.07355919580E+001
+3.21812265332E+007, +4.93169627115E+001, -1.07010175298E+001
+3.23688360451E+007, +4.93140121872E+001, -1.06550918953E+001
+3.25564455569E+007, +4.93071762061E+001, -1.06170746629E+001
+3.27440550688E+007, +4.93045605117E+001, -1.05877248680E+001
+3.29316645807E+007, +4.92882758658E+001, -1.05535889943E+001
+3.31192740926E+007, +4.92824698572E+001, -1.05213366591E+001
+3.33068836045E+007, +4.93025656266E+001, -1.04790849372E+001
+3.34944931164E+007, +4.92676957199E+001, -1.04566701348E+001
+3.36821026283E+007, +4.92815519287E+001, -1.04151945539E+001
+3.38697121402E+007, +4.92727698131E+001, -1.03921888689E+001
+3.40573216521E+007, +4.92657660409E+001, -1.03621982143E+001
+3.42449311640E+007, +4.92500651743E+001, -1.03273207499E+001
+3.44325406758E+007, +4.92520268622E+001, -1.02989629575E+001
+3.46201501877E+007, +4.92387681151E+001, -1.02667359441E+001
+3.48077596996E+007, +4.92427919264E+001, -1.02311924645E+001
+3.49953692115E+007, +4.92218029172E+001, -1.01936703794E+001
+3.51829787234E+007, +4.92253532561E+001, -1.01734049967E+001
+3.53705882353E+007, +4.92194087454E+001, -1.01334613793E+001
+3.55581977472E+007, +4.92190476337E+001, -1.01190184610E+001
+3.57458072591E+007, +4.92143276785E+001, -1.00876813035E+001
+3.59334167710E+007, +4.92175502818E+001, -1.00577031750E+001
+3.61210262829E+007, +4.92072945642E+001, -1.00251581607E+001
+3.63086357947E+007, +4.92017949268E+001, -1.00053869967E+001
+3.64962453066E+007, +4.91950992523E+001, -9.98416154580E+000
+3.66838548185E+007, +4.91895325219E+001, -9.96739896240E+000
+3.68714643304E+007, +4.91813661097E+001, -9.94729966917E+000
+3.70590738423E+007, +4.91832445265E+001, -9.91383047492E+000
+3.72466833542E+007, +4.91733592573E+001, -9.90101651078E+000
+3.74342928661E+007, +4.91725711484E+001, -9.87459658597E+000
+3.76219023780E+007, +4.91568625622E+001, -9.84961751192E+000
+3.78095118899E+007, +4.91377631863E+001, -9.83647643767E+000
+3.79971214018E+007, +4.91527247549E+001, -9.82513049272E+000
+3.81847309136E+007, +4.91447196427E+001, -9.80301092772E+000
+3.83723404255E+007, +4.91350857104E+001, -9.78077791289E+000
+3.85599499374E+007, +4.91265853865E+001, -9.76112732749E+000
+3.87475594493E+007, +4.91203092626E+001, -9.75050362171E+000
+3.89351689612E+007, +4.91087125842E+001, -9.73301094429E+000
+3.91227784731E+007, +4.91064503960E+001, -9.71668331039E+000
+3.93103879850E+007, +4.90954119520E+001, -9.70418115457E+000
+3.94979974969E+007, +4.90839067696E+001, -9.69927763329E+000
+3.96856070088E+007, +4.90695949294E+001, -9.68382913218E+000
+3.98732165207E+007, +4.90586114056E+001, -9.67117740627E+000
+4.00608260325E+007, +4.90452941207E+001, -9.66163015548E+000
+4.02484355444E+007, +4.90365837233E+001, -9.62928029898E+000
+4.04360450563E+007, +4.90031294140E+001, -9.63934488025E+000
+4.06236545682E+007, +4.90032854951E+001, -9.62019496141E+000
+4.08112640801E+007, +4.89926297297E+001, -9.60616228052E+000
+4.09988735920E+007, +4.89641336001E+001, -9.58046833401E+000
+4.11864831039E+007, +4.89511769186E+001, -9.56627643789E+000
+4.13740926158E+007, +4.89375570641E+001, -9.54553090833E+000
+4.15617021277E+007, +4.89210396788E+001, -9.54276242275E+000
+4.17493116395E+007, +4.89035599555E+001, -9.51494348485E+000
+4.19369211514E+007, +4.89068297223E+001, -9.50044133060E+000
+4.21245306633E+007, +4.88848613229E+001, -9.48180432922E+000
+4.23121401752E+007, +4.88705967340E+001, -9.47030125544E+000
+4.24997496871E+007, +4.88656961055E+001, -9.44608325213E+000
+4.26873591990E+007, +4.88614873115E+001, -9.42910763894E+000
+4.28749687109E+007, +4.88526975872E+001, -9.40918217254E+000
+4.30625782228E+007, +4.88467996150E+001, -9.39747146954E+000
+4.32501877347E+007, +4.88425655643E+001, -9.38580679837E+000
+4.34377972466E+007, +4.88344352892E+001, -9.37150881650E+000
+4.36254067584E+007, +4.88207426799E+001, -9.37628661500E+000
+4.38130162703E+007, +4.88227961069E+001, -9.35385689192E+000
+4.40006257822E+007, +4.88088946394E+001, -9.33926987823E+000
+4.41882352941E+007, +4.88057199245E+001, -9.33351925058E+000
+4.43758448060E+007, +4.87977717250E+001, -9.33620904054E+000
+4.45634543179E+007, +4.87956312399E+001, -9.33322777880E+000
+4.47510638298E+007, +4.87731074186E+001, -9.32475314498E+000
+4.49386733417E+007, +4.87686762170E+001, -9.32038462883E+000
+4.51262828536E+007, +4.87570406714E+001, -9.31985220738E+000
+4.53138923655E+007, +4.87427880051E+001, -9.31709162978E+000
+4.55015018773E+007, +4.87284984249E+001, -9.31744607393E+000
+4.56891113892E+007, +4.87146097544E+001, -9.30635395595E+000
+4.58767209011E+007, +4.86982887639E+001, -9.31864640358E+000
+4.60643304130E+007, +4.86795997851E+001, -9.32372490334E+000
+4.62519399249E+007, +4.86604905547E+001, -9.31228451294E+000
+4.64395494368E+007, +4.86568049011E+001, -9.30758239757E+000
+4.66271589487E+007, +4.86171057610E+001, -9.29665047800E+000
+4.68147684606E+007, +4.86200222071E+001, -9.28336950627E+000
+4.70023779725E+007, +4.86051977451E+001, -9.27518044353E+000
+4.71899874844E+007, +4.85882219395E+001, -9.27466997800E+000
+4.73775969962E+007, +4.85817402436E+001, -9.26686013314E+000
+4.75652065081E+007, +4.85613083210E+001, -9.25800409247E+000
+4.77528160200E+007, +4.85540421398E+001, -9.25167313583E+000
+4.79404255319E+007, +4.85456379774E+001, -9.25414140459E+000
+4.81280350438E+007, +4.85281699512E+001, -9.24864927002E+000
+4.83156445557E+007, +4.85308160948E+001, -9.23576792049E+000
+4.85032540676E+007, +4.85240677614E+001, -9.24050123364E+000
+4.86908635795E+007, +4.85132710110E+001, -9.25237557717E+000
+4.88784730914E+007, +4.85064350809E+001, -9.25620456231E+000
+4.90660826033E+007, +4.84970791019E+001, -9.26593765099E+000
+4.92536921151E+007, +4.84695318847E+001, -9.28014055335E+000
+4.94413016270E+007, +4.84750814795E+001, -9.28236759462E+000
+4.96289111389E+007, +4.84519083760E+001, -9.29195927154E+000
+4.98165206508E+007, +4.84244268086E+001, -9.31196574874E+000
+5.00041301627E+007, +4.84102096754E+001, -9.30519565988E+000
+5.01917396746E+007, +4.83897003944E+001, -9.30384162630E+000
+5.03793491865E+007, +4.83597188770E+001, -9.31804861979E+000
+5.05669586984E+007, +4.83474869812E+001, -9.31932348663E+000
+5.07545682103E+007, +4.83343594727E+001, -9.32089567520E+000
+5.09421777222E+007, +4.83179164111E+001, -9.31816596638E+000
+5.11297872340E+007, +4.83027116343E+001, -9.33065286111E+000
+5.13173967459E+007, +4.82871108304E+001, -9.33307835458E+000
+5.15050062578E+007, +4.82636223322E+001, -9.33950026480E+000
+5.16926157697E+007, +4.82638036981E+001, -9.34399226550E+000
+5.18802252816E+007, +4.82294619001E+001, -9.35305697323E+000
+5.20678347935E+007, +4.82179426471E+001, -9.35845706740E+000
+5.22554443054E+007, +4.82068730661E+001, -9.37308200395E+000
+5.24430538173E+007, +4.81881246964E+001, -9.37214592305E+000
+5.26306633292E+007, +4.81751773664E+001, -9.37875461212E+000
+5.28182728411E+007, +4.81526215563E+001, -9.38664701528E+000
+5.30058823529E+007, +4.81531415870E+001, -9.39416325049E+000
+5.31934918648E+007, +4.81286712147E+001, -9.39799989957E+000
+5.33811013767E+007, +4.81153283836E+001, -9.42197118696E+000
+5.35687108886E+007, +4.80991311436E+001, -9.42521433503E+000
+5.37563204005E+007, +4.80886792833E+001, -9.44246694789E+000
+5.39439299124E+007, +4.80809369037E+001, -9.47099435763E+000
+5.41315394243E+007, +4.80679301138E+001, -9.48126584756E+000
+5.43191489362E+007, +4.80444773914E+001, -9.51479175499E+000
+5.45067584481E+007, +4.80293118138E+001, -9.52050778167E+000
+5.46943679599E+007, +4.80047588791E+001, -9.55590256487E+000
+5.48819774718E+007, +4.79790809483E+001, -9.56947563205E+000
+5.50695869837E+007, +4.79495541995E+001, -9.59805826608E+000
+5.52571964956E+007, +4.79172557803E+001, -9.60946833117E+000
+5.54448060075E+007, +4.78946844098E+001, -9.62063515226E+000
+5.56324155194E+007, +4.78736633908E+001, -9.63117145313E+000
+5.58200250313E+007, +4.78494548328E+001, -9.63965825038E+000
+5.60076345432E+007, +4.78471307417E+001, -9.65009733584E+000
+5.61952440551E+007, +4.78248523847E+001, -9.66835038749E+000
+5.63828535670E+007, +4.78261017485E+001, -9.68869941920E+000
+5.65704630788E+007, +4.78107678464E+001, -9.71383676459E+000
+5.67580725907E+007, +4.78174151654E+001, -9.73886145106E+000
+5.69456821026E+007, +4.78092195842E+001, -9.77431481066E+000
+5.71332916145E+007, +4.77914336507E+001, -9.81466310682E+000
+5.73209011264E+007, +4.77712458854E+001, -9.85630164035E+000
+5.75085106383E+007, +4.77614499021E+001, -9.89612195124E+000
+5.76961201502E+007, +4.77367456804E+001, -9.93651383875E+000
+5.78837296621E+007, +4.77257733307E+001, -9.99419913312E+000
+5.80713391740E+007, +4.76933685491E+001, -1.00251624231E+001
+5.82589486859E+007, +4.76651700332E+001, -1.00809372625E+001
+5.84465581977E+007, +4.76392096933E+001, -1.01346491445E+001
+5.86341677096E+007, +4.76102944134E+001, -1.01925793646E+001
+5.88217772215E+007, +4.75825944904E+001, -1.02402371558E+001
+5.90093867334E+007, +4.75489968261E+001, -1.02863151223E+001
+5.91969962453E+007, +4.75112009338E+001, -1.03450209806E+001
+5.93846057572E+007, +4.74680345825E+001, -1.03934607365E+001
+5.95722152691E+007, +4.74379811358E+001, -1.04432721944E+001
+5.97598247810E+007, +4.73905572873E+001, -1.05070405224E+001
+5.99474342929E+007, +4.73489065020E+001, -1.05697868587E+001
+6.01350438048E+007, +4.73190706647E+001, -1.06249941312E+001
