"# Channel 1"
"# Trace 1"
Frequency, Formatted Data, Formatted Data
+1.00000000000E+005, +1.14119263909E+002, +3.29110759089E+000
+2.25031289111E+005, +1.14319762234E+002, +7.70508321689E+000
+3.50062578223E+005, +1.14295130960E+002, +1.21666980850E+001
+4.75093867334E+005, +1.14437139328E+002, +1.63337782073E+001
+6.00125156446E+005, +1.14515604998E+002, +2.05479384979E+001
+7.25156445557E+005, +1.14435493209E+002, +2.49098739031E+001
+8.50187734668E+005, +1.14383210833E+002, +2.92777655067E+001
+9.75219023780E+005, +1.14790583709E+002, +3.35949958891E+001
+1.10025031289E+006, +1.14866916302E+002, +3.78920555052E+001
+1.22528160200E+006, +1.14858898724E+002, +4.20594239070E+001
+1.35031289111E+006, +1.14980600887E+002, +4.64006797693E+001
+1.47534418023E+006, +1.15173695356E+002, +5.06195750254E+001
+1.60037546934E+006, +1.15086371130E+002, +5.51418273674E+001
+1.72540675845E+006, +1.15096226696E+002, +5.92483189226E+001
+1.85043804756E+006, +1.15036723634E+002, +6.37832755981E+001
+1.97546933667E+006, +1.15107830271E+002, +6.82707367189E+001
+2.10050062578E+006, +1.15610585352E+002, +7.23791958486E+001
+2.22553191489E+006, +1.15299428520E+002, +7.68715909858E+001
+2.35056320401E+006, +1.15381367765E+002, +8.08252888149E+001
+2.47559449312E+006, +1.15556831279E+002, +8.54615920095E+001
+2.60062578223E+006, +1.15919962875E+002, +8.98953348710E+001
+2.72565707134E+006, +1.15899481728E+002, +9.42138919603E+001
+2.85068836045E+006, +1.15963296342E+002, +9.81731452088E+001
+2.97571964956E+006, +1.16126769646E+002, +1.02769425758E+002
+3.10075093867E+006, +1.16167423190E+002, +1.07445689800E+002
+3.22578222778E+006, +1.16230979460E+002, +1.11431697649E+002
+3.35081351690E+006, +1.16686112085E+002, +1.16233976023E+002
+3.47584480601E+006, +1.16555698882E+002, +1.20330927503E+002
+3.60087609512E+006, +1.16583592493E+002, +1.24704076379E+002
+3.72590738423E+006, +1.17852140243E+002, +1.28934789052E+002
+3.85093867334E+006, +1.16843454614E+002, +1.33129251027E+002
+3.97596996245E+006, +1.17310539884E+002, +1.37804692474E+002
+4.10100125156E+006, +1.17413157014E+002, +1.42235879714E+002
+4.22603254068E+006, +1.16735783452E+002, +1.46564001194E+002
+4.35106382979E+006, +1.18333249708E+002, +1.50915017595E+002
+4.47609511890E+006, +1.18082605039E+002, +1.55597427996E+002
+4.60112640801E+006, +1.18230559907E+002, +1.59945900448E+002
+4.72615769712E+006, +1.19117729583E+002, +1.64176098968E+002
+4.85118898623E+006, +1.18974406871E+002, +1.68282194235E+002
+4.97622027534E+006, +1.19518683206E+002, +1.72482799787E+002
+5.10125156446E+006, +1.19316890655E+002, +1.77061825702E+002
+5.22628285357E+006, +1.20486657498E+002, +1.81883676048E+002
+5.35131414268E+006, +1.20096016742E+002, +1.86500496326E+002
+5.47634543179E+006, +1.20572679163E+002, +1.91231950253E+002
+5.60137672090E+006, +1.20654431837E+002, +1.95081556626E+002
+5.72640801001E+006, +1.21118397717E+002, +1.99199786009E+002
+5.85143929912E+006, +1.21329214747E+002, +2.04281706789E+002
+5.97647058824E+006, +1.21811896776E+002, +2.08748060234E+002
+6.10150187735E+006, +1.22256525232E+002, +2.13310330406E+002
+6.22653316646E+006, +1.22776171337E+002, +2.18174401286E+002
+6.35156445557E+006, +1.22632231658E+002, +2.22153428717E+002
+6.47659574468E+006, +1.23311579216E+002, +2.26740603942E+002
+6.60162703379E+006, +1.23299508166E+002, +2.31560398935E+002
+6.72665832290E+006, +1.24254787530E+002, +2.35680497167E+002
+6.85168961202E+006, +1.24175378950E+002, +2.40455510343E+002
+6.97672090113E+006, +1.24935984390E+002, +2.44878910595E+002
+7.10175219024E+006, +1.25680287326E+002, +2.49946129305E+002
+7.22678347935E+006, +1.25608244837E+002, +2.54329602825E+002
+7.35181476846E+006, +1.25933821300E+002, +2.59298332177E+002
+7.47684605757E+006, +1.26563528126E+002, +2.63495072758E+002
+7.60187734668E+006, +1.26512357608E+002, +2.68778143868E+002
+7.72690863579E+006, +1.27317083532E+002, +2.72683457263E+002
+7.85193992491E+006, +1.28126807747E+002, +2.77420928551E+002
+7.97697121402E+006, +1.27643624404E+002, +2.82410844132E+002
+8.10200250313E+006, +1.28361678290E+002, +2.86622040781E+002
+8.22703379224E+006, +1.29504262354E+002, +2.91768882798E+002
+8.35206508135E+006, +1.29255770287E+002, +2.96035368679E+002
+8.47709637046E+006, +1.29690354886E+002, +3.01459189390E+002
+8.60212765957E+006, +1.30747740145E+002, +3.06542554363E+002
+8.72715894869E+006, +1.31121511282E+002, +3.10956579602E+002
+8.85219023780E+006, +1.30874837430E+002, +3.15655349520E+002
+8.97722152691E+006, +1.32320002677E+002, +3.20339848047E+002
+9.10225281602E+006, +1.32671351495E+002, +3.24800346438E+002
+9.22728410513E+006, +1.33311537558E+002, +3.30485546995E+002
+9.35231539424E+006, +1.33429217816E+002, +3.35744402109E+002
+9.47734668335E+006, +1.32855901005E+002, +3.39949525367E+002
+9.60237797247E+006, +1.34282886887E+002, +3.44729550290E+002
+9.72740926158E+006, +1.34132151148E+002, +3.49160609294E+002
+9.85244055069E+006, +1.34684690874E+002, +3.55188932387E+002
+9.97747183980E+006, +1.35697924375E+002, +3.59718142472E+002
+1.01025031289E+007, +1.35971526405E+002, +3.65632348437E+002
+1.02275344180E+007, +1.36122857679E+002, +3.69725021629E+002
+1.03525657071E+007, +1.37510671747E+002, +3.75951119678E+002
+1.04775969962E+007, +1.37962896774E+002, +3.79800753569E+002
+1.06026282854E+007, +1.38539399713E+002, +3.85015301400E+002
+1.07276595745E+007, +1.39693258349E+002, +3.89917958914E+002
+1.08526908636E+007, +1.41091802083E+002, +3.94410847035E+002
+1.09777221527E+007, +1.40969871478E+002, +4.01020207892E+002
+1.11027534418E+007, +1.41359314337E+002, +4.05397285322E+002
+1.12277847309E+007, +1.41944314133E+002, +4.10132328125E+002
+1.13528160200E+007, +1.42099747667E+002, +4.14927078788E+002
+1.14778473091E+007, +1.42734937706E+002, +4.20388529820E+002
+1.16028785982E+007, +1.44370790024E+002, +4.25362558098E+002
+1.17279098874E+007, +1.44843690762E+002, +4.31209330042E+002
+1.18529411765E+007, +1.46276379203E+002, +4.37158402479E+002
+1.19779724656E+007, +1.46130378083E+002, +4.42536327299E+002
+1.21030037547E+007, +1.46660357123E+002, +4.48235898034E+002
+1.22280350438E+007, +1.47508284570E+002, +4.53840535373E+002
+1.23530663329E+007, +1.48630968290E+002, +4.58144885136E+002
+1.24780976220E+007, +1.49552615653E+002, +4.64003642693E+002
+1.26031289111E+007, +1.50314700336E+002, +4.69381514038E+002
+1.27281602003E+007, +1.49661887015E+002, +4.75461751220E+002
+1.28531914894E+007, +1.51429904983E+002, +4.78734758891E+002
+1.29782227785E+007, +1.50788187495E+002, +4.86382710713E+002
+1.31032540676E+007, +1.52159885198E+002, +4.91510924324E+002
+1.32282853567E+007, +1.53334904502E+002, +4.97054818252E+002
+1.33533166458E+007, +1.54832191877E+002, +5.02343288757E+002
+1.34783479349E+007, +1.54251431580E+002, +5.06760694972E+002
+1.36033792240E+007, +1.56613001544E+002, +5.14374474535E+002
+1.37284105131E+007, +1.56799221953E+002, +5.17550689414E+002
+1.38534418023E+007, +1.58912649830E+002, +5.24507028391E+002
+1.39784730914E+007, +1.59060500547E+002, +5.31507494920E+002
+1.41035043805E+007, +1.59640422243E+002, +5.36725006734E+002
+1.42285356696E+007, +1.59906978301E+002, +5.42732746515E+002
+1.43535669587E+007, +1.61553542653E+002, +5.49280278130E+002
+1.44785982478E+007, +1.62125220510E+002, +5.52769161630E+002
+1.46036295369E+007, +1.64033188672E+002, +5.60941741941E+002
+1.47286608260E+007, +1.64192698243E+002, +5.66617959747E+002
+1.48536921151E+007, +1.65935395255E+002, +5.72324720525E+002
+1.49787234043E+007, +1.65994985595E+002, +5.77014846130E+002
+1.51037546934E+007, +1.70155544164E+002, +5.82193263758E+002
+1.52287859825E+007, +1.69785534433E+002, +5.89520903285E+002
+1.53538172716E+007, +1.70708740942E+002, +5.94867667767E+002
+1.54788485607E+007, +1.73103000083E+002, +6.02434967861E+002
+1.56038798498E+007, +1.74619185568E+002, +6.08205554961E+002
+1.57289111389E+007, +1.73229404705E+002, +6.13339165742E+002
+1.58539424280E+007, +1.74868452596E+002, +6.20578989554E+002
+1.59789737171E+007, +1.76547516523E+002, +6.27267855533E+002
+1.61040050063E+007, +1.80942214379E+002, +6.33962798270E+002
+1.62290362954E+007, +1.77692232346E+002, +6.38052179633E+002
+1.63540675845E+007, +1.79274936088E+002, +6.46237592434E+002
+1.64790988736E+007, +1.80727481038E+002, +6.50812808500E+002
+1.66041301627E+007, +1.83542464905E+002, +6.58883630317E+002
+1.67291614518E+007, +1.83575915332E+002, +6.67077017571E+002
+1.68541927409E+007, +1.83502490566E+002, +6.71027546067E+002
+1.69792240300E+007, +1.84691737462E+002, +6.77878084382E+002
+1.71042553191E+007, +1.87958231284E+002, +6.88126726206E+002
+1.72292866083E+007, +1.84994992989E+002, +6.94587379265E+002
+1.73543178974E+007, +1.88456312961E+002, +7.02295620416E+002
+1.74793491865E+007, +1.92143449207E+002, +7.06673396906E+002
+1.76043804756E+007, +1.90211866231E+002, +7.13273941899E+002
+1.77294117647E+007, +1.94622977208E+002, +7.22065116067E+002
+1.78544430538E+007, +1.96024005204E+002, +7.28177676836E+002
+1.79794743429E+007, +1.96632560670E+002, +7.33402364764E+002
+1.81045056320E+007, +1.97700198738E+002, +7.39717957488E+002
+1.82295369212E+007, +2.03810592292E+002, +7.49331770182E+002
+1.83545682103E+007, +2.05241007298E+002, +7.55105647925E+002
+1.84795994994E+007, +2.03399607739E+002, +7.60971106458E+002
+1.86046307885E+007, +2.07612047457E+002, +7.72943067413E+002
+1.87296620776E+007, +2.09657750593E+002, +7.75387894338E+002
+1.88546933667E+007, +2.10607324016E+002, +7.81847059678E+002
+1.89797246558E+007, +2.13107421992E+002, +7.90024174086E+002
+1.91047559449E+007, +2.14627395263E+002, +8.00072814939E+002
+1.92297872340E+007, +2.15576102772E+002, +8.06634726838E+002
+1.93548185232E+007, +2.20798544594E+002, +8.18031003173E+002
+1.94798498123E+007, +2.22274555624E+002, +8.24192746591E+002
+1.96048811014E+007, +2.23211932634E+002, +8.28475278497E+002
+1.97299123905E+007, +2.25814987400E+002, +8.42938910944E+002
+1.98549436796E+007, +2.23165568198E+002, +8.42070377695E+002
+1.99799749687E+007, +2.28565281657E+002, +8.50541896148E+002
+2.01050062578E+007, +2.33996939702E+002, +8.62688615812E+002
+2.02300375469E+007, +2.35195969722E+002, +8.68478708666E+002
+2.03550688360E+007, +2.36144724880E+002, +8.77676455593E+002
+2.04801001252E+007, +2.40673081142E+002, +8.85722856908E+002
+2.06051314143E+007, +2.42722892179E+002, +8.92677276331E+002
+2.07301627034E+007, +2.45830280527E+002, +8.96895816067E+002
+2.08551939925E+007, +2.45766336141E+002, +9.10305434606E+002
+2.09802252816E+007, +2.47993648969E+002, +9.21382320576E+002
+2.11052565707E+007, +2.56044805911E+002, +9.28515033914E+002
+2.12302878598E+007, +2.55984057878E+002, +9.36842190252E+002
+2.13553191489E+007, +2.58948423616E+002, +9.45027777060E+002
+2.14803504380E+007, +2.58717301401E+002, +9.48619398149E+002
+2.16053817272E+007, +2.65023661380E+002, +9.62879796456E+002
+2.17304130163E+007, +2.64350632751E+002, +9.66004198078E+002
+2.18554443054E+007, +2.74537578358E+002, +9.76934718426E+002
+2.19804755945E+007, +2.71266485879E+002, +9.84391554834E+002
+2.21055068836E+007, +2.77745860519E+002, +9.94891924669E+002
+2.22305381727E+007, +2.80902641403E+002, +1.00113568687E+003
+2.23555694618E+007, +2.81091608864E+002, +1.01085919322E+003
+2.24806007509E+007, +2.85234706831E+002, +1.02537263277E+003
+2.26056320401E+007, +2.88041201475E+002, +1.02983447749E+003
+2.27306633292E+007, +2.94673436913E+002, +1.03975729279E+003
+2.28556946183E+007, +3.00264416106E+002, +1.04578158072E+003
+2.29807259074E+007, +2.99268819880E+002, +1.05618221814E+003
+2.31057571965E+007, +3.04217201641E+002, +1.06606139688E+003
+2.32307884856E+007, +2.99221708518E+002, +1.07661350267E+003
+2.33558197747E+007, +3.12495085739E+002, +1.08964608863E+003
+2.34808510638E+007, +3.09830770883E+002, +1.09119228749E+003
+2.36058823529E+007, +3.14908325876E+002, +1.10815437247E+003
+2.37309136421E+007, +3.22586562505E+002, +1.11972554834E+003
+2.38559449312E+007, +3.24259098049E+002, +1.13016130413E+003
+2.39809762203E+007, +3.36656332299E+002, +1.12801976412E+003
+2.41060075094E+007, +3.40083783612E+002, +1.14617728570E+003
+2.42310387985E+007, +3.45535957274E+002, +1.15464204772E+003
+2.43560700876E+007, +3.43013681808E+002, +1.16200843135E+003
+2.44811013767E+007, +3.52888330808E+002, +1.17531039394E+003
+2.46061326658E+007, +3.56014918879E+002, +1.17840607871E+003
+2.47311639549E+007, +3.56233683916E+002, +1.19285329376E+003
+2.48561952441E+007, +3.54560086842E+002, +1.20045148585E+003
+2.49812265332E+007, +3.63301402761E+002, +1.21515143143E+003
+2.51062578223E+007, +3.61163706552E+002, +1.22064189751E+003
+2.52312891114E+007, +3.72088151030E+002, +1.23785334331E+003
+2.53563204005E+007, +3.81311455400E+002, +1.23985684355E+003
+2.54813516896E+007, +3.83255141673E+002, +1.24780070090E+003
+2.56063829787E+007, +3.79299679931E+002, +1.26328672471E+003
+2.57314142678E+007, +3.90931636376E+002, +1.28637685363E+003
+2.58564455569E+007, +3.94334728765E+002, +1.28926243418E+003
+2.59814768461E+007, +3.95446511348E+002, +1.30722869524E+003
+2.61065081352E+007, +3.94135097903E+002, +1.32461969689E+003
+2.62315394243E+007, +4.13578098558E+002, +1.32395978407E+003
+2.63565707134E+007, +4.07154067468E+002, +1.34255019671E+003
+2.64816020025E+007, +4.22322870149E+002, +1.34747121532E+003
+2.66066332916E+007, +4.29026033670E+002, +1.35758541026E+003
+2.67316645807E+007, +4.28120932323E+002, +1.37491159105E+003
+2.68566958698E+007, +4.38768668308E+002, +1.38610144342E+003
+2.69817271589E+007, +4.42421854057E+002, +1.40952433225E+003
+2.71067584481E+007, +4.50365122959E+002, +1.43178798731E+003
+2.72317897372E+007, +4.59726841580E+002, +1.42253446489E+003
+2.73568210263E+007, +4.63280147581E+002, +1.43479487184E+003
+2.74818523154E+007, +4.74373322879E+002, +1.46040904305E+003
+2.76068836045E+007, +4.65325335813E+002, +1.48297412135E+003
+2.77319148936E+007, +4.74669920160E+002, +1.49556380051E+003
+2.78569461827E+007, +4.88829959002E+002, +1.51917776515E+003
+2.79819774718E+007, +4.86182878335E+002, +1.51488764183E+003
+2.81070087610E+007, +4.90523005479E+002, +1.53205714511E+003
+2.82320400501E+007, +5.00396344517E+002, +1.54629606257E+003
+2.83570713392E+007, +5.10340624363E+002, +1.58509217412E+003
+2.84821026283E+007, +5.30694212086E+002, +1.60215036543E+003
+2.86071339174E+007, +5.13531202041E+002, +1.58859300621E+003
+2.87321652065E+007, +5.39624240547E+002, +1.62841123848E+003
+2.88571964956E+007, +5.30180176169E+002, +1.64093968918E+003
+2.89822277847E+007, +5.54843545485E+002, +1.65354350590E+003
+2.91072590738E+007, +5.67967292816E+002, +1.69251264430E+003
+2.92322903630E+007, +5.77271970838E+002, +1.70249637502E+003
+2.93573216521E+007, +5.86778862778E+002, +1.69120464722E+003
+2.94823529412E+007, +5.89251739199E+002, +1.73780500182E+003
+2.96073842303E+007, +6.15696801571E+002, +1.74914249033E+003
+2.97324155194E+007, +5.99001192988E+002, +1.76607982263E+003
+2.98574468085E+007, +6.16061993947E+002, +1.78694798134E+003
+2.99824780976E+007, +6.33563074856E+002, +1.78642677836E+003
+3.01075093867E+007, +6.69751339835E+002, +1.79802907222E+003
+3.02325406758E+007, +6.61190333941E+002, +1.86570629743E+003
+3.03575719650E+007, +6.83479720695E+002, +1.86068455162E+003
+3.04826032541E+007, +6.83321709280E+002, +1.89376472758E+003
+3.06076345432E+007, +6.76322082229E+002, +1.92578198093E+003
+3.07326658323E+007, +7.03895756819E+002, +1.94666128656E+003
+3.08576971214E+007, +7.29643469696E+002, +1.97642970245E+003
+3.09827284105E+007, +7.43060314025E+002, +1.97570970942E+003
+3.11077596996E+007, +7.55992797809E+002, +2.00715024554E+003
+3.12327909887E+007, +7.67327007486E+002, +2.01635299498E+003
+3.13578222778E+007, +7.83624525749E+002, +2.03223985741E+003
+3.14828535670E+007, +8.16036016345E+002, +2.02581832269E+003
+3.16078848561E+007, +8.34456900382E+002, +2.05780188739E+003
+3.17329161452E+007, +8.22671775183E+002, +2.08967189972E+003
+3.18579474343E+007, +8.24243443219E+002, +2.12776778704E+003
+3.19829787234E+007, +8.72420574259E+002, +2.15039958168E+003
+3.21080100125E+007, +8.78300182667E+002, +2.20507437984E+003
+3.22330413016E+007, +9.17788332492E+002, +2.20146268372E+003
+3.23580725907E+007, +9.25174789613E+002, +2.23074830869E+003
+3.24831038798E+007, +9.60267778186E+002, +2.27415034692E+003
+3.26081351690E+007, +9.83582253924E+002, +2.34285660610E+003
+3.27331664581E+007, +9.90535880523E+002, +2.29673611903E+003
+3.28581977472E+007, +1.00907103030E+003, +2.35523332434E+003
+3.29832290363E+007, +1.05896074512E+003, +2.37835620496E+003
+3.31082603254E+007, +1.06672862681E+003, +2.40758282514E+003
+3.32332916145E+007, +1.12205410219E+003, +2.44491856995E+003
+3.33583229036E+007, +1.12809807832E+003, +2.44574394282E+003
+3.34833541927E+007, +1.13859182836E+003, +2.51270981558E+003
+3.36083854819E+007, +1.17484311523E+003, +2.52562220790E+003
+3.37334167710E+007, +1.24034811101E+003, +2.53130630181E+003
+3.38584480601E+007, +1.23974954668E+003, +2.62144158368E+003
+3.39834793492E+007, +1.26898110599E+003, +2.60115522331E+003
+3.41085106383E+007, +1.28113411202E+003, +2.66954526423E+003
+3.42335419274E+007, +1.36475118752E+003, +2.68999217948E+003
+3.43585732165E+007, +1.37646988795E+003, +2.73065951789E+003
+3.44836045056E+007, +1.39959704677E+003, +2.74340414928E+003
+3.46086357947E+007, +1.45513258049E+003, +2.81860325706E+003
+3.47336670839E+007, +1.53797713100E+003, +2.83980284438E+003
+3.48586983730E+007, +1.55010662491E+003, +2.82791115765E+003
+3.49837296621E+007, +1.61520880471E+003, +2.87867548096E+003
+3.51087609512E+007, +1.67389628298E+003, +2.89019583327E+003
+3.52337922403E+007, +1.70900551771E+003, +3.04187181097E+003
+3.53588235294E+007, +1.80210778129E+003, +2.94793018718E+003
+3.54838548185E+007, +1.84510679845E+003, +3.00721023804E+003
+3.56088861076E+007, +1.87677646816E+003, +3.06139005182E+003
+3.57339173967E+007, +1.85908829307E+003, +3.15067290827E+003
+3.58589486859E+007, +1.92528802199E+003, +3.10793434496E+003
+3.59839799750E+007, +2.01762584267E+003, +3.09247225140E+003
+3.61090112641E+007, +2.08542887311E+003, +3.15674145392E+003
+3.62340425532E+007, +2.16187056649E+003, +3.21022746063E+003
+3.63590738423E+007, +2.18911506572E+003, +3.20891618064E+003
+3.64841051314E+007, +2.29137340373E+003, +3.34194333932E+003
+3.66091364205E+007, +2.32986900453E+003, +3.36510892679E+003
+3.67341677096E+007, +2.45527724987E+003, +3.32856047601E+003
+3.68591989987E+007, +2.50135165188E+003, +3.45228683404E+003
+3.69842302879E+007, +2.67213340737E+003, +3.43462497923E+003
+3.71092615770E+007, +2.78130657950E+003, +3.45735164973E+003
+3.72342928661E+007, +2.87724934385E+003, +3.40027268640E+003
+3.73593241552E+007, +2.94472568632E+003, +3.53720520562E+003
+3.74843554443E+007, +3.04746730434E+003, +3.48269064157E+003
+3.76093867334E+007, +3.20647071091E+003, +3.50177785180E+003
+3.77344180225E+007, +3.23694269540E+003, +3.46529370386E+003
+3.78594493116E+007, +3.50228592734E+003, +3.55262894261E+003
+3.79844806008E+007, +3.50418654542E+003, +3.53940831909E+003
+3.81095118899E+007, +3.61836086015E+003, +3.64431086343E+003
+3.82345431790E+007, +3.82300459362E+003, +3.59861007580E+003
+3.83595744681E+007, +3.96548109586E+003, +3.63051890809E+003
+3.84846057572E+007, +4.03910096051E+003, +3.70048689758E+003
+3.86096370463E+007, +4.39401470798E+003, +3.60994402147E+003
+3.87346683354E+007, +4.52982111501E+003, +3.53901719108E+003
+3.88596996245E+007, +4.60302435763E+003, +3.42659991700E+003
+3.89847309136E+007, +4.77524139196E+003, +3.56449719075E+003
+3.91097622028E+007, +4.78763507239E+003, +3.17775672931E+003
+3.92347934919E+007, +5.12002164228E+003, +3.43153138409E+003
+3.93598247810E+007, +5.10456851675E+003, +3.02582582201E+003
+3.94848560701E+007, +5.55394744681E+003, +3.24137268522E+003
+3.96098873592E+007, +5.47931433258E+003, +3.09658243248E+003
+3.97349186483E+007, +5.83661145547E+003, +2.91156581463E+003
+3.98599499374E+007, +5.75257445864E+003, +2.69843854716E+003
+3.99849812265E+007, +6.38125233256E+003, +2.85936357678E+003
+4.01100125156E+007, +6.39009259129E+003, +2.43242791502E+003
