"# Channel 1"
"# Trace 1"
Frequency, Formatted Data, Formatted Data
+1.00000000000E+005, +3.71114554748E+001, +3.47998726985E+000
+2.87609511890E+005, +3.70371534975E+001, +9.85927578790E+000
+4.75219023780E+005, +3.71425855997E+001, +1.61975138255E+001
+6.62828535670E+005, +3.70662907762E+001, +2.26752389045E+001
+8.50438047559E+005, +3.70928705800E+001, +2.90936731721E+001
+1.03804755945E+006, +3.70778668977E+001, +3.54316886161E+001
+1.22565707134E+006, +3.71020522127E+001, +4.18895051669E+001
+1.41326658323E+006, +3.71120047729E+001, +4.82670379342E+001
+1.60087609512E+006, +3.71475985028E+001, +5.47633543641E+001
+1.78848560701E+006, +3.72155138286E+001, +6.11240816705E+001
+1.97609511890E+006, +3.71927879255E+001, +6.75309864170E+001
+2.16370463079E+006, +3.72974138787E+001, +7.40399902871E+001
+2.35131414268E+006, +3.71604495725E+001, +8.03670910785E+001
+2.53892365457E+006, +3.73081634597E+001, +8.68266174558E+001
+2.72653316646E+006, +3.73711990892E+001, +9.33443193814E+001
+2.91414267835E+006, +3.72687035586E+001, +9.96127015107E+001
+3.10175219024E+006, +3.74908786013E+001, +1.06006400271E+002
+3.28936170213E+006, +3.74552935121E+001, +1.12531820910E+002
+3.47697121402E+006, +3.75012531152E+001, +1.19010356492E+002
+3.66458072591E+006, +3.76372216255E+001, +1.25374921685E+002
+3.85219023780E+006, +3.77334969294E+001, +1.31776385706E+002
+4.03979974969E+006, +3.76877260100E+001, +1.38136704051E+002
+4.22740926158E+006, +3.76472626528E+001, +1.44779224945E+002
+4.41501877347E+006, +3.80440216715E+001, +1.51240607122E+002
+4.60262828536E+006, +3.78906968821E+001, +1.57646710901E+002
+4.79023779725E+006, +3.79656992444E+001, +1.64348256493E+002
+4.97784730914E+006, +3.81016455446E+001, +1.70757466268E+002
+5.16545682103E+006, +3.82972237747E+001, +1.77035976202E+002
+5.35306633292E+006, +3.85438394575E+001, +1.83650932742E+002
+5.54067584481E+006, +3.82379827760E+001, +1.90116539046E+002
+5.72828535670E+006, +3.87120675536E+001, +1.96413993065E+002
+5.91589486859E+006, +3.87173542691E+001, +2.03039447265E+002
+6.10350438048E+006, +3.86669153117E+001, +2.09503123407E+002
+6.29111389237E+006, +3.88372880539E+001, +2.15965086971E+002
+6.47872340426E+006, +3.91842361483E+001, +2.22541072228E+002
+6.66633291615E+006, +3.93718424100E+001, +2.29216183771E+002
+6.85394242804E+006, +3.96996020067E+001, +2.35518500181E+002
+7.04155193992E+006, +3.97318290293E+001, +2.42390274537E+002
+7.22916145181E+006, +3.98984245178E+001, +2.48855461396E+002
+7.41677096370E+006, +4.01366466376E+001, +2.55469557932E+002
+7.60438047559E+006, +4.02539597372E+001, +2.61871703765E+002
+7.79198998748E+006, +4.03616799418E+001, +2.68527091853E+002
+7.97959949937E+006, +4.06864018882E+001, +2.75157015629E+002
+8.16720901126E+006, +4.05115691562E+001, +2.81613514964E+002
+8.35481852315E+006, +4.10342137294E+001, +2.88472658174E+002
+8.54242803504E+006, +4.07742290728E+001, +2.95187304381E+002
+8.73003754693E+006, +4.13211979759E+001, +3.01643612599E+002
+8.91764705882E+006, +4.15775065610E+001, +3.08385593945E+002
+9.10525657071E+006, +4.15909584008E+001, +3.14994330719E+002
+9.29286608260E+006, +4.19395483920E+001, +3.21701407811E+002
+9.48047559449E+006, +4.18156804563E+001, +3.28762766862E+002
+9.66808510638E+006, +4.23345553775E+001, +3.35120465349E+002
+9.85569461827E+006, +4.23202632148E+001, +3.42116976776E+002
+1.00433041302E+007, +4.25790563595E+001, +3.48810151165E+002
+1.02309136421E+007, +4.26998480028E+001, +3.55384508567E+002
+1.04185231539E+007, +4.27035047190E+001, +3.61930618524E+002
+1.06061326658E+007, +4.31153890858E+001, +3.68765033522E+002
+1.07937421777E+007, +4.35246157995E+001, +3.75918618341E+002
+1.09813516896E+007, +4.35962252647E+001, +3.82697715271E+002
+1.11689612015E+007, +4.41798800974E+001, +3.89166240067E+002
+1.13565707134E+007, +4.38257944439E+001, +3.96320882978E+002
+1.15441802253E+007, +4.44447942412E+001, +4.03213126848E+002
+1.17317897372E+007, +4.42414266993E+001, +4.09883941917E+002
+1.19193992491E+007, +4.49689645395E+001, +4.16886185478E+002
+1.21070087610E+007, +4.52227998812E+001, +4.23706511965E+002
+1.22946182728E+007, +4.55276208254E+001, +4.30373697458E+002
+1.24822277847E+007, +4.54435646628E+001, +4.37982402119E+002
+1.26698372966E+007, +4.59194632631E+001, +4.44707123594E+002
+1.28574468085E+007, +4.57130416989E+001, +4.51623796443E+002
+1.30450563204E+007, +4.64835016944E+001, +4.58866194044E+002
+1.32326658323E+007, +4.65486517003E+001, +4.65647613740E+002
+1.34202753442E+007, +4.69516714621E+001, +4.72463702745E+002
+1.36078848561E+007, +4.72750058360E+001, +4.79494846058E+002
+1.37954943680E+007, +4.72724080828E+001, +4.86265220030E+002
+1.39831038798E+007, +4.79402617735E+001, +4.93864595228E+002
+1.41707133917E+007, +4.77813448004E+001, +5.00643290232E+002
+1.43583229036E+007, +4.79502433994E+001, +5.07957096588E+002
+1.45459324155E+007, +4.85517603273E+001, +5.14856397115E+002
+1.47335419274E+007, +4.90369435449E+001, +5.22255205117E+002
+1.49211514393E+007, +4.93183386725E+001, +5.29525682590E+002
+1.51087609512E+007, +4.95287788783E+001, +5.36191866264E+002
+1.52963704631E+007, +4.99338233356E+001, +5.44419717389E+002
+1.54839799750E+007, +5.01229491251E+001, +5.51340448989E+002
+1.56715894869E+007, +5.10188008463E+001, +5.58100312312E+002
+1.58591989987E+007, +5.12603295244E+001, +5.65660842256E+002
+1.60468085106E+007, +5.12268145885E+001, +5.73529670085E+002
+1.62344180225E+007, +5.12990042937E+001, +5.80152899946E+002
+1.64220275344E+007, +5.20079993382E+001, +5.87160949123E+002
+1.66096370463E+007, +5.20392174381E+001, +5.95375582210E+002
+1.67972465582E+007, +5.29830045670E+001, +6.02209866461E+002
+1.69848560701E+007, +5.24387782085E+001, +6.10086080469E+002
+1.71724655820E+007, +5.18977523446E+001, +6.17788006527E+002
+1.73600750939E+007, +5.25187432177E+001, +6.25329459394E+002
+1.75476846058E+007, +5.32088533098E+001, +6.32202797817E+002
+1.77352941176E+007, +5.45033849009E+001, +6.40779311439E+002
+1.79229036295E+007, +5.49798498563E+001, +6.47525951999E+002
+1.81105131414E+007, +5.52279493637E+001, +6.55203398600E+002
+1.82981226533E+007, +5.49989965448E+001, +6.63282290044E+002
+1.84857321652E+007, +5.59169127246E+001, +6.70215333633E+002
+1.86733416771E+007, +5.59589169874E+001, +6.78901116021E+002
+1.88609511890E+007, +5.64810805087E+001, +6.85100847879E+002
+1.90485607009E+007, +5.75523603053E+001, +6.93886629738E+002
+1.92361702128E+007, +5.85594882836E+001, +7.01624479390E+002
+1.94237797247E+007, +5.83901911951E+001, +7.08561301583E+002
+1.96113892365E+007, +5.99384507702E+001, +7.18182773688E+002
+1.97989987484E+007, +6.00136721458E+001, +7.25053013537E+002
+1.99866082603E+007, +5.90395003020E+001, +7.32410353704E+002
+2.01742177722E+007, +6.13616208898E+001, +7.41001812158E+002
+2.03618272841E+007, +6.10928845741E+001, +7.48585314733E+002
+2.05494367960E+007, +6.18687727092E+001, +7.56677773651E+002
+2.07370463079E+007, +6.17941254000E+001, +7.64334945158E+002
+2.09246558198E+007, +6.33646407863E+001, +7.71991683800E+002
+2.11122653317E+007, +6.30389047933E+001, +7.80216430347E+002
+2.12998748436E+007, +6.36642285740E+001, +7.89506465113E+002
+2.14874843554E+007, +6.48828355714E+001, +7.97164800288E+002
+2.16750938673E+007, +6.42356736951E+001, +8.03877535016E+002
+2.18627033792E+007, +6.43296772403E+001, +8.13902583793E+002
+2.20503128911E+007, +6.53215110876E+001, +8.21589386648E+002
+2.22379224030E+007, +6.60021653339E+001, +8.29897269475E+002
+2.24255319149E+007, +6.74506556329E+001, +8.37990058658E+002
+2.26131414268E+007, +6.84031061144E+001, +8.46402739972E+002
+2.28007509387E+007, +6.80206083547E+001, +8.56205564713E+002
+2.29883604506E+007, +7.02381796271E+001, +8.62101110520E+002
+2.31759699625E+007, +6.95953336639E+001, +8.73180114887E+002
+2.33635794743E+007, +7.12647227572E+001, +8.80036072638E+002
+2.35511889862E+007, +7.20546761674E+001, +8.87936821930E+002
+2.37387984981E+007, +7.23882815163E+001, +8.96624654517E+002
+2.39264080100E+007, +7.26633873877E+001, +9.06767329930E+002
+2.41140175219E+007, +7.45808689541E+001, +9.15840898617E+002
+2.43016270338E+007, +7.41912730520E+001, +9.24242537714E+002
+2.44892365457E+007, +7.58681892512E+001, +9.32815669634E+002
+2.46768460576E+007, +7.58956807042E+001, +9.40484834604E+002
+2.48644555695E+007, +7.74388836066E+001, +9.49723755602E+002
+2.50520650814E+007, +7.76365681258E+001, +9.57855840760E+002
+2.52396745932E+007, +8.03001131930E+001, +9.67373345037E+002
+2.54272841051E+007, +7.99688727002E+001, +9.78099346861E+002
+2.56148936170E+007, +7.95558318462E+001, +9.84459830086E+002
+2.58025031289E+007, +8.21816265985E+001, +9.96043729751E+002
+2.59901126408E+007, +8.20924390486E+001, +1.00500847161E+003
+2.61777221527E+007, +8.31117239717E+001, +1.01473596083E+003
+2.63653316646E+007, +8.38839696183E+001, +1.02099085857E+003
+2.65529411765E+007, +8.41359065951E+001, +1.03239086138E+003
+2.67405506884E+007, +8.49161027262E+001, +1.04043666014E+003
+2.69281602003E+007, +8.63869013024E+001, +1.05147774553E+003
+2.71157697121E+007, +8.92196521410E+001, +1.06122405435E+003
+2.73033792240E+007, +8.73655322193E+001, +1.07008547068E+003
+2.74909887359E+007, +8.81931920374E+001, +1.07912261073E+003
+2.76785982478E+007, +8.92726072842E+001, +1.08836357146E+003
+2.78662077597E+007, +8.91746163833E+001, +1.10087796798E+003
+2.80538172716E+007, +9.27875099600E+001, +1.10884354003E+003
+2.82414267835E+007, +9.33214108370E+001, +1.11732299820E+003
+2.84290362954E+007, +9.24891696380E+001, +1.12789802947E+003
+2.86166458073E+007, +9.41426617762E+001, +1.13631944994E+003
+2.88042553191E+007, +9.74194658855E+001, +1.14626459660E+003
+2.89918648310E+007, +9.74392567966E+001, +1.15823981887E+003
+2.91794743429E+007, +9.70469255451E+001, +1.16889337976E+003
+2.93670838548E+007, +1.00927722087E+002, +1.17917387759E+003
+2.95546933667E+007, +9.73081498711E+001, +1.18835273670E+003
+2.97423028786E+007, +1.00235713981E+002, +1.19869326886E+003
+2.99299123905E+007, +1.02679473100E+002, +1.21035995778E+003
+3.01175219024E+007, +1.01881990888E+002, +1.21973351489E+003
+3.03051314143E+007, +1.03923703460E+002, +1.23063399034E+003
+3.04927409262E+007, +1.03157345485E+002, +1.24203552091E+003
+3.06803504380E+007, +1.06325797560E+002, +1.25072894100E+003
+3.08679599499E+007, +1.04925254773E+002, +1.26023376817E+003
+3.10555694618E+007, +1.08588884828E+002, +1.27208276512E+003
+3.12431789737E+007, +1.07708524630E+002, +1.28631778466E+003
+3.14307884856E+007, +1.13753249263E+002, +1.29326626865E+003
+3.16183979975E+007, +1.10871461540E+002, +1.30681614380E+003
+3.18060075094E+007, +1.11707847555E+002, +1.31558223068E+003
+3.19936170213E+007, +1.14641002402E+002, +1.33184586227E+003
+3.21812265332E+007, +1.16440844310E+002, +1.33972230254E+003
+3.23688360451E+007, +1.16399405572E+002, +1.35131131670E+003
+3.25564455569E+007, +1.14608066914E+002, +1.36180241233E+003
+3.27440550688E+007, +1.21198526050E+002, +1.37150456538E+003
+3.29316645807E+007, +1.19886837343E+002, +1.38450836319E+003
+3.31192740926E+007, +1.18739128240E+002, +1.39984121672E+003
+3.33068836045E+007, +1.16224620341E+002, +1.40934037814E+003
+3.34944931164E+007, +1.25101656865E+002, +1.42160951106E+003
+3.36821026283E+007, +1.22784220167E+002, +1.43473425254E+003
+3.38697121402E+007, +1.25249894160E+002, +1.44606408883E+003
+3.40573216521E+007, +1.24361441871E+002, +1.45726563328E+003
+3.42449311640E+007, +1.29381447906E+002, +1.46944445505E+003
+3.44325406758E+007, +1.29428424622E+002, +1.48173225762E+003
+3.46201501877E+007, +1.33961663185E+002, +1.49676809526E+003
+3.48077596996E+007, +1.28557708027E+002, +1.51147088306E+003
+3.49953692115E+007, +1.31414667652E+002, +1.52004212043E+003
+3.51829787234E+007, +1.37626586405E+002, +1.53159414951E+003
+3.53705882353E+007, +1.42829398552E+002, +1.54431927808E+003
+3.55581977472E+007, +1.45535505876E+002, +1.55927036490E+003
+3.57458072591E+007, +1.41021634600E+002, +1.57458892199E+003
+3.59334167710E+007, +1.39928887686E+002, +1.58233253054E+003
+3.61210262829E+007, +1.45687179220E+002, +1.59797548715E+003
+3.63086357947E+007, +1.43768483909E+002, +1.61334860880E+003
+3.64962453066E+007, +1.52724989780E+002, +1.62713763220E+003
+3.66838548185E+007, +1.48834702581E+002, +1.63856624692E+003
+3.68714643304E+007, +1.48982447023E+002, +1.65045212579E+003
+3.70590738423E+007, +1.58457740682E+002, +1.66881438875E+003
+3.72466833542E+007, +1.54282480133E+002, +1.68185710501E+003
+3.74342928661E+007, +1.57622405789E+002, +1.69307101149E+003
+3.76219023780E+007, +1.60251097338E+002, +1.71063722406E+003
+3.78095118899E+007, +1.68341181698E+002, +1.72408465756E+003
+3.79971214018E+007, +1.67940646003E+002, +1.73353890721E+003
+3.81847309136E+007, +1.63883690332E+002, +1.75223071994E+003
+3.83723404255E+007, +1.69953192441E+002, +1.77001669298E+003
+3.85599499374E+007, +1.70162439444E+002, +1.78137570501E+003
+3.87475594493E+007, +1.71403676948E+002, +1.80002010827E+003
+3.89351689612E+007, +1.73194657860E+002, +1.81337772213E+003
+3.91227784731E+007, +1.75293767801E+002, +1.82769540583E+003
+3.93103879850E+007, +1.78391970836E+002, +1.83912852072E+003
+3.94979974969E+007, +1.85501280503E+002, +1.85228487700E+003
+3.96856070088E+007, +1.84658411880E+002, +1.87324360779E+003
+3.98732165207E+007, +1.85572808115E+002, +1.89497716799E+003
+4.00608260325E+007, +1.92515779717E+002, +1.90486052279E+003
+4.02484355444E+007, +1.91107657382E+002, +1.92398287855E+003
+4.04360450563E+007, +1.88891530614E+002, +1.94546068233E+003
+4.06236545682E+007, +1.95978983745E+002, +1.96504941763E+003
+4.08112640801E+007, +2.01236982618E+002, +1.97916380507E+003
+4.09988735920E+007, +2.00043022097E+002, +1.99841837006E+003
+4.11864831039E+007, +2.06817100437E+002, +2.01226296778E+003
+4.13740926158E+007, +2.09525174862E+002, +2.02910500524E+003
+4.15617021277E+007, +2.10365869037E+002, +2.04726015656E+003
+4.17493116395E+007, +2.11855237966E+002, +2.06130072189E+003
+4.19369211514E+007, +2.16736170445E+002, +2.08819965006E+003
+4.21245306633E+007, +2.25248524450E+002, +2.10010194874E+003
+4.23121401752E+007, +2.28039300363E+002, +2.11617599702E+003
+4.24997496871E+007, +2.31332186182E+002, +2.13405609362E+003
+4.26873591990E+007, +2.27574583339E+002, +2.15361060048E+003
+4.28749687109E+007, +2.36484345483E+002, +2.17750152097E+003
+4.30625782228E+007, +2.37830985963E+002, +2.18923172105E+003
+4.32501877347E+007, +2.31831903233E+002, +2.21288091780E+003
+4.34377972466E+007, +2.47164094073E+002, +2.23666344415E+003
+4.36254067584E+007, +2.44677830949E+002, +2.25461706143E+003
+4.38130162703E+007, +2.53646015654E+002, +2.27486885974E+003
+4.40006257822E+007, +2.52847545846E+002, +2.29015948448E+003
+4.41882352941E+007, +2.52131997142E+002, +2.31870888605E+003
+4.43758448060E+007, +2.59820760563E+002, +2.33456277011E+003
+4.45634543179E+007, +2.65393415881E+002, +2.36053052382E+003
+4.47510638298E+007, +2.69596904132E+002, +2.37974456612E+003
+4.49386733417E+007, +2.82680890041E+002, +2.40317504629E+003
+4.51262828536E+007, +2.74319197774E+002, +2.42152667971E+003
+4.53138923655E+007, +2.66695041916E+002, +2.45575123639E+003
+4.55015018773E+007, +2.79727965027E+002, +2.47270191427E+003
+4.56891113892E+007, +2.98627617662E+002, +2.48827325926E+003
+4.58767209011E+007, +2.74282050502E+002, +2.51258672859E+003
+4.60643304130E+007, +2.90799838111E+002, +2.54275985387E+003
+4.62519399249E+007, +2.99405695557E+002, +2.55897737398E+003
+4.64395494368E+007, +3.08407020508E+002, +2.59274508156E+003
+4.66271589487E+007, +3.14099132492E+002, +2.61009570381E+003
+4.68147684606E+007, +3.16080466561E+002, +2.64012629388E+003
+4.70023779725E+007, +3.38669150188E+002, +2.66360685841E+003
+4.71899874844E+007, +3.30847546404E+002, +2.68603768569E+003
+4.73775969962E+007, +3.37151976106E+002, +2.71968078150E+003
+4.75652065081E+007, +3.45201223401E+002, +2.74619805613E+003
+4.77528160200E+007, +3.42948349992E+002, +2.76641676544E+003
+4.79404255319E+007, +3.46392434622E+002, +2.79044867068E+003
+4.81280350438E+007, +3.58549646059E+002, +2.83555501088E+003
+4.83156445557E+007, +3.54000924104E+002, +2.86796840069E+003
+4.85032540676E+007, +3.53672114229E+002, +2.87456002825E+003
+4.86908635795E+007, +3.77031225103E+002, +2.91074071422E+003
+4.88784730914E+007, +3.83720738070E+002, +2.94385590446E+003
+4.90660826033E+007, +3.86603062854E+002, +2.98189399149E+003
+4.92536921151E+007, +4.01602553943E+002, +3.00042054248E+003
+4.94413016270E+007, +4.16005374299E+002, +3.01268579227E+003
+4.96289111389E+007, +4.28758550968E+002, +3.06288496413E+003
+4.98165206508E+007, +4.25150291613E+002, +3.10107141511E+003
+5.00041301627E+007, +4.24240625873E+002, +3.11483031774E+003
+5.01917396746E+007, +4.39079221306E+002, +3.15193184543E+003
+5.03793491865E+007, +4.52942010722E+002, +3.19492219350E+003
+5.05669586984E+007, +4.66530686280E+002, +3.21684812950E+003
+5.07545682103E+007, +4.58562409334E+002, +3.26631781398E+003
+5.09421777222E+007, +4.68950248772E+002, +3.31130290927E+003
+5.11297872340E+007, +4.93717613217E+002, +3.32651671395E+003
+5.13173967459E+007, +5.06117764886E+002, +3.38261349795E+003
+5.15050062578E+007, +5.12900337060E+002, +3.41755511485E+003
+5.16926157697E+007, +4.93376866794E+002, +3.45019817681E+003
+5.18802252816E+007, +5.25146845630E+002, +3.48295456480E+003
+5.20678347935E+007, +5.42801903199E+002, +3.50468461910E+003
+5.22554443054E+007, +5.62549775139E+002, +3.56032978755E+003
+5.24430538173E+007, +5.43332408703E+002, +3.62055019276E+003
+5.26306633292E+007, +5.95361009321E+002, +3.65463658051E+003
+5.28182728411E+007, +5.84800835041E+002, +3.69919044197E+003
+5.30058823529E+007, +6.08698089587E+002, +3.72125717455E+003
+5.31934918648E+007, +6.21973298130E+002, +3.79061714132E+003
+5.33811013767E+007, +6.38101513266E+002, +3.83424847753E+003
+5.35687108886E+007, +6.43660289708E+002, +3.87968460074E+003
+5.37563204005E+007, +6.92507008700E+002, +3.94071801044E+003
+5.39439299124E+007, +6.68922001346E+002, +3.98889191629E+003
+5.41315394243E+007, +6.84927012725E+002, +4.04869797469E+003
+5.43191489362E+007, +7.50420762158E+002, +4.08247587720E+003
+5.45067584481E+007, +7.04104136673E+002, +4.13218024390E+003
+5.46943679599E+007, +7.54645463626E+002, +4.18498491242E+003
+5.48819774718E+007, +7.45103890445E+002, +4.20969312987E+003
+5.50695869837E+007, +8.07290209682E+002, +4.30422329089E+003
+5.52571964956E+007, +8.20561881873E+002, +4.33577608276E+003
+5.54448060075E+007, +8.22958480364E+002, +4.41957552580E+003
+5.56324155194E+007, +8.42587792425E+002, +4.44888166497E+003
+5.58200250313E+007, +8.71403939358E+002, +4.50357676694E+003
+5.60076345432E+007, +8.92967776154E+002, +4.57402900142E+003
+5.61952440551E+007, +9.25366903457E+002, +4.65039822710E+003
+5.63828535670E+007, +9.64785674117E+002, +4.67628091169E+003
+5.65704630788E+007, +9.71017381110E+002, +4.76990667061E+003
+5.67580725907E+007, +1.02243679569E+003, +4.84785501287E+003
+5.69456821026E+007, +1.05908700404E+003, +4.89540078728E+003
+5.71332916145E+007, +1.08249383844E+003, +4.99551984396E+003
+5.73209011264E+007, +1.09093958666E+003, +5.05656400168E+003
+5.75085106383E+007, +1.11848339298E+003, +5.15948169697E+003
+5.76961201502E+007, +1.13184758664E+003, +5.21773986962E+003
+5.78837296621E+007, +1.16058179301E+003, +5.28254494829E+003
+5.80713391740E+007, +1.25112861161E+003, +5.36803273791E+003
+5.82589486859E+007, +1.29232836954E+003, +5.43840739339E+003
+5.84465581977E+007, +1.30202159267E+003, +5.52284463012E+003
+5.86341677096E+007, +1.33073004109E+003, +5.66636414300E+003
+5.88217772215E+007, +1.42487224662E+003, +5.72512257797E+003
+5.90093867334E+007, +1.44821670089E+003, +5.83466787276E+003
+5.91969962453E+007, +1.49090916801E+003, +5.91409830546E+003
+5.93846057572E+007, +1.52157620774E+003, +6.00287860164E+003
+5.95722152691E+007, +1.62251523218E+003, +6.08267467627E+003
+5.97598247810E+007, +1.67496341108E+003, +6.27400956654E+003
+5.99474342929E+007, +1.81197695529E+003, +6.28329251101E+003
+6.01350438048E+007, +1.78939262001E+003, +6.43666447724E+003
