"# Channel 1"
"# Trace 1"
Frequency, Formatted Data, Formatted Data
+1.00000000000E+005, +5.07283575068E+001, +3.29501696668E+000
+2.25031289111E+005, +5.05951104271E+001, +7.74036523480E+000
+3.50062578223E+005, +5.06076007218E+001, +1.20690515631E+001
+4.75093867334E+005, +5.07743745012E+001, +1.64261029108E+001
+6.00125156446E+005, +5.08906064284E+001, +2.06980660609E+001
+7.25156445557E+005, +5.08072742250E+001, +2.49893620208E+001
+8.50187734668E+005, +5.08930111127E+001, +2.92368645733E+001
+9.75219023780E+005, +5.10002504745E+001, +3.35203375771E+001
+1.10025031289E+006, +5.11360500898E+001, +3.78021475904E+001
+1.22528160200E+006, +5.11461175672E+001, +4.18434504681E+001
+1.35031289111E+006, +5.12486969129E+001, +4.60779161599E+001
+1.47534418023E+006, +5.13624620987E+001, +5.04734007168E+001
+1.60037546934E+006, +5.13236361420E+001, +5.45817337769E+001
+1.72540675845E+006, +5.15186591829E+001, +5.88769360851E+001
+1.85043804756E+006, +5.13979758309E+001, +6.33209844488E+001
+1.97546933667E+006, +5.16109989781E+001, +6.73251481620E+001
+2.10050062578E+006, +5.16762980391E+001, +7.19119033218E+001
+2.22553191489E+006, +5.16070980297E+001, +7.58525613616E+001
+2.35056320401E+006, +5.16746004271E+001, +8.00989407019E+001
+2.47559449312E+006, +5.17975099790E+001, +8.43879170472E+001
+2.60062578223E+006, +5.21613306950E+001, +8.88380328351E+001
+2.72565707134E+006, +5.22236476609E+001, +9.30474158619E+001
+2.85068836045E+006, +5.22789642662E+001, +9.70382172939E+001
+2.97571964956E+006, +5.24530127332E+001, +1.01650778306E+002
+3.10075093867E+006, +5.23907647707E+001, +1.06005166950E+002
+3.22578222778E+006, +5.25625213646E+001, +1.10055915238E+002
+3.35081351690E+006, +5.25930972797E+001, +1.14462262114E+002
+3.47584480601E+006, +5.25808690697E+001, +1.18716253888E+002
+3.60087609512E+006, +5.27512898608E+001, +1.22971788908E+002
+3.72590738423E+006, +5.40151880458E+001, +1.27890491674E+002
+3.85093867334E+006, +5.30039401248E+001, +1.31119884269E+002
+3.97596996245E+006, +5.29965929411E+001, +1.35956760601E+002
+4.10100125156E+006, +5.31340931537E+001, +1.40198307505E+002
+4.22603254068E+006, +5.28698882098E+001, +1.44804146747E+002
+4.35106382979E+006, +5.39985311951E+001, +1.48768402511E+002
+4.47609511890E+006, +5.34465101505E+001, +1.53220382940E+002
+4.60112640801E+006, +5.36626565969E+001, +1.57355527116E+002
+4.72615769712E+006, +5.39688428156E+001, +1.61766506447E+002
+4.85118898623E+006, +5.44784969456E+001, +1.66245089487E+002
+4.97622027534E+006, +5.49303317756E+001, +1.70743930197E+002
+5.10125156446E+006, +5.46938891007E+001, +1.74870420466E+002
+5.22628285357E+006, +5.54422533499E+001, +1.79465204866E+002
+5.35131414268E+006, +5.52631689354E+001, +1.84098562568E+002
+5.47634543179E+006, +5.53030763466E+001, +1.88768633790E+002
+5.60137672090E+006, +5.57224063469E+001, +1.92650019985E+002
+5.72640801001E+006, +5.57658132310E+001, +1.96677949420E+002
+5.85143929912E+006, +5.58411374180E+001, +2.01709312140E+002
+5.97647058824E+006, +5.60370908571E+001, +2.05885417155E+002
+6.10150187735E+006, +5.65577511128E+001, +2.10326237578E+002
+6.22653316646E+006, +5.64773002519E+001, +2.15056812152E+002
+6.35156445557E+006, +5.68585838753E+001, +2.19332566256E+002
+6.47659574468E+006, +5.69464328990E+001, +2.24079087972E+002
+6.60162703379E+006, +5.69680325285E+001, +2.28392269744E+002
+6.72665832290E+006, +5.78515270323E+001, +2.32627582744E+002
+6.85168961202E+006, +5.78509379038E+001, +2.37391131971E+002
+6.97672090113E+006, +5.81642163378E+001, +2.41905219949E+002
+7.10175219024E+006, +5.87713803623E+001, +2.46311290492E+002
+7.22678347935E+006, +5.87513493746E+001, +2.50719923235E+002
+7.35181476846E+006, +5.91311574509E+001, +2.55545334825E+002
+7.47684605757E+006, +5.94674155212E+001, +2.60037802754E+002
+7.60187734668E+006, +5.95849866759E+001, +2.64669516322E+002
+7.72690863579E+006, +5.99928551229E+001, +2.69577679052E+002
+7.85193992491E+006, +6.06350630753E+001, +2.73841631167E+002
+7.97697121402E+006, +6.00343182285E+001, +2.77863382123E+002
+8.10200250313E+006, +6.06907912160E+001, +2.82895029625E+002
+8.22703379224E+006, +6.08028153112E+001, +2.88188845598E+002
+8.35206508135E+006, +6.13700124774E+001, +2.91898101773E+002
+8.47709637046E+006, +6.16687360929E+001, +2.96895311032E+002
+8.60212765957E+006, +6.18950403760E+001, +3.02376819788E+002
+8.72715894869E+006, +6.25392206360E+001, +3.06223606928E+002
+8.85219023780E+006, +6.29344455570E+001, +3.11050972263E+002
+8.97722152691E+006, +6.33273591806E+001, +3.16452166713E+002
+9.10225281602E+006, +6.27915683071E+001, +3.20763607805E+002
+9.22728410513E+006, +6.36593197894E+001, +3.25335693489E+002
+9.35231539424E+006, +6.33689347295E+001, +3.30363545321E+002
+9.47734668335E+006, +6.32081970029E+001, +3.34896324546E+002
+9.60237797247E+006, +6.44401743921E+001, +3.39870493754E+002
+9.72740926158E+006, +6.44461053827E+001, +3.43978870672E+002
+9.85244055069E+006, +6.40819136364E+001, +3.49242937512E+002
+9.97747183980E+006, +6.45932039450E+001, +3.54518153230E+002
+1.01025031289E+007, +6.51066874600E+001, +3.59018526670E+002
+1.02275344180E+007, +6.45448560277E+001, +3.63526194088E+002
+1.03525657071E+007, +6.54780068846E+001, +3.69370664162E+002
+1.04775969962E+007, +6.59845160855E+001, +3.74048756388E+002
+1.06026282854E+007, +6.66432709474E+001, +3.79515056264E+002
+1.07276595745E+007, +6.71385811755E+001, +3.83979769149E+002
+1.08526908636E+007, +6.80059795367E+001, +3.89000180476E+002
+1.09777221527E+007, +6.72304607722E+001, +3.94532609886E+002
+1.11027534418E+007, +6.84121298130E+001, +3.99532102327E+002
+1.12277847309E+007, +6.97179754193E+001, +4.03925088954E+002
+1.13528160200E+007, +6.80979933865E+001, +4.08714189665E+002
+1.14778473091E+007, +7.00718492395E+001, +4.14513594596E+002
+1.16028785982E+007, +6.91796135219E+001, +4.19842433272E+002
+1.17279098874E+007, +7.00488866606E+001, +4.25399024382E+002
+1.18529411765E+007, +7.07444971087E+001, +4.29139632471E+002
+1.19779724656E+007, +7.02746314448E+001, +4.35461257826E+002
+1.21030037547E+007, +7.24423427565E+001, +4.39751221667E+002
+1.22280350438E+007, +7.08141406111E+001, +4.45576254692E+002
+1.23530663329E+007, +7.28964353474E+001, +4.51269094159E+002
+1.24780976220E+007, +7.31454800604E+001, +4.56520104478E+002
+1.26031289111E+007, +7.26694468479E+001, +4.61282224311E+002
+1.27281602003E+007, +7.28117208104E+001, +4.67152251304E+002
+1.28531914894E+007, +7.39651105763E+001, +4.70703658209E+002
+1.29782227785E+007, +7.33862244257E+001, +4.77918329125E+002
+1.31032540676E+007, +7.34595818824E+001, +4.82556515692E+002
+1.32282853567E+007, +7.51802494452E+001, +4.89280991341E+002
+1.33533166458E+007, +7.50308205212E+001, +4.93754604604E+002
+1.34783479349E+007, +7.51551241188E+001, +4.98597231914E+002
+1.36033792240E+007, +7.51028493647E+001, +5.06265633350E+002
+1.37284105131E+007, +7.81963114735E+001, +5.08274962815E+002
+1.38534418023E+007, +7.73949779544E+001, +5.14996904117E+002
+1.39784730914E+007, +7.75450559541E+001, +5.20685840600E+002
+1.41035043805E+007, +7.79870989771E+001, +5.27235372424E+002
+1.42285356696E+007, +7.90666978916E+001, +5.32451545038E+002
+1.43535669587E+007, +8.07713657110E+001, +5.38237351252E+002
+1.44785982478E+007, +8.01205314370E+001, +5.43764278109E+002
+1.46036295369E+007, +8.03728041570E+001, +5.49861350607E+002
+1.47286608260E+007, +8.01595604413E+001, +5.56842288947E+002
+1.48536921151E+007, +8.21043137007E+001, +5.61147460290E+002
+1.49787234043E+007, +8.23493216155E+001, +5.65802656881E+002
+1.51037546934E+007, +8.44222525441E+001, +5.73845231686E+002
+1.52287859825E+007, +8.56510389404E+001, +5.78456301294E+002
+1.53538172716E+007, +8.60012199125E+001, +5.85453182208E+002
+1.54788485607E+007, +8.67848170215E+001, +5.91547087026E+002
+1.56038798498E+007, +8.64606430390E+001, +5.98188037765E+002
+1.57289111389E+007, +8.48368761451E+001, +6.02346995692E+002
+1.58539424280E+007, +8.67957040085E+001, +6.10664273268E+002
+1.59789737171E+007, +8.78575780871E+001, +6.16089539162E+002
+1.61040050063E+007, +8.95734798158E+001, +6.21780632156E+002
+1.62290362954E+007, +8.89485603110E+001, +6.27469596316E+002
+1.63540675845E+007, +9.00963655303E+001, +6.36153365077E+002
+1.64790988736E+007, +8.98020069182E+001, +6.39464057553E+002
+1.66041301627E+007, +9.19682330077E+001, +6.47260728007E+002
+1.67291614518E+007, +9.23476377003E+001, +6.52972115854E+002
+1.68541927409E+007, +9.10946675046E+001, +6.59195901513E+002
+1.69792240300E+007, +9.38954073246E+001, +6.66633842898E+002
+1.71042553191E+007, +9.21373708092E+001, +6.75716317180E+002
+1.72292866083E+007, +9.21633301237E+001, +6.78866501687E+002
+1.73543178974E+007, +9.27283342561E+001, +6.88950316246E+002
+1.74793491865E+007, +9.72339571504E+001, +6.93428465565E+002
+1.76043804756E+007, +9.33758985094E+001, +7.01166812452E+002
+1.77294117647E+007, +9.74886117394E+001, +7.07835758803E+002
+1.78544430538E+007, +9.93548217690E+001, +7.12513202211E+002
+1.79794743429E+007, +9.66541909706E+001, +7.17778884873E+002
+1.81045056320E+007, +9.98719195284E+001, +7.27232995710E+002
+1.82295369212E+007, +1.02928404995E+002, +7.36598684927E+002
+1.83545682103E+007, +1.03723483114E+002, +7.43213810172E+002
+1.84795994994E+007, +1.02189200166E+002, +7.47133727490E+002
+1.86046307885E+007, +1.07393443618E+002, +7.57031790483E+002
+1.87296620776E+007, +1.07560563627E+002, +7.64104497316E+002
+1.88546933667E+007, +1.05679092057E+002, +7.68063400457E+002
+1.89797246558E+007, +1.09174755456E+002, +7.75867648429E+002
+1.91047559449E+007, +1.10464048276E+002, +7.86202787099E+002
+1.92297872340E+007, +1.10041504323E+002, +7.93900182547E+002
+1.93548185232E+007, +1.10740222576E+002, +8.00493236911E+002
+1.94798498123E+007, +1.09977278281E+002, +8.08049081101E+002
+1.96048811014E+007, +1.13146109596E+002, +8.11843753577E+002
+1.97299123905E+007, +1.16642674353E+002, +8.25802292518E+002
+1.98549436796E+007, +1.15520607705E+002, +8.27733593058E+002
+1.99799749687E+007, +1.16407159967E+002, +8.40441143255E+002
+2.01050062578E+007, +1.17547351917E+002, +8.49248918003E+002
+2.02300375469E+007, +1.20739753487E+002, +8.53432425860E+002
+2.03550688360E+007, +1.21164110005E+002, +8.60303272159E+002
+2.04801001252E+007, +1.19076229383E+002, +8.70053770049E+002
+2.06051314143E+007, +1.24956461839E+002, +8.76325771217E+002
+2.07301627034E+007, +1.26177529335E+002, +8.85159650167E+002
+2.08551939925E+007, +1.25855649079E+002, +8.90782571903E+002
+2.09802252816E+007, +1.28330840773E+002, +9.04994047741E+002
+2.11052565707E+007, +1.29590148343E+002, +9.14063106238E+002
+2.12302878598E+007, +1.29964572508E+002, +9.19245880348E+002
+2.13553191489E+007, +1.28275199412E+002, +9.27790248763E+002
+2.14803504380E+007, +1.34454946195E+002, +9.34180989964E+002
+2.16053817272E+007, +1.30138350760E+002, +9.48717569505E+002
+2.17304130163E+007, +1.37658651608E+002, +9.51483272388E+002
+2.18554443054E+007, +1.40287310004E+002, +9.65618687154E+002
+2.19804755945E+007, +1.39554067427E+002, +9.70607106811E+002
+2.21055068836E+007, +1.44320895619E+002, +9.78269407390E+002
+2.22305381727E+007, +1.45636421072E+002, +9.83406833463E+002
+2.23555694618E+007, +1.44356141537E+002, +9.98753521986E+002
+2.24806007509E+007, +1.45914569657E+002, +1.00728472701E+003
+2.26056320401E+007, +1.47938284224E+002, +1.01814552146E+003
+2.27306633292E+007, +1.50597883011E+002, +1.02824086373E+003
+2.28556946183E+007, +1.60461427186E+002, +1.03420324195E+003
+2.29807259074E+007, +1.56705744689E+002, +1.04578645699E+003
+2.31057571965E+007, +1.62472013035E+002, +1.05677430007E+003
+2.32307884856E+007, +1.56005383415E+002, +1.06784715959E+003
+2.33558197747E+007, +1.63603429413E+002, +1.08425576307E+003
+2.34808510638E+007, +1.64011038440E+002, +1.07861837823E+003
+2.36058823529E+007, +1.66301087939E+002, +1.09699378729E+003
+2.37309136421E+007, +1.71302047478E+002, +1.10952140220E+003
+2.38559449312E+007, +1.76572038159E+002, +1.12112111260E+003
+2.39809762203E+007, +1.79067145499E+002, +1.12240268137E+003
+2.41060075094E+007, +1.82255839531E+002, +1.14311828663E+003
+2.42310387985E+007, +1.92575824284E+002, +1.14041267146E+003
+2.43560700876E+007, +1.90625875216E+002, +1.15351557662E+003
+2.44811013767E+007, +1.90841066086E+002, +1.17400169412E+003
+2.46061326658E+007, +1.96228517229E+002, +1.18339406946E+003
+2.47311639549E+007, +2.04970332638E+002, +1.18623700757E+003
+2.48561952441E+007, +2.00348270702E+002, +1.19301526236E+003
+2.49812265332E+007, +1.99669497428E+002, +1.21028600853E+003
+2.51062578223E+007, +2.03079290133E+002, +1.21528968362E+003
+2.52312891114E+007, +2.12744170907E+002, +1.23754537332E+003
+2.53563204005E+007, +2.04788855393E+002, +1.23489689075E+003
+2.54813516896E+007, +2.17569300314E+002, +1.24629647363E+003
+2.56063829787E+007, +2.18267761884E+002, +1.26123829030E+003
+2.57314142678E+007, +2.24013443800E+002, +1.27450593567E+003
+2.58564455569E+007, +2.24567045928E+002, +1.28760119255E+003
+2.59814768461E+007, +2.24901305962E+002, +1.29933831314E+003
+2.61065081352E+007, +2.30831279165E+002, +1.31650660277E+003
+2.62315394243E+007, +2.34282640189E+002, +1.31957694458E+003
+2.63565707134E+007, +2.34634060161E+002, +1.32644422398E+003
+2.64816020025E+007, +2.32191775068E+002, +1.33264764269E+003
+2.66066332916E+007, +2.51075833406E+002, +1.35994688820E+003
+2.67316645807E+007, +2.43835616181E+002, +1.36368901755E+003
+2.68566958698E+007, +2.55805118601E+002, +1.37546468664E+003
+2.69817271589E+007, +2.55720094230E+002, +1.39368450861E+003
+2.71067584481E+007, +2.49155398410E+002, +1.40724320088E+003
+2.72317897372E+007, +2.60430935569E+002, +1.42289760741E+003
+2.73568210263E+007, +2.61612388652E+002, +1.42298304216E+003
+2.74818523154E+007, +2.57935367674E+002, +1.44217907137E+003
+2.76068836045E+007, +2.64166028451E+002, +1.46308481512E+003
+2.77319148936E+007, +2.64122241010E+002, +1.46838659006E+003
+2.78569461827E+007, +2.71403108813E+002, +1.49423057141E+003
+2.79819774718E+007, +2.73656992796E+002, +1.51292917895E+003
+2.81070087610E+007, +2.79562067986E+002, +1.50844386134E+003
+2.82320400501E+007, +2.92345652596E+002, +1.52588359363E+003
+2.83570713392E+007, +2.81134415534E+002, +1.55386258133E+003
+2.84821026283E+007, +3.08811750571E+002, +1.57321265222E+003
+2.86071339174E+007, +2.94545660012E+002, +1.57828812189E+003
+2.87321652065E+007, +3.03222288214E+002, +1.62277088278E+003
+2.88571964956E+007, +2.98577845704E+002, +1.61660261727E+003
+2.89822277847E+007, +3.04533571012E+002, +1.64157423888E+003
+2.91072590738E+007, +3.13406627105E+002, +1.67664353892E+003
+2.92322903630E+007, +3.11670553629E+002, +1.69289886665E+003
+2.93573216521E+007, +3.24434273092E+002, +1.68609452426E+003
+2.94823529412E+007, +3.22972454236E+002, +1.71878570808E+003
+2.96073842303E+007, +3.38677568507E+002, +1.73534681087E+003
+2.97324155194E+007, +3.41834707808E+002, +1.75880715396E+003
+2.98574468085E+007, +3.44206392305E+002, +1.76202039924E+003
+2.99824780976E+007, +3.48923660735E+002, +1.77784181794E+003
+3.01075093867E+007, +3.67002290714E+002, +1.79946440477E+003
+3.02325406758E+007, +3.54997545497E+002, +1.84581730292E+003
+3.03575719650E+007, +3.75550461582E+002, +1.85061482634E+003
+3.04826032541E+007, +3.66695269324E+002, +1.87559059142E+003
+3.06076345432E+007, +3.65700139440E+002, +1.88783094689E+003
+3.07326658323E+007, +3.76800559535E+002, +1.92622047216E+003
+3.08576971214E+007, +3.84286220581E+002, +1.96455623136E+003
+3.09827284105E+007, +4.06261574784E+002, +1.95228348660E+003
+3.11077596996E+007, +4.24237375918E+002, +1.99897839455E+003
+3.12327909887E+007, +4.17416001482E+002, +2.01157376501E+003
+3.13578222778E+007, +4.38458966574E+002, +2.03932620910E+003
+3.14828535670E+007, +4.46717485967E+002, +2.06426602581E+003
+3.16078848561E+007, +4.54798415230E+002, +2.09566708600E+003
+3.17329161452E+007, +4.59892670385E+002, +2.10635966002E+003
+3.18579474343E+007, +4.51588369924E+002, +2.13223835763E+003
+3.19829787234E+007, +4.72052946445E+002, +2.16113569710E+003
+3.21080100125E+007, +4.56630099236E+002, +2.21481564799E+003
+3.22330413016E+007, +5.15600975546E+002, +2.21922041144E+003
+3.23580725907E+007, +5.08201107930E+002, +2.25424932456E+003
+3.24831038798E+007, +5.15760363106E+002, +2.27301428342E+003
+3.26081351690E+007, +5.45016087483E+002, +2.32954316726E+003
+3.27331664581E+007, +5.55229896043E+002, +2.34058010011E+003
+3.28581977472E+007, +5.47995655050E+002, +2.37341009369E+003
+3.29832290363E+007, +5.65842017634E+002, +2.40173163985E+003
+3.31082603254E+007, +5.79579016224E+002, +2.41273182473E+003
+3.32332916145E+007, +6.06324691369E+002, +2.48961442251E+003
+3.33583229036E+007, +6.04907690466E+002, +2.51328111444E+003
+3.34833541927E+007, +6.39637655106E+002, +2.53617844135E+003
+3.36083854819E+007, +6.20349413765E+002, +2.57466105369E+003
+3.37334167710E+007, +6.54189854050E+002, +2.57665452715E+003
+3.38584480601E+007, +6.71087969997E+002, +2.67294405925E+003
+3.39834793492E+007, +6.87737861940E+002, +2.66494488905E+003
+3.41085106383E+007, +7.09351496015E+002, +2.74819078390E+003
+3.42335419274E+007, +7.55065871731E+002, +2.73576701328E+003
+3.43585732165E+007, +7.47203462993E+002, +2.84123883856E+003
+3.44836045056E+007, +7.62306030946E+002, +2.85875220680E+003
+3.46086357947E+007, +7.66446527293E+002, +2.91480808188E+003
+3.47336670839E+007, +9.01930853894E+002, +2.92389811067E+003
+3.48586983730E+007, +8.71004252822E+002, +2.99832434913E+003
+3.49837296621E+007, +9.11822095419E+002, +3.01863737473E+003
+3.51087609512E+007, +9.42600217872E+002, +3.03389012824E+003
+3.52337922403E+007, +9.50144946281E+002, +3.15233712830E+003
+3.53588235294E+007, +9.94688866208E+002, +3.14769915571E+003
+3.54838548185E+007, +1.00742178858E+003, +3.22996388757E+003
+3.56088861076E+007, +1.04396360435E+003, +3.28297245759E+003
+3.57339173967E+007, +1.01079187971E+003, +3.27308338136E+003
+3.58589486859E+007, +1.08870724109E+003, +3.29148896957E+003
+3.59839799750E+007, +1.17087829894E+003, +3.40365919425E+003
+3.61090112641E+007, +1.16436105723E+003, +3.49995955424E+003
+3.62340425532E+007, +1.27600317341E+003, +3.51151089957E+003
+3.63590738423E+007, +1.28701221873E+003, +3.56315753670E+003
+3.64841051314E+007, +1.29041144882E+003, +3.69745230536E+003
+3.66091364205E+007, +1.33999845539E+003, +3.66078437132E+003
+3.67341677096E+007, +1.44399275677E+003, +3.78247183412E+003
+3.68591989987E+007, +1.39076840160E+003, +3.84521530261E+003
+3.69842302879E+007, +1.56219284275E+003, +3.91004873296E+003
+3.71092615770E+007, +1.62835623527E+003, +3.89866471953E+003
+3.72342928661E+007, +1.69104685187E+003, +4.07443580749E+003
+3.73593241552E+007, +1.63209258158E+003, +4.18518849578E+003
+3.74843554443E+007, +1.73734160029E+003, +4.15799568465E+003
+3.76093867334E+007, +1.92776848591E+003, +4.33292359007E+003
+3.77344180225E+007, +1.96813196948E+003, +4.32430815954E+003
+3.78594493116E+007, +2.05798139256E+003, +4.43319360723E+003
+3.79844806008E+007, +2.21543073005E+003, +4.54946116205E+003
+3.81095118899E+007, +2.14276175863E+003, +4.66680514074E+003
+3.82345431790E+007, +2.52666115194E+003, +4.77662745583E+003
+3.83595744681E+007, +2.31678535439E+003, +4.72894186914E+003
+3.84846057572E+007, +2.51513516952E+003, +4.95269272150E+003
+3.86096370463E+007, +2.82788081919E+003, +5.03592862071E+003
+3.87346683354E+007, +3.07360466764E+003, +5.06237764093E+003
+3.88596996245E+007, +3.14628479641E+003, +5.04252569852E+003
+3.89847309136E+007, +3.13269334040E+003, +5.33060529886E+003
+3.91097622028E+007, +3.46842351438E+003, +5.20586243782E+003
+3.92347934919E+007, +3.46846510848E+003, +5.66212071099E+003
+3.93598247810E+007, +3.76382587718E+003, +5.30595979469E+003
+3.94848560701E+007, +4.05184123919E+003, +5.66398545500E+003
+3.96098873592E+007, +4.18742166823E+003, +5.60503587806E+003
+3.97349186483E+007, +4.44997757006E+003, +5.84176184443E+003
+3.98599499374E+007, +4.87102747372E+003, +5.70789733150E+003
+3.99849812265E+007, +5.31490469396E+003, +6.16812913090E+003
+4.01100125156E+007, +5.49260079572E+003, +5.90300907066E+003
