"# Channel 1"
"# Trace 1"
Frequency, Formatted Data, Formatted Data
+1.00000000000E+005, +5.38819945434E+001, +9.38139876118E-001
+3.18898623279E+005, +5.39657614445E+001, +1.37039334205E+000
+5.37797246558E+005, +5.40055842903E+001, +2.39537893358E+000
+7.56695869837E+005, +5.40144428542E+001, +3.40268689326E+000
+9.75594493116E+005, +5.40409770662E+001, +4.37679672545E+000
+1.19449311640E+006, +5.39876066715E+001, +5.31123464880E+000
+1.41339173967E+006, +5.38782742591E+001, +6.34865833806E+000
+1.63229036295E+006, +5.39989691779E+001, +7.22125195818E+000
+1.85118898623E+006, +5.40282146857E+001, +8.36423280927E+000
+2.07008760951E+006, +5.40005827286E+001, +9.33512552975E+000
+2.28898623279E+006, +5.40719775458E+001, +1.04357887545E+001
+2.50788485607E+006, +5.41406312172E+001, +1.13335524293E+001
+2.72678347935E+006, +5.39857591556E+001, +1.23125578759E+001
+2.94568210263E+006, +5.41097743282E+001, +1.33107394566E+001
+3.16458072591E+006, +5.39416258508E+001, +1.44212747036E+001
+3.38347934919E+006, +5.41148630947E+001, +1.53746399796E+001
+3.60237797247E+006, +5.41615728565E+001, +1.62526460126E+001
+3.82127659574E+006, +5.41319537659E+001, +1.71435498357E+001
+4.04017521902E+006, +5.43285077320E+001, +1.81272846004E+001
+4.25907384230E+006, +5.41914568822E+001, +1.91762469743E+001
+4.47797246558E+006, +5.42945081096E+001, +2.02548517511E+001
+4.69687108886E+006, +5.40403999296E+001, +2.11541584314E+001
+4.91576971214E+006, +5.40414856779E+001, +2.21461541288E+001
+5.13466833542E+006, +5.41655228991E+001, +2.31844144373E+001
+5.35356695870E+006, +5.42468796330E+001, +2.42097937716E+001
+5.57246558198E+006, +5.41983485673E+001, +2.49780124088E+001
+5.79136420526E+006, +5.42938909637E+001, +2.63034959395E+001
+6.01026282854E+006, +5.43542905118E+001, +2.70098347138E+001
+6.22916145181E+006, +5.42964218733E+001, +2.81748397079E+001
+6.44806007509E+006, +5.42618894371E+001, +2.90571775840E+001
+6.66695869837E+006, +5.43909226538E+001, +3.00541580996E+001
+6.88585732165E+006, +5.43087684032E+001, +3.10164317656E+001
+7.10475594493E+006, +5.43993711631E+001, +3.20340054852E+001
+7.32365456821E+006, +5.43734317710E+001, +3.29989272422E+001
+7.54255319149E+006, +5.43991521532E+001, +3.39696610813E+001
+7.76145181477E+006, +5.44761651248E+001, +3.49474509116E+001
+7.98035043805E+006, +5.44759649391E+001, +3.59684438579E+001
+8.19924906133E+006, +5.44607610089E+001, +3.69206764019E+001
+8.41814768461E+006, +5.45367004189E+001, +3.79058701482E+001
+8.63704630788E+006, +5.44944614554E+001, +3.88266448713E+001
+8.85594493116E+006, +5.45676737695E+001, +3.98302536380E+001
+9.07484355444E+006, +5.45000982853E+001, +4.09204342404E+001
+9.29374217772E+006, +5.45880769984E+001, +4.19141498742E+001
+9.51264080100E+006, +5.46087829180E+001, +4.27837880194E+001
+9.73153942428E+006, +5.45142196360E+001, +4.38984022329E+001
+9.95043804756E+006, +5.44924752576E+001, +4.47162184696E+001
+1.01693366708E+007, +5.46595593375E+001, +4.57351189270E+001
+1.03882352941E+007, +5.46669390947E+001, +4.67313989856E+001
+1.06071339174E+007, +5.46399847851E+001, +4.77508715485E+001
+1.08260325407E+007, +5.46417833616E+001, +4.87333385865E+001
+1.10449311640E+007, +5.46743693086E+001, +4.97185283070E+001
+1.12638297872E+007, +5.46502307455E+001, +5.07623206426E+001
+1.14827284105E+007, +5.47787117212E+001, +5.16937494068E+001
+1.17016270338E+007, +5.47713129870E+001, +5.27118019721E+001
+1.19205256571E+007, +5.47754678447E+001, +5.35595250808E+001
+1.21394242804E+007, +5.47848625074E+001, +5.45766218295E+001
+1.23583229036E+007, +5.48237649322E+001, +5.56870727251E+001
+1.25772215269E+007, +5.47129588860E+001, +5.65860565084E+001
+1.27961201502E+007, +5.48045245808E+001, +5.74921822798E+001
+1.30150187735E+007, +5.48571016390E+001, +5.85311506261E+001
+1.32339173967E+007, +5.48919447021E+001, +5.96544772493E+001
+1.34528160200E+007, +5.48090289432E+001, +6.05343594008E+001
+1.36717146433E+007, +5.48986114152E+001, +6.15544891215E+001
+1.38906132666E+007, +5.49441322899E+001, +6.25890369633E+001
+1.41095118899E+007, +5.49877426201E+001, +6.35578758701E+001
+1.43284105131E+007, +5.48887391140E+001, +6.45610711591E+001
+1.45473091364E+007, +5.49660447961E+001, +6.55947086538E+001
+1.47662077597E+007, +5.49992828386E+001, +6.65373468954E+001
+1.49851063830E+007, +5.50681253689E+001, +6.74873225621E+001
+1.52040050063E+007, +5.49969269096E+001, +6.86452701486E+001
+1.54229036295E+007, +5.50783080389E+001, +6.95705394302E+001
+1.56418022528E+007, +5.49663629160E+001, +7.05365981750E+001
+1.58607008761E+007, +5.50430825516E+001, +7.15078315243E+001
+1.60795994994E+007, +5.50526460792E+001, +7.25197882931E+001
+1.62984981227E+007, +5.51966142579E+001, +7.34869900980E+001
+1.65173967459E+007, +5.52019560319E+001, +7.44875289323E+001
+1.67362953692E+007, +5.51383319095E+001, +7.54741035587E+001
+1.69551939925E+007, +5.52004427221E+001, +7.64041689120E+001
+1.71740926158E+007, +5.50760939818E+001, +7.75656064749E+001
+1.73929912390E+007, +5.51895128126E+001, +7.85164696898E+001
+1.76118898623E+007, +5.52479090082E+001, +7.94637535810E+001
+1.78307884856E+007, +5.53631693539E+001, +8.04273534491E+001
+1.80496871089E+007, +5.53590190417E+001, +8.14679260041E+001
+1.82685857322E+007, +5.53490822418E+001, +8.24431114850E+001
+1.84874843554E+007, +5.53908404533E+001, +8.34017561831E+001
+1.87063829787E+007, +5.54248953383E+001, +8.44795563077E+001
+1.89252816020E+007, +5.53927083171E+001, +8.54935163504E+001
+1.91441802253E+007, +5.54811976339E+001, +8.63973196208E+001
+1.93630788486E+007, +5.55116746665E+001, +8.74401351020E+001
+1.95819774718E+007, +5.56188153345E+001, +8.84920106063E+001
+1.98008760951E+007, +5.55061481051E+001, +8.94390730452E+001
+2.00197747184E+007, +5.55800712738E+001, +9.05156483916E+001
+2.02386733417E+007, +5.55419894094E+001, +9.14700361446E+001
+2.04575719650E+007, +5.56429406376E+001, +9.24875864857E+001
+2.06764705882E+007, +5.56738171257E+001, +9.35020274785E+001
+2.08953692115E+007, +5.56768560767E+001, +9.45632818036E+001
+2.11142678348E+007, +5.57469442444E+001, +9.53937652750E+001
+2.13331664581E+007, +5.57661753216E+001, +9.64627644720E+001
+2.15520650814E+007, +5.57219587418E+001, +9.73618539354E+001
+2.17709637046E+007, +5.57929485794E+001, +9.83849043564E+001
+2.19898623279E+007, +5.56992793909E+001, +9.96073454649E+001
+2.22087609512E+007, +5.57412569426E+001, +1.00451930168E+002
+2.24276595745E+007, +5.59423282586E+001, +1.01675022820E+002
+2.26465581977E+007, +5.59493550486E+001, +1.02528991883E+002
+2.28654568210E+007, +5.61054783353E+001, +1.03501326064E+002
+2.30843554443E+007, +5.60667474686E+001, +1.04526933981E+002
+2.33032540676E+007, +5.61662624946E+001, +1.05495130838E+002
+2.35221526909E+007, +5.61613365731E+001, +1.06658708540E+002
+2.37410513141E+007, +5.59528701818E+001, +1.07473406554E+002
+2.39599499374E+007, +5.59497564004E+001, +1.08607928421E+002
+2.41788485607E+007, +5.61289447315E+001, +1.09490926714E+002
+2.43977471840E+007, +5.61943995640E+001, +1.10570214817E+002
+2.46166458073E+007, +5.61608128388E+001, +1.11594419520E+002
+2.48355444305E+007, +5.62249224599E+001, +1.12673171649E+002
+2.50544430538E+007, +5.63489785689E+001, +1.13686602978E+002
+2.52733416771E+007, +5.63706875271E+001, +1.14643131700E+002
+2.54922403004E+007, +5.63138491554E+001, +1.15750864315E+002
+2.57111389237E+007, +5.65065813397E+001, +1.16824061913E+002
+2.59300375469E+007, +5.64119743312E+001, +1.17777279162E+002
+2.61489361702E+007, +5.65662062379E+001, +1.18676876400E+002
+2.63678347935E+007, +5.64934363699E+001, +1.19821545353E+002
+2.65867334168E+007, +5.66442024848E+001, +1.20813351098E+002
+2.68056320401E+007, +5.67278940824E+001, +1.21753726353E+002
+2.70245306633E+007, +5.66168738444E+001, +1.22873541310E+002
+2.72434292866E+007, +5.65870245314E+001, +1.23789022269E+002
+2.74623279099E+007, +5.66722311195E+001, +1.24984733249E+002
+2.76812265332E+007, +5.66572835883E+001, +1.25900510858E+002
+2.79001251564E+007, +5.66122486877E+001, +1.26828813578E+002
+2.81190237797E+007, +5.67967804750E+001, +1.28005882243E+002
+2.83379224030E+007, +5.68861236994E+001, +1.28818860408E+002
+2.85568210263E+007, +5.67195328485E+001, +1.30037524883E+002
+2.87757196496E+007, +5.68066630917E+001, +1.31129707711E+002
+2.89946182728E+007, +5.68619000541E+001, +1.32161900557E+002
+2.92135168961E+007, +5.69522884052E+001, +1.33192961806E+002
+2.94324155194E+007, +5.70344513251E+001, +1.34276147969E+002
+2.96513141427E+007, +5.70203644457E+001, +1.35148167294E+002
+2.98702127660E+007, +5.69819145887E+001, +1.36230630977E+002
+3.00891113892E+007, +5.70221491738E+001, +1.37273039004E+002
+3.03080100125E+007, +5.72244487303E+001, +1.38170806156E+002
+3.05269086358E+007, +5.73277185592E+001, +1.39236435033E+002
+3.07458072591E+007, +5.73196842362E+001, +1.40265060449E+002
+3.09647058824E+007, +5.71176459817E+001, +1.41375429576E+002
+3.11836045056E+007, +5.73169384247E+001, +1.42384610431E+002
+3.14025031289E+007, +5.72651883138E+001, +1.43329285277E+002
+3.16214017522E+007, +5.75626981972E+001, +1.44426571885E+002
+3.18403003755E+007, +5.73611719296E+001, +1.45698063891E+002
+3.20591989987E+007, +5.74458702512E+001, +1.46476388600E+002
+3.22780976220E+007, +5.75517444616E+001, +1.47633079929E+002
+3.24969962453E+007, +5.74991143084E+001, +1.48685659206E+002
+3.27158948686E+007, +5.76223714597E+001, +1.49707220573E+002
+3.29347934919E+007, +5.74404666093E+001, +1.50534774434E+002
+3.31536921151E+007, +5.76984786618E+001, +1.51560919283E+002
+3.33725907384E+007, +5.76940227610E+001, +1.53005731010E+002
+3.35914893617E+007, +5.78512093017E+001, +1.53812295196E+002
+3.38103879850E+007, +5.78859137222E+001, +1.54857658160E+002
+3.40292866083E+007, +5.76997209620E+001, +1.55959615774E+002
+3.42481852315E+007, +5.80879031243E+001, +1.57163125362E+002
+3.44670838548E+007, +5.79273879546E+001, +1.58148810150E+002
+3.46859824781E+007, +5.80506299667E+001, +1.59244835198E+002
+3.49048811014E+007, +5.81315243206E+001, +1.60320435335E+002
+3.51237797247E+007, +5.81246149459E+001, +1.61371098907E+002
+3.53426783479E+007, +5.82511490943E+001, +1.62464657460E+002
+3.55615769712E+007, +5.81646423445E+001, +1.63601996352E+002
+3.57804755945E+007, +5.84071947688E+001, +1.64329585008E+002
+3.59993742178E+007, +5.82577829479E+001, +1.65670402283E+002
+3.62182728411E+007, +5.84214713226E+001, +1.66396389752E+002
+3.64371714643E+007, +5.85422399097E+001, +1.67585741391E+002
+3.66560700876E+007, +5.85052931127E+001, +1.68763516132E+002
+3.68749687109E+007, +5.86886518502E+001, +1.69959878982E+002
+3.70938673342E+007, +5.86160179950E+001, +1.70984527292E+002
+3.73127659574E+007, +5.87722352911E+001, +1.72102183483E+002
+3.75316645807E+007, +5.84817877179E+001, +1.72945625550E+002
+3.77505632040E+007, +5.86943065263E+001, +1.73956591233E+002
+3.79694618273E+007, +5.86574909049E+001, +1.75210998010E+002
+3.81883604506E+007, +5.87048507001E+001, +1.76369873379E+002
+3.84072590738E+007, +5.89435631152E+001, +1.77369571272E+002
+3.86261576971E+007, +5.88732453825E+001, +1.78164238882E+002
+3.88450563204E+007, +5.89500086502E+001, +1.79272085220E+002
+3.90639549437E+007, +5.92085144793E+001, +1.80355692653E+002
+3.92828535670E+007, +5.90318087241E+001, +1.81784882634E+002
+3.95017521902E+007, +5.90677079751E+001, +1.82648529289E+002
+3.97206508135E+007, +5.93664790760E+001, +1.83886974415E+002
+3.99395494368E+007, +5.91850754181E+001, +1.84546814361E+002
+4.01584480601E+007, +5.93044460902E+001, +1.86066846432E+002
+4.03773466834E+007, +5.95148054693E+001, +1.87166363837E+002
+4.05962453066E+007, +5.93032847576E+001, +1.88266189316E+002
+4.08151439299E+007, +5.94762131442E+001, +1.89067150034E+002
+4.10340425532E+007, +5.93055341549E+001, +1.90160561259E+002
+4.12529411765E+007, +5.95735222031E+001, +1.91287476423E+002
+4.14718397997E+007, +5.92808733023E+001, +1.92537750647E+002
+4.16907384230E+007, +5.96022192091E+001, +1.93594041918E+002
+4.19096370463E+007, +5.98680590960E+001, +1.94707910465E+002
+4.21285356696E+007, +5.95755035109E+001, +1.95924541785E+002
+4.23474342929E+007, +5.97443787729E+001, +1.97227114202E+002
+4.25663329161E+007, +6.01103109885E+001, +1.97952710787E+002
+4.27852315394E+007, +5.99445099352E+001, +1.99284625934E+002
+4.30041301627E+007, +6.01101195961E+001, +2.00420295772E+002
+4.32230287860E+007, +5.99864663949E+001, +2.01626778602E+002
+4.34419274093E+007, +6.01206339208E+001, +2.02408051447E+002
+4.36608260325E+007, +6.01790922058E+001, +2.03554688093E+002
+4.38797246558E+007, +5.99781627026E+001, +2.04889474751E+002
+4.40986232791E+007, +6.03957582531E+001, +2.05981135350E+002
+4.43175219024E+007, +6.01819026519E+001, +2.06918830517E+002
+4.45364205257E+007, +6.04005908183E+001, +2.08171723471E+002
+4.47553191489E+007, +6.06508163429E+001, +2.09381866393E+002
+4.49742177722E+007, +6.03862287391E+001, +2.10534605763E+002
+4.51931163955E+007, +6.05616128150E+001, +2.11277131475E+002
+4.54120150188E+007, +6.06179805508E+001, +2.12469195867E+002
+4.56309136421E+007, +6.08051124877E+001, +2.13765439897E+002
+4.58498122653E+007, +6.06875925750E+001, +2.14472712678E+002
+4.60687108886E+007, +6.05769731699E+001, +2.15879924783E+002
+4.62876095119E+007, +6.10378801054E+001, +2.17064692414E+002
+4.65065081352E+007, +6.11596989945E+001, +2.18083152401E+002
+4.67254067584E+007, +6.11411796323E+001, +2.19159733454E+002
+4.69443053817E+007, +6.08948843990E+001, +2.20156062628E+002
+4.71632040050E+007, +6.10835899731E+001, +2.21582998893E+002
+4.73821026283E+007, +6.12500546397E+001, +2.22220647118E+002
+4.76010012516E+007, +6.12427810386E+001, +2.23609729180E+002
+4.78198998748E+007, +6.11150117303E+001, +2.24882515088E+002
+4.80387984981E+007, +6.13312376479E+001, +2.26126826563E+002
+4.82576971214E+007, +6.15004956833E+001, +2.27378875742E+002
+4.84765957447E+007, +6.16750225058E+001, +2.28288391722E+002
+4.86954943680E+007, +6.16603988795E+001, +2.29349070040E+002
+4.89143929912E+007, +6.15682935965E+001, +2.30701974480E+002
+4.91332916145E+007, +6.19706573964E+001, +2.31791959734E+002
+4.93521902378E+007, +6.17126648978E+001, +2.32952518670E+002
+4.95710888611E+007, +6.21027210561E+001, +2.34163649936E+002
+4.97899874844E+007, +6.22538899921E+001, +2.34927022562E+002
+5.00088861076E+007, +6.17167946234E+001, +2.36103838000E+002
+5.02277847309E+007, +6.23498787985E+001, +2.37470528228E+002
+5.04466833542E+007, +6.22681672175E+001, +2.38623775477E+002
+5.06655819775E+007, +6.24625787865E+001, +2.39921327421E+002
+5.08844806008E+007, +6.23590469009E+001, +2.41270762264E+002
+5.11033792240E+007, +6.25611715483E+001, +2.42277504240E+002
+5.13222778473E+007, +6.28588830424E+001, +2.43620923384E+002
+5.15411764706E+007, +6.27596121830E+001, +2.44620344835E+002
+5.17600750939E+007, +6.28465539345E+001, +2.46054782660E+002
+5.19789737171E+007, +6.27417388121E+001, +2.47021505333E+002
+5.21978723404E+007, +6.30160378196E+001, +2.48167042733E+002
+5.24167709637E+007, +6.27925967246E+001, +2.49353007583E+002
+5.26356695870E+007, +6.30878906183E+001, +2.50113158763E+002
+5.28545682103E+007, +6.32715003059E+001, +2.51945867362E+002
+5.30734668335E+007, +6.31234367597E+001, +2.53064018478E+002
+5.32923654568E+007, +6.28993308234E+001, +2.54471817829E+002
+5.35112640801E+007, +6.33065093739E+001, +2.54994085514E+002
+5.37301627034E+007, +6.32941080823E+001, +2.56798954098E+002
+5.39490613267E+007, +6.32223452395E+001, +2.57994846136E+002
+5.41679599499E+007, +6.34648053371E+001, +2.58805065168E+002
+5.43868585732E+007, +6.35664603761E+001, +2.60015020261E+002
+5.46057571965E+007, +6.36921229266E+001, +2.61437164562E+002
+5.48246558198E+007, +6.36666112804E+001, +2.62552498389E+002
+5.50435544431E+007, +6.38522810427E+001, +2.64106762648E+002
+5.52624530663E+007, +6.40716025675E+001, +2.65727025749E+002
+5.54813516896E+007, +6.39968822420E+001, +2.66218896499E+002
+5.57002503129E+007, +6.44909337118E+001, +2.67594651998E+002
+5.59191489362E+007, +6.43128367783E+001, +2.68776540349E+002
+5.61380475594E+007, +6.45233984464E+001, +2.69923840729E+002
+5.63569461827E+007, +6.42321625772E+001, +2.71270971717E+002
+5.65758448060E+007, +6.46970381354E+001, +2.72291856101E+002
+5.67947434293E+007, +6.44959526147E+001, +2.73553565916E+002
+5.70136420526E+007, +6.44642871986E+001, +2.74746707895E+002
+5.72325406758E+007, +6.48598477154E+001, +2.76063633217E+002
+5.74514392991E+007, +6.48401854949E+001, +2.76837802018E+002
+5.76703379224E+007, +6.50024765241E+001, +2.78517095333E+002
+5.78892365457E+007, +6.45188740103E+001, +2.79632194108E+002
+5.81081351690E+007, +6.56349464855E+001, +2.81173830239E+002
+5.83270337922E+007, +6.49377067049E+001, +2.82555844564E+002
+5.85459324155E+007, +6.56914494542E+001, +2.83789130716E+002
+5.87648310388E+007, +6.53321940626E+001, +2.84669759886E+002
+5.89837296621E+007, +6.58044753928E+001, +2.86218644661E+002
+5.92026282854E+007, +6.59247579325E+001, +2.87473125765E+002
+5.94215269086E+007, +6.58292335770E+001, +2.88668431051E+002
+5.96404255319E+007, +6.55346934962E+001, +2.90019406033E+002
+5.98593241552E+007, +6.63436519041E+001, +2.91446640868E+002
+6.00782227785E+007, +6.59484879573E+001, +2.92430091413E+002
+6.02971214018E+007, +6.63081600654E+001, +2.93916262161E+002
+6.05160200250E+007, +6.59738959199E+001, +2.95335311999E+002
+6.07349186483E+007, +6.64987800686E+001, +2.96175764010E+002
+6.09538172716E+007, +6.58518122922E+001, +2.98019636635E+002
+6.11727158949E+007, +6.68297664627E+001, +2.99631712771E+002
+6.13916145181E+007, +6.66688834063E+001, +3.00596513698E+002
+6.16105131414E+007, +6.68555294539E+001, +3.01782329555E+002
+6.18294117647E+007, +6.75370217635E+001, +3.02894222756E+002
+6.20483103880E+007, +6.64824055383E+001, +3.04364492751E+002
+6.22672090113E+007, +6.69995014974E+001, +3.05327033846E+002
+6.24861076345E+007, +6.77235940706E+001, +3.06491594504E+002
+6.27050062578E+007, +6.78714506054E+001, +3.07908736070E+002
+6.29239048811E+007, +6.69854213349E+001, +3.09420755714E+002
+6.31428035044E+007, +6.75960367716E+001, +3.10841516097E+002
+6.33617021277E+007, +6.77660714853E+001, +3.11766134819E+002
+6.35806007509E+007, +6.77610254773E+001, +3.13447903974E+002
+6.37994993742E+007, +6.74585694223E+001, +3.15215991549E+002
+6.40183979975E+007, +6.85380677665E+001, +3.15899170345E+002
+6.42372966208E+007, +6.78191157650E+001, +3.17486760075E+002
+6.44561952441E+007, +6.80548085244E+001, +3.18677218991E+002
+6.46750938673E+007, +6.83364573489E+001, +3.20206634750E+002
+6.48939924906E+007, +6.83488880566E+001, +3.21532435046E+002
+6.51128911139E+007, +6.87321098433E+001, +3.23286221294E+002
+6.53317897372E+007, +6.95414934532E+001, +3.24413164279E+002
+6.55506883605E+007, +6.88511239924E+001, +3.25777834254E+002
+6.57695869837E+007, +6.90813032386E+001, +3.26962150882E+002
+6.59884856070E+007, +6.93480280093E+001, +3.27994039780E+002
+6.62073842303E+007, +6.94024023751E+001, +3.29858257658E+002
+6.64262828536E+007, +6.94546136885E+001, +3.31034453954E+002
+6.66451814768E+007, +6.94361273802E+001, +3.32226074101E+002
+6.68640801001E+007, +6.98364522777E+001, +3.33689999338E+002
+6.70829787234E+007, +6.95152200750E+001, +3.35202533321E+002
+6.73018773467E+007, +7.04442644203E+001, +3.36188112523E+002
+6.75207759700E+007, +7.05306722410E+001, +3.38027875132E+002
+6.77396745932E+007, +7.03240274726E+001, +3.39308958459E+002
+6.79585732165E+007, +7.12761418690E+001, +3.40874209786E+002
+6.81774718398E+007, +7.05347646771E+001, +3.42143917983E+002
+6.83963704631E+007, +7.10352568628E+001, +3.42820286396E+002
+6.86152690864E+007, +7.13542610872E+001, +3.44946890319E+002
+6.88341677096E+007, +7.17561844597E+001, +3.46117924915E+002
+6.90530663329E+007, +7.15606920111E+001, +3.48103271791E+002
+6.92719649562E+007, +7.17159118590E+001, +3.48760321818E+002
+6.94908635795E+007, +7.18921799593E+001, +3.50272495079E+002
+6.97097622028E+007, +7.20599934908E+001, +3.51819661942E+002
+6.99286608260E+007, +7.22803351252E+001, +3.53706914173E+002
+7.01475594493E+007, +7.23268821499E+001, +3.54766296565E+002
