"# Channel 1"
"# Trace 1"
Frequency, Formatted Data, Formatted Data
+1.00000000000E+005, +5.38326451057E+001, +9.33246997769E-001
+3.18898623279E+005, +5.39234427768E+001, +1.36552813262E+000
+5.37797246558E+005, +5.40570999760E+001, +2.46156944150E+000
+7.56695869837E+005, +5.40148115182E+001, +3.40981448975E+000
+9.75594493116E+005, +5.40285601554E+001, +4.42318888079E+000
+1.19449311640E+006, +5.40119834217E+001, +5.27426520586E+000
+1.41339173967E+006, +5.39048385492E+001, +6.33820222578E+000
+1.63229036295E+006, +5.39986836740E+001, +7.28287259791E+000
+1.85118898623E+006, +5.39771149968E+001, +8.39973598916E+000
+2.07008760951E+006, +5.40046230202E+001, +9.29207729789E+000
+2.28898623279E+006, +5.40469327962E+001, +1.04828889018E+001
+2.50788485607E+006, +5.41450978858E+001, +1.12853624743E+001
+2.72678347935E+006, +5.39835047642E+001, +1.23709209148E+001
+2.94568210263E+006, +5.40767723011E+001, +1.33729835728E+001
+3.16458072591E+006, +5.39119495085E+001, +1.44474887961E+001
+3.38347934919E+006, +5.41244728344E+001, +1.54192631849E+001
+3.60237797247E+006, +5.42158783146E+001, +1.63133820861E+001
+3.82127659574E+006, +5.41284098063E+001, +1.71250591271E+001
+4.04017521902E+006, +5.42875245449E+001, +1.82431790547E+001
+4.25907384230E+006, +5.41122763396E+001, +1.91856496119E+001
+4.47797246558E+006, +5.42413912003E+001, +2.03162135041E+001
+4.69687108886E+006, +5.40192746451E+001, +2.12095859668E+001
+4.91576971214E+006, +5.40817473445E+001, +2.21704332993E+001
+5.13466833542E+006, +5.41524557419E+001, +2.32277915469E+001
+5.35356695870E+006, +5.42792356989E+001, +2.42397244434E+001
+5.57246558198E+006, +5.42077576522E+001, +2.50902938927E+001
+5.79136420526E+006, +5.42449969882E+001, +2.63769509459E+001
+6.01026282854E+006, +5.43087886843E+001, +2.70554417440E+001
+6.22916145181E+006, +5.42928731449E+001, +2.83098177922E+001
+6.44806007509E+006, +5.43050275066E+001, +2.91390836281E+001
+6.66695869837E+006, +5.44089132799E+001, +3.01429094596E+001
+6.88585732165E+006, +5.43092967051E+001, +3.11424753834E+001
+7.10475594493E+006, +5.43341446256E+001, +3.20949191234E+001
+7.32365456821E+006, +5.43748283488E+001, +3.31045582185E+001
+7.54255319149E+006, +5.43660142905E+001, +3.40033827306E+001
+7.76145181477E+006, +5.44777173775E+001, +3.50354894243E+001
+7.98035043805E+006, +5.45170691156E+001, +3.60445922631E+001
+8.19924906133E+006, +5.44853865856E+001, +3.69855385440E+001
+8.41814768461E+006, +5.45534013604E+001, +3.80094765709E+001
+8.63704630788E+006, +5.44711194450E+001, +3.89744535198E+001
+8.85594493116E+006, +5.45703089606E+001, +3.99453538903E+001
+9.07484355444E+006, +5.44719481148E+001, +4.10222037800E+001
+9.29374217772E+006, +5.45744284068E+001, +4.20180080410E+001
+9.51264080100E+006, +5.45966670899E+001, +4.29165627731E+001
+9.73153942428E+006, +5.45060102807E+001, +4.39705902151E+001
+9.95043804756E+006, +5.45207756687E+001, +4.48221857486E+001
+1.01693366708E+007, +5.46138329957E+001, +4.58521455128E+001
+1.03882352941E+007, +5.46634230320E+001, +4.68497670052E+001
+1.06071339174E+007, +5.46466804262E+001, +4.78473711697E+001
+1.08260325407E+007, +5.46303175785E+001, +4.88310465102E+001
+1.10449311640E+007, +5.46479072083E+001, +4.98092301710E+001
+1.12638297872E+007, +5.46272707319E+001, +5.08741725896E+001
+1.14827284105E+007, +5.47880674938E+001, +5.17831894098E+001
+1.17016270338E+007, +5.48018253374E+001, +5.27979945774E+001
+1.19205256571E+007, +5.47486733255E+001, +5.37637348548E+001
+1.21394242804E+007, +5.47609435922E+001, +5.47084978696E+001
+1.23583229036E+007, +5.48210360086E+001, +5.58415474937E+001
+1.25772215269E+007, +5.47258420732E+001, +5.67579709972E+001
+1.27961201502E+007, +5.48314829275E+001, +5.76703551479E+001
+1.30150187735E+007, +5.48324614228E+001, +5.87029974963E+001
+1.32339173967E+007, +5.49238599450E+001, +5.97512210515E+001
+1.34528160200E+007, +5.48674343061E+001, +6.06843602355E+001
+1.36717146433E+007, +5.48687448392E+001, +6.16768960567E+001
+1.38906132666E+007, +5.48803814783E+001, +6.27110403360E+001
+1.41095118899E+007, +5.49810626384E+001, +6.37446148837E+001
+1.43284105131E+007, +5.48936340184E+001, +6.47003610415E+001
+1.45473091364E+007, +5.49656059657E+001, +6.58049377391E+001
+1.47662077597E+007, +5.50114605932E+001, +6.66982493919E+001
+1.49851063830E+007, +5.50747157706E+001, +6.76676326830E+001
+1.52040050063E+007, +5.49946585261E+001, +6.88041600818E+001
+1.54229036295E+007, +5.50739831168E+001, +6.97115798504E+001
+1.56418022528E+007, +5.50167828008E+001, +7.07080520151E+001
+1.58607008761E+007, +5.50681026697E+001, +7.16236976389E+001
+1.60795994994E+007, +5.50450480701E+001, +7.27566201318E+001
+1.62984981227E+007, +5.51823213652E+001, +7.36775514613E+001
+1.65173967459E+007, +5.51807983705E+001, +7.47110268087E+001
+1.67362953692E+007, +5.51568647268E+001, +7.56943436064E+001
+1.69551939925E+007, +5.51929928647E+001, +7.65800399540E+001
+1.71740926158E+007, +5.51083945996E+001, +7.77186761625E+001
+1.73929912390E+007, +5.51825512004E+001, +7.87151126887E+001
+1.76118898623E+007, +5.52830708904E+001, +7.95941212808E+001
+1.78307884856E+007, +5.53074362683E+001, +8.06354089410E+001
+1.80496871089E+007, +5.52960442327E+001, +8.16478203173E+001
+1.82685857322E+007, +5.53290302218E+001, +8.26272337565E+001
+1.84874843554E+007, +5.53630588970E+001, +8.36018772173E+001
+1.87063829787E+007, +5.53421361477E+001, +8.46844877681E+001
+1.89252816020E+007, +5.54101769890E+001, +8.57057022302E+001
+1.91441802253E+007, +5.54475947285E+001, +8.66341396808E+001
+1.93630788486E+007, +5.54196230518E+001, +8.76416631161E+001
+1.95819774718E+007, +5.55170127546E+001, +8.86514649749E+001
+1.98008760951E+007, +5.55064289869E+001, +8.96628771471E+001
+2.00197747184E+007, +5.55849601696E+001, +9.07398640564E+001
+2.02386733417E+007, +5.55162678204E+001, +9.16589136503E+001
+2.04575719650E+007, +5.55462093862E+001, +9.27004358853E+001
+2.06764705882E+007, +5.55748235893E+001, +9.36869024736E+001
+2.08953692115E+007, +5.56345213890E+001, +9.47097154912E+001
+2.11142678348E+007, +5.57337337598E+001, +9.56780801997E+001
+2.13331664581E+007, +5.57815748090E+001, +9.67470879182E+001
+2.15520650814E+007, +5.57658194787E+001, +9.75874298715E+001
+2.17709637046E+007, +5.57606546907E+001, +9.85864328005E+001
+2.19898623279E+007, +5.57150629041E+001, +9.97545403170E+001
+2.22087609512E+007, +5.57473323775E+001, +1.00613898189E+002
+2.24276595745E+007, +5.59837837366E+001, +1.01941788786E+002
+2.26465581977E+007, +5.58870350671E+001, +1.02715867732E+002
+2.28654568210E+007, +5.60416154814E+001, +1.03724015138E+002
+2.30843554443E+007, +5.60282217531E+001, +1.04759938561E+002
+2.33032540676E+007, +5.61061585966E+001, +1.05732086135E+002
+2.35221526909E+007, +5.60317681176E+001, +1.06937308276E+002
+2.37410513141E+007, +5.59412339211E+001, +1.07641833777E+002
+2.39599499374E+007, +5.59802593025E+001, +1.08824476981E+002
+2.41788485607E+007, +5.60885890772E+001, +1.09796007929E+002
+2.43977471840E+007, +5.60813058824E+001, +1.10917163949E+002
+2.46166458073E+007, +5.61450451649E+001, +1.11855246720E+002
+2.48355444305E+007, +5.61293419577E+001, +1.12978621922E+002
+2.50544430538E+007, +5.63508534987E+001, +1.13925999978E+002
+2.52733416771E+007, +5.63605870005E+001, +1.14884454290E+002
+2.54922403004E+007, +5.63133103323E+001, +1.15953228259E+002
+2.57111389237E+007, +5.64118050746E+001, +1.16964032867E+002
+2.59300375469E+007, +5.64302617401E+001, +1.18010678839E+002
+2.61489361702E+007, +5.64578870628E+001, +1.18941125880E+002
+2.63678347935E+007, +5.63944751117E+001, +1.20149752195E+002
+2.65867334168E+007, +5.65481027965E+001, +1.20962954664E+002
+2.68056320401E+007, +5.65449625874E+001, +1.22031635842E+002
+2.70245306633E+007, +5.65441862428E+001, +1.23144067421E+002
+2.72434292866E+007, +5.66097877635E+001, +1.23999992952E+002
+2.74623279099E+007, +5.66076745542E+001, +1.25239071067E+002
+2.76812265332E+007, +5.66210670484E+001, +1.26129637604E+002
+2.79001251564E+007, +5.66399505888E+001, +1.27147798680E+002
+2.81190237797E+007, +5.68313427374E+001, +1.28319996149E+002
+2.83379224030E+007, +5.68179343968E+001, +1.29237244334E+002
+2.85568210263E+007, +5.67483989378E+001, +1.30199441097E+002
+2.87757196496E+007, +5.66682920544E+001, +1.31380496248E+002
+2.89946182728E+007, +5.68475729108E+001, +1.32321727185E+002
+2.92135168961E+007, +5.67786183018E+001, +1.33526889506E+002
+2.94324155194E+007, +5.69591128983E+001, +1.34452239785E+002
+2.96513141427E+007, +5.69149008755E+001, +1.35413599930E+002
+2.98702127660E+007, +5.69966313513E+001, +1.36527294404E+002
+3.00891113892E+007, +5.69860785050E+001, +1.37535861962E+002
+3.03080100125E+007, +5.71815205727E+001, +1.38512219463E+002
+3.05269086358E+007, +5.72846423689E+001, +1.39745639371E+002
+3.07458072591E+007, +5.73096281483E+001, +1.40538458258E+002
+3.09647058824E+007, +5.73403209586E+001, +1.41602546157E+002
+3.11836045056E+007, +5.72367228159E+001, +1.42629245397E+002
+3.14025031289E+007, +5.71675234969E+001, +1.43653987368E+002
+3.16214017522E+007, +5.74798607144E+001, +1.44660550893E+002
+3.18403003755E+007, +5.73207107085E+001, +1.46140317343E+002
+3.20591989987E+007, +5.73378695532E+001, +1.46796777234E+002
+3.22780976220E+007, +5.75362421847E+001, +1.47956884267E+002
+3.24969962453E+007, +5.74525683162E+001, +1.48947839857E+002
+3.27158948686E+007, +5.74923975390E+001, +1.50072912634E+002
+3.29347934919E+007, +5.74387650039E+001, +1.51070751837E+002
+3.31536921151E+007, +5.75869807380E+001, +1.51871957187E+002
+3.33725907384E+007, +5.77110582698E+001, +1.53204255596E+002
+3.35914893617E+007, +5.77496072842E+001, +1.54171099700E+002
+3.38103879850E+007, +5.77207163974E+001, +1.55047515271E+002
+3.40292866083E+007, +5.76701480710E+001, +1.56341281921E+002
+3.42481852315E+007, +5.79532607275E+001, +1.57536083102E+002
+3.44670838548E+007, +5.78953014943E+001, +1.58316648279E+002
+3.46859824781E+007, +5.79310154344E+001, +1.59601618979E+002
+3.49048811014E+007, +5.80171395784E+001, +1.60705661212E+002
+3.51237797247E+007, +5.78325268433E+001, +1.61724389665E+002
+3.53426783479E+007, +5.80998920737E+001, +1.62741697721E+002
+3.55615769712E+007, +5.81024110565E+001, +1.63863705713E+002
+3.57804755945E+007, +5.82646255596E+001, +1.64756511726E+002
+3.59993742178E+007, +5.82476096729E+001, +1.65979988424E+002
+3.62182728411E+007, +5.83344441407E+001, +1.66931139760E+002
+3.64371714643E+007, +5.84430784385E+001, +1.67890526074E+002
+3.66560700876E+007, +5.83964425228E+001, +1.69200877493E+002
+3.68749687109E+007, +5.85505028764E+001, +1.70212889223E+002
+3.70938673342E+007, +5.84802369700E+001, +1.71049693924E+002
+3.73127659574E+007, +5.84477712292E+001, +1.72317671203E+002
+3.75316645807E+007, +5.84776108214E+001, +1.73304860242E+002
+3.77505632040E+007, +5.85421074511E+001, +1.74410940325E+002
+3.79694618273E+007, +5.86247115518E+001, +1.75518997304E+002
+3.81883604506E+007, +5.85736566545E+001, +1.76622278472E+002
+3.84072590738E+007, +5.86985436294E+001, +1.77399750005E+002
+3.86261576971E+007, +5.87616479120E+001, +1.78768265858E+002
+3.88450563204E+007, +5.88205027629E+001, +1.79577490065E+002
+3.90639549437E+007, +5.91356025969E+001, +1.80759249909E+002
+3.92828535670E+007, +5.87407871111E+001, +1.82013951288E+002
+3.95017521902E+007, +5.90293626858E+001, +1.82982572245E+002
+3.97206508135E+007, +5.91135137336E+001, +1.84212617093E+002
+3.99395494368E+007, +5.91916892129E+001, +1.85171603691E+002
+4.01584480601E+007, +5.93718941406E+001, +1.86041184959E+002
+4.03773466834E+007, +5.92544871127E+001, +1.87501604601E+002
+4.05962453066E+007, +5.91631534007E+001, +1.88677969630E+002
+4.08151439299E+007, +5.94431401810E+001, +1.89208687936E+002
+4.10340425532E+007, +5.91816768627E+001, +1.90470792827E+002
+4.12529411765E+007, +5.94297141565E+001, +1.91530763347E+002
+4.14718397997E+007, +5.92610560756E+001, +1.92975973549E+002
+4.16907384230E+007, +5.96458268949E+001, +1.94010636988E+002
+4.19096370463E+007, +5.95399164650E+001, +1.94873752370E+002
+4.21285356696E+007, +5.95964892615E+001, +1.96110689621E+002
+4.23474342929E+007, +5.95618931702E+001, +1.97459864484E+002
+4.25663329161E+007, +5.98746780813E+001, +1.98318128469E+002
+4.27852315394E+007, +5.98829919291E+001, +1.99550346855E+002
+4.30041301627E+007, +5.99239387255E+001, +2.00770845985E+002
+4.32230287860E+007, +6.00474489658E+001, +2.01653532363E+002
+4.34419274093E+007, +6.02760543837E+001, +2.02819566634E+002
+4.36608260325E+007, +6.01356006006E+001, +2.03908087753E+002
+4.38797246558E+007, +5.99343790828E+001, +2.05049154340E+002
+4.40986232791E+007, +6.01041932719E+001, +2.06167973816E+002
+4.43175219024E+007, +5.99608797331E+001, +2.07288990693E+002
+4.45364205257E+007, +6.03213225979E+001, +2.08601393807E+002
+4.47553191489E+007, +6.03197566118E+001, +2.09787505196E+002
+4.49742177722E+007, +6.03690437365E+001, +2.10931897609E+002
+4.51931163955E+007, +6.03619505126E+001, +2.11742683672E+002
+4.54120150188E+007, +6.05837471234E+001, +2.12844533351E+002
+4.56309136421E+007, +6.04229227872E+001, +2.13962559434E+002
+4.58498122653E+007, +6.06964261085E+001, +2.14818186559E+002
+4.60687108886E+007, +6.05243319744E+001, +2.16494853682E+002
+4.62876095119E+007, +6.07422871566E+001, +2.17458762149E+002
+4.65065081352E+007, +6.07567374541E+001, +2.18429156138E+002
+4.67254067584E+007, +6.10249860265E+001, +2.19226446983E+002
+4.69443053817E+007, +6.06299302877E+001, +2.20597091236E+002
+4.71632040050E+007, +6.09907715861E+001, +2.21691643192E+002
+4.73821026283E+007, +6.10424628931E+001, +2.22806061493E+002
+4.76010012516E+007, +6.12576968742E+001, +2.24025938808E+002
+4.78198998748E+007, +6.10543841893E+001, +2.25248798469E+002
+4.80387984981E+007, +6.09406717650E+001, +2.26324893293E+002
+4.82576971214E+007, +6.12970803493E+001, +2.27722900280E+002
+4.84765957447E+007, +6.13077621750E+001, +2.28680724643E+002
+4.86954943680E+007, +6.11600001262E+001, +2.29657312202E+002
+4.89143929912E+007, +6.15737252912E+001, +2.30827731268E+002
+4.91332916145E+007, +6.14024208566E+001, +2.32143510070E+002
+4.93521902378E+007, +6.14995448765E+001, +2.32984995278E+002
+4.95710888611E+007, +6.18771207075E+001, +2.34608563406E+002
+4.97899874844E+007, +6.17930805882E+001, +2.35343393024E+002
+5.00088861076E+007, +6.16354304952E+001, +2.36580886142E+002
+5.02277847309E+007, +6.21987509188E+001, +2.37741053461E+002
+5.04466833542E+007, +6.22518357349E+001, +2.38796261296E+002
+5.06655819775E+007, +6.18434087779E+001, +2.40375022495E+002
+5.08844806008E+007, +6.20292695144E+001, +2.41640264550E+002
+5.11033792240E+007, +6.22969983577E+001, +2.42703207280E+002
+5.13222778473E+007, +6.26481449469E+001, +2.44067046789E+002
+5.15411764706E+007, +6.25744916352E+001, +2.44834130449E+002
+5.17600750939E+007, +6.23450664598E+001, +2.46519885218E+002
+5.19789737171E+007, +6.24890985287E+001, +2.47404953623E+002
+5.21978723404E+007, +6.24455537596E+001, +2.48177454135E+002
+5.24167709637E+007, +6.21824052397E+001, +2.49339379584E+002
+5.26356695870E+007, +6.29358709487E+001, +2.50761161347E+002
+5.28545682103E+007, +6.29567068488E+001, +2.52264435246E+002
+5.30734668335E+007, +6.27994507548E+001, +2.53635300333E+002
+5.32923654568E+007, +6.29596165644E+001, +2.54837835989E+002
+5.35112640801E+007, +6.33326631485E+001, +2.55282155550E+002
+5.37301627034E+007, +6.31887382960E+001, +2.56862835879E+002
+5.39490613267E+007, +6.33859291419E+001, +2.58131159177E+002
+5.41679599499E+007, +6.32356703516E+001, +2.59284802843E+002
+5.43868585732E+007, +6.31940825834E+001, +2.60198428051E+002
+5.46057571965E+007, +6.31856641136E+001, +2.61631475741E+002
+5.48246558198E+007, +6.37273064329E+001, +2.62846553468E+002
+5.50435544431E+007, +6.34503661690E+001, +2.64223737558E+002
+5.52624530663E+007, +6.36060003947E+001, +2.65658632381E+002
+5.54813516896E+007, +6.35016071532E+001, +2.66303483543E+002
+5.57002503129E+007, +6.41872327782E+001, +2.68003091429E+002
+5.59191489362E+007, +6.40081098472E+001, +2.68926698186E+002
+5.61380475594E+007, +6.40849966534E+001, +2.70105090755E+002
+5.63569461827E+007, +6.42801787267E+001, +2.71560000416E+002
+5.65758448060E+007, +6.41950606726E+001, +2.72664709689E+002
+5.67947434293E+007, +6.44072647756E+001, +2.74082462886E+002
+5.70136420526E+007, +6.45930393870E+001, +2.75248182353E+002
+5.72325406758E+007, +6.48076995531E+001, +2.76709405258E+002
+5.74514392991E+007, +6.43927841407E+001, +2.77308640873E+002
+5.76703379224E+007, +6.46866845310E+001, +2.78943710607E+002
+5.78892365457E+007, +6.45975367913E+001, +2.80120328673E+002
+5.81081351690E+007, +6.52132006375E+001, +2.81417006736E+002
+5.83270337922E+007, +6.47909647550E+001, +2.82558830552E+002
+5.85459324155E+007, +6.55889500518E+001, +2.84162811919E+002
+5.87648310388E+007, +6.49741132577E+001, +2.85079001734E+002
+5.89837296621E+007, +6.49073406153E+001, +2.86348853995E+002
+5.92026282854E+007, +6.57914969824E+001, +2.87686167622E+002
+5.94215269086E+007, +6.57758475209E+001, +2.89091046505E+002
+5.96404255319E+007, +6.50165249544E+001, +2.90715600624E+002
+5.98593241552E+007, +6.60074551661E+001, +2.91911821263E+002
+6.00782227785E+007, +6.58813828044E+001, +2.92713874873E+002
+6.02971214018E+007, +6.60148680454E+001, +2.94365746584E+002
+6.05160200250E+007, +6.57677959766E+001, +2.95518422651E+002
+6.07349186483E+007, +6.63214522853E+001, +2.96462396634E+002
+6.09538172716E+007, +6.59810669877E+001, +2.98310227716E+002
+6.11727158949E+007, +6.64248374386E+001, +2.99732086623E+002
+6.13916145181E+007, +6.62768921459E+001, +3.00483723876E+002
+6.16105131414E+007, +6.62992745618E+001, +3.01591082614E+002
+6.18294117647E+007, +6.66243718166E+001, +3.02767312994E+002
+6.20483103880E+007, +6.61481422960E+001, +3.04405563098E+002
+6.22672090113E+007, +6.66668973554E+001, +3.05440376012E+002
+6.24861076345E+007, +6.76275716164E+001, +3.07043050362E+002
+6.27050062578E+007, +6.73158781148E+001, +3.07878342247E+002
+6.29239048811E+007, +6.64328385211E+001, +3.09520522084E+002
+6.31428035044E+007, +6.71621790227E+001, +3.10876993637E+002
+6.33617021277E+007, +6.76281071508E+001, +3.12299944681E+002
+6.35806007509E+007, +6.71366037127E+001, +3.14062089805E+002
+6.37994993742E+007, +6.75631648225E+001, +3.14499373474E+002
+6.40183979975E+007, +6.79467223728E+001, +3.15816768591E+002
+6.42372966208E+007, +6.77776291848E+001, +3.17928716621E+002
+6.44561952441E+007, +6.75027409080E+001, +3.18858447920E+002
+6.46750938673E+007, +6.81618906689E+001, +3.20165680738E+002
+6.48939924906E+007, +6.84747097135E+001, +3.21475851942E+002
+6.51128911139E+007, +6.83733321542E+001, +3.23284235458E+002
+6.53317897372E+007, +6.87804372505E+001, +3.24878215212E+002
+6.55506883605E+007, +6.89711906550E+001, +3.25929965272E+002
+6.57695869837E+007, +6.90356324419E+001, +3.27024225656E+002
+6.59884856070E+007, +6.93018011443E+001, +3.28276148404E+002
+6.62073842303E+007, +6.91309951250E+001, +3.30660626374E+002
+6.64262828536E+007, +6.86991944495E+001, +3.31045157210E+002
+6.66451814768E+007, +6.93486545230E+001, +3.32566443723E+002
+6.68640801001E+007, +6.93027418671E+001, +3.33665684111E+002
+6.70829787234E+007, +6.91120653955E+001, +3.35303220465E+002
+6.73018773467E+007, +7.02706519303E+001, +3.36230236004E+002
+6.75207759700E+007, +7.01552733762E+001, +3.38028555915E+002
+6.77396745932E+007, +6.93268810544E+001, +3.39130953374E+002
+6.79585732165E+007, +7.02799619622E+001, +3.40938004690E+002
+6.81774718398E+007, +7.01682365843E+001, +3.42512877086E+002
+6.83963704631E+007, +7.05576906496E+001, +3.43309594893E+002
+6.86152690864E+007, +7.03520513727E+001, +3.45520113933E+002
+6.88341677096E+007, +7.07695531856E+001, +3.46398407620E+002
+6.90530663329E+007, +7.10037916182E+001, +3.47768424424E+002
+6.92719649562E+007, +7.10365372173E+001, +3.48795914252E+002
+6.94908635795E+007, +7.14102219715E+001, +3.50333111904E+002
+6.97097622028E+007, +7.03002864924E+001, +3.51639195556E+002
+6.99286608260E+007, +7.14608084062E+001, +3.53418226416E+002
+7.01475594493E+007, +7.13096339111E+001, +3.55009374367E+002
