"# Channel 1"
"# Trace 1"
Frequency, Formatted Data, Formatted Data
+5.50000000000E+005, +5.02645913114E+001, +3.12924856948E+000
+7.67772215269E+005, +5.01773523760E+001, +4.28138219875E+000
+9.85544430538E+005, +5.03271446222E+001, +5.50125525742E+000
+1.20331664581E+006, +5.02733554194E+001, +6.55084082135E+000
+1.42108886108E+006, +5.01555350528E+001, +7.89735515746E+000
+1.63886107635E+006, +5.03509035007E+001, +9.01915231636E+000
+1.85663329161E+006, +5.03748187662E+001, +1.03257076573E+001
+2.07440550688E+006, +5.03450304878E+001, +1.15544674422E+001
+2.29217772215E+006, +5.04064446110E+001, +1.29317734385E+001
+2.50994993742E+006, +5.04536770983E+001, +1.39324865788E+001
+2.72772215269E+006, +5.02965014300E+001, +1.52043507790E+001
+2.94549436796E+006, +5.04409708428E+001, +1.64324046817E+001
+3.16326658323E+006, +5.02940264930E+001, +1.77660860046E+001
+3.38103879850E+006, +5.05105264847E+001, +1.89537688372E+001
+3.59881101377E+006, +5.04875198858E+001, +2.00432380027E+001
+3.81658322904E+006, +5.04563609737E+001, +2.10357400233E+001
+4.03435544431E+006, +5.06673702059E+001, +2.24563654975E+001
+4.25212765957E+006, +5.05213891904E+001, +2.35936284679E+001
+4.46989987484E+006, +5.05983488345E+001, +2.48751888477E+001
+4.68767209011E+006, +5.03745570086E+001, +2.60086260635E+001
+4.90544430538E+006, +5.04466893271E+001, +2.72633724440E+001
+5.12321652065E+006, +5.05512994504E+001, +2.84121998914E+001
+5.34098873592E+006, +5.05875743123E+001, +2.97135637148E+001
+5.55876095119E+006, +5.05565310000E+001, +3.08080765170E+001
+5.77653316646E+006, +5.06617123796E+001, +3.22397179422E+001
+5.99430538173E+006, +5.07609257746E+001, +3.32276528585E+001
+6.21207759700E+006, +5.07003705656E+001, +3.45204507103E+001
+6.42984981227E+006, +5.06901678520E+001, +3.56812332822E+001
+6.64762202753E+006, +5.07569611124E+001, +3.68854076093E+001
+6.86539424280E+006, +5.07004837930E+001, +3.80614936620E+001
+7.08316645807E+006, +5.07979397925E+001, +3.93210619607E+001
+7.30093867334E+006, +5.07656017711E+001, +4.05150422304E+001
+7.51871088861E+006, +5.07484839341E+001, +4.16544786976E+001
+7.73648310388E+006, +5.09249624692E+001, +4.28833369885E+001
+7.95425531915E+006, +5.09339939226E+001, +4.40649207687E+001
+8.17202753442E+006, +5.08991444279E+001, +4.52760344530E+001
+8.38979974969E+006, +5.09544643558E+001, +4.64552921319E+001
+8.60757196496E+006, +5.09273788049E+001, +4.76437584979E+001
+8.82534418023E+006, +5.09598527754E+001, +4.88479600271E+001
+9.04311639549E+006, +5.09273376784E+001, +5.01492068979E+001
+9.26088861076E+006, +5.09839295574E+001, +5.13982436799E+001
+9.47866082603E+006, +5.10291939480E+001, +5.25044959981E+001
+9.69643304130E+006, +5.09832881916E+001, +5.38028170651E+001
+9.91420525657E+006, +5.09691719026E+001, +5.48955721372E+001
+1.01319774718E+007, +5.10531581654E+001, +5.60890608182E+001
+1.03497496871E+007, +5.11145540493E+001, +5.73069901008E+001
+1.05675219024E+007, +5.10833387432E+001, +5.85517466111E+001
+1.07852941176E+007, +5.10901886285E+001, +5.97431364888E+001
+1.10030663329E+007, +5.11257075431E+001, +6.09201606105E+001
+1.12208385482E+007, +5.11121429582E+001, +6.21867344303E+001
+1.14386107635E+007, +5.12617023971E+001, +6.33575281542E+001
+1.16563829787E+007, +5.12431689155E+001, +6.45509385361E+001
+1.18741551940E+007, +5.12523448428E+001, +6.57505996397E+001
+1.20919274093E+007, +5.12429686501E+001, +6.69768078048E+001
+1.23096996245E+007, +5.12701428797E+001, +6.82708455878E+001
+1.25274718398E+007, +5.12463919662E+001, +6.94244803096E+001
+1.27452440551E+007, +5.12698629353E+001, +7.05950157489E+001
+1.29630162703E+007, +5.13020794459E+001, +7.17305869191E+001
+1.31807884856E+007, +5.13427130485E+001, +7.30373312851E+001
+1.33985607009E+007, +5.12999070257E+001, +7.43169584124E+001
+1.36163329161E+007, +5.13829659380E+001, +7.54201597620E+001
+1.38341051314E+007, +5.14012183209E+001, +7.66853202544E+001
+1.40518773467E+007, +5.14843358737E+001, +7.79255932515E+001
+1.42696495620E+007, +5.14189225553E+001, +7.90877392465E+001
+1.44874217772E+007, +5.14594649147E+001, +8.03974678017E+001
+1.47051939925E+007, +5.14850160818E+001, +8.15680699063E+001
+1.49229662078E+007, +5.15489218036E+001, +8.27321685608E+001
+1.51407384230E+007, +5.15947320629E+001, +8.40195011836E+001
+1.53585106383E+007, +5.16257916170E+001, +8.52767353180E+001
+1.55762828536E+007, +5.15200706737E+001, +8.64834883444E+001
+1.57940550688E+007, +5.15873898405E+001, +8.77013242870E+001
+1.60118272841E+007, +5.15763759190E+001, +8.88322132642E+001
+1.62295994994E+007, +5.16980487380E+001, +9.00750903987E+001
+1.64473717146E+007, +5.17293150445E+001, +9.13117946321E+001
+1.66651439299E+007, +5.16483932099E+001, +9.25501153523E+001
+1.68829161452E+007, +5.17068547623E+001, +9.36692560146E+001
+1.71006883605E+007, +5.16335103503E+001, +9.50134759397E+001
+1.73184605757E+007, +5.16966501536E+001, +9.62331786406E+001
+1.75362327910E+007, +5.18069542092E+001, +9.73603475274E+001
+1.77540050063E+007, +5.18289294917E+001, +9.86043421594E+001
+1.79717772215E+007, +5.18527235093E+001, +9.98071874906E+001
+1.81895494368E+007, +5.18726181164E+001, +1.01075054363E+002
+1.84073216521E+007, +5.19473301701E+001, +1.02299982036E+002
+1.86250938673E+007, +5.19821408713E+001, +1.03497426454E+002
+1.88428660826E+007, +5.19698867625E+001, +1.04803437947E+002
+1.90606382979E+007, +5.20159919902E+001, +1.05957579967E+002
+1.92784105131E+007, +5.20175617943E+001, +1.07139360738E+002
+1.94961827284E+007, +5.22037442231E+001, +1.08444913903E+002
+1.97139549437E+007, +5.21203032053E+001, +1.09712477853E+002
+1.99317271589E+007, +5.20707009828E+001, +1.10849561511E+002
+2.01494993742E+007, +5.20897267685E+001, +1.12177677266E+002
+2.03672715895E+007, +5.21865404597E+001, +1.13318916121E+002
+2.05850438048E+007, +5.22705577424E+001, +1.14659333276E+002
+2.08028160200E+007, +5.22527543409E+001, +1.15913576254E+002
+2.10205882353E+007, +5.23014174509E+001, +1.17133256968E+002
+2.12383604506E+007, +5.23574784476E+001, +1.18312389022E+002
+2.14561326658E+007, +5.23901215716E+001, +1.19484931449E+002
+2.16739048811E+007, +5.22942437255E+001, +1.20708329094E+002
+2.18916770964E+007, +5.22916336938E+001, +1.22062223189E+002
+2.21094493116E+007, +5.23980552843E+001, +1.23299380239E+002
+2.23272215269E+007, +5.25145540295E+001, +1.24557767165E+002
+2.25449937422E+007, +5.26044365973E+001, +1.25738580096E+002
+2.27627659574E+007, +5.26731503106E+001, +1.26934823528E+002
+2.29805381727E+007, +5.27077982410E+001, +1.28211090158E+002
+2.31983103880E+007, +5.26917709386E+001, +1.29411595937E+002
+2.34160826033E+007, +5.28611960332E+001, +1.30697058384E+002
+2.36338548185E+007, +5.27592321101E+001, +1.31990596941E+002
+2.38516270338E+007, +5.26755683822E+001, +1.33174585273E+002
+2.40693992491E+007, +5.26771429968E+001, +1.34477371538E+002
+2.42871714643E+007, +5.27749142597E+001, +1.35717123710E+002
+2.45049436796E+007, +5.27945216203E+001, +1.36967941040E+002
+2.47227158949E+007, +5.28621667914E+001, +1.38239310304E+002
+2.49404881101E+007, +5.30212573722E+001, +1.39439967384E+002
+2.51582603254E+007, +5.31892106881E+001, +1.40748967636E+002
+2.53760325407E+007, +5.31538069930E+001, +1.41941656243E+002
+2.55938047559E+007, +5.31220021100E+001, +1.43253355555E+002
+2.58115769712E+007, +5.30860989738E+001, +1.44445364552E+002
+2.60293491865E+007, +5.31885145059E+001, +1.45676711446E+002
+2.62471214018E+007, +5.31935478252E+001, +1.46980127746E+002
+2.64648936170E+007, +5.32155733871E+001, +1.48223962912E+002
+2.66826658323E+007, +5.33594875706E+001, +1.49455937848E+002
+2.69004380476E+007, +5.34355467844E+001, +1.50847254750E+002
+2.71182102628E+007, +5.34369444345E+001, +1.52072895074E+002
+2.73359824781E+007, +5.34686558830E+001, +1.53292674655E+002
+2.75537546934E+007, +5.36253966871E+001, +1.54678639450E+002
+2.77715269086E+007, +5.35167026229E+001, +1.55888396276E+002
+2.79892991239E+007, +5.35447837692E+001, +1.57062348240E+002
+2.82070713392E+007, +5.37396852217E+001, +1.58382098572E+002
+2.84248435544E+007, +5.37280437156E+001, +1.59506130439E+002
+2.86426157697E+007, +5.35068184175E+001, +1.60938048004E+002
+2.88603879850E+007, +5.34430215091E+001, +1.62215045300E+002
+2.90781602003E+007, +5.36514978132E+001, +1.63655180315E+002
+2.92959324155E+007, +5.36259282161E+001, +1.64814835931E+002
+2.95137046308E+007, +5.38007851793E+001, +1.66134171998E+002
+2.97314768461E+007, +5.38730857343E+001, +1.67395547494E+002
+2.99492490613E+007, +5.38631595747E+001, +1.68530827637E+002
+3.01670212766E+007, +5.38229893712E+001, +1.69902270760E+002
+3.03847934919E+007, +5.40480015943E+001, +1.71152907332E+002
+3.06025657071E+007, +5.42017491853E+001, +1.72484288912E+002
+3.08203379224E+007, +5.41624067386E+001, +1.73779506250E+002
+3.10381101377E+007, +5.39978301834E+001, +1.75006493929E+002
+3.12558823529E+007, +5.41815904822E+001, +1.76380697980E+002
+3.14736545682E+007, +5.41508257528E+001, +1.77422656332E+002
+3.16914267835E+007, +5.43135076630E+001, +1.78838831782E+002
+3.19091989987E+007, +5.42196649665E+001, +1.80351934147E+002
+3.21269712140E+007, +5.43300297233E+001, +1.81502411582E+002
+3.23447434293E+007, +5.42669222492E+001, +1.82802938331E+002
+3.25625156446E+007, +5.43242173501E+001, +1.83944650615E+002
+3.27802878598E+007, +5.44497055718E+001, +1.85300323433E+002
+3.29980600751E+007, +5.44617394740E+001, +1.86564153827E+002
+3.32158322904E+007, +5.44132138936E+001, +1.87814788662E+002
+3.34336045056E+007, +5.47101921795E+001, +1.89373086728E+002
+3.36513767209E+007, +5.46663670173E+001, +1.90664726527E+002
+3.38691489362E+007, +5.44000618977E+001, +1.91838127598E+002
+3.40869211514E+007, +5.45048725311E+001, +1.93280645362E+002
+3.43046933667E+007, +5.50504296086E+001, +1.94544316988E+002
+3.45224655820E+007, +5.48972060767E+001, +1.95721419439E+002
+3.47402377972E+007, +5.49565631833E+001, +1.97350290989E+002
+3.49580100125E+007, +5.52160451095E+001, +1.98403116564E+002
+3.51757822278E+007, +5.50349090806E+001, +1.99893553440E+002
+3.53935544431E+007, +5.50995723668E+001, +2.01140037382E+002
+3.56113266583E+007, +5.52156017139E+001, +2.02445989997E+002
+3.58290988736E+007, +5.55445978426E+001, +2.03745615255E+002
+3.60468710889E+007, +5.53563175506E+001, +2.05171339210E+002
+3.62646433041E+007, +5.51376371667E+001, +2.06190690308E+002
+3.64824155194E+007, +5.54776243046E+001, +2.07716453972E+002
+3.67001877347E+007, +5.54990186450E+001, +2.09331878001E+002
+3.69179599499E+007, +5.56254419368E+001, +2.10715852193E+002
+3.71357321652E+007, +5.55034150454E+001, +2.12106264861E+002
+3.73535043805E+007, +5.53813051986E+001, +2.13161630213E+002
+3.75712765957E+007, +5.53948969451E+001, +2.14521679853E+002
+3.77890488110E+007, +5.56962857540E+001, +2.15883293632E+002
+3.80068210263E+007, +5.60380726288E+001, +2.17129996841E+002
+3.82245932416E+007, +5.58607157065E+001, +2.18628385269E+002
+3.84423654568E+007, +5.56401598017E+001, +2.19748176107E+002
+3.86601376721E+007, +5.57604175415E+001, +2.21180544047E+002
+3.88779098874E+007, +5.60230371583E+001, +2.22234379634E+002
+3.90956821026E+007, +5.61147871494E+001, +2.23755422153E+002
+3.93134543179E+007, +5.61747367408E+001, +2.25350026929E+002
+3.95312265332E+007, +5.62643087426E+001, +2.26659207145E+002
+3.97489987484E+007, +5.64375139075E+001, +2.28003016361E+002
+3.99667709637E+007, +5.64919032569E+001, +2.29449990800E+002
+4.01845431790E+007, +5.64747997323E+001, +2.30549413090E+002
+4.04023153942E+007, +5.68237393397E+001, +2.32347887495E+002
+4.06200876095E+007, +5.63045436826E+001, +2.33724639530E+002
+4.08378598248E+007, +5.67161255484E+001, +2.34507600281E+002
+4.10556320401E+007, +5.64532948809E+001, +2.36011365338E+002
+4.12734042553E+007, +5.66741144256E+001, +2.37303362032E+002
+4.14911764706E+007, +5.68005588415E+001, +2.39139310093E+002
+4.17089486859E+007, +5.69105016977E+001, +2.40374826804E+002
+4.19267209011E+007, +5.69921571294E+001, +2.41603388653E+002
+4.21444931164E+007, +5.70686974297E+001, +2.43067721112E+002
+4.23622653317E+007, +5.72181236817E+001, +2.44540863918E+002
+4.25800375469E+007, +5.72048597327E+001, +2.45936174372E+002
+4.27978097622E+007, +5.73516023066E+001, +2.47455624530E+002
+4.30155819775E+007, +5.76343438297E+001, +2.48806420311E+002
+4.32333541927E+007, +5.78968723844E+001, +2.50294012710E+002
+4.34511264080E+007, +5.75959119953E+001, +2.51457007067E+002
+4.36688986233E+007, +5.75772343639E+001, +2.52676424457E+002
+4.38866708385E+007, +5.73607181265E+001, +2.54628528515E+002
+4.41044430538E+007, +5.78060750750E+001, +2.56339740733E+002
+4.43222152691E+007, +5.74834585126E+001, +2.57132036122E+002
+4.45399874844E+007, +5.78844575423E+001, +2.58796005927E+002
+4.47577596996E+007, +5.79211445701E+001, +2.60365944463E+002
+4.49755319149E+007, +5.79822089581E+001, +2.61762780577E+002
+4.51933041302E+007, +5.81992457417E+001, +2.63117693709E+002
+4.54110763454E+007, +5.79511665528E+001, +2.64058761610E+002
+4.56288485607E+007, +5.82684077362E+001, +2.65778538378E+002
+4.58466207760E+007, +5.82345425210E+001, +2.66921376793E+002
+4.60643929912E+007, +5.81409646788E+001, +2.68550729046E+002
+4.62821652065E+007, +5.87376886555E+001, +2.70134841943E+002
+4.64999374218E+007, +5.85979792355E+001, +2.71032888673E+002
+4.67177096370E+007, +5.86641080188E+001, +2.72580240377E+002
+4.69354818523E+007, +5.85832153890E+001, +2.73854911264E+002
+4.71532540676E+007, +5.89932864878E+001, +2.75847058872E+002
+4.73710262829E+007, +5.88460086111E+001, +2.77208017416E+002
+4.75887984981E+007, +5.88224527218E+001, +2.78452283718E+002
+4.78065707134E+007, +5.90802446005E+001, +2.79966697483E+002
+4.80243429287E+007, +5.87116859558E+001, +2.81579375971E+002
+4.82421151439E+007, +5.91798684188E+001, +2.83125275967E+002
+4.84598873592E+007, +5.96402232618E+001, +2.84284189614E+002
+4.86776595745E+007, +5.92894983351E+001, +2.85560983775E+002
+4.88954317897E+007, +5.90222451047E+001, +2.87270685182E+002
+4.91132040050E+007, +5.92798508844E+001, +2.88627376494E+002
+4.93309762203E+007, +5.96267125180E+001, +2.90213186938E+002
+4.95487484355E+007, +6.04643678162E+001, +2.92001077764E+002
+4.97665206508E+007, +6.03735725835E+001, +2.92998896529E+002
+4.99842928661E+007, +5.98556122887E+001, +2.94375887056E+002
+5.02020650814E+007, +6.00239178010E+001, +2.95956178883E+002
+5.04198372966E+007, +6.04348634422E+001, +2.97600766454E+002
+5.06376095119E+007, +6.01390388136E+001, +2.99003250339E+002
+5.08553817272E+007, +6.03880352484E+001, +3.00737382727E+002
+5.10731539424E+007, +6.04196116769E+001, +3.02107846894E+002
+5.12909261577E+007, +6.03864197631E+001, +3.03663229583E+002
+5.15086983730E+007, +6.11771353136E+001, +3.04949720739E+002
+5.17264705882E+007, +6.07441110413E+001, +3.06961882100E+002
+5.19442428035E+007, +6.08688735162E+001, +3.08407056609E+002
+5.21620150188E+007, +6.08361219786E+001, +3.09806677026E+002
+5.23797872340E+007, +6.03569336879E+001, +3.11325252054E+002
+5.25975594493E+007, +6.15645319780E+001, +3.12640341719E+002
+5.28153316646E+007, +6.13094149310E+001, +3.14715259824E+002
+5.30331038798E+007, +6.13835559686E+001, +3.15936972928E+002
+5.32508760951E+007, +6.09711351275E+001, +3.18155586979E+002
+5.34686483104E+007, +6.19649598272E+001, +3.18816838859E+002
+5.36864205257E+007, +6.13987110335E+001, +3.20648590201E+002
+5.39041927409E+007, +6.17042574635E+001, +3.22150476815E+002
+5.41219649562E+007, +6.19011642567E+001, +3.23741714418E+002
+5.43397371715E+007, +6.16598596064E+001, +3.24934025719E+002
+5.45575093867E+007, +6.16011479929E+001, +3.26664206956E+002
+5.47752816020E+007, +6.18422932887E+001, +3.28433407923E+002
+5.49930538173E+007, +6.23116966613E+001, +3.29662236984E+002
+5.52108260325E+007, +6.23585222379E+001, +3.31817145929E+002
+5.54285982478E+007, +6.25702062453E+001, +3.33457858707E+002
+5.56463704631E+007, +6.31167321933E+001, +3.34195079113E+002
+5.58641426783E+007, +6.29412203826E+001, +3.36448982521E+002
+5.60819148936E+007, +6.28380167130E+001, +3.37975823939E+002
+5.62996871089E+007, +6.29877759631E+001, +3.39166313055E+002
+5.65174593242E+007, +6.33591147734E+001, +3.40985653360E+002
+5.67352315394E+007, +6.31813118841E+001, +3.42573520400E+002
+5.69530037547E+007, +6.34880844237E+001, +3.44055552538E+002
+5.71707759700E+007, +6.33876443844E+001, +3.45892576136E+002
+5.73885481852E+007, +6.34326209523E+001, +3.47220458645E+002
+5.76063204005E+007, +6.38730563923E+001, +3.48660166200E+002
+5.78240926158E+007, +6.36363532339E+001, +3.50208630607E+002
+5.80418648310E+007, +6.45349717700E+001, +3.52815309034E+002
+5.82596370463E+007, +6.42320599497E+001, +3.53815774183E+002
+5.84774092616E+007, +6.46751276101E+001, +3.55186093885E+002
+5.86951814768E+007, +6.46339029704E+001, +3.57164795876E+002
+5.89129536921E+007, +6.50343094207E+001, +3.59214199245E+002
+5.91307259074E+007, +6.53138174587E+001, +3.60441779009E+002
+5.93484981227E+007, +6.51934353453E+001, +3.62251662590E+002
+5.95662703379E+007, +6.46743907155E+001, +3.64184685437E+002
+5.97840425532E+007, +6.54286561039E+001, +3.65762507790E+002
+6.00018147685E+007, +6.60878861874E+001, +3.67177757024E+002
+6.02195869837E+007, +6.55433003762E+001, +3.69073803079E+002
+6.04373591990E+007, +6.56958700030E+001, +3.70508813124E+002
+6.06551314143E+007, +6.59638299130E+001, +3.72583652871E+002
+6.08729036295E+007, +6.59363662834E+001, +3.73972748533E+002
+6.10906758448E+007, +6.63247863954E+001, +3.76686964645E+002
+6.13084480601E+007, +6.62424938369E+001, +3.77892254989E+002
+6.15262202753E+007, +6.59744991055E+001, +3.79188098110E+002
+6.17439924906E+007, +6.72365723153E+001, +3.80808618568E+002
+6.19617647059E+007, +6.64039705409E+001, +3.82959473681E+002
+6.21795369212E+007, +6.63019292788E+001, +3.84237456410E+002
+6.23973091364E+007, +6.80226592210E+001, +3.85597783806E+002
+6.26150813517E+007, +6.83702818124E+001, +3.87524257679E+002
+6.28328535670E+007, +6.75960016312E+001, +3.88939796568E+002
+6.30506257822E+007, +6.70216495648E+001, +3.90965961691E+002
+6.32683979975E+007, +6.77246841037E+001, +3.93024672917E+002
+6.34861702128E+007, +6.77507744292E+001, +3.95078548832E+002
+6.37039424280E+007, +6.81240937521E+001, +3.96329747098E+002
+6.39217146433E+007, +6.80091726567E+001, +3.97821159681E+002
+6.41394868586E+007, +6.87420088933E+001, +4.00253205182E+002
+6.43572590738E+007, +6.86768560325E+001, +4.01865103541E+002
+6.45750312891E+007, +6.90901201408E+001, +4.03868572604E+002
+6.47928035044E+007, +6.90745779266E+001, +4.05355989229E+002
+6.50105757196E+007, +6.93343451042E+001, +4.07296599463E+002
+6.52283479349E+007, +6.99841569308E+001, +4.09508191895E+002
+6.54461201502E+007, +7.08828105197E+001, +4.11109799151E+002
+6.56638923655E+007, +7.05409222565E+001, +4.12800167783E+002
+6.58816645807E+007, +7.12731747956E+001, +4.14112801120E+002
+6.60994367960E+007, +7.03741776761E+001, +4.16567472475E+002
+6.63172090113E+007, +7.07065947476E+001, +4.18169965335E+002
+6.65349812265E+007, +7.04866494077E+001, +4.19225798769E+002
+6.67527534418E+007, +7.10280332727E+001, +4.21708157184E+002
+6.69705256571E+007, +7.09757300497E+001, +4.23506895559E+002
+6.71882978723E+007, +7.18227811512E+001, +4.25192442994E+002
+6.74060700876E+007, +7.23846783219E+001, +4.26970743868E+002
+6.76238423029E+007, +7.25380834679E+001, +4.28835238389E+002
+6.78416145181E+007, +7.25418997714E+001, +4.30553683859E+002
+6.80593867334E+007, +7.23316770567E+001, +4.33027887741E+002
+6.82771589487E+007, +7.25368375267E+001, +4.34959901533E+002
+6.84949311640E+007, +7.31331669787E+001, +4.36823621104E+002
+6.87127033792E+007, +7.39563166315E+001, +4.38251843005E+002
+6.89304755945E+007, +7.37391208846E+001, +4.40052719361E+002
+6.91482478098E+007, +7.41596914146E+001, +4.41433768242E+002
+6.93660200250E+007, +7.43733113088E+001, +4.43292576779E+002
+6.95837922403E+007, +7.38813807454E+001, +4.45440515864E+002
+6.98015644556E+007, +7.41398742981E+001, +4.47881464758E+002
+7.00193366708E+007, +7.46503361683E+001, +4.49972113429E+002
+7.02371088861E+007, +7.54194738373E+001, +4.50975949575E+002
