"# Channel 1"
"# Trace 1"
Frequency, Formatted Data, Formatted Data
+5.50000000000E+005, +5.01913624079E+001, +3.03878254437E+000
+7.67772215269E+005, +5.02283440595E+001, +4.24295790680E+000
+9.85544430538E+005, +5.02594242207E+001, +5.45846712930E+000
+1.20331664581E+006, +5.02570926474E+001, +6.46028321039E+000
+1.42108886108E+006, +5.01650849643E+001, +7.84658929364E+000
+1.63886107635E+006, +5.02994685776E+001, +8.98034724852E+000
+1.85663329161E+006, +5.02607424492E+001, +1.02375655360E+001
+2.07440550688E+006, +5.02010934635E+001, +1.14130665122E+001
+2.29217772215E+006, +5.03044620238E+001, +1.28267224525E+001
+2.50994993742E+006, +5.03643240189E+001, +1.38531426212E+001
+2.72772215269E+006, +5.02204417734E+001, +1.51272875574E+001
+2.94549436796E+006, +5.03508117230E+001, +1.62741615783E+001
+3.16326658323E+006, +5.02030421963E+001, +1.76095857084E+001
+3.38103879850E+006, +5.04413568374E+001, +1.88059727501E+001
+3.59881101377E+006, +5.03925625377E+001, +1.98170307236E+001
+3.81658322904E+006, +5.03975267618E+001, +2.09912223254E+001
+4.03435544431E+006, +5.05270508518E+001, +2.22570924103E+001
+4.25212765957E+006, +5.04288346131E+001, +2.34241481778E+001
+4.46989987484E+006, +5.05420680877E+001, +2.46379566891E+001
+4.68767209011E+006, +5.03600288475E+001, +2.58449856507E+001
+4.90544430538E+006, +5.03672383642E+001, +2.70260248431E+001
+5.12321652065E+006, +5.04075458010E+001, +2.82851517619E+001
+5.34098873592E+006, +5.05553691370E+001, +2.95035137273E+001
+5.55876095119E+006, +5.05419909388E+001, +3.05788237796E+001
+5.77653316646E+006, +5.05517618388E+001, +3.19397482570E+001
+5.99430538173E+006, +5.06538746180E+001, +3.29550259358E+001
+6.21207759700E+006, +5.05882690087E+001, +3.43232071166E+001
+6.42984981227E+006, +5.06449073028E+001, +3.53931315888E+001
+6.64762202753E+006, +5.07229603004E+001, +3.66008645301E+001
+6.86539424280E+006, +5.06270714344E+001, +3.78116848822E+001
+7.08316645807E+006, +5.06594512993E+001, +3.89575528825E+001
+7.30093867334E+006, +5.07077285695E+001, +4.01564144040E+001
+7.51871088861E+006, +5.07276198673E+001, +4.13186018397E+001
+7.73648310388E+006, +5.07933546035E+001, +4.25427221139E+001
+7.95425531915E+006, +5.08608698990E+001, +4.37383557020E+001
+8.17202753442E+006, +5.08258104423E+001, +4.49005003153E+001
+8.38979974969E+006, +5.08974488387E+001, +4.61303623979E+001
+8.60757196496E+006, +5.08095765634E+001, +4.73070278260E+001
+8.82534418023E+006, +5.08854519293E+001, +4.84853771613E+001
+9.04311639549E+006, +5.08542034372E+001, +4.97856229169E+001
+9.26088861076E+006, +5.09271385209E+001, +5.09993264774E+001
+9.47866082603E+006, +5.09815283960E+001, +5.21148117254E+001
+9.69643304130E+006, +5.09672842581E+001, +5.33606538458E+001
+9.91420525657E+006, +5.08612266356E+001, +5.44794852788E+001
+1.01319774718E+007, +5.10058345511E+001, +5.56615188982E+001
+1.03497496871E+007, +5.10622349332E+001, +5.68524827056E+001
+1.05675219024E+007, +5.09959416736E+001, +5.80657053915E+001
+1.07852941176E+007, +5.10285440393E+001, +5.92663040288E+001
+1.10030663329E+007, +5.10678412600E+001, +6.04311400008E+001
+1.12208385482E+007, +5.10579540477E+001, +6.16954317512E+001
+1.14386107635E+007, +5.11486720191E+001, +6.28603312882E+001
+1.16563829787E+007, +5.11977892477E+001, +6.40594976300E+001
+1.18741551940E+007, +5.11217933219E+001, +6.51822316133E+001
+1.20919274093E+007, +5.12202855254E+001, +6.64470449559E+001
+1.23096996245E+007, +5.12482063761E+001, +6.76984415104E+001
+1.25274718398E+007, +5.11689342504E+001, +6.88505455673E+001
+1.27452440551E+007, +5.11584390876E+001, +7.00229627590E+001
+1.29630162703E+007, +5.12367639340E+001, +7.11939324086E+001
+1.31807884856E+007, +5.12414156476E+001, +7.24919560088E+001
+1.33985607009E+007, +5.12470508965E+001, +7.36214562062E+001
+1.36163329161E+007, +5.13255992802E+001, +7.48228941096E+001
+1.38341051314E+007, +5.13216542078E+001, +7.60552715149E+001
+1.40518773467E+007, +5.13773205072E+001, +7.73264396763E+001
+1.42696495620E+007, +5.13238145817E+001, +7.84676755401E+001
+1.44874217772E+007, +5.13621277929E+001, +7.97738378674E+001
+1.47051939925E+007, +5.14158375474E+001, +8.08634746656E+001
+1.49229662078E+007, +5.15379340871E+001, +8.20534228439E+001
+1.51407384230E+007, +5.14885717004E+001, +8.33666946180E+001
+1.53585106383E+007, +5.14492959079E+001, +8.45868892643E+001
+1.55762828536E+007, +5.14804914479E+001, +8.57823089234E+001
+1.57940550688E+007, +5.14820829260E+001, +8.69501233299E+001
+1.60118272841E+007, +5.15304039377E+001, +8.81681121124E+001
+1.62295994994E+007, +5.16083897886E+001, +8.94630465362E+001
+1.64473717146E+007, +5.16547619988E+001, +9.05604673376E+001
+1.66651439299E+007, +5.15558416726E+001, +9.18496499197E+001
+1.68829161452E+007, +5.15684898781E+001, +9.29516115908E+001
+1.71006883605E+007, +5.15550464516E+001, +9.42108062357E+001
+1.73184605757E+007, +5.16033268335E+001, +9.54845920553E+001
+1.75362327910E+007, +5.16745869175E+001, +9.66439751898E+001
+1.77540050063E+007, +5.17695153507E+001, +9.78399936540E+001
+1.79717772215E+007, +5.17689878015E+001, +9.90814016031E+001
+1.81895494368E+007, +5.17293162028E+001, +1.00220215260E+002
+1.84073216521E+007, +5.18509053744E+001, +1.01478193680E+002
+1.86250938673E+007, +5.18543035975E+001, +1.02681708214E+002
+1.88428660826E+007, +5.18797308252E+001, +1.03958617350E+002
+1.90606382979E+007, +5.18553360989E+001, +1.05052935641E+002
+1.92784105131E+007, +5.18855612591E+001, +1.06316859760E+002
+1.94961827284E+007, +5.20016128790E+001, +1.07553156269E+002
+1.97139549437E+007, +5.20432303256E+001, +1.08739636105E+002
+1.99317271589E+007, +5.20794109563E+001, +1.10030622505E+002
+2.01494993742E+007, +5.21155409671E+001, +1.11326188632E+002
+2.03672715895E+007, +5.20524683969E+001, +1.12486932560E+002
+2.05850438048E+007, +5.20955302996E+001, +1.13676353547E+002
+2.08028160200E+007, +5.21606262406E+001, +1.14966508113E+002
+2.10205882353E+007, +5.23008785697E+001, +1.16168376964E+002
+2.12383604506E+007, +5.22159064674E+001, +1.17281003331E+002
+2.14561326658E+007, +5.23779826108E+001, +1.18605741054E+002
+2.16739048811E+007, +5.22666660929E+001, +1.19696323001E+002
+2.18916770964E+007, +5.22847829197E+001, +1.21124835501E+002
+2.21094493116E+007, +5.23719964438E+001, +1.22244913754E+002
+2.23272215269E+007, +5.24966829454E+001, +1.23601271472E+002
+2.25449937422E+007, +5.25146041090E+001, +1.24820739076E+002
+2.27627659574E+007, +5.24988897879E+001, +1.25886665006E+002
+2.29805381727E+007, +5.26266772300E+001, +1.27210670649E+002
+2.31983103880E+007, +5.27422377467E+001, +1.28364002319E+002
+2.34160826033E+007, +5.27414827882E+001, +1.29698015796E+002
+2.36338548185E+007, +5.26282904174E+001, +1.30982073382E+002
+2.38516270338E+007, +5.26304341716E+001, +1.32067510733E+002
+2.40693992491E+007, +5.26963529861E+001, +1.33430058281E+002
+2.42871714643E+007, +5.27975813612E+001, +1.34517744938E+002
+2.45049436796E+007, +5.27024806130E+001, +1.35982309902E+002
+2.47227158949E+007, +5.27820549288E+001, +1.37119765922E+002
+2.49404881101E+007, +5.30227486919E+001, +1.38363686900E+002
+2.51582603254E+007, +5.31247232554E+001, +1.39629475411E+002
+2.53760325407E+007, +5.29612839863E+001, +1.40895844213E+002
+2.55938047559E+007, +5.29488663135E+001, +1.42128396657E+002
+2.58115769712E+007, +5.29617335758E+001, +1.43438561043E+002
+2.60293491865E+007, +5.31318201346E+001, +1.44594764190E+002
+2.62471214018E+007, +5.31883381005E+001, +1.45828535339E+002
+2.64648936170E+007, +5.31137152319E+001, +1.46978004779E+002
+2.66826658323E+007, +5.33488413841E+001, +1.48349937653E+002
+2.69004380476E+007, +5.31978458379E+001, +1.49573487693E+002
+2.71182102628E+007, +5.32550418733E+001, +1.50918637913E+002
+2.73359824781E+007, +5.34353384214E+001, +1.52085293919E+002
+2.75537546934E+007, +5.33246594273E+001, +1.53499087949E+002
+2.77715269086E+007, +5.32781475820E+001, +1.54683280276E+002
+2.79892991239E+007, +5.35126814494E+001, +1.55942586623E+002
+2.82070713392E+007, +5.36366069637E+001, +1.57071264812E+002
+2.84248435544E+007, +5.35513893804E+001, +1.58341557889E+002
+2.86426157697E+007, +5.34259843411E+001, +1.59654714431E+002
+2.88603879850E+007, +5.34536730499E+001, +1.61099790775E+002
+2.90781602003E+007, +5.34221631572E+001, +1.62343632137E+002
+2.92959324155E+007, +5.35457146530E+001, +1.63764619223E+002
+2.95137046308E+007, +5.36875844736E+001, +1.64835382681E+002
+2.97314768461E+007, +5.36028468773E+001, +1.66084922417E+002
+2.99492490613E+007, +5.35749056017E+001, +1.67359860888E+002
+3.01670212766E+007, +5.38598656121E+001, +1.68694276307E+002
+3.03847934919E+007, +5.39680467128E+001, +1.69870552091E+002
+3.06025657071E+007, +5.40357229331E+001, +1.71200830112E+002
+3.08203379224E+007, +5.40853374886E+001, +1.72386446048E+002
+3.10381101377E+007, +5.39862009333E+001, +1.73639387942E+002
+3.12558823529E+007, +5.40569142113E+001, +1.74835299491E+002
+3.14736545682E+007, +5.41217587265E+001, +1.76106528128E+002
+3.16914267835E+007, +5.42111486005E+001, +1.77387418783E+002
+3.19091989987E+007, +5.40908032936E+001, +1.78891755854E+002
+3.21269712140E+007, +5.42186397139E+001, +1.79986719515E+002
+3.23447434293E+007, +5.42517931069E+001, +1.81525411937E+002
+3.25625156446E+007, +5.43303099972E+001, +1.82640920998E+002
+3.27802878598E+007, +5.41744156566E+001, +1.83992394690E+002
+3.29980600751E+007, +5.41806442097E+001, +1.85151377978E+002
+3.32158322904E+007, +5.44731644075E+001, +1.86477062682E+002
+3.34336045056E+007, +5.44669617731E+001, +1.87861825110E+002
+3.36513767209E+007, +5.46054351362E+001, +1.89078383182E+002
+3.38691489362E+007, +5.44484735483E+001, +1.90640773467E+002
+3.40869211514E+007, +5.44674406321E+001, +1.91721550452E+002
+3.43046933667E+007, +5.47884735060E+001, +1.93145255449E+002
+3.45224655820E+007, +5.47161971920E+001, +1.94348724665E+002
+3.47402377972E+007, +5.48993674615E+001, +1.95726765755E+002
+3.49580100125E+007, +5.49640871716E+001, +1.97093039376E+002
+3.51757822278E+007, +5.50143876621E+001, +1.98507867729E+002
+3.53935544431E+007, +5.50878427473E+001, +1.99734381311E+002
+3.56113266583E+007, +5.50887088012E+001, +2.01048195590E+002
+3.58290988736E+007, +5.50242171000E+001, +2.02169223496E+002
+3.60468710889E+007, +5.50198840918E+001, +2.03682886560E+002
+3.62646433041E+007, +5.52266840968E+001, +2.04689303503E+002
+3.64824155194E+007, +5.53252333141E+001, +2.06203616095E+002
+3.67001877347E+007, +5.53298052667E+001, +2.07788706844E+002
+3.69179599499E+007, +5.54781970274E+001, +2.09059745770E+002
+3.71357321652E+007, +5.56672356116E+001, +2.10300131098E+002
+3.73535043805E+007, +5.55370624052E+001, +2.11494425033E+002
+3.75712765957E+007, +5.55071384573E+001, +2.12988692616E+002
+3.77890488110E+007, +5.56429967451E+001, +2.14114504245E+002
+3.80068210263E+007, +5.58524035151E+001, +2.15522934301E+002
+3.82245932416E+007, +5.55842734543E+001, +2.16951867240E+002
+3.84423654568E+007, +5.54981790676E+001, +2.18186150370E+002
+3.86601376721E+007, +5.57030345906E+001, +2.19437688903E+002
+3.88779098874E+007, +5.59274543981E+001, +2.20830988725E+002
+3.90956821026E+007, +5.61858748158E+001, +2.22334996918E+002
+3.93134543179E+007, +5.57446090904E+001, +2.23822457022E+002
+3.95312265332E+007, +5.60437295224E+001, +2.24984763930E+002
+3.97489987484E+007, +5.60825961346E+001, +2.26557223898E+002
+3.99667709637E+007, +5.64525534318E+001, +2.27490233587E+002
+4.01845431790E+007, +5.65903783566E+001, +2.28856045084E+002
+4.04023153942E+007, +5.64512379754E+001, +2.30602982357E+002
+4.06200876095E+007, +5.62681801565E+001, +2.32015939918E+002
+4.08378598248E+007, +5.64902481572E+001, +2.32992857028E+002
+4.10556320401E+007, +5.63648315807E+001, +2.34266363485E+002
+4.12734042553E+007, +5.62885739588E+001, +2.35547042395E+002
+4.14911764706E+007, +5.66566752486E+001, +2.37501558723E+002
+4.17089486859E+007, +5.66412728525E+001, +2.38550507399E+002
+4.19267209011E+007, +5.67225872597E+001, +2.40050626158E+002
+4.21444931164E+007, +5.69077440670E+001, +2.41408932207E+002
+4.23622653317E+007, +5.67567241931E+001, +2.43006414051E+002
+4.25800375469E+007, +5.70424006954E+001, +2.44189262090E+002
+4.27978097622E+007, +5.72056517489E+001, +2.45565656779E+002
+4.30155819775E+007, +5.72423737658E+001, +2.47115420939E+002
+4.32333541927E+007, +5.73386571575E+001, +2.48339651133E+002
+4.34511264080E+007, +5.74153799188E+001, +2.50014948059E+002
+4.36688986233E+007, +5.71361770561E+001, +2.50928864581E+002
+4.38866708385E+007, +5.71851589917E+001, +2.52444435713E+002
+4.41044430538E+007, +5.75250062408E+001, +2.53909602367E+002
+4.43222152691E+007, +5.75200266996E+001, +2.55513540379E+002
+4.45399874844E+007, +5.78197934335E+001, +2.57216733350E+002
+4.47577596996E+007, +5.76639948883E+001, +2.58490882339E+002
+4.49755319149E+007, +5.75499704817E+001, +2.59730629249E+002
+4.51933041302E+007, +5.79243490009E+001, +2.60878400706E+002
+4.54110763454E+007, +5.79589866377E+001, +2.62593365876E+002
+4.56288485607E+007, +5.79831840715E+001, +2.63917666824E+002
+4.58466207760E+007, +5.79510459654E+001, +2.64939159326E+002
+4.60643929912E+007, +5.80672222397E+001, +2.66679035447E+002
+4.62821652065E+007, +5.83187357966E+001, +2.68120692269E+002
+4.64999374218E+007, +5.85683321311E+001, +2.69320142942E+002
+4.67177096370E+007, +5.82918250279E+001, +2.70816111547E+002
+4.69354818523E+007, +5.84508542122E+001, +2.72066080868E+002
+4.71532540676E+007, +5.83282197813E+001, +2.73786403950E+002
+4.73710262829E+007, +5.84669039643E+001, +2.75035186684E+002
+4.75887984981E+007, +5.87811619566E+001, +2.76892224810E+002
+4.78065707134E+007, +5.86507446078E+001, +2.78016313449E+002
+4.80243429287E+007, +5.85968075469E+001, +2.79546094705E+002
+4.82421151439E+007, +5.91336408757E+001, +2.81140106000E+002
+4.84598873592E+007, +5.92263979878E+001, +2.82231552916E+002
+4.86776595745E+007, +5.91204308770E+001, +2.83689075295E+002
+4.88954317897E+007, +5.90131915083E+001, +2.85200175107E+002
+4.91132040050E+007, +5.94454002109E+001, +2.86872949352E+002
+4.93309762203E+007, +5.94228598969E+001, +2.88308709721E+002
+4.95487484355E+007, +5.99884900055E+001, +2.90115220865E+002
+4.97665206508E+007, +6.00318798283E+001, +2.91276153648E+002
+4.99842928661E+007, +5.94579730500E+001, +2.92524738416E+002
+5.02020650814E+007, +6.02390272137E+001, +2.94108683091E+002
+5.04198372966E+007, +6.01189333882E+001, +2.95560365747E+002
+5.06376095119E+007, +6.02238438475E+001, +2.97226624548E+002
+5.08553817272E+007, +6.02619346806E+001, +2.98748303902E+002
+5.10731539424E+007, +6.03934305267E+001, +3.00362417057E+002
+5.12909261577E+007, +6.04993439832E+001, +3.01661441542E+002
+5.15086983730E+007, +6.03466968056E+001, +3.03155016351E+002
+5.17264705882E+007, +6.07484809990E+001, +3.05034217178E+002
+5.19442428035E+007, +6.04671367426E+001, +3.06712144207E+002
+5.21620150188E+007, +6.08365537487E+001, +3.07932007043E+002
+5.23797872340E+007, +6.03363784147E+001, +3.09426656247E+002
+5.25975594493E+007, +6.10109095432E+001, +3.10598895876E+002
+5.28153316646E+007, +6.14796468633E+001, +3.12810470117E+002
+5.30331038798E+007, +6.11173087465E+001, +3.13796005777E+002
+5.32508760951E+007, +6.09604593928E+001, +3.15913439196E+002
+5.34686483104E+007, +6.16626929441E+001, +3.16808678763E+002
+5.36864205257E+007, +6.10215735571E+001, +3.18793298873E+002
+5.39041927409E+007, +6.15454191612E+001, +3.20002761301E+002
+5.41219649562E+007, +6.18524493882E+001, +3.21115889273E+002
+5.43397371715E+007, +6.16302086359E+001, +3.23062828654E+002
+5.45575093867E+007, +6.14894366082E+001, +3.24751114007E+002
+5.47752816020E+007, +6.18924790686E+001, +3.26065795377E+002
+5.49930538173E+007, +6.20666928242E+001, +3.28198419401E+002
+5.52108260325E+007, +6.21359109634E+001, +3.30075340118E+002
+5.54285982478E+007, +6.24063884676E+001, +3.30956177119E+002
+5.56463704631E+007, +6.27756696247E+001, +3.32370284342E+002
+5.58641426783E+007, +6.29799786640E+001, +3.34660564143E+002
+5.60819148936E+007, +6.24671748975E+001, +3.35506745864E+002
+5.62996871089E+007, +6.33511899121E+001, +3.37268197963E+002
+5.65174593242E+007, +6.31809313775E+001, +3.39099061339E+002
+5.67352315394E+007, +6.34414586592E+001, +3.40133082102E+002
+5.69530037547E+007, +6.33553037332E+001, +3.41965205275E+002
+5.71707759700E+007, +6.34867988237E+001, +3.43673072481E+002
+5.73885481852E+007, +6.29910451903E+001, +3.44947180661E+002
+5.76063204005E+007, +6.33153788910E+001, +3.46543933392E+002
+5.78240926158E+007, +6.34358776804E+001, +3.48090089876E+002
+5.80418648310E+007, +6.41466651716E+001, +3.50396943097E+002
+5.82596370463E+007, +6.34600304100E+001, +3.51954570544E+002
+5.84774092616E+007, +6.46682533887E+001, +3.53645300021E+002
+5.86951814768E+007, +6.41927392048E+001, +3.55323909147E+002
+5.89129536921E+007, +6.47377183407E+001, +3.57098569309E+002
+5.91307259074E+007, +6.52754528093E+001, +3.58781129251E+002
+5.93484981227E+007, +6.53890495288E+001, +3.60314002301E+002
+5.95662703379E+007, +6.41340958679E+001, +3.62112973789E+002
+5.97840425532E+007, +6.51158239357E+001, +3.63809307457E+002
+6.00018147685E+007, +6.51336487525E+001, +3.64828568193E+002
+6.02195869837E+007, +6.52948119410E+001, +3.67067356582E+002
+6.04373591990E+007, +6.54044174881E+001, +3.69107119741E+002
+6.06551314143E+007, +6.53259215136E+001, +3.69873839538E+002
+6.08729036295E+007, +6.58202967551E+001, +3.71984348576E+002
+6.10906758448E+007, +6.59997641260E+001, +3.74182881606E+002
+6.13084480601E+007, +6.63946667252E+001, +3.75977245598E+002
+6.15262202753E+007, +6.63667734903E+001, +3.77096671309E+002
+6.17439924906E+007, +6.60410509160E+001, +3.78359925361E+002
+6.19617647059E+007, +6.64294308453E+001, +3.80657779631E+002
+6.21795369212E+007, +6.63250178414E+001, +3.81899327142E+002
+6.23973091364E+007, +6.69423664375E+001, +3.84206761788E+002
+6.26150813517E+007, +6.71466807425E+001, +3.86085242513E+002
+6.28328535670E+007, +6.66135443857E+001, +3.87129811026E+002
+6.30506257822E+007, +6.69982096554E+001, +3.89228674552E+002
+6.32683979975E+007, +6.77332523359E+001, +3.91415116797E+002
+6.34861702128E+007, +6.77679527906E+001, +3.92762353639E+002
+6.37039424280E+007, +6.76825931054E+001, +3.94887885614E+002
+6.39217146433E+007, +6.78168591204E+001, +3.96522632078E+002
+6.41394868586E+007, +6.84810095936E+001, +3.98045400378E+002
+6.43572590738E+007, +6.82189960893E+001, +4.00692467928E+002
+6.45750312891E+007, +6.84113677902E+001, +4.02358787869E+002
+6.47928035044E+007, +6.86649895558E+001, +4.03937877834E+002
+6.50105757196E+007, +6.88173770983E+001, +4.05310391861E+002
+6.52283479349E+007, +6.93261571429E+001, +4.07876700449E+002
+6.54461201502E+007, +6.95707393528E+001, +4.09455080209E+002
+6.56638923655E+007, +6.93364940152E+001, +4.11331131235E+002
+6.58816645807E+007, +6.95519132309E+001, +4.11791049572E+002
+6.60994367960E+007, +7.07593254300E+001, +4.14336415205E+002
+6.63172090113E+007, +7.01361318821E+001, +4.16752908797E+002
+6.65349812265E+007, +6.99166324761E+001, +4.18075926541E+002
+6.67527534418E+007, +7.03250087697E+001, +4.19383437955E+002
+6.69705256571E+007, +7.08422728983E+001, +4.22471407601E+002
+6.71882978723E+007, +7.11194635342E+001, +4.23590130129E+002
+6.74060700876E+007, +7.19212945134E+001, +4.25123017837E+002
+6.76238423029E+007, +7.21593202451E+001, +4.28023325143E+002
+6.78416145181E+007, +7.19958820648E+001, +4.29455998242E+002
+6.80593867334E+007, +7.28406663728E+001, +4.31421248734E+002
+6.82771589487E+007, +7.21833207008E+001, +4.32646633852E+002
+6.84949311640E+007, +7.19878557268E+001, +4.34588785167E+002
+6.87127033792E+007, +7.29287805182E+001, +4.36868648916E+002
+6.89304755945E+007, +7.31625742972E+001, +4.38337442837E+002
+6.91482478098E+007, +7.32113759509E+001, +4.41074985836E+002
+6.93660200250E+007, +7.31998643652E+001, +4.41994864918E+002
+6.95837922403E+007, +7.38281949500E+001, +4.44270837641E+002
+6.98015644556E+007, +7.37421918250E+001, +4.45924407461E+002
+7.00193366708E+007, +7.47508632858E+001, +4.48382270031E+002
+7.02371088861E+007, +7.40472357982E+001, +4.50036777673E+002
