"# Channel 1"
"# Trace 1"
Frequency, Formatted Data, Formatted Data
+1.00000000000E+005, +5.57186939210E+001, +1.01623106513E+000
+3.18898623279E+005, +5.57898072751E+001, +1.80730338997E+000
+5.37797246558E+005, +5.58213339175E+001, +3.13570083317E+000
+7.56695869837E+005, +5.58460380524E+001, +4.38869747939E+000
+9.75594493116E+005, +5.59340617570E+001, +5.64068329418E+000
+1.19449311640E+006, +5.58511448399E+001, +6.78457463878E+000
+1.41339173967E+006, +5.57324558250E+001, +8.08277268959E+000
+1.63229036295E+006, +5.58671730250E+001, +9.36394068642E+000
+1.85118898623E+006, +5.58420859122E+001, +1.06542773244E+001
+2.07008760951E+006, +5.57897076327E+001, +1.18944336565E+001
+2.28898623279E+006, +5.59643078835E+001, +1.33344485634E+001
+2.50788485607E+006, +5.59721958287E+001, +1.45022196227E+001
+2.72678347935E+006, +5.58578693213E+001, +1.57779485687E+001
+2.94568210263E+006, +5.59435915648E+001, +1.69756243715E+001
+3.16458072591E+006, +5.57983654582E+001, +1.83866201436E+001
+3.38347934919E+006, +5.60841527632E+001, +1.96749118818E+001
+3.60237797247E+006, +5.61027702453E+001, +2.07843515309E+001
+3.82127659574E+006, +5.59924317032E+001, +2.20070948107E+001
+4.04017521902E+006, +5.61147694617E+001, +2.33054273352E+001
+4.25907384230E+006, +5.60133668960E+001, +2.45741609088E+001
+4.47797246558E+006, +5.61471936677E+001, +2.58984943792E+001
+4.69687108886E+006, +5.59492319422E+001, +2.70323340629E+001
+4.91576971214E+006, +5.59192462330E+001, +2.83792906625E+001
+5.13466833542E+006, +5.60043603024E+001, +2.96342382053E+001
+5.35356695870E+006, +5.61277179013E+001, +3.10242670151E+001
+5.57246558198E+006, +5.60970843587E+001, +3.20708656813E+001
+5.79136420526E+006, +5.61906510328E+001, +3.35938148242E+001
+6.01026282854E+006, +5.61490993216E+001, +3.46002399026E+001
+6.22916145181E+006, +5.62225953801E+001, +3.60138371718E+001
+6.44806007509E+006, +5.62278445289E+001, +3.72069298802E+001
+6.66695869837E+006, +5.62973978806E+001, +3.84735934314E+001
+6.88585732165E+006, +5.62275604289E+001, +3.97677781122E+001
+7.10475594493E+006, +5.63138691604E+001, +4.10304586355E+001
+7.32365456821E+006, +5.63283424276E+001, +4.22385500242E+001
+7.54255319149E+006, +5.63286308758E+001, +4.34721470686E+001
+7.76145181477E+006, +5.64701739658E+001, +4.47551562608E+001
+7.98035043805E+006, +5.64380014469E+001, +4.60042154351E+001
+8.19924906133E+006, +5.64201172943E+001, +4.72945231889E+001
+8.41814768461E+006, +5.65445232681E+001, +4.85149332701E+001
+8.63704630788E+006, +5.64220327654E+001, +4.97897667006E+001
+8.85594493116E+006, +5.65189181630E+001, +5.10636966363E+001
+9.07484355444E+006, +5.64480259790E+001, +5.24010446002E+001
+9.29374217772E+006, +5.65590152785E+001, +5.36546979724E+001
+9.51264080100E+006, +5.66161604235E+001, +5.47940191656E+001
+9.73153942428E+006, +5.65592694708E+001, +5.62250397934E+001
+9.95043804756E+006, +5.64801840193E+001, +5.73238161701E+001
+1.01693366708E+007, +5.66503949758E+001, +5.86033866366E+001
+1.03882352941E+007, +5.66865277621E+001, +5.98983418829E+001
+1.06071339174E+007, +5.66539085156E+001, +6.11743083530E+001
+1.08260325407E+007, +5.67230088880E+001, +6.24118989253E+001
+1.10449311640E+007, +5.67527518765E+001, +6.36381709503E+001
+1.12638297872E+007, +5.66618175498E+001, +6.50139481542E+001
+1.14827284105E+007, +5.68224340682E+001, +6.62285296813E+001
+1.17016270338E+007, +5.68533034906E+001, +6.75208105322E+001
+1.19205256571E+007, +5.68331582381E+001, +6.87170770140E+001
+1.21394242804E+007, +5.68646437230E+001, +6.99787900633E+001
+1.23583229036E+007, +5.68580071082E+001, +7.13424305814E+001
+1.25772215269E+007, +5.67759539958E+001, +7.25342059657E+001
+1.27961201502E+007, +5.68495924032E+001, +7.37681010975E+001
+1.30150187735E+007, +5.69762986948E+001, +7.50583534164E+001
+1.32339173967E+007, +5.70110152305E+001, +7.63984913619E+001
+1.34528160200E+007, +5.70001795074E+001, +7.76247916005E+001
+1.36717146433E+007, +5.70299635463E+001, +7.88642149933E+001
+1.38906132666E+007, +5.71220034465E+001, +8.02112439064E+001
+1.41095118899E+007, +5.71344672416E+001, +8.15232145844E+001
+1.43284105131E+007, +5.70464305652E+001, +8.27403644039E+001
+1.45473091364E+007, +5.71870266443E+001, +8.41479976889E+001
+1.47662077597E+007, +5.71640058630E+001, +8.53264640949E+001
+1.49851063830E+007, +5.73035289450E+001, +8.66156325909E+001
+1.52040050063E+007, +5.72520972723E+001, +8.80231643380E+001
+1.54229036295E+007, +5.72603340323E+001, +8.92821351220E+001
+1.56418022528E+007, +5.71319392131E+001, +9.05297797506E+001
+1.58607008761E+007, +5.73139558902E+001, +9.17111263751E+001
+1.60795994994E+007, +5.73564018859E+001, +9.30915751820E+001
+1.62984981227E+007, +5.74425330594E+001, +9.42439829766E+001
+1.65173967459E+007, +5.74329922709E+001, +9.56283389075E+001
+1.67362953692E+007, +5.74604487853E+001, +9.69021432677E+001
+1.69551939925E+007, +5.74464463092E+001, +9.81113565611E+001
+1.71740926158E+007, +5.73791810130E+001, +9.95750893248E+001
+1.73929912390E+007, +5.74704206050E+001, +1.00843512438E+002
+1.76118898623E+007, +5.76371900580E+001, +1.01971427917E+002
+1.78307884856E+007, +5.76971203014E+001, +1.03276182757E+002
+1.80496871089E+007, +5.77422103462E+001, +1.04576276988E+002
+1.82685857322E+007, +5.77027801735E+001, +1.05945988865E+002
+1.84874843554E+007, +5.78257461414E+001, +1.07206376988E+002
+1.87063829787E+007, +5.78085297468E+001, +1.08479085649E+002
+1.89252816020E+007, +5.79349709945E+001, +1.09811566372E+002
+1.91441802253E+007, +5.78851604374E+001, +1.10948684620E+002
+1.93630788486E+007, +5.78675955144E+001, +1.12329787564E+002
+1.95819774718E+007, +5.80186345596E+001, +1.13663109729E+002
+1.98008760951E+007, +5.80716806600E+001, +1.14922800533E+002
+2.00197747184E+007, +5.80579441896E+001, +1.16238782502E+002
+2.02386733417E+007, +5.80749185111E+001, +1.17451286861E+002
+2.04575719650E+007, +5.81364167592E+001, +1.18764781855E+002
+2.06764705882E+007, +5.82284363892E+001, +1.20051109390E+002
+2.08953692115E+007, +5.81742360340E+001, +1.21445783901E+002
+2.11142678348E+007, +5.83211978219E+001, +1.22571618077E+002
+2.13331664581E+007, +5.84590603622E+001, +1.23996880175E+002
+2.15520650814E+007, +5.82969712781E+001, +1.25145887246E+002
+2.17709637046E+007, +5.83915485060E+001, +1.26578658726E+002
+2.19898623279E+007, +5.84633507549E+001, +1.28040932941E+002
+2.22087609512E+007, +5.84595380073E+001, +1.29175137161E+002
+2.24276595745E+007, +5.86958366398E+001, +1.30674795918E+002
+2.26465581977E+007, +5.86203906250E+001, +1.31870926364E+002
+2.28654568210E+007, +5.88929200111E+001, +1.33175938961E+002
+2.30843554443E+007, +5.87792910013E+001, +1.34418682592E+002
+2.33032540676E+007, +5.89632276444E+001, +1.35706983531E+002
+2.35221526909E+007, +5.88127577217E+001, +1.37164098952E+002
+2.37410513141E+007, +5.88087136928E+001, +1.38357841497E+002
+2.39599499374E+007, +5.88183472683E+001, +1.39678359580E+002
+2.41788485607E+007, +5.89481666126E+001, +1.40814886054E+002
+2.43977471840E+007, +5.90465450139E+001, +1.42357743123E+002
+2.46166458073E+007, +5.89928988410E+001, +1.43709525984E+002
+2.48355444305E+007, +5.91499443034E+001, +1.44946478603E+002
+2.50544430538E+007, +5.94185457989E+001, +1.46410661213E+002
+2.52733416771E+007, +5.95390954665E+001, +1.47582809663E+002
+2.54922403004E+007, +5.93468047789E+001, +1.49094301386E+002
+2.57111389237E+007, +5.94992544596E+001, +1.50323946911E+002
+2.59300375469E+007, +5.93945516892E+001, +1.51618905061E+002
+2.61489361702E+007, +5.95754106342E+001, +1.52881056013E+002
+2.63678347935E+007, +5.95017420986E+001, +1.54304115410E+002
+2.65867334168E+007, +5.97406329958E+001, +1.55665783471E+002
+2.68056320401E+007, +5.97790529356E+001, +1.57000376854E+002
+2.70245306633E+007, +5.97365246640E+001, +1.58284186512E+002
+2.72434292866E+007, +5.99010158143E+001, +1.59463867771E+002
+2.74623279099E+007, +5.98928630598E+001, +1.61065870150E+002
+2.76812265332E+007, +5.98884794284E+001, +1.62243727927E+002
+2.79001251564E+007, +5.98567092937E+001, +1.63804319166E+002
+2.81190237797E+007, +6.02296210418E+001, +1.64984020759E+002
+2.83379224030E+007, +6.00255737798E+001, +1.66112966884E+002
+2.85568210263E+007, +6.01417552730E+001, +1.67462064719E+002
+2.87757196496E+007, +6.01524990740E+001, +1.69030364006E+002
+2.89946182728E+007, +6.00738654622E+001, +1.70454795417E+002
+2.92135168961E+007, +6.01978850228E+001, +1.71857152631E+002
+2.94324155194E+007, +6.03185370118E+001, +1.73057916205E+002
+2.96513141427E+007, +6.02144603865E+001, +1.74366219686E+002
+2.98702127660E+007, +6.03442591925E+001, +1.75794285327E+002
+3.00891113892E+007, +6.05030582579E+001, +1.76980563195E+002
+3.03080100125E+007, +6.07726056019E+001, +1.78333687361E+002
+3.05269086358E+007, +6.08969723924E+001, +1.79792429318E+002
+3.07458072591E+007, +6.07258742927E+001, +1.81051145551E+002
+3.09647058824E+007, +6.09829410931E+001, +1.82495663317E+002
+3.11836045056E+007, +6.09308102693E+001, +1.83780466789E+002
+3.14025031289E+007, +6.07518024675E+001, +1.85263631682E+002
+3.16214017522E+007, +6.10341280343E+001, +1.86633509489E+002
+3.18403003755E+007, +6.10064604000E+001, +1.88183714867E+002
+3.20591989987E+007, +6.11469868737E+001, +1.89260387832E+002
+3.22780976220E+007, +6.11450228144E+001, +1.90855568727E+002
+3.24969962453E+007, +6.11819797272E+001, +1.92046137268E+002
+3.27158948686E+007, +6.13746072831E+001, +1.93398731196E+002
+3.29347934919E+007, +6.13028734006E+001, +1.94867381152E+002
+3.31536921151E+007, +6.14651369032E+001, +1.95881848040E+002
+3.33725907384E+007, +6.14119362350E+001, +1.97753945503E+002
+3.35914893617E+007, +6.15862836990E+001, +1.98958517051E+002
+3.38103879850E+007, +6.16163322838E+001, +2.00465959300E+002
+3.40292866083E+007, +6.14567144432E+001, +2.01975281885E+002
+3.42481852315E+007, +6.19423241267E+001, +2.03279574271E+002
+3.44670838548E+007, +6.17937978451E+001, +2.04405924246E+002
+3.46859824781E+007, +6.20136783238E+001, +2.06008543535E+002
+3.49048811014E+007, +6.23698720916E+001, +2.07300894078E+002
+3.51237797247E+007, +6.22300267265E+001, +2.08773920985E+002
+3.53426783479E+007, +6.24380993650E+001, +2.10128494267E+002
+3.55615769712E+007, +6.25116894570E+001, +2.11828115864E+002
+3.57804755945E+007, +6.24524870729E+001, +2.12849092053E+002
+3.59993742178E+007, +6.25484458020E+001, +2.14668948424E+002
+3.62182728411E+007, +6.27208903339E+001, +2.15587972133E+002
+3.64371714643E+007, +6.28312974820E+001, +2.17041279949E+002
+3.66560700876E+007, +6.26617120373E+001, +2.18992180868E+002
+3.68749687109E+007, +6.27860901456E+001, +2.20306384046E+002
+3.70938673342E+007, +6.30295079346E+001, +2.21336790696E+002
+3.73127659574E+007, +6.32496211903E+001, +2.22836772718E+002
+3.75316645807E+007, +6.29328875049E+001, +2.24324994097E+002
+3.77505632040E+007, +6.28654138056E+001, +2.25594877902E+002
+3.79694618273E+007, +6.32998812819E+001, +2.27045024048E+002
+3.81883604506E+007, +6.31016443198E+001, +2.28534359046E+002
+3.84072590738E+007, +6.32962749292E+001, +2.30027106877E+002
+3.86261576971E+007, +6.35673084339E+001, +2.31308305238E+002
+3.88450563204E+007, +6.34305211722E+001, +2.32864395252E+002
+3.90639549437E+007, +6.39259551598E+001, +2.34153800233E+002
+3.92828535670E+007, +6.36244923529E+001, +2.36175347170E+002
+3.95017521902E+007, +6.39010833653E+001, +2.37202012098E+002
+3.97206508135E+007, +6.38294787869E+001, +2.38916926401E+002
+3.99395494368E+007, +6.38549437519E+001, +2.39946628057E+002
+4.01584480601E+007, +6.41576865628E+001, +2.41550161737E+002
+4.03773466834E+007, +6.42199380259E+001, +2.43055315429E+002
+4.05962453066E+007, +6.43892212299E+001, +2.44643716607E+002
+4.08151439299E+007, +6.44008191903E+001, +2.45397459573E+002
+4.10340425532E+007, +6.41159981403E+001, +2.46969760856E+002
+4.12529411765E+007, +6.45957486060E+001, +2.48592756557E+002
+4.14718397997E+007, +6.42425305889E+001, +2.50208938809E+002
+4.16907384230E+007, +6.47190722257E+001, +2.51843992226E+002
+4.19096370463E+007, +6.48162390416E+001, +2.52944076070E+002
+4.21285356696E+007, +6.50413927477E+001, +2.54520345609E+002
+4.23474342929E+007, +6.50597022103E+001, +2.56625751519E+002
+4.25663329161E+007, +6.54401282614E+001, +2.57568616286E+002
+4.27852315394E+007, +6.50332042969E+001, +2.59112437200E+002
+4.30041301627E+007, +6.55156972467E+001, +2.60899978077E+002
+4.32230287860E+007, +6.57414165169E+001, +2.62117314432E+002
+4.34419274093E+007, +6.57569866336E+001, +2.63519056895E+002
+4.36608260325E+007, +6.59665698210E+001, +2.65020565234E+002
+4.38797246558E+007, +6.54007058337E+001, +2.66854301926E+002
+4.40986232791E+007, +6.55825830107E+001, +2.68419393628E+002
+4.43175219024E+007, +6.58946405653E+001, +2.69943818695E+002
+4.45364205257E+007, +6.64106343278E+001, +2.71387657609E+002
+4.47553191489E+007, +6.64855008150E+001, +2.73269030019E+002
+4.49742177722E+007, +6.62387686718E+001, +2.74489174858E+002
+4.51931163955E+007, +6.62689676903E+001, +2.75916324490E+002
+4.54120150188E+007, +6.63987893875E+001, +2.76739844661E+002
+4.56309136421E+007, +6.65662783547E+001, +2.78839241582E+002
+4.58498122653E+007, +6.64733802644E+001, +2.79885773000E+002
+4.60687108886E+007, +6.64635035167E+001, +2.81593260490E+002
+4.62876095119E+007, +6.68896211519E+001, +2.83382866943E+002
+4.65065081352E+007, +6.71223658576E+001, +2.84423014565E+002
+4.67254067584E+007, +6.71133995824E+001, +2.86104487495E+002
+4.69443053817E+007, +6.69838795158E+001, +2.87300364243E+002
+4.71632040050E+007, +6.70320217325E+001, +2.89494573799E+002
+4.73821026283E+007, +6.73721765217E+001, +2.90572617704E+002
+4.76010012516E+007, +6.72326219464E+001, +2.92503531204E+002
+4.78198998748E+007, +6.72878704305E+001, +2.94011916404E+002
+4.80387984981E+007, +6.74272968194E+001, +2.95796516055E+002
+4.82576971214E+007, +6.76661801219E+001, +2.97512323100E+002
+4.84765957447E+007, +6.80892205061E+001, +2.98748346640E+002
+4.86954943680E+007, +6.78903379252E+001, +3.00014795065E+002
+4.89143929912E+007, +6.81626967735E+001, +3.01573318734E+002
+4.91332916145E+007, +6.79123827262E+001, +3.03523965250E+002
+4.93521902378E+007, +6.82827127161E+001, +3.04913664769E+002
+4.95710888611E+007, +6.91546317467E+001, +3.06082369677E+002
+4.97899874844E+007, +6.88446274734E+001, +3.07877009332E+002
+5.00088861076E+007, +6.84929827052E+001, +3.09495138865E+002
+5.02277847309E+007, +6.90283447938E+001, +3.10984333606E+002
+5.04466833542E+007, +6.92701294442E+001, +3.12992394405E+002
+5.06655819775E+007, +6.91352884125E+001, +3.14525998514E+002
+5.08844806008E+007, +6.93077858612E+001, +3.16086218863E+002
+5.11033792240E+007, +6.96302876741E+001, +3.17213984151E+002
+5.13222778473E+007, +6.96479989089E+001, +3.19261713886E+002
+5.15411764706E+007, +6.98384629553E+001, +3.20640284167E+002
+5.17600750939E+007, +7.00281781532E+001, +3.22930424149E+002
+5.19789737171E+007, +6.97209496962E+001, +3.24094476223E+002
+5.21978723404E+007, +7.00599560791E+001, +3.25933964879E+002
+5.24167709637E+007, +6.95562689862E+001, +3.27317904326E+002
+5.26356695870E+007, +7.03311794657E+001, +3.28632839232E+002
+5.28545682103E+007, +7.10931040087E+001, +3.30599896806E+002
+5.30734668335E+007, +7.07375132190E+001, +3.32281356397E+002
+5.32923654568E+007, +7.03852781409E+001, +3.34748136892E+002
+5.35112640801E+007, +7.17124426109E+001, +3.35025150542E+002
+5.37301627034E+007, +7.08377813545E+001, +3.37627015490E+002
+5.39490613267E+007, +7.14632277434E+001, +3.38853170783E+002
+5.41679599499E+007, +7.12076040985E+001, +3.40599669097E+002
+5.43868585732E+007, +7.14877815953E+001, +3.42009525980E+002
+5.46057571965E+007, +7.14576915290E+001, +3.43743202551E+002
+5.48246558198E+007, +7.18872316575E+001, +3.45695339144E+002
+5.50435544431E+007, +7.25375856419E+001, +3.47465555860E+002
+5.52624530663E+007, +7.22955360195E+001, +3.49836425674E+002
+5.54813516896E+007, +7.26179585194E+001, +3.50662931696E+002
+5.57002503129E+007, +7.31848231157E+001, +3.52024019011E+002
+5.59191489362E+007, +7.23023379929E+001, +3.54316170792E+002
+5.61380475594E+007, +7.25470805012E+001, +3.55227350968E+002
+5.63569461827E+007, +7.26796502866E+001, +3.58224467609E+002
+5.65758448060E+007, +7.33515859956E+001, +3.59183488194E+002
+5.67947434293E+007, +7.34818721096E+001, +3.61548414088E+002
+5.70136420526E+007, +7.35390685074E+001, +3.62131848930E+002
+5.72325406758E+007, +7.39681794935E+001, +3.64587893896E+002
+5.74514392991E+007, +7.36793549143E+001, +3.65716607641E+002
+5.76703379224E+007, +7.41375664806E+001, +3.67820782350E+002
+5.78892365457E+007, +7.34837415339E+001, +3.69477717518E+002
+5.81081351690E+007, +7.46837855870E+001, +3.71588042607E+002
+5.83270337922E+007, +7.42380479038E+001, +3.73212659377E+002
+5.85459324155E+007, +7.54950739610E+001, +3.75103616277E+002
+5.87648310388E+007, +7.43643011255E+001, +3.76703075024E+002
+5.89837296621E+007, +7.54673518196E+001, +3.78789049205E+002
+5.92026282854E+007, +7.56587249298E+001, +3.80446855603E+002
+5.94215269086E+007, +7.56541206697E+001, +3.81927101052E+002
+5.96404255319E+007, +7.48387052958E+001, +3.84051495111E+002
+5.98593241552E+007, +7.64803799910E+001, +3.85990536646E+002
+6.00782227785E+007, +7.60435324663E+001, +3.87035481669E+002
+6.02971214018E+007, +7.65468688987E+001, +3.89057273364E+002
+6.05160200250E+007, +7.62521312749E+001, +3.90763773452E+002
+6.07349186483E+007, +7.67813117479E+001, +3.92647688925E+002
+6.09538172716E+007, +7.64853480890E+001, +3.94936977114E+002
+6.11727158949E+007, +7.74288355780E+001, +3.96958547391E+002
+6.13916145181E+007, +7.68751969004E+001, +3.99018381151E+002
+6.16105131414E+007, +7.75778737610E+001, +4.00441659404E+002
+6.18294117647E+007, +7.76031443065E+001, +4.01193504321E+002
+6.20483103880E+007, +7.71389344487E+001, +4.04181035413E+002
+6.22672090113E+007, +7.79668471181E+001, +4.06548509466E+002
+6.24861076345E+007, +7.88842931550E+001, +4.08109200101E+002
+6.27050062578E+007, +7.90282306952E+001, +4.09544157028E+002
+6.29239048811E+007, +7.74993264455E+001, +4.11127723495E+002
+6.31428035044E+007, +7.84510731282E+001, +4.13434314131E+002
+6.33617021277E+007, +7.95115302818E+001, +4.14651780965E+002
+6.35806007509E+007, +7.93981935276E+001, +4.17010025252E+002
+6.37994993742E+007, +7.93211639029E+001, +4.18878756866E+002
+6.40183979975E+007, +8.02892834224E+001, +4.20702669467E+002
+6.42372966208E+007, +7.97208959519E+001, +4.23456156746E+002
+6.44561952441E+007, +8.02677456994E+001, +4.24717490111E+002
+6.46750938673E+007, +8.06262299749E+001, +4.27616042371E+002
+6.48939924906E+007, +8.11148698531E+001, +4.28771035807E+002
+6.51128911139E+007, +8.07151018820E+001, +4.31213667975E+002
+6.53317897372E+007, +8.18886848476E+001, +4.32875435289E+002
+6.55506883605E+007, +8.16740774117E+001, +4.34602663901E+002
+6.57695869837E+007, +8.16554113147E+001, +4.36668579909E+002
+6.59884856070E+007, +8.25080540391E+001, +4.38259443194E+002
+6.62073842303E+007, +8.23667622558E+001, +4.41558904325E+002
+6.64262828536E+007, +8.15714097839E+001, +4.42028445987E+002
+6.66451814768E+007, +8.29511802612E+001, +4.44122438284E+002
+6.68640801001E+007, +8.36041433427E+001, +4.46318061249E+002
+6.70829787234E+007, +8.31083640257E+001, +4.47862394752E+002
+6.73018773467E+007, +8.36751152209E+001, +4.50049640777E+002
+6.75207759700E+007, +8.45355525145E+001, +4.52525484063E+002
+6.77396745932E+007, +8.42830246821E+001, +4.54333978685E+002
+6.79585732165E+007, +8.56679623798E+001, +4.56645840937E+002
+6.81774718398E+007, +8.53107461134E+001, +4.59118275599E+002
+6.83963704631E+007, +8.52508620746E+001, +4.59994554548E+002
+6.86152690864E+007, +8.53394797007E+001, +4.62187578046E+002
+6.88341677096E+007, +8.56502548068E+001, +4.64073621521E+002
+6.90530663329E+007, +8.66858496657E+001, +4.66739053617E+002
+6.92719649562E+007, +8.72866470736E+001, +4.68740196175E+002
+6.94908635795E+007, +8.66466655114E+001, +4.70535592293E+002
+6.97097622028E+007, +8.57442079864E+001, +4.72599178876E+002
+6.99286608260E+007, +8.76600419123E+001, +4.74407723195E+002
+7.01475594493E+007, +8.77590803494E+001, +4.77178698569E+002
