"# Channel 1"
"# Trace 1"
Frequency, Formatted Data, Formatted Data
+1.00000000000E+005, +6.05147744514E+001, +9.94865634602E-001
+3.18898623279E+005, +6.05671749291E+001, +2.01311234371E+000
+5.37797246558E+005, +6.06199689256E+001, +3.49944638022E+000
+7.56695869837E+005, +6.06118453643E+001, +4.84975606142E+000
+9.75594493116E+005, +6.06177042968E+001, +6.23319923069E+000
+1.19449311640E+006, +6.05901548713E+001, +7.62774940656E+000
+1.41339173967E+006, +6.04643515584E+001, +9.05151471538E+000
+1.63229036295E+006, +6.06601952092E+001, +1.03703482230E+001
+1.85118898623E+006, +6.05733000219E+001, +1.19050906268E+001
+2.07008760951E+006, +6.06327536806E+001, +1.32838487734E+001
+2.28898623279E+006, +6.07097551517E+001, +1.48215325507E+001
+2.50788485607E+006, +6.07124164192E+001, +1.60170845606E+001
+2.72678347935E+006, +6.05313670348E+001, +1.76192671946E+001
+2.94568210263E+006, +6.06996508971E+001, +1.89677811327E+001
+3.16458072591E+006, +6.05957074614E+001, +2.05543926747E+001
+3.38347934919E+006, +6.07154005822E+001, +2.18552714060E+001
+3.60237797247E+006, +6.06792622489E+001, +2.31095614571E+001
+3.82127659574E+006, +6.07601046298E+001, +2.44025660563E+001
+4.04017521902E+006, +6.08802670073E+001, +2.59301894869E+001
+4.25907384230E+006, +6.07365833517E+001, +2.72537207135E+001
+4.47797246558E+006, +6.07790603182E+001, +2.88519535535E+001
+4.69687108886E+006, +6.06315420743E+001, +3.01702038895E+001
+4.91576971214E+006, +6.06438422114E+001, +3.16379983099E+001
+5.13466833542E+006, +6.08156159533E+001, +3.30943005984E+001
+5.35356695870E+006, +6.08776702436E+001, +3.45024427745E+001
+5.57246558198E+006, +6.07641851527E+001, +3.56791355329E+001
+5.79136420526E+006, +6.08838058760E+001, +3.73766913096E+001
+6.01026282854E+006, +6.09473007543E+001, +3.84730579309E+001
+6.22916145181E+006, +6.09367992382E+001, +4.01118147872E+001
+6.44806007509E+006, +6.09222415205E+001, +4.14268861185E+001
+6.66695869837E+006, +6.10131646748E+001, +4.28157780652E+001
+6.88585732165E+006, +6.09295153999E+001, +4.42034238267E+001
+7.10475594493E+006, +6.10199260186E+001, +4.56043029908E+001
+7.32365456821E+006, +6.09963457086E+001, +4.70372540647E+001
+7.54255319149E+006, +6.09940226320E+001, +4.83503453873E+001
+7.76145181477E+006, +6.10856130547E+001, +4.97844170744E+001
+7.98035043805E+006, +6.11642578917E+001, +5.11993397594E+001
+8.19924906133E+006, +6.10893592928E+001, +5.25568803881E+001
+8.41814768461E+006, +6.11955237889E+001, +5.40463844350E+001
+8.63704630788E+006, +6.11542299404E+001, +5.53994047754E+001
+8.85594493116E+006, +6.12214065038E+001, +5.67928174927E+001
+9.07484355444E+006, +6.11292867343E+001, +5.82923044535E+001
+9.29374217772E+006, +6.12498365994E+001, +5.97125123814E+001
+9.51264080100E+006, +6.13127391139E+001, +6.10135065650E+001
+9.73153942428E+006, +6.11937043661E+001, +6.25140561218E+001
+9.95043804756E+006, +6.11866660877E+001, +6.37941835024E+001
+1.01693366708E+007, +6.13420418476E+001, +6.52398567725E+001
+1.03882352941E+007, +6.13926606491E+001, +6.65693909284E+001
+1.06071339174E+007, +6.13409759631E+001, +6.81030583058E+001
+1.08260325407E+007, +6.13425608294E+001, +6.94859622953E+001
+1.10449311640E+007, +6.13793290849E+001, +7.08972116708E+001
+1.12638297872E+007, +6.14038241299E+001, +7.23344371046E+001
+1.14827284105E+007, +6.15144573208E+001, +7.37003222207E+001
+1.17016270338E+007, +6.15550963389E+001, +7.51544190123E+001
+1.19205256571E+007, +6.15015222849E+001, +7.64854581514E+001
+1.21394242804E+007, +6.15808325214E+001, +7.78705360868E+001
+1.23583229036E+007, +6.15957241816E+001, +7.93834130940E+001
+1.25772215269E+007, +6.14899601540E+001, +8.07700188329E+001
+1.27961201502E+007, +6.15359687272E+001, +8.20565294989E+001
+1.30150187735E+007, +6.16441700542E+001, +8.35811497151E+001
+1.32339173967E+007, +6.16956925956E+001, +8.51112081967E+001
+1.34528160200E+007, +6.16382203074E+001, +8.64016903850E+001
+1.36717146433E+007, +6.17578381320E+001, +8.78011071667E+001
+1.38906132666E+007, +6.17222720158E+001, +8.93212610840E+001
+1.41095118899E+007, +6.18270986062E+001, +9.06974748122E+001
+1.43284105131E+007, +6.16831697298E+001, +9.21224062620E+001
+1.45473091364E+007, +6.18320952952E+001, +9.36932656528E+001
+1.47662077597E+007, +6.19042575060E+001, +9.49537220588E+001
+1.49851063830E+007, +6.19709591235E+001, +9.62993239391E+001
+1.52040050063E+007, +6.18638226767E+001, +9.79905061234E+001
+1.54229036295E+007, +6.20344856892E+001, +9.92902186105E+001
+1.56418022528E+007, +6.19138653979E+001, +1.00728890413E+002
+1.58607008761E+007, +6.20130059800E+001, +1.02097367934E+002
+1.60795994994E+007, +6.20501474459E+001, +1.03556075826E+002
+1.62984981227E+007, +6.20840016911E+001, +1.04930459973E+002
+1.65173967459E+007, +6.20952660009E+001, +1.06401681792E+002
+1.67362953692E+007, +6.20928961512E+001, +1.07869797463E+002
+1.69551939925E+007, +6.21303263439E+001, +1.09120001232E+002
+1.71740926158E+007, +6.20944900888E+001, +1.10909543594E+002
+1.73929912390E+007, +6.21592004039E+001, +1.12160334509E+002
+1.76118898623E+007, +6.22864843649E+001, +1.13490286931E+002
+1.78307884856E+007, +6.23621733947E+001, +1.14884438802E+002
+1.80496871089E+007, +6.22982647322E+001, +1.16375048099E+002
+1.82685857322E+007, +6.23863869684E+001, +1.17773650032E+002
+1.84874843554E+007, +6.24907814588E+001, +1.19194913425E+002
+1.87063829787E+007, +6.24159967218E+001, +1.20740963192E+002
+1.89252816020E+007, +6.25126256556E+001, +1.22125344120E+002
+1.91441802253E+007, +6.25494073252E+001, +1.23444539809E+002
+1.93630788486E+007, +6.25358002171E+001, +1.24948609437E+002
+1.95819774718E+007, +6.26398246771E+001, +1.26483901662E+002
+1.98008760951E+007, +6.27739042636E+001, +1.27959138809E+002
+2.00197747184E+007, +6.25794704919E+001, +1.29389922182E+002
+2.02386733417E+007, +6.27789627100E+001, +1.30815098582E+002
+2.04575719650E+007, +6.27241227458E+001, +1.32240479769E+002
+2.06764705882E+007, +6.28254336662E+001, +1.33691952911E+002
+2.08953692115E+007, +6.29162581971E+001, +1.35192659464E+002
+2.11142678348E+007, +6.29427158979E+001, +1.36577824858E+002
+2.13331664581E+007, +6.31726319068E+001, +1.38086055702E+002
+2.15520650814E+007, +6.30600424535E+001, +1.39274506801E+002
+2.17709637046E+007, +6.31410821612E+001, +1.40993126235E+002
+2.19898623279E+007, +6.30800262362E+001, +1.42443812939E+002
+2.22087609512E+007, +6.31117731661E+001, +1.43725055371E+002
+2.24276595745E+007, +6.33894976176E+001, +1.45470821159E+002
+2.26465581977E+007, +6.34318099365E+001, +1.46739601327E+002
+2.28654568210E+007, +6.35256718769E+001, +1.48135209939E+002
+2.30843554443E+007, +6.33848323809E+001, +1.49620132257E+002
+2.33032540676E+007, +6.35720010049E+001, +1.50940192672E+002
+2.35221526909E+007, +6.35129526588E+001, +1.52803356542E+002
+2.37410513141E+007, +6.34708914989E+001, +1.53941357155E+002
+2.39599499374E+007, +6.35892703578E+001, +1.55466187874E+002
+2.41788485607E+007, +6.36428713761E+001, +1.56807411538E+002
+2.43977471840E+007, +6.37042521080E+001, +1.58425462567E+002
+2.46166458073E+007, +6.35348206127E+001, +1.60033356444E+002
+2.48355444305E+007, +6.38676754061E+001, +1.61394724789E+002
+2.50544430538E+007, +6.39674454645E+001, +1.62755271677E+002
+2.52733416771E+007, +6.40308983931E+001, +1.64236854680E+002
+2.54922403004E+007, +6.39291919027E+001, +1.65838795399E+002
+2.57111389237E+007, +6.40722435862E+001, +1.67287103344E+002
+2.59300375469E+007, +6.40488120535E+001, +1.68968755090E+002
+2.61489361702E+007, +6.43620237895E+001, +1.70212170983E+002
+2.63678347935E+007, +6.40570886990E+001, +1.71629698178E+002
+2.65867334168E+007, +6.43172034673E+001, +1.73062400597E+002
+2.68056320401E+007, +6.44270326152E+001, +1.74637460565E+002
+2.70245306633E+007, +6.44416568399E+001, +1.76085228712E+002
+2.72434292866E+007, +6.44752265489E+001, +1.77411458394E+002
+2.74623279099E+007, +6.45978511741E+001, +1.79177647646E+002
+2.76812265332E+007, +6.46242473896E+001, +1.80397515308E+002
+2.79001251564E+007, +6.45539245273E+001, +1.82070736474E+002
+2.81190237797E+007, +6.47913493028E+001, +1.83475547063E+002
+2.83379224030E+007, +6.48819798770E+001, +1.84984542243E+002
+2.85568210263E+007, +6.45909572075E+001, +1.86527165212E+002
+2.87757196496E+007, +6.46646032713E+001, +1.87979197842E+002
+2.89946182728E+007, +6.48974392330E+001, +1.89614036378E+002
+2.92135168961E+007, +6.47866824586E+001, +1.91227527331E+002
+2.94324155194E+007, +6.49485598858E+001, +1.92771165050E+002
+2.96513141427E+007, +6.50849824343E+001, +1.93977308764E+002
+2.98702127660E+007, +6.49091038942E+001, +1.95752346902E+002
+3.00891113892E+007, +6.51677926062E+001, +1.97044061024E+002
+3.03080100125E+007, +6.52468672817E+001, +1.98666539800E+002
+3.05269086358E+007, +6.54247147964E+001, +2.00278772307E+002
+3.07458072591E+007, +6.53986747944E+001, +2.01705018915E+002
+3.09647058824E+007, +6.55547394832E+001, +2.03189313412E+002
+3.11836045056E+007, +6.55596209930E+001, +2.04547596477E+002
+3.14025031289E+007, +6.55942836428E+001, +2.05948773598E+002
+3.16214017522E+007, +6.57163354897E+001, +2.07299055515E+002
+3.18403003755E+007, +6.56940899647E+001, +2.09495365587E+002
+3.20591989987E+007, +6.57720654518E+001, +2.10594786331E+002
+3.22780976220E+007, +6.58082547422E+001, +2.12336955588E+002
+3.24969962453E+007, +6.58874146342E+001, +2.14094751896E+002
+3.27158948686E+007, +6.57663244573E+001, +2.15208807012E+002
+3.29347934919E+007, +6.58713879315E+001, +2.16800493284E+002
+3.31536921151E+007, +6.60294155633E+001, +2.17985249993E+002
+3.33725907384E+007, +6.62092209425E+001, +2.20320106964E+002
+3.35914893617E+007, +6.61657527410E+001, +2.21309531833E+002
+3.38103879850E+007, +6.63696710935E+001, +2.23031918262E+002
+3.40292866083E+007, +6.60085287536E+001, +2.24849289149E+002
+3.42481852315E+007, +6.67289735899E+001, +2.26192896647E+002
+3.44670838548E+007, +6.63368040232E+001, +2.27957225862E+002
+3.46859824781E+007, +6.66554629025E+001, +2.29162447625E+002
+3.49048811014E+007, +6.70168151195E+001, +2.30753847422E+002
+3.51237797247E+007, +6.68052130597E+001, +2.32280321116E+002
+3.53426783479E+007, +6.70430990998E+001, +2.33927833463E+002
+3.55615769712E+007, +6.70899943152E+001, +2.35313026698E+002
+3.57804755945E+007, +6.73519360294E+001, +2.36706797653E+002
+3.59993742178E+007, +6.71747905326E+001, +2.38750265893E+002
+3.62182728411E+007, +6.71401887448E+001, +2.39826893968E+002
+3.64371714643E+007, +6.74825778794E+001, +2.41415752109E+002
+3.66560700876E+007, +6.71856302269E+001, +2.43459144202E+002
+3.68749687109E+007, +6.74043368056E+001, +2.45246371765E+002
+3.70938673342E+007, +6.76454966665E+001, +2.46711589884E+002
+3.73127659574E+007, +6.79555792425E+001, +2.48101323087E+002
+3.75316645807E+007, +6.70138989055E+001, +2.49796305100E+002
+3.77505632040E+007, +6.78729973739E+001, +2.51360889840E+002
+3.79694618273E+007, +6.79675303632E+001, +2.52682948441E+002
+3.81883604506E+007, +6.77345091086E+001, +2.54331474512E+002
+3.84072590738E+007, +6.78397907113E+001, +2.56023235370E+002
+3.86261576971E+007, +6.79473072608E+001, +2.57698410266E+002
+3.88450563204E+007, +6.85350744271E+001, +2.59042131037E+002
+3.90639549437E+007, +6.85716974336E+001, +2.60842132695E+002
+3.92828535670E+007, +6.83119305258E+001, +2.63097528629E+002
+3.95017521902E+007, +6.88329158891E+001, +2.64139192013E+002
+3.97206508135E+007, +6.87509249795E+001, +2.65816405551E+002
+3.99395494368E+007, +6.87950285679E+001, +2.67181966950E+002
+4.01584480601E+007, +6.92582797743E+001, +2.69108458846E+002
+4.03773466834E+007, +6.89774984326E+001, +2.70748185365E+002
+4.05962453066E+007, +6.88377640977E+001, +2.72418608923E+002
+4.08151439299E+007, +6.93175856726E+001, +2.73591967303E+002
+4.10340425532E+007, +6.87543273241E+001, +2.75292082335E+002
+4.12529411765E+007, +6.90395076111E+001, +2.76860014695E+002
+4.14718397997E+007, +6.93772639888E+001, +2.78878361787E+002
+4.16907384230E+007, +6.92390790529E+001, +2.80073532634E+002
+4.19096370463E+007, +6.96049730800E+001, +2.81827978909E+002
+4.21285356696E+007, +6.95477711493E+001, +2.83841497115E+002
+4.23474342929E+007, +6.95004623790E+001, +2.85678230118E+002
+4.25663329161E+007, +7.01247095311E+001, +2.86350302312E+002
+4.27852315394E+007, +7.00706384890E+001, +2.88662175341E+002
+4.30041301627E+007, +7.04327623985E+001, +2.90468461140E+002
+4.32230287860E+007, +7.08740813476E+001, +2.91861276819E+002
+4.34419274093E+007, +7.04748569025E+001, +2.93598250249E+002
+4.36608260325E+007, +7.03757058441E+001, +2.95109837074E+002
+4.38797246558E+007, +7.06786831497E+001, +2.96836019892E+002
+4.40986232791E+007, +7.07680891211E+001, +2.98763073584E+002
+4.43175219024E+007, +7.06798845171E+001, +3.00176490353E+002
+4.45364205257E+007, +7.13479041214E+001, +3.02455901934E+002
+4.47553191489E+007, +7.10644039887E+001, +3.04095687930E+002
+4.49742177722E+007, +7.10849193063E+001, +3.05281310098E+002
+4.51931163955E+007, +7.13567847016E+001, +3.07056792250E+002
+4.54120150188E+007, +7.15729595897E+001, +3.08981547105E+002
+4.56309136421E+007, +7.17149054371E+001, +3.10309976650E+002
+4.58498122653E+007, +7.17997606763E+001, +3.11551672861E+002
+4.60687108886E+007, +7.15461378890E+001, +3.13792725232E+002
+4.62876095119E+007, +7.18759646863E+001, +3.15239857811E+002
+4.65065081352E+007, +7.24433992040E+001, +3.16707020515E+002
+4.67254067584E+007, +7.21194334263E+001, +3.18127157514E+002
+4.69443053817E+007, +7.19948666599E+001, +3.20056772578E+002
+4.71632040050E+007, +7.24372518063E+001, +3.21913688144E+002
+4.73821026283E+007, +7.29684561478E+001, +3.23815705495E+002
+4.76010012516E+007, +7.23374621979E+001, +3.25406071494E+002
+4.78198998748E+007, +7.27435408495E+001, +3.27786074724E+002
+4.80387984981E+007, +7.29483636198E+001, +3.29505634550E+002
+4.82576971214E+007, +7.33479340073E+001, +3.31171796950E+002
+4.84765957447E+007, +7.33350282444E+001, +3.32600831551E+002
+4.86954943680E+007, +7.30286885958E+001, +3.34172343984E+002
+4.89143929912E+007, +7.31382272848E+001, +3.36423459403E+002
+4.91332916145E+007, +7.30357963152E+001, +3.37753346967E+002
+4.93521902378E+007, +7.34738848142E+001, +3.39508386016E+002
+4.95710888611E+007, +7.38525667268E+001, +3.41372124434E+002
+4.97899874844E+007, +7.42339191124E+001, +3.42570585449E+002
+5.00088861076E+007, +7.34055472377E+001, +3.44621586915E+002
+5.02277847309E+007, +7.42714312475E+001, +3.46410974891E+002
+5.04466833542E+007, +7.47078378319E+001, +3.48377962214E+002
+5.06655819775E+007, +7.41056411410E+001, +3.50311771656E+002
+5.08844806008E+007, +7.45824006553E+001, +3.52887064936E+002
+5.11033792240E+007, +7.49495260803E+001, +3.53890839672E+002
+5.13222778473E+007, +7.47432222153E+001, +3.55928927885E+002
+5.15411764706E+007, +7.57249153153E+001, +3.57379259767E+002
+5.17600750939E+007, +7.52062248827E+001, +3.59456533332E+002
+5.19789737171E+007, +7.51561822113E+001, +3.61230576594E+002
+5.21978723404E+007, +7.57791181735E+001, +3.62420678676E+002
+5.24167709637E+007, +7.48915218547E+001, +3.64464803623E+002
+5.26356695870E+007, +7.62165010349E+001, +3.66263976186E+002
+5.28545682103E+007, +7.63357954082E+001, +3.68204314825E+002
+5.30734668335E+007, +7.62985273604E+001, +3.70901814578E+002
+5.32923654568E+007, +7.62961137553E+001, +3.72342317376E+002
+5.35112640801E+007, +7.72062983268E+001, +3.73159115488E+002
+5.37301627034E+007, +7.63497572414E+001, +3.75843848869E+002
+5.39490613267E+007, +7.75867654400E+001, +3.77234508790E+002
+5.41679599499E+007, +7.71778421393E+001, +3.79337217444E+002
+5.43868585732E+007, +7.70302034934E+001, +3.81052579833E+002
+5.46057571965E+007, +7.69925084871E+001, +3.83176043017E+002
+5.48246558198E+007, +7.77194494051E+001, +3.84766098931E+002
+5.50435544431E+007, +7.82605399850E+001, +3.87111338453E+002
+5.52624530663E+007, +7.78009628249E+001, +3.89382013711E+002
+5.54813516896E+007, +7.81149963510E+001, +3.90080925491E+002
+5.57002503129E+007, +7.91217704981E+001, +3.92103670290E+002
+5.59191489362E+007, +7.81398624327E+001, +3.94056333699E+002
+5.61380475594E+007, +7.89884000300E+001, +3.96359492574E+002
+5.63569461827E+007, +7.87535269432E+001, +3.98074859651E+002
+5.65758448060E+007, +7.89002115354E+001, +4.00524799053E+002
+5.67947434293E+007, +7.93685248172E+001, +4.02395030832E+002
+5.70136420526E+007, +7.92926171143E+001, +4.04153650166E+002
+5.72325406758E+007, +7.98674379243E+001, +4.05880314643E+002
+5.74514392991E+007, +7.95802492829E+001, +4.06792406929E+002
+5.76703379224E+007, +8.04584289238E+001, +4.09652598705E+002
+5.78892365457E+007, +7.93703759197E+001, +4.11870968409E+002
+5.81081351690E+007, +8.17343427167E+001, +4.13900361678E+002
+5.83270337922E+007, +8.03014863802E+001, +4.16060557001E+002
+5.85459324155E+007, +8.16322672086E+001, +4.17650191797E+002
+5.87648310388E+007, +8.14494692042E+001, +4.19984294275E+002
+5.89837296621E+007, +8.13837452214E+001, +4.21355241209E+002
+5.92026282854E+007, +8.19142523651E+001, +4.23981035752E+002
+5.94215269086E+007, +8.18461313146E+001, +4.25748610640E+002
+5.96404255319E+007, +8.08264168553E+001, +4.28352522834E+002
+5.98593241552E+007, +8.29740796784E+001, +4.29699548714E+002
+6.00782227785E+007, +8.22432299823E+001, +4.31525399216E+002
+6.02971214018E+007, +8.37182679084E+001, +4.33528205215E+002
+6.05160200250E+007, +8.27503214371E+001, +4.35739841583E+002
+6.07349186483E+007, +8.34184600743E+001, +4.37730527176E+002
+6.09538172716E+007, +8.28485734266E+001, +4.40332884229E+002
+6.11727158949E+007, +8.36568141159E+001, +4.42916784249E+002
+6.13916145181E+007, +8.34514380695E+001, +4.43886014175E+002
+6.16105131414E+007, +8.41737439512E+001, +4.45537708472E+002
+6.18294117647E+007, +8.47093574362E+001, +4.48053405785E+002
+6.20483103880E+007, +8.31742505094E+001, +4.49902589185E+002
+6.22672090113E+007, +8.52463611153E+001, +4.52370433890E+002
+6.24861076345E+007, +8.60159296097E+001, +4.54468237054E+002
+6.27050062578E+007, +8.57729148010E+001, +4.56835625409E+002
+6.29239048811E+007, +8.45168424162E+001, +4.58435284253E+002
+6.31428035044E+007, +8.52674344333E+001, +4.60400125230E+002
+6.33617021277E+007, +8.67303019966E+001, +4.63110458752E+002
+6.35806007509E+007, +8.54573396673E+001, +4.65379826391E+002
+6.37994993742E+007, +8.55433977411E+001, +4.67265439033E+002
+6.40183979975E+007, +8.75865106883E+001, +4.68746827927E+002
+6.42372966208E+007, +8.64870509687E+001, +4.70950016240E+002
+6.44561952441E+007, +8.74575354460E+001, +4.72889276831E+002
+6.46750938673E+007, +8.79777483489E+001, +4.76177175010E+002
+6.48939924906E+007, +8.74668546603E+001, +4.77723091077E+002
+6.51128911139E+007, +8.78081932987E+001, +4.81540469492E+002
+6.53317897372E+007, +8.96606518388E+001, +4.82925198579E+002
+6.55506883605E+007, +8.83833322444E+001, +4.85494698853E+002
+6.57695869837E+007, +8.90563045063E+001, +4.87794786256E+002
+6.59884856070E+007, +9.05752735817E+001, +4.88554849089E+002
+6.62073842303E+007, +8.91838308333E+001, +4.92240755717E+002
+6.64262828536E+007, +8.99410189233E+001, +4.92426320263E+002
+6.66451814768E+007, +9.04970055475E+001, +4.95986482076E+002
+6.68640801001E+007, +9.05073680256E+001, +4.97853363432E+002
+6.70829787234E+007, +9.06472027616E+001, +5.00791475174E+002
+6.73018773467E+007, +9.17555332015E+001, +5.02152942249E+002
+6.75207759700E+007, +9.24617242454E+001, +5.05478230157E+002
+6.77396745932E+007, +9.09812159043E+001, +5.06660157045E+002
+6.79585732165E+007, +9.34676316156E+001, +5.09271384489E+002
+6.81774718398E+007, +9.24278380885E+001, +5.12736012136E+002
+6.83963704631E+007, +9.31105229587E+001, +5.14839371116E+002
+6.86152690864E+007, +9.39715297411E+001, +5.15861439715E+002
+6.88341677096E+007, +9.37221627754E+001, +5.18219747432E+002
+6.90530663329E+007, +9.55008883859E+001, +5.20898988879E+002
+6.92719649562E+007, +9.53272286256E+001, +5.22528264442E+002
+6.94908635795E+007, +9.55355417956E+001, +5.25087106611E+002
+6.97097622028E+007, +9.50479992335E+001, +5.27760224669E+002
+6.99286608260E+007, +9.73316434467E+001, +5.30357430416E+002
+7.01475594493E+007, +9.40873482707E+001, +5.32914312342E+002
