"# Channel 1"
"# Trace 1"
Frequency, Formatted Data, Formatted Data
+1.00000000000E+005, +5.56846759306E+001, +1.09440950129E+000
+3.18898623279E+005, +5.58066806208E+001, +1.84045777746E+000
+5.37797246558E+005, +5.58434566023E+001, +3.19500414422E+000
+7.56695869837E+005, +5.58227181800E+001, +4.42820305326E+000
+9.75594493116E+005, +5.58561837329E+001, +5.79775194647E+000
+1.19449311640E+006, +5.58796022569E+001, +6.98515858840E+000
+1.41339173967E+006, +5.57390065309E+001, +8.29388161092E+000
+1.63229036295E+006, +5.58691653687E+001, +9.52725319190E+000
+1.85118898623E+006, +5.58469456283E+001, +1.09302516116E+001
+2.07008760951E+006, +5.58462074144E+001, +1.22238205020E+001
+2.28898623279E+006, +5.59792639035E+001, +1.36659287500E+001
+2.50788485607E+006, +5.59393348332E+001, +1.47492686246E+001
+2.72678347935E+006, +5.58504793598E+001, +1.61143274759E+001
+2.94568210263E+006, +5.59637384683E+001, +1.73531372690E+001
+3.16458072591E+006, +5.57807317749E+001, +1.88658988896E+001
+3.38347934919E+006, +5.60166566257E+001, +2.00714464821E+001
+3.60237797247E+006, +5.60422429648E+001, +2.12802166219E+001
+3.82127659574E+006, +5.59784244858E+001, +2.24298432597E+001
+4.04017521902E+006, +5.61129339802E+001, +2.38598059467E+001
+4.25907384230E+006, +5.59990181627E+001, +2.50980867453E+001
+4.47797246558E+006, +5.61301069615E+001, +2.65272608694E+001
+4.69687108886E+006, +5.59488197161E+001, +2.77448451321E+001
+4.91576971214E+006, +5.59429753244E+001, +2.90552686862E+001
+5.13466833542E+006, +5.59738066743E+001, +3.03184944951E+001
+5.35356695870E+006, +5.62350280934E+001, +3.16532114749E+001
+5.57246558198E+006, +5.61534924198E+001, +3.28240474176E+001
+5.79136420526E+006, +5.61253514607E+001, +3.43919888404E+001
+6.01026282854E+006, +5.61612931792E+001, +3.54693211445E+001
+6.22916145181E+006, +5.62101709184E+001, +3.69070659587E+001
+6.44806007509E+006, +5.62048647299E+001, +3.80952414993E+001
+6.66695869837E+006, +5.63326233942E+001, +3.93896302769E+001
+6.88585732165E+006, +5.62456813637E+001, +4.06572818715E+001
+7.10475594493E+006, +5.62897982405E+001, +4.19447391847E+001
+7.32365456821E+006, +5.63228808704E+001, +4.32585148469E+001
+7.54255319149E+006, +5.63195501507E+001, +4.44855095756E+001
+7.76145181477E+006, +5.64496942156E+001, +4.58141526862E+001
+7.98035043805E+006, +5.64930270234E+001, +4.71188575529E+001
+8.19924906133E+006, +5.64526028037E+001, +4.83421701008E+001
+8.41814768461E+006, +5.65109699058E+001, +4.96598510686E+001
+8.63704630788E+006, +5.65155014869E+001, +5.09240991458E+001
+8.85594493116E+006, +5.64980726777E+001, +5.22510104272E+001
+9.07484355444E+006, +5.64558015773E+001, +5.36272816749E+001
+9.29374217772E+006, +5.65740895203E+001, +5.49103122286E+001
+9.51264080100E+006, +5.66046132111E+001, +5.61162666758E+001
+9.73153942428E+006, +5.65706775384E+001, +5.75316854832E+001
+9.95043804756E+006, +5.64861406281E+001, +5.86109677293E+001
+1.01693366708E+007, +5.66440123868E+001, +5.99838319304E+001
+1.03882352941E+007, +5.66684540520E+001, +6.13119834601E+001
+1.06071339174E+007, +5.66730945705E+001, +6.26762538214E+001
+1.08260325407E+007, +5.66882932804E+001, +6.39379256364E+001
+1.10449311640E+007, +5.67209730004E+001, +6.51644248364E+001
+1.12638297872E+007, +5.67023636328E+001, +6.65366765786E+001
+1.14827284105E+007, +5.68582702252E+001, +6.77928103975E+001
+1.17016270338E+007, +5.68365286177E+001, +6.90650537951E+001
+1.19205256571E+007, +5.68418469732E+001, +7.03191908092E+001
+1.21394242804E+007, +5.68667526679E+001, +7.16511485401E+001
+1.23583229036E+007, +5.69445245522E+001, +7.30230050423E+001
+1.25772215269E+007, +5.68612333106E+001, +7.42666662982E+001
+1.27961201502E+007, +5.69129611999E+001, +7.55190141480E+001
+1.30150187735E+007, +5.70269578714E+001, +7.68221947900E+001
+1.32339173967E+007, +5.70216751017E+001, +7.82802201951E+001
+1.34528160200E+007, +5.69649309338E+001, +7.94805805547E+001
+1.36717146433E+007, +5.70802019573E+001, +8.07710565560E+001
+1.38906132666E+007, +5.70539943386E+001, +8.21619069442E+001
+1.41095118899E+007, +5.71850425202E+001, +8.34608549771E+001
+1.43284105131E+007, +5.70949784035E+001, +8.47751565638E+001
+1.45473091364E+007, +5.72093322349E+001, +8.61127240453E+001
+1.47662077597E+007, +5.72069045773E+001, +8.73047903498E+001
+1.49851063830E+007, +5.73521042158E+001, +8.86461118241E+001
+1.52040050063E+007, +5.72844314709E+001, +9.00783685310E+001
+1.54229036295E+007, +5.73081584295E+001, +9.12854392393E+001
+1.56418022528E+007, +5.72593048922E+001, +9.26385605809E+001
+1.58607008761E+007, +5.73377001315E+001, +9.38323238263E+001
+1.60795994994E+007, +5.73367375739E+001, +9.52593903968E+001
+1.62984981227E+007, +5.75183901387E+001, +9.64896321038E+001
+1.65173967459E+007, +5.75084147222E+001, +9.77597992032E+001
+1.67362953692E+007, +5.74459627714E+001, +9.91628916639E+001
+1.69551939925E+007, +5.75347772938E+001, +1.00437522284E+002
+1.71740926158E+007, +5.75337102725E+001, +1.01950138745E+002
+1.73929912390E+007, +5.74183890052E+001, +1.03131063601E+002
+1.76118898623E+007, +5.76487637173E+001, +1.04377807405E+002
+1.78307884856E+007, +5.77793778163E+001, +1.05729595442E+002
+1.80496871089E+007, +5.76614859207E+001, +1.07058103191E+002
+1.82685857322E+007, +5.78068810118E+001, +1.08414382742E+002
+1.84874843554E+007, +5.78539139073E+001, +1.09676750595E+002
+1.87063829787E+007, +5.78099691424E+001, +1.11135782625E+002
+1.89252816020E+007, +5.78228187344E+001, +1.12324870832E+002
+1.91441802253E+007, +5.80125422292E+001, +1.13562964327E+002
+1.93630788486E+007, +5.78793757160E+001, +1.14913151578E+002
+1.95819774718E+007, +5.81157047591E+001, +1.16306132848E+002
+1.98008760951E+007, +5.81119325896E+001, +1.17581043031E+002
+2.00197747184E+007, +5.81841206095E+001, +1.18961254159E+002
+2.02386733417E+007, +5.80992849893E+001, +1.20254946801E+002
+2.04575719650E+007, +5.81747422965E+001, +1.21591566824E+002
+2.06764705882E+007, +5.82538012982E+001, +1.22936113855E+002
+2.08953692115E+007, +5.82195400147E+001, +1.24325262141E+002
+2.11142678348E+007, +5.84212135885E+001, +1.25583003568E+002
+2.13331664581E+007, +5.84506485021E+001, +1.27017670144E+002
+2.15520650814E+007, +5.84751288897E+001, +1.28138630050E+002
+2.17709637046E+007, +5.85374421227E+001, +1.29482043378E+002
+2.19898623279E+007, +5.85033814649E+001, +1.31164208782E+002
+2.22087609512E+007, +5.85044646630E+001, +1.32147464110E+002
+2.24276595745E+007, +5.88459567785E+001, +1.33732830361E+002
+2.26465581977E+007, +5.88497950705E+001, +1.34814443182E+002
+2.28654568210E+007, +5.89419112053E+001, +1.36220334897E+002
+2.30843554443E+007, +5.88383406723E+001, +1.37560252567E+002
+2.33032540676E+007, +5.89862506946E+001, +1.39000691099E+002
+2.35221526909E+007, +5.88740232174E+001, +1.40380875901E+002
+2.37410513141E+007, +5.89098072311E+001, +1.41508319864E+002
+2.39599499374E+007, +5.89532055317E+001, +1.43012214794E+002
+2.41788485607E+007, +5.90629925057E+001, +1.44337603148E+002
+2.43977471840E+007, +5.91328547112E+001, +1.45706928455E+002
+2.46166458073E+007, +5.90786838472E+001, +1.47108932427E+002
+2.48355444305E+007, +5.93841537771E+001, +1.48341629284E+002
+2.50544430538E+007, +5.94871302262E+001, +1.49666723254E+002
+2.52733416771E+007, +5.96554884236E+001, +1.51113693673E+002
+2.54922403004E+007, +5.93742513670E+001, +1.52550411349E+002
+2.57111389237E+007, +5.95898766183E+001, +1.53874989719E+002
+2.59300375469E+007, +5.96125308678E+001, +1.55166786131E+002
+2.61489361702E+007, +5.96729747518E+001, +1.56510096950E+002
+2.63678347935E+007, +5.95235950317E+001, +1.58052371753E+002
+2.65867334168E+007, +5.99000366148E+001, +1.59106614858E+002
+2.68056320401E+007, +5.98739414648E+001, +1.60654018310E+002
+2.70245306633E+007, +5.97742958431E+001, +1.62039446827E+002
+2.72434292866E+007, +5.98126676359E+001, +1.63213819375E+002
+2.74623279099E+007, +6.01747681682E+001, +1.64787747501E+002
+2.76812265332E+007, +6.00183249631E+001, +1.66111623998E+002
+2.79001251564E+007, +6.00345410244E+001, +1.67376444618E+002
+2.81190237797E+007, +6.01821034624E+001, +1.68799869572E+002
+2.83379224030E+007, +6.01989644005E+001, +1.70164338949E+002
+2.85568210263E+007, +6.02627154854E+001, +1.71542245835E+002
+2.87757196496E+007, +6.01312582740E+001, +1.72862276729E+002
+2.89946182728E+007, +6.02597459579E+001, +1.74440644326E+002
+2.92135168961E+007, +6.02568467264E+001, +1.75979940855E+002
+2.94324155194E+007, +6.06775989354E+001, +1.77290674715E+002
+2.96513141427E+007, +6.06097603337E+001, +1.78380562692E+002
+2.98702127660E+007, +6.04328486889E+001, +1.79991114259E+002
+3.00891113892E+007, +6.05034445457E+001, +1.81370371361E+002
+3.03080100125E+007, +6.08938623165E+001, +1.82656822180E+002
+3.05269086358E+007, +6.09504580559E+001, +1.84097480640E+002
+3.07458072591E+007, +6.09178841107E+001, +1.85465536589E+002
+3.09647058824E+007, +6.08305578039E+001, +1.86969196896E+002
+3.11836045056E+007, +6.10004980961E+001, +1.88205431608E+002
+3.14025031289E+007, +6.11171539082E+001, +1.89443788031E+002
+3.16214017522E+007, +6.11298830029E+001, +1.90961510708E+002
+3.18403003755E+007, +6.11531948008E+001, +1.92778739288E+002
+3.20591989987E+007, +6.11368224644E+001, +1.93754905086E+002
+3.22780976220E+007, +6.14025518738E+001, +1.95214064104E+002
+3.24969962453E+007, +6.12862224096E+001, +1.96877467804E+002
+3.27158948686E+007, +6.14237184467E+001, +1.98042635876E+002
+3.29347934919E+007, +6.14147607213E+001, +1.99511980798E+002
+3.31536921151E+007, +6.14500729308E+001, +2.00507409243E+002
+3.33725907384E+007, +6.16861767365E+001, +2.02370960164E+002
+3.35914893617E+007, +6.19107435878E+001, +2.03730142281E+002
+3.38103879850E+007, +6.17340613026E+001, +2.05120450762E+002
+3.40292866083E+007, +6.16019077262E+001, +2.06716429385E+002
+3.42481852315E+007, +6.21689963855E+001, +2.07991382940E+002
+3.44670838548E+007, +6.22087002515E+001, +2.09282561161E+002
+3.46859824781E+007, +6.21718588251E+001, +2.11106548249E+002
+3.49048811014E+007, +6.24221877509E+001, +2.12346870884E+002
+3.51237797247E+007, +6.24903477465E+001, +2.13917933148E+002
+3.53426783479E+007, +6.26427065760E+001, +2.15317908145E+002
+3.55615769712E+007, +6.23889643261E+001, +2.16929701752E+002
+3.57804755945E+007, +6.27504646388E+001, +2.18080477635E+002
+3.59993742178E+007, +6.25259934832E+001, +2.19884054726E+002
+3.62182728411E+007, +6.29590733271E+001, +2.20798608135E+002
+3.64371714643E+007, +6.29996102585E+001, +2.21985390206E+002
+3.66560700876E+007, +6.29419088809E+001, +2.23969749819E+002
+3.68749687109E+007, +6.29525297577E+001, +2.25548932704E+002
+3.70938673342E+007, +6.31508446360E+001, +2.26720032825E+002
+3.73127659574E+007, +6.34631933347E+001, +2.28076214673E+002
+3.75316645807E+007, +6.30766721840E+001, +2.29674572729E+002
+3.77505632040E+007, +6.31329189061E+001, +2.31031442962E+002
+3.79694618273E+007, +6.33846654478E+001, +2.32352183199E+002
+3.81883604506E+007, +6.34522197839E+001, +2.34240586908E+002
+3.84072590738E+007, +6.35432921505E+001, +2.35512325774E+002
+3.86261576971E+007, +6.36350856617E+001, +2.37021404181E+002
+3.88450563204E+007, +6.38640788768E+001, +2.38225035361E+002
+3.90639549437E+007, +6.39189868699E+001, +2.39804670603E+002
+3.92828535670E+007, +6.37758214545E+001, +2.41470703903E+002
+3.95017521902E+007, +6.40170965175E+001, +2.42673921414E+002
+3.97206508135E+007, +6.41199077832E+001, +2.44703015444E+002
+3.99395494368E+007, +6.39318946670E+001, +2.45672708675E+002
+4.01584480601E+007, +6.46086250833E+001, +2.47275798946E+002
+4.03773466834E+007, +6.46908682529E+001, +2.48995074271E+002
+4.05962453066E+007, +6.43927520092E+001, +2.50740518212E+002
+4.08151439299E+007, +6.48209427531E+001, +2.51526199064E+002
+4.10340425532E+007, +6.41431939905E+001, +2.52996427811E+002
+4.12529411765E+007, +6.46908217289E+001, +2.54389275698E+002
+4.14718397997E+007, +6.48806448384E+001, +2.56425981508E+002
+4.16907384230E+007, +6.50417974228E+001, +2.57668254378E+002
+4.19096370463E+007, +6.52052961975E+001, +2.59188259760E+002
+4.21285356696E+007, +6.52630989860E+001, +2.60474392785E+002
+4.23474342929E+007, +6.52263480318E+001, +2.62668276758E+002
+4.25663329161E+007, +6.57325936555E+001, +2.63663503598E+002
+4.27852315394E+007, +6.54116657773E+001, +2.65263113228E+002
+4.30041301627E+007, +6.58305447305E+001, +2.66797136208E+002
+4.32230287860E+007, +6.60181941493E+001, +2.68703238936E+002
+4.34419274093E+007, +6.63628495509E+001, +2.69895087806E+002
+4.36608260325E+007, +6.58062655314E+001, +2.71363648413E+002
+4.38797246558E+007, +6.58707860394E+001, +2.72880914377E+002
+4.40986232791E+007, +6.60957940523E+001, +2.74646230942E+002
+4.43175219024E+007, +6.62015788157E+001, +2.76277230278E+002
+4.45364205257E+007, +6.65654086632E+001, +2.78044110759E+002
+4.47553191489E+007, +6.66205821892E+001, +2.79524528895E+002
+4.49742177722E+007, +6.66203662128E+001, +2.81302863190E+002
+4.51931163955E+007, +6.68971157300E+001, +2.82488443770E+002
+4.54120150188E+007, +6.68606702917E+001, +2.84019376390E+002
+4.56309136421E+007, +6.69587976017E+001, +2.85095842941E+002
+4.58498122653E+007, +6.73125981511E+001, +2.86570515021E+002
+4.60687108886E+007, +6.70719017213E+001, +2.88530493335E+002
+4.62876095119E+007, +6.71310540129E+001, +2.89990125954E+002
+4.65065081352E+007, +6.75971009636E+001, +2.91668660019E+002
+4.67254067584E+007, +6.71044202313E+001, +2.92844404881E+002
+4.69443053817E+007, +6.72962431455E+001, +2.94204551089E+002
+4.71632040050E+007, +6.75528423702E+001, +2.96539763624E+002
+4.73821026283E+007, +6.77487061973E+001, +2.97804007490E+002
+4.76010012516E+007, +6.79823414509E+001, +2.99389838975E+002
+4.78198998748E+007, +6.78787501672E+001, +3.01187658682E+002
+4.80387984981E+007, +6.79446840098E+001, +3.03191683856E+002
+4.82576971214E+007, +6.82133265182E+001, +3.04521322495E+002
+4.84765957447E+007, +6.85134476797E+001, +3.05749482663E+002
+4.86954943680E+007, +6.79707158685E+001, +3.07518292925E+002
+4.89143929912E+007, +6.88721210397E+001, +3.09017039833E+002
+4.91332916145E+007, +6.86312792305E+001, +3.10537302751E+002
+4.93521902378E+007, +6.88749532321E+001, +3.12034330717E+002
+4.95710888611E+007, +6.94911002438E+001, +3.14172523931E+002
+4.97899874844E+007, +6.92809404417E+001, +3.14834395173E+002
+5.00088861076E+007, +6.89975056190E+001, +3.17279453529E+002
+5.02277847309E+007, +6.94595029606E+001, +3.18884370978E+002
+5.04466833542E+007, +7.01516412036E+001, +3.20110583971E+002
+5.06655819775E+007, +6.99217072671E+001, +3.21604323615E+002
+5.08844806008E+007, +7.00801171458E+001, +3.24020907890E+002
+5.11033792240E+007, +7.01280186317E+001, +3.25407963519E+002
+5.13222778473E+007, +7.01608427978E+001, +3.26797719818E+002
+5.15411764706E+007, +7.04430933382E+001, +3.28763464146E+002
+5.17600750939E+007, +7.04911733725E+001, +3.30305837653E+002
+5.19789737171E+007, +7.04592158670E+001, +3.32114211396E+002
+5.21978723404E+007, +7.08027443961E+001, +3.33480687357E+002
+5.24167709637E+007, +7.01451180283E+001, +3.35268842238E+002
+5.26356695870E+007, +7.12389449746E+001, +3.36877730854E+002
+5.28545682103E+007, +7.13205528061E+001, +3.39028447866E+002
+5.30734668335E+007, +7.09933022948E+001, +3.40777159348E+002
+5.32923654568E+007, +7.07827741752E+001, +3.42659479329E+002
+5.35112640801E+007, +7.18439658438E+001, +3.43726890719E+002
+5.37301627034E+007, +7.16107958407E+001, +3.45611849291E+002
+5.39490613267E+007, +7.20708927565E+001, +3.47744877065E+002
+5.41679599499E+007, +7.20436204230E+001, +3.49294432811E+002
+5.43868585732E+007, +7.18864254088E+001, +3.50389583419E+002
+5.46057571965E+007, +7.20545991413E+001, +3.52566855726E+002
+5.48246558198E+007, +7.28751720329E+001, +3.54029755064E+002
+5.50435544431E+007, +7.25393397755E+001, +3.56441379708E+002
+5.52624530663E+007, +7.26647440398E+001, +3.58883788309E+002
+5.54813516896E+007, +7.27686225849E+001, +3.58768704507E+002
+5.57002503129E+007, +7.34698514124E+001, +3.60872874181E+002
+5.59191489362E+007, +7.31410772468E+001, +3.62705916166E+002
+5.61380475594E+007, +7.34135197916E+001, +3.64947896312E+002
+5.63569461827E+007, +7.35920927958E+001, +3.66805556017E+002
+5.65758448060E+007, +7.39857580840E+001, +3.68333409637E+002
+5.67947434293E+007, +7.41388968353E+001, +3.70179120658E+002
+5.70136420526E+007, +7.43173957441E+001, +3.71968596410E+002
+5.72325406758E+007, +7.40994839788E+001, +3.73445984268E+002
+5.74514392991E+007, +7.42651452611E+001, +3.74976418987E+002
+5.76703379224E+007, +7.52082108956E+001, +3.76468396425E+002
+5.78892365457E+007, +7.43169501913E+001, +3.79356578226E+002
+5.81081351690E+007, +7.60211633553E+001, +3.81020911718E+002
+5.83270337922E+007, +7.51488212170E+001, +3.83330504878E+002
+5.85459324155E+007, +7.57582208633E+001, +3.84690832352E+002
+5.87648310388E+007, +7.53163782903E+001, +3.86156224828E+002
+5.89837296621E+007, +7.60956189317E+001, +3.88590841695E+002
+5.92026282854E+007, +7.72777012014E+001, +3.89913593672E+002
+5.94215269086E+007, +7.65910094661E+001, +3.91706937518E+002
+5.96404255319E+007, +7.60494183820E+001, +3.94003961063E+002
+5.98593241552E+007, +7.69170298582E+001, +3.96083162625E+002
+6.00782227785E+007, +7.73229730322E+001, +3.97391904288E+002
+6.02971214018E+007, +7.73696580279E+001, +3.99382443688E+002
+6.05160200250E+007, +7.73672208007E+001, +4.01106499363E+002
+6.07349186483E+007, +7.75663948720E+001, +4.02942902518E+002
+6.09538172716E+007, +7.72612754279E+001, +4.05722102813E+002
+6.11727158949E+007, +7.85253910929E+001, +4.07820859614E+002
+6.13916145181E+007, +7.77964489887E+001, +4.08905684926E+002
+6.16105131414E+007, +7.83299009200E+001, +4.10924203936E+002
+6.18294117647E+007, +7.92262137071E+001, +4.12749089185E+002
+6.20483103880E+007, +7.79878678235E+001, +4.14274423812E+002
+6.22672090113E+007, +7.90801036369E+001, +4.16227200770E+002
+6.24861076345E+007, +8.02702619512E+001, +4.18450187385E+002
+6.27050062578E+007, +8.09778824731E+001, +4.20681808485E+002
+6.29239048811E+007, +7.92407862659E+001, +4.22480968194E+002
+6.31428035044E+007, +8.00703799791E+001, +4.24025820582E+002
+6.33617021277E+007, +8.06340079616E+001, +4.25792501191E+002
+6.35806007509E+007, +8.09963346606E+001, +4.29209628985E+002
+6.37994993742E+007, +7.99456095836E+001, +4.30945525110E+002
+6.40183979975E+007, +8.12581339766E+001, +4.31957766151E+002
+6.42372966208E+007, +8.05937130724E+001, +4.34437325323E+002
+6.44561952441E+007, +8.19355212780E+001, +4.35234312079E+002
+6.46750938673E+007, +8.19137674459E+001, +4.38689547371E+002
+6.48939924906E+007, +8.25866384016E+001, +4.41170148629E+002
+6.51128911139E+007, +8.22701249996E+001, +4.42847615354E+002
+6.53317897372E+007, +8.30962246754E+001, +4.44286086506E+002
+6.55506883605E+007, +8.29095307843E+001, +4.46043314222E+002
+6.57695869837E+007, +8.39064472458E+001, +4.48301534017E+002
+6.59884856070E+007, +8.41619598158E+001, +4.50021785260E+002
+6.62073842303E+007, +8.35203759741E+001, +4.53582788020E+002
+6.64262828536E+007, +8.42029935516E+001, +4.54092525107E+002
+6.66451814768E+007, +8.39382246714E+001, +4.56517293556E+002
+6.68640801001E+007, +8.44558630678E+001, +4.59129950981E+002
+6.70829787234E+007, +8.51511078311E+001, +4.60543522069E+002
+6.73018773467E+007, +8.66633766525E+001, +4.62323164441E+002
+6.75207759700E+007, +8.64979032295E+001, +4.65166417369E+002
+6.77396745932E+007, +8.57460745422E+001, +4.66725524024E+002
+6.79585732165E+007, +8.68705466942E+001, +4.69581478493E+002
+6.81774718398E+007, +8.55579121907E+001, +4.70788445153E+002
+6.83963704631E+007, +8.72698385397E+001, +4.73091651581E+002
+6.86152690864E+007, +8.81707409071E+001, +4.75727443930E+002
+6.88341677096E+007, +8.77614441084E+001, +4.76645879809E+002
+6.90530663329E+007, +8.78828393327E+001, +4.78389765266E+002
+6.92719649562E+007, +8.88582680694E+001, +4.81363588645E+002
+6.94908635795E+007, +8.81018095831E+001, +4.83491832470E+002
+6.97097622028E+007, +8.90602842455E+001, +4.85745285378E+002
+6.99286608260E+007, +9.02455754044E+001, +4.87791340623E+002
+7.01475594493E+007, +8.96501954961E+001, +4.91403356232E+002
