"# Channel 1"
"# Trace 1"
Frequency, Formatted Data, Formatted Data
+1.00000000000E+005, +6.31622898529E+001, +1.19266231692E+000
+8.49500000000E+005, +6.34427933815E+001, +6.81955825443E+000
+1.59900000000E+006, +6.32429795196E+001, +1.28678943626E+001
+2.34850000000E+006, +6.34507796958E+001, +1.89295326881E+001
+3.09800000000E+006, +6.35910229794E+001, +2.50616890936E+001
+3.84750000000E+006, +6.34628967591E+001, +3.10756909104E+001
+4.59700000000E+006, +6.34554601419E+001, +3.71738585400E+001
+5.34650000000E+006, +6.36919158668E+001, +4.31691021940E+001
+6.09600000000E+006, +6.37555893948E+001, +4.90073769934E+001
+6.84550000000E+006, +6.38069264918E+001, +5.50823346680E+001
+7.59500000000E+006, +6.39971807099E+001, +6.11580286772E+001
+8.34450000000E+006, +6.40841081233E+001, +6.71373976062E+001
+9.09400000000E+006, +6.41511668505E+001, +7.32638689005E+001
+9.84350000000E+006, +6.43161547851E+001, +7.92675702160E+001
+1.05930000000E+007, +6.44242106398E+001, +8.54090969099E+001
+1.13425000000E+007, +6.44154556753E+001, +9.14904015867E+001
+1.20920000000E+007, +6.45015827938E+001, +9.75917991737E+001
+1.28415000000E+007, +6.47712096876E+001, +1.03725333172E+002
+1.35910000000E+007, +6.48896941022E+001, +1.09786843819E+002
+1.43405000000E+007, +6.48754971366E+001, +1.15917121831E+002
+1.50900000000E+007, +6.50817847864E+001, +1.22245240021E+002
+1.58395000000E+007, +6.53309240671E+001, +1.28413273836E+002
+1.65890000000E+007, +6.53481595267E+001, +1.34656684588E+002
+1.73385000000E+007, +6.54664094774E+001, +1.40844460689E+002
+1.80880000000E+007, +6.58046348292E+001, +1.47063397835E+002
+1.88375000000E+007, +6.59645196174E+001, +1.53438471635E+002
+1.95870000000E+007, +6.60738628084E+001, +1.59445862836E+002
+2.03365000000E+007, +6.62980990531E+001, +1.65794496010E+002
+2.10860000000E+007, +6.65214921430E+001, +1.72053563815E+002
+2.18355000000E+007, +6.66380265483E+001, +1.78524363789E+002
+2.25850000000E+007, +6.69173400327E+001, +1.85015710441E+002
+2.33345000000E+007, +6.76755622495E+001, +1.91283397709E+002
+2.40840000000E+007, +6.74870132278E+001, +1.97909192397E+002
+2.48335000000E+007, +6.75683834037E+001, +2.04116308842E+002
+2.55830000000E+007, +6.82363371789E+001, +2.10496014527E+002
+2.63325000000E+007, +6.85603770554E+001, +2.16937769098E+002
+2.70820000000E+007, +6.86928562054E+001, +2.23960564388E+002
+2.78315000000E+007, +6.87423385149E+001, +2.30641047548E+002
+2.85810000000E+007, +6.90484946292E+001, +2.36904950097E+002
+2.93305000000E+007, +6.94819062365E+001, +2.43766266565E+002
+3.00800000000E+007, +6.98754899065E+001, +2.50549113817E+002
+3.08295000000E+007, +6.99770691830E+001, +2.57027514848E+002
+3.15790000000E+007, +7.02841805007E+001, +2.64295298486E+002
+3.23285000000E+007, +7.07799928983E+001, +2.71050228495E+002
+3.30780000000E+007, +7.05782893773E+001, +2.77812581282E+002
+3.38275000000E+007, +7.09929995759E+001, +2.85064339295E+002
+3.45770000000E+007, +7.18546861261E+001, +2.91761164330E+002
+3.53265000000E+007, +7.19486540711E+001, +2.98727230428E+002
+3.60760000000E+007, +7.26368136070E+001, +3.05725863604E+002
+3.68255000000E+007, +7.25617933435E+001, +3.12392886970E+002
+3.75750000000E+007, +7.26247570131E+001, +3.19941749918E+002
+3.83245000000E+007, +7.45463796241E+001, +3.27729094058E+002
+3.90740000000E+007, +7.41066079355E+001, +3.34317797440E+002
+3.98235000000E+007, +7.48357667479E+001, +3.42053405048E+002
+4.05730000000E+007, +7.53438568134E+001, +3.49397403042E+002
+4.13225000000E+007, +7.43889549364E+001, +3.56870935352E+002
+4.20720000000E+007, +7.57886634663E+001, +3.64313055181E+002
+4.28215000000E+007, +7.63658483592E+001, +3.72682894332E+002
+4.35710000000E+007, +7.67728357733E+001, +3.79838573339E+002
+4.43205000000E+007, +7.79230207158E+001, +3.87433345813E+002
+4.50700000000E+007, +7.80686891903E+001, +3.94680183174E+002
+4.58195000000E+007, +7.80977775533E+001, +4.04435607222E+002
+4.65690000000E+007, +7.99551393867E+001, +4.10939646825E+002
+4.73185000000E+007, +8.02466530579E+001, +4.19034909187E+002
+4.80680000000E+007, +8.07056819061E+001, +4.27709856602E+002
+4.88175000000E+007, +8.03526060920E+001, +4.35271039782E+002
+4.95670000000E+007, +8.14418458466E+001, +4.44891764931E+002
+5.03165000000E+007, +8.20654366055E+001, +4.53349070496E+002
+5.10660000000E+007, +8.36229719160E+001, +4.60749337922E+002
+5.18155000000E+007, +8.45922133230E+001, +4.69807811237E+002
+5.25650000000E+007, +8.67187521699E+001, +4.77892496628E+002
+5.33145000000E+007, +8.66934987900E+001, +4.87019350303E+002
+5.40640000000E+007, +8.70480506371E+001, +4.96276842652E+002
+5.48135000000E+007, +8.84969490556E+001, +5.06230542756E+002
+5.55630000000E+007, +8.98648108453E+001, +5.16076524862E+002
+5.63125000000E+007, +9.15764214276E+001, +5.24415362201E+002
+5.70620000000E+007, +9.22752941930E+001, +5.33939881700E+002
+5.78115000000E+007, +9.38545539946E+001, +5.43955015787E+002
+5.85610000000E+007, +9.62803580933E+001, +5.53870540067E+002
+5.93105000000E+007, +9.73944588227E+001, +5.63887262317E+002
+6.00600000000E+007, +9.79906193069E+001, +5.75402697890E+002
+6.08095000000E+007, +9.78885833419E+001, +5.84006798387E+002
+6.15590000000E+007, +9.97067778257E+001, +5.94266078948E+002
+6.23085000000E+007, +1.02843091434E+002, +6.05976519234E+002
+6.30580000000E+007, +1.03684381594E+002, +6.16139654834E+002
+6.38075000000E+007, +1.05194125406E+002, +6.27453262350E+002
+6.45570000000E+007, +1.06906585220E+002, +6.40057013198E+002
+6.53065000000E+007, +1.06942165503E+002, +6.48786441910E+002
+6.60560000000E+007, +1.11389701080E+002, +6.63982940445E+002
+6.68055000000E+007, +1.15371710514E+002, +6.74775216503E+002
+6.75550000000E+007, +1.15503210637E+002, +6.85966604974E+002
+6.83045000000E+007, +1.15972746520E+002, +6.97454670110E+002
+6.90540000000E+007, +1.19529552876E+002, +7.09666659503E+002
+6.98035000000E+007, +1.22849509497E+002, +7.21732091131E+002
+7.05530000000E+007, +1.28271197669E+002, +7.33112874694E+002
+7.13025000000E+007, +1.29084824450E+002, +7.51001430338E+002
+7.20520000000E+007, +1.31686664696E+002, +7.62174715890E+002
+7.28015000000E+007, +1.31585431943E+002, +7.76504097921E+002
+7.35510000000E+007, +1.37857292376E+002, +7.89187566469E+002
+7.43005000000E+007, +1.39151485447E+002, +8.04715242872E+002
+7.50500000000E+007, +1.43176982874E+002, +8.21720622898E+002
+7.57995000000E+007, +1.46702191914E+002, +8.37135886793E+002
+7.65490000000E+007, +1.49398569852E+002, +8.53218965431E+002
+7.72985000000E+007, +1.56046647825E+002, +8.67802984221E+002
+7.80480000000E+007, +1.60304877366E+002, +8.81127757657E+002
+7.87975000000E+007, +1.64525678253E+002, +9.03870495108E+002
+7.95470000000E+007, +1.72758219332E+002, +9.21319365098E+002
+8.02965000000E+007, +1.77010095540E+002, +9.35722255006E+002
+8.10460000000E+007, +1.83829871856E+002, +9.50769948469E+002
+8.17955000000E+007, +1.87494678142E+002, +9.77367867635E+002
+8.25450000000E+007, +1.88652344425E+002, +9.94737768402E+002
+8.32945000000E+007, +1.98047477842E+002, +1.01359201485E+003
+8.40440000000E+007, +2.09508933802E+002, +1.03903531312E+003
+8.47935000000E+007, +2.13891125969E+002, +1.05399200316E+003
+8.55430000000E+007, +2.24690838761E+002, +1.07956590065E+003
+8.62925000000E+007, +2.37046419974E+002, +1.09968611627E+003
+8.70420000000E+007, +2.50246297052E+002, +1.12185063701E+003
+8.77915000000E+007, +2.60158278167E+002, +1.14988447744E+003
+8.85410000000E+007, +2.65118713343E+002, +1.17111278451E+003
+8.92905000000E+007, +2.79069629037E+002, +1.19828497704E+003
+9.00400000000E+007, +2.97018012636E+002, +1.22922727865E+003
+9.07895000000E+007, +3.11892796087E+002, +1.26054305147E+003
+9.15390000000E+007, +3.32657524161E+002, +1.28503198377E+003
+9.22885000000E+007, +3.47846233191E+002, +1.32152649276E+003
+9.30380000000E+007, +3.78878344737E+002, +1.34759897061E+003
+9.37875000000E+007, +4.10855740789E+002, +1.36698078088E+003
+9.45370000000E+007, +4.35069020651E+002, +1.39445030879E+003
+9.52865000000E+007, +4.62544169924E+002, +1.42917955920E+003
+9.60360000000E+007, +4.99915284607E+002, +1.44460702747E+003
+9.67855000000E+007, +5.26135024931E+002, +1.46038636265E+003
+9.75350000000E+007, +5.63528780713E+002, +1.47523779112E+003
+9.82845000000E+007, +5.93775432868E+002, +1.47481809905E+003
+9.90340000000E+007, +6.19654390493E+002, +1.47822495814E+003
+9.97835000000E+007, +6.24588541079E+002, +1.48701478316E+003
+1.00533000000E+008, +6.38449563068E+002, +1.49491879934E+003
+1.01282500000E+008, +6.33540771531E+002, +1.50939853850E+003
+1.02032000000E+008, +6.33197614507E+002, +1.56244083379E+003
+1.02781500000E+008, +6.35769634400E+002, +1.61793665978E+003
+1.03531000000E+008, +6.56340182754E+002, +1.69676032147E+003
+1.04280500000E+008, +6.85402691612E+002, +1.75326313861E+003
+1.05030000000E+008, +7.51419938684E+002, +1.81732948857E+003
+1.05779500000E+008, +8.12579540867E+002, +1.89336443853E+003
+1.06529000000E+008, +9.03402417928E+002, +1.94409319434E+003
+1.07278500000E+008, +9.87406220096E+002, +1.99071404919E+003
+1.08028000000E+008, +1.07320717580E+003, +2.03685689664E+003
+1.08777500000E+008, +1.18726605619E+003, +2.05061583441E+003
+1.09527000000E+008, +1.26439114837E+003, +2.09504706542E+003
+1.10276500000E+008, +1.37254202824E+003, +2.07916793633E+003
+1.11026000000E+008, +1.45849323327E+003, +2.12254706198E+003
+1.11775500000E+008, +1.53231613725E+003, +2.13615239365E+003
+1.12525000000E+008, +1.62926324275E+003, +2.16883162680E+003
+1.13274500000E+008, +1.74431755952E+003, +2.21239320203E+003
+1.14024000000E+008, +1.86103866193E+003, +2.26824316094E+003
+1.14773500000E+008, +2.02117764379E+003, +2.25151041448E+003
+1.15523000000E+008, +2.19874949505E+003, +2.28904197947E+003
+1.16272500000E+008, +2.42514587173E+003, +2.30741671633E+003
+1.17022000000E+008, +2.61784975468E+003, +2.25060196192E+003
+1.17771500000E+008, +2.85121895736E+003, +2.17676675058E+003
+1.18521000000E+008, +3.10733488046E+003, +2.03131180212E+003
+1.19270500000E+008, +3.30116702527E+003, +1.82088402847E+003
+1.20020000000E+008, +3.58740021642E+003, +1.61190270563E+003
+1.20769500000E+008, +3.71781704147E+003, +1.26927594438E+003
+1.21519000000E+008, +3.80861092686E+003, +8.82779662339E+002
+1.22268500000E+008, +3.81313167213E+003, +5.56563255210E+002
+1.23018000000E+008, +3.72215406576E+003, +2.03518863131E+002
+1.23767500000E+008, +3.54346407138E+003, -8.27538877519E+001
+1.24517000000E+008, +3.34291250177E+003, -2.94478858983E+002
+1.25266500000E+008, +3.17772846230E+003, -4.37246330153E+002
+1.26016000000E+008, +3.03908146239E+003, -5.88751748597E+002
+1.26765500000E+008, +2.86856459808E+003, -6.97783922551E+002
+1.27515000000E+008, +2.67496051435E+003, -7.43850406623E+002
+1.28264500000E+008, +2.52028407908E+003, -8.08477322359E+002
+1.29014000000E+008, +2.37919376494E+003, -8.28823954537E+002
+1.29763500000E+008, +2.24699591972E+003, -8.60838149391E+002
+1.30513000000E+008, +2.09859223715E+003, -8.59766180759E+002
+1.31262500000E+008, +2.00787862140E+003, -8.90951988083E+002
+1.32012000000E+008, +1.88175155242E+003, -8.61984080824E+002
+1.32761500000E+008, +1.78964896078E+003, -8.54720565083E+002
+1.33511000000E+008, +1.70990003418E+003, -8.46432554411E+002
+1.34260500000E+008, +1.64011626959E+003, -8.50911387090E+002
+1.35010000000E+008, +1.55700208832E+003, -8.14712286406E+002
+1.35759500000E+008, +1.48568663501E+003, -7.91884653901E+002
+1.36509000000E+008, +1.42232826437E+003, -7.78870605304E+002
+1.37258500000E+008, +1.35934722574E+003, -7.53307886007E+002
+1.38008000000E+008, +1.30928860921E+003, -7.29876482145E+002
+1.38757500000E+008, +1.25092729298E+003, -7.03259404238E+002
+1.39507000000E+008, +1.19166376889E+003, -6.90058899677E+002
+1.40256500000E+008, +1.14206415900E+003, -6.69740020732E+002
+1.41006000000E+008, +1.07975638698E+003, -6.41376288478E+002
+1.41755500000E+008, +1.03675942233E+003, -6.13027023898E+002
+1.42505000000E+008, +9.91461026771E+002, -5.83813788769E+002
+1.43254500000E+008, +9.48922208685E+002, -5.51446408149E+002
+1.44004000000E+008, +9.06500415217E+002, -5.14359652794E+002
+1.44753500000E+008, +8.74859172220E+002, -4.76253129913E+002
+1.45503000000E+008, +8.47976057317E+002, -4.43173537505E+002
+1.46252500000E+008, +8.22028703379E+002, -4.08174755771E+002
+1.47002000000E+008, +7.98862488218E+002, -3.74042318664E+002
+1.47751500000E+008, +7.77815615180E+002, -3.42250860583E+002
+1.48501000000E+008, +7.58740828493E+002, -3.08160351687E+002
+1.49250500000E+008, +7.41653697789E+002, -2.76299408755E+002
+1.50000000000E+008, +7.28107560878E+002, -2.43458322048E+002
