"# Channel 1"
"# Trace 1"
Frequency, Formatted Data, Formatted Data
+1.00000000000E+005, +5.75136199405E+001, +1.12814382462E+000
+3.18898623279E+005, +5.76516397631E+001, +2.31231156478E+000
+5.37797246558E+005, +5.76984540146E+001, +4.07137942854E+000
+7.56695869837E+005, +5.76644495486E+001, +5.62085840047E+000
+9.75594493116E+005, +5.76932159475E+001, +7.29858312496E+000
+1.19449311640E+006, +5.76700700664E+001, +8.79995642904E+000
+1.41339173967E+006, +5.75889227847E+001, +1.04293022553E+001
+1.63229036295E+006, +5.76995731937E+001, +1.20658674452E+001
+1.85118898623E+006, +5.76655893926E+001, +1.37846673791E+001
+2.07008760951E+006, +5.76581269603E+001, +1.53796008255E+001
+2.28898623279E+006, +5.77918621657E+001, +1.71461291630E+001
+2.50788485607E+006, +5.77658397523E+001, +1.86502500630E+001
+2.72678347935E+006, +5.76288705675E+001, +2.03116650030E+001
+2.94568210263E+006, +5.77504377382E+001, +2.19891255673E+001
+3.16458072591E+006, +5.75872377209E+001, +2.37824007358E+001
+3.38347934919E+006, +5.78623864356E+001, +2.53141538219E+001
+3.60237797247E+006, +5.78432901078E+001, +2.68062891654E+001
+3.82127659574E+006, +5.78339730028E+001, +2.83411797609E+001
+4.04017521902E+006, +5.80326292080E+001, +3.00219607828E+001
+4.25907384230E+006, +5.78935749715E+001, +3.17549198399E+001
+4.47797246558E+006, +5.79885759874E+001, +3.34272237066E+001
+4.69687108886E+006, +5.77474005069E+001, +3.49248476628E+001
+4.91576971214E+006, +5.78267006709E+001, +3.65891100387E+001
+5.13466833542E+006, +5.79108168551E+001, +3.82109216153E+001
+5.35356695870E+006, +5.79891580257E+001, +3.99630816017E+001
+5.57246558198E+006, +5.79458805771E+001, +4.13686013925E+001
+5.79136420526E+006, +5.80825002838E+001, +4.33568818753E+001
+6.01026282854E+006, +5.81269825248E+001, +4.46707142021E+001
+6.22916145181E+006, +5.80139191291E+001, +4.64366572252E+001
+6.44806007509E+006, +5.80765087536E+001, +4.79101413363E+001
+6.66695869837E+006, +5.81632127567E+001, +4.96191444463E+001
+6.88585732165E+006, +5.81336914230E+001, +5.12544444201E+001
+7.10475594493E+006, +5.82002971711E+001, +5.28526263569E+001
+7.32365456821E+006, +5.81920257730E+001, +5.45051603927E+001
+7.54255319149E+006, +5.82004771903E+001, +5.60213169469E+001
+7.76145181477E+006, +5.83742777677E+001, +5.77657778340E+001
+7.98035043805E+006, +5.83558075120E+001, +5.93644591710E+001
+8.19924906133E+006, +5.83459741825E+001, +6.09874407920E+001
+8.41814768461E+006, +5.84517591129E+001, +6.26180359487E+001
+8.63704630788E+006, +5.83801810095E+001, +6.42030735460E+001
+8.85594493116E+006, +5.84595624416E+001, +6.58936899359E+001
+9.07484355444E+006, +5.84335243298E+001, +6.76200676632E+001
+9.29374217772E+006, +5.84931373777E+001, +6.92317356673E+001
+9.51264080100E+006, +5.85511579709E+001, +7.08114781636E+001
+9.73153942428E+006, +5.85323785779E+001, +7.25291315268E+001
+9.95043804756E+006, +5.84255267826E+001, +7.40454820080E+001
+1.01693366708E+007, +5.86076863613E+001, +7.57036280342E+001
+1.03882352941E+007, +5.86667815351E+001, +7.72557080494E+001
+1.06071339174E+007, +5.86075605613E+001, +7.90106510481E+001
+1.08260325407E+007, +5.86263484027E+001, +8.05824697913E+001
+1.10449311640E+007, +5.86993978275E+001, +8.22580226672E+001
+1.12638297872E+007, +5.87148017533E+001, +8.40060565665E+001
+1.14827284105E+007, +5.88617796532E+001, +8.55573350061E+001
+1.17016270338E+007, +5.88650206749E+001, +8.72028911510E+001
+1.19205256571E+007, +5.88584696104E+001, +8.87086560929E+001
+1.21394242804E+007, +5.89100277457E+001, +9.04099960744E+001
+1.23583229036E+007, +5.90068380467E+001, +9.21593162993E+001
+1.25772215269E+007, +5.88166202883E+001, +9.37750476683E+001
+1.27961201502E+007, +5.89471952542E+001, +9.53741956877E+001
+1.30150187735E+007, +5.90834550883E+001, +9.70054905050E+001
+1.32339173967E+007, +5.90821354694E+001, +9.87614675556E+001
+1.34528160200E+007, +5.90090345683E+001, +1.00365467254E+002
+1.36717146433E+007, +5.91162699010E+001, +1.01896833236E+002
+1.38906132666E+007, +5.91526412414E+001, +1.03738483676E+002
+1.41095118899E+007, +5.92964206260E+001, +1.05357441089E+002
+1.43284105131E+007, +5.92242335713E+001, +1.07023925754E+002
+1.45473091364E+007, +5.92270476612E+001, +1.08741312087E+002
+1.47662077597E+007, +5.93240366364E+001, +1.10297685414E+002
+1.49851063830E+007, +5.94598622830E+001, +1.11928879427E+002
+1.52040050063E+007, +5.94580253566E+001, +1.13801941267E+002
+1.54229036295E+007, +5.95732191915E+001, +1.15441883280E+002
+1.56418022528E+007, +5.93836724626E+001, +1.17043568035E+002
+1.58607008761E+007, +5.94218769192E+001, +1.18677639326E+002
+1.60795994994E+007, +5.95597261166E+001, +1.20244937430E+002
+1.62984981227E+007, +5.97336665892E+001, +1.22083935054E+002
+1.65173967459E+007, +5.96904610048E+001, +1.23785929478E+002
+1.67362953692E+007, +5.97228227054E+001, +1.25365836128E+002
+1.69551939925E+007, +5.97553100322E+001, +1.26959282124E+002
+1.71740926158E+007, +5.96658412876E+001, +1.28938377546E+002
+1.73929912390E+007, +5.96929629799E+001, +1.30404457591E+002
+1.76118898623E+007, +5.98909971491E+001, +1.31907954139E+002
+1.78307884856E+007, +5.99735204667E+001, +1.33656617716E+002
+1.80496871089E+007, +6.00004351121E+001, +1.35322164782E+002
+1.82685857322E+007, +6.00995550211E+001, +1.37136955313E+002
+1.84874843554E+007, +6.02177662504E+001, +1.38712127458E+002
+1.87063829787E+007, +6.01799285793E+001, +1.40429975889E+002
+1.89252816020E+007, +6.02892689244E+001, +1.42282178474E+002
+1.91441802253E+007, +6.03467419905E+001, +1.43621057438E+002
+1.93630788486E+007, +6.03017600515E+001, +1.45465220550E+002
+1.95819774718E+007, +6.05748933776E+001, +1.47109731390E+002
+1.98008760951E+007, +6.05626588121E+001, +1.48912491088E+002
+2.00197747184E+007, +6.05291041176E+001, +1.50663966651E+002
+2.02386733417E+007, +6.05396564412E+001, +1.52177927877E+002
+2.04575719650E+007, +6.06990244602E+001, +1.53938712183E+002
+2.06764705882E+007, +6.07592710420E+001, +1.55694831144E+002
+2.08953692115E+007, +6.08076017446E+001, +1.57393126700E+002
+2.11142678348E+007, +6.10048683031E+001, +1.58927263057E+002
+2.13331664581E+007, +6.10659356015E+001, +1.60838987065E+002
+2.15520650814E+007, +6.10627350680E+001, +1.62234572612E+002
+2.17709637046E+007, +6.09217962146E+001, +1.64133807619E+002
+2.19898623279E+007, +6.11560453148E+001, +1.65966493136E+002
+2.22087609512E+007, +6.10181272523E+001, +1.67555022481E+002
+2.24276595745E+007, +6.15391515720E+001, +1.69433490500E+002
+2.26465581977E+007, +6.13752006234E+001, +1.70952107786E+002
+2.28654568210E+007, +6.15693823057E+001, +1.72573495918E+002
+2.30843554443E+007, +6.16268331240E+001, +1.74118403541E+002
+2.33032540676E+007, +6.16529370277E+001, +1.76022298315E+002
+2.35221526909E+007, +6.16375148017E+001, +1.77962255884E+002
+2.37410513141E+007, +6.16216632829E+001, +1.79478969529E+002
+2.39599499374E+007, +6.17665450992E+001, +1.81378526394E+002
+2.41788485607E+007, +6.18312353271E+001, +1.83023080660E+002
+2.43977471840E+007, +6.19991176011E+001, +1.85019344886E+002
+2.46166458073E+007, +6.17583315348E+001, +1.86547477738E+002
+2.48355444305E+007, +6.21124776895E+001, +1.88192505800E+002
+2.50544430538E+007, +6.24403546198E+001, +1.89919079012E+002
+2.52733416771E+007, +6.24951033583E+001, +1.91575011935E+002
+2.54922403004E+007, +6.23277126047E+001, +1.93551221322E+002
+2.57111389237E+007, +6.24042696615E+001, +1.95363037845E+002
+2.59300375469E+007, +6.24979050946E+001, +1.97033141291E+002
+2.61489361702E+007, +6.26793577088E+001, +1.98429398900E+002
+2.63678347935E+007, +6.25037984912E+001, +2.00534399284E+002
+2.65867334168E+007, +6.29155583604E+001, +2.02238534026E+002
+2.68056320401E+007, +6.30567584262E+001, +2.03826400440E+002
+2.70245306633E+007, +6.29234803203E+001, +2.05613125263E+002
+2.72434292866E+007, +6.30261774852E+001, +2.07317945067E+002
+2.74623279099E+007, +6.33213281116E+001, +2.09503940321E+002
+2.76812265332E+007, +6.32159596506E+001, +2.11007992687E+002
+2.79001251564E+007, +6.31042347037E+001, +2.12858197699E+002
+2.81190237797E+007, +6.35548618618E+001, +2.14382064840E+002
+2.83379224030E+007, +6.34402760864E+001, +2.16111503723E+002
+2.85568210263E+007, +6.34031059529E+001, +2.18061437363E+002
+2.87757196496E+007, +6.34623586855E+001, +2.19791676594E+002
+2.89946182728E+007, +6.36759141008E+001, +2.21757906020E+002
+2.92135168961E+007, +6.34038808886E+001, +2.23550412454E+002
+2.94324155194E+007, +6.38159929101E+001, +2.25470330596E+002
+2.96513141427E+007, +6.39778833808E+001, +2.27199842818E+002
+2.98702127660E+007, +6.40146076232E+001, +2.29010792538E+002
+3.00891113892E+007, +6.39238920607E+001, +2.30718983510E+002
+3.03080100125E+007, +6.43126541735E+001, +2.32190937543E+002
+3.05269086358E+007, +6.43201606095E+001, +2.34191148264E+002
+3.07458072591E+007, +6.47098344721E+001, +2.36118033676E+002
+3.09647058824E+007, +6.45408198128E+001, +2.37631839976E+002
+3.11836045056E+007, +6.45449702726E+001, +2.39584412190E+002
+3.14025031289E+007, +6.43186745525E+001, +2.41587071664E+002
+3.16214017522E+007, +6.48079738907E+001, +2.42938101821E+002
+3.18403003755E+007, +6.46810149891E+001, +2.45619391184E+002
+3.20591989987E+007, +6.44924145878E+001, +2.46780583711E+002
+3.22780976220E+007, +6.48340052228E+001, +2.48554254070E+002
+3.24969962453E+007, +6.50199162202E+001, +2.50443960774E+002
+3.27158948686E+007, +6.49321730364E+001, +2.52182321240E+002
+3.29347934919E+007, +6.47627106382E+001, +2.54315728412E+002
+3.31536921151E+007, +6.52858155007E+001, +2.55521068936E+002
+3.33725907384E+007, +6.52765073750E+001, +2.57940614250E+002
+3.35914893617E+007, +6.53939331568E+001, +2.59561221744E+002
+3.38103879850E+007, +6.55344620573E+001, +2.61487867253E+002
+3.40292866083E+007, +6.51430730351E+001, +2.63491771334E+002
+3.42481852315E+007, +6.58444704178E+001, +2.65407368761E+002
+3.44670838548E+007, +6.57735210929E+001, +2.67190886663E+002
+3.46859824781E+007, +6.61801539569E+001, +2.69431140746E+002
+3.49048811014E+007, +6.62126483233E+001, +2.71343847703E+002
+3.51237797247E+007, +6.63222661908E+001, +2.72671511121E+002
+3.53426783479E+007, +6.64473439083E+001, +2.74955508818E+002
+3.55615769712E+007, +6.66129161858E+001, +2.77193378657E+002
+3.57804755945E+007, +6.68956837279E+001, +2.77996498281E+002
+3.59993742178E+007, +6.65241723911E+001, +2.80502437044E+002
+3.62182728411E+007, +6.68303148478E+001, +2.81637976030E+002
+3.64371714643E+007, +6.73469895471E+001, +2.83265743375E+002
+3.66560700876E+007, +6.74707247356E+001, +2.86170667809E+002
+3.68749687109E+007, +6.73567491277E+001, +2.88643701737E+002
+3.70938673342E+007, +6.74893931690E+001, +2.89439662207E+002
+3.73127659574E+007, +6.70914686504E+001, +2.92083235094E+002
+3.75316645807E+007, +6.74845635037E+001, +2.93781742978E+002
+3.77505632040E+007, +6.75787207706E+001, +2.95532417623E+002
+3.79694618273E+007, +6.80211945464E+001, +2.97542741302E+002
+3.81883604506E+007, +6.76225417128E+001, +2.99515262406E+002
+3.84072590738E+007, +6.74366382849E+001, +3.01350388353E+002
+3.86261576971E+007, +6.78482357435E+001, +3.03543144205E+002
+3.88450563204E+007, +6.83579535836E+001, +3.04897402883E+002
+3.90639549437E+007, +6.88314423183E+001, +3.06655916090E+002
+3.92828535670E+007, +6.84428914297E+001, +3.09440258237E+002
+3.95017521902E+007, +6.90517971073E+001, +3.11056500857E+002
+3.97206508135E+007, +6.91755838711E+001, +3.13218981132E+002
+3.99395494368E+007, +6.88980184507E+001, +3.15082555995E+002
+4.01584480601E+007, +6.90300822642E+001, +3.17194340175E+002
+4.03773466834E+007, +6.96239949161E+001, +3.19359213821E+002
+4.05962453066E+007, +6.96243414143E+001, +3.21614194900E+002
+4.08151439299E+007, +6.98147929677E+001, +3.22718144397E+002
+4.10340425532E+007, +6.87012856229E+001, +3.24153698350E+002
+4.12529411765E+007, +7.01540043218E+001, +3.26444972491E+002
+4.14718397997E+007, +6.96253018569E+001, +3.28816415249E+002
+4.16907384230E+007, +6.98657061009E+001, +3.31004840988E+002
+4.19096370463E+007, +6.96230300159E+001, +3.33145464548E+002
+4.21285356696E+007, +6.99258995383E+001, +3.34946188606E+002
+4.23474342929E+007, +7.04568435136E+001, +3.37716966576E+002
+4.25663329161E+007, +7.05769132308E+001, +3.38545548647E+002
+4.27852315394E+007, +7.05832932129E+001, +3.41132336471E+002
+4.30041301627E+007, +7.06976643979E+001, +3.43408684579E+002
+4.32230287860E+007, +7.13357252604E+001, +3.44865253850E+002
+4.34419274093E+007, +7.10217455828E+001, +3.47703707258E+002
+4.36608260325E+007, +7.11792302437E+001, +3.48529755013E+002
+4.38797246558E+007, +7.13463031088E+001, +3.51285527749E+002
+4.40986232791E+007, +7.16291699779E+001, +3.54070142914E+002
+4.43175219024E+007, +7.12238488262E+001, +3.55350309176E+002
+4.45364205257E+007, +7.20561314862E+001, +3.58373621702E+002
+4.47553191489E+007, +7.24522649014E+001, +3.60206209692E+002
+4.49742177722E+007, +7.18860173135E+001, +3.62048497872E+002
+4.51931163955E+007, +7.23159469221E+001, +3.63866356746E+002
+4.54120150188E+007, +7.25566756445E+001, +3.65503311111E+002
+4.56309136421E+007, +7.27440405852E+001, +3.67485095238E+002
+4.58498122653E+007, +7.26071463913E+001, +3.69184875484E+002
+4.60687108886E+007, +7.24690617231E+001, +3.72239539906E+002
+4.62876095119E+007, +7.31244890712E+001, +3.74314097491E+002
+4.65065081352E+007, +7.41763348270E+001, +3.75933268366E+002
+4.67254067584E+007, +7.33476383980E+001, +3.77612572228E+002
+4.69443053817E+007, +7.29104529753E+001, +3.80359143309E+002
+4.71632040050E+007, +7.33489869504E+001, +3.82357995764E+002
+4.73821026283E+007, +7.41105460976E+001, +3.84013230673E+002
+4.76010012516E+007, +7.41348487842E+001, +3.86960004645E+002
+4.78198998748E+007, +7.34478801891E+001, +3.88725512811E+002
+4.80387984981E+007, +7.49630771524E+001, +3.91017476628E+002
+4.82576971214E+007, +7.39077350509E+001, +3.93539242526E+002
+4.84765957447E+007, +7.52574599840E+001, +3.95350010581E+002
+4.86954943680E+007, +7.46770917767E+001, +3.97426669185E+002
+4.89143929912E+007, +7.54318544048E+001, +3.99828828076E+002
+4.91332916145E+007, +7.54062874104E+001, +4.01799892018E+002
+4.93521902378E+007, +7.59900509716E+001, +4.04147276513E+002
+4.95710888611E+007, +7.63468423603E+001, +4.06107633372E+002
+4.97899874844E+007, +7.71902309441E+001, +4.07656858910E+002
+5.00088861076E+007, +7.54767581103E+001, +4.10111517339E+002
+5.02277847309E+007, +7.68421744669E+001, +4.12908949048E+002
+5.04466833542E+007, +7.70001891037E+001, +4.16224180399E+002
+5.06655819775E+007, +7.68004836124E+001, +4.17934561289E+002
+5.08844806008E+007, +7.68039316609E+001, +4.20471573292E+002
+5.11033792240E+007, +7.78385679195E+001, +4.22049708624E+002
+5.13222778473E+007, +7.75596224514E+001, +4.24173372200E+002
+5.15411764706E+007, +7.85688927214E+001, +4.25831403857E+002
+5.17600750939E+007, +7.76269844817E+001, +4.29340611931E+002
+5.19789737171E+007, +7.81860158174E+001, +4.30999395152E+002
+5.21978723404E+007, +7.82918316250E+001, +4.32661884522E+002
+5.24167709637E+007, +7.82223872196E+001, +4.36018785781E+002
+5.26356695870E+007, +7.95333304943E+001, +4.37180055356E+002
+5.28545682103E+007, +7.98145086250E+001, +4.40496071900E+002
+5.30734668335E+007, +7.96408161839E+001, +4.43271443896E+002
+5.32923654568E+007, +7.91961341297E+001, +4.45943761178E+002
+5.35112640801E+007, +8.03217201246E+001, +4.47003905055E+002
+5.37301627034E+007, +7.94691251789E+001, +4.50095583688E+002
+5.39490613267E+007, +8.03748373739E+001, +4.52567173261E+002
+5.41679599499E+007, +8.00646390764E+001, +4.55194336727E+002
+5.43868585732E+007, +8.01451036784E+001, +4.56273625825E+002
+5.46057571965E+007, +7.99638735453E+001, +4.58863983118E+002
+5.48246558198E+007, +8.06787913048E+001, +4.61261134698E+002
+5.50435544431E+007, +8.17359935730E+001, +4.64112027329E+002
+5.52624530663E+007, +8.15213092958E+001, +4.67465032734E+002
+5.54813516896E+007, +8.14219668827E+001, +4.68577466781E+002
+5.57002503129E+007, +8.32732341196E+001, +4.71490701890E+002
+5.59191489362E+007, +8.31274942869E+001, +4.74354452720E+002
+5.61380475594E+007, +8.28708072115E+001, +4.75992685694E+002
+5.63569461827E+007, +8.26964725610E+001, +4.79133224428E+002
+5.65758448060E+007, +8.40310527269E+001, +4.80733362745E+002
+5.67947434293E+007, +8.45038617015E+001, +4.83718080722E+002
+5.70136420526E+007, +8.40429544322E+001, +4.86254125364E+002
+5.72325406758E+007, +8.52173598943E+001, +4.88956790883E+002
+5.74514392991E+007, +8.42542753603E+001, +4.90250467119E+002
+5.76703379224E+007, +8.41848332034E+001, +4.93394126214E+002
+5.78892365457E+007, +8.35119295741E+001, +4.96459091299E+002
+5.81081351690E+007, +8.70827322574E+001, +4.99602934297E+002
+5.83270337922E+007, +8.54308782731E+001, +5.01432733097E+002
+5.85459324155E+007, +8.76694579972E+001, +5.03453613423E+002
+5.87648310388E+007, +8.63768261340E+001, +5.07274514864E+002
+5.89837296621E+007, +8.73843675870E+001, +5.09080770850E+002
+5.92026282854E+007, +8.81685278935E+001, +5.11901754279E+002
+5.94215269086E+007, +8.78531449470E+001, +5.15603700303E+002
+5.96404255319E+007, +8.68676267543E+001, +5.17586201638E+002
+5.98593241552E+007, +8.85507253134E+001, +5.20321140141E+002
+6.00782227785E+007, +8.96058294149E+001, +5.23199432619E+002
+6.02971214018E+007, +9.08228097556E+001, +5.25075914428E+002
+6.05160200250E+007, +8.95389040985E+001, +5.27690007517E+002
+6.07349186483E+007, +8.95559155794E+001, +5.30071171766E+002
+6.09538172716E+007, +8.91504010710E+001, +5.33983029342E+002
+6.11727158949E+007, +9.07656986244E+001, +5.37305234400E+002
+6.13916145181E+007, +9.04061053726E+001, +5.38835053039E+002
+6.16105131414E+007, +9.09311147409E+001, +5.41403551747E+002
+6.18294117647E+007, +9.21297075384E+001, +5.43375081748E+002
+6.20483103880E+007, +9.02570302463E+001, +5.46722598566E+002
+6.22672090113E+007, +9.13985955607E+001, +5.49007495210E+002
+6.24861076345E+007, +9.37222656347E+001, +5.52111455118E+002
+6.27050062578E+007, +9.37717270975E+001, +5.53805743620E+002
+6.29239048811E+007, +9.18870887885E+001, +5.57906537892E+002
+6.31428035044E+007, +9.22213202230E+001, +5.60776739414E+002
+6.33617021277E+007, +9.46841062816E+001, +5.63523627464E+002
+6.35806007509E+007, +9.33124325830E+001, +5.66621839365E+002
+6.37994993742E+007, +9.42085348887E+001, +5.69465536072E+002
+6.40183979975E+007, +9.50952578469E+001, +5.70283771303E+002
+6.42372966208E+007, +9.48226578614E+001, +5.73777229802E+002
+6.44561952441E+007, +9.63364888003E+001, +5.76774896931E+002
+6.46750938673E+007, +9.70557328656E+001, +5.81281602682E+002
+6.48939924906E+007, +9.77886768698E+001, +5.83032455393E+002
+6.51128911139E+007, +9.72975088913E+001, +5.87204690028E+002
+6.53317897372E+007, +9.90488846707E+001, +5.90490434510E+002
+6.55506883605E+007, +9.97865618332E+001, +5.93901497787E+002
+6.57695869837E+007, +9.79536676241E+001, +5.95180736623E+002
+6.59884856070E+007, +1.00819734647E+002, +5.98562243239E+002
+6.62073842303E+007, +1.00228009563E+002, +6.02432907323E+002
+6.64262828536E+007, +9.92578965690E+001, +6.04327965300E+002
+6.66451814768E+007, +1.01293349696E+002, +6.07858165808E+002
+6.68640801001E+007, +1.01499888973E+002, +6.09316159185E+002
+6.70829787234E+007, +1.02177385226E+002, +6.12511583658E+002
+6.73018773467E+007, +1.04131877122E+002, +6.15024340252E+002
+6.75207759700E+007, +1.03408580960E+002, +6.18446103950E+002
+6.77396745932E+007, +1.02622906270E+002, +6.20686432067E+002
+6.79585732165E+007, +1.05015044873E+002, +6.24507250370E+002
+6.81774718398E+007, +1.03436846420E+002, +6.28019872474E+002
+6.83963704631E+007, +1.04959711591E+002, +6.30915869746E+002
+6.86152690864E+007, +1.06793115593E+002, +6.34379583085E+002
+6.88341677096E+007, +1.07742171245E+002, +6.36361285690E+002
+6.90530663329E+007, +1.07219384571E+002, +6.39817799285E+002
+6.92719649562E+007, +1.08888026187E+002, +6.41463708358E+002
+6.94908635795E+007, +1.06937100877E+002, +6.46179281120E+002
+6.97097622028E+007, +1.07593225784E+002, +6.49504744827E+002
+6.99286608260E+007, +1.09814467177E+002, +6.53325706898E+002
+7.01475594493E+007, +1.09821455635E+002, +6.57054778191E+002
