"# Channel 1"
"# Trace 1"
Frequency, Formatted Data, Formatted Data
+1.00000000000E+005, +5.00777964780E+001, +1.22994945120E+000
+3.18898623279E+005, +5.01711315109E+001, +2.29080452601E+000
+5.37797246558E+005, +5.03089973990E+001, +3.93526579863E+000
+7.56695869837E+005, +5.02555888381E+001, +5.47997931161E+000
+9.75594493116E+005, +5.03123468301E+001, +7.04392912062E+000
+1.19449311640E+006, +5.03018726647E+001, +8.54029975425E+000
+1.41339173967E+006, +5.02171965992E+001, +1.02062341414E+001
+1.63229036295E+006, +5.03225294549E+001, +1.16832103492E+001
+1.85118898623E+006, +5.03583307938E+001, +1.33901566970E+001
+2.07008760951E+006, +5.03295123474E+001, +1.49292074472E+001
+2.28898623279E+006, +5.04235842682E+001, +1.66771612122E+001
+2.50788485607E+006, +5.04377304620E+001, +1.80774936028E+001
+2.72678347935E+006, +5.03179178390E+001, +1.97690154251E+001
+2.94568210263E+006, +5.04245140898E+001, +2.13216724064E+001
+3.16458072591E+006, +5.03673361709E+001, +2.30195917081E+001
+3.38347934919E+006, +5.05007731356E+001, +2.45442696376E+001
+3.60237797247E+006, +5.05779438298E+001, +2.60396968696E+001
+3.82127659574E+006, +5.05122715085E+001, +2.74183881004E+001
+4.04017521902E+006, +5.06059251561E+001, +2.91799864542E+001
+4.25907384230E+006, +5.05812438165E+001, +3.06161065750E+001
+4.47797246558E+006, +5.06959493929E+001, +3.23109294199E+001
+4.69687108886E+006, +5.04517684130E+001, +3.38642692777E+001
+4.91576971214E+006, +5.05042959946E+001, +3.54482484540E+001
+5.13466833542E+006, +5.05274709332E+001, +3.70192833723E+001
+5.35356695870E+006, +5.07664677067E+001, +3.86958486401E+001
+5.57246558198E+006, +5.05529704823E+001, +4.00822045417E+001
+5.79136420526E+006, +5.07051541054E+001, +4.19127254960E+001
+6.01026282854E+006, +5.08113288266E+001, +4.32012540733E+001
+6.22916145181E+006, +5.08033727330E+001, +4.49622570369E+001
+6.44806007509E+006, +5.07444583285E+001, +4.64299886427E+001
+6.66695869837E+006, +5.08526453041E+001, +4.80315128269E+001
+6.88585732165E+006, +5.07875902603E+001, +4.96528113633E+001
+7.10475594493E+006, +5.08673550879E+001, +5.11643691805E+001
+7.32365456821E+006, +5.08706950019E+001, +5.27559281811E+001
+7.54255319149E+006, +5.09197460452E+001, +5.42607884877E+001
+7.76145181477E+006, +5.10430763276E+001, +5.58769907532E+001
+7.98035043805E+006, +5.10624532915E+001, +5.74522910073E+001
+8.19924906133E+006, +5.10302034813E+001, +5.89917412717E+001
+8.41814768461E+006, +5.11244368024E+001, +6.06165201173E+001
+8.63704630788E+006, +5.10525555546E+001, +6.21744929502E+001
+8.85594493116E+006, +5.11222700663E+001, +6.36819332331E+001
+9.07484355444E+006, +5.10771124289E+001, +6.54249809833E+001
+9.29374217772E+006, +5.12008889656E+001, +6.70292296335E+001
+9.51264080100E+006, +5.12075413792E+001, +6.84555873873E+001
+9.73153942428E+006, +5.11559707099E+001, +7.01288332358E+001
+9.95043804756E+006, +5.11233148217E+001, +7.15683098210E+001
+1.01693366708E+007, +5.12704326980E+001, +7.32288242826E+001
+1.03882352941E+007, +5.13446440898E+001, +7.47479079484E+001
+1.06071339174E+007, +5.12579175297E+001, +7.63989572508E+001
+1.08260325407E+007, +5.13249531962E+001, +7.79465723348E+001
+1.10449311640E+007, +5.13164728948E+001, +7.95141945767E+001
+1.12638297872E+007, +5.12645136131E+001, +8.11888297821E+001
+1.14827284105E+007, +5.14350124042E+001, +8.27251824637E+001
+1.17016270338E+007, +5.14905470195E+001, +8.42972041661E+001
+1.19205256571E+007, +5.14773395021E+001, +8.57831493237E+001
+1.21394242804E+007, +5.14824938800E+001, +8.74222163935E+001
+1.23583229036E+007, +5.15900470167E+001, +8.91532898300E+001
+1.25772215269E+007, +5.14417146807E+001, +9.05974720117E+001
+1.27961201502E+007, +5.15804048925E+001, +9.21200196711E+001
+1.30150187735E+007, +5.15651241982E+001, +9.37851287763E+001
+1.32339173967E+007, +5.16578542646E+001, +9.54380586776E+001
+1.34528160200E+007, +5.15073054747E+001, +9.69653832903E+001
+1.36717146433E+007, +5.16695912934E+001, +9.85159687142E+001
+1.38906132666E+007, +5.17257630477E+001, +1.00240699912E+002
+1.41095118899E+007, +5.18185006100E+001, +1.01862435143E+002
+1.43284105131E+007, +5.16841272851E+001, +1.03449564627E+002
+1.45473091364E+007, +5.17832224140E+001, +1.05143610565E+002
+1.47662077597E+007, +5.19296052382E+001, +1.06551777033E+002
+1.49851063830E+007, +5.20349965553E+001, +1.08188688965E+002
+1.52040050063E+007, +5.19012867232E+001, +1.09900166383E+002
+1.54229036295E+007, +5.19384426290E+001, +1.11475058351E+002
+1.56418022528E+007, +5.18046080177E+001, +1.13123963438E+002
+1.58607008761E+007, +5.19434432160E+001, +1.14684350777E+002
+1.60795994994E+007, +5.20266814021E+001, +1.16278882921E+002
+1.62984981227E+007, +5.20661466462E+001, +1.17784295290E+002
+1.65173967459E+007, +5.21115089593E+001, +1.19438048056E+002
+1.67362953692E+007, +5.20267342314E+001, +1.21022130494E+002
+1.69551939925E+007, +5.21556319188E+001, +1.22624938359E+002
+1.71740926158E+007, +5.19396794616E+001, +1.24388693730E+002
+1.73929912390E+007, +5.21209949397E+001, +1.25958111822E+002
+1.76118898623E+007, +5.22502420184E+001, +1.27438363153E+002
+1.78307884856E+007, +5.23958340694E+001, +1.28987642432E+002
+1.80496871089E+007, +5.24545806779E+001, +1.30787538033E+002
+1.82685857322E+007, +5.23330215324E+001, +1.32419825292E+002
+1.84874843554E+007, +5.25466454017E+001, +1.33985242496E+002
+1.87063829787E+007, +5.24619309353E+001, +1.35566715199E+002
+1.89252816020E+007, +5.24422973321E+001, +1.37187500252E+002
+1.91441802253E+007, +5.24681959862E+001, +1.38739360553E+002
+1.93630788486E+007, +5.24641864111E+001, +1.40471399092E+002
+1.95819774718E+007, +5.27652199325E+001, +1.42086741155E+002
+1.98008760951E+007, +5.26978918097E+001, +1.43757806755E+002
+2.00197747184E+007, +5.27578933419E+001, +1.45269995098E+002
+2.02386733417E+007, +5.27303037596E+001, +1.46957965333E+002
+2.04575719650E+007, +5.28583507623E+001, +1.48539256968E+002
+2.06764705882E+007, +5.29725887930E+001, +1.50248655756E+002
+2.08953692115E+007, +5.28816547569E+001, +1.51906480690E+002
+2.11142678348E+007, +5.30739437431E+001, +1.53424257610E+002
+2.13331664581E+007, +5.30663946427E+001, +1.55152924722E+002
+2.15520650814E+007, +5.29692513630E+001, +1.56642807988E+002
+2.17709637046E+007, +5.28915897970E+001, +1.58382624023E+002
+2.19898623279E+007, +5.31972548274E+001, +1.60139393899E+002
+2.22087609512E+007, +5.29931791536E+001, +1.61637354424E+002
+2.24276595745E+007, +5.34556699316E+001, +1.63389549932E+002
+2.26465581977E+007, +5.34325764976E+001, +1.64985189727E+002
+2.28654568210E+007, +5.36068195168E+001, +1.66663013942E+002
+2.30843554443E+007, +5.36092988648E+001, +1.68299467175E+002
+2.33032540676E+007, +5.37525441986E+001, +1.70026577569E+002
+2.35221526909E+007, +5.38564285027E+001, +1.71752638446E+002
+2.37410513141E+007, +5.35872479486E+001, +1.73131965680E+002
+2.39599499374E+007, +5.34625912962E+001, +1.74787216228E+002
+2.41788485607E+007, +5.36868647754E+001, +1.76355582134E+002
+2.43977471840E+007, +5.37502512399E+001, +1.78343262918E+002
+2.46166458073E+007, +5.37847956500E+001, +1.80013178635E+002
+2.48355444305E+007, +5.39981453391E+001, +1.81643301713E+002
+2.50544430538E+007, +5.42556104928E+001, +1.83320151927E+002
+2.52733416771E+007, +5.42666736214E+001, +1.85097896931E+002
+2.54922403004E+007, +5.41279261853E+001, +1.86747273710E+002
+2.57111389237E+007, +5.41330898257E+001, +1.88315734052E+002
+2.59300375469E+007, +5.42884466974E+001, +1.89965830049E+002
+2.61489361702E+007, +5.43702174575E+001, +1.91571314436E+002
+2.63678347935E+007, +5.41816553900E+001, +1.93439581830E+002
+2.65867334168E+007, +5.43753832594E+001, +1.94959244564E+002
+2.68056320401E+007, +5.48669574447E+001, +1.96675512657E+002
+2.70245306633E+007, +5.44759540158E+001, +1.98351479500E+002
+2.72434292866E+007, +5.46183586063E+001, +1.99889188560E+002
+2.74623279099E+007, +5.46501580252E+001, +2.01846592994E+002
+2.76812265332E+007, +5.45735917105E+001, +2.03540465500E+002
+2.79001251564E+007, +5.46800916730E+001, +2.05354647870E+002
+2.81190237797E+007, +5.49809072781E+001, +2.06846241882E+002
+2.83379224030E+007, +5.50353321023E+001, +2.08275747872E+002
+2.85568210263E+007, +5.48353042525E+001, +2.10341385626E+002
+2.87757196496E+007, +5.48658780911E+001, +2.12006881189E+002
+2.89946182728E+007, +5.51396283639E+001, +2.13954027446E+002
+2.92135168961E+007, +5.47712560241E+001, +2.15670497221E+002
+2.94324155194E+007, +5.51813714314E+001, +2.17459175843E+002
+2.96513141427E+007, +5.50758828325E+001, +2.18911440075E+002
+2.98702127660E+007, +5.51108033225E+001, +2.20566515688E+002
+3.00891113892E+007, +5.51608499806E+001, +2.22447884095E+002
+3.03080100125E+007, +5.55955080926E+001, +2.24013169278E+002
+3.05269086358E+007, +5.57763246444E+001, +2.25862036742E+002
+3.07458072591E+007, +5.56300269785E+001, +2.27428920008E+002
+3.09647058824E+007, +5.57846974552E+001, +2.29179181256E+002
+3.11836045056E+007, +5.55966135647E+001, +2.31071268012E+002
+3.14025031289E+007, +5.55769292598E+001, +2.32748331917E+002
+3.16214017522E+007, +5.62345810139E+001, +2.34351800453E+002
+3.18403003755E+007, +5.54779449983E+001, +2.36503500204E+002
+3.20591989987E+007, +5.57121140954E+001, +2.37692622127E+002
+3.22780976220E+007, +5.59510408794E+001, +2.39719904779E+002
+3.24969962453E+007, +5.58763052556E+001, +2.41304237648E+002
+3.27158948686E+007, +5.61934483671E+001, +2.42969771433E+002
+3.29347934919E+007, +5.61718821015E+001, +2.45045716295E+002
+3.31536921151E+007, +5.62039619380E+001, +2.46237377569E+002
+3.33725907384E+007, +5.62291166025E+001, +2.48435098641E+002
+3.35914893617E+007, +5.63901371760E+001, +2.50423753114E+002
+3.38103879850E+007, +5.60705367112E+001, +2.52049695917E+002
+3.40292866083E+007, +5.63616200316E+001, +2.53867102237E+002
+3.42481852315E+007, +5.67842696055E+001, +2.55564001369E+002
+3.44670838548E+007, +5.65951156539E+001, +2.57402211214E+002
+3.46859824781E+007, +5.67613848248E+001, +2.59212368709E+002
+3.49048811014E+007, +5.71856946954E+001, +2.61468947658E+002
+3.51237797247E+007, +5.69623967798E+001, +2.62941799964E+002
+3.53426783479E+007, +5.73535379794E+001, +2.64592045746E+002
+3.55615769712E+007, +5.73594258382E+001, +2.67165536889E+002
+3.57804755945E+007, +5.73664361619E+001, +2.67920784030E+002
+3.59993742178E+007, +5.70852106999E+001, +2.70558817912E+002
+3.62182728411E+007, +5.73964318962E+001, +2.71666186466E+002
+3.64371714643E+007, +5.77985565962E+001, +2.73091050038E+002
+3.66560700876E+007, +5.78183688237E+001, +2.75716256585E+002
+3.68749687109E+007, +5.80314992070E+001, +2.77843878436E+002
+3.70938673342E+007, +5.78171438919E+001, +2.79623735820E+002
+3.73127659574E+007, +5.78909924092E+001, +2.81439590865E+002
+3.75316645807E+007, +5.75373757055E+001, +2.83032071496E+002
+3.77505632040E+007, +5.78660637853E+001, +2.84449807949E+002
+3.79694618273E+007, +5.83600561467E+001, +2.86460165190E+002
+3.81883604506E+007, +5.78083627001E+001, +2.88771623295E+002
+3.84072590738E+007, +5.77398799065E+001, +2.90581743586E+002
+3.86261576971E+007, +5.81978630344E+001, +2.92166266041E+002
+3.88450563204E+007, +5.85391624444E+001, +2.93704287179E+002
+3.90639549437E+007, +5.91209142956E+001, +2.96078892666E+002
+3.92828535670E+007, +5.86667628339E+001, +2.97829670075E+002
+3.95017521902E+007, +5.93277242607E+001, +2.99768964099E+002
+3.97206508135E+007, +5.88871242768E+001, +3.02019455179E+002
+3.99395494368E+007, +5.90681275245E+001, +3.03100354294E+002
+4.01584480601E+007, +5.91973151302E+001, +3.05158257955E+002
+4.03773466834E+007, +5.93967643212E+001, +3.07470769281E+002
+4.05962453066E+007, +5.90181884230E+001, +3.09482537322E+002
+4.08151439299E+007, +5.98855514141E+001, +3.10549389988E+002
+4.10340425532E+007, +5.91843939048E+001, +3.12733112700E+002
+4.12529411765E+007, +5.92450061213E+001, +3.13941087740E+002
+4.14718397997E+007, +5.96301985941E+001, +3.17012644301E+002
+4.16907384230E+007, +5.95541403469E+001, +3.18319420556E+002
+4.19096370463E+007, +5.98208655186E+001, +3.20791544779E+002
+4.21285356696E+007, +6.03844512444E+001, +3.22908639059E+002
+4.23474342929E+007, +6.02798040020E+001, +3.25086527640E+002
+4.25663329161E+007, +6.07250511047E+001, +3.26183346742E+002
+4.27852315394E+007, +6.04024837976E+001, +3.28327039316E+002
+4.30041301627E+007, +6.06547150193E+001, +3.30544386000E+002
+4.32230287860E+007, +6.08753881892E+001, +3.32261764113E+002
+4.34419274093E+007, +6.10243198894E+001, +3.34756146213E+002
+4.36608260325E+007, +6.08667589754E+001, +3.35873877248E+002
+4.38797246558E+007, +6.09332487821E+001, +3.38456182409E+002
+4.40986232791E+007, +6.10368105433E+001, +3.40652557775E+002
+4.43175219024E+007, +6.10778154718E+001, +3.42035717935E+002
+4.45364205257E+007, +6.11912008488E+001, +3.45079988928E+002
+4.47553191489E+007, +6.14454272341E+001, +3.46947688806E+002
+4.49742177722E+007, +6.16863625340E+001, +3.48734232904E+002
+4.51931163955E+007, +6.18598336766E+001, +3.49989593741E+002
+4.54120150188E+007, +6.14593118938E+001, +3.52025732121E+002
+4.56309136421E+007, +6.20418514647E+001, +3.54081578503E+002
+4.58498122653E+007, +6.22774468666E+001, +3.55657345721E+002
+4.60687108886E+007, +6.20110357952E+001, +3.58459609061E+002
+4.62876095119E+007, +6.24359192823E+001, +3.60740194339E+002
+4.65065081352E+007, +6.31079423699E+001, +3.61695829491E+002
+4.67254067584E+007, +6.27273635257E+001, +3.63996963723E+002
+4.69443053817E+007, +6.27137901873E+001, +3.65400825233E+002
+4.71632040050E+007, +6.27287444199E+001, +3.67958917717E+002
+4.73821026283E+007, +6.28704003992E+001, +3.69970743852E+002
+4.76010012516E+007, +6.28749648654E+001, +3.72807046330E+002
+4.78198998748E+007, +6.33458258560E+001, +3.74765779413E+002
+4.80387984981E+007, +6.33829633815E+001, +3.76713927565E+002
+4.82576971214E+007, +6.38264143041E+001, +3.78957749100E+002
+4.84765957447E+007, +6.40931509527E+001, +3.80236362618E+002
+4.86954943680E+007, +6.37413295886E+001, +3.82974702004E+002
+4.89143929912E+007, +6.36406891121E+001, +3.85051782204E+002
+4.91332916145E+007, +6.42306038612E+001, +3.86423389409E+002
+4.93521902378E+007, +6.44420293619E+001, +3.89127288087E+002
+4.95710888611E+007, +6.51527490288E+001, +3.91178397975E+002
+4.97899874844E+007, +6.52062838163E+001, +3.93268058628E+002
+5.00088861076E+007, +6.42414518380E+001, +3.95334510518E+002
+5.02277847309E+007, +6.59586123639E+001, +3.97912592132E+002
+5.04466833542E+007, +6.53786757259E+001, +4.00032139309E+002
+5.06655819775E+007, +6.53241684019E+001, +4.01781939908E+002
+5.08844806008E+007, +6.55474778578E+001, +4.04710222035E+002
+5.11033792240E+007, +6.53189503458E+001, +4.06662586423E+002
+5.13222778473E+007, +6.60785186036E+001, +4.08562507843E+002
+5.15411764706E+007, +6.63654683799E+001, +4.10230767904E+002
+5.17600750939E+007, +6.60833836944E+001, +4.13013866082E+002
+5.19789737171E+007, +6.62633548916E+001, +4.15110830941E+002
+5.21978723404E+007, +6.66827614383E+001, +4.17570146663E+002
+5.24167709637E+007, +6.62645783187E+001, +4.19433523043E+002
+5.26356695870E+007, +6.71741883541E+001, +4.21097145368E+002
+5.28545682103E+007, +6.69339090708E+001, +4.24351204858E+002
+5.30734668335E+007, +6.71174218984E+001, +4.26703331090E+002
+5.32923654568E+007, +6.68376270753E+001, +4.28857440324E+002
+5.35112640801E+007, +6.75190725865E+001, +4.30365373868E+002
+5.37301627034E+007, +6.73712973732E+001, +4.33391964596E+002
+5.39490613267E+007, +6.75319864474E+001, +4.35986610939E+002
+5.41679599499E+007, +6.76434031477E+001, +4.36775461471E+002
+5.43868585732E+007, +6.77812827734E+001, +4.38717611191E+002
+5.46057571965E+007, +6.80994212193E+001, +4.42459960272E+002
+5.48246558198E+007, +6.82482057167E+001, +4.43852877427E+002
+5.50435544431E+007, +6.87237431873E+001, +4.47218476491E+002
+5.52624530663E+007, +6.92430178312E+001, +4.50507736856E+002
+5.54813516896E+007, +6.95326384950E+001, +4.51365840370E+002
+5.57002503129E+007, +7.05665368651E+001, +4.53640363491E+002
+5.59191489362E+007, +7.06321678753E+001, +4.55988172755E+002
+5.61380475594E+007, +6.98010984211E+001, +4.58266825799E+002
+5.63569461827E+007, +6.98516114835E+001, +4.61579496018E+002
+5.65758448060E+007, +7.09305553974E+001, +4.63231610014E+002
+5.67947434293E+007, +7.05926918303E+001, +4.66255285106E+002
+5.70136420526E+007, +7.11775368477E+001, +4.68065550221E+002
+5.72325406758E+007, +7.15193053070E+001, +4.69801491370E+002
+5.74514392991E+007, +7.10888658930E+001, +4.73071037630E+002
+5.76703379224E+007, +7.16827982111E+001, +4.75276693006E+002
+5.78892365457E+007, +7.15188123245E+001, +4.77481907470E+002
+5.81081351690E+007, +7.33724079411E+001, +4.80873891746E+002
+5.83270337922E+007, +7.14046645845E+001, +4.83423645939E+002
+5.85459324155E+007, +7.31801002208E+001, +4.86029054400E+002
+5.87648310388E+007, +7.26939914025E+001, +4.87070547860E+002
+5.89837296621E+007, +7.35629565598E+001, +4.90243189959E+002
+5.92026282854E+007, +7.44516576678E+001, +4.93113035208E+002
+5.94215269086E+007, +7.35081179075E+001, +4.95141688644E+002
+5.96404255319E+007, +7.28087927674E+001, +4.98171647499E+002
+5.98593241552E+007, +7.52870789548E+001, +5.00395915207E+002
+6.00782227785E+007, +7.39445545820E+001, +5.03230570447E+002
+6.02971214018E+007, +7.61789159878E+001, +5.05946910866E+002
+6.05160200250E+007, +7.49578327541E+001, +5.07991976229E+002
+6.07349186483E+007, +7.56663186340E+001, +5.10292583612E+002
+6.09538172716E+007, +7.44947054574E+001, +5.13035983783E+002
+6.11727158949E+007, +7.68026658736E+001, +5.16754467853E+002
+6.13916145181E+007, +7.56593295236E+001, +5.18461057273E+002
+6.16105131414E+007, +7.66018995004E+001, +5.21377220757E+002
+6.18294117647E+007, +7.75362824571E+001, +5.23373454656E+002
+6.20483103880E+007, +7.68222510305E+001, +5.25765871472E+002
+6.22672090113E+007, +7.71280528788E+001, +5.27888026322E+002
+6.24861076345E+007, +7.85500315126E+001, +5.30780275381E+002
+6.27050062578E+007, +7.94304126816E+001, +5.33876978165E+002
+6.29239048811E+007, +7.75068315816E+001, +5.36538935625E+002
+6.31428035044E+007, +7.75445517815E+001, +5.39997154955E+002
+6.33617021277E+007, +7.96619304154E+001, +5.41995051009E+002
+6.35806007509E+007, +7.86636931603E+001, +5.45922538907E+002
+6.37994993742E+007, +7.99809689644E+001, +5.47469510964E+002
+6.40183979975E+007, +8.03481835099E+001, +5.48349974699E+002
+6.42372966208E+007, +7.98092828187E+001, +5.53310776649E+002
+6.44561952441E+007, +8.07999813146E+001, +5.56316266410E+002
+6.46750938673E+007, +8.02891688537E+001, +5.59925091665E+002
+6.48939924906E+007, +8.23427374393E+001, +5.62656810439E+002
+6.51128911139E+007, +8.06674222048E+001, +5.66327490493E+002
+6.53317897372E+007, +8.35787723777E+001, +5.68574960552E+002
+6.55506883605E+007, +8.40408019084E+001, +5.69793082568E+002
+6.57695869837E+007, +8.19787679915E+001, +5.74247613369E+002
+6.59884856070E+007, +8.33748490966E+001, +5.76221165934E+002
+6.62073842303E+007, +8.44627246649E+001, +5.81644723145E+002
+6.64262828536E+007, +8.37137763962E+001, +5.83155501327E+002
+6.66451814768E+007, +8.49047910188E+001, +5.85273920454E+002
+6.68640801001E+007, +8.49409358783E+001, +5.88172907051E+002
+6.70829787234E+007, +8.54033579195E+001, +5.91716659553E+002
+6.73018773467E+007, +8.79559132301E+001, +5.93736719491E+002
+6.75207759700E+007, +8.80735962630E+001, +5.97960368950E+002
+6.77396745932E+007, +8.73638067651E+001, +5.99487348908E+002
+6.79585732165E+007, +8.98691726456E+001, +6.02271790124E+002
+6.81774718398E+007, +8.78362389233E+001, +6.06778759046E+002
+6.83963704631E+007, +8.85390796307E+001, +6.08932326783E+002
+6.86152690864E+007, +9.03954251732E+001, +6.13066760266E+002
+6.88341677096E+007, +8.98313716323E+001, +6.15019703340E+002
+6.90530663329E+007, +9.06058316489E+001, +6.18585513703E+002
+6.92719649562E+007, +9.19011086721E+001, +6.19838351906E+002
+6.94908635795E+007, +9.29501040336E+001, +6.23785779577E+002
+6.97097622028E+007, +9.09853950228E+001, +6.27164651796E+002
+6.99286608260E+007, +9.23721694278E+001, +6.30598317186E+002
+7.01475594493E+007, +9.34143589373E+001, +6.34498657325E+002
