"# Channel 1"
"# Trace 1"
Frequency, Formatted Data, Formatted Data
+1.00000000000E+005, +5.75287578316E+001, +1.14052603895E+000
+3.18898623279E+005, +5.76373574334E+001, +2.26546244622E+000
+5.37797246558E+005, +5.76842826241E+001, +3.93173592549E+000
+7.56695869837E+005, +5.76181053150E+001, +5.44794239005E+000
+9.75594493116E+005, +5.77145260514E+001, +7.06803757202E+000
+1.19449311640E+006, +5.76631664140E+001, +8.61279962211E+000
+1.41339173967E+006, +5.75800838710E+001, +1.02265699402E+001
+1.63229036295E+006, +5.77400993675E+001, +1.17128223954E+001
+1.85118898623E+006, +5.77094519046E+001, +1.34034711742E+001
+2.07008760951E+006, +5.77239039598E+001, +1.49273836523E+001
+2.28898623279E+006, +5.77910460946E+001, +1.66709293650E+001
+2.50788485607E+006, +5.78308942038E+001, +1.81991159681E+001
+2.72678347935E+006, +5.76382543056E+001, +1.98346442937E+001
+2.94568210263E+006, +5.78425199038E+001, +2.13427079894E+001
+3.16458072591E+006, +5.76932837511E+001, +2.30378785027E+001
+3.38347934919E+006, +5.78296334094E+001, +2.46389456435E+001
+3.60237797247E+006, +5.78384670588E+001, +2.60877332634E+001
+3.82127659574E+006, +5.78358322184E+001, +2.75037024569E+001
+4.04017521902E+006, +5.79676628241E+001, +2.92065136009E+001
+4.25907384230E+006, +5.78693337632E+001, +3.07751794135E+001
+4.47797246558E+006, +5.79460391733E+001, +3.23812334859E+001
+4.69687108886E+006, +5.77198878058E+001, +3.39964443391E+001
+4.91576971214E+006, +5.78271231634E+001, +3.55656663647E+001
+5.13466833542E+006, +5.79010651383E+001, +3.72291429868E+001
+5.35356695870E+006, +5.79656709622E+001, +3.88040246485E+001
+5.57246558198E+006, +5.79121526085E+001, +4.02474394629E+001
+5.79136420526E+006, +5.80475475608E+001, +4.21298911455E+001
+6.01026282854E+006, +5.81017753010E+001, +4.34398230346E+001
+6.22916145181E+006, +5.80241129287E+001, +4.51345090134E+001
+6.44806007509E+006, +5.80396134528E+001, +4.66665968273E+001
+6.66695869837E+006, +5.81987280976E+001, +4.82790653150E+001
+6.88585732165E+006, +5.81196281950E+001, +4.99046744176E+001
+7.10475594493E+006, +5.81724490672E+001, +5.14855550016E+001
+7.32365456821E+006, +5.82254267413E+001, +5.30098511008E+001
+7.54255319149E+006, +5.81934848594E+001, +5.45969841879E+001
+7.76145181477E+006, +5.83366098823E+001, +5.61648524796E+001
+7.98035043805E+006, +5.83676867040E+001, +5.77969621872E+001
+8.19924906133E+006, +5.83421648937E+001, +5.93024196840E+001
+8.41814768461E+006, +5.84167986541E+001, +6.09691284680E+001
+8.63704630788E+006, +5.83590356037E+001, +6.24970886580E+001
+8.85594493116E+006, +5.84638721802E+001, +6.40609785124E+001
+9.07484355444E+006, +5.83617386376E+001, +6.58098311472E+001
+9.29374217772E+006, +5.85302138066E+001, +6.73573851605E+001
+9.51264080100E+006, +5.85144714909E+001, +6.87802840571E+001
+9.73153942428E+006, +5.85048206505E+001, +7.05738185020E+001
+9.95043804756E+006, +5.84285440299E+001, +7.20103996459E+001
+1.01693366708E+007, +5.85894293219E+001, +7.35833290226E+001
+1.03882352941E+007, +5.87276092814E+001, +7.51985769997E+001
+1.06071339174E+007, +5.86439442983E+001, +7.68446345136E+001
+1.08260325407E+007, +5.86904118310E+001, +7.84692048833E+001
+1.10449311640E+007, +5.87565916522E+001, +7.99702847891E+001
+1.12638297872E+007, +5.86583749837E+001, +8.16865590314E+001
+1.14827284105E+007, +5.88142411985E+001, +8.32212532295E+001
+1.17016270338E+007, +5.89418643117E+001, +8.48615326853E+001
+1.19205256571E+007, +5.88314972806E+001, +8.63528944648E+001
+1.21394242804E+007, +5.89205840469E+001, +8.79443618095E+001
+1.23583229036E+007, +5.89601921540E+001, +8.96539706841E+001
+1.25772215269E+007, +5.88603305947E+001, +9.12000949783E+001
+1.27961201502E+007, +5.89201442683E+001, +9.27770411873E+001
+1.30150187735E+007, +5.90340067349E+001, +9.43719479826E+001
+1.32339173967E+007, +5.90698259840E+001, +9.61017713258E+001
+1.34528160200E+007, +5.89356645292E+001, +9.76133714818E+001
+1.36717146433E+007, +5.91495276047E+001, +9.91417954524E+001
+1.38906132666E+007, +5.92445130575E+001, +1.00869294982E+002
+1.41095118899E+007, +5.93617600947E+001, +1.02564048440E+002
+1.43284105131E+007, +5.91894917520E+001, +1.04073878660E+002
+1.45473091364E+007, +5.93388433483E+001, +1.05846032425E+002
+1.47662077597E+007, +5.93481017146E+001, +1.07225937247E+002
+1.49851063830E+007, +5.94757372809E+001, +1.08933295992E+002
+1.52040050063E+007, +5.93304378672E+001, +1.10689245081E+002
+1.54229036295E+007, +5.95130052965E+001, +1.12349956099E+002
+1.56418022528E+007, +5.93612088263E+001, +1.13916808154E+002
+1.58607008761E+007, +5.95410332178E+001, +1.15403360680E+002
+1.60795994994E+007, +5.95679642987E+001, +1.17159649004E+002
+1.62984981227E+007, +5.96226310182E+001, +1.18701181662E+002
+1.65173967459E+007, +5.96586934816E+001, +1.20268817179E+002
+1.67362953692E+007, +5.96052536674E+001, +1.22000633404E+002
+1.69551939925E+007, +5.96686516158E+001, +1.23416702298E+002
+1.71740926158E+007, +5.95791105487E+001, +1.25355043919E+002
+1.73929912390E+007, +5.96966989970E+001, +1.26858258747E+002
+1.76118898623E+007, +5.98042674670E+001, +1.28365682408E+002
+1.78307884856E+007, +6.00290174852E+001, +1.30031479418E+002
+1.80496871089E+007, +6.00561258938E+001, +1.31725645811E+002
+1.82685857322E+007, +5.99939909019E+001, +1.33403558530E+002
+1.84874843554E+007, +6.00879505624E+001, +1.34899263701E+002
+1.87063829787E+007, +6.01955603184E+001, +1.36645237671E+002
+1.89252816020E+007, +6.02020834124E+001, +1.38195782453E+002
+1.91441802253E+007, +6.01760136284E+001, +1.39788646561E+002
+1.93630788486E+007, +6.02246210835E+001, +1.41568347887E+002
+1.95819774718E+007, +6.04021957835E+001, +1.43080440990E+002
+1.98008760951E+007, +6.03984260657E+001, +1.44790652407E+002
+2.00197747184E+007, +6.05835454155E+001, +1.46501588293E+002
+2.02386733417E+007, +6.05444946709E+001, +1.48034404147E+002
+2.04575719650E+007, +6.05732083809E+001, +1.49724731281E+002
+2.06764705882E+007, +6.06971613105E+001, +1.51441575162E+002
+2.08953692115E+007, +6.07492026209E+001, +1.53116890151E+002
+2.11142678348E+007, +6.09347846498E+001, +1.54527020589E+002
+2.13331664581E+007, +6.09327201770E+001, +1.56352929340E+002
+2.15520650814E+007, +6.08127413285E+001, +1.57801786521E+002
+2.17709637046E+007, +6.09097811805E+001, +1.59670551935E+002
+2.19898623279E+007, +6.10446710353E+001, +1.61484775253E+002
+2.22087609512E+007, +6.09470081104E+001, +1.62782100346E+002
+2.24276595745E+007, +6.13479792732E+001, +1.64836001428E+002
+2.26465581977E+007, +6.13118596019E+001, +1.66260064179E+002
+2.28654568210E+007, +6.16764080778E+001, +1.67932155911E+002
+2.30843554443E+007, +6.14971391763E+001, +1.69664007920E+002
+2.33032540676E+007, +6.17962932153E+001, +1.71316710139E+002
+2.35221526909E+007, +6.16794230672E+001, +1.73064137548E+002
+2.37410513141E+007, +6.16052979828E+001, +1.74613472697E+002
+2.39599499374E+007, +6.15510504078E+001, +1.76398568232E+002
+2.41788485607E+007, +6.17939038406E+001, +1.77793076772E+002
+2.43977471840E+007, +6.19099989491E+001, +1.79935470078E+002
+2.46166458073E+007, +6.19510811730E+001, +1.81418233154E+002
+2.48355444305E+007, +6.20760290292E+001, +1.83096761915E+002
+2.50544430538E+007, +6.22766302861E+001, +1.84881607935E+002
+2.52733416771E+007, +6.22782731849E+001, +1.86516403184E+002
+2.54922403004E+007, +6.21559981001E+001, +1.88207069401E+002
+2.57111389237E+007, +6.25511867239E+001, +1.89790659195E+002
+2.59300375469E+007, +6.23101376296E+001, +1.91581962219E+002
+2.61489361702E+007, +6.26340393880E+001, +1.93152876503E+002
+2.63678347935E+007, +6.23244913092E+001, +1.95039209225E+002
+2.65867334168E+007, +6.29289372507E+001, +1.96732143583E+002
+2.68056320401E+007, +6.29349917733E+001, +1.98426205893E+002
+2.70245306633E+007, +6.27523216990E+001, +2.00289279129E+002
+2.72434292866E+007, +6.29080106589E+001, +2.01712576426E+002
+2.74623279099E+007, +6.29287190557E+001, +2.03769963737E+002
+2.76812265332E+007, +6.31149143876E+001, +2.05282969217E+002
+2.79001251564E+007, +6.28247435161E+001, +2.06975792480E+002
+2.81190237797E+007, +6.33564647826E+001, +2.08744105034E+002
+2.83379224030E+007, +6.34694628966E+001, +2.10305413190E+002
+2.85568210263E+007, +6.30866863566E+001, +2.12156817548E+002
+2.87757196496E+007, +6.33614454299E+001, +2.13909442134E+002
+2.89946182728E+007, +6.32652568255E+001, +2.16020917402E+002
+2.92135168961E+007, +6.35419894757E+001, +2.18033341503E+002
+2.94324155194E+007, +6.36084407984E+001, +2.19431327605E+002
+2.96513141427E+007, +6.34259959442E+001, +2.20674624121E+002
+2.98702127660E+007, +6.34804694574E+001, +2.22820983705E+002
+3.00891113892E+007, +6.35748120242E+001, +2.24510969247E+002
+3.03080100125E+007, +6.40927136091E+001, +2.26094888038E+002
+3.05269086358E+007, +6.40467656268E+001, +2.27963007496E+002
+3.07458072591E+007, +6.40440250196E+001, +2.29777483904E+002
+3.09647058824E+007, +6.44066671082E+001, +2.31623451899E+002
+3.11836045056E+007, +6.44223186142E+001, +2.32925923430E+002
+3.14025031289E+007, +6.43378076612E+001, +2.34974174802E+002
+3.16214017522E+007, +6.46499588812E+001, +2.36632704143E+002
+3.18403003755E+007, +6.43833177087E+001, +2.38898957382E+002
+3.20591989987E+007, +6.43739977191E+001, +2.40276039163E+002
+3.22780976220E+007, +6.46538475628E+001, +2.41945658669E+002
+3.24969962453E+007, +6.47301328397E+001, +2.43760652729E+002
+3.27158948686E+007, +6.50483511446E+001, +2.45627217088E+002
+3.29347934919E+007, +6.49976039036E+001, +2.47161377491E+002
+3.31536921151E+007, +6.51263882532E+001, +2.48733808946E+002
+3.33725907384E+007, +6.52853820016E+001, +2.50978348430E+002
+3.35914893617E+007, +6.54791058064E+001, +2.52749348154E+002
+3.38103879850E+007, +6.51182439356E+001, +2.54731620723E+002
+3.40292866083E+007, +6.52148870937E+001, +2.56690627140E+002
+3.42481852315E+007, +6.58225185095E+001, +2.58251664778E+002
+3.44670838548E+007, +6.59071238194E+001, +2.60291170047E+002
+3.46859824781E+007, +6.60106077884E+001, +2.62269685217E+002
+3.49048811014E+007, +6.62150842340E+001, +2.63894183221E+002
+3.51237797247E+007, +6.63247490826E+001, +2.65605467927E+002
+3.53426783479E+007, +6.62746192741E+001, +2.67503421403E+002
+3.55615769712E+007, +6.63393332113E+001, +2.69344794631E+002
+3.57804755945E+007, +6.70786481862E+001, +2.70725082258E+002
+3.59993742178E+007, +6.64274870236E+001, +2.73181622676E+002
+3.62182728411E+007, +6.65293718892E+001, +2.74368089890E+002
+3.64371714643E+007, +6.73024714407E+001, +2.76141174168E+002
+3.66560700876E+007, +6.69277719786E+001, +2.78651243581E+002
+3.68749687109E+007, +6.72781089451E+001, +2.80290571922E+002
+3.70938673342E+007, +6.72557079335E+001, +2.82032528640E+002
+3.73127659574E+007, +6.74017421936E+001, +2.84005955400E+002
+3.75316645807E+007, +6.72892028027E+001, +2.85451599773E+002
+3.77505632040E+007, +6.73462862234E+001, +2.87784299708E+002
+3.79694618273E+007, +6.79169758980E+001, +2.89222599204E+002
+3.81883604506E+007, +6.74362954685E+001, +2.91546468823E+002
+3.84072590738E+007, +6.76948590052E+001, +2.93586605168E+002
+3.86261576971E+007, +6.78895613401E+001, +2.95131739210E+002
+3.88450563204E+007, +6.79350224637E+001, +2.96910279874E+002
+3.90639549437E+007, +6.85346272738E+001, +2.98847073723E+002
+3.92828535670E+007, +6.82149606441E+001, +3.01698541581E+002
+3.95017521902E+007, +6.86169896336E+001, +3.02861914016E+002
+3.97206508135E+007, +6.89186506930E+001, +3.05199098337E+002
+3.99395494368E+007, +6.86866756792E+001, +3.06563031924E+002
+4.01584480601E+007, +6.92919721292E+001, +3.08530289769E+002
+4.03773466834E+007, +6.94811307338E+001, +3.10664194226E+002
+4.05962453066E+007, +6.86780218250E+001, +3.13394402481E+002
+4.08151439299E+007, +6.90706246981E+001, +3.14470421390E+002
+4.10340425532E+007, +6.96509156339E+001, +3.15887156006E+002
+4.12529411765E+007, +6.96979430661E+001, +3.17749658751E+002
+4.14718397997E+007, +6.94614982822E+001, +3.20237362289E+002
+4.16907384230E+007, +6.99104733542E+001, +3.22080540332E+002
+4.19096370463E+007, +6.99108466343E+001, +3.24009717025E+002
+4.21285356696E+007, +7.00002555978E+001, +3.26080057782E+002
+4.23474342929E+007, +6.98943004873E+001, +3.29016392562E+002
+4.25663329161E+007, +7.06038878016E+001, +3.29995065715E+002
+4.27852315394E+007, +7.05579073401E+001, +3.32527345248E+002
+4.30041301627E+007, +7.04928622949E+001, +3.34369859772E+002
+4.32230287860E+007, +7.10870865220E+001, +3.36028295460E+002
+4.34419274093E+007, +7.10156100355E+001, +3.37915475989E+002
+4.36608260325E+007, +7.09534871649E+001, +3.39813546227E+002
+4.38797246558E+007, +7.13844511448E+001, +3.42125216211E+002
+4.40986232791E+007, +7.14732490490E+001, +3.44481451850E+002
+4.43175219024E+007, +7.12706012224E+001, +3.46022262892E+002
+4.45364205257E+007, +7.16458048701E+001, +3.48772191348E+002
+4.47553191489E+007, +7.21782625765E+001, +3.50181813872E+002
+4.49742177722E+007, +7.16372018249E+001, +3.52827681158E+002
+4.51931163955E+007, +7.26949875916E+001, +3.54586315746E+002
+4.54120150188E+007, +7.21860281234E+001, +3.56435257226E+002
+4.56309136421E+007, +7.27591093974E+001, +3.58721605417E+002
+4.58498122653E+007, +7.29138864295E+001, +3.59526319683E+002
+4.60687108886E+007, +7.27604359052E+001, +3.62886654044E+002
+4.62876095119E+007, +7.33474042741E+001, +3.64330835349E+002
+4.65065081352E+007, +7.34091680750E+001, +3.66188931653E+002
+4.67254067584E+007, +7.34744121924E+001, +3.68398159225E+002
+4.69443053817E+007, +7.38544609630E+001, +3.70214966906E+002
+4.71632040050E+007, +7.35398391201E+001, +3.72522881955E+002
+4.73821026283E+007, +7.46176151323E+001, +3.74276483513E+002
+4.76010012516E+007, +7.39681972502E+001, +3.76392902858E+002
+4.78198998748E+007, +7.37697380424E+001, +3.79306223700E+002
+4.80387984981E+007, +7.46841593455E+001, +3.80918469119E+002
+4.82576971214E+007, +7.42922433116E+001, +3.83499408841E+002
+4.84765957447E+007, +7.46312929550E+001, +3.85270542401E+002
+4.86954943680E+007, +7.49303749577E+001, +3.87915372539E+002
+4.89143929912E+007, +7.45924006803E+001, +3.89575564139E+002
+4.91332916145E+007, +7.52163750446E+001, +3.91287324413E+002
+4.93521902378E+007, +7.53913089231E+001, +3.93753303360E+002
+4.95710888611E+007, +7.67607509405E+001, +3.96036873931E+002
+4.97899874844E+007, +7.60120865394E+001, +3.97476032142E+002
+5.00088861076E+007, +7.52825563616E+001, +4.00107268579E+002
+5.02277847309E+007, +7.67881958331E+001, +4.02432122242E+002
+5.04466833542E+007, +7.70393168294E+001, +4.04588814100E+002
+5.06655819775E+007, +7.70439659490E+001, +4.06978665777E+002
+5.08844806008E+007, +7.70697635120E+001, +4.09376905691E+002
+5.11033792240E+007, +7.69761934658E+001, +4.10791513939E+002
+5.13222778473E+007, +7.74147119707E+001, +4.13793696665E+002
+5.15411764706E+007, +7.83036558646E+001, +4.15609782939E+002
+5.17600750939E+007, +7.75950293064E+001, +4.18826437636E+002
+5.19789737171E+007, +7.76952679064E+001, +4.20791939263E+002
+5.21978723404E+007, +7.86201106259E+001, +4.22419932549E+002
+5.24167709637E+007, +7.78762157759E+001, +4.24486815505E+002
+5.26356695870E+007, +7.92000369981E+001, +4.25196987072E+002
+5.28545682103E+007, +7.92790688910E+001, +4.29116832216E+002
+5.30734668335E+007, +7.93552490529E+001, +4.31980336768E+002
+5.32923654568E+007, +7.89451339516E+001, +4.34728757379E+002
+5.35112640801E+007, +8.05752678814E+001, +4.35279322836E+002
+5.37301627034E+007, +7.90535892299E+001, +4.38900354744E+002
+5.39490613267E+007, +8.02027384208E+001, +4.41234593205E+002
+5.41679599499E+007, +7.99992170164E+001, +4.43483719365E+002
+5.43868585732E+007, +8.02735617494E+001, +4.45090154481E+002
+5.46057571965E+007, +7.98679645841E+001, +4.48382834663E+002
+5.48246558198E+007, +8.08008920897E+001, +4.49886171450E+002
+5.50435544431E+007, +8.15031205406E+001, +4.52817499264E+002
+5.52624530663E+007, +8.13021915849E+001, +4.55810092544E+002
+5.54813516896E+007, +8.17544138626E+001, +4.57667726905E+002
+5.57002503129E+007, +8.29867411292E+001, +4.60229221368E+002
+5.59191489362E+007, +8.29961788463E+001, +4.61755507184E+002
+5.61380475594E+007, +8.27935607283E+001, +4.64141657031E+002
+5.63569461827E+007, +8.32838147376E+001, +4.67830164277E+002
+5.65758448060E+007, +8.30287694059E+001, +4.69387788483E+002
+5.67947434293E+007, +8.39161646395E+001, +4.72225791872E+002
+5.70136420526E+007, +8.40154137073E+001, +4.73872111589E+002
+5.72325406758E+007, +8.42324729607E+001, +4.77255339147E+002
+5.74514392991E+007, +8.29949637732E+001, +4.79726005895E+002
+5.76703379224E+007, +8.52815968075E+001, +4.81575440740E+002
+5.78892365457E+007, +8.51316972540E+001, +4.84529806910E+002
+5.81081351690E+007, +8.65692316147E+001, +4.86960670061E+002
+5.83270337922E+007, +8.48238105962E+001, +4.89316388931E+002
+5.85459324155E+007, +8.71554421990E+001, +4.92200826741E+002
+5.87648310388E+007, +8.64942695253E+001, +4.95004678079E+002
+5.89837296621E+007, +8.67563059351E+001, +4.96812396643E+002
+5.92026282854E+007, +8.83557215463E+001, +4.99544726725E+002
+5.94215269086E+007, +8.73472953975E+001, +5.02224653020E+002
+5.96404255319E+007, +8.67457942496E+001, +5.04946087427E+002
+5.98593241552E+007, +8.92798204599E+001, +5.07361727803E+002
+6.00782227785E+007, +8.92445346668E+001, +5.09274673913E+002
+6.02971214018E+007, +8.92259373445E+001, +5.11640276933E+002
+6.05160200250E+007, +8.88658464536E+001, +5.15808083596E+002
+6.07349186483E+007, +9.05363801680E+001, +5.16038784594E+002
+6.09538172716E+007, +8.96323299018E+001, +5.21453657096E+002
+6.11727158949E+007, +9.02555285746E+001, +5.22575558543E+002
+6.13916145181E+007, +8.94229373660E+001, +5.25740400440E+002
+6.16105131414E+007, +9.01142474534E+001, +5.28738627622E+002
+6.18294117647E+007, +9.16541959121E+001, +5.29971651916E+002
+6.20483103880E+007, +9.07912037344E+001, +5.32157032066E+002
+6.22672090113E+007, +9.19601202080E+001, +5.36325813904E+002
+6.24861076345E+007, +9.37021759968E+001, +5.38177843080E+002
+6.27050062578E+007, +9.36635554846E+001, +5.40797014618E+002
+6.29239048811E+007, +9.17984517319E+001, +5.45337604362E+002
+6.31428035044E+007, +9.37496992097E+001, +5.48669607816E+002
+6.33617021277E+007, +9.42460388161E+001, +5.49148795903E+002
+6.35806007509E+007, +9.32332060248E+001, +5.54137456046E+002
+6.37994993742E+007, +9.37378235680E+001, +5.56710309436E+002
+6.40183979975E+007, +9.54625081182E+001, +5.58099440050E+002
+6.42372966208E+007, +9.48202664920E+001, +5.62651736118E+002
+6.44561952441E+007, +9.55460773753E+001, +5.63751918292E+002
+6.46750938673E+007, +9.64892393096E+001, +5.68049226446E+002
+6.48939924906E+007, +9.84497917987E+001, +5.69208507131E+002
+6.51128911139E+007, +9.66070130984E+001, +5.74382680391E+002
+6.53317897372E+007, +9.90676228853E+001, +5.77114506464E+002
+6.55506883605E+007, +9.96975459849E+001, +5.79785951625E+002
+6.57695869837E+007, +9.88587313490E+001, +5.82005790962E+002
+6.59884856070E+007, +1.01023647377E+002, +5.84637380091E+002
+6.62073842303E+007, +1.00803442200E+002, +5.88761010614E+002
+6.64262828536E+007, +1.00841355607E+002, +5.90633695773E+002
+6.66451814768E+007, +9.92860115117E+001, +5.93251251342E+002
+6.68640801001E+007, +1.01915501040E+002, +5.97054063361E+002
+6.70829787234E+007, +1.01793057581E+002, +6.00729544283E+002
+6.73018773467E+007, +1.03333756897E+002, +6.01602535787E+002
+6.75207759700E+007, +1.04440651782E+002, +6.05535057579E+002
+6.77396745932E+007, +1.04214497056E+002, +6.07284814527E+002
+6.79585732165E+007, +1.05583882644E+002, +6.10975937712E+002
+6.81774718398E+007, +1.04374516499E+002, +6.14905557520E+002
+6.83963704631E+007, +1.05539177965E+002, +6.17357125481E+002
+6.86152690864E+007, +1.07059660389E+002, +6.21417587110E+002
+6.88341677096E+007, +1.07336888914E+002, +6.23833813613E+002
+6.90530663329E+007, +1.08353614917E+002, +6.27572556698E+002
+6.92719649562E+007, +1.09649996473E+002, +6.28789188754E+002
+6.94908635795E+007, +1.08341106695E+002, +6.32867586546E+002
+6.97097622028E+007, +1.07611598979E+002, +6.36127146163E+002
+6.99286608260E+007, +1.10249238074E+002, +6.39329433525E+002
+7.01475594493E+007, +1.11105747879E+002, +6.42628618574E+002
