"# Channel 1"
"# Trace 1"
Frequency, Formatted Data, Formatted Data
+1.00000000000E+005, +5.75406272608E+001, +1.22348665255E+000
+3.18898623279E+005, +5.76175972159E+001, +2.37317613773E+000
+5.37797246558E+005, +5.76738328139E+001, +4.03092177565E+000
+7.56695869837E+005, +5.76756854214E+001, +5.66274305951E+000
+9.75594493116E+005, +5.76873766465E+001, +7.31225626045E+000
+1.19449311640E+006, +5.76518817042E+001, +8.88074283569E+000
+1.41339173967E+006, +5.75736782792E+001, +1.05016601190E+001
+1.63229036295E+006, +5.76835512773E+001, +1.21630289411E+001
+1.85118898623E+006, +5.77275063561E+001, +1.39227847589E+001
+2.07008760951E+006, +5.76297246684E+001, +1.54591525090E+001
+2.28898623279E+006, +5.77935355861E+001, +1.72716978565E+001
+2.50788485607E+006, +5.78329014264E+001, +1.87293446179E+001
+2.72678347935E+006, +5.77639554092E+001, +2.04682632608E+001
+2.94568210263E+006, +5.77764043264E+001, +2.21244316950E+001
+3.16458072591E+006, +5.76054345690E+001, +2.39333135609E+001
+3.38347934919E+006, +5.78975550392E+001, +2.54230174472E+001
+3.60237797247E+006, +5.78575334507E+001, +2.70261095260E+001
+3.82127659574E+006, +5.78002244523E+001, +2.84639111906E+001
+4.04017521902E+006, +5.79340978021E+001, +3.02114571235E+001
+4.25907384230E+006, +5.78760366270E+001, +3.17923192134E+001
+4.47797246558E+006, +5.79602822776E+001, +3.35957931893E+001
+4.69687108886E+006, +5.77250317931E+001, +3.51651658507E+001
+4.91576971214E+006, +5.78389326535E+001, +3.68470580156E+001
+5.13466833542E+006, +5.78842351928E+001, +3.85224973788E+001
+5.35356695870E+006, +5.79450266813E+001, +4.01781727885E+001
+5.57246558198E+006, +5.79118511449E+001, +4.16364010351E+001
+5.79136420526E+006, +5.80863860596E+001, +4.35779228543E+001
+6.01026282854E+006, +5.80842914073E+001, +4.49603800806E+001
+6.22916145181E+006, +5.80689836062E+001, +4.68196914177E+001
+6.44806007509E+006, +5.80675044826E+001, +4.82672409183E+001
+6.66695869837E+006, +5.81893475382E+001, +4.99650591222E+001
+6.88585732165E+006, +5.81004724570E+001, +5.16096118717E+001
+7.10475594493E+006, +5.81756088478E+001, +5.32736191337E+001
+7.32365456821E+006, +5.82489948095E+001, +5.49090384814E+001
+7.54255319149E+006, +5.81970501963E+001, +5.64050197246E+001
+7.76145181477E+006, +5.83407464741E+001, +5.81061720778E+001
+7.98035043805E+006, +5.83613274306E+001, +5.97502578379E+001
+8.19924906133E+006, +5.83489956440E+001, +6.13978651949E+001
+8.41814768461E+006, +5.84642781682E+001, +6.30375204296E+001
+8.63704630788E+006, +5.83877012786E+001, +6.46380043069E+001
+8.85594493116E+006, +5.83991864363E+001, +6.63139621492E+001
+9.07484355444E+006, +5.84301721149E+001, +6.80240163032E+001
+9.29374217772E+006, +5.84944012818E+001, +6.97089889730E+001
+9.51264080100E+006, +5.85355396515E+001, +7.12238005051E+001
+9.73153942428E+006, +5.85322216276E+001, +7.30524961649E+001
+9.95043804756E+006, +5.84358792484E+001, +7.44556178972E+001
+1.01693366708E+007, +5.86231885862E+001, +7.61856892106E+001
+1.03882352941E+007, +5.86536947370E+001, +7.78121469543E+001
+1.06071339174E+007, +5.86519530056E+001, +7.95255570368E+001
+1.08260325407E+007, +5.86362879228E+001, +8.12033958438E+001
+1.10449311640E+007, +5.87366053003E+001, +8.27577563240E+001
+1.12638297872E+007, +5.86808079932E+001, +8.45541505577E+001
+1.14827284105E+007, +5.88166824863E+001, +8.60798245798E+001
+1.17016270338E+007, +5.88482848145E+001, +8.78296826157E+001
+1.19205256571E+007, +5.88684198027E+001, +8.93419819064E+001
+1.21394242804E+007, +5.89492462333E+001, +9.10743314009E+001
+1.23583229036E+007, +5.90688544411E+001, +9.28393194876E+001
+1.25772215269E+007, +5.88823837362E+001, +9.43086458202E+001
+1.27961201502E+007, +5.90203356350E+001, +9.59635880092E+001
+1.30150187735E+007, +5.90563395249E+001, +9.77236890522E+001
+1.32339173967E+007, +5.91175443804E+001, +9.94626614452E+001
+1.34528160200E+007, +5.90211326484E+001, +1.01028807974E+002
+1.36717146433E+007, +5.91347187385E+001, +1.02583036350E+002
+1.38906132666E+007, +5.92194581384E+001, +1.04421475066E+002
+1.41095118899E+007, +5.93240487610E+001, +1.06099503658E+002
+1.43284105131E+007, +5.91643401880E+001, +1.07750659220E+002
+1.45473091364E+007, +5.93557917406E+001, +1.09522923131E+002
+1.47662077597E+007, +5.93965976511E+001, +1.10991028368E+002
+1.49851063830E+007, +5.95679523239E+001, +1.12674944881E+002
+1.52040050063E+007, +5.93976355107E+001, +1.14540437942E+002
+1.54229036295E+007, +5.95603026999E+001, +1.16094207342E+002
+1.56418022528E+007, +5.94284757382E+001, +1.17792234408E+002
+1.58607008761E+007, +5.95326393228E+001, +1.19467821745E+002
+1.60795994994E+007, +5.95414487542E+001, +1.21213774600E+002
+1.62984981227E+007, +5.97393964275E+001, +1.22741684719E+002
+1.65173967459E+007, +5.97392399045E+001, +1.24492542301E+002
+1.67362953692E+007, +5.96973780067E+001, +1.26275864840E+002
+1.69551939925E+007, +5.97811202404E+001, +1.27831342634E+002
+1.71740926158E+007, +5.95906817738E+001, +1.29663408528E+002
+1.73929912390E+007, +5.98512223686E+001, +1.31367871201E+002
+1.76118898623E+007, +5.98529000461E+001, +1.32817758373E+002
+1.78307884856E+007, +6.00710307362E+001, +1.34564323113E+002
+1.80496871089E+007, +6.00782454744E+001, +1.36315129400E+002
+1.82685857322E+007, +6.01270961343E+001, +1.37978814474E+002
+1.84874843554E+007, +6.02644246322E+001, +1.39814894320E+002
+1.87063829787E+007, +6.02374303360E+001, +1.41423783656E+002
+1.89252816020E+007, +6.03211533471E+001, +1.43127787185E+002
+1.91441802253E+007, +6.03713225952E+001, +1.44638068972E+002
+1.93630788486E+007, +6.02815829134E+001, +1.46548896366E+002
+1.95819774718E+007, +6.05187155557E+001, +1.48227935115E+002
+1.98008760951E+007, +6.05741688615E+001, +1.49976678933E+002
+2.00197747184E+007, +6.05206701908E+001, +1.51666905840E+002
+2.02386733417E+007, +6.04601253152E+001, +1.53338436002E+002
+2.04575719650E+007, +6.08389448056E+001, +1.54978908176E+002
+2.06764705882E+007, +6.07177640478E+001, +1.56779275389E+002
+2.08953692115E+007, +6.07074034570E+001, +1.58658913300E+002
+2.11142678348E+007, +6.10651918262E+001, +1.60106688066E+002
+2.13331664581E+007, +6.10550990672E+001, +1.62005771981E+002
+2.15520650814E+007, +6.11204720818E+001, +1.63382595896E+002
+2.17709637046E+007, +6.10823705257E+001, +1.65390752745E+002
+2.19898623279E+007, +6.12189507787E+001, +1.67006106049E+002
+2.22087609512E+007, +6.10360323340E+001, +1.68640809822E+002
+2.24276595745E+007, +6.13575923468E+001, +1.70614143996E+002
+2.26465581977E+007, +6.13144714979E+001, +1.72054936639E+002
+2.28654568210E+007, +6.16523628752E+001, +1.73835166247E+002
+2.30843554443E+007, +6.14607353621E+001, +1.75598863065E+002
+2.33032540676E+007, +6.18601874660E+001, +1.77157586646E+002
+2.35221526909E+007, +6.16718982128E+001, +1.79198091533E+002
+2.37410513141E+007, +6.18307041735E+001, +1.80729956589E+002
+2.39599499374E+007, +6.15063847965E+001, +1.82615756319E+002
+2.41788485607E+007, +6.19135521712E+001, +1.84303623891E+002
+2.43977471840E+007, +6.20027856672E+001, +1.85961448751E+002
+2.46166458073E+007, +6.19500311055E+001, +1.88064077679E+002
+2.48355444305E+007, +6.23233401433E+001, +1.89532828792E+002
+2.50544430538E+007, +6.23792611338E+001, +1.91117224690E+002
+2.52733416771E+007, +6.23546020167E+001, +1.92985180497E+002
+2.54922403004E+007, +6.23253816302E+001, +1.94823490977E+002
+2.57111389237E+007, +6.25545635636E+001, +1.96602588830E+002
+2.59300375469E+007, +6.25775460313E+001, +1.98225572383E+002
+2.61489361702E+007, +6.28352621568E+001, +1.99937713239E+002
+2.63678347935E+007, +6.25831899684E+001, +2.01751125899E+002
+2.65867334168E+007, +6.29812054375E+001, +2.03647065291E+002
+2.68056320401E+007, +6.31038967721E+001, +2.05367453329E+002
+2.70245306633E+007, +6.31043531214E+001, +2.07196944517E+002
+2.72434292866E+007, +6.31554080959E+001, +2.08770535742E+002
+2.74623279099E+007, +6.31257466295E+001, +2.10653426825E+002
+2.76812265332E+007, +6.30881805110E+001, +2.12567880919E+002
+2.79001251564E+007, +6.31500629601E+001, +2.14248416109E+002
+2.81190237797E+007, +6.36497453909E+001, +2.16018893650E+002
+2.83379224030E+007, +6.37201563368E+001, +2.17626319786E+002
+2.85568210263E+007, +6.32654179250E+001, +2.19496472076E+002
+2.87757196496E+007, +6.33457199825E+001, +2.21471378122E+002
+2.89946182728E+007, +6.36418462161E+001, +2.23322734055E+002
+2.92135168961E+007, +6.35932482218E+001, +2.25406239853E+002
+2.94324155194E+007, +6.42746292061E+001, +2.26937544718E+002
+2.96513141427E+007, +6.39137709357E+001, +2.28533857008E+002
+2.98702127660E+007, +6.39621347880E+001, +2.30565538036E+002
+3.00891113892E+007, +6.39392469999E+001, +2.32369545551E+002
+3.03080100125E+007, +6.43104308265E+001, +2.33919063274E+002
+3.05269086358E+007, +6.45270100019E+001, +2.35975895700E+002
+3.07458072591E+007, +6.46642269629E+001, +2.37416945519E+002
+3.09647058824E+007, +6.44755354612E+001, +2.39315949829E+002
+3.11836045056E+007, +6.46987637549E+001, +2.41362615364E+002
+3.14025031289E+007, +6.44921922222E+001, +2.42835000401E+002
+3.16214017522E+007, +6.48395759307E+001, +2.44949085027E+002
+3.18403003755E+007, +6.47522592939E+001, +2.47090695092E+002
+3.20591989987E+007, +6.48909162858E+001, +2.48484137615E+002
+3.22780976220E+007, +6.48752264778E+001, +2.50482600136E+002
+3.24969962453E+007, +6.52396854946E+001, +2.52622707614E+002
+3.27158948686E+007, +6.52811912644E+001, +2.54254770604E+002
+3.29347934919E+007, +6.52972953623E+001, +2.55934132839E+002
+3.31536921151E+007, +6.51563979506E+001, +2.57519865811E+002
+3.33725907384E+007, +6.54212267420E+001, +2.60170835072E+002
+3.35914893617E+007, +6.59221850974E+001, +2.61363116797E+002
+3.38103879850E+007, +6.54139833183E+001, +2.63368225348E+002
+3.40292866083E+007, +6.55813946772E+001, +2.65186379040E+002
+3.42481852315E+007, +6.62001162839E+001, +2.67245430998E+002
+3.44670838548E+007, +6.62249719634E+001, +2.69116836512E+002
+3.46859824781E+007, +6.63327085255E+001, +2.71226989865E+002
+3.49048811014E+007, +6.69948818080E+001, +2.72805508167E+002
+3.51237797247E+007, +6.60803430554E+001, +2.74747379261E+002
+3.53426783479E+007, +6.65264467017E+001, +2.76835856235E+002
+3.55615769712E+007, +6.71353651732E+001, +2.78648692802E+002
+3.57804755945E+007, +6.69955501834E+001, +2.80157914268E+002
+3.59993742178E+007, +6.68521414422E+001, +2.82529301820E+002
+3.62182728411E+007, +6.69752492202E+001, +2.84042991988E+002
+3.64371714643E+007, +6.74924776868E+001, +2.85560430220E+002
+3.66560700876E+007, +6.73095536805E+001, +2.87833131185E+002
+3.68749687109E+007, +6.74043966810E+001, +2.90531041991E+002
+3.70938673342E+007, +6.74654876522E+001, +2.91962278817E+002
+3.73127659574E+007, +6.76941810923E+001, +2.93954311832E+002
+3.75316645807E+007, +6.76777217984E+001, +2.95494781478E+002
+3.77505632040E+007, +6.74593837788E+001, +2.97696150663E+002
+3.79694618273E+007, +6.83476361486E+001, +2.99388948400E+002
+3.81883604506E+007, +6.77351229570E+001, +3.01450145943E+002
+3.84072590738E+007, +6.80133062867E+001, +3.03570471241E+002
+3.86261576971E+007, +6.80723889062E+001, +3.05500080207E+002
+3.88450563204E+007, +6.80671521504E+001, +3.07525677555E+002
+3.90639549437E+007, +6.90647313012E+001, +3.09133618257E+002
+3.92828535670E+007, +6.85972558538E+001, +3.11672191207E+002
+3.95017521902E+007, +6.88381494478E+001, +3.12917236198E+002
+3.97206508135E+007, +6.91276038314E+001, +3.15232358032E+002
+3.99395494368E+007, +6.92747155332E+001, +3.17285642092E+002
+4.01584480601E+007, +6.95983997772E+001, +3.19453214173E+002
+4.03773466834E+007, +6.97192688285E+001, +3.21548273226E+002
+4.05962453066E+007, +6.90657905204E+001, +3.23171431153E+002
+4.08151439299E+007, +7.00321526861E+001, +3.24521827746E+002
+4.10340425532E+007, +6.94629797949E+001, +3.26761773752E+002
+4.12529411765E+007, +6.96247075169E+001, +3.28657773796E+002
+4.14718397997E+007, +6.97747534999E+001, +3.31605210655E+002
+4.16907384230E+007, +6.98533410110E+001, +3.33101581756E+002
+4.19096370463E+007, +7.01796667327E+001, +3.35149482550E+002
+4.21285356696E+007, +7.05307510536E+001, +3.37502438624E+002
+4.23474342929E+007, +7.05177792967E+001, +3.40033154472E+002
+4.25663329161E+007, +7.12067951522E+001, +3.40932451370E+002
+4.27852315394E+007, +7.09215616791E+001, +3.43462045507E+002
+4.30041301627E+007, +7.14637941621E+001, +3.45830491655E+002
+4.32230287860E+007, +7.17138237667E+001, +3.46981938298E+002
+4.34419274093E+007, +7.15599437279E+001, +3.49535661973E+002
+4.36608260325E+007, +7.14399909857E+001, +3.51864135924E+002
+4.38797246558E+007, +7.16143246426E+001, +3.53817793126E+002
+4.40986232791E+007, +7.16760522067E+001, +3.55668429706E+002
+4.43175219024E+007, +7.13835595008E+001, +3.57958871986E+002
+4.45364205257E+007, +7.25019379993E+001, +3.60707824366E+002
+4.47553191489E+007, +7.24964714039E+001, +3.62420090997E+002
+4.49742177722E+007, +7.23617328048E+001, +3.64645335782E+002
+4.51931163955E+007, +7.27387962657E+001, +3.66207009453E+002
+4.54120150188E+007, +7.25043879552E+001, +3.67984388213E+002
+4.56309136421E+007, +7.32169233511E+001, +3.70426206168E+002
+4.58498122653E+007, +7.27139800071E+001, +3.71586282928E+002
+4.60687108886E+007, +7.26295433763E+001, +3.75065199648E+002
+4.62876095119E+007, +7.33664224475E+001, +3.76971675027E+002
+4.65065081352E+007, +7.38092677628E+001, +3.78090406430E+002
+4.67254067584E+007, +7.38779865506E+001, +3.80541688104E+002
+4.69443053817E+007, +7.37151775337E+001, +3.82190742458E+002
+4.71632040050E+007, +7.36967721413E+001, +3.85476399365E+002
+4.73821026283E+007, +7.41452708861E+001, +3.86974143316E+002
+4.76010012516E+007, +7.45998985447E+001, +3.89655965295E+002
+4.78198998748E+007, +7.41270249762E+001, +3.91662891143E+002
+4.80387984981E+007, +7.40381873619E+001, +3.94090663722E+002
+4.82576971214E+007, +7.54112629634E+001, +3.96920500035E+002
+4.84765957447E+007, +7.58186255245E+001, +3.97995515674E+002
+4.86954943680E+007, +7.49977886354E+001, +4.00359168429E+002
+4.89143929912E+007, +7.57764326124E+001, +4.02934052273E+002
+4.91332916145E+007, +7.54179682298E+001, +4.05335391754E+002
+4.93521902378E+007, +7.55991303472E+001, +4.07268071785E+002
+4.95710888611E+007, +7.64706222702E+001, +4.09217802215E+002
+4.97899874844E+007, +7.61878014793E+001, +4.10961925248E+002
+5.00088861076E+007, +7.64225184242E+001, +4.14155713482E+002
+5.02277847309E+007, +7.69667737264E+001, +4.15813662662E+002
+5.04466833542E+007, +7.81338213656E+001, +4.18429287812E+002
+5.06655819775E+007, +7.66134324798E+001, +4.20915086273E+002
+5.08844806008E+007, +7.79398291019E+001, +4.23501057215E+002
+5.11033792240E+007, +7.73184112749E+001, +4.25847582959E+002
+5.13222778473E+007, +7.72290228424E+001, +4.26919361975E+002
+5.15411764706E+007, +7.87999325073E+001, +4.29618591428E+002
+5.17600750939E+007, +7.81474745965E+001, +4.32494102792E+002
+5.19789737171E+007, +7.77992723188E+001, +4.33774954016E+002
+5.21978723404E+007, +7.98543990474E+001, +4.36351940171E+002
+5.24167709637E+007, +7.75262793637E+001, +4.38133727112E+002
+5.26356695870E+007, +7.93420655791E+001, +4.41540230488E+002
+5.28545682103E+007, +8.05745276164E+001, +4.44577098779E+002
+5.30734668335E+007, +8.01509176236E+001, +4.46798490289E+002
+5.32923654568E+007, +7.93876885318E+001, +4.49284786064E+002
+5.35112640801E+007, +8.09057436645E+001, +4.49984924743E+002
+5.37301627034E+007, +8.03315496466E+001, +4.54124318408E+002
+5.39490613267E+007, +8.04741306500E+001, +4.55186974441E+002
+5.41679599499E+007, +8.01387998662E+001, +4.57611874709E+002
+5.43868585732E+007, +8.08684962411E+001, +4.59178593540E+002
+5.46057571965E+007, +8.10344032233E+001, +4.63684796002E+002
+5.48246558198E+007, +8.14411789913E+001, +4.64840045878E+002
+5.50435544431E+007, +8.19158163895E+001, +4.68781934600E+002
+5.52624530663E+007, +8.11482569358E+001, +4.71015594109E+002
+5.54813516896E+007, +8.26512375387E+001, +4.72381010048E+002
+5.57002503129E+007, +8.38183575059E+001, +4.75410989510E+002
+5.59191489362E+007, +8.30520956443E+001, +4.78310030940E+002
+5.61380475594E+007, +8.29516104408E+001, +4.79993818354E+002
+5.63569461827E+007, +8.38783819814E+001, +4.83095599438E+002
+5.65758448060E+007, +8.42811673327E+001, +4.84942192188E+002
+5.67947434293E+007, +8.51525476199E+001, +4.86492154903E+002
+5.70136420526E+007, +8.50809505886E+001, +4.89453182405E+002
+5.72325406758E+007, +8.52240136096E+001, +4.92052381147E+002
+5.74514392991E+007, +8.42387032913E+001, +4.94242975319E+002
+5.76703379224E+007, +8.48215323183E+001, +4.97343407362E+002
+5.78892365457E+007, +8.49214414080E+001, +5.00166066400E+002
+5.81081351690E+007, +8.69067047307E+001, +5.02233451332E+002
+5.83270337922E+007, +8.59863514140E+001, +5.05670068249E+002
+5.85459324155E+007, +8.72607322948E+001, +5.08525464213E+002
+5.87648310388E+007, +8.57576748512E+001, +5.10229482239E+002
+5.89837296621E+007, +8.70154854360E+001, +5.12387971688E+002
+5.92026282854E+007, +8.91123989481E+001, +5.16027038228E+002
+5.94215269086E+007, +8.82363172951E+001, +5.17556346963E+002
+5.96404255319E+007, +8.67679972595E+001, +5.21631247526E+002
+5.98593241552E+007, +8.89098475566E+001, +5.23234269580E+002
+6.00782227785E+007, +8.93328987206E+001, +5.26565683837E+002
+6.02971214018E+007, +8.95237773503E+001, +5.28452119706E+002
+6.05160200250E+007, +8.94020304795E+001, +5.31189069532E+002
+6.07349186483E+007, +9.06717298493E+001, +5.33639763775E+002
+6.09538172716E+007, +8.99104021262E+001, +5.37864860346E+002
+6.11727158949E+007, +9.16180063781E+001, +5.40456784868E+002
+6.13916145181E+007, +8.98875551164E+001, +5.42353798111E+002
+6.16105131414E+007, +9.13550081311E+001, +5.43940421111E+002
+6.18294117647E+007, +9.12779861522E+001, +5.48976706618E+002
+6.20483103880E+007, +9.01256683809E+001, +5.50359443394E+002
+6.22672090113E+007, +9.16803176635E+001, +5.53828180057E+002
+6.24861076345E+007, +9.40187008874E+001, +5.55584690964E+002
+6.27050062578E+007, +9.44610769637E+001, +5.59139012740E+002
+6.29239048811E+007, +9.24359226208E+001, +5.60947121924E+002
+6.31428035044E+007, +9.26612809691E+001, +5.64507982082E+002
+6.33617021277E+007, +9.44687986298E+001, +5.66050640603E+002
+6.35806007509E+007, +9.48540623148E+001, +5.70822138364E+002
+6.37994993742E+007, +9.39516230996E+001, +5.74359042388E+002
+6.40183979975E+007, +9.54034027116E+001, +5.75809979924E+002
+6.42372966208E+007, +9.53505526284E+001, +5.80542250472E+002
+6.44561952441E+007, +9.58683603885E+001, +5.81511258830E+002
+6.46750938673E+007, +9.57217692435E+001, +5.85989861771E+002
+6.48939924906E+007, +9.79809825504E+001, +5.88764317200E+002
+6.51128911139E+007, +9.78680329866E+001, +5.91839764897E+002
+6.53317897372E+007, +9.81433517657E+001, +5.94049520421E+002
+6.55506883605E+007, +9.87649806712E+001, +5.97498240536E+002
+6.57695869837E+007, +9.86958843291E+001, +6.00020837014E+002
+6.59884856070E+007, +1.00374725887E+002, +6.02856787333E+002
+6.62073842303E+007, +9.94652967063E+001, +6.07660623437E+002
+6.64262828536E+007, +9.98611546714E+001, +6.08295387616E+002
+6.66451814768E+007, +1.00607567985E+002, +6.11715294218E+002
+6.68640801001E+007, +1.00404329778E+002, +6.13451726600E+002
+6.70829787234E+007, +1.02613440828E+002, +6.18679974347E+002
+6.73018773467E+007, +1.03246751065E+002, +6.19746673257E+002
+6.75207759700E+007, +1.03927652758E+002, +6.24516805525E+002
+6.77396745932E+007, +1.02931701996E+002, +6.26660434651E+002
+6.79585732165E+007, +1.05827488392E+002, +6.31408031447E+002
+6.81774718398E+007, +1.03570654552E+002, +6.34437683706E+002
+6.83963704631E+007, +1.04644183440E+002, +6.35884553434E+002
+6.86152690864E+007, +1.06779443754E+002, +6.40434653040E+002
+6.88341677096E+007, +1.07553040422E+002, +6.41849173999E+002
+6.90530663329E+007, +1.07278374766E+002, +6.46531188966E+002
+6.92719649562E+007, +1.07805899551E+002, +6.47073644547E+002
+6.94908635795E+007, +1.07828812779E+002, +6.52690796121E+002
+6.97097622028E+007, +1.08653926837E+002, +6.54252611580E+002
+6.99286608260E+007, +1.10767864529E+002, +6.58439428369E+002
+7.01475594493E+007, +1.09252119258E+002, +6.62449875146E+002
