"# Channel 1"
"# Trace 1"
Frequency, Formatted Data, Formatted Data
+1.00000000000E+005, +5.16701513368E+001, +1.42154801781E+000
+3.14449213162E+005, +5.18085846896E+001, +2.55462533299E+000
+5.28898426323E+005, +5.18335751982E+001, +4.14588091004E+000
+7.43347639485E+005, +5.18639370407E+001, +5.80146680981E+000
+9.57796852647E+005, +5.18938382464E+001, +7.52822464407E+000
+1.17224606581E+006, +5.17142951313E+001, +9.10718753288E+000
+1.38669527897E+006, +5.19187186900E+001, +1.07072308609E+001
+1.60114449213E+006, +5.18291145917E+001, +1.26282995066E+001
+1.81559370529E+006, +5.17374040344E+001, +1.42210734537E+001
+2.03004291845E+006, +5.17499307625E+001, +1.59698367664E+001
+2.24449213162E+006, +5.20017672108E+001, +1.75187517720E+001
+2.45894134478E+006, +5.19740885010E+001, +1.92395737309E+001
+2.67339055794E+006, +5.19884948326E+001, +2.07929917997E+001
+2.88783977110E+006, +5.20716518596E+001, +2.24607328072E+001
+3.10228898426E+006, +5.20737328350E+001, +2.40440455007E+001
+3.31673819742E+006, +5.20141769949E+001, +2.57218440304E+001
+3.53118741059E+006, +5.20189678450E+001, +2.75806325781E+001
+3.74563662375E+006, +5.20857010945E+001, +2.92083390927E+001
+3.96008583691E+006, +5.22519354593E+001, +3.07368856220E+001
+4.17453505007E+006, +5.21927244298E+001, +3.24629487433E+001
+4.38898426323E+006, +5.23259313992E+001, +3.41831603507E+001
+4.60343347639E+006, +5.22791510487E+001, +3.59487428093E+001
+4.81788268956E+006, +5.22545771882E+001, +3.74589317041E+001
+5.03233190272E+006, +5.22321048818E+001, +3.90919271505E+001
+5.24678111588E+006, +5.22507802974E+001, +4.06334876999E+001
+5.46123032904E+006, +5.24046340772E+001, +4.25208588628E+001
+5.67567954220E+006, +5.23713659702E+001, +4.40856612250E+001
+5.89012875536E+006, +5.26877487743E+001, +4.56503525914E+001
+6.10457796853E+006, +5.25909449033E+001, +4.73930062242E+001
+6.31902718169E+006, +5.25787560206E+001, +4.90833065658E+001
+6.53347639485E+006, +5.26076335316E+001, +5.05904321677E+001
+6.74792560801E+006, +5.26072664941E+001, +5.23774330157E+001
+6.96237482117E+006, +5.26422724158E+001, +5.40408118556E+001
+7.17682403433E+006, +5.27186414510E+001, +5.56586820790E+001
+7.39127324750E+006, +5.27268102993E+001, +5.73583997450E+001
+7.60572246066E+006, +5.28278112403E+001, +5.89269176653E+001
+7.82017167382E+006, +5.29270062213E+001, +6.05625483890E+001
+8.03462088698E+006, +5.28238373336E+001, +6.22797979922E+001
+8.24907010014E+006, +5.30031044234E+001, +6.38801002901E+001
+8.46351931330E+006, +5.29613908299E+001, +6.55429529914E+001
+8.67796852647E+006, +5.30511517817E+001, +6.71668490328E+001
+8.89241773963E+006, +5.30524444958E+001, +6.89450280687E+001
+9.10686695279E+006, +5.31238842652E+001, +7.05890267457E+001
+9.32131616595E+006, +5.32179099520E+001, +7.21757520874E+001
+9.53576537911E+006, +5.31466015872E+001, +7.39336575980E+001
+9.75021459227E+006, +5.31783350945E+001, +7.55783852353E+001
+9.96466380544E+006, +5.31894881069E+001, +7.71980266790E+001
+1.01791130186E+007, +5.33383551882E+001, +7.89326108419E+001
+1.03935622318E+007, +5.33335080725E+001, +8.06256765076E+001
+1.06080114449E+007, +5.33400949108E+001, +8.21888022408E+001
+1.08224606581E+007, +5.34894691104E+001, +8.39069109337E+001
+1.10369098712E+007, +5.34983125468E+001, +8.56274791170E+001
+1.12513590844E+007, +5.35254196613E+001, +8.72422477357E+001
+1.14658082976E+007, +5.35848460145E+001, +8.89210849953E+001
+1.16802575107E+007, +5.36022983315E+001, +9.05248758692E+001
+1.18947067239E+007, +5.37873346620E+001, +9.22354970551E+001
+1.21091559371E+007, +5.37338027804E+001, +9.37720822029E+001
+1.23236051502E+007, +5.37574245911E+001, +9.55555742137E+001
+1.25380543634E+007, +5.38564133347E+001, +9.72295712994E+001
+1.27525035765E+007, +5.39443098909E+001, +9.89595781572E+001
+1.29669527897E+007, +5.39008368864E+001, +1.00546515027E+002
+1.31814020029E+007, +5.38723236726E+001, +1.02166107844E+002
+1.33958512160E+007, +5.39951508261E+001, +1.03938377268E+002
+1.36103004292E+007, +5.40409185465E+001, +1.05575635141E+002
+1.38247496423E+007, +5.41167434545E+001, +1.07270411226E+002
+1.40391988555E+007, +5.39875973871E+001, +1.08884423870E+002
+1.42536480687E+007, +5.41015907513E+001, +1.10471417515E+002
+1.44680972818E+007, +5.42714336686E+001, +1.12323089320E+002
+1.46825464950E+007, +5.41755919438E+001, +1.13966919600E+002
+1.48969957082E+007, +5.42604652977E+001, +1.15365483598E+002
+1.51114449213E+007, +5.43702054047E+001, +1.17306971217E+002
+1.53258941345E+007, +5.45362940840E+001, +1.18964030097E+002
+1.55403433476E+007, +5.43380148981E+001, +1.20624094061E+002
+1.57547925608E+007, +5.46008219726E+001, +1.22347230660E+002
+1.59692417740E+007, +5.46028769876E+001, +1.24183597875E+002
+1.61836909871E+007, +5.47042492645E+001, +1.25811159111E+002
+1.63981402003E+007, +5.48425049892E+001, +1.27535227204E+002
+1.66125894134E+007, +5.46687433145E+001, +1.28990136353E+002
+1.68270386266E+007, +5.48834596480E+001, +1.30791489518E+002
+1.70414878398E+007, +5.45221869937E+001, +1.32680808086E+002
+1.72559370529E+007, +5.48751425925E+001, +1.34356164679E+002
+1.74703862661E+007, +5.49148118027E+001, +1.35900641554E+002
+1.76848354793E+007, +5.50114586224E+001, +1.37652767134E+002
+1.78992846924E+007, +5.49668187760E+001, +1.39339909057E+002
+1.81137339056E+007, +5.52493413325E+001, +1.40953819324E+002
+1.83281831187E+007, +5.53460567230E+001, +1.42816722661E+002
+1.85426323319E+007, +5.51770946301E+001, +1.44369337887E+002
+1.87570815451E+007, +5.54870202017E+001, +1.46191763463E+002
+1.89715307582E+007, +5.54156717012E+001, +1.47730339386E+002
+1.91859799714E+007, +5.54245716570E+001, +1.49641945386E+002
+1.94004291845E+007, +5.53665912722E+001, +1.51111633499E+002
+1.96148783977E+007, +5.54871163783E+001, +1.52883639090E+002
+1.98293276109E+007, +5.57171068684E+001, +1.54703116857E+002
+2.00437768240E+007, +5.55191557052E+001, +1.56412064059E+002
+2.02582260372E+007, +5.57957566684E+001, +1.57979163570E+002
+2.04726752504E+007, +5.56696636548E+001, +1.59813979970E+002
+2.06871244635E+007, +5.59231667802E+001, +1.61487041410E+002
+2.09015736767E+007, +5.57555242709E+001, +1.63074829717E+002
+2.11160228898E+007, +5.59466627501E+001, +1.64930130028E+002
+2.13304721030E+007, +5.59648535620E+001, +1.66761085131E+002
+2.15449213162E+007, +5.61602364576E+001, +1.68376722268E+002
+2.17593705293E+007, +5.60627248997E+001, +1.70343394198E+002
+2.19738197425E+007, +5.63434548835E+001, +1.71975034455E+002
+2.21882689557E+007, +5.62273540575E+001, +1.73477192721E+002
+2.24027181688E+007, +5.66672265191E+001, +1.75438626666E+002
+2.26171673820E+007, +5.64792001752E+001, +1.77115493062E+002
+2.28316165951E+007, +5.66433687245E+001, +1.78838992425E+002
+2.30460658083E+007, +5.66005837551E+001, +1.80440873217E+002
+2.32605150215E+007, +5.68558372485E+001, +1.82475255751E+002
+2.34749642346E+007, +5.68418585634E+001, +1.84190310112E+002
+2.36894134478E+007, +5.67227435467E+001, +1.85785366772E+002
+2.39038626609E+007, +5.69135296365E+001, +1.87499608140E+002
+2.41183118741E+007, +5.70004479454E+001, +1.89326372377E+002
+2.43327610873E+007, +5.66934360667E+001, +1.90870368008E+002
+2.45472103004E+007, +5.73277957107E+001, +1.92629009152E+002
+2.47616595136E+007, +5.73049807395E+001, +1.94505597858E+002
+2.49761087268E+007, +5.73773830540E+001, +1.96264662765E+002
+2.51905579399E+007, +5.75143812137E+001, +1.97960796928E+002
+2.54050071531E+007, +5.75030471042E+001, +1.99548648076E+002
+2.56194563662E+007, +5.75475462803E+001, +2.01797216780E+002
+2.58339055794E+007, +5.77800903098E+001, +2.03483332782E+002
+2.60483547926E+007, +5.76736447904E+001, +2.05351544761E+002
+2.62628040057E+007, +5.81277288184E+001, +2.06969954056E+002
+2.64772532189E+007, +5.79665259422E+001, +2.08915945108E+002
+2.66917024320E+007, +5.82400963051E+001, +2.10487505770E+002
+2.69061516452E+007, +5.82531944058E+001, +2.12303688014E+002
+2.71206008584E+007, +5.81404213980E+001, +2.13858033352E+002
+2.73350500715E+007, +5.84657780603E+001, +2.15849963793E+002
+2.75494992847E+007, +5.80760017038E+001, +2.17873804611E+002
+2.77639484979E+007, +5.86009166957E+001, +2.19374381690E+002
+2.79783977110E+007, +5.86473772800E+001, +2.21447632439E+002
+2.81928469242E+007, +5.83748069227E+001, +2.22937108674E+002
+2.84072961373E+007, +5.85511351646E+001, +2.24836291778E+002
+2.86217453505E+007, +5.88499579989E+001, +2.26431029436E+002
+2.88361945637E+007, +5.91325391787E+001, +2.28262779365E+002
+2.90506437768E+007, +5.88602887955E+001, +2.30398660455E+002
+2.92650929900E+007, +5.92858593347E+001, +2.32144571199E+002
+2.94795422031E+007, +5.89098427977E+001, +2.33526568860E+002
+2.96939914163E+007, +5.94235382246E+001, +2.35605317627E+002
+2.99084406295E+007, +5.93978691137E+001, +2.37481766813E+002
+3.01228898426E+007, +5.93202939524E+001, +2.39295489896E+002
+3.03373390558E+007, +5.94115408262E+001, +2.41278279973E+002
+3.05517882690E+007, +5.90190166814E+001, +2.43034188212E+002
+3.07662374821E+007, +5.93548388109E+001, +2.44854338155E+002
+3.09806866953E+007, +5.96770698378E+001, +2.47110923271E+002
+3.11951359084E+007, +5.96335912747E+001, +2.48483256849E+002
+3.14095851216E+007, +5.98322461092E+001, +2.50470929381E+002
+3.16240343348E+007, +5.99057365299E+001, +2.52747940529E+002
+3.18384835479E+007, +6.00468887245E+001, +2.54594472687E+002
+3.20529327611E+007, +6.04798596053E+001, +2.55992540660E+002
+3.22673819742E+007, +6.00073438759E+001, +2.58089955337E+002
+3.24818311874E+007, +6.04945732527E+001, +2.59679254714E+002
+3.26962804006E+007, +6.07758105871E+001, +2.61692914348E+002
+3.29107296137E+007, +6.05462842669E+001, +2.63746881797E+002
+3.31251788269E+007, +6.03596521236E+001, +2.65599409213E+002
+3.33396280401E+007, +6.09595129623E+001, +2.67311366363E+002
+3.35540772532E+007, +6.09850340680E+001, +2.69099511038E+002
+3.37685264664E+007, +6.11324892361E+001, +2.70871097319E+002
+3.39829756795E+007, +6.05863109524E+001, +2.72877081076E+002
+3.41974248927E+007, +6.12186770632E+001, +2.74774044549E+002
+3.44118741059E+007, +6.11954636492E+001, +2.76481314799E+002
+3.46263233190E+007, +6.14378242290E+001, +2.78705713105E+002
+3.48407725322E+007, +6.10220638476E+001, +2.80404464237E+002
+3.50552217454E+007, +6.11420519144E+001, +2.82562107877E+002
+3.52696709585E+007, +6.11432032558E+001, +2.84147908682E+002
+3.54841201717E+007, +6.16834643170E+001, +2.85892954415E+002
+3.56985693848E+007, +6.21163684126E+001, +2.88366953100E+002
+3.59130185980E+007, +6.17631485729E+001, +2.90258833478E+002
+3.61274678112E+007, +6.22164912640E+001, +2.91853257688E+002
+3.63419170243E+007, +6.20515123411E+001, +2.93806456025E+002
+3.65563662375E+007, +6.21600501627E+001, +2.95881391406E+002
+3.67708154506E+007, +6.19309503890E+001, +2.97200488465E+002
+3.69852646638E+007, +6.28598020018E+001, +2.99239616970E+002
+3.71997138770E+007, +6.23094592713E+001, +3.02207393753E+002
+3.74141630901E+007, +6.24569561026E+001, +3.03489943848E+002
+3.76286123033E+007, +6.26448303163E+001, +3.05730405436E+002
+3.78430615165E+007, +6.28589081351E+001, +3.07830494379E+002
+3.80575107296E+007, +6.31300136990E+001, +3.09614090868E+002
+3.82719599428E+007, +6.32122654996E+001, +3.12176449137E+002
+3.84864091559E+007, +6.36516313661E+001, +3.13296777084E+002
+3.87008583691E+007, +6.26835979913E+001, +3.15419969886E+002
+3.89153075823E+007, +6.35483567483E+001, +3.17776989383E+002
+3.91297567954E+007, +6.33030021788E+001, +3.19893114220E+002
+3.93442060086E+007, +6.35105663733E+001, +3.21702007571E+002
+3.95586552217E+007, +6.40453710367E+001, +3.23088448493E+002
+3.97731044349E+007, +6.36207510301E+001, +3.25062162422E+002
+3.99875536481E+007, +6.40436411080E+001, +3.27715837342E+002
+4.02020028612E+007, +6.43938290936E+001, +3.29476654526E+002
+4.04164520744E+007, +6.41371260960E+001, +3.31256744588E+002
+4.06309012876E+007, +6.43967129948E+001, +3.32895361815E+002
+4.08453505007E+007, +6.45561687102E+001, +3.35373870161E+002
+4.10597997139E+007, +6.47852892766E+001, +3.37983503566E+002
+4.12742489270E+007, +6.39742399759E+001, +3.39680034575E+002
+4.14886981402E+007, +6.50383600033E+001, +3.42541861038E+002
+4.17031473534E+007, +6.50117827572E+001, +3.43535984735E+002
+4.19175965665E+007, +6.50986992229E+001, +3.46108501642E+002
+4.21320457797E+007, +6.53464311967E+001, +3.47847309267E+002
+4.23464949928E+007, +6.55964593166E+001, +3.49616150805E+002
+4.25609442060E+007, +6.60367662985E+001, +3.51763712070E+002
+4.27753934192E+007, +6.58998325090E+001, +3.53399434335E+002
+4.29898426323E+007, +6.60139739919E+001, +3.55596639458E+002
+4.32042918455E+007, +6.56828070265E+001, +3.57393476116E+002
+4.34187410587E+007, +6.58083858145E+001, +3.60327017729E+002
+4.36331902718E+007, +6.65012349320E+001, +3.62468692129E+002
+4.38476394850E+007, +6.61379878298E+001, +3.64524426170E+002
+4.40620886981E+007, +6.59348520009E+001, +3.67057874816E+002
+4.42765379113E+007, +6.63756899029E+001, +3.68498892461E+002
+4.44909871245E+007, +6.68461313872E+001, +3.71412239657E+002
+4.47054363376E+007, +6.68974796324E+001, +3.73044444183E+002
+4.49198855508E+007, +6.69881866239E+001, +3.74823149022E+002
+4.51343347639E+007, +6.78937886029E+001, +3.76102604055E+002
+4.53487839771E+007, +6.79157114101E+001, +3.79358127250E+002
+4.55632331903E+007, +6.73252331935E+001, +3.81606000981E+002
+4.57776824034E+007, +6.74049317968E+001, +3.83692523885E+002
+4.59921316166E+007, +6.79936194819E+001, +3.86331959365E+002
+4.62065808298E+007, +6.69278749693E+001, +3.88250764237E+002
+4.64210300429E+007, +6.85786153181E+001, +3.89637337560E+002
+4.66354792561E+007, +6.87717795685E+001, +3.92705755772E+002
+4.68499284692E+007, +6.81503993923E+001, +3.94086906162E+002
+4.70643776824E+007, +6.85489714004E+001, +3.96077493915E+002
+4.72788268956E+007, +6.94309223784E+001, +3.98587933593E+002
+4.74932761087E+007, +6.94069403309E+001, +4.00897686572E+002
+4.77077253219E+007, +6.92592327697E+001, +4.03671389767E+002
+4.79221745351E+007, +6.96709665460E+001, +4.04941355724E+002
+4.81366237482E+007, +6.99905684335E+001, +4.08180369755E+002
+4.83510729614E+007, +7.04428965652E+001, +4.09668248740E+002
+4.85655221745E+007, +6.99788164049E+001, +4.12403429110E+002
+4.87799713877E+007, +7.04978148772E+001, +4.14933972546E+002
+4.89944206009E+007, +7.04898015182E+001, +4.17481137270E+002
+4.92088698140E+007, +7.08730447705E+001, +4.19051681899E+002
+4.94233190272E+007, +7.14333883641E+001, +4.22057783581E+002
+4.96377682403E+007, +7.18826563396E+001, +4.24160583537E+002
+4.98522174535E+007, +7.16660291032E+001, +4.26901009600E+002
+5.00666666667E+007, +7.15265844428E+001, +4.28527160304E+002
+5.02811158798E+007, +7.24225844117E+001, +4.30679690156E+002
+5.04955650930E+007, +7.14805589130E+001, +4.33235219814E+002
+5.07100143062E+007, +7.29257390027E+001, +4.36185296608E+002
+5.09244635193E+007, +7.31730058442E+001, +4.37309518421E+002
+5.11389127325E+007, +7.25515071115E+001, +4.38896663330E+002
+5.13533619456E+007, +7.25889098038E+001, +4.42248670598E+002
+5.15678111588E+007, +7.17170079226E+001, +4.44890657047E+002
+5.17822603720E+007, +7.28348532758E+001, +4.47286224853E+002
+5.19967095851E+007, +7.32194226803E+001, +4.49143038098E+002
+5.22111587983E+007, +7.36173170671E+001, +4.51865885102E+002
+5.24256080114E+007, +7.35383174068E+001, +4.53650689586E+002
+5.26400572246E+007, +7.39986928377E+001, +4.56505051981E+002
+5.28545064378E+007, +7.34634898781E+001, +4.59097136237E+002
+5.30689556509E+007, +7.33912150508E+001, +4.62158808962E+002
+5.32834048641E+007, +7.46507737854E+001, +4.63995579999E+002
+5.34978540773E+007, +7.47477939265E+001, +4.65771730842E+002
+5.37123032904E+007, +7.54623283394E+001, +4.69744915818E+002
+5.39267525036E+007, +7.56443317264E+001, +4.71201499210E+002
+5.41412017167E+007, +7.54911783314E+001, +4.74624798938E+002
+5.43556509299E+007, +7.55458958594E+001, +4.75675299273E+002
+5.45701001431E+007, +7.65107179732E+001, +4.78857182938E+002
+5.47845493562E+007, +7.64406404112E+001, +4.80526012099E+002
+5.49989985694E+007, +7.72715062951E+001, +4.83028842307E+002
+5.52134477825E+007, +7.84191290907E+001, +4.84866029634E+002
+5.54278969957E+007, +7.69235328162E+001, +4.88965229511E+002
+5.56423462089E+007, +7.78911763993E+001, +4.90980525883E+002
+5.58567954220E+007, +7.82187872451E+001, +4.93766870618E+002
+5.60712446352E+007, +7.78908393002E+001, +4.96075753561E+002
+5.62856938484E+007, +7.76842467021E+001, +4.97872625709E+002
+5.65001430615E+007, +7.85643166731E+001, +5.00503116055E+002
+5.67145922747E+007, +7.96141083892E+001, +5.03830887603E+002
+5.69290414878E+007, +7.95060899670E+001, +5.06457379161E+002
+5.71434907010E+007, +7.97018506736E+001, +5.08190840886E+002
+5.73579399142E+007, +8.01809387499E+001, +5.12165036722E+002
+5.75723891273E+007, +7.97122845362E+001, +5.12929808182E+002
+5.77868383405E+007, +8.08150182902E+001, +5.17311041035E+002
+5.80012875536E+007, +7.98060471698E+001, +5.20565090915E+002
+5.82157367668E+007, +8.10981369978E+001, +5.23296093264E+002
+5.84301859800E+007, +8.00305006460E+001, +5.23821003013E+002
+5.86446351931E+007, +8.20095736521E+001, +5.28323271976E+002
+5.88590844063E+007, +8.35621876287E+001, +5.31638076121E+002
+5.90735336195E+007, +8.23281439655E+001, +5.33575441142E+002
+5.92879828326E+007, +8.18966125935E+001, +5.36029664314E+002
+5.95024320458E+007, +8.29777074325E+001, +5.38665663320E+002
+5.97168812589E+007, +8.27510599886E+001, +5.41410009388E+002
+5.99313304721E+007, +8.37075278673E+001, +5.43707082482E+002
+6.01457796853E+007, +8.33119148757E+001, +5.46853367736E+002
+6.03602288984E+007, +8.41485713094E+001, +5.49861865372E+002
+6.05746781116E+007, +8.49541048278E+001, +5.53097620973E+002
+6.07891273247E+007, +8.41898070539E+001, +5.55419578256E+002
+6.10035765379E+007, +8.47751653452E+001, +5.55918731781E+002
+6.12180257511E+007, +8.63746056959E+001, +5.61138756719E+002
+6.14324749642E+007, +8.45560629246E+001, +5.64296727347E+002
+6.16469241774E+007, +8.60201932619E+001, +5.66132116581E+002
+6.18613733906E+007, +8.57386604733E+001, +5.69413277574E+002
+6.20758226037E+007, +8.70844769120E+001, +5.72691341071E+002
+6.22902718169E+007, +8.68377577762E+001, +5.74059648560E+002
+6.25047210300E+007, +8.81044229385E+001, +5.77522485455E+002
+6.27191702432E+007, +8.64314315568E+001, +5.81115062485E+002
+6.29336194564E+007, +8.82240448248E+001, +5.83745365385E+002
+6.31480686695E+007, +8.81088660608E+001, +5.87353715464E+002
+6.33625178827E+007, +8.94063636567E+001, +5.91131738744E+002
+6.35769670959E+007, +9.03161235425E+001, +5.94878067776E+002
+6.37914163090E+007, +8.93840043492E+001, +5.96947252317E+002
+6.40058655222E+007, +8.94539858382E+001, +5.99727207867E+002
+6.42203147353E+007, +9.19162077404E+001, +6.01547150625E+002
+6.44347639485E+007, +9.14804405039E+001, +6.04972675728E+002
+6.46492131617E+007, +9.16896064005E+001, +6.09434050608E+002
+6.48636623748E+007, +9.28081816027E+001, +6.11438831463E+002
+6.50781115880E+007, +9.14145520672E+001, +6.15376486233E+002
+6.52925608011E+007, +9.29223848365E+001, +6.17602942875E+002
+6.55070100143E+007, +9.36222996592E+001, +6.22019241204E+002
+6.57214592275E+007, +9.32433800308E+001, +6.24232294594E+002
+6.59359084406E+007, +9.49284962418E+001, +6.25153959656E+002
+6.61503576538E+007, +9.72262479121E+001, +6.30293388114E+002
+6.63648068670E+007, +9.51410638678E+001, +6.33497136017E+002
+6.65792560801E+007, +9.58028975934E+001, +6.38427628116E+002
+6.67937052933E+007, +9.61155029803E+001, +6.40343074509E+002
+6.70081545064E+007, +9.86919767886E+001, +6.45434104401E+002
+6.72226037196E+007, +9.79275173163E+001, +6.46909915701E+002
+6.74370529328E+007, +9.99281538095E+001, +6.50478334432E+002
+6.76515021459E+007, +9.84497049328E+001, +6.53049524109E+002
+6.78659513591E+007, +1.00858366617E+002, +6.58731710129E+002
+6.80804005722E+007, +1.00261312301E+002, +6.59968175786E+002
+6.82948497854E+007, +1.00944346104E+002, +6.65912507293E+002
+6.85092989986E+007, +1.03372160593E+002, +6.66945605930E+002
+6.87237482117E+007, +1.02096084338E+002, +6.71333514106E+002
