"# Channel 1"
"# Trace 1"
Frequency, Formatted Data, Formatted Data
+1.00000000000E+005, +5.22509012070E+001, +1.53496535194E+000
+3.14449213162E+005, +5.23797500641E+001, +2.98179588683E+000
+5.28898426323E+005, +5.23802362319E+001, +4.90569681100E+000
+7.43347639485E+005, +5.24316302379E+001, +6.84893644353E+000
+9.57796852647E+005, +5.25022578142E+001, +8.83337031748E+000
+1.17224606581E+006, +5.22361002848E+001, +1.08044135467E+001
+1.38669527897E+006, +5.24228446879E+001, +1.26934442419E+001
+1.60114449213E+006, +5.24063180753E+001, +1.49076726139E+001
+1.81559370529E+006, +5.23676081950E+001, +1.68466855235E+001
+2.03004291845E+006, +5.23890125589E+001, +1.88711074417E+001
+2.24449213162E+006, +5.26017286544E+001, +2.07391933789E+001
+2.45894134478E+006, +5.26278878099E+001, +2.28000562736E+001
+2.67339055794E+006, +5.26455066927E+001, +2.46703743381E+001
+2.88783977110E+006, +5.26664497577E+001, +2.67109596242E+001
+3.10228898426E+006, +5.26859994919E+001, +2.85203380297E+001
+3.31673819742E+006, +5.26797283160E+001, +3.04872365645E+001
+3.53118741059E+006, +5.26492298845E+001, +3.27347996713E+001
+3.74563662375E+006, +5.27112741784E+001, +3.46040883137E+001
+3.96008583691E+006, +5.28778661283E+001, +3.64949452467E+001
+4.17453505007E+006, +5.29049958512E+001, +3.85424460090E+001
+4.38898426323E+006, +5.29131845808E+001, +4.05233135595E+001
+4.60343347639E+006, +5.28396624392E+001, +4.26546917371E+001
+4.81788268956E+006, +5.29015410055E+001, +4.44156288689E+001
+5.03233190272E+006, +5.28718450305E+001, +4.63893846542E+001
+5.24678111588E+006, +5.29143368004E+001, +4.82407980583E+001
+5.46123032904E+006, +5.31676638559E+001, +5.03241401970E+001
+5.67567954220E+006, +5.30438359925E+001, +5.23062891996E+001
+5.89012875536E+006, +5.33382195120E+001, +5.41672226088E+001
+6.10457796853E+006, +5.32546140469E+001, +5.62092068656E+001
+6.31902718169E+006, +5.32902864132E+001, +5.82441835592E+001
+6.53347639485E+006, +5.33291319850E+001, +6.00920597596E+001
+6.74792560801E+006, +5.33840149989E+001, +6.21793060095E+001
+6.96237482117E+006, +5.33570094397E+001, +6.41582074309E+001
+7.17682403433E+006, +5.34598075013E+001, +6.60396964732E+001
+7.39127324750E+006, +5.34996907529E+001, +6.80793363933E+001
+7.60572246066E+006, +5.35868677605E+001, +6.99521377264E+001
+7.82017167382E+006, +5.36188853289E+001, +7.19442970894E+001
+8.03462088698E+006, +5.35320839614E+001, +7.39345722367E+001
+8.24907010014E+006, +5.37503252962E+001, +7.58964010177E+001
+8.46351931330E+006, +5.37717469620E+001, +7.78110934767E+001
+8.67796852647E+006, +5.38120215038E+001, +7.97962691459E+001
+8.89241773963E+006, +5.38602687987E+001, +8.18276860394E+001
+9.10686695279E+006, +5.40287093089E+001, +8.38448556902E+001
+9.32131616595E+006, +5.39756215924E+001, +8.58334946034E+001
+9.53576537911E+006, +5.39289745988E+001, +8.77331638891E+001
+9.75021459227E+006, +5.39849986057E+001, +8.98006130406E+001
+9.96466380544E+006, +5.40875309922E+001, +9.16622502258E+001
+1.01791130186E+007, +5.41852667190E+001, +9.38015022974E+001
+1.03935622318E+007, +5.42052293024E+001, +9.58148844940E+001
+1.06080114449E+007, +5.41566467006E+001, +9.76675416565E+001
+1.08224606581E+007, +5.43877757601E+001, +9.96631872351E+001
+1.10369098712E+007, +5.43543388756E+001, +1.01704339094E+002
+1.12513590844E+007, +5.44213895284E+001, +1.03730568319E+002
+1.14658082976E+007, +5.44439696321E+001, +1.05688846254E+002
+1.16802575107E+007, +5.45381596620E+001, +1.07578544347E+002
+1.18947067239E+007, +5.47524217299E+001, +1.09626462536E+002
+1.21091559371E+007, +5.47050066095E+001, +1.11588164218E+002
+1.23236051502E+007, +5.47734858177E+001, +1.13636282167E+002
+1.25380543634E+007, +5.47454012892E+001, +1.15659459743E+002
+1.27525035765E+007, +5.48623251911E+001, +1.17645659476E+002
+1.29669527897E+007, +5.49598618189E+001, +1.19575863650E+002
+1.31814020029E+007, +5.48848635554E+001, +1.21602010088E+002
+1.33958512160E+007, +5.49669011873E+001, +1.23628514059E+002
+1.36103004292E+007, +5.50574482056E+001, +1.25633822245E+002
+1.38247496423E+007, +5.51585983422E+001, +1.27594312127E+002
+1.40391988555E+007, +5.51386770356E+001, +1.29606026944E+002
+1.42536480687E+007, +5.51923983725E+001, +1.31464975935E+002
+1.44680972818E+007, +5.52998124574E+001, +1.33570863574E+002
+1.46825464950E+007, +5.53253883060E+001, +1.35634825046E+002
+1.48969957082E+007, +5.54375331900E+001, +1.37401450559E+002
+1.51114449213E+007, +5.54331713439E+001, +1.39684358371E+002
+1.53258941345E+007, +5.57083969029E+001, +1.41526464301E+002
+1.55403433476E+007, +5.54645416885E+001, +1.43518269198E+002
+1.57547925608E+007, +5.56962027357E+001, +1.45668905309E+002
+1.59692417740E+007, +5.56863731342E+001, +1.47672202850E+002
+1.61836909871E+007, +5.58557533702E+001, +1.49830804718E+002
+1.63981402003E+007, +5.60668345735E+001, +1.51909096472E+002
+1.66125894134E+007, +5.58829455681E+001, +1.53635058106E+002
+1.68270386266E+007, +5.59948992558E+001, +1.55672685195E+002
+1.70414878398E+007, +5.58076658309E+001, +1.57994103137E+002
+1.72559370529E+007, +5.60658504237E+001, +1.59985847333E+002
+1.74703862661E+007, +5.61763147263E+001, +1.61953819352E+002
+1.76848354793E+007, +5.61143043457E+001, +1.63969068913E+002
+1.78992846924E+007, +5.62500822202E+001, +1.66190012430E+002
+1.81137339056E+007, +5.65329583291E+001, +1.68145720048E+002
+1.83281831187E+007, +5.67672217069E+001, +1.70055196404E+002
+1.85426323319E+007, +5.65036613230E+001, +1.72016918895E+002
+1.87570815451E+007, +5.66800823781E+001, +1.74265526567E+002
+1.89715307582E+007, +5.67897926901E+001, +1.76174174870E+002
+1.91859799714E+007, +5.69981643934E+001, +1.78366823803E+002
+1.94004291845E+007, +5.67485262081E+001, +1.80129389060E+002
+1.96148783977E+007, +5.68678374272E+001, +1.82342932525E+002
+1.98293276109E+007, +5.70665053805E+001, +1.84554067188E+002
+2.00437768240E+007, +5.69824468577E+001, +1.86647537338E+002
+2.02582260372E+007, +5.72246010321E+001, +1.88813420361E+002
+2.04726752504E+007, +5.71301139585E+001, +1.90869523523E+002
+2.06871244635E+007, +5.74724182630E+001, +1.92901850899E+002
+2.09015736767E+007, +5.74872272116E+001, +1.94815120045E+002
+2.11160228898E+007, +5.73409611071E+001, +1.96879466203E+002
+2.13304721030E+007, +5.76060243742E+001, +1.99270405007E+002
+2.15449213162E+007, +5.78285599673E+001, +2.01041619411E+002
+2.17593705293E+007, +5.77604984359E+001, +2.03204221130E+002
+2.19738197425E+007, +5.81307330274E+001, +2.05343085864E+002
+2.21882689557E+007, +5.78366598022E+001, +2.07353805174E+002
+2.24027181688E+007, +5.83042482034E+001, +2.09359187985E+002
+2.26171673820E+007, +5.81018728927E+001, +2.11625271597E+002
+2.28316165951E+007, +5.82507274915E+001, +2.13725292153E+002
+2.30460658083E+007, +5.85083056083E+001, +2.15930073486E+002
+2.32605150215E+007, +5.84788723097E+001, +2.18002030739E+002
+2.34749642346E+007, +5.83825796939E+001, +2.20111643442E+002
+2.36894134478E+007, +5.86977198863E+001, +2.22230599894E+002
+2.39038626609E+007, +5.90005344063E+001, +2.24200093009E+002
+2.41183118741E+007, +5.86834525655E+001, +2.26329492986E+002
+2.43327610873E+007, +5.87734883560E+001, +2.28511194768E+002
+2.45472103004E+007, +5.92098163598E+001, +2.30390251155E+002
+2.47616595136E+007, +5.90800990665E+001, +2.32881106805E+002
+2.49761087268E+007, +5.94201199944E+001, +2.34853624237E+002
+2.51905579399E+007, +5.94278124377E+001, +2.37197918759E+002
+2.54050071531E+007, +5.95186362708E+001, +2.39155181953E+002
+2.56194563662E+007, +5.97536187412E+001, +2.41489811686E+002
+2.58339055794E+007, +5.99266806912E+001, +2.43638269490E+002
+2.60483547926E+007, +5.99659521695E+001, +2.45879665892E+002
+2.62628040057E+007, +6.02417621045E+001, +2.48259428510E+002
+2.64772532189E+007, +6.00367779904E+001, +2.50386781206E+002
+2.66917024320E+007, +6.02441113089E+001, +2.51962866285E+002
+2.69061516452E+007, +6.01960916598E+001, +2.54495487859E+002
+2.71206008584E+007, +6.07047925956E+001, +2.56573685589E+002
+2.73350500715E+007, +6.07476703991E+001, +2.59044509618E+002
+2.75494992847E+007, +6.05050209884E+001, +2.61100141945E+002
+2.77639484979E+007, +6.07842326454E+001, +2.62808179619E+002
+2.79783977110E+007, +6.10063150934E+001, +2.65457401906E+002
+2.81928469242E+007, +6.06694560923E+001, +2.67784269399E+002
+2.84072961373E+007, +6.09047166601E+001, +2.70011651175E+002
+2.86217453505E+007, +6.11311504835E+001, +2.71904259042E+002
+2.88361945637E+007, +6.16001425872E+001, +2.74428592562E+002
+2.90506437768E+007, +6.13353215333E+001, +2.76397537256E+002
+2.92650929900E+007, +6.17182503340E+001, +2.78259064298E+002
+2.94795422031E+007, +6.09452193094E+001, +2.80616758269E+002
+2.96939914163E+007, +6.17657425044E+001, +2.82987260304E+002
+2.99084406295E+007, +6.18000807277E+001, +2.84925258594E+002
+3.01228898426E+007, +6.15568501412E+001, +2.87494709430E+002
+3.03373390558E+007, +6.16860213799E+001, +2.90245617347E+002
+3.05517882690E+007, +6.17845766625E+001, +2.92088077068E+002
+3.07662374821E+007, +6.16068262674E+001, +2.94161514257E+002
+3.09806866953E+007, +6.24700810902E+001, +2.96845677002E+002
+3.11951359084E+007, +6.23803674596E+001, +2.98769347632E+002
+3.14095851216E+007, +6.24843638175E+001, +3.01095942826E+002
+3.16240343348E+007, +6.26644214231E+001, +3.03723290289E+002
+3.18384835479E+007, +6.28289217157E+001, +3.06194863504E+002
+3.20529327611E+007, +6.28197898435E+001, +3.08300195133E+002
+3.22673819742E+007, +6.25325756376E+001, +3.10946538751E+002
+3.24818311874E+007, +6.30438825005E+001, +3.13196079337E+002
+3.26962804006E+007, +6.38360912892E+001, +3.14823694076E+002
+3.29107296137E+007, +6.34214995404E+001, +3.17881246169E+002
+3.31251788269E+007, +6.34600447563E+001, +3.19465074942E+002
+3.33396280401E+007, +6.38837003932E+001, +3.22301350461E+002
+3.35540772532E+007, +6.34607478174E+001, +3.24143919110E+002
+3.37685264664E+007, +6.35876494958E+001, +3.26978420449E+002
+3.39829756795E+007, +6.33474917077E+001, +3.29525095500E+002
+3.41974248927E+007, +6.45905335541E+001, +3.31303885535E+002
+3.44118741059E+007, +6.45427116131E+001, +3.33919680353E+002
+3.46263233190E+007, +6.43585762391E+001, +3.36472211671E+002
+3.48407725322E+007, +6.50007364557E+001, +3.38964355053E+002
+3.50552217454E+007, +6.42906406796E+001, +3.41135449045E+002
+3.52696709585E+007, +6.40884732009E+001, +3.43474999119E+002
+3.54841201717E+007, +6.49132592675E+001, +3.45607290072E+002
+3.56985693848E+007, +6.54401417191E+001, +3.47722706092E+002
+3.59130185980E+007, +6.53571703949E+001, +3.50901638739E+002
+3.61274678112E+007, +6.57083381644E+001, +3.53062184465E+002
+3.63419170243E+007, +6.59033652279E+001, +3.55933580484E+002
+3.65563662375E+007, +6.53492882747E+001, +3.57864965443E+002
+3.67708154506E+007, +6.57869302568E+001, +3.59956175703E+002
+3.69852646638E+007, +6.64016259720E+001, +3.61912663855E+002
+3.71997138770E+007, +6.61923317511E+001, +3.65448184409E+002
+3.74141630901E+007, +6.62593275535E+001, +3.67520248241E+002
+3.76286123033E+007, +6.66846911808E+001, +3.69575008039E+002
+3.78430615165E+007, +6.65833363815E+001, +3.72525310248E+002
+3.80575107296E+007, +6.69273898950E+001, +3.75422822957E+002
+3.82719599428E+007, +6.74755204511E+001, +3.77742004696E+002
+3.84864091559E+007, +6.69280082041E+001, +3.79551042665E+002
+3.87008583691E+007, +6.67543949888E+001, +3.82031011137E+002
+3.89153075823E+007, +6.70891793247E+001, +3.84840376881E+002
+3.91297567954E+007, +6.75500821499E+001, +3.87900289330E+002
+3.93442060086E+007, +6.76056322306E+001, +3.90190478186E+002
+3.95586552217E+007, +6.81532999453E+001, +3.93198727001E+002
+3.97731044349E+007, +6.79697236304E+001, +3.95454079279E+002
+3.99875536481E+007, +6.81375386501E+001, +3.97663234062E+002
+4.02020028612E+007, +6.89779713572E+001, +4.00572572574E+002
+4.04164520744E+007, +6.81872862493E+001, +4.01920468491E+002
+4.06309012876E+007, +6.90611574381E+001, +4.05574804152E+002
+4.08453505007E+007, +6.86531232886E+001, +4.08612347026E+002
+4.10597997139E+007, +6.93581600332E+001, +4.10811079440E+002
+4.12742489270E+007, +6.92551449468E+001, +4.14068109965E+002
+4.14886981402E+007, +6.94386798819E+001, +4.16594228675E+002
+4.17031473534E+007, +6.88555667910E+001, +4.18555324543E+002
+4.19175965665E+007, +6.94178652192E+001, +4.21491842684E+002
+4.21320457797E+007, +7.01982734990E+001, +4.23595484642E+002
+4.23464949928E+007, +7.01951271577E+001, +4.26428312999E+002
+4.25609442060E+007, +7.11536962855E+001, +4.28843685133E+002
+4.27753934192E+007, +7.09579247158E+001, +4.31555814986E+002
+4.29898426323E+007, +7.08977140234E+001, +4.33868426792E+002
+4.32042918455E+007, +7.07478068912E+001, +4.37009767202E+002
+4.34187410587E+007, +7.11649177205E+001, +4.39942016243E+002
+4.36331902718E+007, +7.22785658825E+001, +4.41583180930E+002
+4.38476394850E+007, +7.16903824034E+001, +4.45155783385E+002
+4.40620886981E+007, +7.06785477446E+001, +4.48099084316E+002
+4.42765379113E+007, +7.14739479181E+001, +4.50139289771E+002
+4.44909871245E+007, +7.16721060728E+001, +4.53563784338E+002
+4.47054363376E+007, +7.24900456436E+001, +4.55969221358E+002
+4.49198855508E+007, +7.21885859950E+001, +4.58894228494E+002
+4.51343347639E+007, +7.28956504928E+001, +4.61130116193E+002
+4.53487839771E+007, +7.41181683441E+001, +4.64544184876E+002
+4.55632331903E+007, +7.28959249990E+001, +4.68019965575E+002
+4.57776824034E+007, +7.29383342452E+001, +4.69955225103E+002
+4.59921316166E+007, +7.37507963108E+001, +4.73702460546E+002
+4.62065808298E+007, +7.32775718146E+001, +4.75323565829E+002
+4.64210300429E+007, +7.48551680108E+001, +4.77130657186E+002
+4.66354792561E+007, +7.43056036651E+001, +4.83026075199E+002
+4.68499284692E+007, +7.58118996031E+001, +4.84290042447E+002
+4.70643776824E+007, +7.45567287838E+001, +4.86689729341E+002
+4.72788268956E+007, +7.52143725552E+001, +4.89670779960E+002
+4.74932761087E+007, +7.60416932685E+001, +4.93739084452E+002
+4.77077253219E+007, +7.65598144060E+001, +4.96175900662E+002
+4.79221745351E+007, +7.68837513864E+001, +4.97664448662E+002
+4.81366237482E+007, +7.72796428682E+001, +5.02371355768E+002
+4.83510729614E+007, +7.69285199729E+001, +5.04281080972E+002
+4.85655221745E+007, +7.82408626677E+001, +5.08316212075E+002
+4.87799713877E+007, +7.60795154608E+001, +5.10803166983E+002
+4.89944206009E+007, +7.70650240693E+001, +5.13420014019E+002
+4.92088698140E+007, +7.82062012121E+001, +5.16032163215E+002
+4.94233190272E+007, +7.81908739914E+001, +5.18955668707E+002
+4.96377682403E+007, +7.96648637496E+001, +5.22709715659E+002
+4.98522174535E+007, +7.85231396954E+001, +5.27528512031E+002
+5.00666666667E+007, +7.94268931654E+001, +5.28530927359E+002
+5.02811158798E+007, +8.07264094593E+001, +5.31893571125E+002
+5.04955650930E+007, +7.98378026656E+001, +5.35423380104E+002
+5.07100143062E+007, +8.10647332955E+001, +5.38220341276E+002
+5.09244635193E+007, +8.14329506605E+001, +5.40106050332E+002
+5.11389127325E+007, +8.12554849850E+001, +5.43826520512E+002
+5.13533619456E+007, +8.17339846828E+001, +5.48689964857E+002
+5.15678111588E+007, +7.97558063638E+001, +5.51850490632E+002
+5.17822603720E+007, +8.22647216907E+001, +5.53251087809E+002
+5.19967095851E+007, +8.30799855080E+001, +5.56322201691E+002
+5.22111587983E+007, +8.11705130384E+001, +5.61268379104E+002
+5.24256080114E+007, +8.21284234443E+001, +5.63727645289E+002
+5.26400572246E+007, +8.34903952057E+001, +5.67280474377E+002
+5.28545064378E+007, +8.30399981995E+001, +5.70586859921E+002
+5.30689556509E+007, +8.35127829172E+001, +5.73766449378E+002
+5.32834048641E+007, +8.50135644781E+001, +5.77151031381E+002
+5.34978540773E+007, +8.43564519687E+001, +5.78570107956E+002
+5.37123032904E+007, +8.43075296677E+001, +5.85870297592E+002
+5.39267525036E+007, +8.51380803344E+001, +5.86618076980E+002
+5.41412017167E+007, +8.50987653304E+001, +5.91505070522E+002
+5.43556509299E+007, +8.45010613733E+001, +5.93111734041E+002
+5.45701001431E+007, +8.74897244999E+001, +5.97266281979E+002
+5.47845493562E+007, +8.56598988172E+001, +5.97991249934E+002
+5.49989985694E+007, +8.87405359345E+001, +6.02742744619E+002
+5.52134477825E+007, +8.92161605381E+001, +6.04687211378E+002
+5.54278969957E+007, +8.92029208886E+001, +6.12419533559E+002
+5.56423462089E+007, +8.89551619067E+001, +6.13993907165E+002
+5.58567954220E+007, +9.01288143551E+001, +6.18716183965E+002
+5.60712446352E+007, +8.93826920253E+001, +6.19234173301E+002
+5.62856938484E+007, +8.83885068239E+001, +6.24770003650E+002
+5.65001430615E+007, +9.00921890173E+001, +6.28564704930E+002
+5.67145922747E+007, +9.18594987314E+001, +6.31059260558E+002
+5.69290414878E+007, +9.17612070364E+001, +6.37029314346E+002
+5.71434907010E+007, +9.23612580269E+001, +6.37853611797E+002
+5.73579399142E+007, +9.09203633074E+001, +6.43431037040E+002
+5.75723891273E+007, +9.36800528175E+001, +6.46745974368E+002
+5.77868383405E+007, +9.29684664890E+001, +6.50279830278E+002
+5.80012875536E+007, +9.35437666059E+001, +6.54622790505E+002
+5.82157367668E+007, +9.34046813894E+001, +6.57985664890E+002
+5.84301859800E+007, +9.38238698221E+001, +6.61502441804E+002
+5.86446351931E+007, +9.36951226473E+001, +6.64627038056E+002
+5.88590844063E+007, +9.81991194079E+001, +6.69609628903E+002
+5.90735336195E+007, +9.55704765614E+001, +6.73308140523E+002
+5.92879828326E+007, +9.41290839197E+001, +6.75740468723E+002
+5.95024320458E+007, +9.78680444571E+001, +6.79587407598E+002
+5.97168812589E+007, +9.76414357203E+001, +6.84501753277E+002
+5.99313304721E+007, +9.77921730066E+001, +6.88257943878E+002
+6.01457796853E+007, +9.97983939867E+001, +6.89827111750E+002
+6.03602288984E+007, +9.83423045495E+001, +6.94455545914E+002
+6.05746781116E+007, +1.01207137157E+002, +7.00538568001E+002
+6.07891273247E+007, +9.88974240782E+001, +7.05512976745E+002
+6.10035765379E+007, +1.02247782869E+002, +7.07577750130E+002
+6.12180257511E+007, +1.03449064856E+002, +7.13103755707E+002
+6.14324749642E+007, +1.00922507598E+002, +7.17894315284E+002
+6.16469241774E+007, +1.01253810887E+002, +7.20900721840E+002
+6.18613733906E+007, +1.02717875681E+002, +7.24135151019E+002
+6.20758226037E+007, +1.04760532786E+002, +7.30368638836E+002
+6.22902718169E+007, +1.07051217429E+002, +7.33901038051E+002
+6.25047210300E+007, +1.04090166773E+002, +7.37188925896E+002
+6.27191702432E+007, +1.04110018535E+002, +7.41971785398E+002
+6.29336194564E+007, +1.05967430811E+002, +7.46151200765E+002
+6.31480686695E+007, +1.05244731296E+002, +7.49366751987E+002
+6.33625178827E+007, +1.06838996426E+002, +7.56183100219E+002
+6.35769670959E+007, +1.08167628681E+002, +7.61897435178E+002
+6.37914163090E+007, +1.09849942075E+002, +7.65242513670E+002
+6.40058655222E+007, +1.09885854033E+002, +7.69413579925E+002
+6.42203147353E+007, +1.10659719775E+002, +7.74936320240E+002
+6.44347639485E+007, +1.11380944242E+002, +7.75057218960E+002
+6.46492131617E+007, +1.14258841509E+002, +7.84915149760E+002
+6.48636623748E+007, +1.12179576822E+002, +7.84253449303E+002
+6.50781115880E+007, +1.14859561522E+002, +7.93381567441E+002
+6.52925608011E+007, +1.17156297066E+002, +7.96736138630E+002
+6.55070100143E+007, +1.14808063169E+002, +8.02375593160E+002
+6.57214592275E+007, +1.18558702345E+002, +8.03467905710E+002
+6.59359084406E+007, +1.16666650426E+002, +8.07800817165E+002
+6.61503576538E+007, +1.19648535420E+002, +8.16651964196E+002
+6.63648068670E+007, +1.18821115123E+002, +8.18705645027E+002
+6.65792560801E+007, +1.23073835952E+002, +8.24769111538E+002
+6.67937052933E+007, +1.22318705225E+002, +8.31580489701E+002
+6.70081545064E+007, +1.23342298487E+002, +8.38371169697E+002
+6.72226037196E+007, +1.22294560173E+002, +8.41187697917E+002
+6.74370529328E+007, +1.28108319079E+002, +8.46290929524E+002
+6.76515021459E+007, +1.25860591653E+002, +8.51771604207E+002
+6.78659513591E+007, +1.30663608800E+002, +8.56820504923E+002
+6.80804005722E+007, +1.23370725876E+002, +8.61780157657E+002
+6.82948497854E+007, +1.30791816899E+002, +8.68332087945E+002
+6.85092989986E+007, +1.33502857544E+002, +8.70411050552E+002
+6.87237482117E+007, +1.31684924836E+002, +8.77795280821E+002
