"# Channel 1"
"# Trace 1"
Frequency, Formatted Data, Formatted Data
+1.00000000000E+005, +5.26641179291E+001, +1.61079447207E+000
+3.14449213162E+005, +5.28304163533E+001, +3.10662806089E+000
+5.28898426323E+005, +5.28607098791E+001, +5.09809596218E+000
+7.43347639485E+005, +5.28882668106E+001, +7.05771599531E+000
+9.57796852647E+005, +5.29109707038E+001, +9.14053888284E+000
+1.17224606581E+006, +5.26902312972E+001, +1.11531906707E+001
+1.38669527897E+006, +5.28611762826E+001, +1.31041341286E+001
+1.60114449213E+006, +5.28429134177E+001, +1.53524469497E+001
+1.81559370529E+006, +5.28257365165E+001, +1.72941270489E+001
+2.03004291845E+006, +5.28031382354E+001, +1.94704964496E+001
+2.24449213162E+006, +5.30485583031E+001, +2.13827069476E+001
+2.45894134478E+006, +5.30376109181E+001, +2.35006978575E+001
+2.67339055794E+006, +5.30629415197E+001, +2.53579174747E+001
+2.88783977110E+006, +5.30889624888E+001, +2.73967207682E+001
+3.10228898426E+006, +5.31684959782E+001, +2.92721227935E+001
+3.31673819742E+006, +5.31544601062E+001, +3.13668893263E+001
+3.53118741059E+006, +5.30215818284E+001, +3.35937435623E+001
+3.74563662375E+006, +5.31835331051E+001, +3.55774963780E+001
+3.96008583691E+006, +5.33110925903E+001, +3.74713989366E+001
+4.17453505007E+006, +5.33252074926E+001, +3.96201335682E+001
+4.38898426323E+006, +5.34023974794E+001, +4.16393648570E+001
+4.60343347639E+006, +5.33421174053E+001, +4.37676498375E+001
+4.81788268956E+006, +5.33734569678E+001, +4.57892306444E+001
+5.03233190272E+006, +5.33638554311E+001, +4.77226169722E+001
+5.24678111588E+006, +5.33248113909E+001, +4.95914517175E+001
+5.46123032904E+006, +5.35604944706E+001, +5.18408301897E+001
+5.67567954220E+006, +5.33454221665E+001, +5.37894782639E+001
+5.89012875536E+006, +5.37877438908E+001, +5.57744222011E+001
+6.10457796853E+006, +5.37234727606E+001, +5.78193255986E+001
+6.31902718169E+006, +5.37063857537E+001, +5.98867738669E+001
+6.53347639485E+006, +5.37570854293E+001, +6.16913313076E+001
+6.74792560801E+006, +5.38535874567E+001, +6.39327215757E+001
+6.96237482117E+006, +5.38554121713E+001, +6.59885602125E+001
+7.17682403433E+006, +5.39049638944E+001, +6.79326776429E+001
+7.39127324750E+006, +5.39611298464E+001, +7.00576860946E+001
+7.60572246066E+006, +5.40429135487E+001, +7.19037772079E+001
+7.82017167382E+006, +5.40792922876E+001, +7.40264464403E+001
+8.03462088698E+006, +5.40697604682E+001, +7.60408569463E+001
+8.24907010014E+006, +5.42747577279E+001, +7.80194545762E+001
+8.46351931330E+006, +5.42101939678E+001, +8.00706662803E+001
+8.67796852647E+006, +5.43001751907E+001, +8.20836379276E+001
+8.89241773963E+006, +5.43467348287E+001, +8.41754629059E+001
+9.10686695279E+006, +5.44662128840E+001, +8.62379519342E+001
+9.32131616595E+006, +5.44654322459E+001, +8.82396501329E+001
+9.53576537911E+006, +5.43789038514E+001, +9.03056806986E+001
+9.75021459227E+006, +5.44126463954E+001, +9.23729634258E+001
+9.96466380544E+006, +5.45018975189E+001, +9.43730277751E+001
+1.01791130186E+007, +5.47651091455E+001, +9.64459062921E+001
+1.03935622318E+007, +5.47001016558E+001, +9.84824987384E+001
+1.06080114449E+007, +5.47758261850E+001, +1.00503331291E+002
+1.08224606581E+007, +5.48510897742E+001, +1.02492740244E+002
+1.10369098712E+007, +5.49273982435E+001, +1.04714886217E+002
+1.12513590844E+007, +5.49436028797E+001, +1.06754181277E+002
+1.14658082976E+007, +5.49530744344E+001, +1.08731658650E+002
+1.16802575107E+007, +5.50552990702E+001, +1.10547968674E+002
+1.18947067239E+007, +5.53481017043E+001, +1.12829446881E+002
+1.21091559371E+007, +5.51116164736E+001, +1.14739277246E+002
+1.23236051502E+007, +5.52082094769E+001, +1.16914892920E+002
+1.25380543634E+007, +5.52776238014E+001, +1.18924842034E+002
+1.27525035765E+007, +5.54858885651E+001, +1.21022553094E+002
+1.29669527897E+007, +5.52958375590E+001, +1.23042644839E+002
+1.31814020029E+007, +5.54644379227E+001, +1.25011669721E+002
+1.33958512160E+007, +5.55960116773E+001, +1.27167346427E+002
+1.36103004292E+007, +5.56094546404E+001, +1.29117311578E+002
+1.38247496423E+007, +5.56863259956E+001, +1.31219897259E+002
+1.40391988555E+007, +5.57336201497E+001, +1.33247239514E+002
+1.42536480687E+007, +5.57127740540E+001, +1.35203280602E+002
+1.44680972818E+007, +5.58881962302E+001, +1.37540098643E+002
+1.46825464950E+007, +5.58503992030E+001, +1.39524306601E+002
+1.48969957082E+007, +5.59554174167E+001, +1.41278722723E+002
+1.51114449213E+007, +5.60576862656E+001, +1.43601448014E+002
+1.53258941345E+007, +5.61532479837E+001, +1.45554051711E+002
+1.55403433476E+007, +5.59593161447E+001, +1.47699739416E+002
+1.57547925608E+007, +5.63214525501E+001, +1.49821061132E+002
+1.59692417740E+007, +5.60752720905E+001, +1.51982000264E+002
+1.61836909871E+007, +5.65348891808E+001, +1.54046530704E+002
+1.63981402003E+007, +5.65494884978E+001, +1.56261583648E+002
+1.66125894134E+007, +5.63082924145E+001, +1.58132540078E+002
+1.68270386266E+007, +5.65639545474E+001, +1.60239228609E+002
+1.70414878398E+007, +5.63891172387E+001, +1.62600552698E+002
+1.72559370529E+007, +5.65911822764E+001, +1.64657995477E+002
+1.74703862661E+007, +5.66113088261E+001, +1.66721336066E+002
+1.76848354793E+007, +5.66538647921E+001, +1.68583096207E+002
+1.78992846924E+007, +5.67303401599E+001, +1.70965874654E+002
+1.81137339056E+007, +5.70001369488E+001, +1.73001604628E+002
+1.83281831187E+007, +5.71518578767E+001, +1.74979386339E+002
+1.85426323319E+007, +5.69341300216E+001, +1.77123558294E+002
+1.87570815451E+007, +5.72776915367E+001, +1.79240076975E+002
+1.89715307582E+007, +5.72370486264E+001, +1.81336069702E+002
+1.91859799714E+007, +5.76289121638E+001, +1.83546090719E+002
+1.94004291845E+007, +5.74285335296E+001, +1.85498940138E+002
+1.96148783977E+007, +5.76055427374E+001, +1.87649379540E+002
+1.98293276109E+007, +5.79585728810E+001, +1.89771566300E+002
+2.00437768240E+007, +5.77040425333E+001, +1.91958065859E+002
+2.02582260372E+007, +5.78227295768E+001, +1.94229235196E+002
+2.04726752504E+007, +5.77969652312E+001, +1.96371524925E+002
+2.06871244635E+007, +5.79103217929E+001, +1.98378566434E+002
+2.09015736767E+007, +5.77296049033E+001, +2.00426473657E+002
+2.11160228898E+007, +5.80689000021E+001, +2.02631582441E+002
+2.13304721030E+007, +5.81523601012E+001, +2.05034158227E+002
+2.15449213162E+007, +5.82488338919E+001, +2.06949619352E+002
+2.17593705293E+007, +5.81109731250E+001, +2.09329737673E+002
+2.19738197425E+007, +5.87221482536E+001, +2.11552452949E+002
+2.21882689557E+007, +5.83044028924E+001, +2.13409692476E+002
+2.24027181688E+007, +5.88694915631E+001, +2.15635920013E+002
+2.26171673820E+007, +5.87534007514E+001, +2.17498764431E+002
+2.28316165951E+007, +5.92303274950E+001, +2.20096571438E+002
+2.30460658083E+007, +5.91820119013E+001, +2.22097008442E+002
+2.32605150215E+007, +5.93186770327E+001, +2.24548859841E+002
+2.34749642346E+007, +5.91329708364E+001, +2.26759606530E+002
+2.36894134478E+007, +5.94595517996E+001, +2.28390092469E+002
+2.39038626609E+007, +5.93487190400E+001, +2.30964892018E+002
+2.41183118741E+007, +5.94147592051E+001, +2.32856554811E+002
+2.43327610873E+007, +5.93447483164E+001, +2.35215594803E+002
+2.45472103004E+007, +5.99786614980E+001, +2.37641132712E+002
+2.47616595136E+007, +5.97363489866E+001, +2.39678393449E+002
+2.49761087268E+007, +5.99493655279E+001, +2.41870330037E+002
+2.51905579399E+007, +6.01877817260E+001, +2.43808961828E+002
+2.54050071531E+007, +6.00264673579E+001, +2.46305572330E+002
+2.56194563662E+007, +6.06922490240E+001, +2.48662019339E+002
+2.58339055794E+007, +6.07278664833E+001, +2.50915221781E+002
+2.60483547926E+007, +6.04733441340E+001, +2.53353107530E+002
+2.62628040057E+007, +6.09288670685E+001, +2.55354883785E+002
+2.64772532189E+007, +6.06472889041E+001, +2.57708144872E+002
+2.66917024320E+007, +6.10222516981E+001, +2.59495050642E+002
+2.69061516452E+007, +6.12473063345E+001, +2.61659231258E+002
+2.71206008584E+007, +6.15375966247E+001, +2.63929691977E+002
+2.73350500715E+007, +6.13750706068E+001, +2.66537880971E+002
+2.75494992847E+007, +6.10637375238E+001, +2.68866831728E+002
+2.77639484979E+007, +6.16921441431E+001, +2.70770979939E+002
+2.79783977110E+007, +6.17870683065E+001, +2.73529989354E+002
+2.81928469242E+007, +6.12803991986E+001, +2.75325916790E+002
+2.84072961373E+007, +6.17411300629E+001, +2.77761822379E+002
+2.86217453505E+007, +6.21489208857E+001, +2.79799405489E+002
+2.88361945637E+007, +6.22510951316E+001, +2.82343344075E+002
+2.90506437768E+007, +6.20785432587E+001, +2.84592700240E+002
+2.92650929900E+007, +6.24064504966E+001, +2.86569858941E+002
+2.94795422031E+007, +6.18984255876E+001, +2.89330029673E+002
+2.96939914163E+007, +6.21798641084E+001, +2.91378337748E+002
+2.99084406295E+007, +6.25049337479E+001, +2.93941284499E+002
+3.01228898426E+007, +6.30122186059E+001, +2.96113935218E+002
+3.03373390558E+007, +6.23055420995E+001, +2.98694710449E+002
+3.05517882690E+007, +6.27300123232E+001, +3.00676757226E+002
+3.07662374821E+007, +6.26743135174E+001, +3.03113573454E+002
+3.09806866953E+007, +6.31278300725E+001, +3.05856588807E+002
+3.11951359084E+007, +6.31083191976E+001, +3.07583381013E+002
+3.14095851216E+007, +6.37202846977E+001, +3.10315153292E+002
+3.16240343348E+007, +6.35491109820E+001, +3.12943306835E+002
+3.18384835479E+007, +6.33743814439E+001, +3.15063822472E+002
+3.20529327611E+007, +6.36150842997E+001, +3.17444998906E+002
+3.22673819742E+007, +6.38243238796E+001, +3.20086456238E+002
+3.24818311874E+007, +6.40919187999E+001, +3.22403417610E+002
+3.26962804006E+007, +6.42200387730E+001, +3.24641583813E+002
+3.29107296137E+007, +6.42245027683E+001, +3.27324758357E+002
+3.31251788269E+007, +6.43345251295E+001, +3.29230928488E+002
+3.33396280401E+007, +6.49772639017E+001, +3.31326091064E+002
+3.35540772532E+007, +6.46379653248E+001, +3.34194212225E+002
+3.37685264664E+007, +6.50379066523E+001, +3.36603776581E+002
+3.39829756795E+007, +6.44444498339E+001, +3.39277321426E+002
+3.41974248927E+007, +6.47747824704E+001, +3.41255442368E+002
+3.44118741059E+007, +6.53893051786E+001, +3.44037613353E+002
+3.46263233190E+007, +6.54329394166E+001, +3.45823884118E+002
+3.48407725322E+007, +6.52567294299E+001, +3.48323862367E+002
+3.50552217454E+007, +6.45997352237E+001, +3.51288363299E+002
+3.52696709585E+007, +6.56744724991E+001, +3.54023408947E+002
+3.54841201717E+007, +6.53486696877E+001, +3.55766943137E+002
+3.56985693848E+007, +6.66437409588E+001, +3.58940351617E+002
+3.59130185980E+007, +6.59878863170E+001, +3.61048674319E+002
+3.61274678112E+007, +6.70798825431E+001, +3.63625815526E+002
+3.63419170243E+007, +6.59975204256E+001, +3.65853591845E+002
+3.65563662375E+007, +6.68450331824E+001, +3.68840234765E+002
+3.67708154506E+007, +6.63787557409E+001, +3.71009070045E+002
+3.69852646638E+007, +6.70502728830E+001, +3.73233070541E+002
+3.71997138770E+007, +6.67609356263E+001, +3.76756387013E+002
+3.74141630901E+007, +6.73590405140E+001, +3.78317465482E+002
+3.76286123033E+007, +6.72095810251E+001, +3.81380631175E+002
+3.78430615165E+007, +6.78296130371E+001, +3.83746653737E+002
+3.80575107296E+007, +6.92019728965E+001, +3.86480004250E+002
+3.82719599428E+007, +6.82760313664E+001, +3.89045537730E+002
+3.84864091559E+007, +6.78115978110E+001, +3.91139108229E+002
+3.87008583691E+007, +6.73972081224E+001, +3.93823072119E+002
+3.89153075823E+007, +6.88493538595E+001, +3.96807726190E+002
+3.91297567954E+007, +6.83233698383E+001, +4.00039698542E+002
+3.93442060086E+007, +6.80648520816E+001, +4.02321055468E+002
+3.95586552217E+007, +6.98006915335E+001, +4.04278728267E+002
+3.97731044349E+007, +6.86248793637E+001, +4.07433422637E+002
+3.99875536481E+007, +6.92286443346E+001, +4.10100245834E+002
+4.02020028612E+007, +7.03890405899E+001, +4.11964249332E+002
+4.04164520744E+007, +6.92976345739E+001, +4.14805033245E+002
+4.06309012876E+007, +7.03410771277E+001, +4.18214708877E+002
+4.08453505007E+007, +6.98112307191E+001, +4.20648290994E+002
+4.10597997139E+007, +7.13579229341E+001, +4.22232191018E+002
+4.12742489270E+007, +6.99878368375E+001, +4.26281990673E+002
+4.14886981402E+007, +7.13366349899E+001, +4.29027834950E+002
+4.17031473534E+007, +7.04171803974E+001, +4.30988156679E+002
+4.19175965665E+007, +7.09471258457E+001, +4.34216169388E+002
+4.21320457797E+007, +7.13764439090E+001, +4.36289520781E+002
+4.23464949928E+007, +7.23026382533E+001, +4.39127102603E+002
+4.25609442060E+007, +7.12968720062E+001, +4.41455864716E+002
+4.27753934192E+007, +7.24639824403E+001, +4.44713389611E+002
+4.29898426323E+007, +7.29453730145E+001, +4.47513715490E+002
+4.32042918455E+007, +7.08840941605E+001, +4.50296444598E+002
+4.34187410587E+007, +7.31060159399E+001, +4.53091855231E+002
+4.36331902718E+007, +7.27147714303E+001, +4.55809108079E+002
+4.38476394850E+007, +7.29390809961E+001, +4.59436325097E+002
+4.40620886981E+007, +7.12103812604E+001, +4.62048794113E+002
+4.42765379113E+007, +7.30822141106E+001, +4.65072343555E+002
+4.44909871245E+007, +7.29242408531E+001, +4.66630831491E+002
+4.47054363376E+007, +7.33038470720E+001, +4.70391572392E+002
+4.49198855508E+007, +7.35291116835E+001, +4.72467451006E+002
+4.51343347639E+007, +7.42008864259E+001, +4.75404453657E+002
+4.53487839771E+007, +7.51151167212E+001, +4.78115218527E+002
+4.55632331903E+007, +7.36990706415E+001, +4.81935966891E+002
+4.57776824034E+007, +7.51454483009E+001, +4.84406639702E+002
+4.59921316166E+007, +7.54938636330E+001, +4.87901059695E+002
+4.62065808298E+007, +7.41683854044E+001, +4.90543034110E+002
+4.64210300429E+007, +7.60064982204E+001, +4.92645822945E+002
+4.66354792561E+007, +7.61896603750E+001, +4.96803788347E+002
+4.68499284692E+007, +7.62152891690E+001, +4.99433425185E+002
+4.70643776824E+007, +7.55425380482E+001, +5.01189161049E+002
+4.72788268956E+007, +7.73742210908E+001, +5.04953136674E+002
+4.74932761087E+007, +7.70877148760E+001, +5.08339271278E+002
+4.77077253219E+007, +7.75033644976E+001, +5.11154595449E+002
+4.79221745351E+007, +7.74592663765E+001, +5.13317168440E+002
+4.81366237482E+007, +7.79770323857E+001, +5.17326729999E+002
+4.83510729614E+007, +7.86193337601E+001, +5.19664583099E+002
+4.85655221745E+007, +7.89367951638E+001, +5.24493403663E+002
+4.87799713877E+007, +7.77669287460E+001, +5.26126322972E+002
+4.89944206009E+007, +7.85279025365E+001, +5.29353565071E+002
+4.92088698140E+007, +7.99313875559E+001, +5.31861338329E+002
+4.94233190272E+007, +8.08733935696E+001, +5.34939863251E+002
+4.96377682403E+007, +8.03464971921E+001, +5.39500672709E+002
+4.98522174535E+007, +7.99412346371E+001, +5.43986428942E+002
+5.00666666667E+007, +8.03590522807E+001, +5.44762842297E+002
+5.02811158798E+007, +8.13855031554E+001, +5.48212920014E+002
+5.04955650930E+007, +8.10824324683E+001, +5.52992850682E+002
+5.07100143062E+007, +8.19210989335E+001, +5.55217638229E+002
+5.09244635193E+007, +8.21122629416E+001, +5.56878256122E+002
+5.11389127325E+007, +8.31009346567E+001, +5.59234408627E+002
+5.13533619456E+007, +8.24814019041E+001, +5.64512371278E+002
+5.15678111588E+007, +8.31977240757E+001, +5.68311588139E+002
+5.17822603720E+007, +8.25933977605E+001, +5.70342256290E+002
+5.19967095851E+007, +8.26812299616E+001, +5.73433180706E+002
+5.22111587983E+007, +8.28372562611E+001, +5.77255391533E+002
+5.24256080114E+007, +8.47823892138E+001, +5.81507533641E+002
+5.26400572246E+007, +8.39453493356E+001, +5.83095924578E+002
+5.28545064378E+007, +8.44275300287E+001, +5.89598304237E+002
+5.30689556509E+007, +8.52526675381E+001, +5.92464997019E+002
+5.32834048641E+007, +8.62424170017E+001, +5.93704335582E+002
+5.34978540773E+007, +8.61248504041E+001, +5.97637160342E+002
+5.37123032904E+007, +8.66742835743E+001, +6.03053305657E+002
+5.39267525036E+007, +8.79225307643E+001, +6.05787318515E+002
+5.41412017167E+007, +8.78368130460E+001, +6.10260296258E+002
+5.43556509299E+007, +8.81469287283E+001, +6.11574914207E+002
+5.45701001431E+007, +8.80559458120E+001, +6.16543301434E+002
+5.47845493562E+007, +8.85015066792E+001, +6.17492210037E+002
+5.49989985694E+007, +9.01276597766E+001, +6.21202886748E+002
+5.52134477825E+007, +9.13584218947E+001, +6.24020886554E+002
+5.54278969957E+007, +9.13708122863E+001, +6.31188272670E+002
+5.56423462089E+007, +8.91338804115E+001, +6.33402327352E+002
+5.58567954220E+007, +9.21526878601E+001, +6.36916455213E+002
+5.60712446352E+007, +9.06780691830E+001, +6.39131279906E+002
+5.62856938484E+007, +8.89040786567E+001, +6.44443864457E+002
+5.65001430615E+007, +9.10855987187E+001, +6.47753689279E+002
+5.67145922747E+007, +9.28782672217E+001, +6.50722962325E+002
+5.69290414878E+007, +9.28468521608E+001, +6.54988557837E+002
+5.71434907010E+007, +9.29604937530E+001, +6.57975147423E+002
+5.73579399142E+007, +9.46303160703E+001, +6.63561809416E+002
+5.75723891273E+007, +9.43506321051E+001, +6.65391642069E+002
+5.77868383405E+007, +9.67238065384E+001, +6.72353593892E+002
+5.80012875536E+007, +9.53532604399E+001, +6.74232443406E+002
+5.82157367668E+007, +9.62494359415E+001, +6.78210599031E+002
+5.84301859800E+007, +9.61137591146E+001, +6.81423853006E+002
+5.86446351931E+007, +9.80890425307E+001, +6.86004010737E+002
+5.88590844063E+007, +9.82291407774E+001, +6.89782456149E+002
+5.90735336195E+007, +9.92725717880E+001, +6.94264475810E+002
+5.92879828326E+007, +9.84261977863E+001, +6.98188259196E+002
+5.95024320458E+007, +1.00374069567E+002, +6.99819666296E+002
+5.97168812589E+007, +1.01150462854E+002, +7.04028143087E+002
+5.99313304721E+007, +1.00589817761E+002, +7.08877593142E+002
+6.01457796853E+007, +1.02215539732E+002, +7.12244569294E+002
+6.03602288984E+007, +1.00979919728E+002, +7.18408801400E+002
+6.05746781116E+007, +1.03178793211E+002, +7.22062917293E+002
+6.07891273247E+007, +1.00551330457E+002, +7.26141621785E+002
+6.10035765379E+007, +1.02806141082E+002, +7.26835415354E+002
+6.12180257511E+007, +1.05152321992E+002, +7.33416633052E+002
+6.14324749642E+007, +1.04013004917E+002, +7.39935480877E+002
+6.16469241774E+007, +1.03740401179E+002, +7.39832120256E+002
+6.18613733906E+007, +1.05178623741E+002, +7.47355008404E+002
+6.20758226037E+007, +1.06161740782E+002, +7.51293393465E+002
+6.22902718169E+007, +1.08619981796E+002, +7.56079321466E+002
+6.25047210300E+007, +1.05960185275E+002, +7.58583150746E+002
+6.27191702432E+007, +1.06872027174E+002, +7.63195910760E+002
+6.29336194564E+007, +1.10324909338E+002, +7.69432558484E+002
+6.31480686695E+007, +1.09070227542E+002, +7.74918811594E+002
+6.33625178827E+007, +1.10270104345E+002, +7.79146139741E+002
+6.35769670959E+007, +1.09755008456E+002, +7.82667341963E+002
+6.37914163090E+007, +1.10323850628E+002, +7.87936063708E+002
+6.40058655222E+007, +1.10591605536E+002, +7.92296245105E+002
+6.42203147353E+007, +1.15023272808E+002, +7.97221053322E+002
+6.44347639485E+007, +1.15145289740E+002, +8.02549052674E+002
+6.46492131617E+007, +1.17267661410E+002, +8.07056799568E+002
+6.48636623748E+007, +1.15972081562E+002, +8.08966900503E+002
+6.50781115880E+007, +1.16467709626E+002, +8.15908851677E+002
+6.52925608011E+007, +1.19254435527E+002, +8.21671748195E+002
+6.55070100143E+007, +1.19090500679E+002, +8.26635885449E+002
+6.57214592275E+007, +1.22558531894E+002, +8.28336463190E+002
+6.59359084406E+007, +1.16994890625E+002, +8.35138478806E+002
+6.61503576538E+007, +1.21885998476E+002, +8.42200099874E+002
+6.63648068670E+007, +1.20809384586E+002, +8.43755749198E+002
+6.65792560801E+007, +1.23791942336E+002, +8.49864090897E+002
+6.67937052933E+007, +1.24447619954E+002, +8.57970400202E+002
+6.70081545064E+007, +1.27021438451E+002, +8.62006889291E+002
+6.72226037196E+007, +1.28056758295E+002, +8.64736175185E+002
+6.74370529328E+007, +1.27323432202E+002, +8.72024704730E+002
+6.76515021459E+007, +1.29861192029E+002, +8.77004345452E+002
+6.78659513591E+007, +1.32577121035E+002, +8.83046298458E+002
+6.80804005722E+007, +1.28757584781E+002, +8.89514018695E+002
+6.82948497854E+007, +1.33381557390E+002, +8.94102218054E+002
+6.85092989986E+007, +1.35337921009E+002, +8.96424307432E+002
+6.87237482117E+007, +1.35243236160E+002, +9.04918791844E+002
