"# Channel 1"
"# Trace 1"
Frequency, Formatted Data, Formatted Data
+1.00000000000E+005, +5.22730947137E+001, +1.55456848487E+000
+3.14449213162E+005, +5.24812964132E+001, +3.00039174923E+000
+5.28898426323E+005, +5.24333014672E+001, +4.93210962362E+000
+7.43347639485E+005, +5.25088340439E+001, +6.89230959412E+000
+9.57796852647E+005, +5.25374048413E+001, +8.93286177677E+000
+1.17224606581E+006, +5.22348311032E+001, +1.09325783820E+001
+1.38669527897E+006, +5.24738009770E+001, +1.28496535306E+001
+1.60114449213E+006, +5.23616226185E+001, +1.50376316093E+001
+1.81559370529E+006, +5.23733844143E+001, +1.69845545484E+001
+2.03004291845E+006, +5.24207928349E+001, +1.90483363089E+001
+2.24449213162E+006, +5.26759234100E+001, +2.09439255684E+001
+2.45894134478E+006, +5.26106522553E+001, +2.30296458350E+001
+2.67339055794E+006, +5.25972233954E+001, +2.49066766955E+001
+2.88783977110E+006, +5.27008338378E+001, +2.69511982581E+001
+3.10228898426E+006, +5.26871653663E+001, +2.88511696573E+001
+3.31673819742E+006, +5.27023830894E+001, +3.07622306003E+001
+3.53118741059E+006, +5.25951604070E+001, +3.29903514691E+001
+3.74563662375E+006, +5.27963715743E+001, +3.49639016938E+001
+3.96008583691E+006, +5.28676696764E+001, +3.67754091438E+001
+4.17453505007E+006, +5.29451759251E+001, +3.88677161694E+001
+4.38898426323E+006, +5.29349357618E+001, +4.08149765634E+001
+4.60343347639E+006, +5.29194770131E+001, +4.29870014011E+001
+4.81788268956E+006, +5.29399604732E+001, +4.48840136229E+001
+5.03233190272E+006, +5.29901907436E+001, +4.68706976589E+001
+5.24678111588E+006, +5.28635651078E+001, +4.87228578973E+001
+5.46123032904E+006, +5.31981429588E+001, +5.08341908975E+001
+5.67567954220E+006, +5.30206341226E+001, +5.27870735008E+001
+5.89012875536E+006, +5.33149684621E+001, +5.46786487352E+001
+6.10457796853E+006, +5.32807224161E+001, +5.68334624538E+001
+6.31902718169E+006, +5.33010778619E+001, +5.87889603070E+001
+6.53347639485E+006, +5.33275254529E+001, +6.05633723768E+001
+6.74792560801E+006, +5.33894206566E+001, +6.27661816631E+001
+6.96237482117E+006, +5.33939231657E+001, +6.47683678357E+001
+7.17682403433E+006, +5.34101049906E+001, +6.66932288149E+001
+7.39127324750E+006, +5.34695985433E+001, +6.87257880254E+001
+7.60572246066E+006, +5.36090476265E+001, +7.06431774348E+001
+7.82017167382E+006, +5.36971772299E+001, +7.26872213147E+001
+8.03462088698E+006, +5.35696854960E+001, +7.46562586783E+001
+8.24907010014E+006, +5.38216844780E+001, +7.66028720210E+001
+8.46351931330E+006, +5.37278863493E+001, +7.85443531995E+001
+8.67796852647E+006, +5.38945031989E+001, +8.05939157954E+001
+8.89241773963E+006, +5.38931969638E+001, +8.26060759279E+001
+9.10686695279E+006, +5.39761024536E+001, +8.46009120690E+001
+9.32131616595E+006, +5.41062467005E+001, +8.66044776544E+001
+9.53576537911E+006, +5.40007077324E+001, +8.86066501039E+001
+9.75021459227E+006, +5.39957332235E+001, +9.06000101353E+001
+9.96466380544E+006, +5.41077736009E+001, +9.25640647469E+001
+1.01791130186E+007, +5.42720046068E+001, +9.46262231920E+001
+1.03935622318E+007, +5.41579206529E+001, +9.66637694835E+001
+1.06080114449E+007, +5.42157928517E+001, +9.85971306920E+001
+1.08224606581E+007, +5.44308751381E+001, +1.00634100613E+002
+1.10369098712E+007, +5.43803248802E+001, +1.02707625153E+002
+1.12513590844E+007, +5.45130527063E+001, +1.04649586350E+002
+1.14658082976E+007, +5.45964251801E+001, +1.06700573173E+002
+1.16802575107E+007, +5.45054833248E+001, +1.08614136233E+002
+1.18947067239E+007, +5.48044958949E+001, +1.10745185700E+002
+1.21091559371E+007, +5.47159383763E+001, +1.12683697115E+002
+1.23236051502E+007, +5.47589789595E+001, +1.14675652616E+002
+1.25380543634E+007, +5.48136210251E+001, +1.16708337983E+002
+1.27525035765E+007, +5.49185906587E+001, +1.18705422682E+002
+1.29669527897E+007, +5.48839494592E+001, +1.20677581378E+002
+1.31814020029E+007, +5.49641255735E+001, +1.22725478114E+002
+1.33958512160E+007, +5.50889379688E+001, +1.24782824213E+002
+1.36103004292E+007, +5.50537418783E+001, +1.26750556377E+002
+1.38247496423E+007, +5.51585152776E+001, +1.28879940126E+002
+1.40391988555E+007, +5.51576945294E+001, +1.30786246918E+002
+1.42536480687E+007, +5.51676698909E+001, +1.32605292432E+002
+1.44680972818E+007, +5.54347750184E+001, +1.34874598241E+002
+1.46825464950E+007, +5.53022581684E+001, +1.36885290571E+002
+1.48969957082E+007, +5.54604956021E+001, +1.38724159087E+002
+1.51114449213E+007, +5.54997964776E+001, +1.41053196795E+002
+1.53258941345E+007, +5.56155123798E+001, +1.42957324627E+002
+1.55403433476E+007, +5.54807361048E+001, +1.45069521789E+002
+1.57547925608E+007, +5.57366852678E+001, +1.47079609105E+002
+1.59692417740E+007, +5.56245292675E+001, +1.49190199742E+002
+1.61836909871E+007, +5.58418514116E+001, +1.51242829662E+002
+1.63981402003E+007, +5.60550897772E+001, +1.53303487027E+002
+1.66125894134E+007, +5.59032513221E+001, +1.55135857656E+002
+1.68270386266E+007, +5.59883733994E+001, +1.57348259936E+002
+1.70414878398E+007, +5.57628434448E+001, +1.59534724681E+002
+1.72559370529E+007, +5.61049029015E+001, +1.61665108061E+002
+1.74703862661E+007, +5.62420168513E+001, +1.63513646530E+002
+1.76848354793E+007, +5.62576261712E+001, +1.65527611514E+002
+1.78992846924E+007, +5.63843494460E+001, +1.67659111431E+002
+1.81137339056E+007, +5.64986931297E+001, +1.69756616449E+002
+1.83281831187E+007, +5.65452555767E+001, +1.71861932187E+002
+1.85426323319E+007, +5.65540471845E+001, +1.73769677569E+002
+1.87570815451E+007, +5.68688994380E+001, +1.75964481668E+002
+1.89715307582E+007, +5.68717136012E+001, +1.78031745213E+002
+1.91859799714E+007, +5.70604604804E+001, +1.80108199596E+002
+1.94004291845E+007, +5.67834329186E+001, +1.81940529180E+002
+1.96148783977E+007, +5.69785353338E+001, +1.84358683212E+002
+1.98293276109E+007, +5.72994898837E+001, +1.86367498810E+002
+2.00437768240E+007, +5.71621610045E+001, +1.88350396001E+002
+2.02582260372E+007, +5.74199669434E+001, +1.90617536659E+002
+2.04726752504E+007, +5.71280408971E+001, +1.92564332452E+002
+2.06871244635E+007, +5.75141570605E+001, +1.94770362700E+002
+2.09015736767E+007, +5.74078848905E+001, +1.96726750485E+002
+2.11160228898E+007, +5.74964868999E+001, +1.99033356540E+002
+2.13304721030E+007, +5.75833877490E+001, +2.01229139219E+002
+2.15449213162E+007, +5.78782787655E+001, +2.03075807674E+002
+2.17593705293E+007, +5.77903067948E+001, +2.05209229759E+002
+2.19738197425E+007, +5.81019258385E+001, +2.07292699406E+002
+2.21882689557E+007, +5.79854987865E+001, +2.09285498820E+002
+2.24027181688E+007, +5.82781756038E+001, +2.11614232484E+002
+2.26171673820E+007, +5.83701306247E+001, +2.13703625992E+002
+2.28316165951E+007, +5.84792248605E+001, +2.16077858480E+002
+2.30460658083E+007, +5.85562145530E+001, +2.17961160208E+002
+2.32605150215E+007, +5.87036346337E+001, +2.20465726833E+002
+2.34749642346E+007, +5.85173405188E+001, +2.22447627015E+002
+2.36894134478E+007, +5.88670604469E+001, +2.24336643840E+002
+2.39038626609E+007, +5.88847870811E+001, +2.26594517953E+002
+2.41183118741E+007, +5.87484961659E+001, +2.28744555229E+002
+2.43327610873E+007, +5.88824128278E+001, +2.30841838861E+002
+2.45472103004E+007, +5.93781935191E+001, +2.32949506269E+002
+2.47616595136E+007, +5.92350089581E+001, +2.34865484156E+002
+2.49761087268E+007, +5.93888974345E+001, +2.37134890016E+002
+2.51905579399E+007, +5.95757683222E+001, +2.39390276826E+002
+2.54050071531E+007, +5.96991070441E+001, +2.41576236402E+002
+2.56194563662E+007, +5.98284735587E+001, +2.44068251145E+002
+2.58339055794E+007, +5.99322722130E+001, +2.46058818037E+002
+2.60483547926E+007, +5.99384317065E+001, +2.48689714778E+002
+2.62628040057E+007, +6.00692848070E+001, +2.50507524451E+002
+2.64772532189E+007, +6.04623442150E+001, +2.52804043976E+002
+2.66917024320E+007, +6.06017385295E+001, +2.54853175347E+002
+2.69061516452E+007, +6.05677924263E+001, +2.56977396593E+002
+2.71206008584E+007, +6.06893348439E+001, +2.58724418733E+002
+2.73350500715E+007, +6.06848246060E+001, +2.61578826381E+002
+2.75494992847E+007, +6.04408202073E+001, +2.63847335931E+002
+2.77639484979E+007, +6.07707542829E+001, +2.65389435228E+002
+2.79783977110E+007, +6.08017162515E+001, +2.67965318720E+002
+2.81928469242E+007, +6.07244118768E+001, +2.70225343738E+002
+2.84072961373E+007, +6.11750670443E+001, +2.72275532259E+002
+2.86217453505E+007, +6.14566812016E+001, +2.74715276662E+002
+2.88361945637E+007, +6.17923788741E+001, +2.77171738293E+002
+2.90506437768E+007, +6.14020574282E+001, +2.79293530677E+002
+2.92650929900E+007, +6.19582555582E+001, +2.81442605050E+002
+2.94795422031E+007, +6.16275763423E+001, +2.83750283348E+002
+2.96939914163E+007, +6.18201850541E+001, +2.85493506985E+002
+2.99084406295E+007, +6.19527190374E+001, +2.88096641629E+002
+3.01228898426E+007, +6.18712176987E+001, +2.90264787406E+002
+3.03373390558E+007, +6.19114457470E+001, +2.92894912371E+002
+3.05517882690E+007, +6.18461045203E+001, +2.94892841669E+002
+3.07662374821E+007, +6.21658331316E+001, +2.97361380555E+002
+3.09806866953E+007, +6.24181149914E+001, +3.00175346742E+002
+3.11951359084E+007, +6.22211451980E+001, +3.01874739633E+002
+3.14095851216E+007, +6.27063071638E+001, +3.04272482220E+002
+3.16240343348E+007, +6.31278972043E+001, +3.06999514917E+002
+3.18384835479E+007, +6.27075919289E+001, +3.09917866422E+002
+3.20529327611E+007, +6.30231782905E+001, +3.11359843178E+002
+3.22673819742E+007, +6.31955102181E+001, +3.13984366372E+002
+3.24818311874E+007, +6.35341634472E+001, +3.16185870929E+002
+3.26962804006E+007, +6.36601615180E+001, +3.18469633639E+002
+3.29107296137E+007, +6.37166517546E+001, +3.21390265972E+002
+3.31251788269E+007, +6.34761011529E+001, +3.22659285907E+002
+3.33396280401E+007, +6.42768890148E+001, +3.25726391208E+002
+3.35540772532E+007, +6.39694556678E+001, +3.27619124548E+002
+3.37685264664E+007, +6.41723097949E+001, +3.30039733440E+002
+3.39829756795E+007, +6.38160834956E+001, +3.32707817898E+002
+3.41974248927E+007, +6.38275313162E+001, +3.34650782353E+002
+3.44118741059E+007, +6.46540876114E+001, +3.36995657876E+002
+3.46263233190E+007, +6.47758360513E+001, +3.39664796101E+002
+3.48407725322E+007, +6.52263088549E+001, +3.41675389889E+002
+3.50552217454E+007, +6.38736254859E+001, +3.44543321241E+002
+3.52696709585E+007, +6.45519203893E+001, +3.47042284407E+002
+3.54841201717E+007, +6.51329725194E+001, +3.49402569676E+002
+3.56985693848E+007, +6.58675606359E+001, +3.51895138835E+002
+3.59130185980E+007, +6.56525429031E+001, +3.54685492825E+002
+3.61274678112E+007, +6.60279786221E+001, +3.56793273766E+002
+3.63419170243E+007, +6.61300288624E+001, +3.59502816400E+002
+3.65563662375E+007, +6.53351769899E+001, +3.61422518047E+002
+3.67708154506E+007, +6.59813269727E+001, +3.64124926289E+002
+3.69852646638E+007, +6.68940623506E+001, +3.66249757128E+002
+3.71997138770E+007, +6.61683864116E+001, +3.69536091897E+002
+3.74141630901E+007, +6.61012362094E+001, +3.71160428634E+002
+3.76286123033E+007, +6.65703782891E+001, +3.74107163343E+002
+3.78430615165E+007, +6.70029479801E+001, +3.76221781419E+002
+3.80575107296E+007, +6.71724243480E+001, +3.78961466042E+002
+3.82719599428E+007, +6.73955382498E+001, +3.81841160210E+002
+3.84864091559E+007, +6.78145188531E+001, +3.83043085869E+002
+3.87008583691E+007, +6.71732640210E+001, +3.86176465821E+002
+3.89153075823E+007, +6.79156271121E+001, +3.89709390421E+002
+3.91297567954E+007, +6.77544387422E+001, +3.92246367040E+002
+3.93442060086E+007, +6.75103588758E+001, +3.94892226755E+002
+3.95586552217E+007, +6.85921912335E+001, +3.96484604735E+002
+3.97731044349E+007, +6.83578080245E+001, +3.99136897306E+002
+3.99875536481E+007, +6.87920750704E+001, +4.02383818608E+002
+4.02020028612E+007, +6.82969467093E+001, +4.04632548114E+002
+4.04164520744E+007, +6.93839298473E+001, +4.07237808373E+002
+4.06309012876E+007, +6.89913802007E+001, +4.09746581842E+002
+4.08453505007E+007, +6.89958123971E+001, +4.12952329182E+002
+4.10597997139E+007, +6.94066676425E+001, +4.15021230297E+002
+4.12742489270E+007, +7.00561301550E+001, +4.18418209620E+002
+4.14886981402E+007, +7.03957591870E+001, +4.21755735933E+002
+4.17031473534E+007, +6.98581489624E+001, +4.22950727483E+002
+4.19175965665E+007, +7.02381738844E+001, +4.26002938638E+002
+4.21320457797E+007, +7.00354176014E+001, +4.28189939401E+002
+4.23464949928E+007, +7.12051654754E+001, +4.31126213481E+002
+4.25609442060E+007, +7.09629208869E+001, +4.33526483798E+002
+4.27753934192E+007, +7.12639754460E+001, +4.36270062258E+002
+4.29898426323E+007, +7.15829870030E+001, +4.38853344771E+002
+4.32042918455E+007, +7.06976129521E+001, +4.41556688074E+002
+4.34187410587E+007, +7.05710248247E+001, +4.44294252034E+002
+4.36331902718E+007, +7.18197093681E+001, +4.46838050130E+002
+4.38476394850E+007, +7.21116892848E+001, +4.50152750327E+002
+4.40620886981E+007, +7.14356416947E+001, +4.52876226177E+002
+4.42765379113E+007, +7.16593613417E+001, +4.55439830874E+002
+4.44909871245E+007, +7.24882406611E+001, +4.59096433529E+002
+4.47054363376E+007, +7.25124801461E+001, +4.61483157115E+002
+4.49198855508E+007, +7.26383318868E+001, +4.63745201139E+002
+4.51343347639E+007, +7.38213188552E+001, +4.65387792293E+002
+4.53487839771E+007, +7.40593219880E+001, +4.70359731282E+002
+4.55632331903E+007, +7.35929468828E+001, +4.72202541085E+002
+4.57776824034E+007, +7.32470530403E+001, +4.75675542071E+002
+4.59921316166E+007, +7.51395643539E+001, +4.78531246076E+002
+4.62065808298E+007, +7.33033865385E+001, +4.80202234563E+002
+4.64210300429E+007, +7.53140443168E+001, +4.81965302218E+002
+4.66354792561E+007, +7.45745819505E+001, +4.87270562858E+002
+4.68499284692E+007, +7.46801097481E+001, +4.89393443115E+002
+4.70643776824E+007, +7.46593031037E+001, +4.92329990932E+002
+4.72788268956E+007, +7.53146259465E+001, +4.95217473442E+002
+4.74932761087E+007, +7.63538153500E+001, +4.98221214182E+002
+4.77077253219E+007, +7.56855305517E+001, +5.02425791669E+002
+4.79221745351E+007, +7.64514263880E+001, +5.03115130696E+002
+4.81366237482E+007, +7.71951209359E+001, +5.07517132850E+002
+4.83510729614E+007, +7.73923780825E+001, +5.09971584164E+002
+4.85655221745E+007, +7.74032801413E+001, +5.13911448515E+002
+4.87799713877E+007, +7.71205289629E+001, +5.17569827612E+002
+4.89944206009E+007, +7.71492532738E+001, +5.20221628564E+002
+4.92088698140E+007, +7.91031698531E+001, +5.21877574012E+002
+4.94233190272E+007, +8.05293315867E+001, +5.24722416579E+002
+4.96377682403E+007, +8.12354985940E+001, +5.29598288792E+002
+4.98522174535E+007, +7.92755137017E+001, +5.33513119817E+002
+5.00666666667E+007, +7.94684610277E+001, +5.33950778683E+002
+5.02811158798E+007, +8.04831668785E+001, +5.38803329145E+002
+5.04955650930E+007, +7.92306666332E+001, +5.41447233428E+002
+5.07100143062E+007, +8.19915439418E+001, +5.45663089992E+002
+5.09244635193E+007, +8.15753403762E+001, +5.47040612984E+002
+5.11389127325E+007, +8.03651089152E+001, +5.50489098786E+002
+5.13533619456E+007, +8.15570958924E+001, +5.52681367798E+002
+5.15678111588E+007, +7.98761991877E+001, +5.56853128468E+002
+5.17822603720E+007, +8.30179919981E+001, +5.60810184506E+002
+5.19967095851E+007, +8.20735378549E+001, +5.63037533562E+002
+5.22111587983E+007, +8.17650751669E+001, +5.67016490189E+002
+5.24256080114E+007, +8.34725521674E+001, +5.70151776756E+002
+5.26400572246E+007, +8.39789440308E+001, +5.73180301850E+002
+5.28545064378E+007, +8.29497431663E+001, +5.77199060885E+002
+5.30689556509E+007, +8.35091042089E+001, +5.82008442411E+002
+5.32834048641E+007, +8.45667857212E+001, +5.84232131675E+002
+5.34978540773E+007, +8.47154156519E+001, +5.85675788787E+002
+5.37123032904E+007, +8.61084982924E+001, +5.92363124409E+002
+5.39267525036E+007, +8.58851639653E+001, +5.94076987153E+002
+5.41412017167E+007, +8.76237438200E+001, +5.98292317065E+002
+5.43556509299E+007, +8.65954553129E+001, +5.99752305880E+002
+5.45701001431E+007, +8.76962298486E+001, +6.05164846622E+002
+5.47845493562E+007, +8.85461445669E+001, +6.06984170584E+002
+5.49989985694E+007, +8.91714459829E+001, +6.10596137989E+002
+5.52134477825E+007, +9.08847831987E+001, +6.12014930494E+002
+5.54278969957E+007, +8.93235929350E+001, +6.18531600040E+002
+5.56423462089E+007, +8.90856084378E+001, +6.22229479877E+002
+5.58567954220E+007, +9.13902521700E+001, +6.24191533249E+002
+5.60712446352E+007, +9.07587311992E+001, +6.28129675527E+002
+5.62856938484E+007, +8.87679072691E+001, +6.32251763826E+002
+5.65001430615E+007, +9.03475702083E+001, +6.35757790728E+002
+5.67145922747E+007, +9.32463023885E+001, +6.39045378020E+002
+5.69290414878E+007, +9.43416252491E+001, +6.42305950895E+002
+5.71434907010E+007, +9.28151327418E+001, +6.45241846608E+002
+5.73579399142E+007, +9.45061793918E+001, +6.52619966965E+002
+5.75723891273E+007, +9.59681679378E+001, +6.52116007451E+002
+5.77868383405E+007, +9.51987066026E+001, +6.59636325982E+002
+5.80012875536E+007, +9.32090472349E+001, +6.62816556811E+002
+5.82157367668E+007, +9.61223587289E+001, +6.67335505435E+002
+5.84301859800E+007, +9.30488133090E+001, +6.69025105299E+002
+5.86446351931E+007, +9.65306251535E+001, +6.74196726749E+002
+5.88590844063E+007, +9.75201311468E+001, +6.79797548750E+002
+5.90735336195E+007, +9.89225180028E+001, +6.81799284468E+002
+5.92879828326E+007, +9.68376941122E+001, +6.85467328360E+002
+5.95024320458E+007, +9.81115618766E+001, +6.89948499632E+002
+5.97168812589E+007, +9.95086177221E+001, +6.90739771131E+002
+5.99313304721E+007, +1.00883014416E+002, +6.98017387209E+002
+6.01457796853E+007, +1.00383182794E+002, +6.99343019373E+002
+6.03602288984E+007, +1.01447447410E+002, +7.01735826152E+002
+6.05746781116E+007, +1.00987616667E+002, +7.08327448846E+002
+6.07891273247E+007, +1.00755008766E+002, +7.14428645111E+002
+6.10035765379E+007, +1.01803613463E+002, +7.13477014955E+002
+6.12180257511E+007, +1.02602784614E+002, +7.19996337690E+002
+6.14324749642E+007, +1.02216690994E+002, +7.24589150310E+002
+6.16469241774E+007, +1.02223886582E+002, +7.29217166138E+002
+6.18613733906E+007, +1.01684082713E+002, +7.33862158276E+002
+6.20758226037E+007, +1.06327127467E+002, +7.37101577035E+002
+6.22902718169E+007, +1.06556059523E+002, +7.39991603816E+002
+6.25047210300E+007, +1.07485202711E+002, +7.48263906896E+002
+6.27191702432E+007, +1.06770546506E+002, +7.48174089163E+002
+6.29336194564E+007, +1.09961394672E+002, +7.54378201073E+002
+6.31480686695E+007, +1.06168719051E+002, +7.60695786983E+002
+6.33625178827E+007, +1.08152201446E+002, +7.67187968212E+002
+6.35769670959E+007, +1.09674412381E+002, +7.69964938541E+002
+6.37914163090E+007, +1.10928058609E+002, +7.72717723556E+002
+6.40058655222E+007, +1.11505167740E+002, +7.79513659227E+002
+6.42203147353E+007, +1.12623407415E+002, +7.82910555741E+002
+6.44347639485E+007, +1.11574175652E+002, +7.85819459806E+002
+6.46492131617E+007, +1.16197481322E+002, +7.92305341995E+002
+6.48636623748E+007, +1.15523331115E+002, +7.97643257298E+002
+6.50781115880E+007, +1.15586087978E+002, +8.03807421188E+002
+6.52925608011E+007, +1.16588762962E+002, +8.07947659770E+002
+6.55070100143E+007, +1.17321125423E+002, +8.11271386358E+002
+6.57214592275E+007, +1.21057741094E+002, +8.15673860169E+002
+6.59359084406E+007, +1.19409698022E+002, +8.21697641796E+002
+6.61503576538E+007, +1.20594444248E+002, +8.27628866249E+002
+6.63648068670E+007, +1.18058381444E+002, +8.29143982849E+002
+6.65792560801E+007, +1.22206662317E+002, +8.37947538394E+002
+6.67937052933E+007, +1.25229173218E+002, +8.41509769740E+002
+6.70081545064E+007, +1.28949440030E+002, +8.48924755500E+002
+6.72226037196E+007, +1.26373501786E+002, +8.50725845163E+002
+6.74370529328E+007, +1.30104697130E+002, +8.57456259134E+002
+6.76515021459E+007, +1.30448630041E+002, +8.62416828644E+002
+6.78659513591E+007, +1.31548273157E+002, +8.67336918008E+002
+6.80804005722E+007, +1.26103161340E+002, +8.74977553280E+002
+6.82948497854E+007, +1.32620693636E+002, +8.81917690934E+002
+6.85092989986E+007, +1.35524329082E+002, +8.84405551895E+002
+6.87237482117E+007, +1.34008615073E+002, +8.91066899590E+002
