"# Channel 1"
"# Trace 1"
Frequency, Formatted Data, Formatted Data
+1.00000000000E+005, +5.13006074273E+000, +9.45961668879E-001
+2.66777963272E+005, +5.12956991742E+000, +2.52074529305E+000
+4.33555926544E+005, +5.11271401109E+000, +4.12640824355E+000
+6.00333889816E+005, +5.14897907587E+000, +5.67216813090E+000
+7.67111853088E+005, +5.14643422416E+000, +7.27426421305E+000
+9.33889816361E+005, +5.15283487536E+000, +8.81830820199E+000
+1.10066777963E+006, +5.12252652811E+000, +1.03803872056E+001
+1.26744574290E+006, +5.16893618383E+000, +1.19543904168E+001
+1.43422370618E+006, +5.10472976027E+000, +1.35411332130E+001
+1.60100166945E+006, +5.18792994711E+000, +1.50796893516E+001
+1.76777963272E+006, +5.18428461018E+000, +1.66564853533E+001
+1.93455759599E+006, +5.19884548960E+000, +1.81611502338E+001
+2.10133555927E+006, +5.19904572819E+000, +1.97356261445E+001
+2.26811352254E+006, +5.22651790479E+000, +2.13093113738E+001
+2.43489148581E+006, +5.20876712931E+000, +2.29059675808E+001
+2.60166944908E+006, +5.23790590372E+000, +2.44279676060E+001
+2.76844741235E+006, +5.20249206273E+000, +2.60015284698E+001
+2.93522537563E+006, +5.20984793374E+000, +2.75797811107E+001
+3.10200333890E+006, +5.28421691988E+000, +2.91451727084E+001
+3.26878130217E+006, +5.21713098057E+000, +3.07283553257E+001
+3.43555926544E+006, +5.25765907565E+000, +3.22706764958E+001
+3.60233722871E+006, +5.31324253651E+000, +3.38438780023E+001
+3.76911519199E+006, +5.28530905629E+000, +3.54438073019E+001
+3.93589315526E+006, +5.24352647586E+000, +3.69169998995E+001
+4.10267111853E+006, +5.21523616706E+000, +3.85336552465E+001
+4.26944908180E+006, +5.26157724106E+000, +4.02479175618E+001
+4.43622704508E+006, +5.33641885919E+000, +4.16792851730E+001
+4.60300500835E+006, +5.34158584131E+000, +4.33006628469E+001
+4.76978297162E+006, +5.33816617429E+000, +4.47976128810E+001
+4.93656093489E+006, +5.40411078421E+000, +4.64807188449E+001
+5.10333889816E+006, +5.43674789864E+000, +4.79468867176E+001
+5.27011686144E+006, +5.48155385855E+000, +4.96537577035E+001
+5.43689482471E+006, +5.39553804873E+000, +5.12074035289E+001
+5.60367278798E+006, +5.42260739064E+000, +5.28051747630E+001
+5.77045075125E+006, +5.38125970887E+000, +5.42940590441E+001
+5.93722871452E+006, +5.54995531053E+000, +5.59212536418E+001
+6.10400667780E+006, +5.51900144124E+000, +5.75164622521E+001
+6.27078464107E+006, +5.58461577572E+000, +5.90507272530E+001
+6.43756260434E+006, +5.61549610234E+000, +6.06935877912E+001
+6.60434056761E+006, +5.63136204965E+000, +6.22458054658E+001
+6.77111853088E+006, +5.71401617140E+000, +6.38153489290E+001
+6.93789649416E+006, +5.68533448852E+000, +6.54138370219E+001
+7.10467445743E+006, +5.66017070746E+000, +6.69599527181E+001
+7.27145242070E+006, +5.76249817106E+000, +6.85479012708E+001
+7.43823038397E+006, +5.76739662115E+000, +7.01053721519E+001
+7.60500834725E+006, +5.74302127378E+000, +7.17009692157E+001
+7.77178631052E+006, +5.81431772325E+000, +7.33759618800E+001
+7.93856427379E+006, +5.83284687460E+000, +7.48628046376E+001
+8.10534223706E+006, +5.82493070950E+000, +7.64367573569E+001
+8.27212020033E+006, +5.85956636878E+000, +7.80317051782E+001
+8.43889816361E+006, +5.85882698318E+000, +7.96621287715E+001
+8.60567612688E+006, +5.78554769196E+000, +8.12481684765E+001
+8.77245409015E+006, +5.85863441658E+000, +8.28068660396E+001
+8.93923205342E+006, +5.90293948423E+000, +8.44184162398E+001
+9.10601001669E+006, +5.91910248809E+000, +8.60442764449E+001
+9.27278797997E+006, +5.93130960278E+000, +8.76261475902E+001
+9.43956594324E+006, +5.97242483690E+000, +8.92218795986E+001
+9.60634390651E+006, +5.93884622717E+000, +9.08423080713E+001
+9.77312186978E+006, +5.98850921847E+000, +9.23925418945E+001
+9.93989983306E+006, +6.02347479251E+000, +9.41274995967E+001
+1.01066777963E+007, +6.00941882377E+000, +9.56616423560E+001
+1.02734557596E+007, +6.00757741929E+000, +9.73238143356E+001
+1.04402337229E+007, +6.06750802240E+000, +9.89091490248E+001
+1.06070116861E+007, +6.00950879865E+000, +1.00484350474E+002
+1.07737896494E+007, +6.05035628724E+000, +1.02145967467E+002
+1.09405676127E+007, +6.12281266241E+000, +1.03792694063E+002
+1.11073455760E+007, +6.15315946470E+000, +1.05436079250E+002
+1.12741235392E+007, +6.12870923183E+000, +1.06997470179E+002
+1.14409015025E+007, +6.18095972709E+000, +1.08681428434E+002
+1.16076794658E+007, +6.30089267341E+000, +1.10247847549E+002
+1.17744574290E+007, +6.33435465663E+000, +1.11985986162E+002
+1.19412353923E+007, +6.22172029508E+000, +1.13550533150E+002
+1.21080133556E+007, +6.10890544321E+000, +1.15240620016E+002
+1.22747913189E+007, +6.28387005666E+000, +1.16928453495E+002
+1.24415692821E+007, +6.27471174481E+000, +1.18443365597E+002
+1.26083472454E+007, +6.25422927497E+000, +1.20167710328E+002
+1.27751252087E+007, +6.33200502678E+000, +1.21712891514E+002
+1.29419031720E+007, +6.30701534584E+000, +1.23365362122E+002
+1.31086811352E+007, +6.40706569317E+000, +1.25086049446E+002
+1.32754590985E+007, +6.40458404626E+000, +1.26725311462E+002
+1.34422370618E+007, +6.39323791956E+000, +1.28421258941E+002
+1.36090150250E+007, +6.57915644862E+000, +1.30019541523E+002
+1.37757929883E+007, +6.51621445324E+000, +1.31734031128E+002
+1.39425709516E+007, +6.51623848881E+000, +1.33327836438E+002
+1.41093489149E+007, +6.65563257320E+000, +1.34900209705E+002
+1.42761268781E+007, +6.64554952267E+000, +1.36633383772E+002
+1.44429048414E+007, +6.66431895563E+000, +1.38305817746E+002
+1.46096828047E+007, +6.70456047994E+000, +1.40003236367E+002
+1.47764607679E+007, +6.81863486441E+000, +1.41735905810E+002
+1.49432387312E+007, +6.78882046266E+000, +1.43347755160E+002
+1.51100166945E+007, +6.70581241305E+000, +1.45079998264E+002
+1.52767946578E+007, +6.83525738539E+000, +1.46738738687E+002
+1.54435726210E+007, +6.81184005194E+000, +1.48375580029E+002
+1.56103505843E+007, +7.02095900512E+000, +1.50008104628E+002
+1.57771285476E+007, +6.85065429770E+000, +1.51713259210E+002
+1.59439065109E+007, +6.91597009878E+000, +1.53500308509E+002
+1.61106844741E+007, +6.89017680498E+000, +1.55174619871E+002
+1.62774624374E+007, +6.98415051612E+000, +1.56852870211E+002
+1.64442404007E+007, +7.02561050368E+000, +1.58547663853E+002
+1.66110183639E+007, +7.09296511187E+000, +1.60241333634E+002
+1.67777963272E+007, +7.15074660028E+000, +1.62078520047E+002
+1.69445742905E+007, +7.14013065904E+000, +1.63721145168E+002
+1.71113522538E+007, +6.76021870477E+000, +1.65178713367E+002
+1.72781302170E+007, +7.13739370382E+000, +1.67114430571E+002
+1.74449081803E+007, +7.20659713508E+000, +1.68827049202E+002
+1.76116861436E+007, +7.30111882837E+000, +1.70608564209E+002
+1.77784641068E+007, +7.29804864656E+000, +1.72201912979E+002
+1.79452420701E+007, +7.29258767279E+000, +1.73997868627E+002
+1.81120200334E+007, +7.38328133722E+000, +1.75811279829E+002
+1.82787979967E+007, +7.44630342492E+000, +1.77469484431E+002
+1.84455759599E+007, +7.40381585029E+000, +1.79389220066E+002
+1.86123539232E+007, +7.60773963517E+000, +1.80978227665E+002
+1.87791318865E+007, +7.61900824805E+000, +1.82938656552E+002
+1.89459098497E+007, +7.54256625935E+000, +1.84482479721E+002
+1.91126878130E+007, +7.57759879381E+000, +1.86339506579E+002
+1.92794657763E+007, +7.60045345396E+000, +1.87911139004E+002
+1.94462437396E+007, +7.61453275387E+000, +1.90021529942E+002
+1.96130217028E+007, +7.73026812273E+000, +1.91661668349E+002
+1.97797996661E+007, +7.64828270193E+000, +1.93392588940E+002
+1.99465776294E+007, +7.56072354749E+000, +1.95026433665E+002
+2.01133555927E+007, +7.72856658915E+000, +1.96852237534E+002
+2.02801335559E+007, +7.67012307464E+000, +1.98866851873E+002
+2.04469115192E+007, +8.00391679729E+000, +2.00734015407E+002
+2.06136894825E+007, +7.98777065220E+000, +2.02276512944E+002
+2.07804674457E+007, +7.99956608523E+000, +2.04451356953E+002
+2.09472454090E+007, +7.82539571424E+000, +2.06190726736E+002
+2.11140233723E+007, +8.14788685950E+000, +2.07812335187E+002
+2.12808013356E+007, +8.46133306104E+000, +2.09535074673E+002
+2.14475792988E+007, +8.07044928334E+000, +2.11559417928E+002
+2.16143572621E+007, +8.38161087067E+000, +2.13295845819E+002
+2.17811352254E+007, +8.21860820031E+000, +2.14913556903E+002
+2.19479131886E+007, +8.64495354580E+000, +2.16997452377E+002
+2.21146911519E+007, +8.63316521629E+000, +2.18576032847E+002
+2.22814691152E+007, +8.32942661422E+000, +2.20512948349E+002
+2.24482470785E+007, +8.58392622088E+000, +2.22806557124E+002
+2.26150250417E+007, +8.91037676864E+000, +2.24403786516E+002
+2.27818030050E+007, +8.65764872063E+000, +2.26459043308E+002
+2.29485809683E+007, +9.24854369050E+000, +2.27941272715E+002
+2.31153589316E+007, +8.63706869591E+000, +2.30346222779E+002
+2.32821368948E+007, +9.09612294910E+000, +2.32146835002E+002
+2.34489148581E+007, +9.22030609898E+000, +2.33487796050E+002
+2.36156928214E+007, +9.21581819046E+000, +2.35732615419E+002
+2.37824707846E+007, +9.34007355325E+000, +2.37434267880E+002
+2.39492487479E+007, +9.25153123671E+000, +2.39386925683E+002
+2.41160267112E+007, +8.98164350606E+000, +2.41328574939E+002
+2.42828046745E+007, +9.18820207025E+000, +2.43030498210E+002
+2.44495826377E+007, +9.26816882303E+000, +2.45287113257E+002
+2.46163606010E+007, +9.50941875221E+000, +2.47009030745E+002
+2.47831385643E+007, +9.56328958163E+000, +2.48934317714E+002
+2.49499165275E+007, +9.72570204747E+000, +2.50861284271E+002
+2.51166944908E+007, +1.04244568525E+001, +2.52758524956E+002
+2.52834724541E+007, +9.96747009680E+000, +2.54777648771E+002
+2.54502504174E+007, +1.02461815299E+001, +2.56850276211E+002
+2.56170283806E+007, +1.00403799728E+001, +2.58548638537E+002
+2.57838063439E+007, +1.01852557400E+001, +2.60868485871E+002
+2.59505843072E+007, +1.02805162755E+001, +2.62614652182E+002
+2.61173622705E+007, +1.04104794972E+001, +2.64912641191E+002
+2.62841402337E+007, +1.05748484911E+001, +2.66871757375E+002
+2.64509181970E+007, +1.02161013308E+001, +2.68493097297E+002
+2.66176961603E+007, +1.02223058217E+001, +2.71080774768E+002
+2.67844741235E+007, +1.06202029579E+001, +2.72395174582E+002
+2.69512520868E+007, +1.10245093492E+001, +2.74592234289E+002
+2.71180300501E+007, +1.09087733580E+001, +2.76015092011E+002
+2.72848080134E+007, +1.13842564946E+001, +2.78649735078E+002
+2.74515859766E+007, +1.14241364734E+001, +2.80361494504E+002
+2.76183639399E+007, +1.11335947101E+001, +2.82094241174E+002
+2.77851419032E+007, +1.10800852294E+001, +2.84066688030E+002
+2.79519198664E+007, +1.14610558564E+001, +2.86566443723E+002
+2.81186978297E+007, +1.13495199848E+001, +2.88233200179E+002
+2.82854757930E+007, +1.12971458547E+001, +2.90316111758E+002
+2.84522537563E+007, +1.08954643048E+001, +2.92309113196E+002
+2.86190317195E+007, +1.13398371347E+001, +2.94188757723E+002
+2.87858096828E+007, +1.16651611512E+001, +2.96254432660E+002
+2.89525876461E+007, +1.18022569964E+001, +2.98496715778E+002
+2.91193656093E+007, +1.12044458862E+001, +3.00384191305E+002
+2.92861435726E+007, +1.09051171683E+001, +3.02314042734E+002
+2.94529215359E+007, +1.15989883881E+001, +3.04257963356E+002
+2.96196994992E+007, +1.20545503199E+001, +3.06855251758E+002
+2.97864774624E+007, +1.22767399942E+001, +3.08880811175E+002
+2.99532554257E+007, +1.20198886945E+001, +3.11573995925E+002
+3.01200333890E+007, +1.21376838505E+001, +3.13355675661E+002
+3.02868113523E+007, +1.17582111769E+001, +3.15032000443E+002
+3.04535893155E+007, +1.19833703056E+001, +3.17842175830E+002
+3.06203672788E+007, +1.25276736664E+001, +3.19861333466E+002
+3.07871452421E+007, +1.16902077010E+001, +3.21881825824E+002
+3.09539232053E+007, +1.23807431098E+001, +3.23561478247E+002
+3.11207011686E+007, +1.21551009979E+001, +3.26638083650E+002
+3.12874791319E+007, +1.25563194396E+001, +3.27936181625E+002
+3.14542570952E+007, +1.20790385103E+001, +3.30671431160E+002
+3.16210350584E+007, +1.22589538638E+001, +3.32676798156E+002
+3.17878130217E+007, +1.23285717945E+001, +3.35423370960E+002
+3.19545909850E+007, +1.26241995818E+001, +3.37295458161E+002
+3.21213689482E+007, +1.19856006431E+001, +3.39976352292E+002
+3.22881469115E+007, +1.23274762285E+001, +3.42005293512E+002
+3.24549248748E+007, +1.24173704605E+001, +3.44598418646E+002
+3.26217028381E+007, +1.16413467529E+001, +3.46744537388E+002
+3.27884808013E+007, +1.24847334378E+001, +3.48784148513E+002
+3.29552587646E+007, +1.22285870828E+001, +3.51219840516E+002
+3.31220367279E+007, +1.28221217086E+001, +3.53625927845E+002
+3.32888146912E+007, +1.25623596901E+001, +3.56252447932E+002
+3.34555926544E+007, +1.19532594385E+001, +3.57959016435E+002
+3.36223706177E+007, +1.31146910168E+001, +3.60694536065E+002
+3.37891485810E+007, +1.27453064721E+001, +3.61918339907E+002
+3.39559265442E+007, +1.32487502126E+001, +3.65767317288E+002
+3.41227045075E+007, +1.27039926198E+001, +3.67124973091E+002
+3.42894824708E+007, +1.25407285639E+001, +3.69900826468E+002
+3.44562604341E+007, +1.29056381106E+001, +3.72549796144E+002
+3.46230383973E+007, +1.31866101925E+001, +3.75329766041E+002
+3.47898163606E+007, +1.31966376942E+001, +3.77030156755E+002
+3.49565943239E+007, +1.38857639784E+001, +3.80277051411E+002
+3.51233722871E+007, +1.32168861943E+001, +3.82876971845E+002
+3.52901502504E+007, +1.34880492171E+001, +3.84655408160E+002
+3.54569282137E+007, +1.35372794426E+001, +3.87162391910E+002
+3.56237061770E+007, +1.29163367508E+001, +3.90040854436E+002
+3.57904841402E+007, +1.35684890082E+001, +3.92338352821E+002
+3.59572621035E+007, +1.36120776750E+001, +3.94602087989E+002
+3.61240400668E+007, +1.35847448275E+001, +3.97607355033E+002
+3.62908180301E+007, +1.42512745251E+001, +4.00666799989E+002
+3.64575959933E+007, +1.34052258523E+001, +4.02846306713E+002
+3.66243739566E+007, +1.39035778411E+001, +4.05054404374E+002
+3.67911519199E+007, +1.45952486624E+001, +4.08262268152E+002
+3.69579298831E+007, +1.45025389560E+001, +4.10952669191E+002
+3.71247078464E+007, +1.36462757921E+001, +4.13355337419E+002
+3.72914858097E+007, +1.33185427137E+001, +4.16567403202E+002
+3.74582637730E+007, +1.47860901069E+001, +4.19371044548E+002
+3.76250417362E+007, +1.37082309091E+001, +4.21770847057E+002
+3.77918196995E+007, +1.42880941822E+001, +4.24586785259E+002
+3.79585976628E+007, +1.48854556516E+001, +4.26369294681E+002
+3.81253756260E+007, +1.59077516419E+001, +4.29612440805E+002
+3.82921535893E+007, +1.52356435366E+001, +4.32343480192E+002
+3.84589315526E+007, +1.55769337077E+001, +4.34769919592E+002
+3.86257095159E+007, +1.51339584811E+001, +4.37938233143E+002
+3.87924874791E+007, +1.50876503029E+001, +4.40672162377E+002
+3.89592654424E+007, +1.55703353436E+001, +4.43382455503E+002
+3.91260434057E+007, +1.54843504833E+001, +4.46776569474E+002
+3.92928213689E+007, +1.57806109433E+001, +4.48745928521E+002
+3.94595993322E+007, +1.53611692296E+001, +4.51995219317E+002
+3.96263772955E+007, +1.49193043204E+001, +4.55877428836E+002
+3.97931552588E+007, +1.57002155669E+001, +4.58378505071E+002
+3.99599332220E+007, +1.63947655935E+001, +4.61474852469E+002
+4.01267111853E+007, +1.58148051075E+001, +4.64529599397E+002
+4.02934891486E+007, +1.64072324126E+001, +4.67219877827E+002
+4.04602671119E+007, +1.63227330098E+001, +4.70263464553E+002
+4.06270450751E+007, +1.70227895018E+001, +4.73183722042E+002
+4.07938230384E+007, +1.67050427878E+001, +4.76984945967E+002
+4.09606010017E+007, +1.74037177047E+001, +4.79614822283E+002
+4.11273789649E+007, +1.70424642523E+001, +4.82062120787E+002
+4.12941569282E+007, +1.66278307586E+001, +4.85614868039E+002
+4.14609348915E+007, +1.69301450122E+001, +4.90723998854E+002
+4.16277128548E+007, +1.81924186422E+001, +4.91362122985E+002
+4.17944908180E+007, +1.74509203934E+001, +4.95026371480E+002
+4.19612687813E+007, +1.74541723671E+001, +4.98341367841E+002
+4.21280467446E+007, +1.72346216730E+001, +5.01356639105E+002
+4.22948247078E+007, +1.75853683986E+001, +5.04946981968E+002
+4.24616026711E+007, +1.91766555845E+001, +5.07580611530E+002
+4.26283806344E+007, +1.91736739854E+001, +5.11664540236E+002
+4.27951585977E+007, +1.62759226420E+001, +5.15477062073E+002
+4.29619365609E+007, +1.95286436250E+001, +5.18851133679E+002
+4.31287145242E+007, +1.88222883252E+001, +5.21806361386E+002
+4.32954924875E+007, +1.83153863168E+001, +5.25326638695E+002
+4.34622704508E+007, +1.83081517784E+001, +5.30159040382E+002
+4.36290484140E+007, +1.94873287999E+001, +5.31718286006E+002
+4.37958263773E+007, +1.79397321216E+001, +5.36497634448E+002
+4.39626043406E+007, +2.06016303206E+001, +5.39127474453E+002
+4.41293823038E+007, +2.10054606323E+001, +5.43968168107E+002
+4.42961602671E+007, +1.91351432165E+001, +5.46701116405E+002
+4.44629382304E+007, +1.89081051819E+001, +5.51358826515E+002
+4.46297161937E+007, +2.09540596538E+001, +5.53247892492E+002
+4.47964941569E+007, +1.97891577892E+001, +5.57649530095E+002
+4.49632721202E+007, +2.04012789803E+001, +5.62072389350E+002
+4.51300500835E+007, +2.15210672106E+001, +5.65115039698E+002
+4.52968280467E+007, +2.13178315433E+001, +5.70141376886E+002
+4.54636060100E+007, +2.16933596670E+001, +5.75192449682E+002
+4.56303839733E+007, +2.07454502445E+001, +5.78687613959E+002
+4.57971619366E+007, +2.06515508914E+001, +5.82439460768E+002
+4.59639398998E+007, +2.02523638993E+001, +5.86976603320E+002
+4.61307178631E+007, +2.15352418471E+001, +5.89209295645E+002
+4.62974958264E+007, +2.33130939099E+001, +5.93594198435E+002
+4.64642737896E+007, +2.15411004454E+001, +5.97323787916E+002
+4.66310517529E+007, +2.13244320610E+001, +6.01603743735E+002
+4.67978297162E+007, +2.44160367793E+001, +6.05503748390E+002
+4.69646076795E+007, +2.18077293773E+001, +6.12468888559E+002
+4.71313856427E+007, +2.29659061313E+001, +6.14354781581E+002
+4.72981636060E+007, +2.41401302725E+001, +6.20849697653E+002
+4.74649415693E+007, +2.17897615108E+001, +6.23016200582E+002
+4.76317195326E+007, +2.59402367485E+001, +6.28639700712E+002
+4.77984974958E+007, +2.56811819638E+001, +6.32529480074E+002
+4.79652754591E+007, +2.45848168954E+001, +6.36685968597E+002
+4.81320534224E+007, +2.62393287169E+001, +6.41195603233E+002
+4.82988313856E+007, +2.62628257010E+001, +6.46284583301E+002
+4.84656093489E+007, +2.71574599613E+001, +6.51757649812E+002
+4.86323873122E+007, +2.83032914199E+001, +6.53490293639E+002
+4.87991652755E+007, +2.78774897218E+001, +6.60767590460E+002
+4.89659432387E+007, +2.82733560738E+001, +6.64368071419E+002
+4.91327212020E+007, +2.83753749249E+001, +6.70438249415E+002
+4.92994991653E+007, +3.09842094488E+001, +6.72961678130E+002
+4.94662771285E+007, +2.95402797326E+001, +6.79894844520E+002
+4.96330550918E+007, +3.29323706013E+001, +6.84456484611E+002
+4.97998330551E+007, +3.41776931958E+001, +6.88039326080E+002
+4.99666110184E+007, +3.44106723164E+001, +6.93267106225E+002
+5.01333889816E+007, +3.35131201456E+001, +6.99031675937E+002
+5.03001669449E+007, +3.15012820247E+001, +7.04311604587E+002
+5.04669449082E+007, +3.50877676321E+001, +7.10084973382E+002
+5.06337228715E+007, +3.77619651585E+001, +7.15030579565E+002
+5.08005008347E+007, +3.33655904258E+001, +7.18521760613E+002
+5.09672787980E+007, +3.66614368835E+001, +7.25328965545E+002
+5.11340567613E+007, +3.65759287605E+001, +7.29749382893E+002
+5.13008347245E+007, +3.38473838207E+001, +7.33948524349E+002
+5.14676126878E+007, +3.53327236115E+001, +7.42858347919E+002
+5.16343906511E+007, +4.02674562345E+001, +7.48050055105E+002
+5.18011686144E+007, +3.68309740428E+001, +7.52623106522E+002
+5.19679465776E+007, +3.86497762672E+001, +7.58564545570E+002
+5.21347245409E+007, +3.96813292869E+001, +7.65913058962E+002
+5.23015025042E+007, +4.07797088514E+001, +7.72503515536E+002
+5.24682804674E+007, +3.76369132087E+001, +7.79476496880E+002
+5.26350584307E+007, +3.94431472480E+001, +7.87514634029E+002
+5.28018363940E+007, +3.97934030621E+001, +7.91749293620E+002
+5.29686143573E+007, +4.17159885550E+001, +7.97964335295E+002
+5.31353923205E+007, +4.23658833888E+001, +8.01803361433E+002
+5.33021702838E+007, +4.23141851637E+001, +8.08983012126E+002
+5.34689482471E+007, +4.56195510157E+001, +8.20397648397E+002
