"# Channel 1"
"# Trace 1"
Frequency, Formatted Data, Formatted Data
+1.00000000000E+005, +4.60593112720E-001, +1.07623988805E+000
+2.66777963272E+005, +4.59870644077E-001, +2.84126113133E+000
+4.33555926544E+005, +4.73555444314E-001, +4.63229586143E+000
+6.00333889816E+005, +5.31126322574E-001, +6.36567088538E+000
+7.67111853088E+005, +5.55173653583E-001, +8.15554189165E+000
+9.33889816361E+005, +5.59752027550E-001, +9.88164345042E+000
+1.10066777963E+006, +5.50987502562E-001, +1.16290376344E+001
+1.26744574290E+006, +6.11759531694E-001, +1.33663451773E+001
+1.43422370618E+006, +5.80977240843E-001, +1.51175483274E+001
+1.60100166945E+006, +6.92841845936E-001, +1.68245286581E+001
+1.76777963272E+006, +6.83276621893E-001, +1.85612148543E+001
+1.93455759599E+006, +7.20236668896E-001, +2.02345323511E+001
+2.10133555927E+006, +7.40959091054E-001, +2.19702735564E+001
+2.26811352254E+006, +7.97390718644E-001, +2.37174174110E+001
+2.43489148581E+006, +7.68951689972E-001, +2.54437556566E+001
+2.60166944908E+006, +8.25387328576E-001, +2.71453078012E+001
+2.76844741235E+006, +7.92000456475E-001, +2.88938684445E+001
+2.93522537563E+006, +8.25905853404E-001, +3.05774141894E+001
+3.10200333890E+006, +9.12054041573E-001, +3.22995129690E+001
+3.26878130217E+006, +8.08284932011E-001, +3.40266253377E+001
+3.43555926544E+006, +8.58814503454E-001, +3.57506576492E+001
+3.60233722871E+006, +9.23651001191E-001, +3.74988003062E+001
+3.76911519199E+006, +8.47669445381E-001, +3.92641788860E+001
+3.93589315526E+006, +8.45516496816E-001, +4.09001605856E+001
+4.10267111853E+006, +8.71092337973E-001, +4.27514887761E+001
+4.26944908180E+006, +8.94424059399E-001, +4.44742459631E+001
+4.43622704508E+006, +9.20949758183E-001, +4.61139196077E+001
+4.60300500835E+006, +9.06330284356E-001, +4.78895782957E+001
+4.76978297162E+006, +9.50237907831E-001, +4.95902372199E+001
+4.93656093489E+006, +1.01341177354E+000, +5.13721773252E+001
+5.10333889816E+006, +1.00228377608E+000, +5.30136797268E+001
+5.27011686144E+006, +1.08465320035E+000, +5.49046115228E+001
+5.43689482471E+006, +9.75917876235E-001, +5.65610748501E+001
+5.60367278798E+006, +9.60683386787E-001, +5.83974426114E+001
+5.77045075125E+006, +9.60221754739E-001, +6.00185942801E+001
+5.93722871452E+006, +1.06614611416E+000, +6.18073134561E+001
+6.10400667780E+006, +1.03098183349E+000, +6.35230833412E+001
+6.27078464107E+006, +1.12911376441E+000, +6.52876639398E+001
+6.43756260434E+006, +1.14284250959E+000, +6.70417767285E+001
+6.60434056761E+006, +1.11664167435E+000, +6.88141461412E+001
+6.77111853088E+006, +1.20344086991E+000, +7.05113828471E+001
+6.93789649416E+006, +1.15449500258E+000, +7.22878010413E+001
+7.10467445743E+006, +1.12684248425E+000, +7.39900968554E+001
+7.27145242070E+006, +1.19928202198E+000, +7.57494479761E+001
+7.43823038397E+006, +1.25900481097E+000, +7.74841015788E+001
+7.60500834725E+006, +1.21450713298E+000, +7.92324041563E+001
+7.77178631052E+006, +1.23975112402E+000, +8.10648383803E+001
+7.93856427379E+006, +1.28301472089E+000, +8.27216771159E+001
+8.10534223706E+006, +1.27493282907E+000, +8.44685616987E+001
+8.27212020033E+006, +1.28863121313E+000, +8.62315427487E+001
+8.43889816361E+006, +1.21769127002E+000, +8.79736051811E+001
+8.60567612688E+006, +1.21946890873E+000, +8.97687588407E+001
+8.77245409015E+006, +1.17778727111E+000, +9.14393144824E+001
+8.93923205342E+006, +1.22604941992E+000, +9.32425263639E+001
+9.10601001669E+006, +1.28953295121E+000, +9.50595880786E+001
+9.27278797997E+006, +1.22607208837E+000, +9.67468618627E+001
+9.43956594324E+006, +1.25851828164E+000, +9.85649363671E+001
+9.60634390651E+006, +1.22394479111E+000, +1.00335257739E+002
+9.77312186978E+006, +1.21759228634E+000, +1.02051088562E+002
+9.93989983306E+006, +1.30309370367E+000, +1.03932880463E+002
+1.01066777963E+007, +1.14598836781E+000, +1.05636226878E+002
+1.02734557596E+007, +1.20366494138E+000, +1.07476901844E+002
+1.04402337229E+007, +1.22524411041E+000, +1.09206911500E+002
+1.06070116861E+007, +1.20576972686E+000, +1.10987129498E+002
+1.07737896494E+007, +1.22520604557E+000, +1.12826220886E+002
+1.09405676127E+007, +1.33066990139E+000, +1.14570197339E+002
+1.11073455760E+007, +1.22157929782E+000, +1.16412743859E+002
+1.12741235392E+007, +1.27731911998E+000, +1.18151490469E+002
+1.14409015025E+007, +1.29055150994E+000, +1.19931701346E+002
+1.16076794658E+007, +1.34832452867E+000, +1.21732455670E+002
+1.17744574290E+007, +1.33866080762E+000, +1.23623199181E+002
+1.19412353923E+007, +1.25950042876E+000, +1.25370012492E+002
+1.21080133556E+007, +1.14082125506E+000, +1.27306346050E+002
+1.22747913189E+007, +1.26704366214E+000, +1.29104724997E+002
+1.24415692821E+007, +1.18757964611E+000, +1.30723074622E+002
+1.26083472454E+007, +1.19302390402E+000, +1.32629555526E+002
+1.27751252087E+007, +1.19856545245E+000, +1.34396149841E+002
+1.29419031720E+007, +1.23597250059E+000, +1.36174473169E+002
+1.31086811352E+007, +1.31859307445E+000, +1.38105076047E+002
+1.32754590985E+007, +1.24733109830E+000, +1.39884497142E+002
+1.34422370618E+007, +1.20326309081E+000, +1.41689337927E+002
+1.36090150250E+007, +1.40529206635E+000, +1.43595803603E+002
+1.37757929883E+007, +1.29275739673E+000, +1.45344137117E+002
+1.39425709516E+007, +1.36010933337E+000, +1.47226092341E+002
+1.41093489149E+007, +1.32215385602E+000, +1.49004404272E+002
+1.42761268781E+007, +1.42522089557E+000, +1.50934634593E+002
+1.44429048414E+007, +1.38853137462E+000, +1.52578515617E+002
+1.46096828047E+007, +1.33177921975E+000, +1.54702779891E+002
+1.47764607679E+007, +1.31516268628E+000, +1.56273510167E+002
+1.49432387312E+007, +1.23855552600E+000, +1.58277921847E+002
+1.51100166945E+007, +1.24102802292E+000, +1.60061377999E+002
+1.52767946578E+007, +1.37742777381E+000, +1.61843768774E+002
+1.54435726210E+007, +1.39485942645E+000, +1.63882181373E+002
+1.56103505843E+007, +1.47012483718E+000, +1.65783745133E+002
+1.57771285476E+007, +1.35616355054E+000, +1.67543097954E+002
+1.59439065109E+007, +1.34803262584E+000, +1.69540217313E+002
+1.61106844741E+007, +1.21520435046E+000, +1.71425216813E+002
+1.62774624374E+007, +1.41609380288E+000, +1.73244031006E+002
+1.64442404007E+007, +1.34720542974E+000, +1.75224158013E+002
+1.66110183639E+007, +1.40806229426E+000, +1.77116165436E+002
+1.67777963272E+007, +1.36156020901E+000, +1.79073751435E+002
+1.69445742905E+007, +1.35385782517E+000, +1.80801036086E+002
+1.71113522538E+007, +1.07764704041E+000, +1.82516950172E+002
+1.72781302170E+007, +1.24295400943E+000, +1.84783918264E+002
+1.74449081803E+007, +1.22789669522E+000, +1.86428234516E+002
+1.76116861436E+007, +1.33944176582E+000, +1.88668922525E+002
+1.77784641068E+007, +1.19854281115E+000, +1.90257551928E+002
+1.79452420701E+007, +1.43530299467E+000, +1.92415445086E+002
+1.81120200334E+007, +1.35196878610E+000, +1.94038733829E+002
+1.82787979967E+007, +1.59304378118E+000, +1.96167661004E+002
+1.84455759599E+007, +1.43241436409E+000, +1.98011416236E+002
+1.86123539232E+007, +1.72083051242E+000, +2.00029098306E+002
+1.87791318865E+007, +1.44259509078E+000, +2.01981267373E+002
+1.89459098497E+007, +1.29839967667E+000, +2.04059724545E+002
+1.91126878130E+007, +1.43999460446E+000, +2.05965962299E+002
+1.92794657763E+007, +1.65082305292E+000, +2.07619975025E+002
+1.94462437396E+007, +1.60326502530E+000, +2.09870373958E+002
+1.96130217028E+007, +1.48259458173E+000, +2.11880276590E+002
+1.97797996661E+007, +1.42934598437E+000, +2.13676104643E+002
+1.99465776294E+007, +1.28303465011E+000, +2.15497275203E+002
+2.01133555927E+007, +1.40550239870E+000, +2.17693386034E+002
+2.02801335559E+007, +1.44869736148E+000, +2.19720718959E+002
+2.04469115192E+007, +1.75215931353E+000, +2.21790820026E+002
+2.06136894825E+007, +1.37201838169E+000, +2.23866613769E+002
+2.07804674457E+007, +1.75026580712E+000, +2.26006167461E+002
+2.09472454090E+007, +1.55177600884E+000, +2.27828387642E+002
+2.11140233723E+007, +1.84962244606E+000, +2.29750064722E+002
+2.12808013356E+007, +1.72461147447E+000, +2.31729677666E+002
+2.14475792988E+007, +1.63830816855E+000, +2.33557462792E+002
+2.16143572621E+007, +2.08635880738E+000, +2.35893652593E+002
+2.17811352254E+007, +1.67609842197E+000, +2.37561602833E+002
+2.19479131886E+007, +2.01609814436E+000, +2.39942261868E+002
+2.21146911519E+007, +2.34970808533E+000, +2.41759778427E+002
+2.22814691152E+007, +1.89027966746E+000, +2.43778253295E+002
+2.24482470785E+007, +1.89431305801E+000, +2.46005032800E+002
+2.26150250417E+007, +2.36297703226E+000, +2.48174200811E+002
+2.27818030050E+007, +2.01286600668E+000, +2.49832163653E+002
+2.29485809683E+007, +2.56859078946E+000, +2.52229161264E+002
+2.31153589316E+007, +2.02040906752E+000, +2.54302420775E+002
+2.32821368948E+007, +2.59502185630E+000, +2.56441865316E+002
+2.34489148581E+007, +2.36515563286E+000, +2.58183730016E+002
+2.36156928214E+007, +2.51294174768E+000, +2.60668318068E+002
+2.37824707846E+007, +2.23257589508E+000, +2.62668033042E+002
+2.39492487479E+007, +2.40389053437E+000, +2.64068688699E+002
+2.41160267112E+007, +2.32489807206E+000, +2.66499724124E+002
+2.42828046745E+007, +2.52871561695E+000, +2.68712114798E+002
+2.44495826377E+007, +2.69047131399E+000, +2.71441505786E+002
+2.46163606010E+007, +2.58316807822E+000, +2.73051071359E+002
+2.47831385643E+007, +2.68985492904E+000, +2.74802651421E+002
+2.49499165275E+007, +2.71473726395E+000, +2.77295319039E+002
+2.51166944908E+007, +3.19849915401E+000, +2.79213572283E+002
+2.52834724541E+007, +2.50034179178E+000, +2.81398745359E+002
+2.54502504174E+007, +3.17809469970E+000, +2.83937362568E+002
+2.56170283806E+007, +2.82336133593E+000, +2.85292684472E+002
+2.57838063439E+007, +3.07706841884E+000, +2.88420132411E+002
+2.59505843072E+007, +2.76725675096E+000, +2.90280459984E+002
+2.61173622705E+007, +3.07958520244E+000, +2.92214100262E+002
+2.62841402337E+007, +2.98103437715E+000, +2.94488067173E+002
+2.64509181970E+007, +2.97740067615E+000, +2.96638188013E+002
+2.66176961603E+007, +3.08585347848E+000, +2.99550285671E+002
+2.67844741235E+007, +3.22351690617E+000, +3.00919866821E+002
+2.69512520868E+007, +3.37188376781E+000, +3.03213181763E+002
+2.71180300501E+007, +3.61393545799E+000, +3.04943657750E+002
+2.72848080134E+007, +3.30276219066E+000, +3.07598475656E+002
+2.74515859766E+007, +3.40971273654E+000, +3.09691885657E+002
+2.76183639399E+007, +3.28670097612E+000, +3.11587564668E+002
+2.77851419032E+007, +3.50942205936E+000, +3.13587391198E+002
+2.79519198664E+007, +3.67945528675E+000, +3.16377986486E+002
+2.81186978297E+007, +3.91252612915E+000, +3.18173945799E+002
+2.82854757930E+007, +3.83592361103E+000, +3.20045599319E+002
+2.84522537563E+007, +3.00601028747E+000, +3.23010661636E+002
+2.86190317195E+007, +3.26411441365E+000, +3.25010028251E+002
+2.87858096828E+007, +3.49204244379E+000, +3.27178660356E+002
+2.89525876461E+007, +3.65506521581E+000, +3.29520299061E+002
+2.91193656093E+007, +3.36732087755E+000, +3.31450888548E+002
+2.92861435726E+007, +3.16743966701E+000, +3.34189669772E+002
+2.94529215359E+007, +3.28038580541E+000, +3.36639638757E+002
+2.96196994992E+007, +3.80704971270E+000, +3.39129566741E+002
+2.97864774624E+007, +4.43988571504E+000, +3.41098118037E+002
+2.99532554257E+007, +3.71268460478E+000, +3.44027343759E+002
+3.01200333890E+007, +3.76858513351E+000, +3.45565827182E+002
+3.02868113523E+007, +3.00277535714E+000, +3.48028054273E+002
+3.04535893155E+007, +3.14084373170E+000, +3.50555175684E+002
+3.06203672788E+007, +4.59540060943E+000, +3.53081310701E+002
+3.07871452421E+007, +3.68204127673E+000, +3.55590395891E+002
+3.09539232053E+007, +3.79820697648E+000, +3.57915393947E+002
+3.11207011686E+007, +3.14242545329E+000, +3.60906767493E+002
+3.12874791319E+007, +3.64157356017E+000, +3.62478266945E+002
+3.14542570952E+007, +3.70866525178E+000, +3.65037069062E+002
+3.16210350584E+007, +3.54724135662E+000, +3.67830023301E+002
+3.17878130217E+007, +3.64049466474E+000, +3.69994832157E+002
+3.19545909850E+007, +3.90258644916E+000, +3.72867990084E+002
+3.21213689482E+007, +3.04420230608E+000, +3.75725693783E+002
+3.22881469115E+007, +3.15451183613E+000, +3.77491001628E+002
+3.24549248748E+007, +3.67102678340E+000, +3.80060779553E+002
+3.26217028381E+007, +3.35967101894E+000, +3.82994990209E+002
+3.27884808013E+007, +3.37351523717E+000, +3.85152634470E+002
+3.29552587646E+007, +3.63338199214E+000, +3.86919834734E+002
+3.31220367279E+007, +3.62277528571E+000, +3.90284494467E+002
+3.32888146912E+007, +3.27852546021E+000, +3.93546082813E+002
+3.34555926544E+007, +2.66016755694E+000, +3.94938671882E+002
+3.36223706177E+007, +4.16765376225E+000, +3.97606486782E+002
+3.37891485810E+007, +3.71898248223E+000, +4.00804156227E+002
+3.39559265442E+007, +3.93513215999E+000, +4.03216731154E+002
+3.41227045075E+007, +2.78709080690E+000, +4.06144601617E+002
+3.42894824708E+007, +3.62256813504E+000, +4.08196789667E+002
+3.44562604341E+007, +3.73294530233E+000, +4.11356307218E+002
+3.46230383973E+007, +3.63457373145E+000, +4.14719859610E+002
+3.47898163606E+007, +3.84405102160E+000, +4.15937414266E+002
+3.49565943239E+007, +4.02643251186E+000, +4.19739477986E+002
+3.51233722871E+007, +3.55563588368E+000, +4.21608458231E+002
+3.52901502504E+007, +3.90677328610E+000, +4.24397791680E+002
+3.54569282137E+007, +3.71904234872E+000, +4.27395851975E+002
+3.56237061770E+007, +3.60387295561E+000, +4.30623432748E+002
+3.57904841402E+007, +2.95809830916E+000, +4.33181580638E+002
+3.59572621035E+007, +3.68483260903E+000, +4.36161160478E+002
+3.61240400668E+007, +3.61098935488E+000, +4.39082783993E+002
+3.62908180301E+007, +3.61986328599E+000, +4.42173886228E+002
+3.64575959933E+007, +3.21246516636E+000, +4.44795591080E+002
+3.66243739566E+007, +3.89538707663E+000, +4.46854791253E+002
+3.67911519199E+007, +4.08805756420E+000, +4.50676395144E+002
+3.69579298831E+007, +3.16121364951E+000, +4.52518297410E+002
+3.71247078464E+007, +3.58205931511E+000, +4.55843060263E+002
+3.72914858097E+007, +3.66809540377E+000, +4.58474605156E+002
+3.74582637730E+007, +4.22444030604E+000, +4.63215810111E+002
+3.76250417362E+007, +4.15524871860E+000, +4.64239681718E+002
+3.77918196995E+007, +4.36828246458E+000, +4.68744273812E+002
+3.79585976628E+007, +3.90604453588E+000, +4.70840898766E+002
+3.81253756260E+007, +4.48919801596E+000, +4.73279444682E+002
+3.82921535893E+007, +4.76139805123E+000, +4.76757190840E+002
+3.84589315526E+007, +4.14831541750E+000, +4.80964995170E+002
+3.86257095159E+007, +5.49038593135E+000, +4.83387017833E+002
+3.87924874791E+007, +4.37661539803E+000, +4.85891698978E+002
+3.89592654424E+007, +4.69857018241E+000, +4.89646070870E+002
+3.91260434057E+007, +3.69612900063E+000, +4.93414086566E+002
+3.92928213689E+007, +4.93172342155E+000, +4.95855773497E+002
+3.94595993322E+007, +3.26579329520E+000, +4.99499643370E+002
+3.96263772955E+007, +4.61233195082E+000, +5.01896640578E+002
+3.97931552588E+007, +4.24702384882E+000, +5.04762458728E+002
+3.99599332220E+007, +4.64740463345E+000, +5.08455489510E+002
+4.01267111853E+007, +6.22139878639E+000, +5.12050791992E+002
+4.02934891486E+007, +3.71457121024E+000, +5.14654916962E+002
+4.04602671119E+007, +5.43140250385E+000, +5.17913459659E+002
+4.06270450751E+007, +5.54349694711E+000, +5.21473225499E+002
+4.07938230384E+007, +4.47605296418E+000, +5.25052799459E+002
+4.09606010017E+007, +5.40259260294E+000, +5.28697487427E+002
+4.11273789649E+007, +5.66817714847E+000, +5.30814992652E+002
+4.12941569282E+007, +5.73934591432E+000, +5.35385488150E+002
+4.14609348915E+007, +4.56671997734E+000, +5.39688060585E+002
+4.16277128548E+007, +5.92932235938E+000, +5.42759882579E+002
+4.17944908180E+007, +5.88753893723E+000, +5.45155313239E+002
+4.19612687813E+007, +5.48786067702E+000, +5.48923926914E+002
+4.21280467446E+007, +5.40680563253E+000, +5.53440100759E+002
+4.22948247078E+007, +5.15891975282E+000, +5.57134439105E+002
+4.24616026711E+007, +5.71656050944E+000, +5.59263643448E+002
+4.26283806344E+007, +6.04833302602E+000, +5.63888587363E+002
+4.27951585977E+007, +4.25676351540E+000, +5.67261179998E+002
+4.29619365609E+007, +7.22544891073E+000, +5.72499649122E+002
+4.31287145242E+007, +6.95921477778E+000, +5.76488110405E+002
+4.32954924875E+007, +6.58523004299E+000, +5.78728975193E+002
+4.34622704508E+007, +5.45806682855E+000, +5.83347015270E+002
+4.36290484140E+007, +7.24531126913E+000, +5.87103813618E+002
+4.37958263773E+007, +5.07376998484E+000, +5.91592917656E+002
+4.39626043406E+007, +7.48621132669E+000, +5.93172105822E+002
+4.41293823038E+007, +6.45559126911E+000, +5.99973469920E+002
+4.42961602671E+007, +6.65998980821E+000, +6.02742044186E+002
+4.44629382304E+007, +7.32211291757E+000, +6.07202550881E+002
+4.46297161937E+007, +7.82394905543E+000, +6.10319220697E+002
+4.47964941569E+007, +8.43344375022E+000, +6.14052507952E+002
+4.49632721202E+007, +7.56401464515E+000, +6.19544314618E+002
+4.51300500835E+007, +7.03103058870E+000, +6.22268565219E+002
+4.52968280467E+007, +9.20326741729E+000, +6.27793646287E+002
+4.54636060100E+007, +8.13512192357E+000, +6.32902279521E+002
+4.56303839733E+007, +7.08119008129E+000, +6.36913061724E+002
+4.57971619366E+007, +6.87281724073E+000, +6.40232062891E+002
+4.59639398998E+007, +7.91361001229E+000, +6.46762346174E+002
+4.61307178631E+007, +7.76992026185E+000, +6.49124710432E+002
+4.62974958264E+007, +9.21968033626E+000, +6.55611174981E+002
+4.64642737896E+007, +9.33668534227E+000, +6.57235026901E+002
+4.66310517529E+007, +8.63991601910E+000, +6.64130314433E+002
+4.67978297162E+007, +1.12124964266E+001, +6.66862495929E+002
+4.69646076795E+007, +9.30789081749E+000, +6.73768603823E+002
+4.71313856427E+007, +9.69128613733E+000, +6.80222141781E+002
+4.72981636060E+007, +1.02722615015E+001, +6.83432209778E+002
+4.74649415693E+007, +1.00742702775E+001, +6.87527961444E+002
+4.76317195326E+007, +1.45430195986E+001, +6.91473170549E+002
+4.77984974958E+007, +1.36512383325E+001, +6.98392001750E+002
+4.79652754591E+007, +1.38269492777E+001, +7.01522016100E+002
+4.81320534224E+007, +1.48175307203E+001, +7.06276367854E+002
+4.82988313856E+007, +1.41349008603E+001, +7.10222587883E+002
+4.84656093489E+007, +1.56486998296E+001, +7.15623717357E+002
+4.86323873122E+007, +1.58132274897E+001, +7.19382315080E+002
+4.87991652755E+007, +1.65860268398E+001, +7.26242168467E+002
+4.89659432387E+007, +1.58331462866E+001, +7.30998039449E+002
+4.91327212020E+007, +1.73666074535E+001, +7.35693514298E+002
+4.92994991653E+007, +1.86852104950E+001, +7.41699612810E+002
+4.94662771285E+007, +2.15366143235E+001, +7.48798138780E+002
+4.96330550918E+007, +2.11749645295E+001, +7.53159967510E+002
+4.97998330551E+007, +2.24582598766E+001, +7.57919427673E+002
+4.99666110184E+007, +2.22608730973E+001, +7.62170710588E+002
+5.01333889816E+007, +2.26262272581E+001, +7.67711489969E+002
+5.03001669449E+007, +2.23193790777E+001, +7.71594403411E+002
+5.04669449082E+007, +2.35580134829E+001, +7.78738286913E+002
+5.06337228715E+007, +2.35593790729E+001, +7.84046419538E+002
+5.08005008347E+007, +2.54181860001E+001, +7.87260940917E+002
+5.09672787980E+007, +2.77616699030E+001, +7.93514984951E+002
+5.11340567613E+007, +2.46002863091E+001, +7.99837184015E+002
+5.13008347245E+007, +2.40180825022E+001, +8.05373137955E+002
+5.14676126878E+007, +2.46205665805E+001, +8.09287298011E+002
+5.16343906511E+007, +2.67294900295E+001, +8.17288956719E+002
+5.18011686144E+007, +2.35775545883E+001, +8.20129165868E+002
+5.19679465776E+007, +2.33779835117E+001, +8.27519215831E+002
+5.21347245409E+007, +2.59779766595E+001, +8.36292192438E+002
+5.23015025042E+007, +2.47588428596E+001, +8.45242554992E+002
+5.24682804674E+007, +2.28043716276E+001, +8.49986985826E+002
+5.26350584307E+007, +2.57831522057E+001, +8.56020554175E+002
+5.28018363940E+007, +2.44218860006E+001, +8.61363698187E+002
+5.29686143573E+007, +2.73079754213E+001, +8.71051007284E+002
+5.31353923205E+007, +2.74076060653E+001, +8.70281816581E+002
+5.33021702838E+007, +2.30184080597E+001, +8.81142351222E+002
+5.34689482471E+007, +2.94210653995E+001, +8.91559081991E+002
