"# Channel 1"
"# Trace 1"
Frequency, Formatted Data, Formatted Data
+1.00000000000E+005, +1.95078115638E+001, +3.31148596128E-001
+2.25031289111E+005, +1.89936965240E+001, +1.52346808532E+000
+3.50062578223E+005, +1.87359204646E+001, +2.83271643178E+000
+4.75093867334E+005, +1.86230547286E+001, +4.19659615983E+000
+6.00125156446E+005, +1.85953364049E+001, +5.47728254738E+000
+7.25156445557E+005, +1.85273109384E+001, +6.77048615982E+000
+8.50187734668E+005, +1.85466025783E+001, +8.01266497769E+000
+9.75219023780E+005, +1.85255488718E+001, +9.28372532205E+000
+1.10025031289E+006, +1.84985273412E+001, +1.04993069302E+001
+1.22528160200E+006, +1.84976339457E+001, +1.17702549595E+001
+1.35031289111E+006, +1.85159051264E+001, +1.30099025369E+001
+1.47534418023E+006, +1.85111233030E+001, +1.42493903048E+001
+1.60037546934E+006, +1.85121238098E+001, +1.54320941444E+001
+1.72540675845E+006, +1.85140357558E+001, +1.66464696772E+001
+1.85043804756E+006, +1.85386319318E+001, +1.78688989519E+001
+1.97546933667E+006, +1.85238180938E+001, +1.91007231645E+001
+2.10050062578E+006, +1.85357235425E+001, +2.03174363656E+001
+2.22553191489E+006, +1.85556816537E+001, +2.15050848866E+001
+2.35056320401E+006, +1.85737828128E+001, +2.27211683603E+001
+2.47559449312E+006, +1.86000259910E+001, +2.39925434601E+001
+2.60062578223E+006, +1.85511378770E+001, +2.51652378287E+001
+2.72565707134E+006, +1.85415053937E+001, +2.64007893898E+001
+2.85068836045E+006, +1.85854258988E+001, +2.75626301859E+001
+2.97571964956E+006, +1.85634190001E+001, +2.88230982891E+001
+3.10075093867E+006, +1.85485723062E+001, +2.99812509995E+001
+3.22578222778E+006, +1.85956493849E+001, +3.12532130098E+001
+3.35081351690E+006, +1.85927372009E+001, +3.24341777939E+001
+3.47584480601E+006, +1.86768807967E+001, +3.36883502802E+001
+3.60087609512E+006, +1.86039322245E+001, +3.49059985653E+001
+3.72590738423E+006, +1.86254001722E+001, +3.61386691716E+001
+3.85093867334E+006, +1.86312361340E+001, +3.73597984842E+001
+3.97596996245E+006, +1.86377742379E+001, +3.85334220049E+001
+4.10100125156E+006, +1.86641300204E+001, +3.98029545254E+001
+4.22603254068E+006, +1.86519424354E+001, +4.09307446542E+001
+4.35106382979E+006, +1.86514183203E+001, +4.21731646441E+001
+4.47609511890E+006, +1.86916221156E+001, +4.34136413716E+001
+4.60112640801E+006, +1.86463130793E+001, +4.45732116597E+001
+4.72615769712E+006, +1.86976354564E+001, +4.58287284796E+001
+4.85118898623E+006, +1.87110899642E+001, +4.70827015806E+001
+4.97622027534E+006, +1.87374497447E+001, +4.82242199789E+001
+5.10125156446E+006, +1.87162720170E+001, +4.94840137382E+001
+5.22628285357E+006, +1.86756924954E+001, +5.06949622477E+001
+5.35131414268E+006, +1.87852752479E+001, +5.19287135360E+001
+5.47634543179E+006, +1.86892908794E+001, +5.31071361343E+001
+5.60137672090E+006, +1.87901411071E+001, +5.42502960912E+001
+5.72640801001E+006, +1.88636794906E+001, +5.55685379517E+001
+5.85143929912E+006, +1.87532358201E+001, +5.67398428637E+001
+5.97647058824E+006, +1.87501409088E+001, +5.80632215131E+001
+6.10150187735E+006, +1.88810938543E+001, +5.91914354323E+001
+6.22653316646E+006, +1.87761638580E+001, +6.04233574245E+001
+6.35156445557E+006, +1.88196374875E+001, +6.16266578724E+001
+6.47659574468E+006, +1.88590722941E+001, +6.29019464195E+001
+6.60162703379E+006, +1.88663348870E+001, +6.41367035697E+001
+6.72665832290E+006, +1.89429393003E+001, +6.53175783702E+001
+6.85168961202E+006, +1.89121073905E+001, +6.65060374261E+001
+6.97672090113E+006, +1.89733534604E+001, +6.77692944485E+001
+7.10175219024E+006, +1.89341090726E+001, +6.89840519497E+001
+7.22678347935E+006, +1.89391611183E+001, +7.02428828170E+001
+7.35181476846E+006, +1.89730250560E+001, +7.14448038025E+001
+7.47684605757E+006, +1.89895754286E+001, +7.26329541007E+001
+7.60187734668E+006, +1.90160069261E+001, +7.39094643050E+001
+7.72690863579E+006, +1.89762134006E+001, +7.51539111481E+001
+7.85193992491E+006, +1.90117070130E+001, +7.63476909767E+001
+7.97697121402E+006, +1.90079088559E+001, +7.75548777706E+001
+8.10200250313E+006, +1.90030317478E+001, +7.88118578561E+001
+8.22703379224E+006, +1.90517784387E+001, +7.99900250114E+001
+8.35206508135E+006, +1.90527111215E+001, +8.12433401779E+001
+8.47709637046E+006, +1.91377565429E+001, +8.24652824972E+001
+8.60212765957E+006, +1.90789786384E+001, +8.36737622791E+001
+8.72715894869E+006, +1.91305762709E+001, +8.49171767729E+001
+8.85219023780E+006, +1.91010746341E+001, +8.62124566126E+001
+8.97722152691E+006, +1.91491845244E+001, +8.73785403913E+001
+9.10225281602E+006, +1.91489232230E+001, +8.86827341849E+001
+9.22728410513E+006, +1.92006647046E+001, +8.98429510322E+001
+9.35231539424E+006, +1.92017682418E+001, +9.11410586362E+001
+9.47734668335E+006, +1.91777321642E+001, +9.22831604281E+001
+9.60237797247E+006, +1.92200849925E+001, +9.35767298146E+001
+9.72740926158E+006, +1.92040085826E+001, +9.48249007138E+001
+9.85244055069E+006, +1.91497665449E+001, +9.60264054650E+001
+9.97747183980E+006, +1.92577423201E+001, +9.72631803918E+001
+1.01025031289E+007, +1.92936748603E+001, +9.84461277148E+001
+1.02275344180E+007, +1.93143311702E+001, +9.96788193392E+001
+1.03525657071E+007, +1.91805533537E+001, +1.01041550971E+002
+1.04775969962E+007, +1.92361591635E+001, +1.02272504958E+002
+1.06026282854E+007, +1.93068781862E+001, +1.03495340374E+002
+1.07276595745E+007, +1.93466835815E+001, +1.04662471340E+002
+1.08526908636E+007, +1.93551864385E+001, +1.05958001696E+002
+1.09777221527E+007, +1.93648639380E+001, +1.07089402435E+002
+1.11027534418E+007, +1.94014592919E+001, +1.08380539347E+002
+1.12277847309E+007, +1.94501828141E+001, +1.09657396827E+002
+1.13528160200E+007, +1.93465052162E+001, +1.10938237392E+002
+1.14778473091E+007, +1.95084229074E+001, +1.12279724563E+002
+1.16028785982E+007, +1.94061134247E+001, +1.13364558995E+002
+1.17279098874E+007, +1.94111471292E+001, +1.14638966785E+002
+1.18529411765E+007, +1.94803998277E+001, +1.15860660372E+002
+1.19779724656E+007, +1.93926461472E+001, +1.17143451733E+002
+1.21030037547E+007, +1.95188376421E+001, +1.18389590830E+002
+1.22280350438E+007, +1.94435357033E+001, +1.19667246893E+002
+1.23530663329E+007, +1.95143871601E+001, +1.21069080092E+002
+1.24780976220E+007, +1.94920932187E+001, +1.22201849350E+002
+1.26031289111E+007, +1.95408847997E+001, +1.23430369837E+002
+1.27281602003E+007, +1.95440176240E+001, +1.24725598863E+002
+1.28531914894E+007, +1.96240525286E+001, +1.25904730379E+002
+1.29782227785E+007, +1.95156703635E+001, +1.27324428906E+002
+1.31032540676E+007, +1.96622284640E+001, +1.28505760136E+002
+1.32282853567E+007, +1.96144282591E+001, +1.29705019228E+002
+1.33533166458E+007, +1.97709264714E+001, +1.30952989319E+002
+1.34783479349E+007, +1.97112078231E+001, +1.32296793954E+002
+1.36033792240E+007, +1.96750713550E+001, +1.33554439033E+002
+1.37284105131E+007, +1.96733916535E+001, +1.34731559221E+002
+1.38534418023E+007, +1.97841542788E+001, +1.36247390262E+002
+1.39784730914E+007, +1.97266881970E+001, +1.37269467570E+002
+1.41035043805E+007, +1.96796031235E+001, +1.38634134504E+002
+1.42285356696E+007, +1.98023920416E+001, +1.39940476992E+002
+1.43535669587E+007, +1.96573582963E+001, +1.41091075727E+002
+1.44785982478E+007, +1.98346696336E+001, +1.42533530414E+002
+1.46036295369E+007, +1.98380742469E+001, +1.43659099366E+002
+1.47286608260E+007, +1.97939466442E+001, +1.44947824351E+002
+1.48536921151E+007, +1.98757624693E+001, +1.46145426778E+002
+1.49787234043E+007, +1.98183063242E+001, +1.47560306473E+002
+1.51037546934E+007, +1.98298535112E+001, +1.48963055094E+002
+1.52287859825E+007, +1.98664918468E+001, +1.50138581369E+002
+1.53538172716E+007, +1.97953653471E+001, +1.51408803956E+002
+1.54788485607E+007, +2.00224289630E+001, +1.52779692398E+002
+1.56038798498E+007, +1.98989231714E+001, +1.54064321078E+002
+1.57289111389E+007, +2.00686401675E+001, +1.55197031892E+002
+1.58539424280E+007, +1.99682311544E+001, +1.56589575834E+002
+1.59789737171E+007, +2.00463050276E+001, +1.57830725067E+002
+1.61040050063E+007, +2.01263815580E+001, +1.59107324834E+002
+1.62290362954E+007, +2.01553442358E+001, +1.60396550819E+002
+1.63540675845E+007, +2.00315800807E+001, +1.61692804022E+002
+1.64790988736E+007, +2.01169339095E+001, +1.62889508052E+002
+1.66041301627E+007, +2.01938194098E+001, +1.64305513145E+002
+1.67291614518E+007, +2.02518955195E+001, +1.65826452622E+002
+1.68541927409E+007, +2.02992408011E+001, +1.66951932384E+002
+1.69792240300E+007, +2.03597436101E+001, +1.68228079206E+002
+1.71042553191E+007, +2.00265037564E+001, +1.69485766784E+002
+1.72292866083E+007, +2.00827816536E+001, +1.70734182090E+002
+1.73543178974E+007, +2.01379233935E+001, +1.72143471710E+002
+1.74793491865E+007, +1.98996353597E+001, +1.73509246080E+002
+1.76043804756E+007, +2.00708168818E+001, +1.74979714816E+002
+1.77294117647E+007, +2.03037580755E+001, +1.76255697198E+002
+1.78544430538E+007, +2.00094000229E+001, +1.77516412613E+002
+1.79794743429E+007, +2.03002748779E+001, +1.78763070403E+002
+1.81045056320E+007, +2.03283440593E+001, +1.80162794376E+002
+1.82295369212E+007, +2.03133393601E+001, +1.81298233033E+002
+1.83545682103E+007, +2.06411305176E+001, +1.82608434684E+002
+1.84795994994E+007, +2.03743997576E+001, +1.83835541805E+002
+1.86046307885E+007, +2.04445298697E+001, +1.85293965313E+002
+1.87296620776E+007, +2.05185671880E+001, +1.86537648704E+002
+1.88546933667E+007, +2.07120607204E+001, +1.88029946916E+002
+1.89797246558E+007, +2.04282474038E+001, +1.89589182103E+002
+1.91047559449E+007, +2.04580825593E+001, +1.90666586603E+002
+1.92297872340E+007, +2.08154566006E+001, +1.92085446560E+002
+1.93548185232E+007, +2.06956236492E+001, +1.93368909206E+002
+1.94798498123E+007, +2.05670992016E+001, +1.94793307953E+002
+1.96048811014E+007, +2.08341492452E+001, +1.96172218225E+002
+1.97299123905E+007, +2.07249409045E+001, +1.97349307592E+002
+1.98549436796E+007, +2.07963601420E+001, +1.99035190418E+002
+1.99799749687E+007, +2.05703792475E+001, +1.99934818988E+002
+2.01050062578E+007, +2.06806818649E+001, +2.01273081030E+002
+2.02300375469E+007, +2.08241192997E+001, +2.02899846458E+002
+2.03550688360E+007, +2.08335464502E+001, +2.04124694749E+002
+2.04801001252E+007, +2.09051543379E+001, +2.05494423015E+002
+2.06051314143E+007, +2.09221360432E+001, +2.06841262065E+002
+2.07301627034E+007, +2.10118532155E+001, +2.08370324800E+002
+2.08551939925E+007, +2.09805847713E+001, +2.09588009818E+002
+2.09802252816E+007, +2.09858383732E+001, +2.10867000729E+002
+2.11052565707E+007, +2.09353589272E+001, +2.12493324134E+002
+2.12302878598E+007, +2.09045523737E+001, +2.13966363452E+002
+2.13553191489E+007, +2.12371662155E+001, +2.15021404366E+002
+2.14803504380E+007, +2.10663033635E+001, +2.16326922191E+002
+2.16053817272E+007, +2.10235506783E+001, +2.17845416375E+002
+2.17304130163E+007, +2.16152766671E+001, +2.19201503812E+002
+2.18554443054E+007, +2.11355434494E+001, +2.20511923086E+002
+2.19804755945E+007, +2.12399899521E+001, +2.21939057729E+002
+2.21055068836E+007, +2.13330798402E+001, +2.23204462677E+002
+2.22305381727E+007, +2.13178772403E+001, +2.24591713917E+002
+2.23555694618E+007, +2.16940668638E+001, +2.25898108876E+002
+2.24806007509E+007, +2.16626046915E+001, +2.27563608102E+002
+2.26056320401E+007, +2.15306011034E+001, +2.28882553372E+002
+2.27306633292E+007, +2.16612736640E+001, +2.30103795678E+002
+2.28556946183E+007, +2.16142107350E+001, +2.31281279422E+002
+2.29807259074E+007, +2.18037577028E+001, +2.32724542235E+002
+2.31057571965E+007, +2.18158278554E+001, +2.34140279790E+002
+2.32307884856E+007, +2.20939829608E+001, +2.35867686897E+002
+2.33558197747E+007, +2.23201699560E+001, +2.37200297849E+002
+2.34808510638E+007, +2.18330208139E+001, +2.38338758394E+002
+2.36058823529E+007, +2.18912266743E+001, +2.39890596661E+002
+2.37309136421E+007, +2.20959529345E+001, +2.41620271779E+002
+2.38559449312E+007, +2.20302407735E+001, +2.42646424991E+002
+2.39809762203E+007, +2.24327708198E+001, +2.43856112343E+002
+2.41060075094E+007, +2.20960473100E+001, +2.45553518502E+002
+2.42310387985E+007, +2.20239311172E+001, +2.46551209552E+002
+2.43560700876E+007, +2.23904279025E+001, +2.47866218554E+002
+2.44811013767E+007, +2.26530595015E+001, +2.49153547089E+002
+2.46061326658E+007, +2.20501625373E+001, +2.51151021323E+002
+2.47311639549E+007, +2.27138285463E+001, +2.52633314012E+002
+2.48561952441E+007, +2.23788840871E+001, +2.53781615724E+002
+2.49812265332E+007, +2.23720168525E+001, +2.55039188838E+002
+2.51062578223E+007, +2.25006013216E+001, +2.56769806503E+002
+2.52312891114E+007, +2.22937251416E+001, +2.57803418555E+002
+2.53563204005E+007, +2.23158353864E+001, +2.59495179042E+002
+2.54813516896E+007, +2.22537957432E+001, +2.60748170855E+002
+2.56063829787E+007, +2.27098648233E+001, +2.62602859186E+002
+2.57314142678E+007, +2.25189643171E+001, +2.63928233028E+002
+2.58564455569E+007, +2.25597383483E+001, +2.65284293287E+002
+2.59814768461E+007, +2.25630825524E+001, +2.66601755119E+002
+2.61065081352E+007, +2.26587515616E+001, +2.68136779310E+002
+2.62315394243E+007, +2.24584558935E+001, +2.70040497073E+002
+2.63565707134E+007, +2.28277235845E+001, +2.70985645766E+002
+2.64816020025E+007, +2.24957403142E+001, +2.72641777245E+002
+2.66066332916E+007, +2.24997147468E+001, +2.73899592916E+002
+2.67316645807E+007, +2.27648059652E+001, +2.75472878711E+002
+2.68566958698E+007, +2.33204765587E+001, +2.77179444634E+002
+2.69817271589E+007, +2.31923605748E+001, +2.78494586676E+002
+2.71067584481E+007, +2.26640315513E+001, +2.80062141237E+002
+2.72317897372E+007, +2.32611344222E+001, +2.81545903952E+002
+2.73568210263E+007, +2.27951458743E+001, +2.82917125593E+002
+2.74818523154E+007, +2.32483532818E+001, +2.84198484432E+002
+2.76068836045E+007, +2.28334821856E+001, +2.85911732925E+002
+2.77319148936E+007, +2.28305767549E+001, +2.87281885635E+002
+2.78569461827E+007, +2.32678367530E+001, +2.89152180248E+002
+2.79819774718E+007, +2.34932716322E+001, +2.90113354125E+002
+2.81070087610E+007, +2.35923780989E+001, +2.91435111257E+002
+2.82320400501E+007, +2.29411200754E+001, +2.93341090505E+002
+2.83570713392E+007, +2.31270435474E+001, +2.94908279147E+002
+2.84821026283E+007, +2.31717966274E+001, +2.96581413440E+002
+2.86071339174E+007, +2.30907763014E+001, +2.97820740761E+002
+2.87321652065E+007, +2.29946051621E+001, +2.99479269137E+002
+2.88571964956E+007, +2.34122271969E+001, +3.00947789217E+002
+2.89822277847E+007, +2.31718639032E+001, +3.02210305747E+002
+2.91072590738E+007, +2.37886016634E+001, +3.04009795760E+002
+2.92322903630E+007, +2.35959245653E+001, +3.05666271706E+002
+2.93573216521E+007, +2.32829638341E+001, +3.06802847337E+002
+2.94823529412E+007, +2.35327019443E+001, +3.08964753319E+002
+2.96073842303E+007, +2.32610071311E+001, +3.09785546006E+002
+2.97324155194E+007, +2.37702519076E+001, +3.11431722117E+002
+2.98574468085E+007, +2.35190841661E+001, +3.13364859861E+002
+2.99824780976E+007, +2.37084931802E+001, +3.14840932123E+002
+3.01075093867E+007, +2.39299430622E+001, +3.16248298989E+002
+3.02325406758E+007, +2.42384365984E+001, +3.17659145757E+002
+3.03575719650E+007, +2.36764894484E+001, +3.19319856528E+002
+3.04826032541E+007, +2.38376172177E+001, +3.21227689034E+002
+3.06076345432E+007, +2.38535502194E+001, +3.22536928457E+002
+3.07326658323E+007, +2.39809905508E+001, +3.24024126185E+002
+3.08576971214E+007, +2.43028106811E+001, +3.25364102622E+002
+3.09827284105E+007, +2.30346683877E+001, +3.27573446402E+002
+3.11077596996E+007, +2.38968183092E+001, +3.29094241833E+002
+3.12327909887E+007, +2.43618121199E+001, +3.30562624557E+002
+3.13578222778E+007, +2.41144539559E+001, +3.32409274742E+002
+3.14828535670E+007, +2.46793549315E+001, +3.33672519069E+002
+3.16078848561E+007, +2.46394628321E+001, +3.35524526997E+002
+3.17329161452E+007, +2.41142983305E+001, +3.37223269011E+002
+3.18579474343E+007, +2.44227976932E+001, +3.39283892288E+002
+3.19829787234E+007, +2.51203417119E+001, +3.39787679408E+002
+3.21080100125E+007, +2.44966191415E+001, +3.41625748366E+002
+3.22330413016E+007, +2.48270878772E+001, +3.43508435392E+002
+3.23580725907E+007, +2.37665513348E+001, +3.44456591250E+002
+3.24831038798E+007, +2.44157522716E+001, +3.46148797016E+002
+3.26081351690E+007, +2.46998004004E+001, +3.48043624064E+002
+3.27331664581E+007, +2.44772799486E+001, +3.48941454585E+002
+3.28581977472E+007, +2.49532549618E+001, +3.51918155165E+002
+3.29832290363E+007, +2.43499009440E+001, +3.53757109506E+002
+3.31082603254E+007, +2.48203898936E+001, +3.55230206382E+002
+3.32332916145E+007, +2.53351867730E+001, +3.55606628878E+002
+3.33583229036E+007, +2.46431316795E+001, +3.57699999317E+002
+3.34833541927E+007, +2.54381889041E+001, +3.59715873332E+002
+3.36083854819E+007, +2.51456482271E+001, +3.61402141630E+002
+3.37334167710E+007, +2.47392894770E+001, +3.62566936733E+002
+3.38584480601E+007, +2.53268971600E+001, +3.65373648022E+002
+3.39834793492E+007, +2.50006310256E+001, +3.66444328700E+002
+3.41085106383E+007, +2.50995151988E+001, +3.68167276728E+002
+3.42335419274E+007, +2.55485757287E+001, +3.69847340509E+002
+3.43585732165E+007, +2.53575605980E+001, +3.71696663914E+002
+3.44836045056E+007, +2.52045925567E+001, +3.71920062027E+002
+3.46086357947E+007, +2.50928810631E+001, +3.75021136490E+002
+3.47336670839E+007, +2.57400318926E+001, +3.76023007402E+002
+3.48586983730E+007, +2.57615833888E+001, +3.77852753856E+002
+3.49837296621E+007, +2.59574770111E+001, +3.79230582164E+002
+3.51087609512E+007, +2.45520884690E+001, +3.82022524136E+002
+3.52337922403E+007, +2.50197596902E+001, +3.84341370451E+002
+3.53588235294E+007, +2.57565916328E+001, +3.85642876858E+002
+3.54838548185E+007, +2.48082031827E+001, +3.87145818801E+002
+3.56088861076E+007, +2.59426543876E+001, +3.89020651378E+002
+3.57339173967E+007, +2.60165092169E+001, +3.90037949166E+002
+3.58589486859E+007, +2.57618728374E+001, +3.91777830105E+002
+3.59839799750E+007, +2.63332592115E+001, +3.94079413803E+002
+3.61090112641E+007, +2.59814825944E+001, +3.96426697391E+002
+3.62340425532E+007, +2.56264271953E+001, +3.97396449412E+002
+3.63590738423E+007, +2.58948776206E+001, +3.99101282290E+002
+3.64841051314E+007, +2.58618359056E+001, +4.00076791339E+002
+3.66091364205E+007, +2.63581077418E+001, +4.03125887301E+002
+3.67341677096E+007, +2.60150773478E+001, +4.04268997686E+002
+3.68591989987E+007, +2.63657592872E+001, +4.06858390172E+002
+3.69842302879E+007, +2.65601469390E+001, +4.08444783734E+002
+3.71092615770E+007, +2.66137144850E+001, +4.09695533060E+002
+3.72342928661E+007, +2.67987962837E+001, +4.13314576005E+002
+3.73593241552E+007, +2.65013039218E+001, +4.13392361080E+002
+3.74843554443E+007, +2.68050099044E+001, +4.14414202609E+002
+3.76093867334E+007, +2.69154835696E+001, +4.17741252057E+002
+3.77344180225E+007, +2.73318852924E+001, +4.17738016732E+002
+3.78594493116E+007, +2.63038038664E+001, +4.21046458395E+002
+3.79844806008E+007, +2.73550867299E+001, +4.21976603693E+002
+3.81095118899E+007, +2.62634051293E+001, +4.23821890230E+002
+3.82345431790E+007, +2.74700391678E+001, +4.26282608170E+002
+3.83595744681E+007, +2.68049453962E+001, +4.28214617327E+002
+3.84846057572E+007, +2.67833216442E+001, +4.30303670998E+002
+3.86096370463E+007, +2.72940343507E+001, +4.31889256486E+002
+3.87346683354E+007, +2.81336723116E+001, +4.34251098952E+002
+3.88596996245E+007, +2.70091530857E+001, +4.35765596140E+002
+3.89847309136E+007, +2.81148934677E+001, +4.38257674427E+002
+3.91097622028E+007, +2.74202377747E+001, +4.39505245178E+002
+3.92347934919E+007, +2.80584739247E+001, +4.40928813480E+002
+3.93598247810E+007, +2.72515698765E+001, +4.44105553279E+002
+3.94848560701E+007, +2.79022929200E+001, +4.44918853679E+002
+3.96098873592E+007, +2.77372802892E+001, +4.47275445521E+002
+3.97349186483E+007, +2.84177767545E+001, +4.48577351048E+002
+3.98599499374E+007, +2.81186463155E+001, +4.51320988234E+002
+3.99849812265E+007, +2.82442624409E+001, +4.52820171898E+002
+4.01100125156E+007, +2.83420244335E+001, +4.55011667403E+002
