"# Channel 1"
"# Trace 1"
Frequency, Formatted Data, Formatted Data
+1.00000000000E+005, +1.49309970720E+001, +1.02916429853E+000
+2.66777963272E+005, +1.49038634182E+001, +2.77677492218E+000
+4.33555926544E+005, +1.48945911743E+001, +4.51519892880E+000
+6.00333889816E+005, +1.49261612510E+001, +6.25187177143E+000
+7.67111853088E+005, +1.49304634203E+001, +7.95688471140E+000
+9.33889816361E+005, +1.49220221652E+001, +9.67749058290E+000
+1.10066777963E+006, +1.49104874329E+001, +1.14274442706E+001
+1.26744574290E+006, +1.49415293069E+001, +1.31444037884E+001
+1.43422370618E+006, +1.49073802098E+001, +1.48942309425E+001
+1.60100166945E+006, +1.49596933820E+001, +1.65617322683E+001
+1.76777963272E+006, +1.49459914053E+001, +1.83158901805E+001
+1.93455759599E+006, +1.49269194778E+001, +1.99855234378E+001
+2.10133555927E+006, +1.49415442106E+001, +2.17269339634E+001
+2.26811352254E+006, +1.49662163127E+001, +2.34661521296E+001
+2.43489148581E+006, +1.49825893311E+001, +2.52256204553E+001
+2.60166944908E+006, +1.49609173620E+001, +2.69022355824E+001
+2.76844741235E+006, +1.49500812739E+001, +2.86414353393E+001
+2.93522537563E+006, +1.49461138177E+001, +3.03722857806E+001
+3.10200333890E+006, +1.50144000023E+001, +3.20583086185E+001
+3.26878130217E+006, +1.49081414371E+001, +3.38051491748E+001
+3.43555926544E+006, +1.49730771407E+001, +3.54968582742E+001
+3.60233722871E+006, +1.49607411064E+001, +3.72702799163E+001
+3.76911519199E+006, +1.49644184229E+001, +3.90071961306E+001
+3.93589315526E+006, +1.49332300387E+001, +4.06719090623E+001
+4.10267111853E+006, +1.49711789281E+001, +4.24997529203E+001
+4.26944908180E+006, +1.49776915891E+001, +4.42267398035E+001
+4.43622704508E+006, +1.50092742692E+001, +4.58680880787E+001
+4.60300500835E+006, +1.49925949351E+001, +4.76743982366E+001
+4.76978297162E+006, +1.50087149915E+001, +4.93003483862E+001
+4.93656093489E+006, +1.50394530979E+001, +5.11217202221E+001
+5.10333889816E+006, +1.50362286864E+001, +5.28188969119E+001
+5.27011686144E+006, +1.51531058110E+001, +5.46825055018E+001
+5.43689482471E+006, +1.50464077188E+001, +5.63361975325E+001
+5.60367278798E+006, +1.50682027530E+001, +5.81179915790E+001
+5.77045075125E+006, +1.50465741239E+001, +5.98195598258E+001
+5.93722871452E+006, +1.51334001289E+001, +6.15672806566E+001
+6.10400667780E+006, +1.50984768648E+001, +6.33141695876E+001
+6.27078464107E+006, +1.51723897890E+001, +6.50349194779E+001
+6.43756260434E+006, +1.51897614331E+001, +6.68485467795E+001
+6.60434056761E+006, +1.52191916573E+001, +6.85607236044E+001
+6.77111853088E+006, +1.52834682724E+001, +7.02841544438E+001
+6.93789649416E+006, +1.52415921578E+001, +7.20514688480E+001
+7.10467445743E+006, +1.52363957495E+001, +7.38015454121E+001
+7.27145242070E+006, +1.53088065779E+001, +7.55123738240E+001
+7.43823038397E+006, +1.53463908773E+001, +7.72376612264E+001
+7.60500834725E+006, +1.52673403858E+001, +7.90291485813E+001
+7.77178631052E+006, +1.53276089062E+001, +8.08724718088E+001
+7.93856427379E+006, +1.54017485059E+001, +8.25330184269E+001
+8.10534223706E+006, +1.53522421887E+001, +8.42954790894E+001
+8.27212020033E+006, +1.53923626615E+001, +8.60721695537E+001
+8.43889816361E+006, +1.53406482625E+001, +8.78426456691E+001
+8.60567612688E+006, +1.53560276390E+001, +8.95599055326E+001
+8.77245409015E+006, +1.53344312226E+001, +9.12890880977E+001
+8.93923205342E+006, +1.53916504344E+001, +9.31064086416E+001
+9.10601001669E+006, +1.54545187765E+001, +9.49598338594E+001
+9.27278797997E+006, +1.54286900257E+001, +9.67256352009E+001
+9.43956594324E+006, +1.54118099485E+001, +9.83979214776E+001
+9.60634390651E+006, +1.54306311172E+001, +1.00259979530E+002
+9.77312186978E+006, +1.54122674889E+001, +1.02016601657E+002
+9.93989983306E+006, +1.55092811580E+001, +1.03837988136E+002
+1.01066777963E+007, +1.53793352210E+001, +1.05561556071E+002
+1.02734557596E+007, +1.54636194174E+001, +1.07372851804E+002
+1.04402337229E+007, +1.55297520224E+001, +1.09152724690E+002
+1.06070116861E+007, +1.54300466574E+001, +1.10924246322E+002
+1.07737896494E+007, +1.55093345192E+001, +1.12743546945E+002
+1.09405676127E+007, +1.55617058719E+001, +1.14564915592E+002
+1.11073455760E+007, +1.55294970399E+001, +1.16363441555E+002
+1.12741235392E+007, +1.56520637921E+001, +1.18157362641E+002
+1.14409015025E+007, +1.56890458677E+001, +1.19891897637E+002
+1.16076794658E+007, +1.57674856858E+001, +1.21723580881E+002
+1.17744574290E+007, +1.56732604041E+001, +1.23716824670E+002
+1.19412353923E+007, +1.56898813429E+001, +1.25427853730E+002
+1.21080133556E+007, +1.55409921750E+001, +1.27204394987E+002
+1.22747913189E+007, +1.57168815823E+001, +1.29164534192E+002
+1.24415692821E+007, +1.56476851907E+001, +1.30850560772E+002
+1.26083472454E+007, +1.56268573159E+001, +1.32774794028E+002
+1.27751252087E+007, +1.57769594761E+001, +1.34412064945E+002
+1.29419031720E+007, +1.56768892414E+001, +1.36281562191E+002
+1.31086811352E+007, +1.58116906320E+001, +1.38206864494E+002
+1.32754590985E+007, +1.59209762052E+001, +1.40062542277E+002
+1.34422370618E+007, +1.58084122046E+001, +1.41936742563E+002
+1.36090150250E+007, +1.59289347426E+001, +1.43665803441E+002
+1.37757929883E+007, +1.58831716959E+001, +1.45621725604E+002
+1.39425709516E+007, +1.60113262284E+001, +1.47439041989E+002
+1.41093489149E+007, +1.59577532409E+001, +1.49177820762E+002
+1.42761268781E+007, +1.60972538393E+001, +1.51165798551E+002
+1.44429048414E+007, +1.62398018561E+001, +1.52900240978E+002
+1.46096828047E+007, +1.59902828974E+001, +1.54781929121E+002
+1.47764607679E+007, +1.61256954420E+001, +1.56620344319E+002
+1.49432387312E+007, +1.59494247018E+001, +1.58423485238E+002
+1.51100166945E+007, +1.60143842602E+001, +1.60405141049E+002
+1.52767946578E+007, +1.62039746624E+001, +1.62251330416E+002
+1.54435726210E+007, +1.60743450206E+001, +1.64055008453E+002
+1.56103505843E+007, +1.63939991061E+001, +1.65884676983E+002
+1.57771285476E+007, +1.63482936159E+001, +1.67781129834E+002
+1.59439065109E+007, +1.62552230599E+001, +1.69773300775E+002
+1.61106844741E+007, +1.62312205385E+001, +1.71598765912E+002
+1.62774624374E+007, +1.62965400931E+001, +1.73502389611E+002
+1.64442404007E+007, +1.64038690769E+001, +1.75503711518E+002
+1.66110183639E+007, +1.65525673712E+001, +1.77412072219E+002
+1.67777963272E+007, +1.64060753722E+001, +1.79446726479E+002
+1.69445742905E+007, +1.65822127279E+001, +1.81130330905E+002
+1.71113522538E+007, +1.62350079013E+001, +1.83086922660E+002
+1.72781302170E+007, +1.63814408540E+001, +1.85265986044E+002
+1.74449081803E+007, +1.62945760353E+001, +1.86791584111E+002
+1.76116861436E+007, +1.66087949792E+001, +1.88866740928E+002
+1.77784641068E+007, +1.65423316959E+001, +1.90704377110E+002
+1.79452420701E+007, +1.67510938279E+001, +1.92740370571E+002
+1.81120200334E+007, +1.66193619955E+001, +1.94590610301E+002
+1.82787979967E+007, +1.69494655256E+001, +1.96502453555E+002
+1.84455759599E+007, +1.68483559641E+001, +1.98601620744E+002
+1.86123539232E+007, +1.70327759643E+001, +2.00577080955E+002
+1.87791318865E+007, +1.69202094576E+001, +2.02392654714E+002
+1.89459098497E+007, +1.69481687785E+001, +2.04330903347E+002
+1.91126878130E+007, +1.71662790359E+001, +2.06424712895E+002
+1.92794657763E+007, +1.72623387755E+001, +2.08182919192E+002
+1.94462437396E+007, +1.71750673780E+001, +2.10500202214E+002
+1.96130217028E+007, +1.71543586066E+001, +2.12443242993E+002
+1.97797996661E+007, +1.73947222729E+001, +2.14206827100E+002
+1.99465776294E+007, +1.70250818239E+001, +2.16185572805E+002
+2.01133555927E+007, +1.72389578269E+001, +2.18075308862E+002
+2.02801335559E+007, +1.73347729008E+001, +2.20538525559E+002
+2.04469115192E+007, +1.77494403696E+001, +2.22587346353E+002
+2.06136894825E+007, +1.75846992542E+001, +2.24442390966E+002
+2.07804674457E+007, +1.75052803043E+001, +2.26436849809E+002
+2.09472454090E+007, +1.77215537600E+001, +2.28414136770E+002
+2.11140233723E+007, +1.76950422312E+001, +2.30279167243E+002
+2.12808013356E+007, +1.79623275382E+001, +2.32614369266E+002
+2.14475792988E+007, +1.79326503603E+001, +2.34592537709E+002
+2.16143572621E+007, +1.80868678993E+001, +2.36479684425E+002
+2.17811352254E+007, +1.79032111315E+001, +2.38185994399E+002
+2.19479131886E+007, +1.82139044018E+001, +2.40645543022E+002
+2.21146911519E+007, +1.85486787713E+001, +2.42445375201E+002
+2.22814691152E+007, +1.80526959175E+001, +2.44864513075E+002
+2.24482470785E+007, +1.84470731318E+001, +2.46986260556E+002
+2.26150250417E+007, +1.87471307862E+001, +2.48807777986E+002
+2.27818030050E+007, +1.84729638801E+001, +2.51139998868E+002
+2.29485809683E+007, +1.90845232261E+001, +2.53012345108E+002
+2.31153589316E+007, +1.85223270419E+001, +2.55093502634E+002
+2.32821368948E+007, +1.92236305856E+001, +2.57345575296E+002
+2.34489148581E+007, +1.89413041233E+001, +2.59063766477E+002
+2.36156928214E+007, +1.93993897224E+001, +2.61588709902E+002
+2.37824707846E+007, +1.91623287170E+001, +2.63516765599E+002
+2.39492487479E+007, +1.90513324300E+001, +2.65314270960E+002
+2.41160267112E+007, +1.93293202901E+001, +2.67157921246E+002
+2.42828046745E+007, +1.95519896852E+001, +2.69889630255E+002
+2.44495826377E+007, +1.96893325909E+001, +2.72210801109E+002
+2.46163606010E+007, +1.94372471264E+001, +2.73764285859E+002
+2.47831385643E+007, +1.95486685011E+001, +2.76238122760E+002
+2.49499165275E+007, +2.01690571326E+001, +2.78222829571E+002
+2.51166944908E+007, +2.03145291384E+001, +2.80476881049E+002
+2.52834724541E+007, +1.99068805084E+001, +2.82751852290E+002
+2.54502504174E+007, +2.05271050387E+001, +2.84893797999E+002
+2.56170283806E+007, +2.04458983033E+001, +2.86862679349E+002
+2.57838063439E+007, +2.06467813043E+001, +2.89578684843E+002
+2.59505843072E+007, +2.08441210439E+001, +2.91430641363E+002
+2.61173622705E+007, +2.13637967018E+001, +2.93497553228E+002
+2.62841402337E+007, +2.08796179737E+001, +2.95510251884E+002
+2.64509181970E+007, +2.05544142835E+001, +2.97888770844E+002
+2.66176961603E+007, +2.09165952692E+001, +3.00327489884E+002
+2.67844741235E+007, +2.11786349378E+001, +3.02750845196E+002
+2.69512520868E+007, +2.13289079074E+001, +3.04498486021E+002
+2.71180300501E+007, +2.15028934876E+001, +3.06072385811E+002
+2.72848080134E+007, +2.19501083140E+001, +3.08577387010E+002
+2.74515859766E+007, +2.13278931361E+001, +3.10989151780E+002
+2.76183639399E+007, +2.14718947453E+001, +3.12968576119E+002
+2.77851419032E+007, +2.13947193039E+001, +3.15662575558E+002
+2.79519198664E+007, +2.20231570205E+001, +3.17828733969E+002
+2.81186978297E+007, +2.22107098385E+001, +3.19465141886E+002
+2.82854757930E+007, +2.20155648738E+001, +3.21950113322E+002
+2.84522537563E+007, +2.14873283903E+001, +3.24315281618E+002
+2.86190317195E+007, +2.21027652547E+001, +3.26583384536E+002
+2.87858096828E+007, +2.31062334736E+001, +3.28954840890E+002
+2.89525876461E+007, +2.29613358925E+001, +3.31362334507E+002
+2.91193656093E+007, +2.24534909503E+001, +3.33057586992E+002
+2.92861435726E+007, +2.23092144884E+001, +3.35667280647E+002
+2.94529215359E+007, +2.31710807773E+001, +3.37881964805E+002
+2.96196994992E+007, +2.31417953027E+001, +3.40272144476E+002
+2.97864774624E+007, +2.33536155621E+001, +3.42670133915E+002
+2.99532554257E+007, +2.34401848553E+001, +3.45249167641E+002
+3.01200333890E+007, +2.31704360959E+001, +3.47512047106E+002
+3.02868113523E+007, +2.31376032529E+001, +3.50174908968E+002
+3.04535893155E+007, +2.33329550538E+001, +3.52725409709E+002
+3.06203672788E+007, +2.37257642537E+001, +3.54490470943E+002
+3.07871452421E+007, +2.34379220588E+001, +3.57275022241E+002
+3.09539232053E+007, +2.36434749007E+001, +3.59881641214E+002
+3.11207011686E+007, +2.27790526639E+001, +3.62525008947E+002
+3.12874791319E+007, +2.34788066941E+001, +3.64495282842E+002
+3.14542570952E+007, +2.38109940646E+001, +3.67239942564E+002
+3.16210350584E+007, +2.34376300479E+001, +3.70040875497E+002
+3.17878130217E+007, +2.34169787613E+001, +3.72310099605E+002
+3.19545909850E+007, +2.36208305494E+001, +3.74524002412E+002
+3.21213689482E+007, +2.33820338352E+001, +3.77154856086E+002
+3.22881469115E+007, +2.36995819323E+001, +3.78999855384E+002
+3.24549248748E+007, +2.36418412014E+001, +3.82164677284E+002
+3.26217028381E+007, +2.36896327830E+001, +3.85123590879E+002
+3.27884808013E+007, +2.38524645351E+001, +3.87268032688E+002
+3.29552587646E+007, +2.37871860731E+001, +3.89489346006E+002
+3.31220367279E+007, +2.46310510134E+001, +3.92273947478E+002
+3.32888146912E+007, +2.44207192447E+001, +3.96249015327E+002
+3.34555926544E+007, +2.38540458652E+001, +3.97693462769E+002
+3.36223706177E+007, +2.54011976332E+001, +3.99965084987E+002
+3.37891485810E+007, +2.46766601020E+001, +4.02626844242E+002
+3.39559265442E+007, +2.42914905049E+001, +4.05535124453E+002
+3.41227045075E+007, +2.48829869596E+001, +4.08328088718E+002
+3.42894824708E+007, +2.45232133839E+001, +4.10292657906E+002
+3.44562604341E+007, +2.49443000952E+001, +4.13399687714E+002
+3.46230383973E+007, +2.58196077444E+001, +4.16736308734E+002
+3.47898163606E+007, +2.52323027422E+001, +4.18640498132E+002
+3.49565943239E+007, +2.59867638119E+001, +4.22209416685E+002
+3.51233722871E+007, +2.56717294398E+001, +4.24764279550E+002
+3.52901502504E+007, +2.64435910917E+001, +4.26762518435E+002
+3.54569282137E+007, +2.57177174575E+001, +4.29756891068E+002
+3.56237061770E+007, +2.59187474277E+001, +4.32774125024E+002
+3.57904841402E+007, +2.61547635198E+001, +4.36246470879E+002
+3.59572621035E+007, +2.59921019293E+001, +4.38755589396E+002
+3.61240400668E+007, +2.64044356600E+001, +4.41307378453E+002
+3.62908180301E+007, +2.69919362065E+001, +4.45868757859E+002
+3.64575959933E+007, +2.68428076141E+001, +4.47542402320E+002
+3.66243739566E+007, +2.80397028861E+001, +4.49919666537E+002
+3.67911519199E+007, +2.67532290902E+001, +4.53002519097E+002
+3.69579298831E+007, +2.72458283622E+001, +4.56105206277E+002
+3.71247078464E+007, +2.71107358807E+001, +4.59560326648E+002
+3.72914858097E+007, +2.77448472430E+001, +4.62328263325E+002
+3.74582637730E+007, +2.87472363788E+001, +4.66450489542E+002
+3.76250417362E+007, +2.85476042851E+001, +4.68441372837E+002
+3.77918196995E+007, +2.81369501515E+001, +4.70534218197E+002
+3.79585976628E+007, +2.79699996519E+001, +4.73978331886E+002
+3.81253756260E+007, +2.94476609024E+001, +4.77640035902E+002
+3.82921535893E+007, +2.99445122911E+001, +4.80114334203E+002
+3.84589315526E+007, +2.99249414290E+001, +4.83473050392E+002
+3.86257095159E+007, +2.91690909034E+001, +4.86683137235E+002
+3.87924874791E+007, +2.94355860273E+001, +4.89516999265E+002
+3.89592654424E+007, +3.04136482000E+001, +4.92661159384E+002
+3.91260434057E+007, +2.98648467984E+001, +4.95609903814E+002
+3.92928213689E+007, +3.04209715640E+001, +4.99801534777E+002
+3.94595993322E+007, +2.99022559867E+001, +5.02224968698E+002
+3.96263772955E+007, +2.95684917142E+001, +5.06033687983E+002
+3.97931552588E+007, +2.94105529011E+001, +5.08657875872E+002
+3.99599332220E+007, +3.03506671119E+001, +5.12581855155E+002
+4.01267111853E+007, +3.11640271092E+001, +5.15364603545E+002
+4.02934891486E+007, +3.07383172912E+001, +5.18288867493E+002
+4.04602671119E+007, +3.18189327190E+001, +5.22633361828E+002
+4.06270450751E+007, +3.24702232167E+001, +5.25441661681E+002
+4.07938230384E+007, +3.24921843920E+001, +5.29467480274E+002
+4.09606010017E+007, +3.20788920646E+001, +5.33857395809E+002
+4.11273789649E+007, +3.35964083213E+001, +5.34461789252E+002
+4.12941569282E+007, +3.33376344391E+001, +5.39333760025E+002
+4.14609348915E+007, +3.29453955229E+001, +5.45129136545E+002
+4.16277128548E+007, +3.36682780195E+001, +5.46381721218E+002
+4.17944908180E+007, +3.48461130459E+001, +5.49940086794E+002
+4.19612687813E+007, +3.46742457571E+001, +5.52942476055E+002
+4.21280467446E+007, +3.41352082582E+001, +5.58031314638E+002
+4.22948247078E+007, +3.50077287979E+001, +5.61365482519E+002
+4.24616026711E+007, +3.58260185994E+001, +5.63638586428E+002
+4.26283806344E+007, +3.63105243332E+001, +5.69250246242E+002
+4.27951585977E+007, +3.46351954796E+001, +5.71929361588E+002
+4.29619365609E+007, +3.59058545704E+001, +5.76685136807E+002
+4.31287145242E+007, +3.63659140925E+001, +5.81339367713E+002
+4.32954924875E+007, +3.70976930934E+001, +5.82831766757E+002
+4.34622704508E+007, +3.68797580680E+001, +5.88500302955E+002
+4.36290484140E+007, +3.81075173999E+001, +5.91235204088E+002
+4.37958263773E+007, +3.59908347580E+001, +5.94568614803E+002
+4.39626043406E+007, +3.84042310052E+001, +5.98295859576E+002
+4.41293823038E+007, +3.85899079311E+001, +6.05108311467E+002
+4.42961602671E+007, +3.78884583501E+001, +6.07896762836E+002
+4.44629382304E+007, +3.92783539383E+001, +6.12053940796E+002
+4.46297161937E+007, +3.94606557032E+001, +6.13915261167E+002
+4.47964941569E+007, +4.00445656582E+001, +6.19976001211E+002
+4.49632721202E+007, +3.98850056816E+001, +6.24054766490E+002
+4.51300500835E+007, +3.97856908724E+001, +6.26875833063E+002
+4.52968280467E+007, +4.17873851635E+001, +6.31941124219E+002
+4.54636060100E+007, +4.25051437139E+001, +6.38226414833E+002
+4.56303839733E+007, +4.01572854840E+001, +6.41218799631E+002
+4.57971619366E+007, +4.29255268344E+001, +6.46708580017E+002
+4.59639398998E+007, +4.21579355807E+001, +6.52941723679E+002
+4.61307178631E+007, +4.37317296844E+001, +6.55050991350E+002
+4.62974958264E+007, +4.61098003473E+001, +6.59559716668E+002
+4.64642737896E+007, +4.39294968801E+001, +6.63603494732E+002
+4.66310517529E+007, +4.43935475349E+001, +6.69375104597E+002
+4.67978297162E+007, +4.76014485529E+001, +6.71541006580E+002
+4.69646076795E+007, +4.57438578516E+001, +6.78792276038E+002
+4.71313856427E+007, +4.67301268324E+001, +6.84550570546E+002
+4.72981636060E+007, +4.66231381438E+001, +6.89038652361E+002
+4.74649415693E+007, +4.79924077613E+001, +6.93540829939E+002
+4.76317195326E+007, +5.14899367115E+001, +6.97702770806E+002
+4.77984974958E+007, +5.12786368253E+001, +7.04802041874E+002
+4.79652754591E+007, +5.28404896452E+001, +7.07221069939E+002
+4.81320534224E+007, +5.31237421833E+001, +7.13599479110E+002
+4.82988313856E+007, +5.12493788407E+001, +7.18657655409E+002
+4.84656093489E+007, +5.39474868498E+001, +7.22881354257E+002
+4.86323873122E+007, +5.46899226714E+001, +7.26145909997E+002
+4.87991652755E+007, +5.73695628284E+001, +7.33775026066E+002
+4.89659432387E+007, +5.72402759541E+001, +7.38332809438E+002
+4.91327212020E+007, +6.06359507288E+001, +7.44986467837E+002
+4.92994991653E+007, +6.23717090458E+001, +7.48090405855E+002
+4.94662771285E+007, +6.22290617864E+001, +7.56579265405E+002
+4.96330550918E+007, +6.40119550552E+001, +7.58923728370E+002
+4.97998330551E+007, +6.58401769568E+001, +7.62995350291E+002
+4.99666110184E+007, +6.81799013026E+001, +7.67551886119E+002
+5.01333889816E+007, +6.86817349532E+001, +7.74020547421E+002
+5.03001669449E+007, +6.65209496615E+001, +7.78870095223E+002
+5.04669449082E+007, +6.81101168428E+001, +7.84399932138E+002
+5.06337228715E+007, +7.18053745338E+001, +7.91429282612E+002
+5.08005008347E+007, +6.93941231717E+001, +7.93698716987E+002
+5.09672787980E+007, +7.28888157321E+001, +7.99117219131E+002
+5.11340567613E+007, +7.42841816543E+001, +8.04808857758E+002
+5.13008347245E+007, +7.20167090178E+001, +8.09637740281E+002
+5.14676126878E+007, +7.37745610247E+001, +8.19460539661E+002
+5.16343906511E+007, +7.38130149079E+001, +8.24359638655E+002
+5.18011686144E+007, +7.42408006912E+001, +8.26283620270E+002
+5.19679465776E+007, +7.34672846421E+001, +8.31490408913E+002
+5.21347245409E+007, +7.55996076621E+001, +8.40553319132E+002
+5.23015025042E+007, +8.01219569437E+001, +8.52670062286E+002
+5.24682804674E+007, +7.73869355151E+001, +8.54641343717E+002
+5.26350584307E+007, +7.92443610725E+001, +8.61723222241E+002
+5.28018363940E+007, +7.99169571827E+001, +8.68573982113E+002
+5.29686143573E+007, +8.27957612838E+001, +8.75617853022E+002
+5.31353923205E+007, +7.94629336715E+001, +8.80012224945E+002
+5.33021702838E+007, +7.88329450810E+001, +8.90582333825E+002
+5.34689482471E+007, +8.51832876169E+001, +8.99063718195E+002
