"# Channel 1"
"# Trace 1"
Frequency, Formatted Data, Formatted Data
+1.00000000000E+005, +2.58498500333E+001, +9.99668225041E-001
+2.66777963272E+005, +2.58171210724E+001, +2.80091577868E+000
+4.33555926544E+005, +2.57910307752E+001, +4.59431802185E+000
+6.00333889816E+005, +2.58451028095E+001, +6.33443048026E+000
+7.67111853088E+005, +2.58594133502E+001, +8.05726804372E+000
+9.33889816361E+005, +2.58339869052E+001, +9.79878509856E+000
+1.10066777963E+006, +2.58642540588E+001, +1.15806931380E+001
+1.26744574290E+006, +2.58588975993E+001, +1.33118784169E+001
+1.43422370618E+006, +2.58674427042E+001, +1.51256716164E+001
+1.60100166945E+006, +2.58704797964E+001, +1.68009989507E+001
+1.76777963272E+006, +2.58699853711E+001, +1.85574956357E+001
+1.93455759599E+006, +2.58358192587E+001, +2.02689432982E+001
+2.10133555927E+006, +2.58491012378E+001, +2.20161311418E+001
+2.26811352254E+006, +2.59030113278E+001, +2.37875660939E+001
+2.43489148581E+006, +2.59046511129E+001, +2.55869153909E+001
+2.60166944908E+006, +2.58606990399E+001, +2.72771231718E+001
+2.76844741235E+006, +2.58995975180E+001, +2.90498190901E+001
+2.93522537563E+006, +2.58607618070E+001, +3.07959283476E+001
+3.10200333890E+006, +2.59580292893E+001, +3.25063607270E+001
+3.26878130217E+006, +2.58596275043E+001, +3.42806758088E+001
+3.43555926544E+006, +2.59072953353E+001, +3.60157437512E+001
+3.60233722871E+006, +2.59395123188E+001, +3.77513697677E+001
+3.76911519199E+006, +2.59533061452E+001, +3.95905030831E+001
+3.93589315526E+006, +2.59269383960E+001, +4.12260038093E+001
+4.10267111853E+006, +2.56480054014E+001, +4.31131630925E+001
+4.26944908180E+006, +2.60185600815E+001, +4.49825354412E+001
+4.43622704508E+006, +2.59863244231E+001, +4.65767369071E+001
+4.60300500835E+006, +2.60120031926E+001, +4.83983720240E+001
+4.76978297162E+006, +2.60068453258E+001, +5.00743845791E+001
+4.93656093489E+006, +2.60971497585E+001, +5.18309957373E+001
+5.10333889816E+006, +2.60367710931E+001, +5.35879594226E+001
+5.27011686144E+006, +2.61840578589E+001, +5.54395443192E+001
+5.43689482471E+006, +2.60949118191E+001, +5.71540800376E+001
+5.60367278798E+006, +2.61195591502E+001, +5.89774946577E+001
+5.77045075125E+006, +2.61005731960E+001, +6.06740171675E+001
+5.93722871452E+006, +2.62029005461E+001, +6.23924416514E+001
+6.10400667780E+006, +2.61313427724E+001, +6.42036100020E+001
+6.27078464107E+006, +2.62274607846E+001, +6.59996520273E+001
+6.43756260434E+006, +2.62378960581E+001, +6.77261401833E+001
+6.60434056761E+006, +2.62392470999E+001, +6.94807173390E+001
+6.77111853088E+006, +2.63087262660E+001, +7.12260527495E+001
+6.93789649416E+006, +2.62624865093E+001, +7.30174728419E+001
+7.10467445743E+006, +2.62783238637E+001, +7.47909161724E+001
+7.27145242070E+006, +2.62751271535E+001, +7.65464147284E+001
+7.43823038397E+006, +2.63307474912E+001, +7.83380254707E+001
+7.60500834725E+006, +2.63063480813E+001, +8.00705595049E+001
+7.77178631052E+006, +2.63773113579E+001, +8.19495574626E+001
+7.93856427379E+006, +2.63646505600E+001, +8.35988587692E+001
+8.10534223706E+006, +2.63496418738E+001, +8.54339124695E+001
+8.27212020033E+006, +2.63955930341E+001, +8.71890605562E+001
+8.43889816361E+006, +2.63690549184E+001, +8.90078824143E+001
+8.60567612688E+006, +2.63975852602E+001, +9.08361710414E+001
+8.77245409015E+006, +2.63841691503E+001, +9.25855101841E+001
+8.93923205342E+006, +2.64486934840E+001, +9.43998448703E+001
+9.10601001669E+006, +2.64624367955E+001, +9.62323068640E+001
+9.27278797997E+006, +2.64454808481E+001, +9.80471026164E+001
+9.43956594324E+006, +2.65045548583E+001, +9.97724909720E+001
+9.60634390651E+006, +2.64876679432E+001, +1.01671623857E+002
+9.77312186978E+006, +2.64983619204E+001, +1.03461361017E+002
+9.93989983306E+006, +2.66050230239E+001, +1.05269384022E+002
+1.01066777963E+007, +2.65100671316E+001, +1.07072203662E+002
+1.02734557596E+007, +2.65569998900E+001, +1.08935309004E+002
+1.04402337229E+007, +2.66159814534E+001, +1.10729883763E+002
+1.06070116861E+007, +2.65150358602E+001, +1.12481894427E+002
+1.07737896494E+007, +2.66447462469E+001, +1.14462495612E+002
+1.09405676127E+007, +2.66420705914E+001, +1.16214691647E+002
+1.11073455760E+007, +2.66935821831E+001, +1.18093427141E+002
+1.12741235392E+007, +2.66611397785E+001, +1.19857580970E+002
+1.14409015025E+007, +2.67400976485E+001, +1.21694465825E+002
+1.16076794658E+007, +2.68432608029E+001, +1.23561497797E+002
+1.17744574290E+007, +2.68781433599E+001, +1.25459077150E+002
+1.19412353923E+007, +2.67956187197E+001, +1.27267825969E+002
+1.21080133556E+007, +2.68532891647E+001, +1.29120344896E+002
+1.22747913189E+007, +2.68945540895E+001, +1.31003874556E+002
+1.24415692821E+007, +2.68680593708E+001, +1.32857342632E+002
+1.26083472454E+007, +2.68871214859E+001, +1.34650131460E+002
+1.27751252087E+007, +2.70904743121E+001, +1.36331320449E+002
+1.29419031720E+007, +2.68550072899E+001, +1.38226538159E+002
+1.31086811352E+007, +2.70484840361E+001, +1.40268174674E+002
+1.32754590985E+007, +2.69830345509E+001, +1.42171484502E+002
+1.34422370618E+007, +2.69950225477E+001, +1.43970472947E+002
+1.36090150250E+007, +2.72126141562E+001, +1.45817706825E+002
+1.37757929883E+007, +2.71233726542E+001, +1.47684769842E+002
+1.39425709516E+007, +2.73245339665E+001, +1.49561408175E+002
+1.41093489149E+007, +2.72956832048E+001, +1.51490693569E+002
+1.42761268781E+007, +2.74373058735E+001, +1.53301743275E+002
+1.44429048414E+007, +2.73096844646E+001, +1.55200056860E+002
+1.46096828047E+007, +2.73406103493E+001, +1.57182477213E+002
+1.47764607679E+007, +2.74304133257E+001, +1.58959704299E+002
+1.49432387312E+007, +2.74773507915E+001, +1.60844881808E+002
+1.51100166945E+007, +2.74894437157E+001, +1.62831114643E+002
+1.52767946578E+007, +2.78199592125E+001, +1.64651467387E+002
+1.54435726210E+007, +2.76906513890E+001, +1.66519689944E+002
+1.56103505843E+007, +2.78608431865E+001, +1.68593798655E+002
+1.57771285476E+007, +2.77810231603E+001, +1.70415333926E+002
+1.59439065109E+007, +2.78212863140E+001, +1.72417969011E+002
+1.61106844741E+007, +2.77931131202E+001, +1.74229741052E+002
+1.62774624374E+007, +2.78306482721E+001, +1.76180959944E+002
+1.64442404007E+007, +2.77919260324E+001, +1.78099100025E+002
+1.66110183639E+007, +2.79783334823E+001, +1.79996221799E+002
+1.67777963272E+007, +2.79269249851E+001, +1.82175792235E+002
+1.69445742905E+007, +2.82650627465E+001, +1.83878342375E+002
+1.71113522538E+007, +2.76485207667E+001, +1.85730366757E+002
+1.72781302170E+007, +2.80478845949E+001, +1.87919033561E+002
+1.74449081803E+007, +2.79370076429E+001, +1.89760315698E+002
+1.76116861436E+007, +2.83344017902E+001, +1.91844841827E+002
+1.77784641068E+007, +2.80890584841E+001, +1.93592775813E+002
+1.79452420701E+007, +2.84869635557E+001, +1.95592859222E+002
+1.81120200334E+007, +2.84527752257E+001, +1.97387419001E+002
+1.82787979967E+007, +2.86705342210E+001, +1.99681583339E+002
+1.84455759599E+007, +2.85519129815E+001, +2.01657146165E+002
+1.86123539232E+007, +2.89097832283E+001, +2.03322724828E+002
+1.87791318865E+007, +2.86193658173E+001, +2.05649629576E+002
+1.89459098497E+007, +2.86023140509E+001, +2.07605954973E+002
+1.91126878130E+007, +2.88478710894E+001, +2.09241413130E+002
+1.92794657763E+007, +2.90132230079E+001, +2.11421566851E+002
+1.94462437396E+007, +2.91300836334E+001, +2.13892060769E+002
+1.96130217028E+007, +2.91889955169E+001, +2.15727947800E+002
+1.97797996661E+007, +2.91837709860E+001, +2.17557680384E+002
+1.99465776294E+007, +2.90812845924E+001, +2.19317058706E+002
+2.01133555927E+007, +2.92410889994E+001, +2.21480579264E+002
+2.02801335559E+007, +2.93412100049E+001, +2.23829470867E+002
+2.04469115192E+007, +2.94989206625E+001, +2.25806475761E+002
+2.06136894825E+007, +2.95853911776E+001, +2.27456783395E+002
+2.07804674457E+007, +2.96914090734E+001, +2.30070782672E+002
+2.09472454090E+007, +2.94945120676E+001, +2.31774635684E+002
+2.11140233723E+007, +2.99748502483E+001, +2.33677375165E+002
+2.12808013356E+007, +3.01046217956E+001, +2.35944347333E+002
+2.14475792988E+007, +2.98804682191E+001, +2.37852163163E+002
+2.16143572621E+007, +3.01757171096E+001, +2.40017710728E+002
+2.17811352254E+007, +2.99904735208E+001, +2.41903481402E+002
+2.19479131886E+007, +3.04692355103E+001, +2.44057555187E+002
+2.21146911519E+007, +3.05287584188E+001, +2.45879556257E+002
+2.22814691152E+007, +3.02902990994E+001, +2.48096206359E+002
+2.24482470785E+007, +3.05707983160E+001, +2.50436327907E+002
+2.26150250417E+007, +3.12452180821E+001, +2.52385736398E+002
+2.27818030050E+007, +3.08385211459E+001, +2.54794031621E+002
+2.29485809683E+007, +3.11797937434E+001, +2.56618047035E+002
+2.31153589316E+007, +3.08507198610E+001, +2.59108599052E+002
+2.32821368948E+007, +3.14336246750E+001, +2.61281520851E+002
+2.34489148581E+007, +3.14928955152E+001, +2.62848781382E+002
+2.36156928214E+007, +3.18407435478E+001, +2.65476592246E+002
+2.37824707846E+007, +3.18441551968E+001, +2.67360250297E+002
+2.39492487479E+007, +3.15953220173E+001, +2.69178733465E+002
+2.41160267112E+007, +3.17081649818E+001, +2.71798220167E+002
+2.42828046745E+007, +3.20886205344E+001, +2.73717126620E+002
+2.44495826377E+007, +3.18205503397E+001, +2.76271442867E+002
+2.46163606010E+007, +3.19874661605E+001, +2.77770163139E+002
+2.47831385643E+007, +3.18547755452E+001, +2.80278523102E+002
+2.49499165275E+007, +3.24523298336E+001, +2.82637355617E+002
+2.51166944908E+007, +3.27810682911E+001, +2.84571728380E+002
+2.52834724541E+007, +3.27707348807E+001, +2.86816370443E+002
+2.54502504174E+007, +3.32200679175E+001, +2.89111050980E+002
+2.56170283806E+007, +3.31211890085E+001, +2.90798892302E+002
+2.57838063439E+007, +3.31082620367E+001, +2.93568234389E+002
+2.59505843072E+007, +3.35219193473E+001, +2.96000134550E+002
+2.61173622705E+007, +3.35619087516E+001, +2.98109975453E+002
+2.62841402337E+007, +3.38677085692E+001, +2.99935636113E+002
+2.64509181970E+007, +3.34741219482E+001, +3.02200000318E+002
+2.66176961603E+007, +3.38966468258E+001, +3.04882693151E+002
+2.67844741235E+007, +3.39782149419E+001, +3.06783897312E+002
+2.69512520868E+007, +3.39975721303E+001, +3.08998326066E+002
+2.71180300501E+007, +3.45362688324E+001, +3.10365033204E+002
+2.72848080134E+007, +3.46158646265E+001, +3.13334746263E+002
+2.74515859766E+007, +3.47462544512E+001, +3.15484007709E+002
+2.76183639399E+007, +3.44197776146E+001, +3.17463749881E+002
+2.77851419032E+007, +3.44163906061E+001, +3.19496449210E+002
+2.79519198664E+007, +3.52789316379E+001, +3.22258117459E+002
+2.81186978297E+007, +3.51321671990E+001, +3.23871525583E+002
+2.82854757930E+007, +3.52281247181E+001, +3.26502555622E+002
+2.84522537563E+007, +3.43460650634E+001, +3.29107393011E+002
+2.86190317195E+007, +3.50050522951E+001, +3.30843326399E+002
+2.87858096828E+007, +3.60967631586E+001, +3.33957298989E+002
+2.89525876461E+007, +3.56626475001E+001, +3.36129620210E+002
+2.91193656093E+007, +3.62050457053E+001, +3.37962858759E+002
+2.92861435726E+007, +3.52420113563E+001, +3.40301591540E+002
+2.94529215359E+007, +3.60633846008E+001, +3.42603957041E+002
+2.96196994992E+007, +3.66637271186E+001, +3.45729514973E+002
+2.97864774624E+007, +3.66261968922E+001, +3.47771421126E+002
+2.99532554257E+007, +3.67353549802E+001, +3.50286726346E+002
+3.01200333890E+007, +3.62538008365E+001, +3.53033758646E+002
+3.02868113523E+007, +3.65818947794E+001, +3.55489280241E+002
+3.04535893155E+007, +3.63534600805E+001, +3.57633393574E+002
+3.06203672788E+007, +3.70825165617E+001, +3.59728366718E+002
+3.07871452421E+007, +3.71427520398E+001, +3.62288949607E+002
+3.09539232053E+007, +3.66941332053E+001, +3.64293017775E+002
+3.11207011686E+007, +3.65169140733E+001, +3.67409151090E+002
+3.12874791319E+007, +3.73843822251E+001, +3.69641419545E+002
+3.14542570952E+007, +3.73671861227E+001, +3.72648351722E+002
+3.16210350584E+007, +3.70971433667E+001, +3.75934880422E+002
+3.17878130217E+007, +3.67382512590E+001, +3.77203938315E+002
+3.19545909850E+007, +3.77888754051E+001, +3.80478723668E+002
+3.21213689482E+007, +3.75555140816E+001, +3.83152418568E+002
+3.22881469115E+007, +3.74545586885E+001, +3.85098347841E+002
+3.24549248748E+007, +3.75170827505E+001, +3.87895541426E+002
+3.26217028381E+007, +3.73600981751E+001, +3.90602269024E+002
+3.27884808013E+007, +3.87089309224E+001, +3.92903444953E+002
+3.29552587646E+007, +3.76869242780E+001, +3.95536873733E+002
+3.31220367279E+007, +3.80533718653E+001, +3.98086275013E+002
+3.32888146912E+007, +3.80712539929E+001, +4.00830878865E+002
+3.34555926544E+007, +3.81974439958E+001, +4.04143879822E+002
+3.36223706177E+007, +3.84715037942E+001, +4.06011247808E+002
+3.37891485810E+007, +3.91299747745E+001, +4.07911159421E+002
+3.39559265442E+007, +3.81625138989E+001, +4.12185905403E+002
+3.41227045075E+007, +3.89661299353E+001, +4.14730759283E+002
+3.42894824708E+007, +3.94159155457E+001, +4.17512506320E+002
+3.44562604341E+007, +3.85511356583E+001, +4.19789596801E+002
+3.46230383973E+007, +3.97624636709E+001, +4.23485535189E+002
+3.47898163606E+007, +3.88883073154E+001, +4.24834068989E+002
+3.49565943239E+007, +4.08019768268E+001, +4.28589771150E+002
+3.51233722871E+007, +3.97603906667E+001, +4.31298788551E+002
+3.52901502504E+007, +4.03742421646E+001, +4.33586115570E+002
+3.54569282137E+007, +4.04215919295E+001, +4.37108049488E+002
+3.56237061770E+007, +4.02437983144E+001, +4.39807900973E+002
+3.57904841402E+007, +4.06303475051E+001, +4.42885501266E+002
+3.59572621035E+007, +4.04800370392E+001, +4.45721785382E+002
+3.61240400668E+007, +4.10073810458E+001, +4.47956593378E+002
+3.62908180301E+007, +4.09782348208E+001, +4.51936863028E+002
+3.64575959933E+007, +4.07588466929E+001, +4.53655078365E+002
+3.66243739566E+007, +4.14737014486E+001, +4.56361001724E+002
+3.67911519199E+007, +4.20217186674E+001, +4.60821447463E+002
+3.69579298831E+007, +4.19586146748E+001, +4.62509125470E+002
+3.71247078464E+007, +4.27783903009E+001, +4.65926451344E+002
+3.72914858097E+007, +4.15073433820E+001, +4.68459818225E+002
+3.74582637730E+007, +4.33112685150E+001, +4.72796369771E+002
+3.76250417362E+007, +4.28860684269E+001, +4.75203225167E+002
+3.77918196995E+007, +4.35111131724E+001, +4.78396415291E+002
+3.79585976628E+007, +4.35113864583E+001, +4.81564484644E+002
+3.81253756260E+007, +4.44062726810E+001, +4.84058137645E+002
+3.82921535893E+007, +4.47312225128E+001, +4.87415385039E+002
+3.84589315526E+007, +4.49984070924E+001, +4.90333014108E+002
+3.86257095159E+007, +4.34603587236E+001, +4.93780391738E+002
+3.87924874791E+007, +4.39516265624E+001, +4.97296419721E+002
+3.89592654424E+007, +4.47489098099E+001, +5.00722201214E+002
+3.91260434057E+007, +4.55772420015E+001, +5.03722153538E+002
+3.92928213689E+007, +4.53169333916E+001, +5.06441804545E+002
+3.94595993322E+007, +4.49131866403E+001, +5.10481876532E+002
+3.96263772955E+007, +4.49617332709E+001, +5.13743082390E+002
+3.97931552588E+007, +4.45570165932E+001, +5.15659491549E+002
+3.99599332220E+007, +4.58560018442E+001, +5.19917005522E+002
+4.01267111853E+007, +4.61414022955E+001, +5.23912837243E+002
+4.02934891486E+007, +4.55650712168E+001, +5.26395348382E+002
+4.04602671119E+007, +4.66669614413E+001, +5.29823285720E+002
+4.06270450751E+007, +4.72890181978E+001, +5.34729747797E+002
+4.07938230384E+007, +4.78736076466E+001, +5.37760101035E+002
+4.09606010017E+007, +4.75942104248E+001, +5.41145376118E+002
+4.11273789649E+007, +4.75110375712E+001, +5.44138449572E+002
+4.12941569282E+007, +4.88187741926E+001, +5.47176109270E+002
+4.14609348915E+007, +4.84165977898E+001, +5.53741929308E+002
+4.16277128548E+007, +5.00963672672E+001, +5.55370717613E+002
+4.17944908180E+007, +4.99302806306E+001, +5.59193126293E+002
+4.19612687813E+007, +4.95534858233E+001, +5.62965642045E+002
+4.21280467446E+007, +5.00523493470E+001, +5.66482030338E+002
+4.22948247078E+007, +5.07341433151E+001, +5.69462517241E+002
+4.24616026711E+007, +5.20761663909E+001, +5.72301440798E+002
+4.26283806344E+007, +5.18045453247E+001, +5.78147317809E+002
+4.27951585977E+007, +4.97868170061E+001, +5.82116732970E+002
+4.29619365609E+007, +5.21752585696E+001, +5.84782167363E+002
+4.31287145242E+007, +5.33328851770E+001, +5.89940521165E+002
+4.32954924875E+007, +5.29126879511E+001, +5.92944681969E+002
+4.34622704508E+007, +5.16798817990E+001, +5.97018276155E+002
+4.36290484140E+007, +5.44570889087E+001, +6.01354046863E+002
+4.37958263773E+007, +5.41118537564E+001, +6.05884800585E+002
+4.39626043406E+007, +5.32949120910E+001, +6.09172452677E+002
+4.41293823038E+007, +5.44794345742E+001, +6.14018095319E+002
+4.42961602671E+007, +5.42819111332E+001, +6.16974442359E+002
+4.44629382304E+007, +5.47620410366E+001, +6.20728522805E+002
+4.46297161937E+007, +5.60048372286E+001, +6.26055393498E+002
+4.47964941569E+007, +5.52065791519E+001, +6.30716319499E+002
+4.49632721202E+007, +5.53117832043E+001, +6.34303907777E+002
+4.51300500835E+007, +5.54428548785E+001, +6.36757548845E+002
+4.52968280467E+007, +5.78701267583E+001, +6.42124359181E+002
+4.54636060100E+007, +5.93288734388E+001, +6.48031091093E+002
+4.56303839733E+007, +5.75946891119E+001, +6.52777534527E+002
+4.57971619366E+007, +5.93688844048E+001, +6.55037742975E+002
+4.59639398998E+007, +5.81950273099E+001, +6.64748848187E+002
+4.61307178631E+007, +5.95010100028E+001, +6.65786136759E+002
+4.62974958264E+007, +6.16972500205E+001, +6.71349798369E+002
+4.64642737896E+007, +5.97182399627E+001, +6.74128569917E+002
+4.66310517529E+007, +5.99369326876E+001, +6.80755684719E+002
+4.67978297162E+007, +6.42137224602E+001, +6.83305692308E+002
+4.69646076795E+007, +6.17821068101E+001, +6.91411062763E+002
+4.71313856427E+007, +6.38336103389E+001, +6.96159018293E+002
+4.72981636060E+007, +6.30799446292E+001, +7.01101828744E+002
+4.74649415693E+007, +6.42779651565E+001, +7.03989387222E+002
+4.76317195326E+007, +6.60686526364E+001, +7.08825381273E+002
+4.77984974958E+007, +6.76460394665E+001, +7.15105497733E+002
+4.79652754591E+007, +6.55617639127E+001, +7.20670199465E+002
+4.81320534224E+007, +6.69631125557E+001, +7.24754784648E+002
+4.82988313856E+007, +6.88981675392E+001, +7.29236139122E+002
+4.84656093489E+007, +6.94632902929E+001, +7.34963700696E+002
+4.86323873122E+007, +7.08897451106E+001, +7.38735981190E+002
+4.87991652755E+007, +7.29942527742E+001, +7.45220444784E+002
+4.89659432387E+007, +7.40274231854E+001, +7.50553050645E+002
+4.91327212020E+007, +7.60910437811E+001, +7.56147723607E+002
+4.92994991653E+007, +7.65979553757E+001, +7.59647402673E+002
+4.94662771285E+007, +7.71829448228E+001, +7.68994891034E+002
+4.96330550918E+007, +7.74320646598E+001, +7.72878141856E+002
+4.97998330551E+007, +8.09253621445E+001, +7.78618920226E+002
+4.99666110184E+007, +8.05916734413E+001, +7.80965047587E+002
+5.01333889816E+007, +8.20050033468E+001, +7.87604226587E+002
+5.03001669449E+007, +7.97389821576E+001, +7.94188894081E+002
+5.04669449082E+007, +8.35416083269E+001, +8.00961653585E+002
+5.06337228715E+007, +8.41815925727E+001, +8.09041278146E+002
+5.08005008347E+007, +8.18691308696E+001, +8.12169547181E+002
+5.09672787980E+007, +8.60494676523E+001, +8.16111626340E+002
+5.11340567613E+007, +8.73694534057E+001, +8.24749759277E+002
+5.13008347245E+007, +8.42691976773E+001, +8.33460398470E+002
+5.14676126878E+007, +8.68651476300E+001, +8.36125846560E+002
+5.16343906511E+007, +9.16730455233E+001, +8.43834457447E+002
+5.18011686144E+007, +8.77372452683E+001, +8.51930998318E+002
+5.19679465776E+007, +9.11680223717E+001, +8.56486091483E+002
+5.21347245409E+007, +9.40728472905E+001, +8.65430863779E+002
+5.23015025042E+007, +9.43575861261E+001, +8.75916961832E+002
+5.24682804674E+007, +9.22622769561E+001, +8.82433938992E+002
+5.26350584307E+007, +9.55171862464E+001, +8.85439669324E+002
+5.28018363940E+007, +9.26887840957E+001, +8.96789206769E+002
+5.29686143573E+007, +9.65753298002E+001, +9.01917789545E+002
+5.31353923205E+007, +9.78453750797E+001, +9.06551585154E+002
+5.33021702838E+007, +9.80506121941E+001, +9.17347309412E+002
+5.34689482471E+007, +1.02478670360E+002, +9.28852433239E+002
