"# Channel 1"
"# Trace 1"
Frequency, Formatted Data, Formatted Data
+1.00000000000E+005, +6.15472119005E+001, +1.57963853451E+000
+3.50250417362E+005, +6.16459531353E+001, +2.15426225467E+000
+6.00500834725E+005, +6.16716652947E+001, +5.49942475001E+000
+8.50751252087E+005, +6.18347151967E+001, +9.31763892196E+000
+1.10100166945E+006, +6.15365787978E+001, +1.18374452310E+001
+1.35125208681E+006, +6.15686815816E+001, +1.45717069143E+001
+1.60150250417E+006, +6.16520509565E+001, +1.73835716142E+001
+1.85175292154E+006, +6.15339339504E+001, +2.01035074617E+001
+2.10200333890E+006, +6.16068951666E+001, +2.29123521660E+001
+2.35225375626E+006, +6.17009864708E+001, +2.57146127796E+001
+2.60250417362E+006, +6.18087113308E+001, +2.84321570325E+001
+2.85275459098E+006, +6.18157724075E+001, +3.11402446176E+001
+3.10300500835E+006, +6.19434219862E+001, +3.39424509037E+001
+3.35325542571E+006, +6.18606175931E+001, +3.63772571430E+001
+3.60350584307E+006, +6.13739268561E+001, +3.87558254759E+001
+3.85375626043E+006, +6.19236585932E+001, +4.22570789599E+001
+4.10400667780E+006, +6.10287617312E+001, +4.39443040420E+001
+4.35425709516E+006, +6.18718599907E+001, +4.76355680219E+001
+4.60450751252E+006, +6.18669575121E+001, +5.04875722440E+001
+4.85475792988E+006, +6.19111234680E+001, +5.32029547679E+001
+5.10500834725E+006, +6.20438406081E+001, +5.58740171020E+001
+5.35525876461E+006, +6.20974205055E+001, +5.86330322075E+001
+5.60550918197E+006, +6.21893122049E+001, +6.13776832952E+001
+5.85575959933E+006, +6.22687927605E+001, +6.39464574940E+001
+6.10601001669E+006, +6.22499822289E+001, +6.66208578825E+001
+6.35626043406E+006, +6.23374587384E+001, +6.94533433387E+001
+6.60651085142E+006, +6.23590577539E+001, +7.21293493832E+001
+6.85676126878E+006, +6.24597411001E+001, +7.49860631915E+001
+7.10701168614E+006, +6.24954346529E+001, +7.77377002664E+001
+7.35726210351E+006, +6.25166654465E+001, +8.04917890853E+001
+7.60751252087E+006, +6.26328919800E+001, +8.32695252146E+001
+7.85776293823E+006, +6.27351018141E+001, +8.60915988033E+001
+8.10801335559E+006, +6.27965207493E+001, +8.87967510864E+001
+8.35826377295E+006, +6.28808092788E+001, +9.15865535107E+001
+8.60851419032E+006, +6.28683740104E+001, +9.43570184304E+001
+8.85876460768E+006, +6.28792270327E+001, +9.70689960848E+001
+9.10901502504E+006, +6.30720952833E+001, +9.98972573720E+001
+9.35926544240E+006, +6.32445406376E+001, +1.02897608327E+002
+9.60951585977E+006, +6.32322193047E+001, +1.05530517437E+002
+9.85976627713E+006, +6.32495764378E+001, +1.08163701430E+002
+1.01100166945E+007, +6.32001398349E+001, +1.10963126413E+002
+1.03602671119E+007, +6.33158370225E+001, +1.13685689498E+002
+1.06105175292E+007, +6.33229978773E+001, +1.16639116411E+002
+1.08607679466E+007, +6.33608694892E+001, +1.19400959279E+002
+1.11110183639E+007, +6.33487770841E+001, +1.22147603012E+002
+1.13612687813E+007, +6.36132536621E+001, +1.25135447713E+002
+1.16115191987E+007, +6.37220499801E+001, +1.27921555947E+002
+1.18617696160E+007, +6.37336680164E+001, +1.30625965695E+002
+1.21120200334E+007, +6.37118485918E+001, +1.33446329126E+002
+1.23622704508E+007, +6.39565756476E+001, +1.36212308529E+002
+1.26125208681E+007, +6.41071802138E+001, +1.39144992501E+002
+1.28627712855E+007, +6.41759248477E+001, +1.41852111170E+002
+1.31130217028E+007, +6.42512238085E+001, +1.44744631348E+002
+1.33632721202E+007, +6.42642500438E+001, +1.47627259866E+002
+1.36135225376E+007, +6.43008269086E+001, +1.50483304045E+002
+1.38637729549E+007, +6.45595598753E+001, +1.53202245389E+002
+1.41140233723E+007, +6.44713412761E+001, +1.56133730310E+002
+1.43642737896E+007, +6.45570232424E+001, +1.58828756989E+002
+1.46145242070E+007, +6.46079169955E+001, +1.61933195898E+002
+1.48647746244E+007, +6.47506213988E+001, +1.64946563607E+002
+1.51150250417E+007, +6.48520715229E+001, +1.67881637300E+002
+1.53652754591E+007, +6.52451281433E+001, +1.70704834990E+002
+1.56155258765E+007, +6.52463020342E+001, +1.73468430673E+002
+1.58657762938E+007, +6.50506610753E+001, +1.76401487131E+002
+1.61160267112E+007, +6.52771925513E+001, +1.79337763574E+002
+1.63662771285E+007, +6.53312329697E+001, +1.81975750511E+002
+1.66165275459E+007, +6.56328091098E+001, +1.84879603879E+002
+1.68667779633E+007, +6.56446654868E+001, +1.88047736125E+002
+1.71170283806E+007, +6.56201325831E+001, +1.91095459249E+002
+1.73672787980E+007, +6.58353209600E+001, +1.94020712767E+002
+1.76175292154E+007, +6.58619837429E+001, +1.96628852270E+002
+1.78677796327E+007, +6.63064240647E+001, +1.99813319343E+002
+1.81180300501E+007, +6.63892001037E+001, +2.02885551685E+002
+1.83682804674E+007, +6.64277902206E+001, +2.05838589064E+002
+1.86185308848E+007, +6.67304399266E+001, +2.08817544556E+002
+1.88687813022E+007, +6.66627423251E+001, +2.11771991744E+002
+1.91190317195E+007, +6.66375932990E+001, +2.14584334801E+002
+1.93692821369E+007, +6.68139796244E+001, +2.17511397671E+002
+1.96195325543E+007, +6.67336158700E+001, +2.20333010918E+002
+1.98697829716E+007, +6.71939354084E+001, +2.23497950629E+002
+2.01200333890E+007, +6.71023370657E+001, +2.26488008803E+002
+2.03702838063E+007, +6.75507814737E+001, +2.29305653114E+002
+2.06205342237E+007, +6.74666751028E+001, +2.32268416930E+002
+2.08707846411E+007, +6.76472447390E+001, +2.35488512235E+002
+2.11210350584E+007, +6.76099293275E+001, +2.38468020719E+002
+2.13712854758E+007, +6.78826182397E+001, +2.41800243087E+002
+2.16215358932E+007, +6.81488803461E+001, +2.44831365375E+002
+2.18717863105E+007, +6.82855154367E+001, +2.47718898269E+002
+2.21220367279E+007, +6.86382689068E+001, +2.50957422500E+002
+2.23722871452E+007, +6.85155164725E+001, +2.53941979047E+002
+2.26225375626E+007, +6.87109379067E+001, +2.56673819535E+002
+2.28727879800E+007, +6.89315449762E+001, +2.59961150826E+002
+2.31230383973E+007, +6.95834259674E+001, +2.63249876297E+002
+2.33732888147E+007, +6.97376811866E+001, +2.66534623892E+002
+2.36235392321E+007, +6.98993258221E+001, +2.69275573133E+002
+2.38737896494E+007, +6.97106523407E+001, +2.72581431063E+002
+2.41240400668E+007, +6.98304247236E+001, +2.76011401360E+002
+2.43742904841E+007, +6.99933362459E+001, +2.79092980713E+002
+2.46245409015E+007, +7.00998359307E+001, +2.81969932437E+002
+2.48747913189E+007, +7.03629746295E+001, +2.84946332531E+002
+2.51250417362E+007, +7.08478174971E+001, +2.87928000555E+002
+2.53752921536E+007, +7.13783426330E+001, +2.91111850723E+002
+2.56255425710E+007, +7.15559661081E+001, +2.94240028884E+002
+2.58757929883E+007, +7.14810735497E+001, +2.97779535167E+002
+2.61260434057E+007, +7.15161113063E+001, +3.00397020947E+002
+2.63762938230E+007, +7.19319363551E+001, +3.03696122296E+002
+2.66265442404E+007, +7.17531087880E+001, +3.06792673398E+002
+2.68767946578E+007, +7.21434955883E+001, +3.10628380883E+002
+2.71270450751E+007, +7.21607665384E+001, +3.14004195854E+002
+2.73772954925E+007, +7.25300681161E+001, +3.17047575718E+002
+2.76275459098E+007, +7.26131938349E+001, +3.20653864111E+002
+2.78777963272E+007, +7.28751469532E+001, +3.24288897856E+002
+2.81280467446E+007, +7.33171514331E+001, +3.27325522580E+002
+2.83782971619E+007, +7.32401055480E+001, +3.30034781419E+002
+2.86285475793E+007, +7.35585822870E+001, +3.33565772388E+002
+2.88787979967E+007, +7.37756827775E+001, +3.37323961336E+002
+2.91290484140E+007, +7.41493810397E+001, +3.40344990458E+002
+2.93792988314E+007, +7.43692032433E+001, +3.43314207649E+002
+2.96295492487E+007, +7.44450412688E+001, +3.46769265511E+002
+2.98797996661E+007, +7.44110273045E+001, +3.50270541654E+002
+3.01300500835E+007, +7.50974196360E+001, +3.53865013869E+002
+3.03803005008E+007, +7.47364706362E+001, +3.57376196704E+002
+3.06305509182E+007, +7.51657381568E+001, +3.61162872469E+002
+3.08808013356E+007, +7.53106104557E+001, +3.64399903226E+002
+3.11310517529E+007, +7.58586226699E+001, +3.67972514994E+002
+3.13813021703E+007, +7.63634702077E+001, +3.71690966106E+002
+3.16315525876E+007, +7.64035325088E+001, +3.76096908248E+002
+3.18818030050E+007, +7.71139763673E+001, +3.78854457453E+002
+3.21320534224E+007, +7.68929480604E+001, +3.82556980691E+002
+3.23823038397E+007, +7.75403292215E+001, +3.85725690568E+002
+3.26325542571E+007, +7.62751931963E+001, +3.88840455842E+002
+3.28828046745E+007, +7.69027053099E+001, +3.92535258505E+002
+3.31330550918E+007, +7.72954377979E+001, +3.95508737387E+002
+3.33833055092E+007, +7.76425599633E+001, +3.99681940058E+002
+3.36335559265E+007, +7.76188425707E+001, +4.02994104213E+002
+3.38838063439E+007, +7.77516540321E+001, +4.07026733555E+002
+3.41340567613E+007, +7.84350578729E+001, +4.10855809408E+002
+3.43843071786E+007, +7.89024768512E+001, +4.14612108103E+002
+3.46345575960E+007, +7.99428018642E+001, +4.17810188994E+002
+3.48848080134E+007, +7.99275066066E+001, +4.22076670143E+002
+3.51350584307E+007, +7.90124025666E+001, +4.25231537631E+002
+3.53853088481E+007, +8.05031620582E+001, +4.28942768955E+002
+3.56355592654E+007, +8.09859564428E+001, +4.33302069727E+002
+3.58858096828E+007, +8.12055053459E+001, +4.36334732582E+002
+3.61360601002E+007, +8.12173623505E+001, +4.40590650006E+002
+3.63863105175E+007, +8.15143996173E+001, +4.43582796341E+002
+3.66365609349E+007, +8.11992018755E+001, +4.48119388172E+002
+3.68868113523E+007, +8.13411998267E+001, +4.51935034143E+002
+3.71370617696E+007, +8.14623283802E+001, +4.56066364728E+002
+3.73873121870E+007, +8.27140898214E+001, +4.60837267538E+002
+3.76375626043E+007, +8.23558162782E+001, +4.63963513538E+002
+3.78878130217E+007, +8.34024046818E+001, +4.68865160842E+002
+3.81380634391E+007, +8.48424184549E+001, +4.71642944802E+002
+3.83883138564E+007, +8.44676458778E+001, +4.75728806894E+002
+3.86385642738E+007, +8.51923000075E+001, +4.79649556933E+002
+3.88888146912E+007, +8.61767332558E+001, +4.84184871132E+002
+3.91390651085E+007, +8.56363456712E+001, +4.87209024527E+002
+3.93893155259E+007, +8.56995682519E+001, +4.91360074531E+002
+3.96395659432E+007, +8.57587632442E+001, +4.94232532110E+002
+3.98898163606E+007, +8.67975664955E+001, +4.99697515670E+002
+4.01400667780E+007, +8.80270632996E+001, +5.03359480628E+002
+4.03903171953E+007, +8.80165419881E+001, +5.08295749171E+002
+4.06405676127E+007, +8.85463454883E+001, +5.11941893370E+002
+4.08908180301E+007, +8.75373667103E+001, +5.16488353833E+002
+4.11410684474E+007, +8.81307490470E+001, +5.21284995059E+002
+4.13913188648E+007, +8.91268478736E+001, +5.25733376056E+002
+4.16415692821E+007, +8.99653744966E+001, +5.29746141974E+002
+4.18918196995E+007, +8.98382765553E+001, +5.34157029269E+002
+4.21420701169E+007, +8.96753019853E+001, +5.38020392405E+002
+4.23923205342E+007, +8.95479640261E+001, +5.42679955566E+002
+4.26425709516E+007, +9.18205895674E+001, +5.48291504050E+002
+4.28928213689E+007, +9.22442086274E+001, +5.50955147900E+002
+4.31430717863E+007, +9.30914661764E+001, +5.56377855772E+002
+4.33933222037E+007, +9.20200577006E+001, +5.61012779913E+002
+4.36435726210E+007, +9.36260416687E+001, +5.66013439145E+002
+4.38938230384E+007, +9.37968888652E+001, +5.69092044050E+002
+4.41440734558E+007, +9.40941074647E+001, +5.74549759042E+002
+4.43943238731E+007, +9.52337766802E+001, +5.78659751091E+002
+4.46445742905E+007, +9.42221327156E+001, +5.82417343883E+002
+4.48948247078E+007, +9.40140072582E+001, +5.86968689103E+002
+4.51450751252E+007, +9.46388610243E+001, +5.91703703999E+002
+4.53953255426E+007, +9.58981952308E+001, +5.98021055494E+002
+4.56455759599E+007, +9.58361714067E+001, +6.02591993268E+002
+4.58958263773E+007, +9.77938447019E+001, +6.07086696379E+002
+4.61460767947E+007, +9.65610914904E+001, +6.13340612010E+002
+4.63963272120E+007, +9.97485332419E+001, +6.15855853013E+002
+4.66465776294E+007, +1.00548755140E+002, +6.23143271332E+002
+4.68968280467E+007, +9.92688240613E+001, +6.27290572860E+002
+4.71470784641E+007, +1.00130161850E+002, +6.32658633442E+002
+4.73973288815E+007, +1.00472384045E+002, +6.38018557661E+002
+4.76475792988E+007, +1.01199880357E+002, +6.41622706103E+002
+4.78978297162E+007, +1.02410774510E+002, +6.47427296275E+002
+4.81480801336E+007, +1.02783296376E+002, +6.51519220296E+002
+4.83983305509E+007, +1.02727672736E+002, +6.56471367607E+002
+4.86485809683E+007, +1.03785907295E+002, +6.62793319048E+002
+4.88988313856E+007, +1.04461053684E+002, +6.66909214755E+002
+4.91490818030E+007, +1.03154581012E+002, +6.71754783144E+002
+4.93993322204E+007, +1.06323069414E+002, +6.78850707436E+002
+4.96495826377E+007, +1.07930189453E+002, +6.83493146886E+002
+4.98998330551E+007, +1.06735942605E+002, +6.86804219518E+002
+5.01500834725E+007, +1.07692416794E+002, +6.95877159629E+002
+5.04003338898E+007, +1.10308074004E+002, +7.00732167650E+002
+5.06505843072E+007, +1.11072683906E+002, +7.04821831791E+002
+5.09008347245E+007, +1.10913972154E+002, +7.11044633435E+002
+5.11510851419E+007, +1.12821118914E+002, +7.15640922768E+002
+5.14013355593E+007, +1.12426130071E+002, +7.23052135951E+002
+5.16515859766E+007, +1.13959423965E+002, +7.28446706493E+002
+5.19018363940E+007, +1.13859557509E+002, +7.35970906022E+002
+5.21520868114E+007, +1.15535204003E+002, +7.40190208200E+002
+5.24023372287E+007, +1.17586136408E+002, +7.44595384258E+002
+5.26525876461E+007, +1.18239042242E+002, +7.50600898960E+002
+5.29028380634E+007, +1.19621393302E+002, +7.56768731217E+002
+5.31530884808E+007, +1.19464726729E+002, +7.65114844760E+002
+5.34033388982E+007, +1.20052097621E+002, +7.70549119417E+002
+5.36535893155E+007, +1.21211418149E+002, +7.74206390313E+002
+5.39038397329E+007, +1.24174066173E+002, +7.81855690600E+002
+5.41540901503E+007, +1.25194654885E+002, +7.88830846287E+002
+5.44043405676E+007, +1.23166222400E+002, +7.95961739159E+002
+5.46545909850E+007, +1.26121737855E+002, +8.01610254915E+002
+5.49048414023E+007, +1.27227965153E+002, +8.09252946205E+002
+5.51550918197E+007, +1.28956993691E+002, +8.14846377836E+002
+5.54053422371E+007, +1.29406633586E+002, +8.25599675021E+002
+5.56555926544E+007, +1.30767515395E+002, +8.33490777478E+002
+5.59058430718E+007, +1.34166790508E+002, +8.39017831629E+002
+5.61560934891E+007, +1.35030557038E+002, +8.47532829258E+002
+5.64063439065E+007, +1.35493577400E+002, +8.54448646576E+002
+5.66565943239E+007, +1.37738414283E+002, +8.59035159472E+002
+5.69068447412E+007, +1.37393694613E+002, +8.63758781788E+002
+5.71570951586E+007, +1.39429496421E+002, +8.71669833835E+002
+5.74073455760E+007, +1.41313910020E+002, +8.79195147568E+002
+5.76575959933E+007, +1.44619146555E+002, +8.83338337697E+002
+5.79078464107E+007, +1.43576980371E+002, +8.92541543949E+002
+5.81580968280E+007, +1.47586792080E+002, +9.01752109823E+002
+5.84083472454E+007, +1.49610215721E+002, +9.11001314914E+002
+5.86585976628E+007, +1.49823715184E+002, +9.20252313431E+002
+5.89088480801E+007, +1.53733087374E+002, +9.27533238853E+002
+5.91590984975E+007, +1.55390873680E+002, +9.31283420890E+002
+5.94093489149E+007, +1.58696067025E+002, +9.40587923379E+002
+5.96595993322E+007, +1.59625363508E+002, +9.48087776234E+002
+5.99098497496E+007, +1.61268719758E+002, +9.60513021615E+002
+6.01601001669E+007, +1.59150947864E+002, +9.64813162860E+002
+6.04103505843E+007, +1.60967846345E+002, +9.73264978860E+002
+6.06606010017E+007, +1.63214535929E+002, +9.81501161264E+002
+6.09108514190E+007, +1.64952005084E+002, +9.89539793428E+002
+6.11611018364E+007, +1.67336493637E+002, +1.00089129765E+003
+6.14113522538E+007, +1.70578139857E+002, +1.00924608676E+003
+6.16616026711E+007, +1.74661841367E+002, +1.01814614658E+003
+6.19118530885E+007, +1.72590830563E+002, +1.02722652719E+003
+6.21621035058E+007, +1.79439671646E+002, +1.03638518360E+003
+6.24123539232E+007, +1.80005138181E+002, +1.04308910587E+003
+6.26626043406E+007, +1.84957384314E+002, +1.04965771268E+003
+6.29128547579E+007, +1.84192138760E+002, +1.06278529903E+003
+6.31631051753E+007, +1.87522266242E+002, +1.07422441322E+003
+6.34133555927E+007, +1.90359247253E+002, +1.08232681361E+003
+6.36636060100E+007, +1.94221008057E+002, +1.09188887775E+003
+6.39138564274E+007, +1.97564494723E+002, +1.10141114216E+003
+6.41641068447E+007, +2.00463004322E+002, +1.11047216455E+003
+6.44143572621E+007, +1.99970641741E+002, +1.12804003500E+003
+6.46646076795E+007, +2.01200386518E+002, +1.12987567418E+003
+6.49148580968E+007, +2.07312430521E+002, +1.14830958434E+003
+6.51651085142E+007, +2.08086106401E+002, +1.15515209407E+003
+6.54153589316E+007, +2.11024368090E+002, +1.16800595659E+003
+6.56656093489E+007, +2.11533873759E+002, +1.17540315634E+003
+6.59158597663E+007, +2.24169062945E+002, +1.18464564756E+003
+6.61661101836E+007, +2.28360772353E+002, +1.19559827573E+003
+6.64163606010E+007, +2.32739773496E+002, +1.20515242076E+003
+6.66666110184E+007, +2.34660430020E+002, +1.21728493283E+003
+6.69168614357E+007, +2.36934748602E+002, +1.23317471961E+003
+6.71671118531E+007, +2.43867559034E+002, +1.24506146297E+003
+6.74173622705E+007, +2.45897606482E+002, +1.24971651843E+003
+6.76676126878E+007, +2.46510044183E+002, +1.26562528965E+003
+6.79178631052E+007, +2.55406897538E+002, +1.27325065922E+003
+6.81681135225E+007, +2.53251410466E+002, +1.28845955374E+003
+6.84183639399E+007, +2.69135363523E+002, +1.30747534539E+003
+6.86686143573E+007, +2.70614308546E+002, +1.31755430714E+003
+6.89188647746E+007, +2.74279240349E+002, +1.32734708352E+003
+6.91691151920E+007, +2.75407785479E+002, +1.33769766677E+003
+6.94193656093E+007, +2.80733577430E+002, +1.35792983264E+003
+6.96696160267E+007, +2.82688809691E+002, +1.36168887143E+003
+6.99198664441E+007, +2.94029450583E+002, +1.37160213325E+003
+7.01701168614E+007, +3.06052582538E+002, +1.37079079399E+003
+7.04203672788E+007, +3.06859660526E+002, +1.39959296549E+003
+7.06706176962E+007, +3.16759268113E+002, +1.42391935352E+003
+7.09208681135E+007, +3.18642729323E+002, +1.43109790776E+003
+7.11711185309E+007, +3.18984649949E+002, +1.44518242856E+003
+7.14213689482E+007, +3.27289319899E+002, +1.47577663140E+003
+7.16716193656E+007, +3.36641076729E+002, +1.48955154243E+003
+7.19218697830E+007, +3.48306574025E+002, +1.50880849588E+003
+7.21721202003E+007, +3.54795601840E+002, +1.50691342426E+003
+7.24223706177E+007, +3.62628487704E+002, +1.51692569528E+003
+7.26726210351E+007, +3.75963497915E+002, +1.54810274778E+003
+7.29228714524E+007, +3.61299852014E+002, +1.56916015217E+003
+7.31731218698E+007, +3.78731974435E+002, +1.58248286290E+003
+7.34233722871E+007, +3.95216935765E+002, +1.60056718649E+003
+7.36736227045E+007, +3.97830064898E+002, +1.62726996633E+003
+7.39238731219E+007, +4.05354232234E+002, +1.65242348665E+003
+7.41741235392E+007, +4.21543270749E+002, +1.66803800291E+003
+7.44243739566E+007, +4.34975017610E+002, +1.65296633824E+003
+7.46746243740E+007, +4.36196067340E+002, +1.68639313111E+003
+7.49248747913E+007, +4.51900010415E+002, +1.71421707992E+003
+7.51751252087E+007, +4.66805798438E+002, +1.73874582163E+003
+7.54253756260E+007, +4.82154391851E+002, +1.74761486429E+003
+7.56756260434E+007, +4.91176656379E+002, +1.76954453258E+003
+7.59258764608E+007, +5.13823709939E+002, +1.81140705749E+003
+7.61761268781E+007, +5.28366015851E+002, +1.83171576599E+003
+7.64263772955E+007, +5.19236521016E+002, +1.84706927834E+003
+7.66766277129E+007, +5.41353671536E+002, +1.87694936878E+003
+7.69268781302E+007, +5.58444487674E+002, +1.90371543982E+003
+7.71771285476E+007, +5.82570588533E+002, +1.92876265684E+003
+7.74273789649E+007, +6.04013979417E+002, +1.93002032890E+003
+7.76776293823E+007, +6.04214472885E+002, +1.97514008147E+003
+7.79278797997E+007, +6.17846635421E+002, +1.97851735101E+003
+7.81781302170E+007, +6.47844692437E+002, +1.99914475046E+003
+7.84283806344E+007, +6.57392654863E+002, +2.02030057542E+003
+7.86786310518E+007, +6.78893087719E+002, +2.08084480645E+003
+7.89288814691E+007, +6.96638667673E+002, +2.07056536880E+003
+7.91791318865E+007, +7.34700200720E+002, +2.09335060438E+003
+7.94293823038E+007, +7.59936478081E+002, +2.12068606417E+003
+7.96796327212E+007, +7.78497821432E+002, +2.14525315178E+003
+7.99298831386E+007, +8.08409083419E+002, +2.16682272425E+003
+8.01801335559E+007, +8.43525704687E+002, +2.17877454255E+003
