"# Channel 1"
"# Trace 1"
Frequency, Formatted Data, Formatted Data
+1.00000000000E+005, +2.60893720629E+001, +9.91846600083E-001
+2.66777963272E+005, +2.60874617762E+001, +2.79401023983E+000
+4.33555926544E+005, +2.60630210695E+001, +4.57235469867E+000
+6.00333889816E+005, +2.61152540013E+001, +6.35227556739E+000
+7.67111853088E+005, +2.61176084719E+001, +8.08027946131E+000
+9.33889816361E+005, +2.61118320010E+001, +9.79335665611E+000
+1.10066777963E+006, +2.61089321117E+001, +1.16093046526E+001
+1.26744574290E+006, +2.61180701841E+001, +1.33654694353E+001
+1.43422370618E+006, +2.61174521295E+001, +1.51391719379E+001
+1.60100166945E+006, +2.61052986100E+001, +1.68250007493E+001
+1.76777963272E+006, +2.60985148043E+001, +1.85723694954E+001
+1.93455759599E+006, +2.60993818132E+001, +2.03102321406E+001
+2.10133555927E+006, +2.61169538732E+001, +2.20796537687E+001
+2.26811352254E+006, +2.61270867406E+001, +2.37760847188E+001
+2.43489148581E+006, +2.61428443302E+001, +2.56102013673E+001
+2.60166944908E+006, +2.61150893300E+001, +2.72909063318E+001
+2.76844741235E+006, +2.61132507185E+001, +2.91198809710E+001
+2.93522537563E+006, +2.61485632082E+001, +3.08722182309E+001
+3.10200333890E+006, +2.61440434897E+001, +3.25016524326E+001
+3.26878130217E+006, +2.61027326283E+001, +3.43943626529E+001
+3.43555926544E+006, +2.61401937254E+001, +3.60676536374E+001
+3.60233722871E+006, +2.61854176583E+001, +3.78073351875E+001
+3.76911519199E+006, +2.61418717569E+001, +3.96216272753E+001
+3.93589315526E+006, +2.60842065765E+001, +4.13473131057E+001
+4.10267111853E+006, +2.61438871908E+001, +4.32249698460E+001
+4.26944908180E+006, +2.61955381213E+001, +4.49649055039E+001
+4.43622704508E+006, +2.61365639998E+001, +4.66186338647E+001
+4.60300500835E+006, +2.62122440765E+001, +4.84158984019E+001
+4.76978297162E+006, +2.61668218255E+001, +5.01113680324E+001
+4.93656093489E+006, +2.62672507916E+001, +5.19454804720E+001
+5.10333889816E+006, +2.62132195352E+001, +5.36380064132E+001
+5.27011686144E+006, +2.63300249662E+001, +5.54668292345E+001
+5.43689482471E+006, +2.62264400140E+001, +5.72111194104E+001
+5.60367278798E+006, +2.62582228685E+001, +5.90822975047E+001
+5.77045075125E+006, +2.62147763608E+001, +6.07473309213E+001
+5.93722871452E+006, +2.62985677809E+001, +6.24924499884E+001
+6.10400667780E+006, +2.63217977271E+001, +6.43163649977E+001
+6.27078464107E+006, +2.63479017105E+001, +6.60280369217E+001
+6.43756260434E+006, +2.63694459657E+001, +6.78593494271E+001
+6.60434056761E+006, +2.64042441910E+001, +6.96104512620E+001
+6.77111853088E+006, +2.65139879902E+001, +7.13267236222E+001
+6.93789649416E+006, +2.64343620777E+001, +7.31218538195E+001
+7.10467445743E+006, +2.64454764567E+001, +7.49130275776E+001
+7.27145242070E+006, +2.64676588997E+001, +7.66884488289E+001
+7.43823038397E+006, +2.65092090853E+001, +7.84101832819E+001
+7.60500834725E+006, +2.64576163940E+001, +8.02463182807E+001
+7.77178631052E+006, +2.65301664525E+001, +8.20718082253E+001
+7.93856427379E+006, +2.65648792199E+001, +8.37990238669E+001
+8.10534223706E+006, +2.65651940702E+001, +8.55861600047E+001
+8.27212020033E+006, +2.65790240671E+001, +8.73728307988E+001
+8.43889816361E+006, +2.65493760245E+001, +8.91782287803E+001
+8.60567612688E+006, +2.64820849918E+001, +9.09575245119E+001
+8.77245409015E+006, +2.65129276479E+001, +9.27826539051E+001
+8.93923205342E+006, +2.65608948313E+001, +9.45433544193E+001
+9.10601001669E+006, +2.66411588702E+001, +9.64051438718E+001
+9.27278797997E+006, +2.66537216760E+001, +9.82116121694E+001
+9.43956594324E+006, +2.66527836425E+001, +9.99532900860E+001
+9.60634390651E+006, +2.65886336925E+001, +1.01787627367E+002
+9.77312186978E+006, +2.66359291489E+001, +1.03553337899E+002
+9.93989983306E+006, +2.67383640981E+001, +1.05445667058E+002
+1.01066777963E+007, +2.67263029014E+001, +1.07177609019E+002
+1.02734557596E+007, +2.67314568310E+001, +1.09055287873E+002
+1.04402337229E+007, +2.67273111610E+001, +1.10906502214E+002
+1.06070116861E+007, +2.67075176107E+001, +1.12661197266E+002
+1.07737896494E+007, +2.67647517788E+001, +1.14571048540E+002
+1.09405676127E+007, +2.68196532003E+001, +1.16264700226E+002
+1.11073455760E+007, +2.67886880752E+001, +1.18241421045E+002
+1.12741235392E+007, +2.67923190707E+001, +1.19912677357E+002
+1.14409015025E+007, +2.68423632850E+001, +1.21846532544E+002
+1.16076794658E+007, +2.69577940231E+001, +1.23591299997E+002
+1.17744574290E+007, +2.69900326647E+001, +1.25590888140E+002
+1.19412353923E+007, +2.69540439147E+001, +1.27446994931E+002
+1.21080133556E+007, +2.68387450482E+001, +1.29240897278E+002
+1.22747913189E+007, +2.70219055871E+001, +1.31107614017E+002
+1.24415692821E+007, +2.69355367067E+001, +1.32867138252E+002
+1.26083472454E+007, +2.69317412314E+001, +1.34852161017E+002
+1.27751252087E+007, +2.70706005411E+001, +1.36555185113E+002
+1.29419031720E+007, +2.70195147824E+001, +1.38447548859E+002
+1.31086811352E+007, +2.71181481623E+001, +1.40415063671E+002
+1.32754590985E+007, +2.71724621403E+001, +1.42157343109E+002
+1.34422370618E+007, +2.71234215764E+001, +1.44112430417E+002
+1.36090150250E+007, +2.73326939538E+001, +1.46031825564E+002
+1.37757929883E+007, +2.72336041876E+001, +1.47849241991E+002
+1.39425709516E+007, +2.73190160835E+001, +1.49695266805E+002
+1.41093489149E+007, +2.73647530681E+001, +1.51493830462E+002
+1.42761268781E+007, +2.74516318573E+001, +1.53423188835E+002
+1.44429048414E+007, +2.73600629271E+001, +1.55263958688E+002
+1.46096828047E+007, +2.73118206510E+001, +1.57252560516E+002
+1.47764607679E+007, +2.75664675062E+001, +1.59068906503E+002
+1.49432387312E+007, +2.73276287176E+001, +1.60953741839E+002
+1.51100166945E+007, +2.75043439253E+001, +1.62952757242E+002
+1.52767946578E+007, +2.75551655183E+001, +1.64812881919E+002
+1.54435726210E+007, +2.76781423913E+001, +1.66708980376E+002
+1.56103505843E+007, +2.76602825049E+001, +1.68553148035E+002
+1.57771285476E+007, +2.74863177797E+001, +1.70437330297E+002
+1.59439065109E+007, +2.76118409105E+001, +1.72476494131E+002
+1.61106844741E+007, +2.77067336157E+001, +1.74440588886E+002
+1.62774624374E+007, +2.78302499631E+001, +1.76240504988E+002
+1.64442404007E+007, +2.77665623555E+001, +1.78176409454E+002
+1.66110183639E+007, +2.78723141436E+001, +1.79972513739E+002
+1.67777963272E+007, +2.78051592961E+001, +1.82189385672E+002
+1.69445742905E+007, +2.80264277451E+001, +1.83973561558E+002
+1.71113522538E+007, +2.75481786365E+001, +1.85831708112E+002
+1.72781302170E+007, +2.80010661656E+001, +1.87958845241E+002
+1.74449081803E+007, +2.78509580290E+001, +1.89904499300E+002
+1.76116861436E+007, +2.82117935697E+001, +1.91830344386E+002
+1.77784641068E+007, +2.80849599053E+001, +1.93671543626E+002
+1.79452420701E+007, +2.81870530304E+001, +1.95781579601E+002
+1.81120200334E+007, +2.83385625295E+001, +1.97666227603E+002
+1.82787979967E+007, +2.83935624846E+001, +1.99711709325E+002
+1.84455759599E+007, +2.84145593822E+001, +2.01675316261E+002
+1.86123539232E+007, +2.86546621680E+001, +2.03558536661E+002
+1.87791318865E+007, +2.85204942174E+001, +2.05619716608E+002
+1.89459098497E+007, +2.84923336580E+001, +2.07752921964E+002
+1.91126878130E+007, +2.86462382519E+001, +2.09319487538E+002
+1.92794657763E+007, +2.87865393616E+001, +2.11510959023E+002
+1.94462437396E+007, +2.87454993181E+001, +2.13786159114E+002
+1.96130217028E+007, +2.87288142905E+001, +2.15828025372E+002
+1.97797996661E+007, +2.87873225979E+001, +2.17544910520E+002
+1.99465776294E+007, +2.84971536482E+001, +2.19710225895E+002
+2.01133555927E+007, +2.89149085315E+001, +2.21885981723E+002
+2.02801335559E+007, +2.89077416264E+001, +2.23836256614E+002
+2.04469115192E+007, +2.92266034121E+001, +2.25734536871E+002
+2.06136894825E+007, +2.91712949133E+001, +2.27900697431E+002
+2.07804674457E+007, +2.91584842814E+001, +2.29847035824E+002
+2.09472454090E+007, +2.90889522961E+001, +2.32227106204E+002
+2.11140233723E+007, +2.94088439541E+001, +2.34025937662E+002
+2.12808013356E+007, +2.95830685543E+001, +2.36060360580E+002
+2.14475792988E+007, +2.93645749983E+001, +2.38131647251E+002
+2.16143572621E+007, +2.97203925510E+001, +2.40134710539E+002
+2.17811352254E+007, +2.97692664035E+001, +2.41923488734E+002
+2.19479131886E+007, +2.98535338778E+001, +2.44300917955E+002
+2.21146911519E+007, +3.00022528659E+001, +2.46198325598E+002
+2.22814691152E+007, +2.98698542041E+001, +2.48419105553E+002
+2.24482470785E+007, +3.00886429311E+001, +2.50908413515E+002
+2.26150250417E+007, +3.06772471383E+001, +2.52593049548E+002
+2.27818030050E+007, +3.03724996147E+001, +2.54819893202E+002
+2.29485809683E+007, +3.08876893240E+001, +2.56902569649E+002
+2.31153589316E+007, +3.01102183727E+001, +2.59288779105E+002
+2.32821368948E+007, +3.09945758833E+001, +2.61173975425E+002
+2.34489148581E+007, +3.07572874906E+001, +2.63044284723E+002
+2.36156928214E+007, +3.10990117773E+001, +2.65614851384E+002
+2.37824707846E+007, +3.08781414089E+001, +2.67615064301E+002
+2.39492487479E+007, +3.10702447121E+001, +2.69459397556E+002
+2.41160267112E+007, +3.13776530211E+001, +2.71908735033E+002
+2.42828046745E+007, +3.10310301410E+001, +2.74010368936E+002
+2.44495826377E+007, +3.14578515747E+001, +2.76309772868E+002
+2.46163606010E+007, +3.14787920636E+001, +2.77817188169E+002
+2.47831385643E+007, +3.12107913174E+001, +2.80383789476E+002
+2.49499165275E+007, +3.20258977040E+001, +2.82346173906E+002
+2.51166944908E+007, +3.22626376590E+001, +2.84614546783E+002
+2.52834724541E+007, +3.23099052047E+001, +2.87289171369E+002
+2.54502504174E+007, +3.24506616969E+001, +2.89350218544E+002
+2.56170283806E+007, +3.22983127505E+001, +2.91091427466E+002
+2.57838063439E+007, +3.23741681803E+001, +2.93974042441E+002
+2.59505843072E+007, +3.25812125205E+001, +2.96160693943E+002
+2.61173622705E+007, +3.28298296821E+001, +2.98183970053E+002
+2.62841402337E+007, +3.27323465862E+001, +3.00313650629E+002
+2.64509181970E+007, +3.24264095008E+001, +3.02697979450E+002
+2.66176961603E+007, +3.27174885838E+001, +3.05157771693E+002
+2.67844741235E+007, +3.30271276250E+001, +3.06890984917E+002
+2.69512520868E+007, +3.33107155632E+001, +3.09174153667E+002
+2.71180300501E+007, +3.35950555865E+001, +3.11196646751E+002
+2.72848080134E+007, +3.39109283583E+001, +3.13478155927E+002
+2.74515859766E+007, +3.39821095056E+001, +3.15819057048E+002
+2.76183639399E+007, +3.37576854116E+001, +3.17667432575E+002
+2.77851419032E+007, +3.36423410998E+001, +3.20480245807E+002
+2.79519198664E+007, +3.37195241812E+001, +3.22736944161E+002
+2.81186978297E+007, +3.44580935118E+001, +3.24430735844E+002
+2.82854757930E+007, +3.43160204619E+001, +3.27205892750E+002
+2.84522537563E+007, +3.32780354519E+001, +3.29882084008E+002
+2.86190317195E+007, +3.41581123345E+001, +3.31845593663E+002
+2.87858096828E+007, +3.45928192240E+001, +3.33934477768E+002
+2.89525876461E+007, +3.46215605045E+001, +3.36347295819E+002
+2.91193656093E+007, +3.43763640846E+001, +3.38482646161E+002
+2.92861435726E+007, +3.47592328025E+001, +3.40833351938E+002
+2.94529215359E+007, +3.47299416798E+001, +3.43837528265E+002
+2.96196994992E+007, +3.55374894294E+001, +3.45700527969E+002
+2.97864774624E+007, +3.58781940945E+001, +3.48550946213E+002
+2.99532554257E+007, +3.57376026937E+001, +3.51800843785E+002
+3.01200333890E+007, +3.55518131262E+001, +3.53407611043E+002
+3.02868113523E+007, +3.56333912298E+001, +3.55653253885E+002
+3.04535893155E+007, +3.60831720794E+001, +3.58864645134E+002
+3.06203672788E+007, +3.62669022030E+001, +3.60782219437E+002
+3.07871452421E+007, +3.57695523127E+001, +3.62714079078E+002
+3.09539232053E+007, +3.63157732123E+001, +3.65606315630E+002
+3.11207011686E+007, +3.59958729997E+001, +3.68939515643E+002
+3.12874791319E+007, +3.65568781526E+001, +3.70095949164E+002
+3.14542570952E+007, +3.65924688049E+001, +3.73046266206E+002
+3.16210350584E+007, +3.65579328527E+001, +3.76015133648E+002
+3.17878130217E+007, +3.65005380037E+001, +3.78056181438E+002
+3.19545909850E+007, +3.66384216883E+001, +3.80317464756E+002
+3.21213689482E+007, +3.59453780935E+001, +3.83262161079E+002
+3.22881469115E+007, +3.67525082143E+001, +3.84523147738E+002
+3.24549248748E+007, +3.74690050086E+001, +3.88470847439E+002
+3.26217028381E+007, +3.69639541213E+001, +3.91031665110E+002
+3.27884808013E+007, +3.69857303706E+001, +3.93130035016E+002
+3.29552587646E+007, +3.78896950723E+001, +3.95656655671E+002
+3.31220367279E+007, +3.79001694783E+001, +3.98330040259E+002
+3.32888146912E+007, +3.74093177822E+001, +4.01997644273E+002
+3.34555926544E+007, +3.68342068323E+001, +4.04210347432E+002
+3.36223706177E+007, +3.82300855043E+001, +4.07079192151E+002
+3.37891485810E+007, +3.80981943895E+001, +4.08599267972E+002
+3.39559265442E+007, +3.79369233019E+001, +4.12239282829E+002
+3.41227045075E+007, +3.80137838228E+001, +4.14748275292E+002
+3.42894824708E+007, +3.83485298147E+001, +4.17072590513E+002
+3.44562604341E+007, +3.80629169066E+001, +4.19793608040E+002
+3.46230383973E+007, +3.82922208248E+001, +4.23352628567E+002
+3.47898163606E+007, +3.85217178130E+001, +4.25116985272E+002
+3.49565943239E+007, +3.98285934614E+001, +4.28744786237E+002
+3.51233722871E+007, +3.93552607254E+001, +4.31553870155E+002
+3.52901502504E+007, +4.04500822193E+001, +4.33533678614E+002
+3.54569282137E+007, +3.92837004620E+001, +4.36757869828E+002
+3.56237061770E+007, +3.90186426944E+001, +4.39786322255E+002
+3.57904841402E+007, +3.93440755470E+001, +4.42796585356E+002
+3.59572621035E+007, +4.08020217787E+001, +4.45537835768E+002
+3.61240400668E+007, +4.03042003616E+001, +4.48448597981E+002
+3.62908180301E+007, +4.03047957866E+001, +4.52043996303E+002
+3.64575959933E+007, +4.03884329641E+001, +4.54257008116E+002
+3.66243739566E+007, +4.09625444260E+001, +4.56329616343E+002
+3.67911519199E+007, +4.06420402860E+001, +4.60258720531E+002
+3.69579298831E+007, +4.04298443098E+001, +4.63370556938E+002
+3.71247078464E+007, +4.05290706091E+001, +4.65791027376E+002
+3.72914858097E+007, +4.12822620387E+001, +4.69403743701E+002
+3.74582637730E+007, +4.25306374415E+001, +4.73093729699E+002
+3.76250417362E+007, +4.21390701852E+001, +4.75347319967E+002
+3.77918196995E+007, +4.18443685625E+001, +4.78329565985E+002
+3.79585976628E+007, +4.31003232290E+001, +4.80914635315E+002
+3.81253756260E+007, +4.27254600473E+001, +4.84163725616E+002
+3.82921535893E+007, +4.35283627474E+001, +4.87587307596E+002
+3.84589315526E+007, +4.36633986954E+001, +4.89889484135E+002
+3.86257095159E+007, +4.23246392051E+001, +4.94679957512E+002
+3.87924874791E+007, +4.32840335817E+001, +4.96590735498E+002
+3.89592654424E+007, +4.36207650550E+001, +5.00323365069E+002
+3.91260434057E+007, +4.42718873325E+001, +5.05115271723E+002
+3.92928213689E+007, +4.45547019225E+001, +5.06464161463E+002
+3.94595993322E+007, +4.39849634682E+001, +5.10689705993E+002
+3.96263772955E+007, +4.40418621658E+001, +5.12441690448E+002
+3.97931552588E+007, +4.45594274295E+001, +5.16806197859E+002
+3.99599332220E+007, +4.45592570121E+001, +5.20027449617E+002
+4.01267111853E+007, +4.56270419952E+001, +5.23586415367E+002
+4.02934891486E+007, +4.53563585732E+001, +5.26420910383E+002
+4.04602671119E+007, +4.62300473427E+001, +5.29388992608E+002
+4.06270450751E+007, +4.63093561472E+001, +5.33900671714E+002
+4.07938230384E+007, +4.59561220979E+001, +5.37209075136E+002
+4.09606010017E+007, +4.74269371704E+001, +5.41439652958E+002
+4.11273789649E+007, +4.77974065205E+001, +5.43855523017E+002
+4.12941569282E+007, +4.67590482629E+001, +5.47173879423E+002
+4.14609348915E+007, +4.68353317348E+001, +5.53542010718E+002
+4.16277128548E+007, +4.94244538477E+001, +5.55236000080E+002
+4.17944908180E+007, +4.88843007811E+001, +5.58827976234E+002
+4.19612687813E+007, +4.89219451101E+001, +5.61969631285E+002
+4.21280467446E+007, +4.82426144368E+001, +5.66435113375E+002
+4.22948247078E+007, +4.97727197319E+001, +5.69250474616E+002
+4.24616026711E+007, +5.06849398203E+001, +5.73354420266E+002
+4.26283806344E+007, +5.07077454784E+001, +5.76409571242E+002
+4.27951585977E+007, +4.94073622177E+001, +5.81291204798E+002
+4.29619365609E+007, +5.22590869389E+001, +5.84331118153E+002
+4.31287145242E+007, +5.25648899679E+001, +5.88841299127E+002
+4.32954924875E+007, +5.34238264160E+001, +5.90880264554E+002
+4.34622704508E+007, +5.12800804963E+001, +5.98410450489E+002
+4.36290484140E+007, +5.42242962792E+001, +6.00645653000E+002
+4.37958263773E+007, +5.25212445807E+001, +6.05139993158E+002
+4.39626043406E+007, +5.46384344820E+001, +6.09162039769E+002
+4.41293823038E+007, +5.50159087102E+001, +6.14242344073E+002
+4.42961602671E+007, +5.47473633433E+001, +6.17472733536E+002
+4.44629382304E+007, +5.52720366816E+001, +6.22202522156E+002
+4.46297161937E+007, +5.55793988561E+001, +6.24898278962E+002
+4.47964941569E+007, +5.44619062015E+001, +6.28261636206E+002
+4.49632721202E+007, +5.59449097085E+001, +6.35018009052E+002
+4.51300500835E+007, +5.56995792729E+001, +6.37886578553E+002
+4.52968280467E+007, +5.77609119805E+001, +6.41700873249E+002
+4.54636060100E+007, +5.81139383951E+001, +6.49309005630E+002
+4.56303839733E+007, +5.83455586070E+001, +6.53180576370E+002
+4.57971619366E+007, +5.69383180034E+001, +6.55877936394E+002
+4.59639398998E+007, +5.97901850767E+001, +6.63664102603E+002
+4.61307178631E+007, +6.02426770912E+001, +6.66318683358E+002
+4.62974958264E+007, +6.14973799084E+001, +6.72081797443E+002
+4.64642737896E+007, +6.08518784373E+001, +6.75144364362E+002
+4.66310517529E+007, +6.10843266443E+001, +6.79667720482E+002
+4.67978297162E+007, +6.61197641917E+001, +6.82850509093E+002
+4.69646076795E+007, +6.21956813884E+001, +6.92358810697E+002
+4.71313856427E+007, +6.62335174548E+001, +6.95458071625E+002
+4.72981636060E+007, +6.53199980230E+001, +6.99493480301E+002
+4.74649415693E+007, +6.50151641040E+001, +7.03973823955E+002
+4.76317195326E+007, +7.00141623997E+001, +7.08804827592E+002
+4.77984974958E+007, +6.99625989528E+001, +7.15253169289E+002
+4.79652754591E+007, +7.12593490248E+001, +7.19785432946E+002
+4.81320534224E+007, +7.35756410886E+001, +7.25887717861E+002
+4.82988313856E+007, +7.12832818314E+001, +7.28680151156E+002
+4.84656093489E+007, +7.33711951869E+001, +7.35368221963E+002
+4.86323873122E+007, +7.43877896612E+001, +7.38573836717E+002
+4.87991652755E+007, +7.66112893490E+001, +7.44601811920E+002
+4.89659432387E+007, +7.68477200062E+001, +7.49157265123E+002
+4.91327212020E+007, +7.90092474063E+001, +7.53834576157E+002
+4.92994991653E+007, +8.23784138323E+001, +7.58696303087E+002
+4.94662771285E+007, +8.27861230868E+001, +7.64895841385E+002
+4.96330550918E+007, +8.43557049589E+001, +7.68618896301E+002
+4.97998330551E+007, +8.71820445454E+001, +7.74765036356E+002
+4.99666110184E+007, +8.69206950383E+001, +7.76982432393E+002
+5.01333889816E+007, +8.62270208656E+001, +7.83443920436E+002
+5.03001669449E+007, +8.47097473996E+001, +7.85945308192E+002
+5.04669449082E+007, +8.93669254146E+001, +7.94798451054E+002
+5.06337228715E+007, +9.04482505804E+001, +7.99139677914E+002
+5.08005008347E+007, +8.94372096269E+001, +8.02101212964E+002
+5.09672787980E+007, +9.31480575054E+001, +8.07974460155E+002
+5.11340567613E+007, +9.22528738686E+001, +8.14759247934E+002
+5.13008347245E+007, +8.99629217605E+001, +8.20767216709E+002
+5.14676126878E+007, +9.32640726061E+001, +8.23577239918E+002
+5.16343906511E+007, +9.36853430195E+001, +8.33822904335E+002
+5.18011686144E+007, +9.33367658318E+001, +8.37536911926E+002
+5.19679465776E+007, +9.18400900658E+001, +8.43957611374E+002
+5.21347245409E+007, +9.45048784471E+001, +8.48910774230E+002
+5.23015025042E+007, +9.52793816181E+001, +8.60741515262E+002
+5.24682804674E+007, +9.11309506351E+001, +8.65744306302E+002
+5.26350584307E+007, +9.75030097777E+001, +8.70793331448E+002
+5.28018363940E+007, +9.53028163700E+001, +8.79422352507E+002
+5.29686143573E+007, +9.64531582231E+001, +8.86989699531E+002
+5.31353923205E+007, +9.45044177871E+001, +8.91925328994E+002
+5.33021702838E+007, +9.62192135429E+001, +9.01336828143E+002
+5.34689482471E+007, +1.01649920433E+002, +9.11489401748E+002
