"# Channel 1"
"# Trace 1"
Frequency, Formatted Data, Formatted Data
+1.00000000000E+005, +2.61128180161E+001, +9.74595995721E-001
+2.66777963272E+005, +2.61099295776E+001, +2.81490602228E+000
+4.33555926544E+005, +2.60809159320E+001, +4.58473551077E+000
+6.00333889816E+005, +2.61039688347E+001, +6.32039988459E+000
+7.67111853088E+005, +2.61083584089E+001, +8.07995645528E+000
+9.33889816361E+005, +2.61069939337E+001, +9.80552647442E+000
+1.10066777963E+006, +2.61073889990E+001, +1.16114938683E+001
+1.26744574290E+006, +2.61193969053E+001, +1.33180020010E+001
+1.43422370618E+006, +2.61265448612E+001, +1.51270476203E+001
+1.60100166945E+006, +2.61332961043E+001, +1.68250563438E+001
+1.76777963272E+006, +2.61204776594E+001, +1.85789941506E+001
+1.93455759599E+006, +2.60886584811E+001, +2.02952025422E+001
+2.10133555927E+006, +2.61237263595E+001, +2.20366702349E+001
+2.26811352254E+006, +2.61658715935E+001, +2.38137487916E+001
+2.43489148581E+006, +2.61533468844E+001, +2.56252931487E+001
+2.60166944908E+006, +2.60937580623E+001, +2.72669259347E+001
+2.76844741235E+006, +2.60820037197E+001, +2.90663041507E+001
+2.93522537563E+006, +2.61279474444E+001, +3.07973730203E+001
+3.10200333890E+006, +2.61430302257E+001, +3.24972596504E+001
+3.26878130217E+006, +2.60859821771E+001, +3.43214286304E+001
+3.43555926544E+006, +2.61458052237E+001, +3.60186965885E+001
+3.60233722871E+006, +2.62412262393E+001, +3.78349941016E+001
+3.76911519199E+006, +2.61802917783E+001, +3.96047882000E+001
+3.93589315526E+006, +2.61154759858E+001, +4.13157228152E+001
+4.10267111853E+006, +2.61249573943E+001, +4.31760925275E+001
+4.26944908180E+006, +2.61938948087E+001, +4.49226875847E+001
+4.43622704508E+006, +2.61593753008E+001, +4.65852178161E+001
+4.60300500835E+006, +2.61946208038E+001, +4.84032666160E+001
+4.76978297162E+006, +2.61841714932E+001, +5.01213535857E+001
+4.93656093489E+006, +2.62459191809E+001, +5.18953617626E+001
+5.10333889816E+006, +2.62480671949E+001, +5.36510150320E+001
+5.27011686144E+006, +2.63467812469E+001, +5.55124085859E+001
+5.43689482471E+006, +2.62662356207E+001, +5.72052256497E+001
+5.60367278798E+006, +2.63458152299E+001, +5.90365744287E+001
+5.77045075125E+006, +2.63007316360E+001, +6.07193187199E+001
+5.93722871452E+006, +2.63700869614E+001, +6.25006405273E+001
+6.10400667780E+006, +2.63070260351E+001, +6.42725720973E+001
+6.27078464107E+006, +2.63907775457E+001, +6.60555926447E+001
+6.43756260434E+006, +2.64131160071E+001, +6.78196824660E+001
+6.60434056761E+006, +2.64289443620E+001, +6.96095424408E+001
+6.77111853088E+006, +2.64841338773E+001, +7.13009115719E+001
+6.93789649416E+006, +2.64602864165E+001, +7.31037924162E+001
+7.10467445743E+006, +2.64142903761E+001, +7.49014455140E+001
+7.27145242070E+006, +2.65002718502E+001, +7.66031244917E+001
+7.43823038397E+006, +2.64996806560E+001, +7.84027713913E+001
+7.60500834725E+006, +2.64963258522E+001, +8.02043250434E+001
+7.77178631052E+006, +2.65660040795E+001, +8.20197453339E+001
+7.93856427379E+006, +2.65378987979E+001, +8.37821680081E+001
+8.10534223706E+006, +2.65367084146E+001, +8.55270624052E+001
+8.27212020033E+006, +2.65475209541E+001, +8.73435658751E+001
+8.43889816361E+006, +2.65885518270E+001, +8.91632286059E+001
+8.60567612688E+006, +2.65298404077E+001, +9.09220700175E+001
+8.77245409015E+006, +2.65684750174E+001, +9.26545043913E+001
+8.93923205342E+006, +2.66629769845E+001, +9.45004100943E+001
+9.10601001669E+006, +2.66984533172E+001, +9.63355937360E+001
+9.27278797997E+006, +2.66431307307E+001, +9.81501542335E+001
+9.43956594324E+006, +2.66457288322E+001, +9.99667940643E+001
+9.60634390651E+006, +2.67025253093E+001, +1.01748103072E+002
+9.77312186978E+006, +2.66682212129E+001, +1.03502457989E+002
+9.93989983306E+006, +2.67667734523E+001, +1.05349914081E+002
+1.01066777963E+007, +2.66815788880E+001, +1.07168575358E+002
+1.02734557596E+007, +2.67273278382E+001, +1.09040757904E+002
+1.04402337229E+007, +2.67279239804E+001, +1.10867001304E+002
+1.06070116861E+007, +2.67303722701E+001, +1.12659939914E+002
+1.07737896494E+007, +2.68124775592E+001, +1.14553154019E+002
+1.09405676127E+007, +2.68687051475E+001, +1.16168924168E+002
+1.11073455760E+007, +2.68020605567E+001, +1.18233188674E+002
+1.12741235392E+007, +2.68709476458E+001, +1.19877546470E+002
+1.14409015025E+007, +2.68954775106E+001, +1.21780829955E+002
+1.16076794658E+007, +2.70023049345E+001, +1.23560251459E+002
+1.17744574290E+007, +2.70321618311E+001, +1.25470815782E+002
+1.19412353923E+007, +2.69143323894E+001, +1.27382890641E+002
+1.21080133556E+007, +2.68076356978E+001, +1.29150152329E+002
+1.22747913189E+007, +2.70284948033E+001, +1.31045643715E+002
+1.24415692821E+007, +2.69119876732E+001, +1.32874116175E+002
+1.26083472454E+007, +2.69572032501E+001, +1.34763921163E+002
+1.27751252087E+007, +2.70890808002E+001, +1.36553656419E+002
+1.29419031720E+007, +2.70705763366E+001, +1.38454440827E+002
+1.31086811352E+007, +2.71277911972E+001, +1.40385726366E+002
+1.32754590985E+007, +2.71672499004E+001, +1.42143823833E+002
+1.34422370618E+007, +2.70297755816E+001, +1.43967938698E+002
+1.36090150250E+007, +2.73354135315E+001, +1.45821456645E+002
+1.37757929883E+007, +2.71186047327E+001, +1.47834813534E+002
+1.39425709516E+007, +2.73276612695E+001, +1.49644454683E+002
+1.41093489149E+007, +2.72779625837E+001, +1.51527618517E+002
+1.42761268781E+007, +2.73806192090E+001, +1.53334864794E+002
+1.44429048414E+007, +2.74343993355E+001, +1.55191254028E+002
+1.46096828047E+007, +2.74198637359E+001, +1.57144704760E+002
+1.47764607679E+007, +2.75722393494E+001, +1.59029991629E+002
+1.49432387312E+007, +2.74919932363E+001, +1.60899536972E+002
+1.51100166945E+007, +2.74752145742E+001, +1.62918404770E+002
+1.52767946578E+007, +2.76673600214E+001, +1.64768098239E+002
+1.54435726210E+007, +2.74855785413E+001, +1.66581670385E+002
+1.56103505843E+007, +2.77873262493E+001, +1.68481358173E+002
+1.57771285476E+007, +2.75839419154E+001, +1.70405414033E+002
+1.59439065109E+007, +2.76592951396E+001, +1.72377291021E+002
+1.61106844741E+007, +2.77343346027E+001, +1.74291250245E+002
+1.62774624374E+007, +2.78130611623E+001, +1.76156857513E+002
+1.64442404007E+007, +2.77567158758E+001, +1.78118676985E+002
+1.66110183639E+007, +2.78887343561E+001, +1.80032707370E+002
+1.67777963272E+007, +2.78541960362E+001, +1.82237992170E+002
+1.69445742905E+007, +2.80351037403E+001, +1.83763407406E+002
+1.71113522538E+007, +2.75887615046E+001, +1.85884181723E+002
+1.72781302170E+007, +2.79193766035E+001, +1.87823391691E+002
+1.74449081803E+007, +2.78191244007E+001, +1.89878042215E+002
+1.76116861436E+007, +2.81614749274E+001, +1.91816126090E+002
+1.77784641068E+007, +2.79796738344E+001, +1.93534948999E+002
+1.79452420701E+007, +2.83162294905E+001, +1.95561844933E+002
+1.81120200334E+007, +2.82483757840E+001, +1.97445090114E+002
+1.82787979967E+007, +2.82722533315E+001, +1.99476653813E+002
+1.84455759599E+007, +2.84104820250E+001, +2.01636586901E+002
+1.86123539232E+007, +2.85161682936E+001, +2.03502097872E+002
+1.87791318865E+007, +2.83134285311E+001, +2.05501119474E+002
+1.89459098497E+007, +2.84519798031E+001, +2.07719561742E+002
+1.91126878130E+007, +2.87593409039E+001, +2.09610026895E+002
+1.92794657763E+007, +2.88377108951E+001, +2.11499735708E+002
+1.94462437396E+007, +2.86853416243E+001, +2.13683182869E+002
+1.96130217028E+007, +2.88738765892E+001, +2.15644001868E+002
+1.97797996661E+007, +2.88984968064E+001, +2.17613772944E+002
+1.99465776294E+007, +2.86477215768E+001, +2.19380709917E+002
+2.01133555927E+007, +2.88196798712E+001, +2.21606001605E+002
+2.02801335559E+007, +2.90563737979E+001, +2.23990936935E+002
+2.04469115192E+007, +2.90397824360E+001, +2.25668711359E+002
+2.06136894825E+007, +2.93214952163E+001, +2.27803927962E+002
+2.07804674457E+007, +2.93405835377E+001, +2.30022157473E+002
+2.09472454090E+007, +2.91909506788E+001, +2.32167034908E+002
+2.11140233723E+007, +2.94644173434E+001, +2.33824701395E+002
+2.12808013356E+007, +2.96706502913E+001, +2.36095431749E+002
+2.14475792988E+007, +2.95049222698E+001, +2.38010514138E+002
+2.16143572621E+007, +2.97036040255E+001, +2.40141702778E+002
+2.17811352254E+007, +2.95349629162E+001, +2.42180208004E+002
+2.19479131886E+007, +3.02145560878E+001, +2.44013306746E+002
+2.21146911519E+007, +3.03049786725E+001, +2.45973286699E+002
+2.22814691152E+007, +3.00969954838E+001, +2.48266895424E+002
+2.24482470785E+007, +2.99917670615E+001, +2.50429671896E+002
+2.26150250417E+007, +3.05986842546E+001, +2.52654997475E+002
+2.27818030050E+007, +3.05772707214E+001, +2.54793198681E+002
+2.29485809683E+007, +3.09283892328E+001, +2.56469050054E+002
+2.31153589316E+007, +3.03756810730E+001, +2.59312293332E+002
+2.32821368948E+007, +3.09626804542E+001, +2.61153509200E+002
+2.34489148581E+007, +3.09699263895E+001, +2.63279815563E+002
+2.36156928214E+007, +3.10583858020E+001, +2.65732007149E+002
+2.37824707846E+007, +3.11216393151E+001, +2.67394254235E+002
+2.39492487479E+007, +3.09730575942E+001, +2.69495611528E+002
+2.41160267112E+007, +3.12291278357E+001, +2.71652074732E+002
+2.42828046745E+007, +3.11796528683E+001, +2.73869804095E+002
+2.44495826377E+007, +3.14309341046E+001, +2.76012101004E+002
+2.46163606010E+007, +3.18807074265E+001, +2.78037696785E+002
+2.47831385643E+007, +3.13880036425E+001, +2.80454486997E+002
+2.49499165275E+007, +3.19026313651E+001, +2.82616285337E+002
+2.51166944908E+007, +3.23283624803E+001, +2.84594911673E+002
+2.52834724541E+007, +3.21736633088E+001, +2.87026951963E+002
+2.54502504174E+007, +3.27418573831E+001, +2.88905116732E+002
+2.56170283806E+007, +3.22107055040E+001, +2.91338134237E+002
+2.57838063439E+007, +3.24305636188E+001, +2.93675913594E+002
+2.59505843072E+007, +3.24808325521E+001, +2.96025394221E+002
+2.61173622705E+007, +3.30657613037E+001, +2.97830896003E+002
+2.62841402337E+007, +3.28986996249E+001, +3.00122951507E+002
+2.64509181970E+007, +3.25596845112E+001, +3.02229823201E+002
+2.66176961603E+007, +3.30533247801E+001, +3.04969845694E+002
+2.67844741235E+007, +3.30503945639E+001, +3.06795626591E+002
+2.69512520868E+007, +3.34254203329E+001, +3.09157639704E+002
+2.71180300501E+007, +3.35385673131E+001, +3.10785853035E+002
+2.72848080134E+007, +3.35778649549E+001, +3.13013682563E+002
+2.74515859766E+007, +3.38451066695E+001, +3.15435587442E+002
+2.76183639399E+007, +3.39519153989E+001, +3.17826100598E+002
+2.77851419032E+007, +3.38949303133E+001, +3.20044723659E+002
+2.79519198664E+007, +3.42431241752E+001, +3.22381543316E+002
+2.81186978297E+007, +3.46356788632E+001, +3.24347365072E+002
+2.82854757930E+007, +3.41744024777E+001, +3.26735808824E+002
+2.84522537563E+007, +3.37491137511E+001, +3.29805786019E+002
+2.86190317195E+007, +3.39562044608E+001, +3.31811406033E+002
+2.87858096828E+007, +3.52342112290E+001, +3.33999017352E+002
+2.89525876461E+007, +3.48131924891E+001, +3.36504891048E+002
+2.91193656093E+007, +3.46758223367E+001, +3.38294837076E+002
+2.92861435726E+007, +3.40986315991E+001, +3.40946280874E+002
+2.94529215359E+007, +3.52042746892E+001, +3.43456223599E+002
+2.96196994992E+007, +3.58028487462E+001, +3.45893489898E+002
+2.97864774624E+007, +3.56569068325E+001, +3.48295468936E+002
+2.99532554257E+007, +3.58061520780E+001, +3.51071278990E+002
+3.01200333890E+007, +3.55658060898E+001, +3.53521447163E+002
+3.02868113523E+007, +3.56656683490E+001, +3.56129827917E+002
+3.04535893155E+007, +3.52521729162E+001, +3.58235038227E+002
+3.06203672788E+007, +3.58635479624E+001, +3.60713405404E+002
+3.07871452421E+007, +3.58857327289E+001, +3.62492851044E+002
+3.09539232053E+007, +3.62506378783E+001, +3.65093047843E+002
+3.11207011686E+007, +3.59028126461E+001, +3.68458130040E+002
+3.12874791319E+007, +3.65550489243E+001, +3.69999795886E+002
+3.14542570952E+007, +3.60490414110E+001, +3.73050486739E+002
+3.16210350584E+007, +3.66880840577E+001, +3.75566213125E+002
+3.17878130217E+007, +3.62067699543E+001, +3.77510271810E+002
+3.19545909850E+007, +3.66501633206E+001, +3.80271711199E+002
+3.21213689482E+007, +3.60725481456E+001, +3.82794070287E+002
+3.22881469115E+007, +3.61493895991E+001, +3.85044042346E+002
+3.24549248748E+007, +3.70782151462E+001, +3.88361921532E+002
+3.26217028381E+007, +3.67819824531E+001, +3.90912955881E+002
+3.27884808013E+007, +3.74474804305E+001, +3.92342048972E+002
+3.29552587646E+007, +3.70961273472E+001, +3.95814180705E+002
+3.31220367279E+007, +3.78155790472E+001, +3.98151883719E+002
+3.32888146912E+007, +3.75180830157E+001, +4.01529557110E+002
+3.34555926544E+007, +3.72562039239E+001, +4.04285659316E+002
+3.36223706177E+007, +3.78966581950E+001, +4.06336813333E+002
+3.37891485810E+007, +3.78592410463E+001, +4.08175476772E+002
+3.39559265442E+007, +3.84178288768E+001, +4.11622776577E+002
+3.41227045075E+007, +3.79609145595E+001, +4.14035931384E+002
+3.42894824708E+007, +3.84778002034E+001, +4.16852169071E+002
+3.44562604341E+007, +3.86884658523E+001, +4.19929262119E+002
+3.46230383973E+007, +3.88467785364E+001, +4.22466841062E+002
+3.47898163606E+007, +3.96783993163E+001, +4.25040494247E+002
+3.49565943239E+007, +3.91025655832E+001, +4.28699638617E+002
+3.51233722871E+007, +3.96017272897E+001, +4.30440711431E+002
+3.52901502504E+007, +3.99909050358E+001, +4.32664718014E+002
+3.54569282137E+007, +3.95374326717E+001, +4.36605725354E+002
+3.56237061770E+007, +3.89980841370E+001, +4.39274687180E+002
+3.57904841402E+007, +3.95450846900E+001, +4.42372745937E+002
+3.59572621035E+007, +4.05585659356E+001, +4.44944700581E+002
+3.61240400668E+007, +4.03080633346E+001, +4.48337145717E+002
+3.62908180301E+007, +4.08576904228E+001, +4.51987320070E+002
+3.64575959933E+007, +4.07062033201E+001, +4.53738854747E+002
+3.66243739566E+007, +4.05741350275E+001, +4.55839470818E+002
+3.67911519199E+007, +4.13341393398E+001, +4.59949210501E+002
+3.69579298831E+007, +4.04760305545E+001, +4.62577049121E+002
+3.71247078464E+007, +4.09451546150E+001, +4.65559201522E+002
+3.72914858097E+007, +4.11977243570E+001, +4.70282447224E+002
+3.74582637730E+007, +4.17814339891E+001, +4.72330290582E+002
+3.76250417362E+007, +4.26629145284E+001, +4.74130240906E+002
+3.77918196995E+007, +4.15743233333E+001, +4.78334582520E+002
+3.79585976628E+007, +4.27414476681E+001, +4.81499652954E+002
+3.81253756260E+007, +4.32260878533E+001, +4.84065330548E+002
+3.82921535893E+007, +4.40260828152E+001, +4.86818053871E+002
+3.84589315526E+007, +4.34022610215E+001, +4.90435921988E+002
+3.86257095159E+007, +4.29276836871E+001, +4.94457718329E+002
+3.87924874791E+007, +4.31493232435E+001, +4.96819934986E+002
+3.89592654424E+007, +4.45507665421E+001, +4.99485467885E+002
+3.91260434057E+007, +4.36802510359E+001, +5.04410079428E+002
+3.92928213689E+007, +4.44793432268E+001, +5.07275015964E+002
+3.94595993322E+007, +4.47589068825E+001, +5.10437738191E+002
+3.96263772955E+007, +4.44937376972E+001, +5.14646587403E+002
+3.97931552588E+007, +4.50322669193E+001, +5.16025303850E+002
+3.99599332220E+007, +4.46681709946E+001, +5.19968409956E+002
+4.01267111853E+007, +4.54647418054E+001, +5.23190320530E+002
+4.02934891486E+007, +4.46043586742E+001, +5.26364962605E+002
+4.04602671119E+007, +4.55667375489E+001, +5.29983376927E+002
+4.06270450751E+007, +4.63336893636E+001, +5.34191443552E+002
+4.07938230384E+007, +4.65055457284E+001, +5.37255713700E+002
+4.09606010017E+007, +4.69044453237E+001, +5.41403762591E+002
+4.11273789649E+007, +4.75645097468E+001, +5.43007682375E+002
+4.12941569282E+007, +4.76738327489E+001, +5.47436824455E+002
+4.14609348915E+007, +4.80053977533E+001, +5.51254463917E+002
+4.16277128548E+007, +4.77840341564E+001, +5.55131076129E+002
+4.17944908180E+007, +4.93382187327E+001, +5.57064502384E+002
+4.19612687813E+007, +4.85921466125E+001, +5.62180628270E+002
+4.21280467446E+007, +4.91460581547E+001, +5.66481563068E+002
+4.22948247078E+007, +4.93976676838E+001, +5.69451659909E+002
+4.24616026711E+007, +4.99287491603E+001, +5.72638438784E+002
+4.26283806344E+007, +5.12399897357E+001, +5.77692440585E+002
+4.27951585977E+007, +4.84992352138E+001, +5.83274965243E+002
+4.29619365609E+007, +5.16689379314E+001, +5.85268439874E+002
+4.31287145242E+007, +5.19656790434E+001, +5.89048392542E+002
+4.32954924875E+007, +5.17686348642E+001, +5.91906949083E+002
+4.34622704508E+007, +5.10459616084E+001, +5.97299571782E+002
+4.36290484140E+007, +5.43484017558E+001, +6.00587140405E+002
+4.37958263773E+007, +5.32997148178E+001, +6.05808927715E+002
+4.39626043406E+007, +5.35417395924E+001, +6.08302974436E+002
+4.41293823038E+007, +5.51728434818E+001, +6.14768324816E+002
+4.42961602671E+007, +5.32534342449E+001, +6.15751590527E+002
+4.44629382304E+007, +5.52323739775E+001, +6.20952514099E+002
+4.46297161937E+007, +5.69945578149E+001, +6.24397322631E+002
+4.47964941569E+007, +5.44619250450E+001, +6.29313058528E+002
+4.49632721202E+007, +5.44954340146E+001, +6.34567380628E+002
+4.51300500835E+007, +5.71932454177E+001, +6.36636245548E+002
+4.52968280467E+007, +5.93608414558E+001, +6.44666847844E+002
+4.54636060100E+007, +5.87256611680E+001, +6.48970284713E+002
+4.56303839733E+007, +5.95833807644E+001, +6.52879484975E+002
+4.57971619366E+007, +5.86731539778E+001, +6.56127284966E+002
+4.59639398998E+007, +5.81588352720E+001, +6.64067121216E+002
+4.61307178631E+007, +6.21793880041E+001, +6.65917179864E+002
+4.62974958264E+007, +6.29173708352E+001, +6.70365410112E+002
+4.64642737896E+007, +6.09905496664E+001, +6.75871601994E+002
+4.66310517529E+007, +6.25126696126E+001, +6.79169441863E+002
+4.67978297162E+007, +6.51457729382E+001, +6.83441548506E+002
+4.69646076795E+007, +6.54468866992E+001, +6.90407612907E+002
+4.71313856427E+007, +6.56583682056E+001, +6.94833857299E+002
+4.72981636060E+007, +6.65914830818E+001, +6.98191434341E+002
+4.74649415693E+007, +6.65390285873E+001, +7.03263675454E+002
+4.76317195326E+007, +7.01296863996E+001, +7.08652402842E+002
+4.77984974958E+007, +6.97037163572E+001, +7.17152712133E+002
+4.79652754591E+007, +7.09174740938E+001, +7.20200540774E+002
+4.81320534224E+007, +7.25326858163E+001, +7.22794335407E+002
+4.82988313856E+007, +7.23121269833E+001, +7.27739752871E+002
+4.84656093489E+007, +7.43651731968E+001, +7.35204284259E+002
+4.86323873122E+007, +7.77218848466E+001, +7.38872327878E+002
+4.87991652755E+007, +7.63939729582E+001, +7.45207913721E+002
+4.89659432387E+007, +7.71470528172E+001, +7.48406062330E+002
+4.91327212020E+007, +7.88460578032E+001, +7.57252844474E+002
+4.92994991653E+007, +8.28663040795E+001, +7.60958132433E+002
+4.94662771285E+007, +8.18001221178E+001, +7.65231850432E+002
+4.96330550918E+007, +8.44652066157E+001, +7.68812999906E+002
+4.97998330551E+007, +8.75574093981E+001, +7.73532980397E+002
+4.99666110184E+007, +8.87309810905E+001, +7.79394860500E+002
+5.01333889816E+007, +8.81608338892E+001, +7.86050406814E+002
+5.03001669449E+007, +8.80175883899E+001, +7.87029516142E+002
+5.04669449082E+007, +8.95860290301E+001, +7.94707257197E+002
+5.06337228715E+007, +9.64939986063E+001, +8.00538224686E+002
+5.08005008347E+007, +9.22488087759E+001, +8.02673995539E+002
+5.09672787980E+007, +9.40848414007E+001, +8.10219206449E+002
+5.11340567613E+007, +9.64861798202E+001, +8.15502613012E+002
+5.13008347245E+007, +9.41990451844E+001, +8.21083405188E+002
+5.14676126878E+007, +9.45114133250E+001, +8.26432999567E+002
+5.16343906511E+007, +9.78856794317E+001, +8.32488489049E+002
+5.18011686144E+007, +9.65235808622E+001, +8.38566318778E+002
+5.19679465776E+007, +9.86601091452E+001, +8.43759404811E+002
+5.21347245409E+007, +9.94843679703E+001, +8.51022025153E+002
+5.23015025042E+007, +9.94144653353E+001, +8.63336848836E+002
+5.24682804674E+007, +9.86788543726E+001, +8.65604486177E+002
+5.26350584307E+007, +1.01928076076E+002, +8.72041778156E+002
+5.28018363940E+007, +9.99617303344E+001, +8.82999759257E+002
+5.29686143573E+007, +1.01371841827E+002, +8.85634257411E+002
+5.31353923205E+007, +1.01062470890E+002, +8.93353937551E+002
+5.33021702838E+007, +1.01439090282E+002, +8.99114734634E+002
+5.34689482471E+007, +1.06004474376E+002, +9.08571895400E+002
