"# Channel 1"
"# Trace 1"
Frequency, Formatted Data, Formatted Data
+1.00000000000E+005, +4.64993724929E-001, +1.06968107615E+000
+2.66777963272E+005, +4.66317255350E-001, +2.84302773046E+000
+4.33555926544E+005, +4.72284794251E-001, +4.62996359427E+000
+6.00333889816E+005, +5.23695997757E-001, +6.36268758829E+000
+7.67111853088E+005, +5.53689786805E-001, +8.15660697519E+000
+9.33889816361E+005, +5.72797491714E-001, +9.88043397319E+000
+1.10066777963E+006, +5.39262948013E-001, +1.16215470412E+001
+1.26744574290E+006, +6.24453224099E-001, +1.33714673707E+001
+1.43422370618E+006, +5.78323430107E-001, +1.51281598080E+001
+1.60100166945E+006, +6.86502167474E-001, +1.68238675547E+001
+1.76777963272E+006, +7.04270276886E-001, +1.85585189876E+001
+1.93455759599E+006, +7.23480574506E-001, +2.02399082334E+001
+2.10133555927E+006, +7.54754220563E-001, +2.19724824531E+001
+2.26811352254E+006, +7.85706759494E-001, +2.37145930985E+001
+2.43489148581E+006, +7.75770938996E-001, +2.54467496752E+001
+2.60166944908E+006, +8.34559258838E-001, +2.71293893029E+001
+2.76844741235E+006, +7.97463710674E-001, +2.88900236696E+001
+2.93522537563E+006, +8.04267598683E-001, +3.06100369330E+001
+3.10200333890E+006, +8.81821481700E-001, +3.22946839253E+001
+3.26878130217E+006, +7.79709208620E-001, +3.40522030371E+001
+3.43555926544E+006, +8.67087999451E-001, +3.57554686699E+001
+3.60233722871E+006, +9.15841612685E-001, +3.74999873612E+001
+3.76911519199E+006, +8.66584517762E-001, +3.92508297225E+001
+3.93589315526E+006, +8.19104625923E-001, +4.09008756139E+001
+4.10267111853E+006, +8.68301483249E-001, +4.27742181763E+001
+4.26944908180E+006, +8.79350248565E-001, +4.44577785077E+001
+4.43622704508E+006, +9.32474301527E-001, +4.61017785292E+001
+4.60300500835E+006, +9.18178456658E-001, +4.78923643681E+001
+4.76978297162E+006, +9.13606155946E-001, +4.95593894536E+001
+4.93656093489E+006, +1.00398869051E+000, +5.13780310854E+001
+5.10333889816E+006, +9.98851741733E-001, +5.30425915761E+001
+5.27011686144E+006, +1.04740246677E+000, +5.49232797587E+001
+5.43689482471E+006, +9.93682100063E-001, +5.65393784336E+001
+5.60367278798E+006, +9.98017163423E-001, +5.83610443037E+001
+5.77045075125E+006, +9.37510433442E-001, +5.99804356789E+001
+5.93722871452E+006, +1.09381173143E+000, +6.17738457180E+001
+6.10400667780E+006, +1.04198145892E+000, +6.35679099004E+001
+6.27078464107E+006, +1.10600481324E+000, +6.52650855670E+001
+6.43756260434E+006, +1.09305981712E+000, +6.70511254242E+001
+6.60434056761E+006, +1.10707733093E+000, +6.87597438912E+001
+6.77111853088E+006, +1.21808423131E+000, +7.05104709489E+001
+6.93789649416E+006, +1.16115834202E+000, +7.22921467104E+001
+7.10467445743E+006, +1.19097506754E+000, +7.39824024563E+001
+7.27145242070E+006, +1.19313574665E+000, +7.57569883799E+001
+7.43823038397E+006, +1.25531314109E+000, +7.74768546122E+001
+7.60500834725E+006, +1.18237821552E+000, +7.92387137532E+001
+7.77178631052E+006, +1.24216723126E+000, +8.10622510245E+001
+7.93856427379E+006, +1.25696531681E+000, +8.27261802871E+001
+8.10534223706E+006, +1.28645898727E+000, +8.44363765718E+001
+8.27212020033E+006, +1.29254936369E+000, +8.62065922736E+001
+8.43889816361E+006, +1.22590856339E+000, +8.79410641927E+001
+8.60567612688E+006, +1.16869193439E+000, +8.97608513488E+001
+8.77245409015E+006, +1.22337516015E+000, +9.14086614382E+001
+8.93923205342E+006, +1.27046658223E+000, +9.32094334001E+001
+9.10601001669E+006, +1.22958216954E+000, +9.50383645175E+001
+9.27278797997E+006, +1.29182466633E+000, +9.67418862423E+001
+9.43956594324E+006, +1.26476636744E+000, +9.85286272627E+001
+9.60634390651E+006, +1.22686014406E+000, +1.00298648363E+002
+9.77312186978E+006, +1.25053570190E+000, +1.02037042200E+002
+9.93989983306E+006, +1.32299571543E+000, +1.03889214781E+002
+1.01066777963E+007, +1.23305586434E+000, +1.05581116091E+002
+1.02734557596E+007, +1.21771513918E+000, +1.07435587507E+002
+1.04402337229E+007, +1.23096941923E+000, +1.09216281451E+002
+1.06070116861E+007, +1.20868556289E+000, +1.10939417010E+002
+1.07737896494E+007, +1.20321592115E+000, +1.12820898614E+002
+1.09405676127E+007, +1.26874280833E+000, +1.14537947810E+002
+1.11073455760E+007, +1.26796444993E+000, +1.16346867476E+002
+1.12741235392E+007, +1.23717644476E+000, +1.18155624878E+002
+1.14409015025E+007, +1.32268306371E+000, +1.19977964021E+002
+1.16076794658E+007, +1.32639279962E+000, +1.21688901282E+002
+1.17744574290E+007, +1.39013191994E+000, +1.23585180822E+002
+1.19412353923E+007, +1.26779935771E+000, +1.25353190153E+002
+1.21080133556E+007, +1.20478943676E+000, +1.27203866480E+002
+1.22747913189E+007, +1.29272844248E+000, +1.29106115035E+002
+1.24415692821E+007, +1.20180830126E+000, +1.30749310552E+002
+1.26083472454E+007, +1.23170888266E+000, +1.32652432754E+002
+1.27751252087E+007, +1.27503699693E+000, +1.34408731489E+002
+1.29419031720E+007, +1.17487034375E+000, +1.36116629058E+002
+1.31086811352E+007, +1.27138209151E+000, +1.38055175675E+002
+1.32754590985E+007, +1.21770070536E+000, +1.39929820977E+002
+1.34422370618E+007, +1.23893574298E+000, +1.41812430333E+002
+1.36090150250E+007, +1.34248660941E+000, +1.43552397249E+002
+1.37757929883E+007, +1.20652884683E+000, +1.45365982500E+002
+1.39425709516E+007, +1.43595095321E+000, +1.47245500263E+002
+1.41093489149E+007, +1.37342561311E+000, +1.48970969572E+002
+1.42761268781E+007, +1.41436672915E+000, +1.50812528633E+002
+1.44429048414E+007, +1.35997142769E+000, +1.52661402106E+002
+1.46096828047E+007, +1.30047887104E+000, +1.54584359699E+002
+1.47764607679E+007, +1.45269448551E+000, +1.56390315927E+002
+1.49432387312E+007, +1.26606011166E+000, +1.58315053901E+002
+1.51100166945E+007, +1.25771139081E+000, +1.60192288680E+002
+1.52767946578E+007, +1.38608019951E+000, +1.61951918612E+002
+1.54435726210E+007, +1.33162693854E+000, +1.63893027195E+002
+1.56103505843E+007, +1.35485279243E+000, +1.65688425863E+002
+1.57771285476E+007, +1.23538085041E+000, +1.67547333868E+002
+1.59439065109E+007, +1.34524614592E+000, +1.69337730599E+002
+1.61106844741E+007, +1.26531110638E+000, +1.71367109749E+002
+1.62774624374E+007, +1.35638780532E+000, +1.73228844771E+002
+1.64442404007E+007, +1.26909930175E+000, +1.75129429618E+002
+1.66110183639E+007, +1.46255769215E+000, +1.77071265344E+002
+1.67777963272E+007, +1.36444923132E+000, +1.79220093162E+002
+1.69445742905E+007, +1.47497189541E+000, +1.80871367957E+002
+1.71113522538E+007, +9.60035580877E-001, +1.82529293445E+002
+1.72781302170E+007, +1.44871880627E+000, +1.84571902912E+002
+1.74449081803E+007, +1.15223297350E+000, +1.86255763307E+002
+1.76116861436E+007, +1.33109349009E+000, +1.88666250227E+002
+1.77784641068E+007, +1.21381811801E+000, +1.90324658132E+002
+1.79452420701E+007, +1.40904846703E+000, +1.92360834079E+002
+1.81120200334E+007, +1.41465888873E+000, +1.94026721582E+002
+1.82787979967E+007, +1.44924367148E+000, +1.96148985411E+002
+1.84455759599E+007, +1.60943442729E+000, +1.98250482311E+002
+1.86123539232E+007, +1.73545545790E+000, +1.99916141761E+002
+1.87791318865E+007, +1.46443190976E+000, +2.02031753667E+002
+1.89459098497E+007, +1.40270376279E+000, +2.04049737772E+002
+1.91126878130E+007, +1.48361623447E+000, +2.05880467648E+002
+1.92794657763E+007, +1.38582469837E+000, +2.07657367047E+002
+1.94462437396E+007, +1.52224035798E+000, +2.09671558015E+002
+1.96130217028E+007, +1.47221891566E+000, +2.11955426901E+002
+1.97797996661E+007, +1.73058559933E+000, +2.13569640053E+002
+1.99465776294E+007, +1.28300687659E+000, +2.15431363455E+002
+2.01133555927E+007, +1.38789861658E+000, +2.17562520472E+002
+2.02801335559E+007, +1.46504609638E+000, +2.19637391622E+002
+2.04469115192E+007, +1.73673798957E+000, +2.21682519238E+002
+2.06136894825E+007, +1.40155979675E+000, +2.23759242281E+002
+2.07804674457E+007, +1.66337016920E+000, +2.25728605768E+002
+2.09472454090E+007, +1.39348802090E+000, +2.27909719813E+002
+2.11140233723E+007, +1.80630008039E+000, +2.29438516471E+002
+2.12808013356E+007, +1.83243369137E+000, +2.31409615456E+002
+2.14475792988E+007, +1.69733171332E+000, +2.33948688528E+002
+2.16143572621E+007, +1.83410242798E+000, +2.35639757307E+002
+2.17811352254E+007, +1.65451431745E+000, +2.37481912213E+002
+2.19479131886E+007, +2.15469701068E+000, +2.39663740043E+002
+2.21146911519E+007, +2.18395198100E+000, +2.41708044761E+002
+2.22814691152E+007, +1.87504326459E+000, +2.43614634057E+002
+2.24482470785E+007, +2.19249728062E+000, +2.46048121011E+002
+2.26150250417E+007, +2.34613188714E+000, +2.48137564122E+002
+2.27818030050E+007, +2.18491281253E+000, +2.50146796186E+002
+2.29485809683E+007, +2.54048898462E+000, +2.52193590546E+002
+2.31153589316E+007, +2.10215582042E+000, +2.54148554464E+002
+2.32821368948E+007, +2.54060283901E+000, +2.56318211623E+002
+2.34489148581E+007, +2.51352675983E+000, +2.58112392617E+002
+2.36156928214E+007, +2.47377794312E+000, +2.60807746836E+002
+2.37824707846E+007, +2.53775965254E+000, +2.62341189494E+002
+2.39492487479E+007, +2.14660912645E+000, +2.64449568285E+002
+2.41160267112E+007, +2.45108283061E+000, +2.66838440237E+002
+2.42828046745E+007, +2.16077224141E+000, +2.68468393059E+002
+2.44495826377E+007, +2.40173114734E+000, +2.70849474824E+002
+2.46163606010E+007, +2.59366077019E+000, +2.72826118569E+002
+2.47831385643E+007, +2.30102548658E+000, +2.75075325456E+002
+2.49499165275E+007, +2.97222118032E+000, +2.77695950802E+002
+2.51166944908E+007, +2.99268562841E+000, +2.79262545461E+002
+2.52834724541E+007, +2.85261572454E+000, +2.81831462522E+002
+2.54502504174E+007, +3.17244981383E+000, +2.83847805026E+002
+2.56170283806E+007, +2.88799942711E+000, +2.85546352085E+002
+2.57838063439E+007, +3.39440646395E+000, +2.87973695984E+002
+2.59505843072E+007, +2.85640216089E+000, +2.90369286270E+002
+2.61173622705E+007, +2.89652474949E+000, +2.92094316793E+002
+2.62841402337E+007, +2.82598164864E+000, +2.94493108194E+002
+2.64509181970E+007, +2.97915880405E+000, +2.96453623770E+002
+2.66176961603E+007, +3.36452039077E+000, +2.99201022247E+002
+2.67844741235E+007, +3.22633193151E+000, +3.01187588075E+002
+2.69512520868E+007, +3.62346189735E+000, +3.03403262436E+002
+2.71180300501E+007, +3.35728986319E+000, +3.05064668067E+002
+2.72848080134E+007, +3.73951207554E+000, +3.07360247619E+002
+2.74515859766E+007, +3.41115136189E+000, +3.09691954687E+002
+2.76183639399E+007, +3.36225563464E+000, +3.11563702701E+002
+2.77851419032E+007, +3.27845617662E+000, +3.13987198806E+002
+2.79519198664E+007, +3.79009338515E+000, +3.16405950530E+002
+2.81186978297E+007, +3.67987311858E+000, +3.17844357732E+002
+2.82854757930E+007, +3.90643084972E+000, +3.20474074275E+002
+2.84522537563E+007, +3.33278490065E+000, +3.22803553412E+002
+2.86190317195E+007, +2.97306568093E+000, +3.25043645708E+002
+2.87858096828E+007, +3.73883535674E+000, +3.27661962597E+002
+2.89525876461E+007, +3.71530267886E+000, +3.29711956326E+002
+2.91193656093E+007, +3.21818331234E+000, +3.31392078026E+002
+2.92861435726E+007, +2.77774613871E+000, +3.34161789196E+002
+2.94529215359E+007, +3.04403200289E+000, +3.36546816378E+002
+2.96196994992E+007, +3.96425543246E+000, +3.39246964397E+002
+2.97864774624E+007, +4.13740277541E+000, +3.41126510803E+002
+2.99532554257E+007, +3.91941115866E+000, +3.43968248647E+002
+3.01200333890E+007, +3.63214086740E+000, +3.45908279892E+002
+3.02868113523E+007, +3.64939057940E+000, +3.48187661435E+002
+3.04535893155E+007, +3.35247289580E+000, +3.51099977386E+002
+3.06203672788E+007, +4.14952632190E+000, +3.52789043940E+002
+3.07871452421E+007, +3.46296202128E+000, +3.55384062922E+002
+3.09539232053E+007, +3.67466010195E+000, +3.57764086471E+002
+3.11207011686E+007, +3.27211269473E+000, +3.60520074609E+002
+3.12874791319E+007, +3.74099073454E+000, +3.62572051568E+002
+3.14542570952E+007, +3.41907185601E+000, +3.65118590144E+002
+3.16210350584E+007, +3.13991329857E+000, +3.67339989626E+002
+3.17878130217E+007, +2.65438256309E+000, +3.70131658550E+002
+3.19545909850E+007, +3.75446139733E+000, +3.72940262834E+002
+3.21213689482E+007, +2.59958780070E+000, +3.74928332566E+002
+3.22881469115E+007, +3.32890227374E+000, +3.77457548686E+002
+3.24549248748E+007, +3.57484114036E+000, +3.80503408748E+002
+3.26217028381E+007, +2.92846533986E+000, +3.82762274353E+002
+3.27884808013E+007, +3.95697572504E+000, +3.84503208337E+002
+3.29552587646E+007, +3.39583031501E+000, +3.86922021277E+002
+3.31220367279E+007, +3.94933523899E+000, +3.90228915524E+002
+3.32888146912E+007, +3.60295537903E+000, +3.93459326832E+002
+3.34555926544E+007, +3.04757489159E+000, +3.95074745712E+002
+3.36223706177E+007, +3.52481737515E+000, +3.97772407878E+002
+3.37891485810E+007, +3.83678427870E+000, +4.00467996960E+002
+3.39559265442E+007, +3.65052959480E+000, +4.03740511525E+002
+3.41227045075E+007, +2.88388220430E+000, +4.06084867116E+002
+3.42894824708E+007, +3.38289550183E+000, +4.08428433577E+002
+3.44562604341E+007, +4.34126075897E+000, +4.11075968447E+002
+3.46230383973E+007, +3.56943061584E+000, +4.14269856970E+002
+3.47898163606E+007, +3.67667459214E+000, +4.16405264183E+002
+3.49565943239E+007, +4.79048098430E+000, +4.19774582942E+002
+3.51233722871E+007, +3.57967925864E+000, +4.21933317454E+002
+3.52901502504E+007, +4.31577195848E+000, +4.24359162951E+002
+3.54569282137E+007, +3.32460112685E+000, +4.27069688105E+002
+3.56237061770E+007, +3.11715755994E+000, +4.30028637074E+002
+3.57904841402E+007, +2.97425971225E+000, +4.33094956684E+002
+3.59572621035E+007, +4.24898201000E+000, +4.35410440602E+002
+3.61240400668E+007, +4.28333571319E+000, +4.38722170944E+002
+3.62908180301E+007, +3.67633283515E+000, +4.42159741619E+002
+3.64575959933E+007, +3.00142323637E+000, +4.44568217522E+002
+3.66243739566E+007, +3.68436084617E+000, +4.46935351769E+002
+3.67911519199E+007, +4.18579197356E+000, +4.50484258062E+002
+3.69579298831E+007, +3.08768914989E+000, +4.52636525196E+002
+3.71247078464E+007, +3.94444976196E+000, +4.55547669871E+002
+3.72914858097E+007, +4.35587301804E+000, +4.58599599683E+002
+3.74582637730E+007, +3.76910777263E+000, +4.62740420527E+002
+3.76250417362E+007, +4.72668763652E+000, +4.64641640374E+002
+3.77918196995E+007, +3.98659893224E+000, +4.68118466384E+002
+3.79585976628E+007, +3.82504725327E+000, +4.71434586197E+002
+3.81253756260E+007, +5.04294858438E+000, +4.73165599349E+002
+3.82921535893E+007, +5.19290001095E+000, +4.76704593235E+002
+3.84589315526E+007, +4.96174349943E+000, +4.80366001560E+002
+3.86257095159E+007, +4.10633074173E+000, +4.83809293345E+002
+3.87924874791E+007, +4.59822483585E+000, +4.87546932931E+002
+3.89592654424E+007, +4.74547911164E+000, +4.90007306411E+002
+3.91260434057E+007, +4.58346629093E+000, +4.92835862573E+002
+3.92928213689E+007, +5.07085899565E+000, +4.95852129232E+002
+3.94595993322E+007, +4.77697358225E+000, +4.99676054638E+002
+3.96263772955E+007, +5.20208338037E+000, +5.03328114443E+002
+3.97931552588E+007, +4.57368460172E+000, +5.05708137520E+002
+3.99599332220E+007, +4.53156789495E+000, +5.08293961276E+002
+4.01267111853E+007, +4.93857313055E+000, +5.12604266834E+002
+4.02934891486E+007, +4.08337850468E+000, +5.14432287918E+002
+4.04602671119E+007, +4.91679168435E+000, +5.17403835770E+002
+4.06270450751E+007, +5.63513429926E+000, +5.22212405307E+002
+4.07938230384E+007, +5.33137288821E+000, +5.25538789465E+002
+4.09606010017E+007, +4.11956553847E+000, +5.29244948700E+002
+4.11273789649E+007, +5.13228135005E+000, +5.30686203148E+002
+4.12941569282E+007, +4.78352302679E+000, +5.35813564201E+002
+4.14609348915E+007, +5.61869604702E+000, +5.40053808971E+002
+4.16277128548E+007, +5.72428045038E+000, +5.41785608171E+002
+4.17944908180E+007, +6.37410365903E+000, +5.44766802813E+002
+4.19612687813E+007, +5.11830953858E+000, +5.49508303608E+002
+4.21280467446E+007, +4.79794605066E+000, +5.52379489137E+002
+4.22948247078E+007, +6.17180494892E+000, +5.55764221360E+002
+4.24616026711E+007, +7.57385556527E+000, +5.59174856207E+002
+4.26283806344E+007, +6.90020481661E+000, +5.63932415230E+002
+4.27951585977E+007, +5.65904384565E+000, +5.67352114101E+002
+4.29619365609E+007, +7.13288963349E+000, +5.72023442729E+002
+4.31287145242E+007, +7.54285404131E+000, +5.74660505444E+002
+4.32954924875E+007, +8.21069437681E+000, +5.77773477898E+002
+4.34622704508E+007, +5.64748637689E+000, +5.84074076795E+002
+4.36290484140E+007, +8.29578849627E+000, +5.85153802624E+002
+4.37958263773E+007, +6.67730591404E+000, +5.91446409246E+002
+4.39626043406E+007, +6.84895902051E+000, +5.93891642164E+002
+4.41293823038E+007, +7.71532797991E+000, +5.98973379926E+002
+4.42961602671E+007, +7.32606654114E+000, +6.01477267292E+002
+4.44629382304E+007, +6.32920606214E+000, +6.06120828899E+002
+4.46297161937E+007, +9.14806455177E+000, +6.09016836356E+002
+4.47964941569E+007, +7.77840286087E+000, +6.14302975744E+002
+4.49632721202E+007, +7.41732403401E+000, +6.19213766104E+002
+4.51300500835E+007, +7.83022175426E+000, +6.20670374250E+002
+4.52968280467E+007, +9.37072645804E+000, +6.26650046461E+002
+4.54636060100E+007, +8.49992643983E+000, +6.32801939361E+002
+4.56303839733E+007, +8.22945527859E+000, +6.37033085551E+002
+4.57971619366E+007, +8.43293884703E+000, +6.39625110816E+002
+4.59639398998E+007, +7.55171671650E+000, +6.46648527965E+002
+4.61307178631E+007, +9.57004818710E+000, +6.49846450901E+002
+4.62974958264E+007, +8.72906285870E+000, +6.52573381981E+002
+4.64642737896E+007, +9.76576346732E+000, +6.57119898503E+002
+4.66310517529E+007, +9.75272526057E+000, +6.61354786795E+002
+4.67978297162E+007, +1.10884685740E+001, +6.66563155121E+002
+4.69646076795E+007, +8.99900086055E+000, +6.72483233167E+002
+4.71313856427E+007, +1.16494829305E+001, +6.76321704491E+002
+4.72981636060E+007, +1.10454704199E+001, +6.81594104582E+002
+4.74649415693E+007, +1.16044190458E+001, +6.85698086956E+002
+4.76317195326E+007, +1.37256079283E+001, +6.90339950361E+002
+4.77984974958E+007, +1.40168266851E+001, +6.95512760377E+002
+4.79652754591E+007, +1.32163931456E+001, +7.00424455931E+002
+4.81320534224E+007, +1.36984554324E+001, +7.04664452192E+002
+4.82988313856E+007, +1.33375871390E+001, +7.09931077561E+002
+4.84656093489E+007, +1.38200315059E+001, +7.14549124078E+002
+4.86323873122E+007, +1.57206826637E+001, +7.19169971755E+002
+4.87991652755E+007, +1.57652169058E+001, +7.24692434082E+002
+4.89659432387E+007, +1.75740335777E+001, +7.28641082459E+002
+4.91327212020E+007, +1.75676382900E+001, +7.37242909411E+002
+4.92994991653E+007, +2.01436823956E+001, +7.39218941049E+002
+4.94662771285E+007, +2.13154541560E+001, +7.44336405495E+002
+4.96330550918E+007, +2.09885180663E+001, +7.49724572622E+002
+4.97998330551E+007, +2.26095946002E+001, +7.53975400583E+002
+4.99666110184E+007, +2.38088543204E+001, +7.59505286425E+002
+5.01333889816E+007, +2.22051859828E+001, +7.63462700999E+002
+5.03001669449E+007, +2.36034863537E+001, +7.69765210960E+002
+5.04669449082E+007, +2.21893558784E+001, +7.76626172342E+002
+5.06337228715E+007, +2.67382124331E+001, +7.81642537497E+002
+5.08005008347E+007, +2.23601091323E+001, +7.84884877409E+002
+5.09672787980E+007, +2.55014719570E+001, +7.91643201236E+002
+5.11340567613E+007, +2.63203007860E+001, +7.96630411601E+002
+5.13008347245E+007, +2.16189917557E+001, +8.02458467139E+002
+5.14676126878E+007, +2.45818491321E+001, +8.08415794544E+002
+5.16343906511E+007, +2.75690420518E+001, +8.14471834479E+002
+5.18011686144E+007, +2.55063933412E+001, +8.20446435694E+002
+5.19679465776E+007, +2.51925252309E+001, +8.23471268027E+002
+5.21347245409E+007, +2.73331135091E+001, +8.33176059579E+002
+5.23015025042E+007, +2.57251875037E+001, +8.42800247821E+002
+5.24682804674E+007, +2.38810595925E+001, +8.48104039887E+002
+5.26350584307E+007, +2.54537534742E+001, +8.50941729292E+002
+5.28018363940E+007, +2.35951869498E+001, +8.60571887562E+002
+5.29686143573E+007, +2.57718838921E+001, +8.68429223358E+002
+5.31353923205E+007, +2.53573773249E+001, +8.71444127078E+002
+5.33021702838E+007, +2.53623991397E+001, +8.84031181026E+002
+5.34689482471E+007, +2.91029265342E+001, +8.90032851238E+002
