"# Channel 1"
"# Trace 1"
Frequency, Formatted Data, Formatted Data
+1.00000000000E+005, +2.03713981648E-001, +1.01806024221E+000
+2.66777963272E+005, +2.13396550578E-001, +2.67784805048E+000
+4.33555926544E+005, +2.43705298340E-001, +4.35620661085E+000
+6.00333889816E+005, +2.96481758622E-001, +5.97345374790E+000
+7.67111853088E+005, +3.14422695799E-001, +7.64406120320E+000
+9.33889816361E+005, +3.38930511932E-001, +9.24218908289E+000
+1.10066777963E+006, +3.00436165489E-001, +1.08911197603E+001
+1.26744574290E+006, +3.71440117794E-001, +1.25109395024E+001
+1.43422370618E+006, +3.10476250787E-001, +1.41476226901E+001
+1.60100166945E+006, +4.15206314444E-001, +1.57353258654E+001
+1.76777963272E+006, +3.97691934836E-001, +1.73696064064E+001
+1.93455759599E+006, +4.34265368641E-001, +1.89479123248E+001
+2.10133555927E+006, +4.67727850171E-001, +2.05621553090E+001
+2.26811352254E+006, +4.70477162543E-001, +2.22119214682E+001
+2.43489148581E+006, +4.77671584511E-001, +2.38574544952E+001
+2.60166944908E+006, +4.80999390509E-001, +2.54342920777E+001
+2.76844741235E+006, +4.65425825240E-001, +2.70791493133E+001
+2.93522537563E+006, +4.80066879661E-001, +2.86589399390E+001
+3.10200333890E+006, +5.57875108814E-001, +3.02968224647E+001
+3.26878130217E+006, +4.32192916651E-001, +3.19068967803E+001
+3.43555926544E+006, +5.06199296363E-001, +3.35141861664E+001
+3.60233722871E+006, +5.25621003087E-001, +3.51704896679E+001
+3.76911519199E+006, +4.87230013587E-001, +3.68299540942E+001
+3.93589315526E+006, +4.72884149347E-001, +3.83688362030E+001
+4.10267111853E+006, +4.79322380040E-001, +4.01082758633E+001
+4.26944908180E+006, +5.02780411849E-001, +4.17278686566E+001
+4.43622704508E+006, +5.28076276009E-001, +4.32615085823E+001
+4.60300500835E+006, +5.20000145377E-001, +4.49471379796E+001
+4.76978297162E+006, +5.44996877804E-001, +4.65238332655E+001
+4.93656093489E+006, +5.85455431927E-001, +4.82260100662E+001
+5.10333889816E+006, +5.82299871251E-001, +4.97935672550E+001
+5.27011686144E+006, +5.96384592026E-001, +5.15476118019E+001
+5.43689482471E+006, +5.34090881083E-001, +5.30694085121E+001
+5.60367278798E+006, +5.79904492026E-001, +5.48001769217E+001
+5.77045075125E+006, +5.73086659583E-001, +5.63419045638E+001
+5.93722871452E+006, +6.22369332815E-001, +5.80146003925E+001
+6.10400667780E+006, +5.94370078836E-001, +5.96743277831E+001
+6.27078464107E+006, +6.76035286215E-001, +6.13223668515E+001
+6.43756260434E+006, +6.42693924009E-001, +6.29682218752E+001
+6.60434056761E+006, +6.48519552596E-001, +6.46279042356E+001
+6.77111853088E+006, +7.37067311051E-001, +6.62372791733E+001
+6.93789649416E+006, +6.80303226824E-001, +6.78583802792E+001
+7.10467445743E+006, +6.81361695385E-001, +6.94835195130E+001
+7.27145242070E+006, +7.18484645310E-001, +7.11434465143E+001
+7.43823038397E+006, +7.35078276299E-001, +7.27541790235E+001
+7.60500834725E+006, +7.00088377474E-001, +7.44273234780E+001
+7.77178631052E+006, +7.40614135399E-001, +7.61202205277E+001
+7.93856427379E+006, +7.55631392413E-001, +7.77006335509E+001
+8.10534223706E+006, +7.92380547172E-001, +7.93213508652E+001
+8.27212020033E+006, +7.78725383571E-001, +8.09962978509E+001
+8.43889816361E+006, +7.13306541479E-001, +8.26641238373E+001
+8.60567612688E+006, +6.43629498617E-001, +8.43037430206E+001
+8.77245409015E+006, +7.17598272541E-001, +8.59400320097E+001
+8.93923205342E+006, +7.41783939776E-001, +8.76161400746E+001
+9.10601001669E+006, +7.16541102018E-001, +8.93046897099E+001
+9.27278797997E+006, +7.32446612331E-001, +9.09641375029E+001
+9.43956594324E+006, +7.35105279223E-001, +9.25928172095E+001
+9.60634390651E+006, +6.80498625602E-001, +9.42440548223E+001
+9.77312186978E+006, +7.08018303168E-001, +9.59379485200E+001
+9.93989983306E+006, +7.73609759040E-001, +9.76273133706E+001
+1.01066777963E+007, +6.87891749617E-001, +9.92630450690E+001
+1.02734557596E+007, +6.69814446233E-001, +1.00894358124E+002
+1.04402337229E+007, +6.42925938854E-001, +1.02613646439E+002
+1.06070116861E+007, +6.64773412491E-001, +1.04267322115E+002
+1.07737896494E+007, +6.31354025801E-001, +1.06004566701E+002
+1.09405676127E+007, +7.33170811199E-001, +1.07652058599E+002
+1.11073455760E+007, +7.00664750568E-001, +1.09368365283E+002
+1.12741235392E+007, +6.87570332872E-001, +1.10987572434E+002
+1.14409015025E+007, +6.96260895522E-001, +1.12778659839E+002
+1.16076794658E+007, +7.71722242703E-001, +1.14445008844E+002
+1.17744574290E+007, +7.52929220564E-001, +1.16161748790E+002
+1.19412353923E+007, +7.22616102134E-001, +1.17801831861E+002
+1.21080133556E+007, +5.32649782941E-001, +1.19495005699E+002
+1.22747913189E+007, +6.63869281652E-001, +1.21237853396E+002
+1.24415692821E+007, +6.40533463758E-001, +1.22880418044E+002
+1.26083472454E+007, +5.92950701651E-001, +1.24592856171E+002
+1.27751252087E+007, +6.67760831600E-001, +1.26267774795E+002
+1.29419031720E+007, +5.08573006131E-001, +1.27995974415E+002
+1.31086811352E+007, +7.28104821001E-001, +1.29742918607E+002
+1.32754590985E+007, +7.55233454180E-001, +1.31425791054E+002
+1.34422370618E+007, +5.36065964282E-001, +1.33243964554E+002
+1.36090150250E+007, +7.63540270371E-001, +1.34923468337E+002
+1.37757929883E+007, +6.63925615107E-001, +1.36630990992E+002
+1.39425709516E+007, +6.64079486214E-001, +1.38332076535E+002
+1.41093489149E+007, +6.42494065906E-001, +1.40026147679E+002
+1.42761268781E+007, +8.08493229222E-001, +1.41778672330E+002
+1.44429048414E+007, +7.18790621767E-001, +1.43497741690E+002
+1.46096828047E+007, +5.97981271885E-001, +1.45348362870E+002
+1.47764607679E+007, +7.25571561809E-001, +1.46892124758E+002
+1.49432387312E+007, +5.86748825735E-001, +1.48713623002E+002
+1.51100166945E+007, +4.94458795215E-001, +1.50449615467E+002
+1.52767946578E+007, +6.70320849927E-001, +1.52096189199E+002
+1.54435726210E+007, +7.24897146653E-001, +1.53778895018E+002
+1.56103505843E+007, +7.62763371322E-001, +1.55701068127E+002
+1.57771285476E+007, +6.48405287578E-001, +1.57315237094E+002
+1.59439065109E+007, +6.95941977374E-001, +1.59240044009E+002
+1.61106844741E+007, +6.09915973767E-001, +1.60949956406E+002
+1.62774624374E+007, +7.59234144319E-001, +1.62651881877E+002
+1.64442404007E+007, +6.76065139853E-001, +1.64571681605E+002
+1.66110183639E+007, +7.85563365430E-001, +1.66258285952E+002
+1.67777963272E+007, +7.53164845692E-001, +1.68186810275E+002
+1.69445742905E+007, +8.03924319568E-001, +1.69819118828E+002
+1.71113522538E+007, +3.75471521299E-001, +1.71452066324E+002
+1.72781302170E+007, +5.88915431313E-001, +1.73416095239E+002
+1.74449081803E+007, +4.66860874920E-001, +1.75099024808E+002
+1.76116861436E+007, +6.43966252738E-001, +1.77023515565E+002
+1.77784641068E+007, +6.75509881218E-001, +1.78580961775E+002
+1.79452420701E+007, +5.76253267177E-001, +1.80683384798E+002
+1.81120200334E+007, +7.72663485407E-001, +1.82302191823E+002
+1.82787979967E+007, +7.61583626549E-001, +1.84116319837E+002
+1.84455759599E+007, +7.36240445503E-001, +1.86256955412E+002
+1.86123539232E+007, +8.66125311115E-001, +1.87889064432E+002
+1.87791318865E+007, +6.02638071791E-001, +1.89754358771E+002
+1.89459098497E+007, +7.90777590134E-001, +1.91468620543E+002
+1.91126878130E+007, +8.74967031453E-001, +1.93270707454E+002
+1.92794657763E+007, +7.24850057181E-001, +1.95087901271E+002
+1.94462437396E+007, +8.06372723727E-001, +1.97368943048E+002
+1.96130217028E+007, +6.98607750995E-001, +1.99032883425E+002
+1.97797996661E+007, +9.59968839467E-001, +2.00479761517E+002
+1.99465776294E+007, +6.31679424601E-001, +2.02405971530E+002
+2.01133555927E+007, +6.33196130552E-001, +2.04427500654E+002
+2.02801335559E+007, +6.52235852215E-001, +2.06190659775E+002
+2.04469115192E+007, +8.96978030341E-001, +2.08171479205E+002
+2.06136894825E+007, +1.02560670998E+000, +2.09912392730E+002
+2.07804674457E+007, +9.12173740250E-001, +2.12023076851E+002
+2.09472454090E+007, +8.46093731630E-001, +2.13677089532E+002
+2.11140233723E+007, +9.87630018042E-001, +2.15686083153E+002
+2.12808013356E+007, +1.05701590284E+000, +2.17338604470E+002
+2.14475792988E+007, +9.41968938372E-001, +2.19496493261E+002
+2.16143572621E+007, +1.33476563928E+000, +2.21402104321E+002
+2.17811352254E+007, +9.69925194244E-001, +2.23140704388E+002
+2.19479131886E+007, +1.35024259158E+000, +2.25131752879E+002
+2.21146911519E+007, +1.23325170188E+000, +2.26742765161E+002
+2.22814691152E+007, +1.03916633374E+000, +2.28685828390E+002
+2.24482470785E+007, +8.34579497496E-001, +2.30876160549E+002
+2.26150250417E+007, +1.69599452937E+000, +2.32542080762E+002
+2.27818030050E+007, +1.25572772169E+000, +2.34632144736E+002
+2.29485809683E+007, +1.74155112777E+000, +2.36453746637E+002
+2.31153589316E+007, +1.03599523466E+000, +2.38686780670E+002
+2.32821368948E+007, +1.56984092352E+000, +2.40741227333E+002
+2.34489148581E+007, +1.41072901685E+000, +2.42307614147E+002
+2.36156928214E+007, +1.64026739444E+000, +2.44672445715E+002
+2.37824707846E+007, +1.49750119432E+000, +2.46405673670E+002
+2.39492487479E+007, +1.49743398312E+000, +2.47889739337E+002
+2.41160267112E+007, +1.59420694309E+000, +2.50186883081E+002
+2.42828046745E+007, +1.55131134714E+000, +2.52193319864E+002
+2.44495826377E+007, +1.74382252173E+000, +2.54569306567E+002
+2.46163606010E+007, +1.58081650825E+000, +2.55908244582E+002
+2.47831385643E+007, +1.48405444718E+000, +2.58213589506E+002
+2.49499165275E+007, +1.75409671474E+000, +2.60324081186E+002
+2.51166944908E+007, +1.89525273718E+000, +2.61796852173E+002
+2.52834724541E+007, +2.01526999577E+000, +2.64051801777E+002
+2.54502504174E+007, +2.27348685115E+000, +2.66071590466E+002
+2.56170283806E+007, +2.06685122473E+000, +2.67897558777E+002
+2.57838063439E+007, +1.97802619156E+000, +2.70393639818E+002
+2.59505843072E+007, +1.87228230841E+000, +2.72084559343E+002
+2.61173622705E+007, +2.27292444101E+000, +2.74275518643E+002
+2.62841402337E+007, +2.16229582488E+000, +2.76163327872E+002
+2.64509181970E+007, +2.36760712885E+000, +2.78169546569E+002
+2.66176961603E+007, +2.12007980224E+000, +2.80879904784E+002
+2.67844741235E+007, +2.14862149958E+000, +2.82454913782E+002
+2.69512520868E+007, +2.36232097305E+000, +2.84502142603E+002
+2.71180300501E+007, +2.64799621234E+000, +2.86190407386E+002
+2.72848080134E+007, +2.46046878434E+000, +2.88458036936E+002
+2.74515859766E+007, +2.94434396149E+000, +2.90163701115E+002
+2.76183639399E+007, +2.58960478606E+000, +2.92335048027E+002
+2.77851419032E+007, +2.38268545071E+000, +2.94343821197E+002
+2.79519198664E+007, +2.50967557010E+000, +2.96276637202E+002
+2.81186978297E+007, +2.77872105746E+000, +2.98103828293E+002
+2.82854757930E+007, +2.60509116859E+000, +3.00081093990E+002
+2.84522537563E+007, +2.00600408197E+000, +3.02649955149E+002
+2.86190317195E+007, +2.19325625367E+000, +3.04409842546E+002
+2.87858096828E+007, +2.95918746853E+000, +3.06693959633E+002
+2.89525876461E+007, +2.70334500297E+000, +3.08856403175E+002
+2.91193656093E+007, +2.54406400667E+000, +3.10436585297E+002
+2.92861435726E+007, +2.12213405682E+000, +3.12511971786E+002
+2.94529215359E+007, +2.68898349750E+000, +3.15292132033E+002
+2.96196994992E+007, +3.23060001971E+000, +3.17382800216E+002
+2.97864774624E+007, +2.87092984873E+000, +3.19624449007E+002
+2.99532554257E+007, +2.48767191939E+000, +3.22306156097E+002
+3.01200333890E+007, +2.29635964792E+000, +3.24092071434E+002
+3.02868113523E+007, +2.02327643615E+000, +3.25730863651E+002
+3.04535893155E+007, +1.90667963358E+000, +3.29049759674E+002
+3.06203672788E+007, +2.70247928678E+000, +3.30741675380E+002
+3.07871452421E+007, +2.31468035962E+000, +3.32439697699E+002
+3.09539232053E+007, +2.39359923946E+000, +3.35072432839E+002
+3.11207011686E+007, +2.02614255754E+000, +3.37673854334E+002
+3.12874791319E+007, +2.77679038198E+000, +3.39225975259E+002
+3.14542570952E+007, +2.48997244919E+000, +3.42023311993E+002
+3.16210350584E+007, +2.21190485976E+000, +3.44757318326E+002
+3.17878130217E+007, +1.78949606721E+000, +3.46398151952E+002
+3.19545909850E+007, +2.47110382968E+000, +3.48317241971E+002
+3.21213689482E+007, +2.06074977797E+000, +3.50656277178E+002
+3.22881469115E+007, +2.14628843105E+000, +3.53073396051E+002
+3.24549248748E+007, +2.48857862448E+000, +3.55892677781E+002
+3.26217028381E+007, +2.26889002775E+000, +3.58330585352E+002
+3.27884808013E+007, +2.51526828099E+000, +3.60548340239E+002
+3.29552587646E+007, +2.81857122349E+000, +3.62288782434E+002
+3.31220367279E+007, +2.82407651245E+000, +3.64694814032E+002
+3.32888146912E+007, +2.56384472533E+000, +3.67215225823E+002
+3.34555926544E+007, +2.08391075723E+000, +3.69140683753E+002
+3.36223706177E+007, +3.02784177229E+000, +3.71576940431E+002
+3.37891485810E+007, +2.20667269929E+000, +3.73994846559E+002
+3.39559265442E+007, +2.39712932383E+000, +3.77617607767E+002
+3.41227045075E+007, +2.28234506998E+000, +3.79339623552E+002
+3.42894824708E+007, +2.14114627305E+000, +3.81488244275E+002
+3.44562604341E+007, +2.52528943291E+000, +3.84342401839E+002
+3.46230383973E+007, +2.00478033236E+000, +3.87223719275E+002
+3.47898163606E+007, +2.46731706147E+000, +3.88843232718E+002
+3.49565943239E+007, +2.93310125349E+000, +3.91785947812E+002
+3.51233722871E+007, +2.78789906805E+000, +3.94233573631E+002
+3.52901502504E+007, +2.74727017147E+000, +3.96398844804E+002
+3.54569282137E+007, +2.74741800259E+000, +3.99083847539E+002
+3.56237061770E+007, +2.05210518378E+000, +4.02050849475E+002
+3.57904841402E+007, +2.54323596643E+000, +4.04503771334E+002
+3.59572621035E+007, +2.43817796989E+000, +4.06577571678E+002
+3.61240400668E+007, +2.64670182689E+000, +4.09661602532E+002
+3.62908180301E+007, +2.47522621703E+000, +4.12469543594E+002
+3.64575959933E+007, +2.13341792386E+000, +4.14978559501E+002
+3.66243739566E+007, +3.20820156448E+000, +4.18031571779E+002
+3.67911519199E+007, +2.57174025509E+000, +4.20453044832E+002
+3.69579298831E+007, +1.75008235593E+000, +4.22675589514E+002
+3.71247078464E+007, +1.76095891068E+000, +4.25639405309E+002
+3.72914858097E+007, +2.64580184140E+000, +4.28243760824E+002
+3.74582637730E+007, +2.32397886134E+000, +4.31711526454E+002
+3.76250417362E+007, +3.27624826646E+000, +4.33333199129E+002
+3.77918196995E+007, +2.78674755276E+000, +4.36234305127E+002
+3.79585976628E+007, +2.83728246584E+000, +4.38963318790E+002
+3.81253756260E+007, +2.73771977128E+000, +4.42582168882E+002
+3.82921535893E+007, +3.66314037012E+000, +4.44537505857E+002
+3.84589315526E+007, +2.95641319082E+000, +4.47446998247E+002
+3.86257095159E+007, +2.83121276556E+000, +4.50410565501E+002
+3.87924874791E+007, +2.25822230853E+000, +4.53676315537E+002
+3.89592654424E+007, +2.99332456299E+000, +4.56526810060E+002
+3.91260434057E+007, +3.68276454290E+000, +4.59303079430E+002
+3.92928213689E+007, +3.66497524105E+000, +4.62529994183E+002
+3.94595993322E+007, +2.65353844390E+000, +4.64633619576E+002
+3.96263772955E+007, +2.68447619257E+000, +4.67392183598E+002
+3.97931552588E+007, +2.50729953255E+000, +4.71290783756E+002
+3.99599332220E+007, +2.99187573544E+000, +4.73006895895E+002
+4.01267111853E+007, +3.67928423402E+000, +4.76630386102E+002
+4.02934891486E+007, +2.87891952835E+000, +4.78835458807E+002
+4.04602671119E+007, +3.39050186821E+000, +4.82573980412E+002
+4.06270450751E+007, +3.47166480455E+000, +4.85495444557E+002
+4.07938230384E+007, +3.01131879936E+000, +4.88102873929E+002
+4.09606010017E+007, +3.63986650444E+000, +4.91787798514E+002
+4.11273789649E+007, +3.83727710358E+000, +4.94318434649E+002
+4.12941569282E+007, +2.65834299322E+000, +4.97545009166E+002
+4.14609348915E+007, +3.44112624856E+000, +5.01587055552E+002
+4.16277128548E+007, +3.26753657306E+000, +5.04974004201E+002
+4.17944908180E+007, +3.52766162969E+000, +5.06916584577E+002
+4.19612687813E+007, +3.34679347743E+000, +5.09935146906E+002
+4.21280467446E+007, +2.74303438173E+000, +5.14499890906E+002
+4.22948247078E+007, +4.01575771261E+000, +5.17844332911E+002
+4.24616026711E+007, +4.57163565192E+000, +5.19368014612E+002
+4.26283806344E+007, +4.58216318163E+000, +5.23135388805E+002
+4.27951585977E+007, +2.29517988701E+000, +5.27399127129E+002
+4.29619365609E+007, +4.09924904744E+000, +5.30018319668E+002
+4.31287145242E+007, +4.70578051412E+000, +5.34459866841E+002
+4.32954924875E+007, +5.48618470733E+000, +5.38018588739E+002
+4.34622704508E+007, +3.96865362638E+000, +5.41218655362E+002
+4.36290484140E+007, +3.99581072681E+000, +5.43927517900E+002
+4.37958263773E+007, +4.15297272713E+000, +5.48459200488E+002
+4.39626043406E+007, +5.40518950598E+000, +5.50466472107E+002
+4.41293823038E+007, +5.03088289815E+000, +5.57059085983E+002
+4.42961602671E+007, +4.17395673216E+000, +5.58782998176E+002
+4.44629382304E+007, +2.94442907853E+000, +5.63829517950E+002
+4.46297161937E+007, +5.66287155839E+000, +5.65971919421E+002
+4.47964941569E+007, +4.93255937641E+000, +5.69421193101E+002
+4.49632721202E+007, +4.83618389173E+000, +5.73188170979E+002
+4.51300500835E+007, +5.79718337857E+000, +5.76216398372E+002
+4.52968280467E+007, +5.41047241153E+000, +5.81976158326E+002
+4.54636060100E+007, +5.70723009875E+000, +5.85267441417E+002
+4.56303839733E+007, +6.13897737611E+000, +5.89773664851E+002
+4.57971619366E+007, +4.81788683418E+000, +5.91498772474E+002
+4.59639398998E+007, +5.38360835953E+000, +5.98649433639E+002
+4.61307178631E+007, +6.12636846923E+000, +6.00110080732E+002
+4.62974958264E+007, +6.51425977774E+000, +6.06379317721E+002
+4.64642737896E+007, +5.79498407826E+000, +6.09046778849E+002
+4.66310517529E+007, +4.82735124846E+000, +6.14615829317E+002
+4.67978297162E+007, +9.69547485983E+000, +6.16143107730E+002
+4.69646076795E+007, +5.58438882438E+000, +6.21400095283E+002
+4.71313856427E+007, +7.92122622122E+000, +6.27224198215E+002
+4.72981636060E+007, +7.24801562856E+000, +6.30848102599E+002
+4.74649415693E+007, +6.98402396537E+000, +6.34840962677E+002
+4.76317195326E+007, +9.06002982726E+000, +6.39085743399E+002
+4.77984974958E+007, +9.22147073475E+000, +6.44615858455E+002
+4.79652754591E+007, +9.65596192683E+000, +6.48279235851E+002
+4.81320534224E+007, +9.24312078784E+000, +6.52035208799E+002
+4.82988313856E+007, +9.53353438668E+000, +6.57362923214E+002
+4.84656093489E+007, +9.85491614289E+000, +6.60543607214E+002
+4.86323873122E+007, +1.12951973175E+001, +6.63414395545E+002
+4.87991652755E+007, +1.38398799931E+001, +6.70591111974E+002
+4.89659432387E+007, +1.17462063845E+001, +6.72725926129E+002
+4.91327212020E+007, +1.28286531410E+001, +6.80964187406E+002
+4.92994991653E+007, +1.57854519223E+001, +6.82563811597E+002
+4.94662771285E+007, +1.48807401133E+001, +6.88568417853E+002
+4.96330550918E+007, +1.57532761226E+001, +6.93190972251E+002
+4.97998330551E+007, +1.69234778611E+001, +6.95829413010E+002
+4.99666110184E+007, +1.77103880155E+001, +7.02858852136E+002
+5.01333889816E+007, +1.66580898196E+001, +7.04818182180E+002
+5.03001669449E+007, +1.65576459057E+001, +7.09419782009E+002
+5.04669449082E+007, +1.97718031847E+001, +7.14915926628E+002
+5.06337228715E+007, +1.91736485782E+001, +7.18642651301E+002
+5.08005008347E+007, +1.85944118790E+001, +7.23017114344E+002
+5.09672787980E+007, +1.94015757475E+001, +7.28088486975E+002
+5.11340567613E+007, +1.90245460533E+001, +7.32191850927E+002
+5.13008347245E+007, +1.70141390211E+001, +7.39991550942E+002
+5.14676126878E+007, +1.94666039197E+001, +7.43312496188E+002
+5.16343906511E+007, +2.05363676695E+001, +7.50247039082E+002
+5.18011686144E+007, +1.84677906074E+001, +7.54860744478E+002
+5.19679465776E+007, +1.73479698437E+001, +7.56704131061E+002
+5.21347245409E+007, +1.84333582986E+001, +7.64557601272E+002
+5.23015025042E+007, +1.87726327089E+001, +7.72816757128E+002
+5.24682804674E+007, +1.55210181128E+001, +7.76972695808E+002
+5.26350584307E+007, +1.93362925191E+001, +7.80648364377E+002
+5.28018363940E+007, +1.56507856066E+001, +7.88489157080E+002
+5.29686143573E+007, +1.72764461996E+001, +7.93765211870E+002
+5.31353923205E+007, +1.71752207316E+001, +7.99169246644E+002
+5.33021702838E+007, +1.93921954980E+001, +8.08302374941E+002
+5.34689482471E+007, +1.98251948482E+001, +8.15234754694E+002
