"# Channel 1"
"# Trace 1"
Frequency, Formatted Data, Formatted Data
+1.00000000000E+005, +6.11286648449E+001, +1.45398328650E+000
+3.18898623279E+005, +6.12968296242E+001, +3.49872829522E+000
+5.37797246558E+005, +6.12998945381E+001, +5.81799361317E+000
+7.56695869837E+005, +6.12406193660E+001, +8.28623659121E+000
+9.75594493116E+005, +6.12861044135E+001, +1.06483840821E+001
+1.19449311640E+006, +6.12946264689E+001, +1.29066174754E+001
+1.41339173967E+006, +6.11623023235E+001, +1.54104741637E+001
+1.63229036295E+006, +6.12816807412E+001, +1.77179400261E+001
+1.85118898623E+006, +6.12435671170E+001, +2.02769818598E+001
+2.07008760951E+006, +6.12878796635E+001, +2.26177035560E+001
+2.28898623279E+006, +6.13606805038E+001, +2.50957583423E+001
+2.50788485607E+006, +6.13886633680E+001, +2.73640314591E+001
+2.72678347935E+006, +6.12648782394E+001, +2.98693625307E+001
+2.94568210263E+006, +6.14328329527E+001, +3.22350137440E+001
+3.16458072591E+006, +6.11873322232E+001, +3.47046490639E+001
+3.38347934919E+006, +6.14002429339E+001, +3.70704868986E+001
+3.60237797247E+006, +6.15007265952E+001, +3.93376457767E+001
+3.82127659574E+006, +6.14646513440E+001, +4.16125580943E+001
+4.04017521902E+006, +6.16133732684E+001, +4.40872876344E+001
+4.25907384230E+006, +6.13661091116E+001, +4.64468236049E+001
+4.47797246558E+006, +6.15640529191E+001, +4.89325813527E+001
+4.69687108886E+006, +6.14580674655E+001, +5.12576638473E+001
+4.91576971214E+006, +6.14133335161E+001, +5.37620417069E+001
+5.13466833542E+006, +6.16585946243E+001, +5.60243355429E+001
+5.35356695870E+006, +6.16905202593E+001, +5.84984535955E+001
+5.57246558198E+006, +6.15522717473E+001, +6.08064591379E+001
+5.79136420526E+006, +6.18123973793E+001, +6.34713178919E+001
+6.01026282854E+006, +6.17997098678E+001, +6.54967983210E+001
+6.22916145181E+006, +6.19166213312E+001, +6.81790814475E+001
+6.44806007509E+006, +6.18631212818E+001, +7.04262803208E+001
+6.66695869837E+006, +6.20594897433E+001, +7.28512150959E+001
+6.88585732165E+006, +6.19203094709E+001, +7.53544688302E+001
+7.10475594493E+006, +6.21052930415E+001, +7.76791755230E+001
+7.32365456821E+006, +6.20299411252E+001, +8.00932777296E+001
+7.54255319149E+006, +6.20235333461E+001, +8.23583346177E+001
+7.76145181477E+006, +6.22317578618E+001, +8.48708302207E+001
+7.98035043805E+006, +6.22811153439E+001, +8.73163980946E+001
+8.19924906133E+006, +6.22195217399E+001, +8.96397558411E+001
+8.41814768461E+006, +6.24005464588E+001, +9.21029891457E+001
+8.63704630788E+006, +6.23277841572E+001, +9.44693627813E+001
+8.85594493116E+006, +6.24914492146E+001, +9.69144991353E+001
+9.07484355444E+006, +6.24874175970E+001, +9.94791262792E+001
+9.29374217772E+006, +6.26981543860E+001, +1.01880016413E+002
+9.51264080100E+006, +6.26255342089E+001, +1.04152902770E+002
+9.73153942428E+006, +6.27056184317E+001, +1.06709449066E+002
+9.95043804756E+006, +6.25086460199E+001, +1.08973315392E+002
+1.01693366708E+007, +6.26890030261E+001, +1.11457630013E+002
+1.03882352941E+007, +6.27862311429E+001, +1.13887585838E+002
+1.06071339174E+007, +6.28560224738E+001, +1.16275527807E+002
+1.08260325407E+007, +6.28305098140E+001, +1.18762220789E+002
+1.10449311640E+007, +6.29413320876E+001, +1.21186213538E+002
+1.12638297872E+007, +6.29476948654E+001, +1.23681024548E+002
+1.14827284105E+007, +6.31616268665E+001, +1.26033801120E+002
+1.17016270338E+007, +6.33146059315E+001, +1.28510427621E+002
+1.19205256571E+007, +6.31792906613E+001, +1.30970406399E+002
+1.21394242804E+007, +6.32777841938E+001, +1.33372656837E+002
+1.23583229036E+007, +6.35604464507E+001, +1.35917946308E+002
+1.25772215269E+007, +6.33760761856E+001, +1.38320331755E+002
+1.27961201502E+007, +6.34790339356E+001, +1.40733768123E+002
+1.30150187735E+007, +6.35796326573E+001, +1.43132536808E+002
+1.32339173967E+007, +6.36186289013E+001, +1.45923367485E+002
+1.34528160200E+007, +6.35763609423E+001, +1.48099221437E+002
+1.36717146433E+007, +6.38280465804E+001, +1.50667401452E+002
+1.38906132666E+007, +6.38942109556E+001, +1.53263271276E+002
+1.41095118899E+007, +6.40844676488E+001, +1.55698006044E+002
+1.43284105131E+007, +6.38400715872E+001, +1.58184717890E+002
+1.45473091364E+007, +6.40638131468E+001, +1.60785738338E+002
+1.47662077597E+007, +6.42711049012E+001, +1.62905345406E+002
+1.49851063830E+007, +6.44594045240E+001, +1.65416925683E+002
+1.52040050063E+007, +6.44352585084E+001, +1.68340609617E+002
+1.54229036295E+007, +6.44987539397E+001, +1.70662857725E+002
+1.56418022528E+007, +6.43198365563E+001, +1.73239462591E+002
+1.58607008761E+007, +6.45250134284E+001, +1.75691821803E+002
+1.60795994994E+007, +6.45633333666E+001, +1.78350317448E+002
+1.62984981227E+007, +6.47500611934E+001, +1.80737100176E+002
+1.65173967459E+007, +6.49115753673E+001, +1.83360765261E+002
+1.67362953692E+007, +6.48183464066E+001, +1.85839359390E+002
+1.69551939925E+007, +6.49629573518E+001, +1.88026366657E+002
+1.71740926158E+007, +6.47506850896E+001, +1.91152510693E+002
+1.73929912390E+007, +6.49785094772E+001, +1.93551237963E+002
+1.76118898623E+007, +6.51886688942E+001, +1.95924525500E+002
+1.78307884856E+007, +6.55198122075E+001, +1.98309673644E+002
+1.80496871089E+007, +6.53479411805E+001, +2.01129146928E+002
+1.82685857322E+007, +6.55034543167E+001, +2.03484556192E+002
+1.84874843554E+007, +6.56841848832E+001, +2.06408695564E+002
+1.87063829787E+007, +6.58039206541E+001, +2.08693303784E+002
+1.89252816020E+007, +6.59464700441E+001, +2.11462179288E+002
+1.91441802253E+007, +6.61511656647E+001, +2.13790683518E+002
+1.93630788486E+007, +6.59429221052E+001, +2.16467455919E+002
+1.95819774718E+007, +6.65538320013E+001, +2.19061485853E+002
+1.98008760951E+007, +6.63210155675E+001, +2.21628420821E+002
+2.00197747184E+007, +6.64732682827E+001, +2.24268035618E+002
+2.02386733417E+007, +6.64855477202E+001, +2.26798391884E+002
+2.04575719650E+007, +6.68093659465E+001, +2.29513324879E+002
+2.06764705882E+007, +6.68301427259E+001, +2.32088034136E+002
+2.08953692115E+007, +6.69580176911E+001, +2.34901451325E+002
+2.11142678348E+007, +6.74168664257E+001, +2.37105195215E+002
+2.13331664581E+007, +6.74820489249E+001, +2.39895760039E+002
+2.15520650814E+007, +6.70549011902E+001, +2.42237450417E+002
+2.17709637046E+007, +6.76575935874E+001, +2.45407435494E+002
+2.19898623279E+007, +6.76180724588E+001, +2.47846968833E+002
+2.22087609512E+007, +6.73149974518E+001, +2.50223433673E+002
+2.24276595745E+007, +6.85949612136E+001, +2.53509642446E+002
+2.26465581977E+007, +6.83698456045E+001, +2.55823593173E+002
+2.28654568210E+007, +6.88373684591E+001, +2.58350845180E+002
+2.30843554443E+007, +6.83278193634E+001, +2.61052988981E+002
+2.33032540676E+007, +6.90073430814E+001, +2.63743474241E+002
+2.35221526909E+007, +6.90598880616E+001, +2.66593912145E+002
+2.37410513141E+007, +6.88772274847E+001, +2.68891943782E+002
+2.39599499374E+007, +6.89766493332E+001, +2.71741235259E+002
+2.41788485607E+007, +6.93891204709E+001, +2.74441557256E+002
+2.43977471840E+007, +6.94283164711E+001, +2.77285140988E+002
+2.46166458073E+007, +6.91395258521E+001, +2.80434662453E+002
+2.48355444305E+007, +6.95150164285E+001, +2.82913853375E+002
+2.50544430538E+007, +7.07069429618E+001, +2.85723459401E+002
+2.52733416771E+007, +7.05741909541E+001, +2.88737352708E+002
+2.54922403004E+007, +7.04065451973E+001, +2.91083050329E+002
+2.57111389237E+007, +7.06956730841E+001, +2.94048499316E+002
+2.59300375469E+007, +7.03910844426E+001, +2.96179896387E+002
+2.61489361702E+007, +7.09954847350E+001, +2.99170619860E+002
+2.63678347935E+007, +7.08495830327E+001, +3.02264980533E+002
+2.65867334168E+007, +7.11748387721E+001, +3.05055350882E+002
+2.68056320401E+007, +7.16632172555E+001, +3.07751564482E+002
+2.70245306633E+007, +7.17355385766E+001, +3.10242733110E+002
+2.72434292866E+007, +7.14984341374E+001, +3.13034736302E+002
+2.74623279099E+007, +7.22433909607E+001, +3.15878848814E+002
+2.76812265332E+007, +7.23061394623E+001, +3.18995740089E+002
+2.79001251564E+007, +7.20126700462E+001, +3.21642297378E+002
+2.81190237797E+007, +7.32439784819E+001, +3.24779173968E+002
+2.83379224030E+007, +7.29255368476E+001, +3.26431806732E+002
+2.85568210263E+007, +7.22182888562E+001, +3.29747859394E+002
+2.87757196496E+007, +7.26291626061E+001, +3.32965949212E+002
+2.89946182728E+007, +7.30775288081E+001, +3.35896757533E+002
+2.92135168961E+007, +7.25503381055E+001, +3.39430470827E+002
+2.94324155194E+007, +7.37483101311E+001, +3.42506001084E+002
+2.96513141427E+007, +7.35756931784E+001, +3.44744294949E+002
+2.98702127660E+007, +7.35473383878E+001, +3.47238926177E+002
+3.00891113892E+007, +7.35173398265E+001, +3.50667593823E+002
+3.03080100125E+007, +7.50793415572E+001, +3.53308345917E+002
+3.05269086358E+007, +7.46687257862E+001, +3.56799501748E+002
+3.07458072591E+007, +7.47737458385E+001, +3.58944644793E+002
+3.09647058824E+007, +7.51356283859E+001, +3.62604191840E+002
+3.11836045056E+007, +7.47334782595E+001, +3.65170021675E+002
+3.14025031289E+007, +7.49439354532E+001, +3.67807808701E+002
+3.16214017522E+007, +7.48695444329E+001, +3.70737388858E+002
+3.18403003755E+007, +7.44831784730E+001, +3.74588426337E+002
+3.20591989987E+007, +7.55781348092E+001, +3.77453289092E+002
+3.22780976220E+007, +7.53700194399E+001, +3.80497825597E+002
+3.24969962453E+007, +7.64210361868E+001, +3.83551015539E+002
+3.27158948686E+007, +7.57327422381E+001, +3.86105860577E+002
+3.29347934919E+007, +7.60846808811E+001, +3.88867118638E+002
+3.31536921151E+007, +7.69063268770E+001, +3.91687069097E+002
+3.33725907384E+007, +7.72067745022E+001, +3.95678491602E+002
+3.35914893617E+007, +7.70440444183E+001, +3.98684071554E+002
+3.38103879850E+007, +7.68645050477E+001, +4.01494018073E+002
+3.40292866083E+007, +7.71692072708E+001, +4.05383819959E+002
+3.42481852315E+007, +7.89820351767E+001, +4.07566062954E+002
+3.44670838548E+007, +7.84751648081E+001, +4.11366401676E+002
+3.46859824781E+007, +7.84386870237E+001, +4.13840763704E+002
+3.49048811014E+007, +7.94146847297E+001, +4.17756869025E+002
+3.51237797247E+007, +7.87967864525E+001, +4.20809841312E+002
+3.53426783479E+007, +7.99412459518E+001, +4.24048975455E+002
+3.55615769712E+007, +7.96073678490E+001, +4.28250097775E+002
+3.57804755945E+007, +8.13542880756E+001, +4.29828289648E+002
+3.59993742178E+007, +7.98613968157E+001, +4.34004591277E+002
+3.62182728411E+007, +8.02377887691E+001, +4.36617225937E+002
+3.64371714643E+007, +8.13614456082E+001, +4.39019476443E+002
+3.66560700876E+007, +8.13008657447E+001, +4.43321623012E+002
+3.68749687109E+007, +8.17892949659E+001, +4.47282174527E+002
+3.70938673342E+007, +8.24857847528E+001, +4.50329139074E+002
+3.73127659574E+007, +8.20318710062E+001, +4.53564751972E+002
+3.75316645807E+007, +8.17424259970E+001, +4.56322720275E+002
+3.77505632040E+007, +8.22953975893E+001, +4.60204016062E+002
+3.79694618273E+007, +8.30805169618E+001, +4.62898088523E+002
+3.81883604506E+007, +8.31135402464E+001, +4.67115275300E+002
+3.84072590738E+007, +8.22514387971E+001, +4.70276105738E+002
+3.86261576971E+007, +8.32520424804E+001, +4.73715123588E+002
+3.88450563204E+007, +8.37675972072E+001, +4.75887052516E+002
+3.90639549437E+007, +8.56178669505E+001, +4.79704117543E+002
+3.92828535670E+007, +8.45265646235E+001, +4.85323372024E+002
+3.95017521902E+007, +8.56825304577E+001, +4.87647446024E+002
+3.97206508135E+007, +8.55517908764E+001, +4.90690051718E+002
+3.99395494368E+007, +8.64957080035E+001, +4.93597942541E+002
+4.01584480601E+007, +8.64867711720E+001, +4.97003338279E+002
+4.03773466834E+007, +8.78217654334E+001, +5.02928470136E+002
+4.05962453066E+007, +8.57821537292E+001, +5.06029253829E+002
+4.08151439299E+007, +8.69878564905E+001, +5.07996272417E+002
+4.10340425532E+007, +8.63765482491E+001, +5.10867272932E+002
+4.12529411765E+007, +8.70096122721E+001, +5.14220431907E+002
+4.14718397997E+007, +8.76020500058E+001, +5.20698231147E+002
+4.16907384230E+007, +8.88967334135E+001, +5.22052409300E+002
+4.19096370463E+007, +8.93747973743E+001, +5.26335922142E+002
+4.21285356696E+007, +8.90668142086E+001, +5.29642602494E+002
+4.23474342929E+007, +9.01593969040E+001, +5.35606795584E+002
+4.25663329161E+007, +9.27462635035E+001, +5.37336512445E+002
+4.27852315394E+007, +9.00531805071E+001, +5.41591171727E+002
+4.30041301627E+007, +9.25522434411E+001, +5.45973847655E+002
+4.32230287860E+007, +9.18432233665E+001, +5.49344915349E+002
+4.34419274093E+007, +9.21596406425E+001, +5.52498840087E+002
+4.36608260325E+007, +9.22481845767E+001, +5.56030482184E+002
+4.38797246558E+007, +9.18359522874E+001, +5.59868799995E+002
+4.40986232791E+007, +9.18851104223E+001, +5.63835311072E+002
+4.43175219024E+007, +9.41043219377E+001, +5.68233076576E+002
+4.45364205257E+007, +9.36738039519E+001, +5.72243299126E+002
+4.47553191489E+007, +9.58088326289E+001, +5.76326870391E+002
+4.49742177722E+007, +9.47351160070E+001, +5.80160512087E+002
+4.51931163955E+007, +9.59165319142E+001, +5.82817976917E+002
+4.54120150188E+007, +9.54928657115E+001, +5.88072256172E+002
+4.56309136421E+007, +9.73218265524E+001, +5.91341614873E+002
+4.58498122653E+007, +9.66987729670E+001, +5.92972535191E+002
+4.60687108886E+007, +9.61534245398E+001, +6.01854763970E+002
+4.62876095119E+007, +9.79938227791E+001, +6.03372782432E+002
+4.65065081352E+007, +9.89003825806E+001, +6.06915827109E+002
+4.67254067584E+007, +9.72133572458E+001, +6.10547590687E+002
+4.69443053817E+007, +9.88828044208E+001, +6.14200128511E+002
+4.71632040050E+007, +9.71524604511E+001, +6.19940323689E+002
+4.73821026283E+007, +1.00112056138E+002, +6.23277417716E+002
+4.76010012516E+007, +9.94982418450E+001, +6.27519793751E+002
+4.78198998748E+007, +9.76531971638E+001, +6.32486753006E+002
+4.80387984981E+007, +1.00478909815E+002, +6.36093707983E+002
+4.82576971214E+007, +1.02665709570E+002, +6.40675448982E+002
+4.84765957447E+007, +1.03925357505E+002, +6.44029547853E+002
+4.86954943680E+007, +1.01691086973E+002, +6.48155276626E+002
+4.89143929912E+007, +1.02866039282E+002, +6.53977840326E+002
+4.91332916145E+007, +1.03116619286E+002, +6.57455901882E+002
+4.93521902378E+007, +1.04717667661E+002, +6.62874029362E+002
+4.95710888611E+007, +1.07503121851E+002, +6.66386743145E+002
+4.97899874844E+007, +1.06524987225E+002, +6.70778418526E+002
+5.00088861076E+007, +1.05679870850E+002, +6.74953996504E+002
+5.02277847309E+007, +1.07491375889E+002, +6.80366327073E+002
+5.04466833542E+007, +1.09520154187E+002, +6.86338358551E+002
+5.06655819775E+007, +1.07925044736E+002, +6.90324388349E+002
+5.08844806008E+007, +1.09620272127E+002, +6.93818901167E+002
+5.11033792240E+007, +1.10094982362E+002, +7.00116731102E+002
+5.13222778473E+007, +1.09883231307E+002, +7.05522179329E+002
+5.15411764706E+007, +1.13371593628E+002, +7.08909528802E+002
+5.17600750939E+007, +1.12091411472E+002, +7.12782083201E+002
+5.19789737171E+007, +1.13146043435E+002, +7.19111799962E+002
+5.21978723404E+007, +1.14207025735E+002, +7.24042429079E+002
+5.24167709637E+007, +1.11982606742E+002, +7.29478411126E+002
+5.26356695870E+007, +1.16268505032E+002, +7.33380936808E+002
+5.28545682103E+007, +1.18245027646E+002, +7.38154329025E+002
+5.30734668335E+007, +1.16293059560E+002, +7.44244314349E+002
+5.32923654568E+007, +1.14827117310E+002, +7.51274857284E+002
+5.35112640801E+007, +1.21207422283E+002, +7.54555032749E+002
+5.37301627034E+007, +1.17412981481E+002, +7.61520026356E+002
+5.39490613267E+007, +1.20809242783E+002, +7.66549858315E+002
+5.41679599499E+007, +1.20961599376E+002, +7.71765514172E+002
+5.43868585732E+007, +1.21988314166E+002, +7.77971194377E+002
+5.46057571965E+007, +1.22622181226E+002, +7.78695496441E+002
+5.48246558198E+007, +1.21499471377E+002, +7.84365803522E+002
+5.50435544431E+007, +1.25168841591E+002, +7.93664918027E+002
+5.52624530663E+007, +1.25197566979E+002, +8.00404221637E+002
+5.54813516896E+007, +1.26125319688E+002, +7.99830685870E+002
+5.57002503129E+007, +1.30024338676E+002, +8.05280230587E+002
+5.59191489362E+007, +1.29137984073E+002, +8.14922168480E+002
+5.61380475594E+007, +1.30962367320E+002, +8.16904137359E+002
+5.63569461827E+007, +1.30527717596E+002, +8.26864837043E+002
+5.65758448060E+007, +1.32208737333E+002, +8.29745828677E+002
+5.67947434293E+007, +1.35869454494E+002, +8.34957193971E+002
+5.70136420526E+007, +1.34863124068E+002, +8.39752038667E+002
+5.72325406758E+007, +1.34830498794E+002, +8.46521132304E+002
+5.74514392991E+007, +1.32486301241E+002, +8.50526832540E+002
+5.76703379224E+007, +1.36487463573E+002, +8.59599338648E+002
+5.78892365457E+007, +1.35298639637E+002, +8.66281144251E+002
+5.81081351690E+007, +1.43011509538E+002, +8.70738497335E+002
+5.83270337922E+007, +1.37346421392E+002, +8.77895779028E+002
+5.85459324155E+007, +1.46173778892E+002, +8.84138547368E+002
+5.87648310388E+007, +1.42506634382E+002, +8.89898046821E+002
+5.89837296621E+007, +1.42054468919E+002, +8.95655780805E+002
+5.92026282854E+007, +1.48570483989E+002, +9.02456693802E+002
+5.94215269086E+007, +1.46777250245E+002, +9.09818952562E+002
+5.96404255319E+007, +1.44115351537E+002, +9.16836469694E+002
+5.98593241552E+007, +1.52570565653E+002, +9.21951043880E+002
+6.00782227785E+007, +1.52838964834E+002, +9.26945390229E+002
+6.02971214018E+007, +1.55238641355E+002, +9.33474416133E+002
+6.05160200250E+007, +1.55516726794E+002, +9.41953887906E+002
+6.07349186483E+007, +1.57081302646E+002, +9.47736541327E+002
+6.09538172716E+007, +1.56880957542E+002, +9.57634841469E+002
+6.11727158949E+007, +1.60782974373E+002, +9.64780745609E+002
+6.13916145181E+007, +1.58468138546E+002, +9.68070933723E+002
+6.16105131414E+007, +1.57833875904E+002, +9.74891132780E+002
+6.18294117647E+007, +1.64196729101E+002, +9.84287710783E+002
+6.20483103880E+007, +1.61482252593E+002, +9.93178704746E+002
+6.22672090113E+007, +1.65150873843E+002, +9.97800307149E+002
+6.24861076345E+007, +1.71014919250E+002, +1.00538718512E+003
+6.27050062578E+007, +1.72145326192E+002, +1.01103118830E+003
+6.29239048811E+007, +1.67843942915E+002, +1.02303273495E+003
+6.31428035044E+007, +1.70179477097E+002, +1.02987204422E+003
+6.33617021277E+007, +1.79690409838E+002, +1.03059844886E+003
+6.35806007509E+007, +1.75405983589E+002, +1.04621680275E+003
+6.37994993742E+007, +1.77163797030E+002, +1.05347011109E+003
+6.40183979975E+007, +1.84267371877E+002, +1.05400301488E+003
+6.42372966208E+007, +1.81631979420E+002, +1.06867365023E+003
+6.44561952441E+007, +1.83546112871E+002, +1.07788574098E+003
+6.46750938673E+007, +1.88047457178E+002, +1.08686788469E+003
+6.48939924906E+007, +1.90002922391E+002, +1.09102496463E+003
+6.51128911139E+007, +1.94125859847E+002, +1.10633483188E+003
+6.53317897372E+007, +1.96385798894E+002, +1.11108565360E+003
+6.55506883605E+007, +1.99480472266E+002, +1.12246307866E+003
+6.57695869837E+007, +2.05360275082E+002, +1.13028075179E+003
+6.59884856070E+007, +2.10368096473E+002, +1.13880813280E+003
+6.62073842303E+007, +2.02941842189E+002, +1.14709617567E+003
+6.64262828536E+007, +2.11483982311E+002, +1.15416364893E+003
+6.66451814768E+007, +2.11555805203E+002, +1.16495551880E+003
+6.68640801001E+007, +2.14244406972E+002, +1.17607231901E+003
+6.70829787234E+007, +2.17215272215E+002, +1.18388819691E+003
+6.73018773467E+007, +2.23841812375E+002, +1.18604442242E+003
+6.75207759700E+007, +2.31988476641E+002, +1.20077749349E+003
+6.77396745932E+007, +2.23415566806E+002, +1.20561801867E+003
+6.79585732165E+007, +2.36618265409E+002, +1.22120721992E+003
+6.81774718398E+007, +2.30991584359E+002, +1.23797128483E+003
+6.83963704631E+007, +2.38878564565E+002, +1.23394020632E+003
+6.86152690864E+007, +2.45961193995E+002, +1.25220857808E+003
+6.88341677096E+007, +2.46638700965E+002, +1.25436373971E+003
+6.90530663329E+007, +2.50110049946E+002, +1.27032053603E+003
+6.92719649562E+007, +2.57069573239E+002, +1.27279277828E+003
+6.94908635795E+007, +2.55484772047E+002, +1.28401569655E+003
+6.97097622028E+007, +2.60091688907E+002, +1.29471613743E+003
+6.99286608260E+007, +2.64045602964E+002, +1.31120379440E+003
+7.01475594493E+007, +2.67457990359E+002, +1.31987855417E+003
