"# Channel 1"
"# Trace 1"
Frequency, Formatted Data, Formatted Data
+1.00000000000E+005, +1.95527325845E+001, +3.43208775039E-001
+2.25031289111E+005, +1.89719884727E+001, +1.51786104344E+000
+3.50062578223E+005, +1.87402085918E+001, +2.85221908026E+000
+4.75093867334E+005, +1.86453343905E+001, +4.19827706083E+000
+6.00125156446E+005, +1.85943616429E+001, +5.50071520017E+000
+7.25156445557E+005, +1.85515370109E+001, +6.79656179615E+000
+8.50187734668E+005, +1.85287502886E+001, +8.04054360083E+000
+9.75219023780E+005, +1.85367395191E+001, +9.31735397210E+000
+1.10025031289E+006, +1.85408262098E+001, +1.05475407198E+001
+1.22528160200E+006, +1.85209141175E+001, +1.17877863523E+001
+1.35031289111E+006, +1.85296457366E+001, +1.30432192719E+001
+1.47534418023E+006, +1.85133333374E+001, +1.42579270747E+001
+1.60037546934E+006, +1.85041497858E+001, +1.55037868091E+001
+1.72540675845E+006, +1.85510969778E+001, +1.66851234472E+001
+1.85043804756E+006, +1.85402871264E+001, +1.79241752932E+001
+1.97546933667E+006, +1.85387303770E+001, +1.91613206639E+001
+2.10050062578E+006, +1.85534747096E+001, +2.03621469858E+001
+2.22553191489E+006, +1.85544812079E+001, +2.15610672418E+001
+2.35056320401E+006, +1.85422418671E+001, +2.27680445936E+001
+2.47559449312E+006, +1.85812155669E+001, +2.40675298714E+001
+2.60062578223E+006, +1.85491787956E+001, +2.52291989772E+001
+2.72565707134E+006, +1.85729233230E+001, +2.64230923516E+001
+2.85068836045E+006, +1.86041715285E+001, +2.76224718441E+001
+2.97571964956E+006, +1.85697965998E+001, +2.88586885199E+001
+3.10075093867E+006, +1.85815116687E+001, +3.00881440337E+001
+3.22578222778E+006, +1.85971618773E+001, +3.13465281258E+001
+3.35081351690E+006, +1.86116504097E+001, +3.25401143970E+001
+3.47584480601E+006, +1.86606568754E+001, +3.37730741423E+001
+3.60087609512E+006, +1.86176292880E+001, +3.50075800181E+001
+3.72590738423E+006, +1.86246873767E+001, +3.62199221559E+001
+3.85093867334E+006, +1.86480191455E+001, +3.74092245660E+001
+3.97596996245E+006, +1.86736979662E+001, +3.87003951206E+001
+4.10100125156E+006, +1.86695241532E+001, +3.98680528740E+001
+4.22603254068E+006, +1.86816994537E+001, +4.10412511632E+001
+4.35106382979E+006, +1.86541675430E+001, +4.22967759006E+001
+4.47609511890E+006, +1.87241118739E+001, +4.35193302026E+001
+4.60112640801E+006, +1.86189303366E+001, +4.46640864266E+001
+4.72615769712E+006, +1.87250251993E+001, +4.59230421569E+001
+4.85118898623E+006, +1.87087370056E+001, +4.71788992175E+001
+4.97622027534E+006, +1.87859427980E+001, +4.83891450206E+001
+5.10125156446E+006, +1.87155067651E+001, +4.96202439018E+001
+5.22628285357E+006, +1.87190212409E+001, +5.07936615114E+001
+5.35131414268E+006, +1.87945741545E+001, +5.20404599798E+001
+5.47634543179E+006, +1.86786655851E+001, +5.32144687015E+001
+5.60137672090E+006, +1.87685171520E+001, +5.44119030575E+001
+5.72640801001E+006, +1.87963555078E+001, +5.56975026965E+001
+5.85143929912E+006, +1.87857351020E+001, +5.68632234105E+001
+5.97647058824E+006, +1.87423203646E+001, +5.81508132288E+001
+6.10150187735E+006, +1.88203175198E+001, +5.93509585840E+001
+6.22653316646E+006, +1.88052785661E+001, +6.06220363877E+001
+6.35156445557E+006, +1.88236349950E+001, +6.17777251501E+001
+6.47659574468E+006, +1.89185071529E+001, +6.30802440849E+001
+6.60162703379E+006, +1.88732086310E+001, +6.42928748998E+001
+6.72665832290E+006, +1.88977396136E+001, +6.54968152643E+001
+6.85168961202E+006, +1.89386027891E+001, +6.66938234277E+001
+6.97672090113E+006, +1.89824951473E+001, +6.79758269252E+001
+7.10175219024E+006, +1.89434963287E+001, +6.92492317857E+001
+7.22678347935E+006, +1.89325245180E+001, +7.04371108822E+001
+7.35181476846E+006, +1.90040770743E+001, +7.16648248143E+001
+7.47684605757E+006, +1.90006863452E+001, +7.28256917310E+001
+7.60187734668E+006, +1.90238491499E+001, +7.40945093051E+001
+7.72690863579E+006, +1.89905863933E+001, +7.53311002995E+001
+7.85193992491E+006, +1.90129561042E+001, +7.65456333129E+001
+7.97697121402E+006, +1.90049407002E+001, +7.77431251159E+001
+8.10200250313E+006, +1.89734867609E+001, +7.90046437689E+001
+8.22703379224E+006, +1.90442929731E+001, +8.01788099695E+001
+8.35206508135E+006, +1.90294117928E+001, +8.14630601219E+001
+8.47709637046E+006, +1.91107078870E+001, +8.27061025442E+001
+8.60212765957E+006, +1.90628769388E+001, +8.38907669054E+001
+8.72715894869E+006, +1.91238112344E+001, +8.51669446979E+001
+8.85219023780E+006, +1.91391643552E+001, +8.64641203185E+001
+8.97722152691E+006, +1.91497223874E+001, +8.76262522947E+001
+9.10225281602E+006, +1.91633168996E+001, +8.89017003339E+001
+9.22728410513E+006, +1.91819628007E+001, +9.00636034583E+001
+9.35231539424E+006, +1.92009405879E+001, +9.13820905699E+001
+9.47734668335E+006, +1.92037902123E+001, +9.25175654889E+001
+9.60237797247E+006, +1.92439422936E+001, +9.38495421043E+001
+9.72740926158E+006, +1.91917528207E+001, +9.50520482451E+001
+9.85244055069E+006, +1.91948825492E+001, +9.63424157417E+001
+9.97747183980E+006, +1.92638738199E+001, +9.75324339717E+001
+1.01025031289E+007, +1.92602002136E+001, +9.86799880010E+001
+1.02275344180E+007, +1.93425458823E+001, +9.99325146374E+001
+1.03525657071E+007, +1.91983901681E+001, +1.01363989000E+002
+1.04775969962E+007, +1.92960797684E+001, +1.02495411713E+002
+1.06026282854E+007, +1.93071860333E+001, +1.03762865282E+002
+1.07276595745E+007, +1.93160250455E+001, +1.04973472158E+002
+1.08526908636E+007, +1.93637421204E+001, +1.06235322455E+002
+1.09777221527E+007, +1.93381092559E+001, +1.07419534117E+002
+1.11027534418E+007, +1.94241595240E+001, +1.08656877715E+002
+1.12277847309E+007, +1.94601352730E+001, +1.09924306673E+002
+1.13528160200E+007, +1.93994166082E+001, +1.11246740705E+002
+1.14778473091E+007, +1.95047496231E+001, +1.12629016779E+002
+1.16028785982E+007, +1.93952884122E+001, +1.13601363628E+002
+1.17279098874E+007, +1.94372816442E+001, +1.14997184234E+002
+1.18529411765E+007, +1.94803043429E+001, +1.16213935186E+002
+1.19779724656E+007, +1.94457948916E+001, +1.17396127632E+002
+1.21030037547E+007, +1.95541268049E+001, +1.18766657557E+002
+1.22280350438E+007, +1.94683401240E+001, +1.20055031972E+002
+1.23530663329E+007, +1.94549295720E+001, +1.21325603017E+002
+1.24780976220E+007, +1.95765749621E+001, +1.22545227949E+002
+1.26031289111E+007, +1.94906767706E+001, +1.23687421297E+002
+1.27281602003E+007, +1.95022375100E+001, +1.25116084219E+002
+1.28531914894E+007, +1.95957080016E+001, +1.26248865949E+002
+1.29782227785E+007, +1.95525820905E+001, +1.27599348930E+002
+1.31032540676E+007, +1.96161867252E+001, +1.28835898892E+002
+1.32282853567E+007, +1.96115118397E+001, +1.30169644836E+002
+1.33533166458E+007, +1.97021805762E+001, +1.31335768088E+002
+1.34783479349E+007, +1.96462498888E+001, +1.32648326686E+002
+1.36033792240E+007, +1.96131408039E+001, +1.33906681143E+002
+1.37284105131E+007, +1.96799864132E+001, +1.35064100163E+002
+1.38534418023E+007, +1.97841552041E+001, +1.36552196846E+002
+1.39784730914E+007, +1.97124672053E+001, +1.37586006089E+002
+1.41035043805E+007, +1.96712744479E+001, +1.39075722642E+002
+1.42285356696E+007, +1.97650228398E+001, +1.40237479818E+002
+1.43535669587E+007, +1.97196102166E+001, +1.41571154090E+002
+1.44785982478E+007, +1.98630313415E+001, +1.42874552055E+002
+1.46036295369E+007, +1.98046555145E+001, +1.44078861633E+002
+1.47286608260E+007, +1.97404946109E+001, +1.45375273113E+002
+1.48536921151E+007, +1.99345616824E+001, +1.46638920258E+002
+1.49787234043E+007, +1.96120868870E+001, +1.47998968060E+002
+1.51037546934E+007, +1.98124476775E+001, +1.49355821525E+002
+1.52287859825E+007, +1.99197954180E+001, +1.50488789124E+002
+1.53538172716E+007, +1.99018377379E+001, +1.51832354789E+002
+1.54788485607E+007, +1.99567745928E+001, +1.53152398090E+002
+1.56038798498E+007, +1.98314224534E+001, +1.54490518782E+002
+1.57289111389E+007, +2.01192480452E+001, +1.55596070895E+002
+1.58539424280E+007, +2.00841138545E+001, +1.56959572672E+002
+1.59789737171E+007, +1.99324755396E+001, +1.58179549883E+002
+1.61040050063E+007, +2.00917262508E+001, +1.59625525923E+002
+1.62290362954E+007, +2.01296309207E+001, +1.60841163839E+002
+1.63540675845E+007, +2.01149788934E+001, +1.62174473029E+002
+1.64790988736E+007, +2.01126569653E+001, +1.63185094515E+002
+1.66041301627E+007, +2.00656407041E+001, +1.64888648931E+002
+1.67291614518E+007, +2.01578181930E+001, +1.66209960257E+002
+1.68541927409E+007, +2.02948616615E+001, +1.67307825511E+002
+1.69792240300E+007, +2.02352654260E+001, +1.68763131889E+002
+1.71042553191E+007, +2.00047085172E+001, +1.69995699217E+002
+1.72292866083E+007, +2.00749132251E+001, +1.71258885503E+002
+1.73543178974E+007, +2.01465451899E+001, +1.72617168749E+002
+1.74793491865E+007, +1.99930989660E+001, +1.73966514402E+002
+1.76043804756E+007, +2.01123226770E+001, +1.75302773569E+002
+1.77294117647E+007, +2.03330516924E+001, +1.76579649784E+002
+1.78544430538E+007, +2.01901544988E+001, +1.78089349769E+002
+1.79794743429E+007, +2.02142779924E+001, +1.79255857074E+002
+1.81045056320E+007, +2.03704560071E+001, +1.80799462665E+002
+1.82295369212E+007, +2.04569842303E+001, +1.81801550509E+002
+1.83545682103E+007, +2.05463452085E+001, +1.83196617460E+002
+1.84795994994E+007, +2.05152544119E+001, +1.84593714102E+002
+1.86046307885E+007, +2.04687395035E+001, +1.85869026892E+002
+1.87296620776E+007, +2.04844244470E+001, +1.87199490676E+002
+1.88546933667E+007, +2.06246800025E+001, +1.88412541504E+002
+1.89797246558E+007, +2.05297664279E+001, +1.90178748440E+002
+1.91047559449E+007, +2.03158291188E+001, +1.91040007043E+002
+1.92297872340E+007, +2.07215513893E+001, +1.92587201816E+002
+1.93548185232E+007, +2.05671147025E+001, +1.93894440850E+002
+1.94798498123E+007, +2.04463263560E+001, +1.95281362976E+002
+1.96048811014E+007, +2.05363837055E+001, +1.96742592262E+002
+1.97299123905E+007, +2.09183767726E+001, +1.97918150500E+002
+1.98549436796E+007, +2.05562278466E+001, +1.99334049041E+002
+1.99799749687E+007, +2.05239563171E+001, +2.00387212974E+002
+2.01050062578E+007, +2.05040298290E+001, +2.01853537061E+002
+2.02300375469E+007, +2.08286294058E+001, +2.03554240449E+002
+2.03550688360E+007, +2.07409577592E+001, +2.04813239523E+002
+2.04801001252E+007, +2.08874270147E+001, +2.06212539215E+002
+2.06051314143E+007, +2.09637405959E+001, +2.07335308142E+002
+2.07301627034E+007, +2.12435414404E+001, +2.08885695040E+002
+2.08551939925E+007, +2.09240170239E+001, +2.10167794501E+002
+2.09802252816E+007, +2.09653863531E+001, +2.11582565898E+002
+2.11052565707E+007, +2.09257497723E+001, +2.13096001219E+002
+2.12302878598E+007, +2.07750697034E+001, +2.14407106667E+002
+2.13553191489E+007, +2.10896398560E+001, +2.15648741306E+002
+2.14803504380E+007, +2.12524750686E+001, +2.17029064444E+002
+2.16053817272E+007, +2.12756045726E+001, +2.18508402019E+002
+2.17304130163E+007, +2.14072817870E+001, +2.19677594675E+002
+2.18554443054E+007, +2.11952137689E+001, +2.21210179808E+002
+2.19804755945E+007, +2.12944393784E+001, +2.22424488877E+002
+2.21055068836E+007, +2.15699905777E+001, +2.23821389314E+002
+2.22305381727E+007, +2.17078883728E+001, +2.25362425593E+002
+2.23555694618E+007, +2.14439526318E+001, +2.26607694492E+002
+2.24806007509E+007, +2.17256917654E+001, +2.28124700498E+002
+2.26056320401E+007, +2.17798844545E+001, +2.29468056731E+002
+2.27306633292E+007, +2.13425645521E+001, +2.30835195500E+002
+2.28556946183E+007, +2.15427118935E+001, +2.32078995850E+002
+2.29807259074E+007, +2.14219258534E+001, +2.33346466088E+002
+2.31057571965E+007, +2.18541732336E+001, +2.35140685204E+002
+2.32307884856E+007, +2.16626639435E+001, +2.36368146082E+002
+2.33558197747E+007, +2.21465162765E+001, +2.37908286224E+002
+2.34808510638E+007, +2.19354668056E+001, +2.39113710843E+002
+2.36058823529E+007, +2.19925384039E+001, +2.40795219716E+002
+2.37309136421E+007, +2.21664105584E+001, +2.42090791109E+002
+2.38559449312E+007, +2.21933802282E+001, +2.43173572177E+002
+2.39809762203E+007, +2.21585632610E+001, +2.44473602769E+002
+2.41060075094E+007, +2.20724397877E+001, +2.46177991773E+002
+2.42310387985E+007, +2.19516729261E+001, +2.47226080876E+002
+2.43560700876E+007, +2.22274914364E+001, +2.48967682149E+002
+2.44811013767E+007, +2.25194631315E+001, +2.49993327698E+002
+2.46061326658E+007, +2.25310753088E+001, +2.51573484045E+002
+2.47311639549E+007, +2.22569795434E+001, +2.53449973982E+002
+2.48561952441E+007, +2.24819926429E+001, +2.54770952894E+002
+2.49812265332E+007, +2.23823415618E+001, +2.55904362021E+002
+2.51062578223E+007, +2.22788878134E+001, +2.57330252809E+002
+2.52312891114E+007, +2.24255959239E+001, +2.58747255344E+002
+2.53563204005E+007, +2.22948953576E+001, +2.60586336261E+002
+2.54813516896E+007, +2.21930203469E+001, +2.61792016364E+002
+2.56063829787E+007, +2.23790362083E+001, +2.63245922204E+002
+2.57314142678E+007, +2.23898486329E+001, +2.64683429456E+002
+2.58564455569E+007, +2.24969020100E+001, +2.65893359139E+002
+2.59814768461E+007, +2.24160112031E+001, +2.67406787340E+002
+2.61065081352E+007, +2.26330628617E+001, +2.69103278270E+002
+2.62315394243E+007, +2.26376681354E+001, +2.70624772694E+002
+2.63565707134E+007, +2.24973621817E+001, +2.71780342851E+002
+2.64816020025E+007, +2.27722441115E+001, +2.73405945430E+002
+2.66066332916E+007, +2.23664140033E+001, +2.74881519765E+002
+2.67316645807E+007, +2.28046042317E+001, +2.76433148484E+002
+2.68566958698E+007, +2.29709779197E+001, +2.77856784927E+002
+2.69817271589E+007, +2.30396804644E+001, +2.79704697974E+002
+2.71067584481E+007, +2.28970551149E+001, +2.80680929250E+002
+2.72317897372E+007, +2.33483407940E+001, +2.81902729948E+002
+2.73568210263E+007, +2.31334627876E+001, +2.83749376871E+002
+2.74818523154E+007, +2.34209152559E+001, +2.85359112639E+002
+2.76068836045E+007, +2.28434411115E+001, +2.86556978553E+002
+2.77319148936E+007, +2.31379780610E+001, +2.88350721582E+002
+2.78569461827E+007, +2.30826300873E+001, +2.89737370043E+002
+2.79819774718E+007, +2.34072731626E+001, +2.91107933804E+002
+2.81070087610E+007, +2.35011366750E+001, +2.92566277831E+002
+2.82320400501E+007, +2.29847876231E+001, +2.94581687141E+002
+2.83570713392E+007, +2.31271579198E+001, +2.95878719246E+002
+2.84821026283E+007, +2.32372657984E+001, +2.97323770422E+002
+2.86071339174E+007, +2.29217623755E+001, +2.98614368404E+002
+2.87321652065E+007, +2.30991833038E+001, +3.00432269764E+002
+2.88571964956E+007, +2.30929868378E+001, +3.01553041730E+002
+2.89822277847E+007, +2.34519080857E+001, +3.03426458478E+002
+2.91072590738E+007, +2.36123466156E+001, +3.04886064988E+002
+2.92322903630E+007, +2.32845234214E+001, +3.06420205460E+002
+2.93573216521E+007, +2.31732385171E+001, +3.07599952442E+002
+2.94823529412E+007, +2.34259260436E+001, +3.09770434535E+002
+2.96073842303E+007, +2.28688439718E+001, +3.11007824945E+002
+2.97324155194E+007, +2.37963544595E+001, +3.12499393184E+002
+2.98574468085E+007, +2.34970067270E+001, +3.14719943164E+002
+2.99824780976E+007, +2.34151404929E+001, +3.15888435916E+002
+3.01075093867E+007, +2.37869799925E+001, +3.17274117299E+002
+3.02325406758E+007, +2.39827274604E+001, +3.19073989688E+002
+3.03575719650E+007, +2.35543218580E+001, +3.20473299398E+002
+3.04826032541E+007, +2.41527254633E+001, +3.21651672628E+002
+3.06076345432E+007, +2.39357863890E+001, +3.23489814272E+002
+3.07326658323E+007, +2.34072950710E+001, +3.25209155162E+002
+3.08576971214E+007, +2.42946998415E+001, +3.26720268508E+002
+3.09827284105E+007, +2.33804145600E+001, +3.28531809181E+002
+3.11077596996E+007, +2.38122530504E+001, +3.30139937498E+002
+3.12327909887E+007, +2.40240948418E+001, +3.31366977290E+002
+3.13578222778E+007, +2.35709806425E+001, +3.32896999656E+002
+3.14828535670E+007, +2.44144825758E+001, +3.34601237389E+002
+3.16078848561E+007, +2.44053810671E+001, +3.36947512285E+002
+3.17329161452E+007, +2.43979173873E+001, +3.37972410314E+002
+3.18579474343E+007, +2.41575792355E+001, +3.39985063298E+002
+3.19829787234E+007, +2.41389531185E+001, +3.40714737328E+002
+3.21080100125E+007, +2.44493249541E+001, +3.42412058382E+002
+3.22330413016E+007, +2.42738572166E+001, +3.44553006530E+002
+3.23580725907E+007, +2.44226458670E+001, +3.45847753764E+002
+3.24831038798E+007, +2.46735935324E+001, +3.47083430533E+002
+3.26081351690E+007, +2.44690708715E+001, +3.49054553833E+002
+3.27331664581E+007, +2.44788038905E+001, +3.50681899350E+002
+3.28581977472E+007, +2.49751976361E+001, +3.52907109032E+002
+3.29832290363E+007, +2.45725767031E+001, +3.54606193823E+002
+3.31082603254E+007, +2.48410112080E+001, +3.56173122174E+002
+3.32332916145E+007, +2.54761173626E+001, +3.57403439058E+002
+3.33583229036E+007, +2.45463487905E+001, +3.59218477727E+002
+3.34833541927E+007, +2.44796243132E+001, +3.60989965638E+002
+3.36083854819E+007, +2.51306202143E+001, +3.61756988759E+002
+3.37334167710E+007, +2.54469331840E+001, +3.63472438721E+002
+3.38584480601E+007, +2.53651588784E+001, +3.65305428393E+002
+3.39834793492E+007, +2.51827183429E+001, +3.67261695965E+002
+3.41085106383E+007, +2.46339059002E+001, +3.68909823109E+002
+3.42335419274E+007, +2.56303650793E+001, +3.71201129821E+002
+3.43585732165E+007, +2.50149837632E+001, +3.72590086118E+002
+3.44836045056E+007, +2.49910248796E+001, +3.73882666467E+002
+3.46086357947E+007, +2.55863510182E+001, +3.76040522064E+002
+3.47336670839E+007, +2.49867219045E+001, +3.77205289563E+002
+3.48586983730E+007, +2.57748893455E+001, +3.79636331057E+002
+3.49837296621E+007, +2.60771590782E+001, +3.81033962054E+002
+3.51087609512E+007, +2.49345568921E+001, +3.83212863264E+002
+3.52337922403E+007, +2.50723846852E+001, +3.84783634541E+002
+3.53588235294E+007, +2.64013530982E+001, +3.87068860610E+002
+3.54838548185E+007, +2.47826485469E+001, +3.88225972068E+002
+3.56088861076E+007, +2.57196110425E+001, +3.90411426582E+002
+3.57339173967E+007, +2.57640107907E+001, +3.90592277754E+002
+3.58589486859E+007, +2.53724000688E+001, +3.93004180856E+002
+3.59839799750E+007, +2.62996706235E+001, +3.95070144499E+002
+3.61090112641E+007, +2.63410065347E+001, +3.97149763065E+002
+3.62340425532E+007, +2.56935711512E+001, +3.98619811963E+002
+3.63590738423E+007, +2.61058794611E+001, +4.00001171264E+002
+3.64841051314E+007, +2.65956266145E+001, +4.01131369195E+002
+3.66091364205E+007, +2.66308704109E+001, +4.04237925420E+002
+3.67341677096E+007, +2.58597288004E+001, +4.05126924710E+002
+3.68591989987E+007, +2.62662234932E+001, +4.07811363351E+002
+3.69842302879E+007, +2.69791810562E+001, +4.09612537837E+002
+3.71092615770E+007, +2.63063966748E+001, +4.10799923874E+002
+3.72342928661E+007, +2.70218235319E+001, +4.14119351698E+002
+3.73593241552E+007, +2.57534843943E+001, +4.14943437588E+002
+3.74843554443E+007, +2.68920227305E+001, +4.16203772398E+002
+3.76093867334E+007, +2.66822709145E+001, +4.18459656658E+002
+3.77344180225E+007, +2.71104480866E+001, +4.19718510006E+002
+3.78594493116E+007, +2.65254865825E+001, +4.22040099462E+002
+3.79844806008E+007, +2.69981815744E+001, +4.24092572106E+002
+3.81095118899E+007, +2.63384380618E+001, +4.26225866953E+002
+3.82345431790E+007, +2.73008378684E+001, +4.27679571848E+002
+3.83595744681E+007, +2.69459168040E+001, +4.28673918117E+002
+3.84846057572E+007, +2.76551756878E+001, +4.31347264081E+002
+3.86096370463E+007, +2.74361335902E+001, +4.32272018634E+002
+3.87346683354E+007, +2.77370229863E+001, +4.36173144355E+002
+3.88596996245E+007, +2.71425097737E+001, +4.37099706030E+002
+3.89847309136E+007, +2.70222494409E+001, +4.40162641348E+002
+3.91097622028E+007, +2.67309762476E+001, +4.40147987862E+002
+3.92347934919E+007, +2.74590713047E+001, +4.41738102724E+002
+3.93598247810E+007, +2.74307438166E+001, +4.45258411931E+002
+3.94848560701E+007, +2.74253576509E+001, +4.46364905300E+002
+3.96098873592E+007, +2.76399425784E+001, +4.49041447967E+002
+3.97349186483E+007, +2.78416290258E+001, +4.50206715788E+002
+3.98599499374E+007, +2.88912217997E+001, +4.52836197505E+002
+3.99849812265E+007, +2.83269438460E+001, +4.54366279451E+002
+4.01100125156E+007, +2.88881822334E+001, +4.56607092315E+002
