"# Channel 1"
"# Trace 1"
Frequency, Formatted Data, Formatted Data
+1.00000000000E+005, +5.00270854129E+001, +1.55676166145E+000
+3.18898623279E+005, +5.02622761256E+001, +3.38736339192E+000
+5.37797246558E+005, +5.02863757545E+001, +5.78394417341E+000
+7.56695869837E+005, +5.03127156980E+001, +8.08989433594E+000
+9.75594493116E+005, +5.03348195642E+001, +1.04615741416E+001
+1.19449311640E+006, +5.03145396138E+001, +1.26215883219E+001
+1.41339173967E+006, +5.02676893962E+001, +1.49729107259E+001
+1.63229036295E+006, +5.03460275767E+001, +1.73287444654E+001
+1.85118898623E+006, +5.04008217375E+001, +1.96736299274E+001
+2.07008760951E+006, +5.03128801035E+001, +2.20155382263E+001
+2.28898623279E+006, +5.04907429574E+001, +2.44582757574E+001
+2.50788485607E+006, +5.05274278164E+001, +2.65819741817E+001
+2.72678347935E+006, +5.03573514420E+001, +2.90305513535E+001
+2.94568210263E+006, +5.04536125395E+001, +3.13244520395E+001
+3.16458072591E+006, +5.03650169805E+001, +3.37201794417E+001
+3.38347934919E+006, +5.05664164228E+001, +3.60188293412E+001
+3.60237797247E+006, +5.05430284062E+001, +3.81823754460E+001
+3.82127659574E+006, +5.05142539954E+001, +4.04559019640E+001
+4.04017521902E+006, +5.07015776694E+001, +4.28456135608E+001
+4.25907384230E+006, +5.05730390355E+001, +4.51654091893E+001
+4.47797246558E+006, +5.06999734019E+001, +4.74807012421E+001
+4.69687108886E+006, +5.05313216126E+001, +4.98335604386E+001
+4.91576971214E+006, +5.05323740397E+001, +5.21677999127E+001
+5.13466833542E+006, +5.06814228876E+001, +5.45121919103E+001
+5.35356695870E+006, +5.08273292846E+001, +5.68204687665E+001
+5.57246558198E+006, +5.08056713443E+001, +5.90216597117E+001
+5.79136420526E+006, +5.09014595662E+001, +6.16320825268E+001
+6.01026282854E+006, +5.08123424424E+001, +6.37354653989E+001
+6.22916145181E+006, +5.09926341188E+001, +6.61814498022E+001
+6.44806007509E+006, +5.09199738130E+001, +6.83428217190E+001
+6.66695869837E+006, +5.10669565597E+001, +7.07198409699E+001
+6.88585732165E+006, +5.09397984756E+001, +7.31179124716E+001
+7.10475594493E+006, +5.10842115937E+001, +7.53962820117E+001
+7.32365456821E+006, +5.10640159012E+001, +7.76944776001E+001
+7.54255319149E+006, +5.11208682337E+001, +7.99332352503E+001
+7.76145181477E+006, +5.12983500682E+001, +8.23847484519E+001
+7.98035043805E+006, +5.13444019060E+001, +8.46974145483E+001
+8.19924906133E+006, +5.13336115453E+001, +8.69857211717E+001
+8.41814768461E+006, +5.15141209114E+001, +8.93145688608E+001
+8.63704630788E+006, +5.13323672142E+001, +9.16092726850E+001
+8.85594493116E+006, +5.14580737494E+001, +9.39297076894E+001
+9.07484355444E+006, +5.14239175030E+001, +9.64274874589E+001
+9.29374217772E+006, +5.16116288816E+001, +9.87942055849E+001
+9.51264080100E+006, +5.15592862347E+001, +1.00952039351E+002
+9.73153942428E+006, +5.14989242642E+001, +1.03489032218E+002
+9.95043804756E+006, +5.14969892356E+001, +1.05608178754E+002
+1.01693366708E+007, +5.17035774042E+001, +1.08065657221E+002
+1.03882352941E+007, +5.17106083949E+001, +1.10293820195E+002
+1.06071339174E+007, +5.16948471102E+001, +1.12664417249E+002
+1.08260325407E+007, +5.17293177472E+001, +1.15112928137E+002
+1.10449311640E+007, +5.18591945043E+001, +1.17358980561E+002
+1.12638297872E+007, +5.17878780232E+001, +1.19903097622E+002
+1.14827284105E+007, +5.19884803371E+001, +1.22081719872E+002
+1.17016270338E+007, +5.20282802060E+001, +1.24537808588E+002
+1.19205256571E+007, +5.20261639464E+001, +1.26749300686E+002
+1.21394242804E+007, +5.21156367664E+001, +1.29147300759E+002
+1.23583229036E+007, +5.22127347219E+001, +1.31680443017E+002
+1.25772215269E+007, +5.20773752039E+001, +1.33977021805E+002
+1.27961201502E+007, +5.21947902754E+001, +1.36321731864E+002
+1.30150187735E+007, +5.23269097071E+001, +1.38602715668E+002
+1.32339173967E+007, +5.23082096154E+001, +1.41230639936E+002
+1.34528160200E+007, +5.22410082637E+001, +1.43451592419E+002
+1.36717146433E+007, +5.23736313263E+001, +1.45792219927E+002
+1.38906132666E+007, +5.24035225529E+001, +1.48415313416E+002
+1.41095118899E+007, +5.25174037072E+001, +1.50660983205E+002
+1.43284105131E+007, +5.23328503492E+001, +1.53043668730E+002
+1.45473091364E+007, +5.25702276784E+001, +1.55620916636E+002
+1.47662077597E+007, +5.26801153966E+001, +1.57805566057E+002
+1.49851063830E+007, +5.28322700040E+001, +1.60155336386E+002
+1.52040050063E+007, +5.26908782753E+001, +1.62966934818E+002
+1.54229036295E+007, +5.29293035733E+001, +1.65112415499E+002
+1.56418022528E+007, +5.26312760271E+001, +1.67617061220E+002
+1.58607008761E+007, +5.27584089739E+001, +1.70008217465E+002
+1.60795994994E+007, +5.28861094050E+001, +1.72704088241E+002
+1.62984981227E+007, +5.30632548852E+001, +1.74845650203E+002
+1.65173967459E+007, +5.30248290289E+001, +1.77363007200E+002
+1.67362953692E+007, +5.30046078877E+001, +1.79755804898E+002
+1.69551939925E+007, +5.31440277239E+001, +1.81999447070E+002
+1.71740926158E+007, +5.28169992946E+001, +1.84796820276E+002
+1.73929912390E+007, +5.29058844283E+001, +1.86940353708E+002
+1.76118898623E+007, +5.31973895607E+001, +1.89159989939E+002
+1.78307884856E+007, +5.35200468086E+001, +1.91874399728E+002
+1.80496871089E+007, +5.33775866737E+001, +1.94374603101E+002
+1.82685857322E+007, +5.35276593178E+001, +1.97039830244E+002
+1.84874843554E+007, +5.36792624528E+001, +1.99270811042E+002
+1.87063829787E+007, +5.36979449671E+001, +2.01668907975E+002
+1.89252816020E+007, +5.38384454655E+001, +2.04594172368E+002
+1.91441802253E+007, +5.41216489277E+001, +2.06448929105E+002
+1.93630788486E+007, +5.37255107170E+001, +2.09092229576E+002
+1.95819774718E+007, +5.42141938436E+001, +2.11819157723E+002
+1.98008760951E+007, +5.41202618421E+001, +2.14246556178E+002
+2.00197747184E+007, +5.44203063103E+001, +2.16601811533E+002
+2.02386733417E+007, +5.42995310221E+001, +2.19018264358E+002
+2.04575719650E+007, +5.43342771910E+001, +2.21539639812E+002
+2.06764705882E+007, +5.43835642843E+001, +2.24140386787E+002
+2.08953692115E+007, +5.46853553288E+001, +2.26932693091E+002
+2.11142678348E+007, +5.47425801331E+001, +2.28800112396E+002
+2.13331664581E+007, +5.48258348485E+001, +2.31969048253E+002
+2.15520650814E+007, +5.49801439774E+001, +2.34113512333E+002
+2.17709637046E+007, +5.47744683709E+001, +2.36785411010E+002
+2.19898623279E+007, +5.52473255401E+001, +2.39537287208E+002
+2.22087609512E+007, +5.49656518072E+001, +2.41688409695E+002
+2.24276595745E+007, +5.56426338584E+001, +2.44697735082E+002
+2.26465581977E+007, +5.52241097049E+001, +2.46940126766E+002
+2.28654568210E+007, +5.55384514832E+001, +2.49195554497E+002
+2.30843554443E+007, +5.56061537680E+001, +2.51901458863E+002
+2.33032540676E+007, +5.62413821362E+001, +2.54664842933E+002
+2.35221526909E+007, +5.60405417750E+001, +2.57390167069E+002
+2.37410513141E+007, +5.57260765704E+001, +2.59384477679E+002
+2.39599499374E+007, +5.57502453924E+001, +2.62274360692E+002
+2.41788485607E+007, +5.62350952686E+001, +2.64634617969E+002
+2.43977471840E+007, +5.61409579340E+001, +2.67297579868E+002
+2.46166458073E+007, +5.59883280063E+001, +2.69995314122E+002
+2.48355444305E+007, +5.62916619015E+001, +2.72526517047E+002
+2.50544430538E+007, +5.70522552656E+001, +2.75026132244E+002
+2.52733416771E+007, +5.71819765481E+001, +2.77466831930E+002
+2.54922403004E+007, +5.67500408517E+001, +2.80671805688E+002
+2.57111389237E+007, +5.72208638615E+001, +2.83067140459E+002
+2.59300375469E+007, +5.69141160529E+001, +2.85300361720E+002
+2.61489361702E+007, +5.68886970791E+001, +2.88038638480E+002
+2.63678347935E+007, +5.69390369845E+001, +2.90882986987E+002
+2.65867334168E+007, +5.75534099582E+001, +2.93467907128E+002
+2.68056320401E+007, +5.75550990162E+001, +2.96106406629E+002
+2.70245306633E+007, +5.75367257555E+001, +2.98645940461E+002
+2.72434292866E+007, +5.78578232367E+001, +3.01556368958E+002
+2.74623279099E+007, +5.75757449061E+001, +3.04181927298E+002
+2.76812265332E+007, +5.80830552621E+001, +3.06972046420E+002
+2.79001251564E+007, +5.74186154288E+001, +3.09993966609E+002
+2.81190237797E+007, +5.89186699965E+001, +3.12249938514E+002
+2.83379224030E+007, +5.83796628210E+001, +3.15219733752E+002
+2.85568210263E+007, +5.80125943830E+001, +3.17701782693E+002
+2.87757196496E+007, +5.81648935136E+001, +3.20944996353E+002
+2.89946182728E+007, +5.83415960981E+001, +3.23491985540E+002
+2.92135168961E+007, +5.80083548293E+001, +3.26572640195E+002
+2.94324155194E+007, +5.91960808153E+001, +3.29267130206E+002
+2.96513141427E+007, +5.86276308508E+001, +3.31284034145E+002
+2.98702127660E+007, +5.85137133008E+001, +3.34297851748E+002
+3.00891113892E+007, +5.85011233766E+001, +3.37143568916E+002
+3.03080100125E+007, +5.97202210951E+001, +3.40010790270E+002
+3.05269086358E+007, +5.98082347283E+001, +3.42593713735E+002
+3.07458072591E+007, +5.97945148157E+001, +3.45167745590E+002
+3.09647058824E+007, +5.93145088632E+001, +3.48143674691E+002
+3.11836045056E+007, +5.96048281309E+001, +3.50859431060E+002
+3.14025031289E+007, +5.97832926655E+001, +3.53803386381E+002
+3.16214017522E+007, +6.04104065875E+001, +3.57253395841E+002
+3.18403003755E+007, +6.02470452922E+001, +3.60350833751E+002
+3.20591989987E+007, +6.00165662788E+001, +3.62870062420E+002
+3.22780976220E+007, +6.04184114853E+001, +3.66123059219E+002
+3.24969962453E+007, +6.06112851273E+001, +3.68336032989E+002
+3.27158948686E+007, +6.02138976897E+001, +3.71180132688E+002
+3.29347934919E+007, +6.03628280396E+001, +3.73969068140E+002
+3.31536921151E+007, +6.12722790622E+001, +3.76318570110E+002
+3.33725907384E+007, +6.08080212829E+001, +3.79991700024E+002
+3.35914893617E+007, +6.10982484009E+001, +3.82987516650E+002
+3.38103879850E+007, +6.04157548057E+001, +3.85550757111E+002
+3.40292866083E+007, +6.09229204950E+001, +3.88409066075E+002
+3.42481852315E+007, +6.20388798120E+001, +3.90837959889E+002
+3.44670838548E+007, +6.17339433907E+001, +3.94643207957E+002
+3.46859824781E+007, +6.24200747643E+001, +3.97862276962E+002
+3.49048811014E+007, +6.27621895543E+001, +4.01532226344E+002
+3.51237797247E+007, +6.26512874110E+001, +4.04620447763E+002
+3.53426783479E+007, +6.30332583755E+001, +4.07059984522E+002
+3.55615769712E+007, +6.26855558330E+001, +4.10005465740E+002
+3.57804755945E+007, +6.40428483962E+001, +4.12275422669E+002
+3.59993742178E+007, +6.30991811457E+001, +4.17263762085E+002
+3.62182728411E+007, +6.32586046131E+001, +4.18473455666E+002
+3.64371714643E+007, +6.36264063383E+001, +4.20508688037E+002
+3.66560700876E+007, +6.26369103172E+001, +4.24862626195E+002
+3.68749687109E+007, +6.37749811227E+001, +4.28580706346E+002
+3.70938673342E+007, +6.46189951939E+001, +4.31282752254E+002
+3.73127659574E+007, +6.32866448315E+001, +4.34210001969E+002
+3.75316645807E+007, +6.45603407841E+001, +4.37278644175E+002
+3.77505632040E+007, +6.41467143692E+001, +4.40520573152E+002
+3.79694618273E+007, +6.52302234811E+001, +4.43565142827E+002
+3.81883604506E+007, +6.46949758026E+001, +4.46079128238E+002
+3.84072590738E+007, +6.47560757634E+001, +4.49630857231E+002
+3.86261576971E+007, +6.44807568333E+001, +4.53022925334E+002
+3.88450563204E+007, +6.54864334953E+001, +4.55522531448E+002
+3.90639549437E+007, +6.66315406187E+001, +4.58361818094E+002
+3.92828535670E+007, +6.53245722433E+001, +4.63857407652E+002
+3.95017521902E+007, +6.61298294826E+001, +4.65074383913E+002
+3.97206508135E+007, +6.58831708570E+001, +4.69223796835E+002
+3.99395494368E+007, +6.70060121331E+001, +4.72621547655E+002
+4.01584480601E+007, +6.75979368486E+001, +4.76016550868E+002
+4.03773466834E+007, +6.81822791437E+001, +4.80269693758E+002
+4.05962453066E+007, +6.62744315493E+001, +4.83320599678E+002
+4.08151439299E+007, +6.84508569074E+001, +4.85811718698E+002
+4.10340425532E+007, +6.64920327046E+001, +4.88542998723E+002
+4.12529411765E+007, +6.73982125428E+001, +4.90849803832E+002
+4.14718397997E+007, +6.78385934210E+001, +4.96161373669E+002
+4.16907384230E+007, +6.94671995025E+001, +4.98550881509E+002
+4.19096370463E+007, +6.89380841487E+001, +5.01716600578E+002
+4.21285356696E+007, +6.87112191134E+001, +5.05953706545E+002
+4.23474342929E+007, +6.79764364863E+001, +5.10540397240E+002
+4.25663329161E+007, +6.94959546793E+001, +5.11836567039E+002
+4.27852315394E+007, +6.93693748222E+001, +5.17495333218E+002
+4.30041301627E+007, +6.98430233885E+001, +5.20743368990E+002
+4.32230287860E+007, +7.14668541133E+001, +5.23414492821E+002
+4.34419274093E+007, +6.99562704089E+001, +5.27095951343E+002
+4.36608260325E+007, +7.01707506879E+001, +5.30047117894E+002
+4.38797246558E+007, +6.99349938008E+001, +5.34028133661E+002
+4.40986232791E+007, +7.13064034397E+001, +5.38080579224E+002
+4.43175219024E+007, +7.11175277597E+001, +5.42263318779E+002
+4.45364205257E+007, +7.24874717113E+001, +5.45818014857E+002
+4.47553191489E+007, +7.23484984644E+001, +5.49683954744E+002
+4.49742177722E+007, +7.14390686357E+001, +5.52131335968E+002
+4.51931163955E+007, +7.21319940613E+001, +5.56308235230E+002
+4.54120150188E+007, +7.26397406878E+001, +5.59041858482E+002
+4.56309136421E+007, +7.47902071451E+001, +5.63738826346E+002
+4.58498122653E+007, +7.50827149035E+001, +5.65371754319E+002
+4.60687108886E+007, +7.32538142663E+001, +5.71784679656E+002
+4.62876095119E+007, +7.60071693991E+001, +5.76643414658E+002
+4.65065081352E+007, +7.49946596901E+001, +5.79509678876E+002
+4.67254067584E+007, +7.48256459516E+001, +5.83836915919E+002
+4.69443053817E+007, +7.46186606829E+001, +5.86948449487E+002
+4.71632040050E+007, +7.55828175688E+001, +5.90098151011E+002
+4.73821026283E+007, +7.69284904217E+001, +5.93922763895E+002
+4.76010012516E+007, +7.74274532349E+001, +5.98504171282E+002
+4.78198998748E+007, +7.69292746662E+001, +6.01808818009E+002
+4.80387984981E+007, +7.66270871377E+001, +6.08454581552E+002
+4.82576971214E+007, +7.76389389445E+001, +6.10551693481E+002
+4.84765957447E+007, +7.83970988221E+001, +6.13543605919E+002
+4.86954943680E+007, +7.84766377471E+001, +6.18134913439E+002
+4.89143929912E+007, +7.83288233545E+001, +6.22757929787E+002
+4.91332916145E+007, +7.90620479625E+001, +6.24514749444E+002
+4.93521902378E+007, +7.90000954388E+001, +6.27658094680E+002
+4.95710888611E+007, +8.22133341487E+001, +6.33335169486E+002
+4.97899874844E+007, +8.20514859713E+001, +6.35814346545E+002
+5.00088861076E+007, +7.88595206028E+001, +6.39755289319E+002
+5.02277847309E+007, +8.17299564574E+001, +6.45170311233E+002
+5.04466833542E+007, +8.29014445764E+001, +6.49055907263E+002
+5.06655819775E+007, +8.27243049440E+001, +6.53068244867E+002
+5.08844806008E+007, +8.29853201407E+001, +6.58295615915E+002
+5.11033792240E+007, +8.23507809113E+001, +6.62718064193E+002
+5.13222778473E+007, +8.28354119401E+001, +6.67994964543E+002
+5.15411764706E+007, +8.49791710597E+001, +6.70209637452E+002
+5.17600750939E+007, +8.34624433973E+001, +6.77508598761E+002
+5.19789737171E+007, +8.49193888668E+001, +6.81501250809E+002
+5.21978723404E+007, +8.51951637078E+001, +6.84874888063E+002
+5.24167709637E+007, +8.24342374165E+001, +6.89429960714E+002
+5.26356695870E+007, +8.74345999638E+001, +6.91182950898E+002
+5.28545682103E+007, +8.73024592751E+001, +6.97997335848E+002
+5.30734668335E+007, +8.74078767007E+001, +7.01867321776E+002
+5.32923654568E+007, +8.47972991197E+001, +7.07631303211E+002
+5.35112640801E+007, +8.93641705396E+001, +7.10179619380E+002
+5.37301627034E+007, +8.67040749241E+001, +7.16632185037E+002
+5.39490613267E+007, +8.82801141503E+001, +7.22448841710E+002
+5.41679599499E+007, +8.95108402326E+001, +7.25272732002E+002
+5.43868585732E+007, +8.99121624181E+001, +7.28917120741E+002
+5.46057571965E+007, +9.05353367300E+001, +7.35465554938E+002
+5.48246558198E+007, +9.05735036671E+001, +7.39877411058E+002
+5.50435544431E+007, +9.31472190965E+001, +7.45791594233E+002
+5.52624530663E+007, +9.12007135295E+001, +7.52849944579E+002
+5.54813516896E+007, +9.31447179615E+001, +7.53077062858E+002
+5.57002503129E+007, +9.47772063965E+001, +7.59171601383E+002
+5.59191489362E+007, +9.54035996493E+001, +7.63343876369E+002
+5.61380475594E+007, +9.65990357703E+001, +7.70170741148E+002
+5.63569461827E+007, +9.68809969900E+001, +7.76463635484E+002
+5.65758448060E+007, +9.65619965370E+001, +7.79614765023E+002
+5.67947434293E+007, +9.82579378946E+001, +7.84610267149E+002
+5.70136420526E+007, +9.79485487861E+001, +7.88851626019E+002
+5.72325406758E+007, +9.90478528979E+001, +7.94747903157E+002
+5.74514392991E+007, +9.91164615585E+001, +8.01333767944E+002
+5.76703379224E+007, +1.01210572563E+002, +8.03977195435E+002
+5.78892365457E+007, +9.96521205456E+001, +8.11954060120E+002
+5.81081351690E+007, +1.09808646243E+002, +8.19441724081E+002
+5.83270337922E+007, +1.04587150758E+002, +8.24002305444E+002
+5.85459324155E+007, +1.10042129247E+002, +8.33194510859E+002
+5.87648310388E+007, +1.07638886964E+002, +8.32384094662E+002
+5.89837296621E+007, +1.07058228309E+002, +8.38545803411E+002
+5.92026282854E+007, +1.11134405021E+002, +8.46210301950E+002
+5.94215269086E+007, +1.08911883722E+002, +8.49076275766E+002
+5.96404255319E+007, +1.05799836927E+002, +8.56450533295E+002
+5.98593241552E+007, +1.12838613110E+002, +8.63480748176E+002
+6.00782227785E+007, +1.13994332700E+002, +8.66092265023E+002
+6.02971214018E+007, +1.10255019314E+002, +8.72196920757E+002
+6.05160200250E+007, +1.11137959875E+002, +8.78859113131E+002
+6.07349186483E+007, +1.13716476052E+002, +8.84570512119E+002
+6.09538172716E+007, +1.14337037325E+002, +8.93764512280E+002
+6.11727158949E+007, +1.20070880728E+002, +8.99078348658E+002
+6.13916145181E+007, +1.14477530036E+002, +9.05520375289E+002
+6.16105131414E+007, +1.15644436568E+002, +9.09644571549E+002
+6.18294117647E+007, +1.18255506520E+002, +9.15257128487E+002
+6.20483103880E+007, +1.21309727694E+002, +9.22445220122E+002
+6.22672090113E+007, +1.24316792860E+002, +9.29326842168E+002
+6.24861076345E+007, +1.29893054133E+002, +9.36180695161E+002
+6.27050062578E+007, +1.31631158639E+002, +9.43658125198E+002
+6.29239048811E+007, +1.26294454351E+002, +9.50688834270E+002
+6.31428035044E+007, +1.27476631762E+002, +9.60220138186E+002
+6.33617021277E+007, +1.31392190111E+002, +9.62964779213E+002
+6.35806007509E+007, +1.28994846947E+002, +9.72251984408E+002
+6.37994993742E+007, +1.29367293843E+002, +9.78325315936E+002
+6.40183979975E+007, +1.34533883686E+002, +9.85456215263E+002
+6.42372966208E+007, +1.34345135676E+002, +9.98326159788E+002
+6.44561952441E+007, +1.35968836882E+002, +1.00294254365E+003
+6.46750938673E+007, +1.38738004336E+002, +1.01305067971E+003
+6.48939924906E+007, +1.43651842586E+002, +1.02066915724E+003
+6.51128911139E+007, +1.40615185794E+002, +1.02922639090E+003
+6.53317897372E+007, +1.47756231331E+002, +1.03754206251E+003
+6.55506883605E+007, +1.49284900690E+002, +1.04292897923E+003
+6.57695869837E+007, +1.49083293445E+002, +1.04519004283E+003
+6.59884856070E+007, +1.48451804565E+002, +1.04591412530E+003
+6.62073842303E+007, +1.48170333722E+002, +1.06286233676E+003
+6.64262828536E+007, +1.51423446154E+002, +1.06139784358E+003
+6.66451814768E+007, +1.53735827886E+002, +1.07018964518E+003
+6.68640801001E+007, +1.53843757507E+002, +1.07813940499E+003
+6.70829787234E+007, +1.57822188744E+002, +1.08935343536E+003
+6.73018773467E+007, +1.62839528389E+002, +1.09986154899E+003
+6.75207759700E+007, +1.68971604700E+002, +1.10432130905E+003
+6.77396745932E+007, +1.67385640342E+002, +1.11134417978E+003
+6.79585732165E+007, +1.71269239646E+002, +1.12042570251E+003
+6.81774718398E+007, +1.69182001664E+002, +1.13212100620E+003
+6.83963704631E+007, +1.74303648733E+002, +1.13413024185E+003
+6.86152690864E+007, +1.77238427247E+002, +1.14428287660E+003
+6.88341677096E+007, +1.78605248232E+002, +1.15004025798E+003
+6.90530663329E+007, +1.85064510889E+002, +1.16237468207E+003
+6.92719649562E+007, +1.90247026370E+002, +1.16910859383E+003
+6.94908635795E+007, +1.85549538187E+002, +1.17482203453E+003
+6.97097622028E+007, +1.86176214665E+002, +1.18639865317E+003
+6.99286608260E+007, +1.95654123082E+002, +1.19798135569E+003
+7.01475594493E+007, +1.91844256145E+002, +1.20672025665E+003
