"# Channel 1"
"# Trace 1"
Frequency, Formatted Data, Formatted Data
+1.00000000000E+005, +6.17156455085E+001, +1.56516399687E+000
+3.50250417362E+005, +6.17358005736E+001, +2.11715557564E+000
+6.00500834725E+005, +6.17920821629E+001, +5.50958871594E+000
+8.50751252087E+005, +6.19221090657E+001, +9.30947468604E+000
+1.10100166945E+006, +6.17314948138E+001, +1.18859146120E+001
+1.35125208681E+006, +6.17220235198E+001, +1.46229330050E+001
+1.60150250417E+006, +6.18071279164E+001, +1.74173621392E+001
+1.85175292154E+006, +6.16690539398E+001, +2.01720462187E+001
+2.10200333890E+006, +6.17425985630E+001, +2.28818136254E+001
+2.35225375626E+006, +6.18902064035E+001, +2.57209400216E+001
+2.60250417362E+006, +6.18826750254E+001, +2.84302422060E+001
+2.85275459098E+006, +6.19675913220E+001, +3.12231959634E+001
+3.10300500835E+006, +6.21328025027E+001, +3.40513465708E+001
+3.35325542571E+006, +6.18612577489E+001, +3.63403046099E+001
+3.60350584307E+006, +6.14102462218E+001, +3.86556486312E+001
+3.85375626043E+006, +6.20615249185E+001, +4.22193218242E+001
+4.10400667780E+006, +6.11397324199E+001, +4.38890336135E+001
+4.35425709516E+006, +6.20745512193E+001, +4.75477208200E+001
+4.60450751252E+006, +6.19741949614E+001, +5.04238568175E+001
+4.85475792988E+006, +6.20737413561E+001, +5.31516972066E+001
+5.10500834725E+006, +6.21428387259E+001, +5.58799427505E+001
+5.35525876461E+006, +6.21804025095E+001, +5.85512411977E+001
+5.60550918197E+006, +6.24610490338E+001, +6.12949080409E+001
+5.85575959933E+006, +6.24071067054E+001, +6.39243409309E+001
+6.10601001669E+006, +6.23011803978E+001, +6.66476063863E+001
+6.35626043406E+006, +6.24469057306E+001, +6.94552249783E+001
+6.60651085142E+006, +6.24476723176E+001, +7.21950469937E+001
+6.85676126878E+006, +6.25328541473E+001, +7.49988073741E+001
+7.10701168614E+006, +6.25933688864E+001, +7.77278943276E+001
+7.35726210351E+006, +6.26889528853E+001, +8.05311743812E+001
+7.60751252087E+006, +6.27535834621E+001, +8.32649728872E+001
+7.85776293823E+006, +6.28145074877E+001, +8.60782693995E+001
+8.10801335559E+006, +6.29109010550E+001, +8.87507116822E+001
+8.35826377295E+006, +6.29555615609E+001, +9.15339064309E+001
+8.60851419032E+006, +6.30087519315E+001, +9.43468744380E+001
+8.85876460768E+006, +6.30798011122E+001, +9.69967482684E+001
+9.10901502504E+006, +6.31271267778E+001, +9.98927124365E+001
+9.35926544240E+006, +6.33196394534E+001, +1.02876844993E+002
+9.60951585977E+006, +6.33204053134E+001, +1.05527280920E+002
+9.85976627713E+006, +6.33948727735E+001, +1.08141565688E+002
+1.01100166945E+007, +6.33513272115E+001, +1.10953349452E+002
+1.03602671119E+007, +6.34340605233E+001, +1.13743117180E+002
+1.06105175292E+007, +6.34204614436E+001, +1.16647472577E+002
+1.08607679466E+007, +6.34583965387E+001, +1.19375196160E+002
+1.11110183639E+007, +6.35321670091E+001, +1.22227643967E+002
+1.13612687813E+007, +6.36960043688E+001, +1.25207642625E+002
+1.16115191987E+007, +6.38712347582E+001, +1.27967018279E+002
+1.18617696160E+007, +6.38282070800E+001, +1.30724637058E+002
+1.21120200334E+007, +6.39377787650E+001, +1.33343341913E+002
+1.23622704508E+007, +6.41297803228E+001, +1.36172170541E+002
+1.26125208681E+007, +6.42237958533E+001, +1.39260947356E+002
+1.28627712855E+007, +6.42301244030E+001, +1.41966557790E+002
+1.31130217028E+007, +6.42663827240E+001, +1.44847095295E+002
+1.33632721202E+007, +6.43538876117E+001, +1.47691181385E+002
+1.36135225376E+007, +6.43743563053E+001, +1.50420881780E+002
+1.38637729549E+007, +6.45239297829E+001, +1.53256276889E+002
+1.41140233723E+007, +6.46388232892E+001, +1.56135160294E+002
+1.43642737896E+007, +6.46149951267E+001, +1.58957746933E+002
+1.46145242070E+007, +6.47555588227E+001, +1.61876452949E+002
+1.48647746244E+007, +6.49334743722E+001, +1.64924383808E+002
+1.51150250417E+007, +6.51003869119E+001, +1.67795773266E+002
+1.53652754591E+007, +6.50587434963E+001, +1.70560700911E+002
+1.56155258765E+007, +6.53194918434E+001, +1.73467545370E+002
+1.58657762938E+007, +6.53727768913E+001, +1.76529013934E+002
+1.61160267112E+007, +6.54330546080E+001, +1.79229055154E+002
+1.63662771285E+007, +6.53791311555E+001, +1.82125191419E+002
+1.66165275459E+007, +6.55758863739E+001, +1.85135220013E+002
+1.68667779633E+007, +6.56286075301E+001, +1.88072075951E+002
+1.71170283806E+007, +6.56857503250E+001, +1.91136727699E+002
+1.73672787980E+007, +6.60517558319E+001, +1.93916446758E+002
+1.76175292154E+007, +6.61697191972E+001, +1.96871649740E+002
+1.78677796327E+007, +6.62645169700E+001, +1.99706758176E+002
+1.81180300501E+007, +6.62829033730E+001, +2.02623774508E+002
+1.83682804674E+007, +6.63772568958E+001, +2.05777521314E+002
+1.86185308848E+007, +6.64628296432E+001, +2.08806532469E+002
+1.88687813022E+007, +6.66833534772E+001, +2.11740751659E+002
+1.91190317195E+007, +6.68795113100E+001, +2.14749348768E+002
+1.93692821369E+007, +6.68620591655E+001, +2.17657761538E+002
+1.96195325543E+007, +6.68185515051E+001, +2.20455968011E+002
+1.98697829716E+007, +6.73140448941E+001, +2.23300098061E+002
+2.01200333890E+007, +6.73563209011E+001, +2.26363451331E+002
+2.03702838063E+007, +6.74896245683E+001, +2.29260258506E+002
+2.06205342237E+007, +6.74691684830E+001, +2.32415425943E+002
+2.08707846411E+007, +6.75391883670E+001, +2.35615258642E+002
+2.11210350584E+007, +6.76956276679E+001, +2.38359992623E+002
+2.13712854758E+007, +6.79484149375E+001, +2.41603118057E+002
+2.16215358932E+007, +6.83502973477E+001, +2.44649496744E+002
+2.18717863105E+007, +6.82142440287E+001, +2.47816794238E+002
+2.21220367279E+007, +6.85508212753E+001, +2.50393867835E+002
+2.23722871452E+007, +6.88131307187E+001, +2.54181620907E+002
+2.26225375626E+007, +6.90156906292E+001, +2.56586792861E+002
+2.28727879800E+007, +6.93074517333E+001, +2.60197057401E+002
+2.31230383973E+007, +7.00280891551E+001, +2.63284346249E+002
+2.33732888147E+007, +7.00393829356E+001, +2.66222440087E+002
+2.36235392321E+007, +6.98935863769E+001, +2.69641664692E+002
+2.38737896494E+007, +6.99574926501E+001, +2.72573286661E+002
+2.41240400668E+007, +6.98887355955E+001, +2.76177710815E+002
+2.43742904841E+007, +7.01391381798E+001, +2.78725336924E+002
+2.46245409015E+007, +7.04364946749E+001, +2.81864044316E+002
+2.48747913189E+007, +7.04441834402E+001, +2.84768142010E+002
+2.51250417362E+007, +7.06713590121E+001, +2.88279747399E+002
+2.53752921536E+007, +7.13971560334E+001, +2.90965380424E+002
+2.56255425710E+007, +7.12993407546E+001, +2.94447667020E+002
+2.58757929883E+007, +7.16942021221E+001, +2.97683853997E+002
+2.61260434057E+007, +7.19354691955E+001, +3.00836573707E+002
+2.63762938230E+007, +7.13969090153E+001, +3.04037664411E+002
+2.66265442404E+007, +7.21469086068E+001, +3.07208731331E+002
+2.68767946578E+007, +7.23896213518E+001, +3.10742029956E+002
+2.71270450751E+007, +7.26586526371E+001, +3.13571457318E+002
+2.73772954925E+007, +7.25736053515E+001, +3.17518266410E+002
+2.76275459098E+007, +7.28792994205E+001, +3.20595774229E+002
+2.78777963272E+007, +7.29272721363E+001, +3.24029832442E+002
+2.81280467446E+007, +7.35577749175E+001, +3.26975712368E+002
+2.83782971619E+007, +7.34028416999E+001, +3.29826984580E+002
+2.86285475793E+007, +7.36729933199E+001, +3.33810305831E+002
+2.88787979967E+007, +7.39262859073E+001, +3.36165623418E+002
+2.91290484140E+007, +7.39967013280E+001, +3.40279933349E+002
+2.93792988314E+007, +7.42064369170E+001, +3.43634317827E+002
+2.96295492487E+007, +7.43622571454E+001, +3.46522277599E+002
+2.98797996661E+007, +7.49232464078E+001, +3.50501404535E+002
+3.01300500835E+007, +7.49510443239E+001, +3.53782974222E+002
+3.03803005008E+007, +7.44989283000E+001, +3.57130021618E+002
+3.06305509182E+007, +7.52388944088E+001, +3.60243003319E+002
+3.08808013356E+007, +7.53587809610E+001, +3.64693707983E+002
+3.11310517529E+007, +7.54339990294E+001, +3.67184431274E+002
+3.13813021703E+007, +7.66764561401E+001, +3.71406270866E+002
+3.16315525876E+007, +7.67079452090E+001, +3.74868589024E+002
+3.18818030050E+007, +7.68238293944E+001, +3.78733300172E+002
+3.21320534224E+007, +7.75900974333E+001, +3.81825767088E+002
+3.23823038397E+007, +7.73744090544E+001, +3.85602916091E+002
+3.26325542571E+007, +7.79103161683E+001, +3.89092409388E+002
+3.28828046745E+007, +7.73918835138E+001, +3.91835787839E+002
+3.31330550918E+007, +7.71909600355E+001, +3.95710292317E+002
+3.33833055092E+007, +7.74562969279E+001, +3.99053991035E+002
+3.36335559265E+007, +7.84408554259E+001, +4.02476093211E+002
+3.38838063439E+007, +7.85643402585E+001, +4.07141468185E+002
+3.41340567613E+007, +7.85878759302E+001, +4.10915271120E+002
+3.43843071786E+007, +7.91868768981E+001, +4.14520105922E+002
+3.46345575960E+007, +7.98873134185E+001, +4.18537625735E+002
+3.48848080134E+007, +8.04330165334E+001, +4.21891757791E+002
+3.51350584307E+007, +7.98171673948E+001, +4.25150274967E+002
+3.53853088481E+007, +8.04197727534E+001, +4.28664728549E+002
+3.56355592654E+007, +8.03543630260E+001, +4.32460608220E+002
+3.58858096828E+007, +8.09341047470E+001, +4.36569076020E+002
+3.61360601002E+007, +8.06711017683E+001, +4.40492330921E+002
+3.63863105175E+007, +8.15016422243E+001, +4.44017921536E+002
+3.66365609349E+007, +8.15352831148E+001, +4.47797745334E+002
+3.68868113523E+007, +8.19725933753E+001, +4.51729927662E+002
+3.71370617696E+007, +8.25003604183E+001, +4.55023234634E+002
+3.73873121870E+007, +8.26931753720E+001, +4.60256517639E+002
+3.76375626043E+007, +8.27387351541E+001, +4.64181499049E+002
+3.78878130217E+007, +8.39846288344E+001, +4.67982557944E+002
+3.81380634391E+007, +8.46817317607E+001, +4.72317401028E+002
+3.83883138564E+007, +8.56259499531E+001, +4.75401003972E+002
+3.86385642738E+007, +8.52476156496E+001, +4.79554605175E+002
+3.88888146912E+007, +8.51938759125E+001, +4.83795992337E+002
+3.91390651085E+007, +8.59140134060E+001, +4.88305035225E+002
+3.93893155259E+007, +8.61319798572E+001, +4.92473036247E+002
+3.96395659432E+007, +8.58556899440E+001, +4.95243313254E+002
+3.98898163606E+007, +8.72096009833E+001, +4.99953521446E+002
+4.01400667780E+007, +8.65394308250E+001, +5.03149322262E+002
+4.03903171953E+007, +8.67874662392E+001, +5.06043873828E+002
+4.06405676127E+007, +8.80661282524E+001, +5.12775754764E+002
+4.08908180301E+007, +8.89604196480E+001, +5.16778600823E+002
+4.11410684474E+007, +8.82864517381E+001, +5.21078197362E+002
+4.13913188648E+007, +8.84242068507E+001, +5.25965395240E+002
+4.16415692821E+007, +8.89794320463E+001, +5.28843384400E+002
+4.18918196995E+007, +8.94217743322E+001, +5.34895717689E+002
+4.21420701169E+007, +8.99209987811E+001, +5.38212982067E+002
+4.23923205342E+007, +8.96409224416E+001, +5.43037803849E+002
+4.26425709516E+007, +9.29462211840E+001, +5.47552611180E+002
+4.28928213689E+007, +9.17249136544E+001, +5.53188290205E+002
+4.31430717863E+007, +9.20671324036E+001, +5.56966247716E+002
+4.33933222037E+007, +9.40843835919E+001, +5.62307706182E+002
+4.36435726210E+007, +9.44303297754E+001, +5.66061676364E+002
+4.38938230384E+007, +9.44608011408E+001, +5.69425714019E+002
+4.41440734558E+007, +9.35380947111E+001, +5.74339282003E+002
+4.43943238731E+007, +9.54706681033E+001, +5.79199655973E+002
+4.46445742905E+007, +9.37216552135E+001, +5.83106338332E+002
+4.48948247078E+007, +9.45270215606E+001, +5.87518955970E+002
+4.51450751252E+007, +9.53985972227E+001, +5.91771737110E+002
+4.53953255426E+007, +9.49818412926E+001, +5.95953761159E+002
+4.56455759599E+007, +9.65475003503E+001, +6.03404581079E+002
+4.58958263773E+007, +9.68338053992E+001, +6.08375406653E+002
+4.61460767947E+007, +9.70606651975E+001, +6.12703316039E+002
+4.63963272120E+007, +9.86033519696E+001, +6.17992662729E+002
+4.66465776294E+007, +1.00857304825E+002, +6.21733694548E+002
+4.68968280467E+007, +9.98148379432E+001, +6.27053810126E+002
+4.71470784641E+007, +9.94755974465E+001, +6.32235591093E+002
+4.73973288815E+007, +1.01405753022E+002, +6.37642441208E+002
+4.76475792988E+007, +1.00213913785E+002, +6.42355332924E+002
+4.78978297162E+007, +1.02452750343E+002, +6.49199645769E+002
+4.81480801336E+007, +1.03758321549E+002, +6.51829561487E+002
+4.83983305509E+007, +1.01947601663E+002, +6.57401095723E+002
+4.86485809683E+007, +1.03259559088E+002, +6.61973264686E+002
+4.88988313856E+007, +1.04788426140E+002, +6.68390293147E+002
+4.91490818030E+007, +1.03028996436E+002, +6.71275449386E+002
+4.93993322204E+007, +1.05302502542E+002, +6.77271240620E+002
+4.96495826377E+007, +1.07656791613E+002, +6.83072821356E+002
+4.98998330551E+007, +1.07571915227E+002, +6.90440227222E+002
+5.01500834725E+007, +1.10672661287E+002, +6.96259905005E+002
+5.04003338898E+007, +1.10589329722E+002, +7.00045282285E+002
+5.06505843072E+007, +1.08638175763E+002, +7.07738266712E+002
+5.09008347245E+007, +1.09560134375E+002, +7.12631002003E+002
+5.11510851419E+007, +1.12198270671E+002, +7.17945736015E+002
+5.14013355593E+007, +1.13024952950E+002, +7.24076890948E+002
+5.16515859766E+007, +1.13069019706E+002, +7.30367970274E+002
+5.19018363940E+007, +1.16692108767E+002, +7.35502313021E+002
+5.21520868114E+007, +1.16980012366E+002, +7.41220347124E+002
+5.24023372287E+007, +1.17827563892E+002, +7.47979338541E+002
+5.26525876461E+007, +1.17931532770E+002, +7.51565441922E+002
+5.29028380634E+007, +1.19576584207E+002, +7.60242879071E+002
+5.31530884808E+007, +1.18604186460E+002, +7.64776670452E+002
+5.34033388982E+007, +1.19086808048E+002, +7.72752654475E+002
+5.36535893155E+007, +1.22022491228E+002, +7.77586375715E+002
+5.39038397329E+007, +1.22519681509E+002, +7.85596885680E+002
+5.41540901503E+007, +1.24440335956E+002, +7.89770067020E+002
+5.44043405676E+007, +1.24800383921E+002, +7.97462458261E+002
+5.46545909850E+007, +1.26876667182E+002, +8.05044043695E+002
+5.49048414023E+007, +1.26321193909E+002, +8.11604216411E+002
+5.51550918197E+007, +1.28101842705E+002, +8.18524773045E+002
+5.54053422371E+007, +1.28590163179E+002, +8.26719953442E+002
+5.56555926544E+007, +1.29834332574E+002, +8.34077122612E+002
+5.59058430718E+007, +1.32882261886E+002, +8.38751468762E+002
+5.61560934891E+007, +1.33760099846E+002, +8.48644740708E+002
+5.64063439065E+007, +1.36824387194E+002, +8.54865805365E+002
+5.66565943239E+007, +1.37998565479E+002, +8.60935189838E+002
+5.69068447412E+007, +1.37387126420E+002, +8.68801067662E+002
+5.71570951586E+007, +1.39197786058E+002, +8.74846752383E+002
+5.74073455760E+007, +1.40520395084E+002, +8.79473616137E+002
+5.76575959933E+007, +1.41992966581E+002, +8.86236124860E+002
+5.79078464107E+007, +1.44403954306E+002, +8.93124206596E+002
+5.81580968280E+007, +1.46061693276E+002, +9.03964709852E+002
+5.84083472454E+007, +1.49771905483E+002, +9.10988146956E+002
+5.86585976628E+007, +1.50750007768E+002, +9.19317744344E+002
+5.89088480801E+007, +1.51403660828E+002, +9.26464622200E+002
+5.91590984975E+007, +1.55722490706E+002, +9.36090857533E+002
+5.94093489149E+007, +1.57072884370E+002, +9.43625741133E+002
+5.96595993322E+007, +1.57979795130E+002, +9.51470305967E+002
+5.99098497496E+007, +1.58582952806E+002, +9.62728650152E+002
+6.01601001669E+007, +1.59565802340E+002, +9.72005679934E+002
+6.04103505843E+007, +1.61917477944E+002, +9.78379079341E+002
+6.06606010017E+007, +1.62456513546E+002, +9.87316534072E+002
+6.09108514190E+007, +1.65931582698E+002, +9.94094071880E+002
+6.11611018364E+007, +1.67490610417E+002, +1.00645440349E+003
+6.14113522538E+007, +1.70005915163E+002, +1.01407464693E+003
+6.16616026711E+007, +1.69813271292E+002, +1.02427355203E+003
+6.19118530885E+007, +1.76908045155E+002, +1.03397396399E+003
+6.21621035058E+007, +1.76131872797E+002, +1.03800759783E+003
+6.24123539232E+007, +1.81262728119E+002, +1.04806129050E+003
+6.26626043406E+007, +1.81381584266E+002, +1.05637982594E+003
+6.29128547579E+007, +1.86821754774E+002, +1.06896131294E+003
+6.31631051753E+007, +1.86002873823E+002, +1.07763646500E+003
+6.34133555927E+007, +1.92551631848E+002, +1.08757283964E+003
+6.36636060100E+007, +1.96622956788E+002, +1.09496817982E+003
+6.39138564274E+007, +1.94692359309E+002, +1.10457145145E+003
+6.41641068447E+007, +2.02543771947E+002, +1.11936771727E+003
+6.44143572621E+007, +2.02866132936E+002, +1.12687313056E+003
+6.46646076795E+007, +2.03046460896E+002, +1.14125829516E+003
+6.49148580968E+007, +2.06342547658E+002, +1.14910109654E+003
+6.51651085142E+007, +2.05752590565E+002, +1.15779871942E+003
+6.54153589316E+007, +2.13826501540E+002, +1.16659624007E+003
+6.56656093489E+007, +2.15597790316E+002, +1.18509033253E+003
+6.59158597663E+007, +2.19760305774E+002, +1.19434546487E+003
+6.61661101836E+007, +2.26208735657E+002, +1.20029097968E+003
+6.64163606010E+007, +2.28843573338E+002, +1.21270397985E+003
+6.66666110184E+007, +2.34349210779E+002, +1.22396671390E+003
+6.69168614357E+007, +2.43857834080E+002, +1.23576078678E+003
+6.71671118531E+007, +2.43684900888E+002, +1.25015997487E+003
+6.74173622705E+007, +2.51035199139E+002, +1.25785749893E+003
+6.76676126878E+007, +2.50275475763E+002, +1.26743523534E+003
+6.79178631052E+007, +2.53763995995E+002, +1.27801439216E+003
+6.81681135225E+007, +2.61510556850E+002, +1.29028335201E+003
+6.84183639399E+007, +2.57082274453E+002, +1.30617936659E+003
+6.86686143573E+007, +2.67575090770E+002, +1.31703281529E+003
+6.89188647746E+007, +2.68964378197E+002, +1.33160868803E+003
+6.91691151920E+007, +2.73462255646E+002, +1.34002608077E+003
+6.94193656093E+007, +2.74359138435E+002, +1.36316962524E+003
+6.96696160267E+007, +2.81802727557E+002, +1.37793037479E+003
+6.99198664441E+007, +2.93918302420E+002, +1.37622391264E+003
+7.01701168614E+007, +3.00878145022E+002, +1.39493240398E+003
+7.04203672788E+007, +3.06224756059E+002, +1.40872788959E+003
+7.06706176962E+007, +3.10814706478E+002, +1.43022660171E+003
+7.09208681135E+007, +3.23628262956E+002, +1.45175830724E+003
+7.11711185309E+007, +3.27417598751E+002, +1.46205275651E+003
+7.14213689482E+007, +3.35896765751E+002, +1.47727185530E+003
+7.16716193656E+007, +3.34162703659E+002, +1.51248756732E+003
+7.19218697830E+007, +3.42300329554E+002, +1.52181061605E+003
+7.21721202003E+007, +3.56970550699E+002, +1.52930844765E+003
+7.24223706177E+007, +3.59387173698E+002, +1.52819031760E+003
+7.26726210351E+007, +3.59199735893E+002, +1.56436606969E+003
+7.29228714524E+007, +3.65917363058E+002, +1.59664752555E+003
+7.31731218698E+007, +3.76546763845E+002, +1.60464266880E+003
+7.34233722871E+007, +3.90253501961E+002, +1.60121121247E+003
+7.36736227045E+007, +4.02062269405E+002, +1.64621717618E+003
+7.39238731219E+007, +4.11553048245E+002, +1.68076287815E+003
+7.41741235392E+007, +4.13359462113E+002, +1.69110299364E+003
+7.44243739566E+007, +4.39733249009E+002, +1.68373202732E+003
+7.46746243740E+007, +4.38852230593E+002, +1.70888106901E+003
+7.49248747913E+007, +4.40579754039E+002, +1.74022260464E+003
+7.51751252087E+007, +4.62060219757E+002, +1.74742585320E+003
+7.54253756260E+007, +4.68876608423E+002, +1.76448073708E+003
+7.56756260434E+007, +4.86928124084E+002, +1.79549479982E+003
+7.59258764608E+007, +5.02746950112E+002, +1.82618242203E+003
+7.61761268781E+007, +5.09105983598E+002, +1.84979296134E+003
+7.64263772955E+007, +5.40270413599E+002, +1.85417933720E+003
+7.66766277129E+007, +5.53615839875E+002, +1.89690832161E+003
+7.69268781302E+007, +5.56495176364E+002, +1.92971091371E+003
+7.71771285476E+007, +5.75090022360E+002, +1.93691217557E+003
+7.74273789649E+007, +5.97804349862E+002, +1.97490574436E+003
+7.76776293823E+007, +6.18868628296E+002, +1.99524604471E+003
+7.79278797997E+007, +6.24610043811E+002, +2.01694666710E+003
+7.81781302170E+007, +6.51099453977E+002, +2.02161673362E+003
+7.84283806344E+007, +6.76030749996E+002, +2.05248228980E+003
+7.86786310518E+007, +6.91913280843E+002, +2.09790076052E+003
+7.89288814691E+007, +7.08986393290E+002, +2.11410608091E+003
+7.91791318865E+007, +7.32316741727E+002, +2.11329604272E+003
+7.94293823038E+007, +7.69997052342E+002, +2.16643539363E+003
+7.96796327212E+007, +7.93232459601E+002, +2.19193212190E+003
+7.99298831386E+007, +8.27691153059E+002, +2.19528468766E+003
+8.01801335559E+007, +8.49125515911E+002, +2.23390732329E+003
