"# Channel 1"
"# Trace 1"
Frequency, Formatted Data, Formatted Data
+1.00000000000E+005, +1.66020864342E-001, +9.22198058738E-001
+2.66777963272E+005, +1.65976030144E-001, +2.42468800274E+000
+4.33555926544E+005, +1.84527263270E-001, +3.95757682280E+000
+6.00333889816E+005, +2.33799919030E-001, +5.40590880251E+000
+7.67111853088E+005, +2.37822910515E-001, +6.92505932758E+000
+9.33889816361E+005, +2.54581397365E-001, +8.39442239411E+000
+1.10066777963E+006, +2.26578366772E-001, +9.86706413844E+000
+1.26744574290E+006, +2.90988409322E-001, +1.13538475292E+001
+1.43422370618E+006, +2.14515547318E-001, +1.28501151321E+001
+1.60100166945E+006, +3.06677373876E-001, +1.42975529813E+001
+1.76777963272E+006, +3.10720161865E-001, +1.57825607974E+001
+1.93455759599E+006, +3.40998260944E-001, +1.72036410068E+001
+2.10133555927E+006, +3.45934833668E-001, +1.86997868065E+001
+2.26811352254E+006, +3.54657835862E-001, +2.01745882704E+001
+2.43489148581E+006, +3.52570447232E-001, +2.16776033116E+001
+2.60166944908E+006, +3.56904997133E-001, +2.31162644357E+001
+2.76844741235E+006, +3.52535283030E-001, +2.46196086380E+001
+2.93522537563E+006, +3.51301356469E-001, +2.60775800213E+001
+3.10200333890E+006, +4.44473974485E-001, +2.75488006482E+001
+3.26878130217E+006, +3.21135267495E-001, +2.90204935903E+001
+3.43555926544E+006, +3.67812690946E-001, +3.04864947162E+001
+3.60233722871E+006, +4.17146464034E-001, +3.19905514827E+001
+3.76911519199E+006, +3.50929329271E-001, +3.34999850746E+001
+3.93589315526E+006, +3.60279855446E-001, +3.49014238700E+001
+4.10267111853E+006, +2.86871263294E-001, +3.63946133733E+001
+4.26944908180E+006, +3.35094709327E-001, +3.80097595226E+001
+4.43622704508E+006, +3.92600995270E-001, +3.94021239027E+001
+4.60300500835E+006, +4.24790485263E-001, +4.09048892158E+001
+4.76978297162E+006, +3.92402408289E-001, +4.23043072827E+001
+4.93656093489E+006, +4.68811581393E-001, +4.38886456613E+001
+5.10333889816E+006, +4.50260699086E-001, +4.53006604426E+001
+5.27011686144E+006, +4.98528314935E-001, +4.69309600013E+001
+5.43689482471E+006, +4.25004246432E-001, +4.83384500529E+001
+5.60367278798E+006, +4.40080414736E-001, +4.98665449596E+001
+5.77045075125E+006, +4.04459974648E-001, +5.12754889855E+001
+5.93722871452E+006, +5.19467374224E-001, +5.28164827069E+001
+6.10400667780E+006, +4.47120429000E-001, +5.43291642335E+001
+6.27078464107E+006, +4.82406337940E-001, +5.57939013792E+001
+6.43756260434E+006, +5.00315577366E-001, +5.73233463689E+001
+6.60434056761E+006, +5.12195872636E-001, +5.88047915980E+001
+6.77111853088E+006, +5.73830644873E-001, +6.02961855458E+001
+6.93789649416E+006, +5.34405912468E-001, +6.17866541431E+001
+7.10467445743E+006, +5.47755898394E-001, +6.32329418508E+001
+7.27145242070E+006, +5.65741775328E-001, +6.47519707090E+001
+7.43823038397E+006, +5.93432924115E-001, +6.62454836938E+001
+7.60500834725E+006, +5.41883214674E-001, +6.77546592907E+001
+7.77178631052E+006, +5.46469397791E-001, +6.92818965679E+001
+7.93856427379E+006, +5.74871969500E-001, +7.07128040359E+001
+8.10534223706E+006, +5.91196225904E-001, +7.22177136059E+001
+8.27212020033E+006, +5.87018424260E-001, +7.37247984416E+001
+8.43889816361E+006, +5.35368223446E-001, +7.52601066129E+001
+8.60567612688E+006, +4.68998833077E-001, +7.67163082627E+001
+8.77245409015E+006, +5.25430878020E-001, +7.82123476373E+001
+8.93923205342E+006, +5.32835839666E-001, +7.97483949421E+001
+9.10601001669E+006, +5.28081026607E-001, +8.12879269262E+001
+9.27278797997E+006, +5.02984690671E-001, +8.28066382555E+001
+9.43956594324E+006, +5.43561078111E-001, +8.42767991606E+001
+9.60634390651E+006, +4.89307568085E-001, +8.58296814087E+001
+9.77312186978E+006, +4.87806046495E-001, +8.73565530751E+001
+9.93989983306E+006, +5.62725723160E-001, +8.88906269804E+001
+1.01066777963E+007, +5.00319947899E-001, +9.03838817181E+001
+1.02734557596E+007, +4.87335792337E-001, +9.19478203625E+001
+1.04402337229E+007, +4.94533457421E-001, +9.34313431355E+001
+1.06070116861E+007, +4.66856773843E-001, +9.50042830433E+001
+1.07737896494E+007, +4.27301584797E-001, +9.65637631577E+001
+1.09405676127E+007, +5.28946370667E-001, +9.81203887561E+001
+1.11073455760E+007, +4.75631147652E-001, +9.96583384586E+001
+1.12741235392E+007, +4.33568386086E-001, +1.01157858634E+002
+1.14409015025E+007, +4.94393237833E-001, +1.02699781644E+002
+1.16076794658E+007, +5.14651501035E-001, +1.04264450981E+002
+1.17744574290E+007, +5.18075587251E-001, +1.05867676454E+002
+1.19412353923E+007, +4.94174757814E-001, +1.07377957851E+002
+1.21080133556E+007, +4.11145764733E-001, +1.08916533508E+002
+1.22747913189E+007, +5.07078852998E-001, +1.10522060551E+002
+1.24415692821E+007, +4.58925359666E-001, +1.12031972084E+002
+1.26083472454E+007, +4.26881262216E-001, +1.13620175998E+002
+1.27751252087E+007, +5.20572293596E-001, +1.15113516945E+002
+1.29419031720E+007, +4.70781779445E-001, +1.16612971273E+002
+1.31086811352E+007, +5.01426137480E-001, +1.18387428761E+002
+1.32754590985E+007, +4.92313106822E-001, +1.19814745553E+002
+1.34422370618E+007, +4.77932818596E-001, +1.21430001296E+002
+1.36090150250E+007, +6.02553976346E-001, +1.22921792542E+002
+1.37757929883E+007, +4.80023661890E-001, +1.24567387363E+002
+1.39425709516E+007, +6.00587727395E-001, +1.26161466370E+002
+1.41093489149E+007, +5.55141546484E-001, +1.27652756181E+002
+1.42761268781E+007, +5.97371776157E-001, +1.29291257956E+002
+1.44429048414E+007, +6.73045336690E-001, +1.30899070655E+002
+1.46096828047E+007, +5.08242330321E-001, +1.32392895202E+002
+1.47764607679E+007, +6.23382894288E-001, +1.33959673709E+002
+1.49432387312E+007, +4.75938369262E-001, +1.35539013577E+002
+1.51100166945E+007, +4.94614323028E-001, +1.37199445469E+002
+1.52767946578E+007, +6.27579091697E-001, +1.38752730309E+002
+1.54435726210E+007, +5.82757940792E-001, +1.40289479269E+002
+1.56103505843E+007, +6.60114886166E-001, +1.41918324871E+002
+1.57771285476E+007, +4.82898661968E-001, +1.43444675098E+002
+1.59439065109E+007, +6.36044871559E-001, +1.45191196562E+002
+1.61106844741E+007, +5.45371502046E-001, +1.46851325228E+002
+1.62774624374E+007, +5.52968983217E-001, +1.48358121475E+002
+1.64442404007E+007, +5.16547755185E-001, +1.50001151469E+002
+1.66110183639E+007, +5.46702935988E-001, +1.51658452847E+002
+1.67777963272E+007, +6.09084983316E-001, +1.53389994160E+002
+1.69445742905E+007, +7.13002683317E-001, +1.55044641344E+002
+1.71113522538E+007, +4.14457122595E-001, +1.56376206188E+002
+1.72781302170E+007, +5.37984778612E-001, +1.58149637894E+002
+1.74449081803E+007, +4.76548092549E-001, +1.59626155715E+002
+1.76116861436E+007, +6.62707201103E-001, +1.61490690146E+002
+1.77784641068E+007, +6.29215198499E-001, +1.63087922019E+002
+1.79452420701E+007, +7.45285473614E-001, +1.64797485003E+002
+1.81120200334E+007, +6.68238580373E-001, +1.66302257371E+002
+1.82787979967E+007, +6.95121557937E-001, +1.68127018631E+002
+1.84455759599E+007, +7.79511178905E-001, +1.69669882723E+002
+1.86123539232E+007, +8.46295234750E-001, +1.71366686402E+002
+1.87791318865E+007, +6.47952137779E-001, +1.73225492276E+002
+1.89459098497E+007, +6.85064359539E-001, +1.74730266451E+002
+1.91126878130E+007, +7.90689361956E-001, +1.76299267927E+002
+1.92794657763E+007, +7.57705842625E-001, +1.78057304933E+002
+1.94462437396E+007, +8.85402753629E-001, +1.79791295292E+002
+1.96130217028E+007, +6.97544731705E-001, +1.81521051167E+002
+1.97797996661E+007, +9.46307441806E-001, +1.82964225462E+002
+1.99465776294E+007, +6.50251481968E-001, +1.84631874474E+002
+2.01133555927E+007, +8.47056541241E-001, +1.86455263426E+002
+2.02801335559E+007, +6.94549307015E-001, +1.88360634421E+002
+2.04469115192E+007, +9.27235988111E-001, +1.89933129338E+002
+2.06136894825E+007, +9.71408952056E-001, +1.91556813579E+002
+2.07804674457E+007, +9.11763810108E-001, +1.93341375003E+002
+2.09472454090E+007, +1.08979202066E+000, +1.94957945604E+002
+2.11140233723E+007, +1.01614691047E+000, +1.96561453701E+002
+2.12808013356E+007, +1.02357739440E+000, +1.98377070066E+002
+2.14475792988E+007, +9.17513564719E-001, +2.00228569216E+002
+2.16143572621E+007, +1.24899540241E+000, +2.01866626984E+002
+2.17811352254E+007, +1.07481887368E+000, +2.03453870154E+002
+2.19479131886E+007, +1.38290797725E+000, +2.05380760689E+002
+2.21146911519E+007, +1.59082922423E+000, +2.06856451370E+002
+2.22814691152E+007, +1.23324783658E+000, +2.08682474836E+002
+2.24482470785E+007, +1.09699286817E+000, +2.10507894197E+002
+2.26150250417E+007, +1.66805092649E+000, +2.12345420872E+002
+2.27818030050E+007, +1.35998618617E+000, +2.14066195702E+002
+2.29485809683E+007, +1.62977232406E+000, +2.15802414069E+002
+2.31153589316E+007, +1.29852706478E+000, +2.17744393434E+002
+2.32821368948E+007, +1.56367480213E+000, +2.19504841116E+002
+2.34489148581E+007, +1.60644920888E+000, +2.21251223023E+002
+2.36156928214E+007, +1.54848926920E+000, +2.23090840889E+002
+2.37824707846E+007, +1.68653296884E+000, +2.24518885754E+002
+2.39492487479E+007, +1.62604066210E+000, +2.26419050112E+002
+2.41160267112E+007, +1.43836078172E+000, +2.28144014104E+002
+2.42828046745E+007, +1.72208083735E+000, +2.29842158857E+002
+2.44495826377E+007, +1.59048230621E+000, +2.32080152475E+002
+2.46163606010E+007, +1.67276991049E+000, +2.33367616696E+002
+2.47831385643E+007, +1.64164715221E+000, +2.35241285350E+002
+2.49499165275E+007, +1.76854512880E+000, +2.37261402673E+002
+2.51166944908E+007, +2.28039595070E+000, +2.38809254570E+002
+2.52834724541E+007, +1.95022758906E+000, +2.41100960477E+002
+2.54502504174E+007, +2.15206101012E+000, +2.42781969054E+002
+2.56170283806E+007, +2.24843367077E+000, +2.44486032010E+002
+2.57838063439E+007, +2.08107907008E+000, +2.46641899370E+002
+2.59505843072E+007, +2.20757078694E+000, +2.48393632892E+002
+2.61173622705E+007, +2.29625511154E+000, +2.50017222916E+002
+2.62841402337E+007, +2.31249901076E+000, +2.51760732894E+002
+2.64509181970E+007, +1.87638650940E+000, +2.53885583726E+002
+2.66176961603E+007, +2.27039358810E+000, +2.56209272922E+002
+2.67844741235E+007, +2.68771392869E+000, +2.57680784813E+002
+2.69512520868E+007, +2.86466062782E+000, +2.59387786626E+002
+2.71180300501E+007, +2.61774720495E+000, +2.60623721542E+002
+2.72848080134E+007, +2.59039831299E+000, +2.63114648457E+002
+2.74515859766E+007, +2.75355795342E+000, +2.64804790519E+002
+2.76183639399E+007, +2.47223271252E+000, +2.66631455903E+002
+2.77851419032E+007, +2.28030945849E+000, +2.68144524092E+002
+2.79519198664E+007, +2.73868056436E+000, +2.70778655512E+002
+2.81186978297E+007, +2.69544940708E+000, +2.71930344956E+002
+2.82854757930E+007, +2.58602917983E+000, +2.73786528127E+002
+2.84522537563E+007, +1.84656642496E+000, +2.75540464052E+002
+2.86190317195E+007, +2.07964704220E+000, +2.77870457434E+002
+2.87858096828E+007, +2.80535628629E+000, +2.80133681498E+002
+2.89525876461E+007, +2.73243565181E+000, +2.82003056651E+002
+2.91193656093E+007, +2.66605530033E+000, +2.83318164924E+002
+2.92861435726E+007, +2.04675440897E+000, +2.85660974903E+002
+2.94529215359E+007, +2.79860712728E+000, +2.87700818646E+002
+2.96196994992E+007, +3.05495789015E+000, +2.89570572252E+002
+2.97864774624E+007, +3.17083613445E+000, +2.91288891064E+002
+2.99532554257E+007, +2.89905426249E+000, +2.93530077992E+002
+3.01200333890E+007, +2.90042525740E+000, +2.95607868390E+002
+3.02868113523E+007, +2.61667967594E+000, +2.97471445524E+002
+3.04535893155E+007, +2.63271126107E+000, +2.99949730799E+002
+3.06203672788E+007, +2.79600960709E+000, +3.01765800421E+002
+3.07871452421E+007, +3.13077569530E+000, +3.03474698309E+002
+3.09539232053E+007, +2.87617699051E+000, +3.05530578401E+002
+3.11207011686E+007, +2.34920928813E+000, +3.07797450005E+002
+3.12874791319E+007, +2.61834344797E+000, +3.09378734955E+002
+3.14542570952E+007, +2.91954285716E+000, +3.11612424392E+002
+3.16210350584E+007, +2.55445522302E+000, +3.14051848318E+002
+3.17878130217E+007, +2.16681422499E+000, +3.16020440257E+002
+3.19545909850E+007, +2.48327932287E+000, +3.17853495055E+002
+3.21213689482E+007, +1.84705326636E+000, +3.20316751678E+002
+3.22881469115E+007, +2.31215518169E+000, +3.22034590643E+002
+3.24549248748E+007, +2.91904332130E+000, +3.24232051092E+002
+3.26217028381E+007, +2.43684459476E+000, +3.26494735049E+002
+3.27884808013E+007, +2.63635686393E+000, +3.27900162513E+002
+3.29552587646E+007, +2.93814948017E+000, +3.30326627758E+002
+3.31220367279E+007, +3.00699195778E+000, +3.33114443725E+002
+3.32888146912E+007, +2.23255127212E+000, +3.35002323912E+002
+3.34555926544E+007, +1.97686843801E+000, +3.37462464708E+002
+3.36223706177E+007, +2.65828222628E+000, +3.39121538036E+002
+3.37891485810E+007, +2.43513789792E+000, +3.40844023442E+002
+3.39559265442E+007, +2.66384103821E+000, +3.44269024671E+002
+3.41227045075E+007, +2.22370707592E+000, +3.45477442320E+002
+3.42894824708E+007, +2.71419980613E+000, +3.47853320056E+002
+3.44562604341E+007, +2.78484502812E+000, +3.50622251053E+002
+3.46230383973E+007, +2.17822447436E+000, +3.52724743026E+002
+3.47898163606E+007, +2.24690365453E+000, +3.55105217456E+002
+3.49565943239E+007, +3.22716337150E+000, +3.57509756547E+002
+3.51233722871E+007, +2.98209550661E+000, +3.59514158994E+002
+3.52901502504E+007, +3.13604615600E+000, +3.60764372596E+002
+3.54569282137E+007, +2.77382003167E+000, +3.64090993176E+002
+3.56237061770E+007, +2.05948943276E+000, +3.66501962877E+002
+3.57904841402E+007, +2.77373198508E+000, +3.68899482438E+002
+3.59572621035E+007, +2.97253287287E+000, +3.71061998199E+002
+3.61240400668E+007, +2.73994809023E+000, +3.73226598538E+002
+3.62908180301E+007, +1.97838057207E+000, +3.76335656410E+002
+3.64575959933E+007, +2.93699258573E+000, +3.78399886176E+002
+3.66243739566E+007, +2.93901293860E+000, +3.79998648818E+002
+3.67911519199E+007, +2.91018297333E+000, +3.82721236261E+002
+3.69579298831E+007, +3.12147060374E+000, +3.85169857766E+002
+3.71247078464E+007, +3.05846591992E+000, +3.87462174887E+002
+3.72914858097E+007, +2.81382042992E+000, +3.90144436638E+002
+3.74582637730E+007, +3.27529764781E+000, +3.93186582614E+002
+3.76250417362E+007, +3.03393767769E+000, +3.95388926493E+002
+3.77918196995E+007, +2.91627341868E+000, +3.97862425048E+002
+3.79585976628E+007, +3.07557121646E+000, +3.99533427421E+002
+3.81253756260E+007, +3.30664107638E+000, +4.03143812750E+002
+3.82921535893E+007, +3.73359383840E+000, +4.05045053085E+002
+3.84589315526E+007, +3.47217187832E+000, +4.07710639386E+002
+3.86257095159E+007, +2.94271367772E+000, +4.10495065857E+002
+3.87924874791E+007, +2.79118777169E+000, +4.12877463413E+002
+3.89592654424E+007, +2.91731454705E+000, +4.15358294879E+002
+3.91260434057E+007, +3.92760337006E+000, +4.17933496260E+002
+3.92928213689E+007, +3.78602994447E+000, +4.20794713256E+002
+3.94595993322E+007, +3.16252762590E+000, +4.23965452924E+002
+3.96263772955E+007, +2.92777867254E+000, +4.26105783117E+002
+3.97931552588E+007, +3.19555542367E+000, +4.28319861078E+002
+3.99599332220E+007, +3.11924144168E+000, +4.31504890457E+002
+4.01267111853E+007, +3.56455179221E+000, +4.33873180373E+002
+4.02934891486E+007, +2.58648767128E+000, +4.36684064275E+002
+4.04602671119E+007, +4.18036928130E+000, +4.39518530773E+002
+4.06270450751E+007, +3.92530048613E+000, +4.41999321031E+002
+4.07938230384E+007, +4.37800723010E+000, +4.45078889048E+002
+4.09606010017E+007, +4.14093473313E+000, +4.47421706290E+002
+4.11273789649E+007, +4.42491867016E+000, +4.50674599111E+002
+4.12941569282E+007, +3.32129450979E+000, +4.53423429371E+002
+4.14609348915E+007, +3.01578145859E+000, +4.57824167203E+002
+4.16277128548E+007, +4.05841576444E+000, +4.59671856221E+002
+4.17944908180E+007, +3.89217288608E+000, +4.61148513562E+002
+4.19612687813E+007, +3.98455352829E+000, +4.64612303540E+002
+4.21280467446E+007, +3.13287786767E+000, +4.67804982925E+002
+4.22948247078E+007, +3.54431021265E+000, +4.70366265962E+002
+4.24616026711E+007, +4.22406423177E+000, +4.72174144433E+002
+4.26283806344E+007, +3.61441783723E+000, +4.76536240814E+002
+4.27951585977E+007, +2.48140630646E+000, +4.79925961178E+002
+4.29619365609E+007, +5.10590992913E+000, +4.82761102468E+002
+4.31287145242E+007, +4.77074486124E+000, +4.85475077657E+002
+4.32954924875E+007, +4.42820091734E+000, +4.88315333959E+002
+4.34622704508E+007, +3.92346057958E+000, +4.92316213252E+002
+4.36290484140E+007, +5.09301353131E+000, +4.95692265805E+002
+4.37958263773E+007, +4.65350204506E+000, +4.98418566137E+002
+4.39626043406E+007, +4.30201173019E+000, +5.00999689305E+002
+4.41293823038E+007, +6.54965153971E+000, +5.05899743998E+002
+4.42961602671E+007, +5.10166387289E+000, +5.07456522515E+002
+4.44629382304E+007, +4.86657395851E+000, +5.10831631244E+002
+4.46297161937E+007, +4.77062335335E+000, +5.14709259215E+002
+4.47964941569E+007, +5.13952693898E+000, +5.17357093546E+002
+4.49632721202E+007, +4.79521481399E+000, +5.21162192589E+002
+4.51300500835E+007, +4.46935303127E+000, +5.23291229004E+002
+4.52968280467E+007, +6.35480873721E+000, +5.27712213020E+002
+4.54636060100E+007, +5.79150680164E+000, +5.32692135489E+002
+4.56303839733E+007, +4.77793108533E+000, +5.35562992706E+002
+4.57971619366E+007, +4.93857517367E+000, +5.38464843837E+002
+4.59639398998E+007, +5.62142886972E+000, +5.43591611071E+002
+4.61307178631E+007, +5.65823638017E+000, +5.45259709001E+002
+4.62974958264E+007, +5.63376934105E+000, +5.50259150477E+002
+4.64642737896E+007, +5.72910522140E+000, +5.53027974913E+002
+4.66310517529E+007, +6.27891966504E+000, +5.57173334662E+002
+4.67978297162E+007, +6.98773665830E+000, +5.59574066790E+002
+4.69646076795E+007, +5.92241645285E+000, +5.64493280404E+002
+4.71313856427E+007, +6.42057054276E+000, +5.68514573099E+002
+4.72981636060E+007, +5.90754950416E+000, +5.73373205156E+002
+4.74649415693E+007, +4.85057471626E+000, +5.75855371584E+002
+4.76317195326E+007, +7.55976882114E+000, +5.78824543604E+002
+4.77984974958E+007, +8.38760098553E+000, +5.82771881922E+002
+4.79652754591E+007, +7.04938999628E+000, +5.86697545545E+002
+4.81320534224E+007, +7.91408455459E+000, +5.89806831293E+002
+4.82988313856E+007, +7.79603125840E+000, +5.94877514681E+002
+4.84656093489E+007, +8.91380657329E+000, +5.97426880783E+002
+4.86323873122E+007, +9.59204905124E+000, +6.02858450192E+002
+4.87991652755E+007, +8.15909752373E+000, +6.06394485370E+002
+4.89659432387E+007, +9.74529384788E+000, +6.10313676019E+002
+4.91327212020E+007, +9.13798905130E+000, +6.17139117224E+002
+4.92994991653E+007, +1.08568594127E+001, +6.18904529446E+002
+4.94662771285E+007, +1.18752728742E+001, +6.24090065046E+002
+4.96330550918E+007, +1.16226566869E+001, +6.29187442392E+002
+4.97998330551E+007, +1.41459906588E+001, +6.32069668212E+002
+4.99666110184E+007, +1.44214644504E+001, +6.35122873733E+002
+5.01333889816E+007, +1.25822969666E+001, +6.39779655634E+002
+5.03001669449E+007, +1.16244812433E+001, +6.43910360206E+002
+5.04669449082E+007, +1.26074992279E+001, +6.49687825615E+002
+5.06337228715E+007, +1.39423435481E+001, +6.54185221634E+002
+5.08005008347E+007, +1.29454766243E+001, +6.56974451862E+002
+5.09672787980E+007, +1.48510937511E+001, +6.62283767422E+002
+5.11340567613E+007, +1.51033303910E+001, +6.67774126265E+002
+5.13008347245E+007, +1.22997100574E+001, +6.70923450954E+002
+5.14676126878E+007, +1.51823794356E+001, +6.75804691147E+002
+5.16343906511E+007, +1.43470461775E+001, +6.82046073812E+002
+5.18011686144E+007, +1.30335862155E+001, +6.85486716102E+002
+5.19679465776E+007, +1.35109238924E+001, +6.91673117171E+002
+5.21347245409E+007, +1.56235067551E+001, +6.96484270061E+002
+5.23015025042E+007, +1.57257305608E+001, +7.04279839108E+002
+5.24682804674E+007, +1.34456156430E+001, +7.08757103045E+002
+5.26350584307E+007, +1.44965711938E+001, +7.12608835947E+002
+5.28018363940E+007, +1.58553785872E+001, +7.16799257301E+002
+5.29686143573E+007, +1.66529085279E+001, +7.24722818338E+002
+5.31353923205E+007, +1.76493935614E+001, +7.27120412370E+002
+5.33021702838E+007, +1.64610452537E+001, +7.33066172265E+002
+5.34689482471E+007, +1.96371786564E+001, +7.42430174274E+002
