"# Channel 1"
"# Trace 1"
Frequency, Formatted Data, Formatted Data
+1.00000000000E+005, +1.48953308851E+001, +1.02470349321E+000
+2.66777963272E+005, +1.49171837065E+001, +2.76936946671E+000
+4.33555926544E+005, +1.49041820758E+001, +4.52000669641E+000
+6.00333889816E+005, +1.49262850680E+001, +6.22797477262E+000
+7.67111853088E+005, +1.49356758692E+001, +7.95434157497E+000
+9.33889816361E+005, +1.49466640688E+001, +9.66473138366E+000
+1.10066777963E+006, +1.49070985027E+001, +1.14378487772E+001
+1.26744574290E+006, +1.49257455987E+001, +1.31258612257E+001
+1.43422370618E+006, +1.49091010926E+001, +1.49108319419E+001
+1.60100166945E+006, +1.49536242181E+001, +1.65682109178E+001
+1.76777963272E+006, +1.49401535683E+001, +1.83056182120E+001
+1.93455759599E+006, +1.49434366565E+001, +1.99810574395E+001
+2.10133555927E+006, +1.49480426617E+001, +2.17390231935E+001
+2.26811352254E+006, +1.49599289184E+001, +2.34491902304E+001
+2.43489148581E+006, +1.49691061906E+001, +2.52318918762E+001
+2.60166944908E+006, +1.49694741863E+001, +2.68884113724E+001
+2.76844741235E+006, +1.49325528823E+001, +2.86679531284E+001
+2.93522537563E+006, +1.49657016856E+001, +3.03481438361E+001
+3.10200333890E+006, +1.50133185447E+001, +3.20397086642E+001
+3.26878130217E+006, +1.49019505624E+001, +3.37842292994E+001
+3.43555926544E+006, +1.49461825426E+001, +3.54919727793E+001
+3.60233722871E+006, +1.49984476228E+001, +3.72655197540E+001
+3.76911519199E+006, +1.49987697353E+001, +3.90343115948E+001
+3.93589315526E+006, +1.48964732396E+001, +4.07059844579E+001
+4.10267111853E+006, +1.49841594005E+001, +4.24941921318E+001
+4.26944908180E+006, +1.49881695405E+001, +4.42646141969E+001
+4.43622704508E+006, +1.49702946900E+001, +4.58605225599E+001
+4.60300500835E+006, +1.50296575072E+001, +4.76824756126E+001
+4.76978297162E+006, +1.50121182058E+001, +4.93534141539E+001
+4.93656093489E+006, +1.51002041530E+001, +5.11355204844E+001
+5.10333889816E+006, +1.50695963006E+001, +5.28095158542E+001
+5.27011686144E+006, +1.51766233820E+001, +5.46489646997E+001
+5.43689482471E+006, +1.50704183515E+001, +5.63608827465E+001
+5.60367278798E+006, +1.51279677151E+001, +5.81409684638E+001
+5.77045075125E+006, +1.50130343048E+001, +5.97615039638E+001
+5.93722871452E+006, +1.51430053519E+001, +6.15878406530E+001
+6.10400667780E+006, +1.51617010224E+001, +6.33371719586E+001
+6.27078464107E+006, +1.51753660332E+001, +6.50260576973E+001
+6.43756260434E+006, +1.52013444769E+001, +6.68735823058E+001
+6.60434056761E+006, +1.51990300218E+001, +6.85705043992E+001
+6.77111853088E+006, +1.53130116687E+001, +7.02849020694E+001
+6.93789649416E+006, +1.52511975590E+001, +7.20621029087E+001
+7.10467445743E+006, +1.52207022387E+001, +7.38202938506E+001
+7.27145242070E+006, +1.52797435130E+001, +7.55451543173E+001
+7.43823038397E+006, +1.53214820498E+001, +7.72974812341E+001
+7.60500834725E+006, +1.53035430038E+001, +7.90414954677E+001
+7.77178631052E+006, +1.53246460645E+001, +8.08644296755E+001
+7.93856427379E+006, +1.53560219274E+001, +8.25621650185E+001
+8.10534223706E+006, +1.53767080311E+001, +8.42879365208E+001
+8.27212020033E+006, +1.54143747698E+001, +8.60615415258E+001
+8.43889816361E+006, +1.53663818862E+001, +8.78527436068E+001
+8.60567612688E+006, +1.53007065445E+001, +8.96178432556E+001
+8.77245409015E+006, +1.53996660417E+001, +9.13914266028E+001
+8.93923205342E+006, +1.54278769808E+001, +9.31131922159E+001
+9.10601001669E+006, +1.54506694436E+001, +9.49813296616E+001
+9.27278797997E+006, +1.54658871061E+001, +9.67009730027E+001
+9.43956594324E+006, +1.53863851588E+001, +9.84400731115E+001
+9.60634390651E+006, +1.54562652656E+001, +1.00276173144E+002
+9.77312186978E+006, +1.54404617279E+001, +1.02012413862E+002
+9.93989983306E+006, +1.55711028682E+001, +1.03842643272E+002
+1.01066777963E+007, +1.54605603696E+001, +1.05557000352E+002
+1.02734557596E+007, +1.53834353761E+001, +1.07455432811E+002
+1.04402337229E+007, +1.55466737514E+001, +1.09178457548E+002
+1.06070116861E+007, +1.54582176840E+001, +1.10950255969E+002
+1.07737896494E+007, +1.55662325766E+001, +1.12732299431E+002
+1.09405676127E+007, +1.55913884998E+001, +1.14562701698E+002
+1.11073455760E+007, +1.55898295440E+001, +1.16501911580E+002
+1.12741235392E+007, +1.56723978189E+001, +1.18155155331E+002
+1.14409015025E+007, +1.57066557169E+001, +1.19969428348E+002
+1.16076794658E+007, +1.57943707232E+001, +1.21788590291E+002
+1.17744574290E+007, +1.57555734463E+001, +1.23666468672E+002
+1.19412353923E+007, +1.56964410336E+001, +1.25502342559E+002
+1.21080133556E+007, +1.55769813019E+001, +1.27298913246E+002
+1.22747913189E+007, +1.58026626870E+001, +1.29120198543E+002
+1.24415692821E+007, +1.57104778181E+001, +1.30860543355E+002
+1.26083472454E+007, +1.56321348976E+001, +1.32720409106E+002
+1.27751252087E+007, +1.58706251484E+001, +1.34533780824E+002
+1.29419031720E+007, +1.56224163760E+001, +1.36260648037E+002
+1.31086811352E+007, +1.58113882188E+001, +1.38183751186E+002
+1.32754590985E+007, +1.57890752001E+001, +1.40047759926E+002
+1.34422370618E+007, +1.57662137269E+001, +1.41941048908E+002
+1.36090150250E+007, +1.60015192679E+001, +1.43712598507E+002
+1.37757929883E+007, +1.57869058924E+001, +1.45633733628E+002
+1.39425709516E+007, +1.59724275804E+001, +1.47444846639E+002
+1.41093489149E+007, +1.60820773710E+001, +1.49122546310E+002
+1.42761268781E+007, +1.61000358949E+001, +1.51171864880E+002
+1.44429048414E+007, +1.61522498253E+001, +1.52932603946E+002
+1.46096828047E+007, +1.60543312121E+001, +1.54800395065E+002
+1.47764607679E+007, +1.61992416840E+001, +1.56586359147E+002
+1.49432387312E+007, +1.61392109209E+001, +1.58417900241E+002
+1.51100166945E+007, +1.60791565198E+001, +1.60461762340E+002
+1.52767946578E+007, +1.62408637648E+001, +1.62179120031E+002
+1.54435726210E+007, +1.62262777814E+001, +1.64100450040E+002
+1.56103505843E+007, +1.64190041147E+001, +1.66031585858E+002
+1.57771285476E+007, +1.62791161838E+001, +1.67842804695E+002
+1.59439065109E+007, +1.63079670633E+001, +1.69743839871E+002
+1.61106844741E+007, +1.60993444912E+001, +1.71665649583E+002
+1.62774624374E+007, +1.64087627827E+001, +1.73522375898E+002
+1.64442404007E+007, +1.63440042460E+001, +1.75548972320E+002
+1.66110183639E+007, +1.65212999179E+001, +1.77536958131E+002
+1.67777963272E+007, +1.64865207530E+001, +1.79431121685E+002
+1.69445742905E+007, +1.67479905468E+001, +1.81232593179E+002
+1.71113522538E+007, +1.62172748486E+001, +1.82806042316E+002
+1.72781302170E+007, +1.64105158040E+001, +1.85077631880E+002
+1.74449081803E+007, +1.64341579502E+001, +1.86766389221E+002
+1.76116861436E+007, +1.66819193634E+001, +1.88996644602E+002
+1.77784641068E+007, +1.67792386339E+001, +1.90780824772E+002
+1.79452420701E+007, +1.66880052828E+001, +1.92734898667E+002
+1.81120200334E+007, +1.68995677454E+001, +1.94485507375E+002
+1.82787979967E+007, +1.68363007000E+001, +1.96616030483E+002
+1.84455759599E+007, +1.70349771151E+001, +1.98566594119E+002
+1.86123539232E+007, +1.70756061307E+001, +2.00517566887E+002
+1.87791318865E+007, +1.69598090969E+001, +2.02581337526E+002
+1.89459098497E+007, +1.69441618225E+001, +2.04482998670E+002
+1.91126878130E+007, +1.72411625708E+001, +2.06407331691E+002
+1.92794657763E+007, +1.71075883346E+001, +2.08233334354E+002
+1.94462437396E+007, +1.73962484892E+001, +2.10453974955E+002
+1.96130217028E+007, +1.74193837264E+001, +2.12503727513E+002
+1.97797996661E+007, +1.75380864175E+001, +2.14345805079E+002
+1.99465776294E+007, +1.72723595250E+001, +2.16346445824E+002
+2.01133555927E+007, +1.72367369633E+001, +2.18367785162E+002
+2.02801335559E+007, +1.73765268822E+001, +2.20457630939E+002
+2.04469115192E+007, +1.77509265181E+001, +2.22377899098E+002
+2.06136894825E+007, +1.77045924967E+001, +2.24157832318E+002
+2.07804674457E+007, +1.78908666546E+001, +2.26401129470E+002
+2.09472454090E+007, +1.74943141823E+001, +2.28466038561E+002
+2.11140233723E+007, +1.77305053173E+001, +2.30315663316E+002
+2.12808013356E+007, +1.79436906766E+001, +2.32187875692E+002
+2.14475792988E+007, +1.81202785483E+001, +2.34604747885E+002
+2.16143572621E+007, +1.82136223876E+001, +2.36471813547E+002
+2.17811352254E+007, +1.78360960274E+001, +2.38487903357E+002
+2.19479131886E+007, +1.85926755440E+001, +2.40679368424E+002
+2.21146911519E+007, +1.87121769263E+001, +2.42415632949E+002
+2.22814691152E+007, +1.80997339056E+001, +2.44665701621E+002
+2.24482470785E+007, +1.84082343914E+001, +2.46876363861E+002
+2.26150250417E+007, +1.89615718811E+001, +2.48581947170E+002
+2.27818030050E+007, +1.86973522905E+001, +2.50980894427E+002
+2.29485809683E+007, +1.91959631582E+001, +2.52767051274E+002
+2.31153589316E+007, +1.84990175998E+001, +2.55140879544E+002
+2.32821368948E+007, +1.92547996794E+001, +2.57121207350E+002
+2.34489148581E+007, +1.91406350369E+001, +2.59112323419E+002
+2.36156928214E+007, +1.92856737246E+001, +2.61510425474E+002
+2.37824707846E+007, +1.94804863837E+001, +2.63640373402E+002
+2.39492487479E+007, +1.92237859180E+001, +2.65445521085E+002
+2.41160267112E+007, +1.95282440370E+001, +2.67600722682E+002
+2.42828046745E+007, +1.93539536165E+001, +2.69623464196E+002
+2.44495826377E+007, +1.96892315710E+001, +2.72463501059E+002
+2.46163606010E+007, +1.96274850089E+001, +2.74045551581E+002
+2.47831385643E+007, +1.97909586497E+001, +2.75935836739E+002
+2.49499165275E+007, +2.02601287647E+001, +2.78258484931E+002
+2.51166944908E+007, +2.02117359671E+001, +2.80218358485E+002
+2.52834724541E+007, +2.04359133520E+001, +2.82816862728E+002
+2.54502504174E+007, +2.03249606041E+001, +2.85049658535E+002
+2.56170283806E+007, +2.07263522822E+001, +2.86572217577E+002
+2.57838063439E+007, +2.04216177075E+001, +2.89659586556E+002
+2.59505843072E+007, +2.07897091885E+001, +2.91963074441E+002
+2.61173622705E+007, +2.08682921906E+001, +2.93643821373E+002
+2.62841402337E+007, +2.08601917317E+001, +2.95408068739E+002
+2.64509181970E+007, +2.06975428278E+001, +2.97938094545E+002
+2.66176961603E+007, +2.07202662668E+001, +3.00788175188E+002
+2.67844741235E+007, +2.12180279689E+001, +3.02445155970E+002
+2.69512520868E+007, +2.12788927255E+001, +3.04520899657E+002
+2.71180300501E+007, +2.13056135488E+001, +3.06308358477E+002
+2.72848080134E+007, +2.17311081571E+001, +3.08853236772E+002
+2.74515859766E+007, +2.22725571487E+001, +3.11304197165E+002
+2.76183639399E+007, +2.15702890965E+001, +3.13159624906E+002
+2.77851419032E+007, +2.16769288790E+001, +3.15492551121E+002
+2.79519198664E+007, +2.20039723410E+001, +3.17613995819E+002
+2.81186978297E+007, +2.19250640261E+001, +3.19730706309E+002
+2.82854757930E+007, +2.19364842652E+001, +3.21825244921E+002
+2.84522537563E+007, +2.20692528608E+001, +3.24701068944E+002
+2.86190317195E+007, +2.23099906887E+001, +3.26751824012E+002
+2.87858096828E+007, +2.28009478745E+001, +3.29465850625E+002
+2.89525876461E+007, +2.24603460613E+001, +3.31325685330E+002
+2.91193656093E+007, +2.27909404033E+001, +3.33101147193E+002
+2.92861435726E+007, +2.21461006538E+001, +3.35731311962E+002
+2.94529215359E+007, +2.27852971733E+001, +3.38478195950E+002
+2.96196994992E+007, +2.28504268962E+001, +3.40491329126E+002
+2.97864774624E+007, +2.35582438316E+001, +3.42862671471E+002
+2.99532554257E+007, +2.29641509704E+001, +3.45785835289E+002
+3.01200333890E+007, +2.31053367111E+001, +3.47602881622E+002
+3.02868113523E+007, +2.30537813546E+001, +3.50436789342E+002
+3.04535893155E+007, +2.29141422647E+001, +3.52713064028E+002
+3.06203672788E+007, +2.35755177219E+001, +3.54814403908E+002
+3.07871452421E+007, +2.31722462279E+001, +3.57435811882E+002
+3.09539232053E+007, +2.33866989142E+001, +3.59605408936E+002
+3.11207011686E+007, +2.32854872818E+001, +3.62820588338E+002
+3.12874791319E+007, +2.35688042920E+001, +3.64779774781E+002
+3.14542570952E+007, +2.40804223018E+001, +3.67567278368E+002
+3.16210350584E+007, +2.36031866687E+001, +3.69825306464E+002
+3.17878130217E+007, +2.35748932400E+001, +3.72284838002E+002
+3.19545909850E+007, +2.42291486988E+001, +3.75341315226E+002
+3.21213689482E+007, +2.35804371096E+001, +3.77428143810E+002
+3.22881469115E+007, +2.36275852470E+001, +3.79611232717E+002
+3.24549248748E+007, +2.42089503738E+001, +3.82031105409E+002
+3.26217028381E+007, +2.38243863484E+001, +3.85902401361E+002
+3.27884808013E+007, +2.42392639147E+001, +3.87196034711E+002
+3.29552587646E+007, +2.46740333216E+001, +3.89487511792E+002
+3.31220367279E+007, +2.47086234883E+001, +3.92433125854E+002
+3.32888146912E+007, +2.45790636466E+001, +3.95667370858E+002
+3.34555926544E+007, +2.43527374096E+001, +3.97962896108E+002
+3.36223706177E+007, +2.50240274184E+001, +4.00405628551E+002
+3.37891485810E+007, +2.53916216562E+001, +4.02327443509E+002
+3.39559265442E+007, +2.54567658744E+001, +4.06560476302E+002
+3.41227045075E+007, +2.49951021802E+001, +4.08382267649E+002
+3.42894824708E+007, +2.51280574508E+001, +4.11023748219E+002
+3.44562604341E+007, +2.55168141687E+001, +4.13887360953E+002
+3.46230383973E+007, +2.54129092750E+001, +4.17398717988E+002
+3.47898163606E+007, +2.56586511069E+001, +4.18859364857E+002
+3.49565943239E+007, +2.64138309068E+001, +4.22348747687E+002
+3.51233722871E+007, +2.64855395056E+001, +4.24492277796E+002
+3.52901502504E+007, +2.64188415560E+001, +4.27510507160E+002
+3.54569282137E+007, +2.69071562313E+001, +4.30623983832E+002
+3.56237061770E+007, +2.62535140188E+001, +4.33369569391E+002
+3.57904841402E+007, +2.62817879605E+001, +4.35812052536E+002
+3.59572621035E+007, +2.72543310881E+001, +4.38783815406E+002
+3.61240400668E+007, +2.65612423480E+001, +4.41429023182E+002
+3.62908180301E+007, +2.73723189373E+001, +4.44465171850E+002
+3.64575959933E+007, +2.64877124617E+001, +4.47889813499E+002
+3.66243739566E+007, +2.74284569244E+001, +4.49619854392E+002
+3.67911519199E+007, +2.71819378458E+001, +4.54026127376E+002
+3.69579298831E+007, +2.76387195424E+001, +4.56303646443E+002
+3.71247078464E+007, +2.75049172743E+001, +4.59351827438E+002
+3.72914858097E+007, +2.74218467485E+001, +4.62721490975E+002
+3.74582637730E+007, +2.95776870692E+001, +4.66006667705E+002
+3.76250417362E+007, +2.85295246526E+001, +4.68075605317E+002
+3.77918196995E+007, +2.86642546112E+001, +4.71696760993E+002
+3.79585976628E+007, +2.86581541295E+001, +4.74193136277E+002
+3.81253756260E+007, +2.89796929946E+001, +4.77387328782E+002
+3.82921535893E+007, +2.95081855876E+001, +4.80010512534E+002
+3.84589315526E+007, +2.90277718378E+001, +4.83243516309E+002
+3.86257095159E+007, +2.96393716937E+001, +4.87512862193E+002
+3.87924874791E+007, +2.93154852115E+001, +4.90129922420E+002
+3.89592654424E+007, +3.03004279436E+001, +4.92799024997E+002
+3.91260434057E+007, +3.00302893230E+001, +4.97862825403E+002
+3.92928213689E+007, +3.06344649595E+001, +4.98766186763E+002
+3.94595993322E+007, +3.03450352123E+001, +5.03341628533E+002
+3.96263772955E+007, +3.02073374832E+001, +5.04999645130E+002
+3.97931552588E+007, +3.00406414157E+001, +5.09465148163E+002
+3.99599332220E+007, +3.05769524768E+001, +5.12932541147E+002
+4.01267111853E+007, +3.21697003764E+001, +5.16206398720E+002
+4.02934891486E+007, +3.11948338479E+001, +5.17886183332E+002
+4.04602671119E+007, +3.30348127751E+001, +5.21809116158E+002
+4.06270450751E+007, +3.23679166297E+001, +5.27344591152E+002
+4.07938230384E+007, +3.23118451726E+001, +5.29737522670E+002
+4.09606010017E+007, +3.29012279200E+001, +5.32713450814E+002
+4.11273789649E+007, +3.34189886318E+001, +5.36424873397E+002
+4.12941569282E+007, +3.27991741650E+001, +5.39680066547E+002
+4.14609348915E+007, +3.36879755169E+001, +5.44257497996E+002
+4.16277128548E+007, +3.45440432587E+001, +5.46154482050E+002
+4.17944908180E+007, +3.41413059250E+001, +5.49493575740E+002
+4.19612687813E+007, +3.44219330701E+001, +5.53785251829E+002
+4.21280467446E+007, +3.34030372934E+001, +5.58148667965E+002
+4.22948247078E+007, +3.54947180987E+001, +5.62047905816E+002
+4.24616026711E+007, +3.56919235856E+001, +5.63585078567E+002
+4.26283806344E+007, +3.60843172709E+001, +5.68746346316E+002
+4.27951585977E+007, +3.50513871708E+001, +5.73055193048E+002
+4.29619365609E+007, +3.82316734955E+001, +5.76315364686E+002
+4.31287145242E+007, +3.69692636035E+001, +5.80560656769E+002
+4.32954924875E+007, +3.72296256597E+001, +5.82574560345E+002
+4.34622704508E+007, +3.70283302554E+001, +5.87764662964E+002
+4.36290484140E+007, +3.88231323132E+001, +5.91995951244E+002
+4.37958263773E+007, +3.70066904428E+001, +5.95951746221E+002
+4.39626043406E+007, +3.81846167479E+001, +6.00965245965E+002
+4.41293823038E+007, +3.98612155069E+001, +6.05405553278E+002
+4.42961602671E+007, +3.93166481388E+001, +6.08097641190E+002
+4.44629382304E+007, +3.91583455375E+001, +6.13388693564E+002
+4.46297161937E+007, +4.14973764047E+001, +6.15911072880E+002
+4.47964941569E+007, +4.03849218679E+001, +6.20593367955E+002
+4.49632721202E+007, +3.96825874086E+001, +6.25403119677E+002
+4.51300500835E+007, +4.03249991160E+001, +6.27280878196E+002
+4.52968280467E+007, +4.14556763932E+001, +6.33068142545E+002
+4.54636060100E+007, +4.26790152165E+001, +6.38106352900E+002
+4.56303839733E+007, +4.27746500649E+001, +6.40174708692E+002
+4.57971619366E+007, +4.21819948392E+001, +6.45983407931E+002
+4.59639398998E+007, +4.40265400513E+001, +6.53743449187E+002
+4.61307178631E+007, +4.34053655965E+001, +6.56361395637E+002
+4.62974958264E+007, +4.50490052875E+001, +6.62173538876E+002
+4.64642737896E+007, +4.45046929637E+001, +6.64619400968E+002
+4.66310517529E+007, +4.56485652607E+001, +6.70746198912E+002
+4.67978297162E+007, +4.91667700886E+001, +6.72852593118E+002
+4.69646076795E+007, +4.63329986116E+001, +6.79189171685E+002
+4.71313856427E+007, +4.90585451093E+001, +6.83395813476E+002
+4.72981636060E+007, +4.86084607221E+001, +6.90472282512E+002
+4.74649415693E+007, +4.74653774054E+001, +6.95370048452E+002
+4.76317195326E+007, +5.10645775080E+001, +6.99115560977E+002
+4.77984974958E+007, +5.21080762490E+001, +7.04111583762E+002
+4.79652754591E+007, +5.09091793938E+001, +7.09011439623E+002
+4.81320534224E+007, +5.26489862474E+001, +7.12115396208E+002
+4.82988313856E+007, +5.34677649933E+001, +7.17242279533E+002
+4.84656093489E+007, +5.63313720474E+001, +7.23217103063E+002
+4.86323873122E+007, +5.60681464644E+001, +7.26771540294E+002
+4.87991652755E+007, +5.88368238678E+001, +7.34564560099E+002
+4.89659432387E+007, +5.73403174756E+001, +7.36969650069E+002
+4.91327212020E+007, +6.09990199458E+001, +7.44972088466E+002
+4.92994991653E+007, +6.23893827892E+001, +7.48810123935E+002
+4.94662771285E+007, +6.32312722627E+001, +7.53960043667E+002
+4.96330550918E+007, +6.25329708940E+001, +7.62406373032E+002
+4.97998330551E+007, +6.73656347572E+001, +7.63677660769E+002
+4.99666110184E+007, +6.76632201029E+001, +7.70270909941E+002
+5.01333889816E+007, +6.42288738322E+001, +7.75228415228E+002
+5.03001669449E+007, +6.57220270536E+001, +7.79705087222E+002
+5.04669449082E+007, +7.07073898180E+001, +7.86659206449E+002
+5.06337228715E+007, +7.19874219108E+001, +7.91612066279E+002
+5.08005008347E+007, +6.87173636720E+001, +7.92726060302E+002
+5.09672787980E+007, +7.48681798951E+001, +8.00355688082E+002
+5.11340567613E+007, +7.45866307295E+001, +8.08501929247E+002
+5.13008347245E+007, +6.93961839413E+001, +8.12647542676E+002
+5.14676126878E+007, +7.30316399366E+001, +8.17531248091E+002
+5.16343906511E+007, +7.63078896376E+001, +8.23605186768E+002
+5.18011686144E+007, +7.61195933095E+001, +8.28675957359E+002
+5.19679465776E+007, +7.40544573161E+001, +8.33272672545E+002
+5.21347245409E+007, +7.92076960164E+001, +8.42441999602E+002
+5.23015025042E+007, +7.92409502383E+001, +8.54345841717E+002
+5.24682804674E+007, +7.60207617590E+001, +8.58730576985E+002
+5.26350584307E+007, +8.02138541489E+001, +8.63622749029E+002
+5.28018363940E+007, +7.75362493012E+001, +8.71094018287E+002
+5.29686143573E+007, +7.86345106165E+001, +8.77318456352E+002
+5.31353923205E+007, +7.83839439345E+001, +8.83667236429E+002
+5.33021702838E+007, +7.95323014134E+001, +8.92347860887E+002
+5.34689482471E+007, +8.59828777242E+001, +9.00951235654E+002
