"# Channel 1"
"# Trace 1"
Frequency, Formatted Data, Formatted Data
+1.00000000000E+005, +2.19396145118E-001, +1.01455207180E+000
+2.66777963272E+005, +2.12858590428E-001, +2.67945883007E+000
+4.33555926544E+005, +2.42062414756E-001, +4.35685239430E+000
+6.00333889816E+005, +2.91922938662E-001, +5.97086364203E+000
+7.67111853088E+005, +3.13339217700E-001, +7.64596910840E+000
+9.33889816361E+005, +3.36127883299E-001, +9.24530092553E+000
+1.10066777963E+006, +3.07494002333E-001, +1.08705625242E+001
+1.26744574290E+006, +3.60942996358E-001, +1.25040732120E+001
+1.43422370618E+006, +3.15231253554E-001, +1.41345411992E+001
+1.60100166945E+006, +4.11630018552E-001, +1.57292108419E+001
+1.76777963272E+006, +4.15535283355E-001, +1.73698255975E+001
+1.93455759599E+006, +4.25958697023E-001, +1.89228420906E+001
+2.10133555927E+006, +4.56929107926E-001, +2.05458445702E+001
+2.26811352254E+006, +4.70349520833E-001, +2.22006262015E+001
+2.43489148581E+006, +4.55112439713E-001, +2.38367721116E+001
+2.60166944908E+006, +4.82928421566E-001, +2.53873928797E+001
+2.76844741235E+006, +4.64695357317E-001, +2.70375771458E+001
+2.93522537563E+006, +4.61838200554E-001, +2.86518455910E+001
+3.10200333890E+006, +5.54832893698E-001, +3.02623020536E+001
+3.26878130217E+006, +4.45698122020E-001, +3.18926731483E+001
+3.43555926544E+006, +5.12607272852E-001, +3.35150591618E+001
+3.60233722871E+006, +5.52854618753E-001, +3.51218440954E+001
+3.76911519199E+006, +4.90896982118E-001, +3.67866277535E+001
+3.93589315526E+006, +4.59129533041E-001, +3.83178538159E+001
+4.10267111853E+006, +4.68092143985E-001, +4.00653372355E+001
+4.26944908180E+006, +5.12022939391E-001, +4.17127259584E+001
+4.43622704508E+006, +5.25872994731E-001, +4.32631542981E+001
+4.60300500835E+006, +5.07490553253E-001, +4.49249877500E+001
+4.76978297162E+006, +5.52898645367E-001, +4.64567739322E+001
+4.93656093489E+006, +5.84077250222E-001, +4.81669417329E+001
+5.10333889816E+006, +5.76216178042E-001, +4.97388736590E+001
+5.27011686144E+006, +6.29021251346E-001, +5.15032910250E+001
+5.43689482471E+006, +5.58384036192E-001, +5.30713174358E+001
+5.60367278798E+006, +5.97563789802E-001, +5.47612692966E+001
+5.77045075125E+006, +5.40887612802E-001, +5.62989578583E+001
+5.93722871452E+006, +6.58441701414E-001, +5.79359815535E+001
+6.10400667780E+006, +5.78332996660E-001, +5.96251352629E+001
+6.27078464107E+006, +6.35487935696E-001, +6.12521277993E+001
+6.43756260434E+006, +6.54781171059E-001, +6.29263724641E+001
+6.60434056761E+006, +6.67566510674E-001, +6.45373285485E+001
+6.77111853088E+006, +7.19754366365E-001, +6.61828675779E+001
+6.93789649416E+006, +6.71664182604E-001, +6.78408745876E+001
+7.10467445743E+006, +6.86264684432E-001, +6.94440041489E+001
+7.27145242070E+006, +7.31356129679E-001, +7.10740891285E+001
+7.43823038397E+006, +7.51183199989E-001, +7.26770844770E+001
+7.60500834725E+006, +6.92016028315E-001, +7.43685291823E+001
+7.77178631052E+006, +7.21023283909E-001, +7.60862560799E+001
+7.93856427379E+006, +7.64480248542E-001, +7.76454541004E+001
+8.10534223706E+006, +7.80016841523E-001, +7.92749663546E+001
+8.27212020033E+006, +7.71108935899E-001, +8.09322421409E+001
+8.43889816361E+006, +7.10784223490E-001, +8.26144618283E+001
+8.60567612688E+006, +7.06063939928E-001, +8.42488699051E+001
+8.77245409015E+006, +7.06381809688E-001, +8.58329227470E+001
+8.93923205342E+006, +7.39777538213E-001, +8.75236292482E+001
+9.10601001669E+006, +7.49526800502E-001, +8.92587232304E+001
+9.27278797997E+006, +7.43040012929E-001, +9.09110843075E+001
+9.43956594324E+006, +7.58973456120E-001, +9.24988832721E+001
+9.60634390651E+006, +6.84846964260E-001, +9.41925079551E+001
+9.77312186978E+006, +6.91672581738E-001, +9.58712868552E+001
+9.93989983306E+006, +7.89559649539E-001, +9.75297106667E+001
+1.01066777963E+007, +6.57527174737E-001, +9.91719121074E+001
+1.02734557596E+007, +6.76084172014E-001, +1.00860461460E+002
+1.04402337229E+007, +7.01523329404E-001, +1.02515647162E+002
+1.06070116861E+007, +6.69987258325E-001, +1.04190072894E+002
+1.07737896494E+007, +7.03363673572E-001, +1.05942601535E+002
+1.09405676127E+007, +7.35838365861E-001, +1.07616638602E+002
+1.11073455760E+007, +6.65392003473E-001, +1.09303765241E+002
+1.12741235392E+007, +7.23639711090E-001, +1.10930737614E+002
+1.14409015025E+007, +7.53476547059E-001, +1.12665788789E+002
+1.16076794658E+007, +7.67226702800E-001, +1.14279329665E+002
+1.17744574290E+007, +7.47059611790E-001, +1.16146575781E+002
+1.19412353923E+007, +6.73097575145E-001, +1.17763997182E+002
+1.21080133556E+007, +5.91959667340E-001, +1.19445598036E+002
+1.22747913189E+007, +7.00854886945E-001, +1.21157592594E+002
+1.24415692821E+007, +6.19068866493E-001, +1.22822721503E+002
+1.26083472454E+007, +5.92224132128E-001, +1.24629059524E+002
+1.27751252087E+007, +7.50097808678E-001, +1.26170541393E+002
+1.29419031720E+007, +6.39797538458E-001, +1.27825030016E+002
+1.31086811352E+007, +6.70808112607E-001, +1.29627668453E+002
+1.32754590985E+007, +7.38097410210E-001, +1.31321677026E+002
+1.34422370618E+007, +6.13870886199E-001, +1.33034351845E+002
+1.36090150250E+007, +7.95547843407E-001, +1.34869964170E+002
+1.37757929883E+007, +6.83229451276E-001, +1.36509869909E+002
+1.39425709516E+007, +7.30192106510E-001, +1.38258264431E+002
+1.41093489149E+007, +7.58244810797E-001, +1.39872646707E+002
+1.42761268781E+007, +7.50507139502E-001, +1.41730136264E+002
+1.44429048414E+007, +7.40266202660E-001, +1.43421167222E+002
+1.46096828047E+007, +6.89018339011E-001, +1.45136404239E+002
+1.47764607679E+007, +7.28165565870E-001, +1.46811971090E+002
+1.49432387312E+007, +6.52863913391E-001, +1.48552525617E+002
+1.51100166945E+007, +6.08637938523E-001, +1.50443008013E+002
+1.52767946578E+007, +7.31185031953E-001, +1.52113846509E+002
+1.54435726210E+007, +7.39842899045E-001, +1.53773208721E+002
+1.56103505843E+007, +7.06629957123E-001, +1.55588619220E+002
+1.57771285476E+007, +6.17263093271E-001, +1.57313054435E+002
+1.59439065109E+007, +6.61106998329E-001, +1.59095488746E+002
+1.61106844741E+007, +6.16901733543E-001, +1.60884213157E+002
+1.62774624374E+007, +7.09119387146E-001, +1.62718491284E+002
+1.64442404007E+007, +7.04970038949E-001, +1.64530874545E+002
+1.66110183639E+007, +6.94737946453E-001, +1.66131928148E+002
+1.67777963272E+007, +6.09412238709E-001, +1.68076324726E+002
+1.69445742905E+007, +7.44048740138E-001, +1.69738745145E+002
+1.71113522538E+007, +4.40820812186E-001, +1.71324564331E+002
+1.72781302170E+007, +6.28558935020E-001, +1.73429137244E+002
+1.74449081803E+007, +4.33267071340E-001, +1.75189571281E+002
+1.76116861436E+007, +6.64226215784E-001, +1.76945023428E+002
+1.77784641068E+007, +6.89192883002E-001, +1.78430906482E+002
+1.79452420701E+007, +7.14769037003E-001, +1.80474997387E+002
+1.81120200334E+007, +6.99212822478E-001, +1.82285812569E+002
+1.82787979967E+007, +7.38341303955E-001, +1.84084275504E+002
+1.84455759599E+007, +7.73198116708E-001, +1.86051921534E+002
+1.86123539232E+007, +9.25914265702E-001, +1.87902700986E+002
+1.87791318865E+007, +6.07990923081E-001, +1.89605923821E+002
+1.89459098497E+007, +7.31427445522E-001, +1.91523972924E+002
+1.91126878130E+007, +7.67338291753E-001, +1.93126209539E+002
+1.92794657763E+007, +7.49928760088E-001, +1.94830020029E+002
+1.94462437396E+007, +7.33613968248E-001, +1.96850237401E+002
+1.96130217028E+007, +8.44802061036E-001, +1.98783277080E+002
+1.97797996661E+007, +8.59843167768E-001, +2.00504657183E+002
+1.99465776294E+007, +4.18591997841E-001, +2.02280179762E+002
+2.01133555927E+007, +6.03155761088E-001, +2.04305322287E+002
+2.02801335559E+007, +8.65812000550E-001, +2.06300239028E+002
+2.04469115192E+007, +9.51696341493E-001, +2.08222306307E+002
+2.06136894825E+007, +9.24211626322E-001, +2.10187689195E+002
+2.07804674457E+007, +8.41642907180E-001, +2.11888809348E+002
+2.09472454090E+007, +7.37640325368E-001, +2.13516007936E+002
+2.11140233723E+007, +8.04550110261E-001, +2.15475855011E+002
+2.12808013356E+007, +1.04767434327E+000, +2.17403058138E+002
+2.14475792988E+007, +9.52050201595E-001, +2.19443926567E+002
+2.16143572621E+007, +1.20987826837E+000, +2.21312586237E+002
+2.17811352254E+007, +9.76601297826E-001, +2.22999065969E+002
+2.19479131886E+007, +1.54871607634E+000, +2.24870407703E+002
+2.21146911519E+007, +1.47202957464E+000, +2.26649538468E+002
+2.22814691152E+007, +1.20117772834E+000, +2.28711013391E+002
+2.24482470785E+007, +1.02015908684E+000, +2.30894477436E+002
+2.26150250417E+007, +1.83831160104E+000, +2.32709724803E+002
+2.27818030050E+007, +1.24019969648E+000, +2.34727155196E+002
+2.29485809683E+007, +1.65699539807E+000, +2.36542653683E+002
+2.31153589316E+007, +1.12465767622E+000, +2.38675119715E+002
+2.32821368948E+007, +1.39990303773E+000, +2.40560870992E+002
+2.34489148581E+007, +1.57919155767E+000, +2.42188475640E+002
+2.36156928214E+007, +1.71098744980E+000, +2.44507779638E+002
+2.37824707846E+007, +1.52645952408E+000, +2.46071912150E+002
+2.39492487479E+007, +1.49153383675E+000, +2.48088432626E+002
+2.41160267112E+007, +1.46980641219E+000, +2.50028583065E+002
+2.42828046745E+007, +1.66172475828E+000, +2.51828976185E+002
+2.44495826377E+007, +1.55275583152E+000, +2.54242116541E+002
+2.46163606010E+007, +1.60150534921E+000, +2.55862047643E+002
+2.47831385643E+007, +1.55773181853E+000, +2.57966634654E+002
+2.49499165275E+007, +1.72411014730E+000, +2.60243245369E+002
+2.51166944908E+007, +1.92470572673E+000, +2.62115446351E+002
+2.52834724541E+007, +1.91168095231E+000, +2.64116458979E+002
+2.54502504174E+007, +2.30592797600E+000, +2.66050220221E+002
+2.56170283806E+007, +2.01743934417E+000, +2.67758894153E+002
+2.57838063439E+007, +2.09294598927E+000, +2.70443615696E+002
+2.59505843072E+007, +2.20574512210E+000, +2.72374791435E+002
+2.61173622705E+007, +2.22456583748E+000, +2.74401470530E+002
+2.62841402337E+007, +2.26271345780E+000, +2.75995666563E+002
+2.64509181970E+007, +2.00247389091E+000, +2.78275619424E+002
+2.66176961603E+007, +2.06271674651E+000, +2.80435350150E+002
+2.67844741235E+007, +2.50585892910E+000, +2.82350736933E+002
+2.69512520868E+007, +2.38414155431E+000, +2.84329372398E+002
+2.71180300501E+007, +2.92585033301E+000, +2.85977387758E+002
+2.72848080134E+007, +2.67360632563E+000, +2.88149131216E+002
+2.74515859766E+007, +2.74221896982E+000, +2.90153749749E+002
+2.76183639399E+007, +2.58911650215E+000, +2.91947356591E+002
+2.77851419032E+007, +2.57892151348E+000, +2.94209381387E+002
+2.79519198664E+007, +2.74895293994E+000, +2.96267958605E+002
+2.81186978297E+007, +2.92160858776E+000, +2.98166915936E+002
+2.82854757930E+007, +2.76457104123E+000, +3.00226415975E+002
+2.84522537563E+007, +2.22674806846E+000, +3.02671824585E+002
+2.86190317195E+007, +2.11399815924E+000, +3.04533472689E+002
+2.87858096828E+007, +2.60127084811E+000, +3.07145810406E+002
+2.89525876461E+007, +2.55871824368E+000, +3.08816205691E+002
+2.91193656093E+007, +2.30372078872E+000, +3.10501142565E+002
+2.92861435726E+007, +2.50976000349E+000, +3.12711296981E+002
+2.94529215359E+007, +2.72491879852E+000, +3.14905566464E+002
+2.96196994992E+007, +3.19641673989E+000, +3.17550024340E+002
+2.97864774624E+007, +3.03147711301E+000, +3.19687595296E+002
+2.99532554257E+007, +3.22667241738E+000, +3.21894589722E+002
+3.01200333890E+007, +2.30844646274E+000, +3.24027400342E+002
+3.02868113523E+007, +2.31431040929E+000, +3.26301456604E+002
+3.04535893155E+007, +2.53395812907E+000, +3.28551308009E+002
+3.06203672788E+007, +2.63398250606E+000, +3.31061199014E+002
+3.07871452421E+007, +2.74230398722E+000, +3.33020116108E+002
+3.09539232053E+007, +2.92294053230E+000, +3.34749555570E+002
+3.11207011686E+007, +1.89741635278E+000, +3.37979088311E+002
+3.12874791319E+007, +2.64960285437E+000, +3.39386634916E+002
+3.14542570952E+007, +2.63557513927E+000, +3.41810888552E+002
+3.16210350584E+007, +1.95547497871E+000, +3.44213821875E+002
+3.17878130217E+007, +2.20322939597E+000, +3.46198290002E+002
+3.19545909850E+007, +2.18315346428E+000, +3.48534898532E+002
+3.21213689482E+007, +1.99166473654E+000, +3.51335857995E+002
+3.22881469115E+007, +2.32599000024E+000, +3.53302090747E+002
+3.24549248748E+007, +2.07173793179E+000, +3.55711552564E+002
+3.26217028381E+007, +1.94594519680E+000, +3.57817640604E+002
+3.27884808013E+007, +2.11575984113E+000, +3.60068211378E+002
+3.29552587646E+007, +2.12802587163E+000, +3.62430672390E+002
+3.31220367279E+007, +2.05394246126E+000, +3.65313097110E+002
+3.32888146912E+007, +2.31232626609E+000, +3.68029493279E+002
+3.34555926544E+007, +1.72112889566E+000, +3.69822354916E+002
+3.36223706177E+007, +2.56260024855E+000, +3.71610835642E+002
+3.37891485810E+007, +2.83622515007E+000, +3.74032770068E+002
+3.39559265442E+007, +2.39205249398E+000, +3.76872220052E+002
+3.41227045075E+007, +1.81121888384E+000, +3.79512836150E+002
+3.42894824708E+007, +2.83558727112E+000, +3.81925761066E+002
+3.44562604341E+007, +2.32889261889E+000, +3.84277598742E+002
+3.46230383973E+007, +2.18974870700E+000, +3.87861767520E+002
+3.47898163606E+007, +2.26807710931E+000, +3.89313075000E+002
+3.49565943239E+007, +2.58403643564E+000, +3.92319370746E+002
+3.51233722871E+007, +2.71028885916E+000, +3.94263945093E+002
+3.52901502504E+007, +3.09882205020E+000, +3.95999119339E+002
+3.54569282137E+007, +2.56948926833E+000, +3.99367399077E+002
+3.56237061770E+007, +2.45060515655E+000, +4.02556199875E+002
+3.57904841402E+007, +2.67220056552E+000, +4.04177673930E+002
+3.59572621035E+007, +2.81899609430E+000, +4.07197537801E+002
+3.61240400668E+007, +2.67110895148E+000, +4.10175989128E+002
+3.62908180301E+007, +1.95358394492E+000, +4.13072654968E+002
+3.64575959933E+007, +2.51798860280E+000, +4.15040724925E+002
+3.66243739566E+007, +2.49555247846E+000, +4.16728002792E+002
+3.67911519199E+007, +2.66869668873E+000, +4.20220632079E+002
+3.69579298831E+007, +2.41830612083E+000, +4.22392377086E+002
+3.71247078464E+007, +2.37258798087E+000, +4.25678614993E+002
+3.72914858097E+007, +2.95705869069E+000, +4.28651326795E+002
+3.74582637730E+007, +2.96668084161E+000, +4.32449901621E+002
+3.76250417362E+007, +3.12833909140E+000, +4.33897209329E+002
+3.77918196995E+007, +2.73385129598E+000, +4.36371233182E+002
+3.79585976628E+007, +2.55047510862E+000, +4.39226222769E+002
+3.81253756260E+007, +2.57629248869E+000, +4.42250280998E+002
+3.82921535893E+007, +3.68358766474E+000, +4.45075649427E+002
+3.84589315526E+007, +2.62046312572E+000, +4.47224970496E+002
+3.86257095159E+007, +2.32214302569E+000, +4.50673376542E+002
+3.87924874791E+007, +2.97293008690E+000, +4.53895061575E+002
+3.89592654424E+007, +3.31613656857E+000, +4.55197175393E+002
+3.91260434057E+007, +3.11024690571E+000, +4.59288500194E+002
+3.92928213689E+007, +3.31471320796E+000, +4.61732406434E+002
+3.94595993322E+007, +2.92105973929E+000, +4.65247562136E+002
+3.96263772955E+007, +2.77991937789E+000, +4.68393583637E+002
+3.97931552588E+007, +2.58119303886E+000, +4.70823824946E+002
+3.99599332220E+007, +3.61799484054E+000, +4.74187777372E+002
+4.01267111853E+007, +3.57400237383E+000, +4.77317907861E+002
+4.02934891486E+007, +2.22134160050E+000, +4.79657845428E+002
+4.04602671119E+007, +3.93274991073E+000, +4.83524006763E+002
+4.06270450751E+007, +3.75803026232E+000, +4.86694616150E+002
+4.07938230384E+007, +2.93000261493E+000, +4.89511980318E+002
+4.09606010017E+007, +3.26193999723E+000, +4.92134324711E+002
+4.11273789649E+007, +3.76840266967E+000, +4.94035697600E+002
+4.12941569282E+007, +2.56014770755E+000, +4.97559969473E+002
+4.14609348915E+007, +3.32658341981E+000, +5.01713605715E+002
+4.16277128548E+007, +4.40226409822E+000, +5.04579830331E+002
+4.17944908180E+007, +4.84549898874E+000, +5.07070994142E+002
+4.19612687813E+007, +3.74555382287E+000, +5.10071218499E+002
+4.21280467446E+007, +3.25376959722E+000, +5.14764451513E+002
+4.22948247078E+007, +3.99819095917E+000, +5.17689662206E+002
+4.24616026711E+007, +5.68191305070E+000, +5.20442813598E+002
+4.26283806344E+007, +4.28464182692E+000, +5.25235119962E+002
+4.27951585977E+007, +3.29020388563E+000, +5.28180046117E+002
+4.29619365609E+007, +4.86280829836E+000, +5.32149939960E+002
+4.31287145242E+007, +4.76755645113E+000, +5.34777633330E+002
+4.32954924875E+007, +5.63003085515E+000, +5.37632891841E+002
+4.34622704508E+007, +3.21909877167E+000, +5.42126992818E+002
+4.36290484140E+007, +5.94026478785E+000, +5.45220675274E+002
+4.37958263773E+007, +4.17546606754E+000, +5.48534502102E+002
+4.39626043406E+007, +5.15755282108E+000, +5.51674634502E+002
+4.41293823038E+007, +4.83924109139E+000, +5.57018240824E+002
+4.42961602671E+007, +3.91129272383E+000, +5.58332893959E+002
+4.44629382304E+007, +3.35758121894E+000, +5.62923198453E+002
+4.46297161937E+007, +5.36102185764E+000, +5.66784025540E+002
+4.47964941569E+007, +4.15564280775E+000, +5.69875968271E+002
+4.49632721202E+007, +3.61518215852E+000, +5.74864375324E+002
+4.51300500835E+007, +4.62894601357E+000, +5.77770581023E+002
+4.52968280467E+007, +7.52204603284E+000, +5.81444102567E+002
+4.54636060100E+007, +6.86661702177E+000, +5.86698565080E+002
+4.56303839733E+007, +5.00177465026E+000, +5.90056059960E+002
+4.57971619366E+007, +4.62738270060E+000, +5.93435085576E+002
+4.59639398998E+007, +4.30725050074E+000, +5.98643764297E+002
+4.61307178631E+007, +5.77501641952E+000, +6.02520432565E+002
+4.62974958264E+007, +7.52592423492E+000, +6.06348909878E+002
+4.64642737896E+007, +5.37090686951E+000, +6.09866992136E+002
+4.66310517529E+007, +5.16859086821E+000, +6.15231204760E+002
+4.67978297162E+007, +8.07640332566E+000, +6.16366003238E+002
+4.69646076795E+007, +6.71079305056E+000, +6.23826992190E+002
+4.71313856427E+007, +7.64460099123E+000, +6.25797345548E+002
+4.72981636060E+007, +8.67532311454E+000, +6.32128232936E+002
+4.74649415693E+007, +6.73008235067E+000, +6.35044735447E+002
+4.76317195326E+007, +9.53991356949E+000, +6.40776356731E+002
+4.77984974958E+007, +9.02204858818E+000, +6.46327146125E+002
+4.79652754591E+007, +9.81204275122E+000, +6.47875697499E+002
+4.81320534224E+007, +1.01456420007E+001, +6.53318792479E+002
+4.82988313856E+007, +8.87519103504E+000, +6.58825732775E+002
+4.84656093489E+007, +1.02478395409E+001, +6.62202167422E+002
+4.86323873122E+007, +1.03007700361E+001, +6.67399132775E+002
+4.87991652755E+007, +1.15564450464E+001, +6.71899990227E+002
+4.89659432387E+007, +1.20023717903E+001, +6.75609724373E+002
+4.91327212020E+007, +1.47095836346E+001, +6.80051279922E+002
+4.92994991653E+007, +1.45813613267E+001, +6.84122744537E+002
+4.94662771285E+007, +1.46488071408E+001, +6.89244759102E+002
+4.96330550918E+007, +1.66817525020E+001, +6.93059055104E+002
+4.97998330551E+007, +1.55381835346E+001, +6.96348764366E+002
+4.99666110184E+007, +1.72799183436E+001, +7.02952993365E+002
+5.01333889816E+007, +1.71229604628E+001, +7.07520172891E+002
+5.03001669449E+007, +1.69930196795E+001, +7.09872567972E+002
+5.04669449082E+007, +1.76229683539E+001, +7.16716118198E+002
+5.06337228715E+007, +1.97656777387E+001, +7.23077475490E+002
+5.08005008347E+007, +1.72152480932E+001, +7.23756092999E+002
+5.09672787980E+007, +1.96804407179E+001, +7.29366335564E+002
+5.11340567613E+007, +1.93609940776E+001, +7.36063075294E+002
+5.13008347245E+007, +1.78586028845E+001, +7.39055112807E+002
+5.14676126878E+007, +1.70980113224E+001, +7.43881538057E+002
+5.16343906511E+007, +1.97592235749E+001, +7.50501433545E+002
+5.18011686144E+007, +1.78619761493E+001, +7.53921015864E+002
+5.19679465776E+007, +1.79317312736E+001, +7.59784059248E+002
+5.21347245409E+007, +1.99538764372E+001, +7.65216824587E+002
+5.23015025042E+007, +1.90469065288E+001, +7.74058304789E+002
+5.24682804674E+007, +1.46647858190E+001, +7.76762084335E+002
+5.26350584307E+007, +1.90070095583E+001, +7.84573734235E+002
+5.28018363940E+007, +1.52164064955E+001, +7.93039458002E+002
+5.29686143573E+007, +1.75936890551E+001, +7.97529146676E+002
+5.31353923205E+007, +1.78126599580E+001, +8.00356210210E+002
+5.33021702838E+007, +1.63687003311E+001, +8.07687983709E+002
+5.34689482471E+007, +1.92146168778E+001, +8.17354121601E+002
