"# Channel 1"
"# Trace 1"
Frequency, Formatted Data, Formatted Data
+1.00000000000E+005, +6.11656420989E+001, +1.48953589828E+000
+3.18898623279E+005, +6.12472937773E+001, +3.44160999465E+000
+5.37797246558E+005, +6.13239420199E+001, +5.92778433164E+000
+7.56695869837E+005, +6.13282365982E+001, +8.31155113523E+000
+9.75594493116E+005, +6.13521942463E+001, +1.06474000189E+001
+1.19449311640E+006, +6.12217107887E+001, +1.29494016667E+001
+1.41339173967E+006, +6.12266146051E+001, +1.54021500919E+001
+1.63229036295E+006, +6.13462933988E+001, +1.77853811435E+001
+1.85118898623E+006, +6.12997094289E+001, +2.02916798270E+001
+2.07008760951E+006, +6.12657589534E+001, +2.26303251950E+001
+2.28898623279E+006, +6.14780591963E+001, +2.51917775933E+001
+2.50788485607E+006, +6.15123811383E+001, +2.73795115418E+001
+2.72678347935E+006, +6.13517963861E+001, +2.99212843330E+001
+2.94568210263E+006, +6.14465721585E+001, +3.22829881048E+001
+3.16458072591E+006, +6.12215130946E+001, +3.48540446686E+001
+3.38347934919E+006, +6.15207323964E+001, +3.71610583196E+001
+3.60237797247E+006, +6.15192245967E+001, +3.94646089576E+001
+3.82127659574E+006, +6.14640348054E+001, +4.17037825233E+001
+4.04017521902E+006, +6.16675600453E+001, +4.41852224738E+001
+4.25907384230E+006, +6.14968721800E+001, +4.64760076541E+001
+4.47797246558E+006, +6.15552880271E+001, +4.90217546027E+001
+4.69687108886E+006, +6.15285184269E+001, +5.13414022336E+001
+4.91576971214E+006, +6.15223055614E+001, +5.37863260521E+001
+5.13466833542E+006, +6.16020433530E+001, +5.62125762526E+001
+5.35356695870E+006, +6.16470607482E+001, +5.86590720192E+001
+5.57246558198E+006, +6.16074056364E+001, +6.09392835885E+001
+5.79136420526E+006, +6.19007448658E+001, +6.35614910237E+001
+6.01026282854E+006, +6.18950655338E+001, +6.56546840947E+001
+6.22916145181E+006, +6.18076205102E+001, +6.82515039244E+001
+6.44806007509E+006, +6.18414793644E+001, +7.05197522469E+001
+6.66695869837E+006, +6.20159696215E+001, +7.30665224437E+001
+6.88585732165E+006, +6.20074469477E+001, +7.55294961058E+001
+7.10475594493E+006, +6.20612974804E+001, +7.77670105731E+001
+7.32365456821E+006, +6.21301257952E+001, +8.02628681363E+001
+7.54255319149E+006, +6.21630235654E+001, +8.25548093257E+001
+7.76145181477E+006, +6.23881145863E+001, +8.50619817850E+001
+7.98035043805E+006, +6.24202404192E+001, +8.75014534267E+001
+8.19924906133E+006, +6.22078321652E+001, +8.98235611032E+001
+8.41814768461E+006, +6.24196100140E+001, +9.22520206413E+001
+8.63704630788E+006, +6.23663898579E+001, +9.46063879824E+001
+8.85594493116E+006, +6.25765100568E+001, +9.70397937905E+001
+9.07484355444E+006, +6.25152581092E+001, +9.96254898318E+001
+9.29374217772E+006, +6.26653622166E+001, +1.02082950211E+002
+9.51264080100E+006, +6.26874095327E+001, +1.04326292564E+002
+9.73153942428E+006, +6.27126804024E+001, +1.06917494432E+002
+9.95043804756E+006, +6.26355927416E+001, +1.09155891712E+002
+1.01693366708E+007, +6.28966183750E+001, +1.11709152304E+002
+1.03882352941E+007, +6.29295239664E+001, +1.13977282903E+002
+1.06071339174E+007, +6.28205210282E+001, +1.16535956730E+002
+1.08260325407E+007, +6.29263279801E+001, +1.19067223478E+002
+1.10449311640E+007, +6.30635737748E+001, +1.21361675845E+002
+1.12638297872E+007, +6.30315348471E+001, +1.23862498318E+002
+1.14827284105E+007, +6.31880514759E+001, +1.26280076462E+002
+1.17016270338E+007, +6.33001814534E+001, +1.28721823289E+002
+1.19205256571E+007, +6.32503271285E+001, +1.31141673846E+002
+1.21394242804E+007, +6.34116324784E+001, +1.33520983317E+002
+1.23583229036E+007, +6.35464047244E+001, +1.36262698195E+002
+1.25772215269E+007, +6.34481130958E+001, +1.38514043138E+002
+1.27961201502E+007, +6.36641567422E+001, +1.40968486091E+002
+1.30150187735E+007, +6.36364973994E+001, +1.43433458464E+002
+1.32339173967E+007, +6.37978991454E+001, +1.46049171169E+002
+1.34528160200E+007, +6.36289306528E+001, +1.48506287768E+002
+1.36717146433E+007, +6.37972355887E+001, +1.50877171160E+002
+1.38906132666E+007, +6.39645686696E+001, +1.53471377443E+002
+1.41095118899E+007, +6.41021050088E+001, +1.55967525080E+002
+1.43284105131E+007, +6.41348154144E+001, +1.58566704246E+002
+1.45473091364E+007, +6.42777667959E+001, +1.61086753089E+002
+1.47662077597E+007, +6.43117969090E+001, +1.63305667987E+002
+1.49851063830E+007, +6.45563492685E+001, +1.65928148078E+002
+1.52040050063E+007, +6.44442555276E+001, +1.68782390153E+002
+1.54229036295E+007, +6.46761046153E+001, +1.70994891676E+002
+1.56418022528E+007, +6.43050261300E+001, +1.73670964503E+002
+1.58607008761E+007, +6.46435560038E+001, +1.76195146837E+002
+1.60795994994E+007, +6.49455236557E+001, +1.78732419415E+002
+1.62984981227E+007, +6.48727913725E+001, +1.81110625539E+002
+1.65173967459E+007, +6.49602201351E+001, +1.83570515434E+002
+1.67362953692E+007, +6.49883836099E+001, +1.86288497778E+002
+1.69551939925E+007, +6.52071258645E+001, +1.88550337031E+002
+1.71740926158E+007, +6.51735650883E+001, +1.91449529839E+002
+1.73929912390E+007, +6.50542369907E+001, +1.93866382920E+002
+1.76118898623E+007, +6.53692207185E+001, +1.96342463922E+002
+1.78307884856E+007, +6.55011451968E+001, +1.98831639594E+002
+1.80496871089E+007, +6.57167555570E+001, +2.01577337279E+002
+1.82685857322E+007, +6.57745521422E+001, +2.04171741568E+002
+1.84874843554E+007, +6.58496908032E+001, +2.06690719142E+002
+1.87063829787E+007, +6.59906342096E+001, +2.09282477800E+002
+1.89252816020E+007, +6.58396887336E+001, +2.12177314497E+002
+1.91441802253E+007, +6.62655711883E+001, +2.14374760879E+002
+1.93630788486E+007, +6.59665082289E+001, +2.17171729698E+002
+1.95819774718E+007, +6.68525020721E+001, +2.19400399428E+002
+1.98008760951E+007, +6.67559600798E+001, +2.22256893025E+002
+2.00197747184E+007, +6.66636344792E+001, +2.24831831420E+002
+2.02386733417E+007, +6.68585048097E+001, +2.27345561063E+002
+2.04575719650E+007, +6.68406639104E+001, +2.30013362854E+002
+2.06764705882E+007, +6.69563709955E+001, +2.32819251371E+002
+2.08953692115E+007, +6.72333077407E+001, +2.35402060836E+002
+2.11142678348E+007, +6.75658538769E+001, +2.37798960841E+002
+2.13331664581E+007, +6.75023828111E+001, +2.41107330207E+002
+2.15520650814E+007, +6.76637482026E+001, +2.43023675880E+002
+2.17709637046E+007, +6.76486092991E+001, +2.46032449629E+002
+2.19898623279E+007, +6.80228210524E+001, +2.48751689715E+002
+2.22087609512E+007, +6.78466496992E+001, +2.51009914998E+002
+2.24276595745E+007, +6.87940191628E+001, +2.54369115880E+002
+2.26465581977E+007, +6.84286731617E+001, +2.56685314721E+002
+2.28654568210E+007, +6.90254737188E+001, +2.59086108301E+002
+2.30843554443E+007, +6.86479669731E+001, +2.62047843360E+002
+2.33032540676E+007, +6.94660259913E+001, +2.64454734554E+002
+2.35221526909E+007, +6.91553132145E+001, +2.67520681766E+002
+2.37410513141E+007, +6.95085584094E+001, +2.69461659191E+002
+2.39599499374E+007, +6.88749106650E+001, +2.72562273761E+002
+2.41788485607E+007, +6.95713341028E+001, +2.74981452167E+002
+2.43977471840E+007, +6.98391770641E+001, +2.78165585128E+002
+2.46166458073E+007, +7.00412584728E+001, +2.81122533855E+002
+2.48355444305E+007, +6.99829371096E+001, +2.83457016826E+002
+2.50544430538E+007, +7.08172269791E+001, +2.86313393054E+002
+2.52733416771E+007, +7.09091639656E+001, +2.89245981626E+002
+2.54922403004E+007, +7.05892237929E+001, +2.92255205455E+002
+2.57111389237E+007, +7.08553722574E+001, +2.94498724649E+002
+2.59300375469E+007, +7.07216779451E+001, +2.97079328139E+002
+2.61489361702E+007, +7.10059353650E+001, +2.99834012762E+002
+2.63678347935E+007, +7.09683390490E+001, +3.03234153381E+002
+2.65867334168E+007, +7.19536813702E+001, +3.05385621915E+002
+2.68056320401E+007, +7.18273682006E+001, +3.08702855079E+002
+2.70245306633E+007, +7.15836601258E+001, +3.11249839812E+002
+2.72434292866E+007, +7.17098123385E+001, +3.13995434544E+002
+2.74623279099E+007, +7.22229201005E+001, +3.16918140566E+002
+2.76812265332E+007, +7.21789826190E+001, +3.19914011914E+002
+2.79001251564E+007, +7.29060908448E+001, +3.23045387455E+002
+2.81190237797E+007, +7.27973783009E+001, +3.24947378321E+002
+2.83379224030E+007, +7.31378540219E+001, +3.27883866344E+002
+2.85568210263E+007, +7.24406499981E+001, +3.31091613149E+002
+2.87757196496E+007, +7.27857360536E+001, +3.34736406357E+002
+2.89946182728E+007, +7.35210635652E+001, +3.37853267836E+002
+2.92135168961E+007, +7.29250055059E+001, +3.40415487447E+002
+2.94324155194E+007, +7.39856230862E+001, +3.43222135797E+002
+2.96513141427E+007, +7.36744967117E+001, +3.45923339813E+002
+2.98702127660E+007, +7.38793910133E+001, +3.48329729453E+002
+3.00891113892E+007, +7.40339228686E+001, +3.52111272749E+002
+3.03080100125E+007, +7.43454582838E+001, +3.54890016241E+002
+3.05269086358E+007, +7.50745026000E+001, +3.57525643700E+002
+3.07458072591E+007, +7.50259220326E+001, +3.60403933049E+002
+3.09647058824E+007, +7.52102396915E+001, +3.63700132191E+002
+3.11836045056E+007, +7.52417116498E+001, +3.66504166770E+002
+3.14025031289E+007, +7.50093536028E+001, +3.68962532956E+002
+3.16214017522E+007, +7.55511088874E+001, +3.72046853802E+002
+3.18403003755E+007, +7.51360872008E+001, +3.76752350220E+002
+3.20591989987E+007, +7.55975917189E+001, +3.78786827140E+002
+3.22780976220E+007, +7.65499203629E+001, +3.81939579291E+002
+3.24969962453E+007, +7.62744129643E+001, +3.85441230165E+002
+3.27158948686E+007, +7.61974698586E+001, +3.87414826739E+002
+3.29347934919E+007, +7.65544611985E+001, +3.90872487817E+002
+3.31536921151E+007, +7.69996910695E+001, +3.93046875619E+002
+3.33725907384E+007, +7.74389243896E+001, +3.97902000907E+002
+3.35914893617E+007, +7.72088915026E+001, +4.00771726329E+002
+3.38103879850E+007, +7.66880756835E+001, +4.03669645448E+002
+3.40292866083E+007, +7.66130658975E+001, +4.07290494462E+002
+3.42481852315E+007, +7.92955663840E+001, +4.10414583272E+002
+3.44670838548E+007, +7.84343764995E+001, +4.13114843289E+002
+3.46859824781E+007, +7.89260244903E+001, +4.16157532974E+002
+3.49048811014E+007, +8.07002980092E+001, +4.19810325341E+002
+3.51237797247E+007, +8.01369170538E+001, +4.22866789175E+002
+3.53426783479E+007, +7.95490503505E+001, +4.26284176269E+002
+3.55615769712E+007, +8.01572901005E+001, +4.29413033513E+002
+3.57804755945E+007, +8.09270510840E+001, +4.31288827986E+002
+3.59993742178E+007, +8.02374835606E+001, +4.36062869884E+002
+3.62182728411E+007, +8.06897471739E+001, +4.38173556289E+002
+3.64371714643E+007, +8.19931297751E+001, +4.41515896166E+002
+3.66560700876E+007, +8.17544356231E+001, +4.45778649669E+002
+3.68749687109E+007, +8.23641753127E+001, +4.49641259657E+002
+3.70938673342E+007, +8.29500175380E+001, +4.52242244287E+002
+3.73127659574E+007, +8.28666951663E+001, +4.55630964863E+002
+3.75316645807E+007, +8.19443733882E+001, +4.58522254601E+002
+3.77505632040E+007, +8.27695994615E+001, +4.62862331155E+002
+3.79694618273E+007, +8.37496081254E+001, +4.65839845070E+002
+3.81883604506E+007, +8.33425608900E+001, +4.69815187081E+002
+3.84072590738E+007, +8.43352673311E+001, +4.73078620371E+002
+3.86261576971E+007, +8.40493594482E+001, +4.75362424809E+002
+3.88450563204E+007, +8.51238280535E+001, +4.79600415420E+002
+3.90639549437E+007, +8.65502557654E+001, +4.82264981141E+002
+3.92828535670E+007, +8.54861172603E+001, +4.86722247676E+002
+3.95017521902E+007, +8.61936878141E+001, +4.89171326619E+002
+3.97206508135E+007, +8.59489336387E+001, +4.94617954350E+002
+3.99395494368E+007, +8.65119166047E+001, +4.97203174616E+002
+4.01584480601E+007, +8.74461288344E+001, +5.00130036259E+002
+4.03773466834E+007, +8.78867646051E+001, +5.05852009457E+002
+4.05962453066E+007, +8.70928794810E+001, +5.09585896740E+002
+4.08151439299E+007, +8.84808692555E+001, +5.11491643958E+002
+4.10340425532E+007, +8.79597740552E+001, +5.14845207478E+002
+4.12529411765E+007, +8.84994761248E+001, +5.18218102995E+002
+4.14718397997E+007, +8.85637726456E+001, +5.22144095764E+002
+4.16907384230E+007, +8.95841747793E+001, +5.25780024730E+002
+4.19096370463E+007, +9.07999209459E+001, +5.28669593985E+002
+4.21285356696E+007, +8.91491154519E+001, +5.34166956034E+002
+4.23474342929E+007, +9.00833108304E+001, +5.36667614750E+002
+4.25663329161E+007, +9.21364406691E+001, +5.39752985832E+002
+4.27852315394E+007, +9.12401677283E+001, +5.44682154783E+002
+4.30041301627E+007, +9.27122871463E+001, +5.47610387902E+002
+4.32230287860E+007, +9.29445204415E+001, +5.51882138122E+002
+4.34419274093E+007, +9.28969964998E+001, +5.57104844109E+002
+4.36608260325E+007, +9.27767956638E+001, +5.60009762953E+002
+4.38797246558E+007, +9.33270432312E+001, +5.63031808992E+002
+4.40986232791E+007, +9.30416238242E+001, +5.67998733484E+002
+4.43175219024E+007, +9.37885166882E+001, +5.72122365030E+002
+4.45364205257E+007, +9.58961347188E+001, +5.76844697781E+002
+4.47553191489E+007, +9.63018589125E+001, +5.79642834493E+002
+4.49742177722E+007, +9.61581552910E+001, +5.84832134519E+002
+4.51931163955E+007, +9.75657854965E+001, +5.88876702415E+002
+4.54120150188E+007, +9.70677003967E+001, +5.92358814930E+002
+4.56309136421E+007, +9.80191605533E+001, +5.96303710822E+002
+4.58498122653E+007, +9.90666729336E+001, +5.98258537799E+002
+4.60687108886E+007, +9.81681748027E+001, +6.05635390289E+002
+4.62876095119E+007, +9.88607326623E+001, +6.09021518034E+002
+4.65065081352E+007, +1.02081739676E+002, +6.11616016633E+002
+4.67254067584E+007, +1.00560425473E+002, +6.16129974044E+002
+4.69443053817E+007, +1.01399367394E+002, +6.18315311186E+002
+4.71632040050E+007, +1.00131968940E+002, +6.25589559743E+002
+4.73821026283E+007, +1.01060575677E+002, +6.28727923900E+002
+4.76010012516E+007, +1.02474324062E+002, +6.32989610903E+002
+4.78198998748E+007, +1.01624910598E+002, +6.36600368457E+002
+4.80387984981E+007, +1.04052344339E+002, +6.43203711828E+002
+4.82576971214E+007, +1.03984612118E+002, +6.45979604408E+002
+4.84765957447E+007, +1.05007427440E+002, +6.50014394418E+002
+4.86954943680E+007, +1.05960872926E+002, +6.53184215089E+002
+4.89143929912E+007, +1.06640911622E+002, +6.59791779024E+002
+4.91332916145E+007, +1.05611166815E+002, +6.62359650447E+002
+4.93521902378E+007, +1.06391511310E+002, +6.66407244151E+002
+4.95710888611E+007, +1.11133572906E+002, +6.71134136656E+002
+4.97899874844E+007, +1.08319263216E+002, +6.73819492899E+002
+5.00088861076E+007, +1.06855457201E+002, +6.80678502824E+002
+5.02277847309E+007, +1.10610794752E+002, +6.86664272561E+002
+5.04466833542E+007, +1.11621379471E+002, +6.89392886536E+002
+5.06655819775E+007, +1.11889688726E+002, +6.93790794871E+002
+5.08844806008E+007, +1.12640031632E+002, +7.00058782973E+002
+5.11033792240E+007, +1.11546107113E+002, +7.05077317934E+002
+5.13222778473E+007, +1.11830333575E+002, +7.09315276240E+002
+5.15411764706E+007, +1.13224115924E+002, +7.14160813379E+002
+5.17600750939E+007, +1.14528082602E+002, +7.19722430067E+002
+5.19789737171E+007, +1.15761216349E+002, +7.24472525585E+002
+5.21978723404E+007, +1.15649310523E+002, +7.30278180475E+002
+5.24167709637E+007, +1.12070535445E+002, +7.34453435120E+002
+5.26356695870E+007, +1.19505946966E+002, +7.36335069906E+002
+5.28545682103E+007, +1.18512094462E+002, +7.42135444273E+002
+5.30734668335E+007, +1.18613209262E+002, +7.49831163332E+002
+5.32923654568E+007, +1.18132472830E+002, +7.54929678173E+002
+5.35112640801E+007, +1.20892942248E+002, +7.57256472703E+002
+5.37301627034E+007, +1.20254676575E+002, +7.61736546466E+002
+5.39490613267E+007, +1.23958634116E+002, +7.69528656821E+002
+5.41679599499E+007, +1.22014508594E+002, +7.74435504464E+002
+5.43868585732E+007, +1.22476664091E+002, +7.80701847663E+002
+5.46057571965E+007, +1.23300027785E+002, +7.85054292212E+002
+5.48246558198E+007, +1.26429904491E+002, +7.89336805894E+002
+5.50435544431E+007, +1.25974592944E+002, +8.00066703885E+002
+5.52624530663E+007, +1.28348768518E+002, +8.06852225967E+002
+5.54813516896E+007, +1.29277297180E+002, +8.06926433728E+002
+5.57002503129E+007, +1.32355098970E+002, +8.10578045569E+002
+5.59191489362E+007, +1.29655897401E+002, +8.18695716595E+002
+5.61380475594E+007, +1.32484121949E+002, +8.24419514948E+002
+5.63569461827E+007, +1.33930264293E+002, +8.33993517745E+002
+5.65758448060E+007, +1.35640502963E+002, +8.36362169637E+002
+5.67947434293E+007, +1.36798963856E+002, +8.42003648494E+002
+5.70136420526E+007, +1.36501878134E+002, +8.47436077866E+002
+5.72325406758E+007, +1.37074231609E+002, +8.54281824257E+002
+5.74514392991E+007, +1.36758654101E+002, +8.56719485660E+002
+5.76703379224E+007, +1.39992976088E+002, +8.63881379543E+002
+5.78892365457E+007, +1.38737339009E+002, +8.70193502803E+002
+5.81081351690E+007, +1.48796356562E+002, +8.80880818273E+002
+5.83270337922E+007, +1.39536621970E+002, +8.87094668869E+002
+5.85459324155E+007, +1.47853044838E+002, +8.89141826370E+002
+5.87648310388E+007, +1.45653726721E+002, +8.95851356881E+002
+5.89837296621E+007, +1.47442155970E+002, +9.02733009244E+002
+5.92026282854E+007, +1.51865006779E+002, +9.08718692277E+002
+5.94215269086E+007, +1.50064796438E+002, +9.15619323275E+002
+5.96404255319E+007, +1.49281321554E+002, +9.25937006335E+002
+5.98593241552E+007, +1.54237138021E+002, +9.30556320702E+002
+6.00782227785E+007, +1.53649547700E+002, +9.36516046446E+002
+6.02971214018E+007, +1.58725373770E+002, +9.43020063893E+002
+6.05160200250E+007, +1.55290494893E+002, +9.48565283005E+002
+6.07349186483E+007, +1.59953058703E+002, +9.53693036880E+002
+6.09538172716E+007, +1.58232255025E+002, +9.64464267919E+002
+6.11727158949E+007, +1.66553613833E+002, +9.72031748470E+002
+6.13916145181E+007, +1.59939739070E+002, +9.79314101081E+002
+6.16105131414E+007, +1.60347961315E+002, +9.83057671100E+002
+6.18294117647E+007, +1.68509621268E+002, +9.90072219424E+002
+6.20483103880E+007, +1.61880497651E+002, +9.98462641225E+002
+6.22672090113E+007, +1.68105542886E+002, +1.00903340553E+003
+6.24861076345E+007, +1.77167340619E+002, +1.01244204805E+003
+6.27050062578E+007, +1.78353918874E+002, +1.02218738133E+003
+6.29239048811E+007, +1.69901381625E+002, +1.03249025258E+003
+6.31428035044E+007, +1.75653030833E+002, +1.03987294552E+003
+6.33617021277E+007, +1.86000609965E+002, +1.04691947201E+003
+6.35806007509E+007, +1.81870493081E+002, +1.05890592781E+003
+6.37994993742E+007, +1.83908533375E+002, +1.06763680099E+003
+6.40183979975E+007, +1.88759362438E+002, +1.06533981684E+003
+6.42372966208E+007, +1.87524445972E+002, +1.07872498184E+003
+6.44561952441E+007, +1.90582315064E+002, +1.08694498178E+003
+6.46750938673E+007, +1.94397586020E+002, +1.09941143522E+003
+6.48939924906E+007, +1.94267395357E+002, +1.11003790155E+003
+6.51128911139E+007, +1.97839427115E+002, +1.12033554067E+003
+6.53317897372E+007, +2.05056868797E+002, +1.12156442863E+003
+6.55506883605E+007, +2.06528041393E+002, +1.13607708104E+003
+6.57695869837E+007, +2.10141442779E+002, +1.14224249724E+003
+6.59884856070E+007, +2.15322065743E+002, +1.15029419547E+003
+6.62073842303E+007, +2.15253492263E+002, +1.15914416930E+003
+6.64262828536E+007, +2.16940663691E+002, +1.16637741357E+003
+6.66451814768E+007, +2.20457109003E+002, +1.17187926909E+003
+6.68640801001E+007, +2.21789347936E+002, +1.18452000685E+003
+6.70829787234E+007, +2.24459984124E+002, +1.19201481698E+003
+6.73018773467E+007, +2.33719436021E+002, +1.19743707505E+003
+6.75207759700E+007, +2.40273916381E+002, +1.20970112375E+003
+6.77396745932E+007, +2.39845343826E+002, +1.21641135993E+003
+6.79585732165E+007, +2.50173733238E+002, +1.22806771000E+003
+6.81774718398E+007, +2.39698198321E+002, +1.25055084539E+003
+6.83963704631E+007, +2.42770488051E+002, +1.24747041404E+003
+6.86152690864E+007, +2.57943919798E+002, +1.26082458173E+003
+6.88341677096E+007, +2.61428034701E+002, +1.26620334602E+003
+6.90530663329E+007, +2.64279917738E+002, +1.28035451661E+003
+6.92719649562E+007, +2.76013945432E+002, +1.28754206637E+003
+6.94908635795E+007, +2.69459475878E+002, +1.29921288124E+003
+6.97097622028E+007, +2.66581429315E+002, +1.30902913702E+003
+6.99286608260E+007, +2.83668445575E+002, +1.33080802774E+003
+7.01475594493E+007, +2.79578448840E+002, +1.33071988898E+003
