"# Channel 1"
"# Trace 1"
Frequency, Formatted Data, Formatted Data
+1.00000000000E+005, +6.30618001101E+001, +1.61189977549E+000
+3.18898623279E+005, +6.31102723538E+001, +4.00980426278E+000
+5.37797246558E+005, +6.31850442205E+001, +6.86100700871E+000
+7.56695869837E+005, +6.31617926121E+001, +9.58204682978E+000
+9.75594493116E+005, +6.31853667827E+001, +1.23481429895E+001
+1.19449311640E+006, +6.31942593596E+001, +1.50068032849E+001
+1.41339173967E+006, +6.30682915048E+001, +1.78401193804E+001
+1.63229036295E+006, +6.31783290797E+001, +2.05859366658E+001
+1.85118898623E+006, +6.31533181482E+001, +2.34180226024E+001
+2.07008760951E+006, +6.32845279923E+001, +2.61910223091E+001
+2.28898623279E+006, +6.32385943052E+001, +2.90656144691E+001
+2.50788485607E+006, +6.33299411409E+001, +3.17171191929E+001
+2.72678347935E+006, +6.31348778349E+001, +3.45258212921E+001
+2.94568210263E+006, +6.33516658829E+001, +3.72410078153E+001
+3.16458072591E+006, +6.31913682068E+001, +4.02407233685E+001
+3.38347934919E+006, +6.34672677108E+001, +4.29284447685E+001
+3.60237797247E+006, +6.33532224324E+001, +4.55267549388E+001
+3.82127659574E+006, +6.32954798811E+001, +4.82431179543E+001
+4.04017521902E+006, +6.36226487856E+001, +5.12196724482E+001
+4.25907384230E+006, +6.33348883587E+001, +5.39176606623E+001
+4.47797246558E+006, +6.35656936057E+001, +5.68150350972E+001
+4.69687108886E+006, +6.34257581693E+001, +5.94802912205E+001
+4.91576971214E+006, +6.34694712522E+001, +6.23225341090E+001
+5.13466833542E+006, +6.34215185255E+001, +6.51552925053E+001
+5.35356695870E+006, +6.36584529074E+001, +6.79222016562E+001
+5.57246558198E+006, +6.36076026700E+001, +7.05484743054E+001
+5.79136420526E+006, +6.37670729316E+001, +7.35727308389E+001
+6.01026282854E+006, +6.38120964155E+001, +7.60994076765E+001
+6.22916145181E+006, +6.39141931041E+001, +7.90548282335E+001
+6.44806007509E+006, +6.38107161209E+001, +8.17263888192E+001
+6.66695869837E+006, +6.40125618013E+001, +8.45648508882E+001
+6.88585732165E+006, +6.40124010805E+001, +8.74695800604E+001
+7.10475594493E+006, +6.40669498744E+001, +9.01498997446E+001
+7.32365456821E+006, +6.41522795752E+001, +9.29670200731E+001
+7.54255319149E+006, +6.41667207855E+001, +9.56199244957E+001
+7.76145181477E+006, +6.43538479652E+001, +9.85404250535E+001
+7.98035043805E+006, +6.44074820473E+001, +1.01396450721E+002
+8.19924906133E+006, +6.43860378180E+001, +1.04097335521E+002
+8.41814768461E+006, +6.45910510900E+001, +1.06920221806E+002
+8.63704630788E+006, +6.44389096445E+001, +1.09742084274E+002
+8.85594493116E+006, +6.46663297701E+001, +1.12522843979E+002
+9.07484355444E+006, +6.46056513063E+001, +1.15434426116E+002
+9.29374217772E+006, +6.48590972088E+001, +1.18252738378E+002
+9.51264080100E+006, +6.48536229823E+001, +1.20958738579E+002
+9.73153942428E+006, +6.49315322782E+001, +1.23980613977E+002
+9.95043804756E+006, +6.47715016831E+001, +1.26512575490E+002
+1.01693366708E+007, +6.49768704544E+001, +1.29566129735E+002
+1.03882352941E+007, +6.51328996000E+001, +1.32129347972E+002
+1.06071339174E+007, +6.50914198752E+001, +1.35163575161E+002
+1.08260325407E+007, +6.51862248347E+001, +1.38050898719E+002
+1.10449311640E+007, +6.52525154082E+001, +1.40809205779E+002
+1.12638297872E+007, +6.51962336432E+001, +1.43799696726E+002
+1.14827284105E+007, +6.53908225231E+001, +1.46581350829E+002
+1.17016270338E+007, +6.57145607788E+001, +1.49548621409E+002
+1.19205256571E+007, +6.57404476844E+001, +1.52359703667E+002
+1.21394242804E+007, +6.57224255440E+001, +1.55063247247E+002
+1.23583229036E+007, +6.60184639254E+001, +1.58137322457E+002
+1.25772215269E+007, +6.59039343729E+001, +1.60889575732E+002
+1.27961201502E+007, +6.59066038462E+001, +1.63655851084E+002
+1.30150187735E+007, +6.60046415336E+001, +1.66590655232E+002
+1.32339173967E+007, +6.61577377534E+001, +1.69760170643E+002
+1.34528160200E+007, +6.60014966711E+001, +1.72606892206E+002
+1.36717146433E+007, +6.63424058938E+001, +1.75318903953E+002
+1.38906132666E+007, +6.63423514761E+001, +1.78631780831E+002
+1.41095118899E+007, +6.66649417635E+001, +1.81332031319E+002
+1.43284105131E+007, +6.64985250602E+001, +1.84447461731E+002
+1.45473091364E+007, +6.67173647198E+001, +1.87299267181E+002
+1.47662077597E+007, +6.68717816109E+001, +1.89957790033E+002
+1.49851063830E+007, +6.70847531604E+001, +1.93070738541E+002
+1.52040050063E+007, +6.72344132898E+001, +1.96287702925E+002
+1.54229036295E+007, +6.73940350987E+001, +1.99086734763E+002
+1.56418022528E+007, +6.70200950017E+001, +2.02074214712E+002
+1.58607008761E+007, +6.74096280164E+001, +2.04896563875E+002
+1.60795994994E+007, +6.74924222072E+001, +2.07971671910E+002
+1.62984981227E+007, +6.77905461138E+001, +2.10853523102E+002
+1.65173967459E+007, +6.79209886363E+001, +2.13816456155E+002
+1.67362953692E+007, +6.78337280538E+001, +2.16743048071E+002
+1.69551939925E+007, +6.80148061506E+001, +2.19416488376E+002
+1.71740926158E+007, +6.75034430041E+001, +2.23068867572E+002
+1.73929912390E+007, +6.78276780131E+001, +2.26013420910E+002
+1.76118898623E+007, +6.82646693413E+001, +2.28714544526E+002
+1.78307884856E+007, +6.88091440131E+001, +2.31398109961E+002
+1.80496871089E+007, +6.85804001533E+001, +2.34638609700E+002
+1.82685857322E+007, +6.85895634238E+001, +2.37828430110E+002
+1.84874843554E+007, +6.90809272384E+001, +2.41002033729E+002
+1.87063829787E+007, +6.88687500136E+001, +2.44133908432E+002
+1.89252816020E+007, +6.92336336654E+001, +2.47113956053E+002
+1.91441802253E+007, +6.93542632403E+001, +2.49634369530E+002
+1.93630788486E+007, +6.91721847402E+001, +2.53003461664E+002
+1.95819774718E+007, +6.97689111063E+001, +2.56393653618E+002
+1.98008760951E+007, +6.97390583365E+001, +2.59174439958E+002
+2.00197747184E+007, +6.98504406075E+001, +2.62207572536E+002
+2.02386733417E+007, +6.98999509111E+001, +2.65272228461E+002
+2.04575719650E+007, +7.04215551012E+001, +2.68467104712E+002
+2.06764705882E+007, +7.04393926635E+001, +2.72122090020E+002
+2.08953692115E+007, +7.05104086102E+001, +2.75134233260E+002
+2.11142678348E+007, +7.11966970317E+001, +2.77824129214E+002
+2.13331664581E+007, +7.12343350904E+001, +2.81661033404E+002
+2.15520650814E+007, +7.11875763106E+001, +2.83812982403E+002
+2.17709637046E+007, +7.13584977602E+001, +2.87402070596E+002
+2.19898623279E+007, +7.14973916987E+001, +2.91109226317E+002
+2.22087609512E+007, +7.14565812494E+001, +2.93746136975E+002
+2.24276595745E+007, +7.24483024313E+001, +2.96934256118E+002
+2.26465581977E+007, +7.23918771226E+001, +3.00091787928E+002
+2.28654568210E+007, +7.28712875604E+001, +3.03351842382E+002
+2.30843554443E+007, +7.28491880954E+001, +3.06554213967E+002
+2.33032540676E+007, +7.28512057185E+001, +3.09374925926E+002
+2.35221526909E+007, +7.28418031568E+001, +3.13262751315E+002
+2.37410513141E+007, +7.34838883539E+001, +3.16165189300E+002
+2.39599499374E+007, +7.36658347976E+001, +3.19703687118E+002
+2.41788485607E+007, +7.35180018496E+001, +3.22234062042E+002
+2.43977471840E+007, +7.38863623924E+001, +3.26138603951E+002
+2.46166458073E+007, +7.36820353199E+001, +3.29792583558E+002
+2.48355444305E+007, +7.46406011650E+001, +3.32503198932E+002
+2.50544430538E+007, +7.53716810625E+001, +3.35663026488E+002
+2.52733416771E+007, +7.50550032153E+001, +3.38972267466E+002
+2.54922403004E+007, +7.46417745873E+001, +3.43040369384E+002
+2.57111389237E+007, +7.51750334136E+001, +3.45863675530E+002
+2.59300375469E+007, +7.53491302696E+001, +3.48935878454E+002
+2.61489361702E+007, +7.57590159282E+001, +3.52362922776E+002
+2.63678347935E+007, +7.62388897853E+001, +3.56346669190E+002
+2.65867334168E+007, +7.64591527444E+001, +3.59414889439E+002
+2.68056320401E+007, +7.67817688825E+001, +3.62404845270E+002
+2.70245306633E+007, +7.68304499018E+001, +3.66143034349E+002
+2.72434292866E+007, +7.70378036888E+001, +3.69040416709E+002
+2.74623279099E+007, +7.76853190765E+001, +3.73216800806E+002
+2.76812265332E+007, +7.70664902633E+001, +3.76214597638E+002
+2.79001251564E+007, +7.80765990034E+001, +3.80366299802E+002
+2.81190237797E+007, +7.79048399296E+001, +3.83477848696E+002
+2.83379224030E+007, +7.78384630919E+001, +3.85889147764E+002
+2.85568210263E+007, +7.80491818680E+001, +3.89763987519E+002
+2.87757196496E+007, +7.73070406482E+001, +3.94131268216E+002
+2.89946182728E+007, +7.90929591916E+001, +3.97641966084E+002
+2.92135168961E+007, +7.85562222839E+001, +4.01217567661E+002
+2.94324155194E+007, +7.95629633668E+001, +4.05527620872E+002
+2.96513141427E+007, +7.89979780208E+001, +4.08446892762E+002
+2.98702127660E+007, +7.92575508536E+001, +4.11294403262E+002
+3.00891113892E+007, +7.92575644992E+001, +4.15504124363E+002
+3.03080100125E+007, +8.06927547335E+001, +4.18445945836E+002
+3.05269086358E+007, +8.20814525366E+001, +4.22736144885E+002
+3.07458072591E+007, +8.08761684447E+001, +4.26412247247E+002
+3.09647058824E+007, +8.16791071444E+001, +4.29511363860E+002
+3.11836045056E+007, +8.18833745826E+001, +4.33352961379E+002
+3.14025031289E+007, +8.10976767105E+001, +4.37272172921E+002
+3.16214017522E+007, +8.21296848744E+001, +4.41031167886E+002
+3.18403003755E+007, +8.23619311540E+001, +4.45958612357E+002
+3.20591989987E+007, +8.21115473245E+001, +4.48090008931E+002
+3.22780976220E+007, +8.18797690163E+001, +4.52486930191E+002
+3.24969962453E+007, +8.32225767805E+001, +4.56212261025E+002
+3.27158948686E+007, +8.31076562956E+001, +4.59427153691E+002
+3.29347934919E+007, +8.34400679829E+001, +4.63837330396E+002
+3.31536921151E+007, +8.39132754705E+001, +4.66038896514E+002
+3.33725907384E+007, +8.40785648577E+001, +4.71514897763E+002
+3.35914893617E+007, +8.42664431845E+001, +4.75159787557E+002
+3.38103879850E+007, +8.36318006641E+001, +4.78983821391E+002
+3.40292866083E+007, +8.43704625097E+001, +4.84129489932E+002
+3.42481852315E+007, +8.65349407365E+001, +4.86882255493E+002
+3.44670838548E+007, +8.61598516693E+001, +4.90969559695E+002
+3.46859824781E+007, +8.73679601838E+001, +4.95743765741E+002
+3.49048811014E+007, +8.77092462236E+001, +5.00232396791E+002
+3.51237797247E+007, +8.78661181710E+001, +5.04057225750E+002
+3.53426783479E+007, +8.83009621842E+001, +5.08127688904E+002
+3.55615769712E+007, +8.87682903486E+001, +5.12395284615E+002
+3.57804755945E+007, +8.98063256261E+001, +5.13378635271E+002
+3.59993742178E+007, +8.89938999988E+001, +5.21094150380E+002
+3.62182728411E+007, +8.82216144087E+001, +5.22686176985E+002
+3.64371714643E+007, +9.02615277084E+001, +5.27481283520E+002
+3.66560700876E+007, +8.98734432053E+001, +5.32513672843E+002
+3.68749687109E+007, +9.04401680788E+001, +5.37289076058E+002
+3.70938673342E+007, +9.22194997335E+001, +5.41222934717E+002
+3.73127659574E+007, +9.08516837490E+001, +5.45216565761E+002
+3.75316645807E+007, +9.07392451636E+001, +5.49522962908E+002
+3.77505632040E+007, +9.18197479107E+001, +5.53468563348E+002
+3.79694618273E+007, +9.30443652939E+001, +5.57543731855E+002
+3.81883604506E+007, +9.26665513413E+001, +5.63716212627E+002
+3.84072590738E+007, +9.19783224450E+001, +5.66772824363E+002
+3.86261576971E+007, +9.36379922779E+001, +5.70572273891E+002
+3.88450563204E+007, +9.55200686677E+001, +5.74212291558E+002
+3.90639549437E+007, +9.50751668092E+001, +5.79084794174E+002
+3.92828535670E+007, +9.51191718087E+001, +5.85538550901E+002
+3.95017521902E+007, +9.67818013033E+001, +5.88845305188E+002
+3.97206508135E+007, +9.65716900248E+001, +5.93682691772E+002
+3.99395494368E+007, +9.77913314465E+001, +5.98251463115E+002
+4.01584480601E+007, +9.81933940324E+001, +6.02759972128E+002
+4.03773466834E+007, +9.92301531701E+001, +6.09019337165E+002
+4.05962453066E+007, +9.75216628251E+001, +6.14143484091E+002
+4.08151439299E+007, +1.01712224623E+002, +6.15533514279E+002
+4.10340425532E+007, +9.88376631337E+001, +6.19989710998E+002
+4.12529411765E+007, +9.96939256964E+001, +6.25041200345E+002
+4.14718397997E+007, +1.00913664968E+002, +6.29913929184E+002
+4.16907384230E+007, +1.02758254799E+002, +6.36355445483E+002
+4.19096370463E+007, +1.02512933714E+002, +6.42500639440E+002
+4.21285356696E+007, +1.04414597525E+002, +6.45358689527E+002
+4.23474342929E+007, +1.02705012976E+002, +6.50929930422E+002
+4.25663329161E+007, +1.04953445286E+002, +6.52830265547E+002
+4.27852315394E+007, +1.04421480145E+002, +6.60857376398E+002
+4.30041301627E+007, +1.07021979539E+002, +6.66112911818E+002
+4.32230287860E+007, +1.09667552095E+002, +6.71983967115E+002
+4.34419274093E+007, +1.08025927235E+002, +6.76068898438E+002
+4.36608260325E+007, +1.07862830582E+002, +6.82227554427E+002
+4.38797246558E+007, +1.08822976172E+002, +6.85641565412E+002
+4.40986232791E+007, +1.08257007890E+002, +6.91776236902E+002
+4.43175219024E+007, +1.09446551344E+002, +6.96631218031E+002
+4.45364205257E+007, +1.10703783070E+002, +7.03159968671E+002
+4.47553191489E+007, +1.11321569019E+002, +7.07572225135E+002
+4.49742177722E+007, +1.12115426316E+002, +7.15629721539E+002
+4.51931163955E+007, +1.13582774670E+002, +7.17673483833E+002
+4.54120150188E+007, +1.12359859616E+002, +7.23388244524E+002
+4.56309136421E+007, +1.15800865960E+002, +7.27884023603E+002
+4.58498122653E+007, +1.14664737031E+002, +7.31981195376E+002
+4.60687108886E+007, +1.14073287984E+002, +7.40007426461E+002
+4.62876095119E+007, +1.17324559286E+002, +7.43369750980E+002
+4.65065081352E+007, +1.18700683697E+002, +7.50034026976E+002
+4.67254067584E+007, +1.19465193214E+002, +7.56659080148E+002
+4.69443053817E+007, +1.21011832614E+002, +7.58294393307E+002
+4.71632040050E+007, +1.18967754707E+002, +7.68673341513E+002
+4.73821026283E+007, +1.20595812424E+002, +7.72566153533E+002
+4.76010012516E+007, +1.21092968028E+002, +7.80685201999E+002
+4.78198998748E+007, +1.21274227739E+002, +7.85891104550E+002
+4.80387984981E+007, +1.24687494519E+002, +7.93755049678E+002
+4.82576971214E+007, +1.23773924641E+002, +7.96982596195E+002
+4.84765957447E+007, +1.25041808656E+002, +8.01245134177E+002
+4.86954943680E+007, +1.24687364677E+002, +8.09205452438E+002
+4.89143929912E+007, +1.27127925162E+002, +8.14251674513E+002
+4.91332916145E+007, +1.27744126419E+002, +8.21757443419E+002
+4.93521902378E+007, +1.28699637780E+002, +8.27145734958E+002
+4.95710888611E+007, +1.35360246287E+002, +8.33802882237E+002
+4.97899874844E+007, +1.36176920298E+002, +8.36667041558E+002
+5.00088861076E+007, +1.30710176238E+002, +8.42969293292E+002
+5.02277847309E+007, +1.34731355318E+002, +8.52208466760E+002
+5.04466833542E+007, +1.37362807354E+002, +8.57945278412E+002
+5.06655819775E+007, +1.35626682202E+002, +8.62633613403E+002
+5.08844806008E+007, +1.37860303467E+002, +8.69533947640E+002
+5.11033792240E+007, +1.39754711199E+002, +8.79777090205E+002
+5.13222778473E+007, +1.40596452736E+002, +8.87100796922E+002
+5.15411764706E+007, +1.43693152662E+002, +8.91713823031E+002
+5.17600750939E+007, +1.42306733514E+002, +8.99392303520E+002
+5.19789737171E+007, +1.43619424414E+002, +9.07359676679E+002
+5.21978723404E+007, +1.47321344503E+002, +9.11351820020E+002
+5.24167709637E+007, +1.45353155255E+002, +9.19901989740E+002
+5.26356695870E+007, +1.50700714308E+002, +9.24722977247E+002
+5.28545682103E+007, +1.50160303958E+002, +9.35877061944E+002
+5.30734668335E+007, +1.49427365409E+002, +9.45529301039E+002
+5.32923654568E+007, +1.48644470615E+002, +9.52082747461E+002
+5.35112640801E+007, +1.53929625443E+002, +9.58679244605E+002
+5.37301627034E+007, +1.53841288004E+002, +9.66227109200E+002
+5.39490613267E+007, +1.56709120841E+002, +9.74920661522E+002
+5.41679599499E+007, +1.56466080201E+002, +9.81678662269E+002
+5.43868585732E+007, +1.58872076135E+002, +9.87165199234E+002
+5.46057571965E+007, +1.59463519028E+002, +9.99061824629E+002
+5.48246558198E+007, +1.59046496151E+002, +1.00204676652E+003
+5.50435544431E+007, +1.64285179081E+002, +1.01597331364E+003
+5.52624530663E+007, +1.67336477857E+002, +1.02897699320E+003
+5.54813516896E+007, +1.70802192273E+002, +1.02345309588E+003
+5.57002503129E+007, +1.73225554403E+002, +1.03773456326E+003
+5.59191489362E+007, +1.71045919970E+002, +1.04567672347E+003
+5.61380475594E+007, +1.71085773660E+002, +1.05652763112E+003
+5.63569461827E+007, +1.71128518280E+002, +1.06590499382E+003
+5.65758448060E+007, +1.80060085688E+002, +1.07460637795E+003
+5.67947434293E+007, +1.79904013353E+002, +1.08316354299E+003
+5.70136420526E+007, +1.82208100729E+002, +1.08867364593E+003
+5.72325406758E+007, +1.84711594639E+002, +1.09925277739E+003
+5.74514392991E+007, +1.81220107285E+002, +1.10919485496E+003
+5.76703379224E+007, +1.88220009062E+002, +1.11311939639E+003
+5.78892365457E+007, +1.83876787762E+002, +1.12847779006E+003
+5.81081351690E+007, +1.97903547081E+002, +1.13914585113E+003
+5.83270337922E+007, +1.91303207969E+002, +1.14905140776E+003
+5.85459324155E+007, +2.06907979289E+002, +1.15651855415E+003
+5.87648310388E+007, +2.01203377958E+002, +1.16376462412E+003
+5.89837296621E+007, +2.04622943483E+002, +1.17749366654E+003
+5.92026282854E+007, +2.10091819099E+002, +1.18844225353E+003
+5.94215269086E+007, +2.05840959614E+002, +1.19719226555E+003
+5.96404255319E+007, +2.07005283390E+002, +1.21464760481E+003
+5.98593241552E+007, +2.19955488955E+002, +1.22448966596E+003
+6.00782227785E+007, +2.20789710936E+002, +1.23699721776E+003
+6.02971214018E+007, +2.21124295761E+002, +1.24230032915E+003
+6.05160200250E+007, +2.24164270162E+002, +1.25745741890E+003
+6.07349186483E+007, +2.34416574621E+002, +1.26408035824E+003
+6.09538172716E+007, +2.27389133911E+002, +1.28149875038E+003
+6.11727158949E+007, +2.42174472843E+002, +1.29326867983E+003
+6.13916145181E+007, +2.37533052940E+002, +1.30931496975E+003
+6.16105131414E+007, +2.36834493693E+002, +1.31490445016E+003
+6.18294117647E+007, +2.46374772087E+002, +1.32454959438E+003
+6.20483103880E+007, +2.43022867815E+002, +1.33879601664E+003
+6.22672090113E+007, +2.52404180038E+002, +1.34768549476E+003
+6.24861076345E+007, +2.67976046114E+002, +1.36070613218E+003
+6.27050062578E+007, +2.67051121091E+002, +1.37556418111E+003
+6.29239048811E+007, +2.55973820100E+002, +1.39859196917E+003
+6.31428035044E+007, +2.62059176944E+002, +1.40953220893E+003
+6.33617021277E+007, +2.79173158747E+002, +1.42029987272E+003
+6.35806007509E+007, +2.76378049800E+002, +1.44318611311E+003
+6.37994993742E+007, +2.73769426239E+002, +1.45577260374E+003
+6.40183979975E+007, +2.93478611120E+002, +1.45600500277E+003
+6.42372966208E+007, +2.92218950917E+002, +1.47845110491E+003
+6.44561952441E+007, +2.99311243590E+002, +1.48824315858E+003
+6.46750938673E+007, +3.16429541396E+002, +1.50906896284E+003
+6.48939924906E+007, +3.20238356854E+002, +1.52699937959E+003
+6.51128911139E+007, +3.20741577826E+002, +1.54784733220E+003
+6.53317897372E+007, +3.40213668758E+002, +1.55207547805E+003
+6.55506883605E+007, +3.41132185612E+002, +1.57007606288E+003
+6.57695869837E+007, +3.37993921031E+002, +1.58472892546E+003
+6.59884856070E+007, +3.55091109872E+002, +1.59127859822E+003
+6.62073842303E+007, +3.62016404324E+002, +1.62847746949E+003
+6.64262828536E+007, +3.75589281597E+002, +1.63571468234E+003
+6.66451814768E+007, +3.71615554272E+002, +1.64775518807E+003
+6.68640801001E+007, +3.78785534351E+002, +1.66556362341E+003
+6.70829787234E+007, +3.94546349923E+002, +1.68613566811E+003
+6.73018773467E+007, +4.05986899067E+002, +1.69943920007E+003
+6.75207759700E+007, +4.25681510676E+002, +1.72054058933E+003
+6.77396745932E+007, +4.22642703317E+002, +1.72883415703E+003
+6.79585732165E+007, +4.46302598864E+002, +1.73927730417E+003
+6.81774718398E+007, +4.50885176996E+002, +1.77387703142E+003
+6.83963704631E+007, +4.59352880161E+002, +1.78708750555E+003
+6.86152690864E+007, +4.79575601387E+002, +1.81089606553E+003
+6.88341677096E+007, +4.69045301541E+002, +1.81122862693E+003
+6.90530663329E+007, +5.00865821903E+002, +1.83718230159E+003
+6.92719649562E+007, +5.07033720630E+002, +1.85880206331E+003
+6.94908635795E+007, +5.13930261351E+002, +1.88715047944E+003
+6.97097622028E+007, +5.37126222547E+002, +1.89213713245E+003
+6.99286608260E+007, +5.41033670293E+002, +1.91030621603E+003
+7.01475594493E+007, +5.56831169409E+002, +1.94371618418E+003
