"# Channel 1"
"# Trace 1"
Frequency, Formatted Data, Formatted Data
+1.00000000000E+005, +7.22738161556E-001, +1.30702860633E+000
+2.25031289111E+005, +7.39021101685E-001, +2.91571429525E+000
+3.50062578223E+005, +7.81696811520E-001, +4.53338176448E+000
+4.75093867334E+005, +7.42961098233E-001, +6.09400572610E+000
+6.00125156446E+005, +7.58529840985E-001, +7.70012856907E+000
+7.25156445557E+005, +8.39071625491E-001, +9.28338369931E+000
+8.50187734668E+005, +8.24976402423E-001, +1.08561226468E+001
+9.75219023780E+005, +8.35712303450E-001, +1.24325930133E+001
+1.10025031289E+006, +8.60738730603E-001, +1.39912968107E+001
+1.22528160200E+006, +9.03120469192E-001, +1.55581191502E+001
+1.35031289111E+006, +9.17111362494E-001, +1.71398068767E+001
+1.47534418023E+006, +9.70479458724E-001, +1.86748773886E+001
+1.60037546934E+006, +9.95360732307E-001, +2.02357096616E+001
+1.72540675845E+006, +1.02360907751E+000, +2.18233619690E+001
+1.85043804756E+006, +9.91386231069E-001, +2.33815011066E+001
+1.97546933667E+006, +1.01903776824E+000, +2.49254055263E+001
+2.10050062578E+006, +1.11477340667E+000, +2.65284980964E+001
+2.22553191489E+006, +1.03385635050E+000, +2.80321339001E+001
+2.35056320401E+006, +1.07260362338E+000, +2.96054192686E+001
+2.47559449312E+006, +1.13660242317E+000, +3.11723711611E+001
+2.60062578223E+006, +1.09956217178E+000, +3.27112487572E+001
+2.72565707134E+006, +1.14508223499E+000, +3.42725052717E+001
+2.85068836045E+006, +1.16702880899E+000, +3.58483925403E+001
+2.97571964956E+006, +1.13592583883E+000, +3.73744300503E+001
+3.10075093867E+006, +1.13633356546E+000, +3.89551344737E+001
+3.22578222778E+006, +1.21979694366E+000, +4.05109473277E+001
+3.35081351690E+006, +1.24038059534E+000, +4.21119564382E+001
+3.47584480601E+006, +1.15693844367E+000, +4.36180268540E+001
+3.60087609512E+006, +1.21060578237E+000, +4.51746191274E+001
+3.72590738423E+006, +1.21970731455E+000, +4.68156617830E+001
+3.85093867334E+006, +1.23779713029E+000, +4.82861885035E+001
+3.97596996245E+006, +1.21040505094E+000, +4.98811280142E+001
+4.10100125156E+006, +1.18598821736E+000, +5.15278999190E+001
+4.22603254068E+006, +1.25990612549E+000, +5.29953562146E+001
+4.35106382979E+006, +1.31336699101E+000, +5.45699262416E+001
+4.47609511890E+006, +1.31531922362E+000, +5.61725944353E+001
+4.60112640801E+006, +1.35289823562E+000, +5.77515171980E+001
+4.72615769712E+006, +1.32759584695E+000, +5.93119119497E+001
+4.85118898623E+006, +1.38911078076E+000, +6.08323663955E+001
+4.97622027534E+006, +1.27946654257E+000, +6.25239717262E+001
+5.10125156446E+006, +1.37993706807E+000, +6.39537578667E+001
+5.22628285357E+006, +1.40007044747E+000, +6.55507005507E+001
+5.35131414268E+006, +1.28238212068E+000, +6.71032518771E+001
+5.47634543179E+006, +1.37834671629E+000, +6.87317139765E+001
+5.60137672090E+006, +1.39591523914E+000, +7.01899247745E+001
+5.72640801001E+006, +1.39572946196E+000, +7.17976588585E+001
+5.85143929912E+006, +1.38805708795E+000, +7.33967622648E+001
+5.97647058824E+006, +1.28654082392E+000, +7.51305682829E+001
+6.10150187735E+006, +1.51355885062E+000, +7.66566015139E+001
+6.22653316646E+006, +1.45052333254E+000, +7.81023540803E+001
+6.35156445557E+006, +1.48201011374E+000, +7.97452200233E+001
+6.47659574468E+006, +1.45907905581E+000, +8.14185918146E+001
+6.60162703379E+006, +1.49317555399E+000, +8.29367801481E+001
+6.72665832290E+006, +1.51952463732E+000, +8.45475110374E+001
+6.85168961202E+006, +1.49348469811E+000, +8.61698266713E+001
+6.97672090113E+006, +1.45234596306E+000, +8.76988617360E+001
+7.10175219024E+006, +1.51208115105E+000, +8.93249955174E+001
+7.22678347935E+006, +1.46303723655E+000, +9.08737278259E+001
+7.35181476846E+006, +1.53266319565E+000, +9.24153300593E+001
+7.47684605757E+006, +1.55601381215E+000, +9.40761362797E+001
+7.60187734668E+006, +1.48929560691E+000, +9.56755831862E+001
+7.72690863579E+006, +1.53147756907E+000, +9.71812812564E+001
+7.85193992491E+006, +1.51790072543E+000, +9.88898422745E+001
+7.97697121402E+006, +1.52946431373E+000, +1.00418133460E+002
+8.10200250313E+006, +1.60856021049E+000, +1.01974704315E+002
+8.22703379224E+006, +1.61375624609E+000, +1.03564592833E+002
+8.35206508135E+006, +1.55377714897E+000, +1.05252580093E+002
+8.47709637046E+006, +1.62274885544E+000, +1.06836362570E+002
+8.60212765957E+006, +1.63258191186E+000, +1.08296514105E+002
+8.72715894869E+006, +1.64674583924E+000, +1.10011043428E+002
+8.85219023780E+006, +1.56107266207E+000, +1.11570913144E+002
+8.97722152691E+006, +1.68258025116E+000, +1.13145143877E+002
+9.10225281602E+006, +1.65023737600E+000, +1.14831371891E+002
+9.22728410513E+006, +1.68191225259E+000, +1.16473387409E+002
+9.35231539424E+006, +1.61172290116E+000, +1.17966934999E+002
+9.47734668335E+006, +1.67118864474E+000, +1.19605844024E+002
+9.60237797247E+006, +1.63385778866E+000, +1.21225513734E+002
+9.72740926158E+006, +1.67769369616E+000, +1.22849140011E+002
+9.85244055069E+006, +1.57095219524E+000, +1.24372609235E+002
+9.97747183980E+006, +1.56919359852E+000, +1.25997923326E+002
+1.01025031289E+007, +1.90070360714E+000, +1.27638124955E+002
+1.02275344180E+007, +1.59189252247E+000, +1.29258009710E+002
+1.03525657071E+007, +1.56543732646E+000, +1.30964671714E+002
+1.04775969962E+007, +1.71471091374E+000, +1.32479240544E+002
+1.06026282854E+007, +1.56729931931E+000, +1.34099825683E+002
+1.07276595745E+007, +1.61025819056E+000, +1.35611808769E+002
+1.08526908636E+007, +1.69779421520E+000, +1.37321522467E+002
+1.09777221527E+007, +1.65943328862E+000, +1.38932525260E+002
+1.11027534418E+007, +1.58897159894E+000, +1.40641223238E+002
+1.12277847309E+007, +1.70325443068E+000, +1.42200278299E+002
+1.13528160200E+007, +1.60712502737E+000, +1.43842418833E+002
+1.14778473091E+007, +1.54098163180E+000, +1.45567329702E+002
+1.16028785982E+007, +1.59107803319E+000, +1.47144796534E+002
+1.17279098874E+007, +1.57637823648E+000, +1.48875162624E+002
+1.18529411765E+007, +1.75141034994E+000, +1.50405164575E+002
+1.19779724656E+007, +1.73742776751E+000, +1.51967031692E+002
+1.21030037547E+007, +1.66688424319E+000, +1.53828692565E+002
+1.22280350438E+007, +1.62685064167E+000, +1.55353635669E+002
+1.23530663329E+007, +1.77941635222E+000, +1.57105276549E+002
+1.24780976220E+007, +1.74275834000E+000, +1.58550084408E+002
+1.26031289111E+007, +1.67171092247E+000, +1.60432049811E+002
+1.27281602003E+007, +1.83389139908E+000, +1.62007283262E+002
+1.28531914894E+007, +1.82174696482E+000, +1.63459850538E+002
+1.29782227785E+007, +1.67798334147E+000, +1.65399210845E+002
+1.31032540676E+007, +1.66416548207E+000, +1.67016189573E+002
+1.32282853567E+007, +1.70597729350E+000, +1.68380522724E+002
+1.33533166458E+007, +1.53075093174E+000, +1.69968781749E+002
+1.34783479349E+007, +1.55281352185E+000, +1.71889527625E+002
+1.36033792240E+007, +1.61203509442E+000, +1.73534429748E+002
+1.37284105131E+007, +1.49677230908E+000, +1.75045335870E+002
+1.38534418023E+007, +1.72366472196E+000, +1.76752370692E+002
+1.39784730914E+007, +1.65756254241E+000, +1.78590035505E+002
+1.41035043805E+007, +1.68804367829E+000, +1.80038481651E+002
+1.42285356696E+007, +1.75909396163E+000, +1.81881811426E+002
+1.43535669587E+007, +1.66746503589E+000, +1.83440518835E+002
+1.44785982478E+007, +1.58656089987E+000, +1.85257006715E+002
+1.46036295369E+007, +1.49939667434E+000, +1.87088687450E+002
+1.47286608260E+007, +1.66624971385E+000, +1.88736039968E+002
+1.48536921151E+007, +1.63074523485E+000, +1.90154358548E+002
+1.49787234043E+007, +1.51101473304E+000, +1.92183138368E+002
+1.51037546934E+007, +1.83016877791E+000, +1.93589795145E+002
+1.52287859825E+007, +1.63505050355E+000, +1.95421498395E+002
+1.53538172716E+007, +1.88637751919E+000, +1.97034687835E+002
+1.54788485607E+007, +1.48763586226E+000, +1.98540675844E+002
+1.56038798498E+007, +1.50173827032E+000, +2.00377540891E+002
+1.57289111389E+007, +1.42135631337E+000, +2.02049364015E+002
+1.58539424280E+007, +1.65127448898E+000, +2.03945711497E+002
+1.59789737171E+007, +1.62746545352E+000, +2.05481293407E+002
+1.61040050063E+007, +1.55051969205E+000, +2.07440999266E+002
+1.62290362954E+007, +1.78452290501E+000, +2.08934100913E+002
+1.63540675845E+007, +1.54024134740E+000, +2.10734265674E+002
+1.64790988736E+007, +1.33998025140E+000, +2.12511701968E+002
+1.66041301627E+007, +1.60746216529E+000, +2.14277450983E+002
+1.67291614518E+007, +1.81121908668E+000, +2.16158343736E+002
+1.68541927409E+007, +1.55910640136E+000, +2.18029426354E+002
+1.69792240300E+007, +1.77293104472E+000, +2.19457609569E+002
+1.71042553191E+007, +1.29643037762E+000, +2.21408210971E+002
+1.72292866083E+007, +1.32480983888E+000, +2.23002417108E+002
+1.73543178974E+007, +1.75589746137E+000, +2.24442785055E+002
+1.74793491865E+007, +1.09775335468E+000, +2.26121721100E+002
+1.76043804756E+007, +1.26541689388E+000, +2.28436023396E+002
+1.77294117647E+007, +1.46831366026E+000, +2.29933624928E+002
+1.78544430538E+007, +1.76609885849E+000, +2.31926235116E+002
+1.79794743429E+007, +1.27077858442E+000, +2.33989252973E+002
+1.81045056320E+007, +1.43074900531E+000, +2.35039227451E+002
+1.82295369212E+007, +1.45641114034E+000, +2.36973790650E+002
+1.83545682103E+007, +1.56741739460E+000, +2.38664076290E+002
+1.84795994994E+007, +1.30205134046E+000, +2.40523945637E+002
+1.86046307885E+007, +1.36705895604E+000, +2.42552627510E+002
+1.87296620776E+007, +1.36154636269E+000, +2.44138608414E+002
+1.88546933667E+007, +1.44848041856E+000, +2.45870950168E+002
+1.89797246558E+007, +1.56692602183E+000, +2.47896547628E+002
+1.91047559449E+007, +1.80983538346E+000, +2.49601203403E+002
+1.92297872340E+007, +1.47614557054E+000, +2.51191091142E+002
+1.93548185232E+007, +1.09510203769E+000, +2.53049841259E+002
+1.94798498123E+007, +1.59825883540E+000, +2.55196990192E+002
+1.96048811014E+007, +1.47293381564E+000, +2.56617630280E+002
+1.97299123905E+007, +1.22811258736E+000, +2.58507521861E+002
+1.98549436796E+007, +1.57333084663E+000, +2.60417073712E+002
+1.99799749687E+007, +1.54594049177E+000, +2.61755591724E+002
+2.01050062578E+007, +1.30962258544E+000, +2.64373869923E+002
+2.02300375469E+007, +1.48751289451E+000, +2.65842336629E+002
+2.03550688360E+007, +1.53304802094E+000, +2.67936488392E+002
+2.04801001252E+007, +1.39361028766E+000, +2.69776957841E+002
+2.06051314143E+007, +1.53817362376E+000, +2.71175014148E+002
+2.07301627034E+007, +1.65386883556E+000, +2.72971372254E+002
+2.08551939925E+007, +1.50514922751E+000, +2.75091604497E+002
+2.09802252816E+007, +2.26648211794E+000, +2.76877620221E+002
+2.11052565707E+007, +1.80450287212E+000, +2.78846921791E+002
+2.12302878598E+007, +1.48209827826E+000, +2.80479557874E+002
+2.13553191489E+007, +1.51792082384E+000, +2.82481298593E+002
+2.14803504380E+007, +1.61311310146E+000, +2.84241576218E+002
+2.16053817272E+007, +1.58429897242E+000, +2.86434103846E+002
+2.17304130163E+007, +1.78159637852E+000, +2.88117664984E+002
+2.18554443054E+007, +1.25362257924E+000, +2.89693023213E+002
+2.19804755945E+007, +1.72282512601E+000, +2.91555399289E+002
+2.21055068836E+007, +1.45754182138E+000, +2.94225310667E+002
+2.22305381727E+007, +1.52129822452E+000, +2.95608343254E+002
+2.23555694618E+007, +1.53453847449E+000, +2.97454622641E+002
+2.24806007509E+007, +2.19166313757E+000, +2.99152288695E+002
+2.26056320401E+007, +1.46383003783E+000, +3.00697669797E+002
+2.27306633292E+007, +1.44823340880E+000, +3.03304012460E+002
+2.28556946183E+007, +1.86123857598E+000, +3.04641492151E+002
+2.29807259074E+007, +1.89499331780E+000, +3.07357704256E+002
+2.31057571965E+007, +1.44436740392E+000, +3.09049974776E+002
+2.32307884856E+007, +2.25775271739E+000, +3.10625783995E+002
+2.33558197747E+007, +2.05859048104E+000, +3.13204745157E+002
+2.34808510638E+007, +1.50349688933E+000, +3.15143667950E+002
+2.36058823529E+007, +2.34333199806E+000, +3.16645671270E+002
+2.37309136421E+007, +2.36751071683E+000, +3.17897868837E+002
+2.38559449312E+007, +1.98390604645E+000, +3.20172592919E+002
+2.39809762203E+007, +1.83526028487E+000, +3.22339985632E+002
+2.41060075094E+007, +2.00846768707E+000, +3.24030411133E+002
+2.42310387985E+007, +2.44360265677E+000, +3.26433625714E+002
+2.43560700876E+007, +1.31869853774E+000, +3.28013131580E+002
+2.44811013767E+007, +2.06609431626E+000, +3.29701573333E+002
+2.46061326658E+007, +2.23752231203E+000, +3.32191872470E+002
+2.47311639549E+007, +2.27357471209E+000, +3.33575695643E+002
+2.48561952441E+007, +2.85679827432E+000, +3.35496548519E+002
+2.49812265332E+007, +2.41126187935E+000, +3.37297484661E+002
+2.51062578223E+007, +1.81106057816E+000, +3.39077655729E+002
+2.52312891114E+007, +2.36908523365E+000, +3.41133683175E+002
+2.53563204005E+007, +2.29285776131E+000, +3.43768125814E+002
+2.54813516896E+007, +2.21461240783E+000, +3.45908784091E+002
+2.56063829787E+007, +2.08952143634E+000, +3.47509285036E+002
+2.57314142678E+007, +2.34550492342E+000, +3.48974302311E+002
+2.58564455569E+007, +2.47218834206E+000, +3.51872807250E+002
+2.59814768461E+007, +2.22232566601E+000, +3.53413698797E+002
+2.61065081352E+007, +2.29892538702E+000, +3.56177896841E+002
+2.62315394243E+007, +1.82994424254E+000, +3.57696893837E+002
+2.63565707134E+007, +1.24205591122E+000, +3.59337893429E+002
+2.64816020025E+007, +2.19699020690E+000, +3.61497740712E+002
+2.66066332916E+007, +2.54369560307E+000, +3.63918094238E+002
+2.67316645807E+007, +2.25098882444E+000, +3.66365096552E+002
+2.68566958698E+007, +2.60548552087E+000, +3.68584177531E+002
+2.69817271589E+007, +1.90653368492E+000, +3.70187661926E+002
+2.71067584481E+007, +2.56501349854E+000, +3.71860316826E+002
+2.72317897372E+007, +1.77736064102E+000, +3.73868632997E+002
+2.73568210263E+007, +1.23828938352E+000, +3.76501761830E+002
+2.74818523154E+007, +1.22310650668E+000, +3.78936941545E+002
+2.76068836045E+007, +2.41467970627E+000, +3.80386618800E+002
+2.77319148936E+007, +1.49038237351E+000, +3.81605596779E+002
+2.78569461827E+007, +1.08783570267E+000, +3.83767454460E+002
+2.79819774718E+007, +2.03891919717E+000, +3.86258645734E+002
+2.81070087610E+007, +2.07394720055E+000, +3.88415760516E+002
+2.82320400501E+007, +1.80396852688E+000, +3.90976570555E+002
+2.83570713392E+007, +1.50337279677E+000, +3.93205647276E+002
+2.84821026283E+007, +2.02206661873E+000, +3.95740329604E+002
+2.86071339174E+007, +1.76105809028E+000, +3.97187731608E+002
+2.87321652065E+007, +1.84246974211E+000, +3.99571628360E+002
+2.88571964956E+007, +1.39853308465E+000, +4.01799261045E+002
+2.89822277847E+007, +1.90424708993E+000, +4.03392816474E+002
+2.91072590738E+007, +1.74370389781E+000, +4.06091620128E+002
+2.92322903630E+007, +1.29908279560E+000, +4.08567422696E+002
+2.93573216521E+007, +1.62248142413E+000, +4.10114680590E+002
+2.94823529412E+007, +1.27874100888E+000, +4.11538642334E+002
+2.96073842303E+007, +1.76710065681E+000, +4.14925298288E+002
+2.97324155194E+007, +1.47417261321E+000, +4.16846139884E+002
+2.98574468085E+007, +2.18048477445E+000, +4.19592338696E+002
+2.99824780976E+007, +1.08518643096E+000, +4.22676298690E+002
+3.01075093867E+007, +1.34079990984E+000, +4.24202904944E+002
+3.02325406758E+007, +4.31792567824E-001, +4.26162581293E+002
+3.03575719650E+007, +6.88596708060E-001, +4.28898377420E+002
+3.04826032541E+007, +1.81110787562E+000, +4.30446625782E+002
+3.06076345432E+007, +6.70311624042E-001, +4.32016594711E+002
+3.07326658323E+007, +1.92520857470E+000, +4.34653141470E+002
+3.08576971214E+007, +2.04305898639E+000, +4.37224174286E+002
+3.09827284105E+007, +9.44610493422E-001, +4.39723016375E+002
+3.11077596996E+007, +1.15511698527E+000, +4.42439497848E+002
+3.12327909887E+007, +1.64618508245E+000, +4.44162318225E+002
+3.13578222778E+007, +1.43923908966E+000, +4.46358480481E+002
+3.14828535670E+007, -3.32356761182E-001, +4.49331823888E+002
+3.16078848561E+007, +1.28462122162E+000, +4.52069580891E+002
+3.17329161452E+007, +1.72042716170E+000, +4.53649882938E+002
+3.18579474343E+007, +2.31023433613E+000, +4.55719425795E+002
+3.19829787234E+007, +1.36085805835E+000, +4.57581019333E+002
+3.21080100125E+007, +1.11696921664E+000, +4.60720106462E+002
+3.22330413016E+007, +1.82151847430E+000, +4.62988729965E+002
+3.23580725907E+007, +2.36171943372E+000, +4.65009954232E+002
+3.24831038798E+007, +2.16744323337E+000, +4.68082756438E+002
+3.26081351690E+007, +1.32251250147E+000, +4.70676559892E+002
+3.27331664581E+007, +1.09994122363E+000, +4.72237053472E+002
+3.28581977472E+007, +1.67868532859E+000, +4.74445869782E+002
+3.29832290363E+007, +1.43073107858E+000, +4.77211105913E+002
+3.31082603254E+007, +2.08333328021E+000, +4.79693436058E+002
+3.32332916145E+007, +8.07284442535E-001, +4.82350400188E+002
+3.33583229036E+007, +2.03925736440E+000, +4.84633363071E+002
+3.34833541927E+007, +1.22270439964E+000, +4.87939669257E+002
+3.36083854819E+007, +1.43333445170E+000, +4.89326991383E+002
+3.37334167710E+007, +1.54802377315E+000, +4.92648930123E+002
+3.38584480601E+007, +1.71987252957E+000, +4.93260315612E+002
+3.39834793492E+007, +7.63102671038E-001, +4.97103541019E+002
+3.41085106383E+007, -3.42683785960E-001, +4.98685997341E+002
+3.42335419274E+007, +8.40410031063E-001, +5.01938917826E+002
+3.43585732165E+007, +1.81324818710E+000, +5.03517533328E+002
+3.44836045056E+007, +8.24154057845E-001, +5.08204982948E+002
+3.46086357947E+007, +7.16346178279E-002, +5.10395162883E+002
+3.47336670839E+007, +8.44692286406E-001, +5.12123223444E+002
+3.48586983730E+007, +5.80879809732E-002, +5.15944819247E+002
+3.49837296621E+007, +1.31137276437E+000, +5.15678767258E+002
+3.51087609512E+007, +6.37085435987E-001, +5.20548873438E+002
+3.52337922403E+007, +3.05546459123E+000, +5.21668775347E+002
+3.53588235294E+007, +1.61911560936E+000, +5.24635103304E+002
+3.54838548185E+007, +1.01910128364E+000, +5.27493636911E+002
+3.56088861076E+007, +1.40918795382E+000, +5.30964174337E+002
+3.57339173967E+007, +2.50564542528E-001, +5.33559990091E+002
+3.58589486859E+007, +7.30982502251E-001, +5.34486263635E+002
+3.59839799750E+007, +5.67706496468E-001, +5.38704124643E+002
+3.61090112641E+007, +3.27693529804E-001, +5.41171025276E+002
+3.62340425532E+007, +9.68025008573E-001, +5.44471739125E+002
+3.63590738423E+007, +9.84253120127E-001, +5.47578412579E+002
+3.64841051314E+007, +4.03347175049E-001, +5.49434629679E+002
+3.66091364205E+007, +2.66680321544E+000, +5.51894175768E+002
+3.67341677096E+007, +7.76751426304E-001, +5.55542141453E+002
+3.68591989987E+007, -1.05756910899E+000, +5.57267635211E+002
+3.69842302879E+007, +5.76064856825E-001, +5.60808796609E+002
+3.71092615770E+007, -5.71040191997E-001, +5.61728987605E+002
+3.72342928661E+007, +2.34255585185E+000, +5.65741316171E+002
+3.73593241552E+007, +2.95758357650E+000, +5.66038006696E+002
+3.74843554443E+007, +9.11272342598E-001, +5.71062029257E+002
+3.76093867334E+007, +1.97731224800E+000, +5.72845712931E+002
+3.77344180225E+007, +1.35344409572E+000, +5.76054270525E+002
+3.78594493116E+007, +8.15258362925E-001, +5.79275740230E+002
+3.79844806008E+007, -3.35437904839E-001, +5.81613129440E+002
+3.81095118899E+007, +2.19203262607E+000, +5.84888834214E+002
+3.82345431790E+007, +1.08305287350E+000, +5.87093558713E+002
+3.83595744681E+007, +1.44493237180E+000, +5.89364839779E+002
+3.84846057572E+007, -1.95619217116E+000, +5.95220605173E+002
+3.86096370463E+007, +2.86529195577E-001, +5.97110297705E+002
+3.87346683354E+007, +2.57015926105E+000, +5.99852701654E+002
+3.88596996245E+007, +1.03220523651E+000, +6.02563447262E+002
+3.89847309136E+007, +1.47535073730E+000, +6.06901713826E+002
+3.91097622028E+007, +2.00741319219E+000, +6.08556527379E+002
+3.92347934919E+007, +6.05617470051E-001, +6.11942497757E+002
+3.93598247810E+007, -2.84157160809E-001, +6.15386684623E+002
+3.94848560701E+007, +1.91371348859E-002, +6.18145138096E+002
+3.96098873592E+007, -3.04915634918E-001, +6.20216619525E+002
+3.97349186483E+007, -1.39729194299E+000, +6.24358752411E+002
+3.98599499374E+007, +1.04753350866E+000, +6.27765762988E+002
+3.99849812265E+007, +2.14678650667E+000, +6.30599431688E+002
+4.01100125156E+007, +2.21845040145E+000, +6.31422171223E+002
