"# Channel 1"
"# Trace 1"
Frequency, Formatted Data, Formatted Data
+1.00000000000E+005, +8.33763379704E-001, +1.29424840241E+000
+2.25031289111E+005, +8.48760559255E-001, +2.90010235502E+000
+3.50062578223E+005, +8.79206660657E-001, +4.52003821958E+000
+4.75093867334E+005, +8.47709668268E-001, +6.07759290185E+000
+6.00125156446E+005, +8.74661920330E-001, +7.67332568679E+000
+7.25156445557E+005, +9.55615708309E-001, +9.26325806258E+000
+8.50187734668E+005, +9.35758892473E-001, +1.08203920917E+001
+9.75219023780E+005, +9.46430918002E-001, +1.23930248976E+001
+1.10025031289E+006, +9.68647806696E-001, +1.39602817603E+001
+1.22528160200E+006, +1.02651603671E+000, +1.55067930907E+001
+1.35031289111E+006, +1.02032721856E+000, +1.70943002075E+001
+1.47534418023E+006, +1.07552544776E+000, +1.86096393631E+001
+1.60037546934E+006, +1.11070373764E+000, +2.01879955165E+001
+1.72540675845E+006, +1.11518952927E+000, +2.17551722337E+001
+1.85043804756E+006, +1.10445263097E+000, +2.33089459591E+001
+1.97546933667E+006, +1.13091243463E+000, +2.48797927606E+001
+2.10050062578E+006, +1.20603934262E+000, +2.64580788645E+001
+2.22553191489E+006, +1.14844354874E+000, +2.79307469815E+001
+2.35056320401E+006, +1.17415547851E+000, +2.95360259096E+001
+2.47559449312E+006, +1.24422688891E+000, +3.10935074173E+001
+2.60062578223E+006, +1.21082263638E+000, +3.26316536717E+001
+2.72565707134E+006, +1.22495768976E+000, +3.41856893460E+001
+2.85068836045E+006, +1.24494264061E+000, +3.57401891660E+001
+2.97571964956E+006, +1.24677261378E+000, +3.72892054847E+001
+3.10075093867E+006, +1.24779720712E+000, +3.88376020156E+001
+3.22578222778E+006, +1.34197464584E+000, +4.03978770185E+001
+3.35081351690E+006, +1.32443220617E+000, +4.19914649153E+001
+3.47584480601E+006, +1.26022523286E+000, +4.35050611794E+001
+3.60087609512E+006, +1.30628461146E+000, +4.50302866208E+001
+3.72590738423E+006, +1.33687042054E+000, +4.66785712896E+001
+3.85093867334E+006, +1.32651604869E+000, +4.81566435368E+001
+3.97596996245E+006, +1.31630759050E+000, +4.97632520489E+001
+4.10100125156E+006, +1.28037917775E+000, +5.13961763317E+001
+4.22603254068E+006, +1.36468585014E+000, +5.28548504976E+001
+4.35106382979E+006, +1.45357131866E+000, +5.44022411937E+001
+4.47609511890E+006, +1.45781846556E+000, +5.60098648526E+001
+4.60112640801E+006, +1.42840856550E+000, +5.75457532407E+001
+4.72615769712E+006, +1.43247877504E+000, +5.91292679175E+001
+4.85118898623E+006, +1.51138311675E+000, +6.06486403117E+001
+4.97622027534E+006, +1.45382186815E+000, +6.23678690661E+001
+5.10125156446E+006, +1.49861483249E+000, +6.37501060318E+001
+5.22628285357E+006, +1.56508626836E+000, +6.54330352689E+001
+5.35131414268E+006, +1.48372206371E+000, +6.69388918570E+001
+5.47634543179E+006, +1.57022380041E+000, +6.85573662759E+001
+5.60137672090E+006, +1.52722662478E+000, +7.00606457818E+001
+5.72640801001E+006, +1.48657151806E+000, +7.16523486189E+001
+5.85143929912E+006, +1.46530270513E+000, +7.31716843863E+001
+5.97647058824E+006, +1.43986903695E+000, +7.49345871213E+001
+6.10150187735E+006, +1.58701955435E+000, +7.64606709821E+001
+6.22653316646E+006, +1.49943325222E+000, +7.79244826647E+001
+6.35156445557E+006, +1.61776365865E+000, +7.94977647002E+001
+6.47659574468E+006, +1.58011356813E+000, +8.12177533631E+001
+6.60162703379E+006, +1.55489007152E+000, +8.26971814127E+001
+6.72665832290E+006, +1.58926252218E+000, +8.42831495657E+001
+6.85168961202E+006, +1.65096964345E+000, +8.58914159105E+001
+6.97672090113E+006, +1.56735865329E+000, +8.74818485287E+001
+7.10175219024E+006, +1.65689827915E+000, +8.90798719509E+001
+7.22678347935E+006, +1.66226553455E+000, +9.06607877589E+001
+7.35181476846E+006, +1.62987210271E+000, +9.21522612699E+001
+7.47684605757E+006, +1.67429453082E+000, +9.37865705588E+001
+7.60187734668E+006, +1.57356172033E+000, +9.53748202503E+001
+7.72690863579E+006, +1.62637196264E+000, +9.69391583335E+001
+7.85193992491E+006, +1.67260326022E+000, +9.85817617334E+001
+7.97697121402E+006, +1.63175412371E+000, +1.00131087059E+002
+8.10200250313E+006, +1.72156210141E+000, +1.01726276844E+002
+8.22703379224E+006, +1.75492240449E+000, +1.03279798752E+002
+8.35206508135E+006, +1.67370245351E+000, +1.04964129560E+002
+8.47709637046E+006, +1.70964591185E+000, +1.06571218803E+002
+8.60212765957E+006, +1.73809011041E+000, +1.08059425611E+002
+8.72715894869E+006, +1.71360769194E+000, +1.09754896997E+002
+8.85219023780E+006, +1.65644092829E+000, +1.11273398833E+002
+8.97722152691E+006, +1.79532342920E+000, +1.12849415485E+002
+9.10225281602E+006, +1.77115993317E+000, +1.14472060545E+002
+9.22728410513E+006, +1.82339002698E+000, +1.16126154424E+002
+9.35231539424E+006, +1.81273591864E+000, +1.17716866898E+002
+9.47734668335E+006, +1.82038589504E+000, +1.19268524586E+002
+9.60237797247E+006, +1.77041431579E+000, +1.20828600159E+002
+9.72740926158E+006, +1.78223190536E+000, +1.22496710925E+002
+9.85244055069E+006, +1.73175500069E+000, +1.24046641262E+002
+9.97747183980E+006, +1.60080158522E+000, +1.25617436741E+002
+1.01025031289E+007, +1.95706257840E+000, +1.27256422252E+002
+1.02275344180E+007, +1.60888970362E+000, +1.29025495398E+002
+1.03525657071E+007, +1.66354444211E+000, +1.30547034465E+002
+1.04775969962E+007, +1.91354222431E+000, +1.32136102134E+002
+1.06026282854E+007, +1.69284579699E+000, +1.33752091329E+002
+1.07276595745E+007, +1.68219391850E+000, +1.35279184644E+002
+1.08526908636E+007, +1.77361861401E+000, +1.36943487910E+002
+1.09777221527E+007, +1.80152791728E+000, +1.38607995490E+002
+1.11027534418E+007, +1.78355417032E+000, +1.40281845513E+002
+1.12277847309E+007, +1.86058418708E+000, +1.41779996836E+002
+1.13528160200E+007, +1.64542606996E+000, +1.43468233287E+002
+1.14778473091E+007, +1.65118595857E+000, +1.45100971623E+002
+1.16028785982E+007, +1.72742342165E+000, +1.46750907685E+002
+1.17279098874E+007, +1.65247366334E+000, +1.48496427666E+002
+1.18529411765E+007, +1.89373783199E+000, +1.50033675451E+002
+1.19779724656E+007, +1.67224445815E+000, +1.51619872263E+002
+1.21030037547E+007, +1.79121348941E+000, +1.53349829044E+002
+1.22280350438E+007, +1.64180167622E+000, +1.54945868296E+002
+1.23530663329E+007, +1.80760702601E+000, +1.56712825232E+002
+1.24780976220E+007, +1.91221897166E+000, +1.58084651380E+002
+1.26031289111E+007, +1.64136131332E+000, +1.59887796334E+002
+1.27281602003E+007, +1.87546010949E+000, +1.61603891934E+002
+1.28531914894E+007, +2.00449252046E+000, +1.63058372358E+002
+1.29782227785E+007, +1.74460529379E+000, +1.64832523289E+002
+1.31032540676E+007, +1.78966244559E+000, +1.66478768091E+002
+1.32282853567E+007, +1.77803308896E+000, +1.68017486674E+002
+1.33533166458E+007, +1.53095744363E+000, +1.69726505051E+002
+1.34783479349E+007, +1.73791483637E+000, +1.71519896283E+002
+1.36033792240E+007, +1.62857102351E+000, +1.73184341802E+002
+1.37284105131E+007, +1.71537544316E+000, +1.74635466685E+002
+1.38534418023E+007, +1.82858186854E+000, +1.76304362616E+002
+1.39784730914E+007, +1.73418448050E+000, +1.78158288691E+002
+1.41035043805E+007, +1.78001913702E+000, +1.79534977899E+002
+1.42285356696E+007, +1.83714585212E+000, +1.81571964792E+002
+1.43535669587E+007, +1.76145295958E+000, +1.83149930407E+002
+1.44785982478E+007, +1.74024855274E+000, +1.84883138157E+002
+1.46036295369E+007, +1.80719473885E+000, +1.86527795627E+002
+1.47286608260E+007, +1.71301089199E+000, +1.88237350824E+002
+1.48536921151E+007, +1.86578516110E+000, +1.89676354610E+002
+1.49787234043E+007, +1.54764768796E+000, +1.91524441744E+002
+1.51037546934E+007, +1.84788311136E+000, +1.92994480044E+002
+1.52287859825E+007, +1.81546462501E+000, +1.94953780165E+002
+1.53538172716E+007, +1.75236458325E+000, +1.96501869511E+002
+1.54788485607E+007, +1.61927133901E+000, +1.98322283873E+002
+1.56038798498E+007, +1.48747805252E+000, +1.99797295460E+002
+1.57289111389E+007, +1.55140564401E+000, +2.01514267554E+002
+1.58539424280E+007, +1.56967826642E+000, +2.03355054359E+002
+1.59789737171E+007, +1.79557494178E+000, +2.04916679314E+002
+1.61040050063E+007, +1.56861228567E+000, +2.06645073901E+002
+1.62290362954E+007, +2.01759810473E+000, +2.08511382040E+002
+1.63540675845E+007, +1.54477565558E+000, +2.10112202842E+002
+1.64790988736E+007, +1.55366973308E+000, +2.11942225719E+002
+1.66041301627E+007, +1.74035323695E+000, +2.13809877829E+002
+1.67291614518E+007, +1.66438493587E+000, +2.15497557282E+002
+1.68541927409E+007, +1.88540829566E+000, +2.17308652683E+002
+1.69792240300E+007, +1.65361590286E+000, +2.18801946461E+002
+1.71042553191E+007, +1.19454131000E+000, +2.20774168936E+002
+1.72292866083E+007, +1.57100226437E+000, +2.22406782575E+002
+1.73543178974E+007, +1.67836468615E+000, +2.23844775368E+002
+1.74793491865E+007, +1.25378664438E+000, +2.25605301762E+002
+1.76043804756E+007, +1.39587125815E+000, +2.27931414364E+002
+1.77294117647E+007, +1.76456122098E+000, +2.29222048494E+002
+1.78544430538E+007, +1.67398224736E+000, +2.31395748596E+002
+1.79794743429E+007, +1.37372114321E+000, +2.33349589792E+002
+1.81045056320E+007, +1.59097456606E+000, +2.34495169581E+002
+1.82295369212E+007, +1.48495127857E+000, +2.36290699238E+002
+1.83545682103E+007, +1.77025565213E+000, +2.38074525764E+002
+1.84795994994E+007, +1.39706679967E+000, +2.39595427452E+002
+1.86046307885E+007, +1.80538394319E+000, +2.41857850488E+002
+1.87296620776E+007, +1.49579445542E+000, +2.43604556082E+002
+1.88546933667E+007, +1.47853566320E+000, +2.45048854645E+002
+1.89797246558E+007, +1.85021031581E+000, +2.47053313702E+002
+1.91047559449E+007, +1.78927664686E+000, +2.49076669259E+002
+1.92297872340E+007, +1.73000627534E+000, +2.50617348422E+002
+1.93548185232E+007, +1.40832260324E+000, +2.52395189063E+002
+1.94798498123E+007, +1.55700516056E+000, +2.54288001791E+002
+1.96048811014E+007, +1.61743308316E+000, +2.56137569455E+002
+1.97299123905E+007, +1.48871561297E+000, +2.57838902278E+002
+1.98549436796E+007, +1.45185225136E+000, +2.59893218147E+002
+1.99799749687E+007, +1.81119810575E+000, +2.61071294718E+002
+2.01050062578E+007, +1.68680085322E+000, +2.63736932355E+002
+2.02300375469E+007, +1.62984263282E+000, +2.64991600386E+002
+2.03550688360E+007, +1.79377140049E+000, +2.67255403506E+002
+2.04801001252E+007, +2.11395954532E+000, +2.69030027508E+002
+2.06051314143E+007, +1.74730697829E+000, +2.69970378398E+002
+2.07301627034E+007, +2.09221441609E+000, +2.72412128834E+002
+2.08551939925E+007, +1.58976700389E+000, +2.74180136091E+002
+2.09802252816E+007, +2.27972006807E+000, +2.75840788981E+002
+2.11052565707E+007, +2.06657551086E+000, +2.77808271907E+002
+2.12302878598E+007, +1.42981178761E+000, +2.80252160418E+002
+2.13553191489E+007, +2.08361847030E+000, +2.81707251451E+002
+2.14803504380E+007, +1.87260346966E+000, +2.83536715506E+002
+2.16053817272E+007, +1.92576553978E+000, +2.85689043330E+002
+2.17304130163E+007, +1.94336420255E+000, +2.87377839621E+002
+2.18554443054E+007, +1.64201375454E+000, +2.89097247361E+002
+2.19804755945E+007, +1.58070002600E+000, +2.90323497068E+002
+2.21055068836E+007, +1.55163104338E+000, +2.93360637544E+002
+2.22305381727E+007, +1.40131910216E+000, +2.94892642192E+002
+2.23555694618E+007, +2.01332308053E+000, +2.96741503997E+002
+2.24806007509E+007, +2.20210131849E+000, +2.98454112471E+002
+2.26056320401E+007, +1.97369661026E+000, +3.00359738528E+002
+2.27306633292E+007, +1.81174486548E+000, +3.02461090199E+002
+2.28556946183E+007, +2.35085841110E+000, +3.04287632411E+002
+2.29807259074E+007, +2.06116549412E+000, +3.06654944514E+002
+2.31057571965E+007, +1.65953129552E+000, +3.07638669796E+002
+2.32307884856E+007, +2.16056711058E+000, +3.09902299907E+002
+2.33558197747E+007, +1.94996468621E+000, +3.12479648986E+002
+2.34808510638E+007, +1.75024745521E+000, +3.13909039552E+002
+2.36058823529E+007, +2.25278713814E+000, +3.15315413788E+002
+2.37309136421E+007, +2.35332133760E+000, +3.17044783669E+002
+2.38559449312E+007, +2.21788454312E+000, +3.19145037662E+002
+2.39809762203E+007, +2.05905123545E+000, +3.21409169081E+002
+2.41060075094E+007, +2.35745344240E+000, +3.23001791603E+002
+2.42310387985E+007, +2.17533080336E+000, +3.25504588946E+002
+2.43560700876E+007, +2.48775582646E+000, +3.26752919815E+002
+2.44811013767E+007, +2.15013285977E+000, +3.28737014840E+002
+2.46061326658E+007, +2.37715481049E+000, +3.31523809438E+002
+2.47311639549E+007, +2.60841467474E+000, +3.32355194941E+002
+2.48561952441E+007, +2.13163384989E+000, +3.35185837515E+002
+2.49812265332E+007, +2.53284148166E+000, +3.36776744113E+002
+2.51062578223E+007, +1.73571991927E+000, +3.38202898173E+002
+2.52312891114E+007, +2.11808652569E+000, +3.40575368575E+002
+2.53563204005E+007, +2.20701263011E+000, +3.42556466947E+002
+2.54813516896E+007, +2.65470323517E+000, +3.45027200848E+002
+2.56063829787E+007, +1.93119347420E+000, +3.47229089167E+002
+2.57314142678E+007, +2.57212829885E+000, +3.48104563682E+002
+2.58564455569E+007, +2.82894698916E+000, +3.51253149444E+002
+2.59814768461E+007, +2.13088665161E+000, +3.52076681168E+002
+2.61065081352E+007, +2.33581989336E+000, +3.54818603793E+002
+2.62315394243E+007, +2.24259673023E+000, +3.56791859069E+002
+2.63565707134E+007, +1.60210278135E+000, +3.58976288195E+002
+2.64816020025E+007, +2.00006128959E+000, +3.60134037540E+002
+2.66066332916E+007, +2.28591048414E+000, +3.63013830865E+002
+2.67316645807E+007, +1.85110485714E+000, +3.64858701273E+002
+2.68566958698E+007, +2.72184072430E+000, +3.68308502918E+002
+2.69817271589E+007, +2.26876015289E+000, +3.69358268538E+002
+2.71067584481E+007, +2.82531064015E+000, +3.70888609019E+002
+2.72317897372E+007, +2.60873669888E+000, +3.73585776673E+002
+2.73568210263E+007, +1.82551828290E+000, +3.75202618315E+002
+2.74818523154E+007, +1.44694053559E+000, +3.77743030647E+002
+2.76068836045E+007, +2.19999546264E+000, +3.79187202820E+002
+2.77319148936E+007, +1.73694767316E+000, +3.80542916778E+002
+2.78569461827E+007, +9.15123493219E-001, +3.83262360517E+002
+2.79819774718E+007, +2.69947525017E+000, +3.85800391302E+002
+2.81070087610E+007, +2.38706588278E+000, +3.87803402064E+002
+2.82320400501E+007, +2.17772186157E+000, +3.89025776413E+002
+2.83570713392E+007, +1.74640967859E+000, +3.92446733102E+002
+2.84821026283E+007, +2.13398462022E+000, +3.94744288942E+002
+2.86071339174E+007, +2.02737661641E+000, +3.96801570862E+002
+2.87321652065E+007, +1.84419843471E+000, +3.98110785389E+002
+2.88571964956E+007, +1.84563735664E+000, +4.00711373415E+002
+2.89822277847E+007, +1.77618759368E+000, +4.03171949403E+002
+2.91072590738E+007, +1.18726515011E+000, +4.05733841855E+002
+2.92322903630E+007, +1.70107935413E+000, +4.07566676898E+002
+2.93573216521E+007, +8.66098340401E-001, +4.08854680882E+002
+2.94823529412E+007, +9.45432179755E-001, +4.11120549453E+002
+2.96073842303E+007, +1.79191555052E+000, +4.13665559516E+002
+2.97324155194E+007, +1.72965564795E+000, +4.16524122017E+002
+2.98574468085E+007, +2.63316906040E+000, +4.18527876905E+002
+2.99824780976E+007, +1.01364999812E+000, +4.22594246525E+002
+3.01075093867E+007, +1.50992327937E+000, +4.23542239655E+002
+3.02325406758E+007, +1.50542622280E+000, +4.25840042168E+002
+3.03575719650E+007, +8.98151984822E-001, +4.28192326062E+002
+3.04826032541E+007, +1.42966515918E+000, +4.30107121463E+002
+3.06076345432E+007, +1.36918600837E+000, +4.31832666210E+002
+3.07326658323E+007, +2.73811851355E+000, +4.33789709352E+002
+3.08576971214E+007, +1.75715462941E+000, +4.36384596414E+002
+3.09827284105E+007, +2.25960490180E+000, +4.39438170808E+002
+3.11077596996E+007, +6.38750280693E-001, +4.42410747363E+002
+3.12327909887E+007, +1.83818162395E+000, +4.42867840808E+002
+3.13578222778E+007, +1.69314385937E+000, +4.45223434980E+002
+3.14828535670E+007, +4.84041975089E-001, +4.48363974052E+002
+3.16078848561E+007, +9.96735027941E-001, +4.50829986001E+002
+3.17329161452E+007, +1.19751356105E+000, +4.52548543483E+002
+3.18579474343E+007, +1.58583766445E+000, +4.53857204040E+002
+3.19829787234E+007, +9.17930992794E-001, +4.57222365546E+002
+3.21080100125E+007, +1.31222915414E+000, +4.59904122211E+002
+3.22330413016E+007, +2.41042096894E+000, +4.61833279037E+002
+3.23580725907E+007, +2.29172362984E+000, +4.63563160884E+002
+3.24831038798E+007, +1.83592834652E+000, +4.68007724801E+002
+3.26081351690E+007, +4.71420030300E-001, +4.69817452754E+002
+3.27331664581E+007, +1.17905241857E+000, +4.71074705053E+002
+3.28581977472E+007, +1.94730495063E+000, +4.74679261316E+002
+3.29832290363E+007, +6.14299121630E-001, +4.76895699356E+002
+3.31082603254E+007, +2.07995729119E+000, +4.79793615270E+002
+3.32332916145E+007, +1.85187344493E+000, +4.80383774183E+002
+3.33583229036E+007, +1.45410556383E+000, +4.83886421730E+002
+3.34833541927E+007, +1.31756692998E+000, +4.85798627678E+002
+3.36083854819E+007, +1.79844215107E+000, +4.87985360291E+002
+3.37334167710E+007, +1.48540272558E+000, +4.91530981355E+002
+3.38584480601E+007, +1.10236469216E+000, +4.93893393282E+002
+3.39834793492E+007, +1.35561131482E+000, +4.96211870649E+002
+3.41085106383E+007, -2.13582554458E-001, +4.98269775052E+002
+3.42335419274E+007, +1.77481847473E+000, +5.00728643764E+002
+3.43585732165E+007, +9.21991816343E-001, +5.03074630387E+002
+3.44836045056E+007, +4.54498396646E-001, +5.06484380770E+002
+3.46086357947E+007, +4.27342489110E-001, +5.09212344490E+002
+3.47336670839E+007, +1.04741972217E+000, +5.10917216783E+002
+3.48586983730E+007, -1.00522639036E-001, +5.14886076002E+002
+3.49837296621E+007, +2.19754927254E+000, +5.17116743323E+002
+3.51087609512E+007, +1.09970008403E+000, +5.19255065755E+002
+3.52337922403E+007, +2.40966168438E+000, +5.21201507583E+002
+3.53588235294E+007, +1.84699129000E+000, +5.23134225462E+002
+3.54838548185E+007, +1.46525480034E+000, +5.26093011763E+002
+3.56088861076E+007, +1.88372400527E+000, +5.30543265145E+002
+3.57339173967E+007, -7.89248110841E-001, +5.32252477151E+002
+3.58589486859E+007, +2.39458311002E+000, +5.35081141171E+002
+3.59839799750E+007, +7.49736722662E-002, +5.37220242126E+002
+3.61090112641E+007, +1.05209047579E+000, +5.41329020916E+002
+3.62340425532E+007, +1.15734520236E+000, +5.42402670565E+002
+3.63590738423E+007, +4.24500141215E-001, +5.45385317579E+002
+3.64841051314E+007, +8.01954451175E-001, +5.49366820380E+002
+3.66091364205E+007, +2.26667226674E+000, +5.49237101885E+002
+3.67341677096E+007, +1.56376950876E+000, +5.54883755086E+002
+3.68591989987E+007, -1.95161919737E-001, +5.54953690664E+002
+3.69842302879E+007, +1.14932747437E+000, +5.59038549853E+002
+3.71092615770E+007, +6.85555158638E-001, +5.60916580146E+002
+3.72342928661E+007, +5.91557111767E-001, +5.63488950366E+002
+3.73593241552E+007, +1.72618325019E+000, +5.66141859252E+002
+3.74843554443E+007, +5.68741784970E-001, +5.70163940928E+002
+3.76093867334E+007, +3.07896253119E+000, +5.73551214910E+002
+3.77344180225E+007, +1.01089183778E+000, +5.75260809172E+002
+3.78594493116E+007, +1.44263164107E-001, +5.78094266483E+002
+3.79844806008E+007, +1.36731965400E+000, +5.80844238629E+002
+3.81095118899E+007, +5.55330244728E-001, +5.84543580642E+002
+3.82345431790E+007, +1.02462345055E+000, +5.87618428422E+002
+3.83595744681E+007, -8.48589299185E-002, +5.88953314253E+002
+3.84846057572E+007, +2.06789426519E-001, +5.95476437714E+002
+3.86096370463E+007, +1.40379728034E+000, +5.96343458539E+002
+3.87346683354E+007, +2.18238274601E+000, +5.98555006654E+002
+3.88596996245E+007, +7.95016329739E-002, +6.01998430651E+002
+3.89847309136E+007, +5.87824661649E-001, +6.04860036581E+002
+3.91097622028E+007, +3.07633464139E+000, +6.07789679046E+002
+3.92347934919E+007, +5.81945229975E-001, +6.11055316274E+002
+3.93598247810E+007, +1.82648690446E+000, +6.15489336424E+002
+3.94848560701E+007, +1.15153739834E+000, +6.16650252813E+002
+3.96098873592E+007, -8.58717023373E-001, +6.20831159437E+002
+3.97349186483E+007, -1.20026291981E-001, +6.22510410579E+002
+3.98599499374E+007, +8.55184018411E-001, +6.27288525807E+002
+3.99849812265E+007, +1.09804274706E+000, +6.29096924660E+002
+4.01100125156E+007, +1.90326374447E+000, +6.32460463870E+002
