"# Channel 1"
"# Trace 1"
Frequency, Formatted Data, Formatted Data
+1.00000000000E+005, +5.08086980447E+000, +1.36690801400E+000
+2.66777963272E+005, +5.06975105000E+000, +3.63962027264E+000
+4.33555926544E+005, +5.07551172470E+000, +5.93145934092E+000
+6.00333889816E+005, +5.10429587073E+000, +8.17737996035E+000
+7.67111853088E+005, +5.10613974283E+000, +1.04548261259E+001
+9.33889816361E+005, +5.11756725192E+000, +1.26872740052E+001
+1.10066777963E+006, +5.08992166818E+000, +1.49872249891E+001
+1.26744574290E+006, +5.12931204140E+000, +1.72204493721E+001
+1.43422370618E+006, +5.08185398595E+000, +1.95401774808E+001
+1.60100166945E+006, +5.15880987517E+000, +2.17263758932E+001
+1.76777963272E+006, +5.16024562824E+000, +2.39949730357E+001
+1.93455759599E+006, +5.16280675396E+000, +2.61960288351E+001
+2.10133555927E+006, +5.20478940068E+000, +2.84490931267E+001
+2.26811352254E+006, +5.21098909270E+000, +3.07396070756E+001
+2.43489148581E+006, +5.21013139463E+000, +3.30234339602E+001
+2.60166944908E+006, +5.24118330200E+000, +3.52169460320E+001
+2.76844741235E+006, +5.19721315711E+000, +3.75267865458E+001
+2.93522537563E+006, +5.21115146170E+000, +3.97512695693E+001
+3.10200333890E+006, +5.33480470239E+000, +4.19900778504E+001
+3.26878130217E+006, +5.17965539144E+000, +4.43254517637E+001
+3.43555926544E+006, +5.29454540110E+000, +4.65171514339E+001
+3.60233722871E+006, +5.38169306462E+000, +4.88596333344E+001
+3.76911519199E+006, +5.37841832292E+000, +5.11580666702E+001
+3.93589315526E+006, +5.39204980988E+000, +5.32807453894E+001
+4.10267111853E+006, +5.10990200351E+000, +5.54421445561E+001
+4.26944908180E+006, +5.35969650096E+000, +5.81488121385E+001
+4.43622704508E+006, +5.44554423018E+000, +6.02021284477E+001
+4.60300500835E+006, +5.48880210627E+000, +6.25532178423E+001
+4.76978297162E+006, +5.45074539543E+000, +6.46682574008E+001
+4.93656093489E+006, +5.53515609826E+000, +6.70692941959E+001
+5.10333889816E+006, +5.62934896691E+000, +6.92421755487E+001
+5.27011686144E+006, +5.71400461286E+000, +7.16830566317E+001
+5.43689482471E+006, +5.62689948560E+000, +7.38832952749E+001
+5.60367278798E+006, +5.71174608772E+000, +7.62867915998E+001
+5.77045075125E+006, +5.63670185377E+000, +7.83869385794E+001
+5.93722871452E+006, +5.77384293458E+000, +8.07421900647E+001
+6.10400667780E+006, +5.76777056658E+000, +8.30017063021E+001
+6.27078464107E+006, +5.93698631109E+000, +8.52585898692E+001
+6.43756260434E+006, +5.98569441278E+000, +8.75906461786E+001
+6.60434056761E+006, +6.00527590742E+000, +8.98278626908E+001
+6.77111853088E+006, +6.12493856855E+000, +9.20594661724E+001
+6.93789649416E+006, +6.13370567096E+000, +9.44056006501E+001
+7.10467445743E+006, +6.11994672459E+000, +9.66751624603E+001
+7.27145242070E+006, +6.20094019297E+000, +9.89173536964E+001
+7.43823038397E+006, +6.23760611455E+000, +1.01152691294E+002
+7.60500834725E+006, +6.21171188710E+000, +1.03495304151E+002
+7.77178631052E+006, +6.27352791216E+000, +1.05888848928E+002
+7.93856427379E+006, +6.30933406607E+000, +1.08072562260E+002
+8.10534223706E+006, +6.31450036043E+000, +1.10287674492E+002
+8.27212020033E+006, +6.34783940478E+000, +1.12667998903E+002
+8.43889816361E+006, +6.31223104613E+000, +1.14999747552E+002
+8.60567612688E+006, +6.30490282026E+000, +1.17341159469E+002
+8.77245409015E+006, +6.33413558977E+000, +1.19588558895E+002
+8.93923205342E+006, +6.38584677884E+000, +1.21976945917E+002
+9.10601001669E+006, +6.38242851955E+000, +1.24285447311E+002
+9.27278797997E+006, +6.39628349545E+000, +1.26666631071E+002
+9.43956594324E+006, +6.45998394944E+000, +1.28921530688E+002
+9.60634390651E+006, +6.37823099486E+000, +1.31277938275E+002
+9.77312186978E+006, +6.44710959444E+000, +1.33615367085E+002
+9.93989983306E+006, +6.62111431957E+000, +1.35995082656E+002
+1.01066777963E+007, +6.47079355746E+000, +1.38336441664E+002
+1.02734557596E+007, +6.47668620180E+000, +1.40829590611E+002
+1.04402337229E+007, +6.46883894949E+000, +1.43114441316E+002
+1.06070116861E+007, +6.58971752180E+000, +1.45464957761E+002
+1.07737896494E+007, +6.65888332640E+000, +1.47861177148E+002
+1.09405676127E+007, +6.68548662866E+000, +1.50202995199E+002
+1.11073455760E+007, +6.76661771343E+000, +1.52776997509E+002
+1.12741235392E+007, +6.76954978867E+000, +1.55112292505E+002
+1.14409015025E+007, +6.83690013063E+000, +1.57312815411E+002
+1.16076794658E+007, +6.93810010313E+000, +1.59704768930E+002
+1.17744574290E+007, +6.99344079150E+000, +1.62337296587E+002
+1.19412353923E+007, +6.91508742632E+000, +1.64717434432E+002
+1.21080133556E+007, +6.82834743465E+000, +1.67005006075E+002
+1.22747913189E+007, +6.92654672714E+000, +1.69580251414E+002
+1.24415692821E+007, +6.94906377359E+000, +1.71831122471E+002
+1.26083472454E+007, +6.90790462692E+000, +1.74389049614E+002
+1.27751252087E+007, +7.07565356190E+000, +1.76548196855E+002
+1.29419031720E+007, +7.05381829763E+000, +1.79075497672E+002
+1.31086811352E+007, +7.19960001651E+000, +1.81666506660E+002
+1.32754590985E+007, +7.25075690313E+000, +1.84050052020E+002
+1.34422370618E+007, +7.18258848621E+000, +1.86521539949E+002
+1.36090150250E+007, +7.46938948951E+000, +1.88889619048E+002
+1.37757929883E+007, +7.41165029350E+000, +1.91328367824E+002
+1.39425709516E+007, +7.37567807769E+000, +1.93752515059E+002
+1.41093489149E+007, +7.43465842866E+000, +1.96137395893E+002
+1.42761268781E+007, +7.58227706586E+000, +1.98680877912E+002
+1.44429048414E+007, +7.66741347538E+000, +2.01270859908E+002
+1.46096828047E+007, +7.59197184130E+000, +2.03825023509E+002
+1.47764607679E+007, +7.76746024145E+000, +2.06076857090E+002
+1.49432387312E+007, +7.78685180171E+000, +2.08667596764E+002
+1.51100166945E+007, +7.71170165483E+000, +2.11387355822E+002
+1.52767946578E+007, +8.01765263942E+000, +2.13800845427E+002
+1.54435726210E+007, +8.10664713658E+000, +2.16278559457E+002
+1.56103505843E+007, +8.02501648266E+000, +2.18642427218E+002
+1.57771285476E+007, +8.24370682513E+000, +2.20999283741E+002
+1.59439065109E+007, +8.05625055462E+000, +2.23727022090E+002
+1.61106844741E+007, +8.01038256317E+000, +2.26200642700E+002
+1.62774624374E+007, +8.17573929117E+000, +2.28684340043E+002
+1.64442404007E+007, +8.28105526524E+000, +2.31226454179E+002
+1.66110183639E+007, +8.27562584524E+000, +2.33978696076E+002
+1.67777963272E+007, +8.46996350705E+000, +2.36758763882E+002
+1.69445742905E+007, +8.33947515279E+000, +2.38888558086E+002
+1.71113522538E+007, +7.51296148858E+000, +2.41371555452E+002
+1.72781302170E+007, +8.34136797385E+000, +2.44472005075E+002
+1.74449081803E+007, +8.19862728727E+000, +2.46682032165E+002
+1.76116861436E+007, +8.57273350871E+000, +2.49601464273E+002
+1.77784641068E+007, +8.56526831787E+000, +2.51781851256E+002
+1.79452420701E+007, +8.50910965880E+000, +2.54664060270E+002
+1.81120200334E+007, +8.93168078088E+000, +2.57014164800E+002
+1.82787979967E+007, +9.14049696593E+000, +2.59898400877E+002
+1.84455759599E+007, +9.05693379429E+000, +2.62488911170E+002
+1.86123539232E+007, +9.62655975951E+000, +2.64830227105E+002
+1.87791318865E+007, +9.32774765161E+000, +2.67766104758E+002
+1.89459098497E+007, +9.31878488376E+000, +2.70534545228E+002
+1.91126878130E+007, +9.26024423308E+000, +2.73033036268E+002
+1.92794657763E+007, +9.32974671327E+000, +2.75516801304E+002
+1.94462437396E+007, +9.58751043721E+000, +2.78765447218E+002
+1.96130217028E+007, +9.34465521685E+000, +2.81293973262E+002
+1.97797996661E+007, +9.72077470590E+000, +2.83924131176E+002
+1.99465776294E+007, +9.03682292869E+000, +2.86404173282E+002
+2.01133555927E+007, +9.30027109006E+000, +2.89227433973E+002
+2.02801335559E+007, +9.68770321159E+000, +2.92023703958E+002
+2.04469115192E+007, +9.22376590738E+000, +2.94946316149E+002
+2.06136894825E+007, +1.00193856378E+001, +2.97570210515E+002
+2.07804674457E+007, +1.00032998548E+001, +3.00641238169E+002
+2.09472454090E+007, +9.50840312172E+000, +3.03512672112E+002
+2.11140233723E+007, +1.01737578875E+001, +3.05726727408E+002
+2.12808013356E+007, +1.01251122024E+001, +3.08677386096E+002
+2.14475792988E+007, +1.02177728043E+001, +3.11536757247E+002
+2.16143572621E+007, +1.04382325988E+001, +3.14179311954E+002
+2.17811352254E+007, +1.04739848835E+001, +3.17065411715E+002
+2.19479131886E+007, +1.08140705810E+001, +3.20126625550E+002
+2.21146911519E+007, +1.12817254811E+001, +3.22225390578E+002
+2.22814691152E+007, +1.09623941942E+001, +3.25291080746E+002
+2.24482470785E+007, +1.05465689258E+001, +3.28661997083E+002
+2.26150250417E+007, +1.19931176920E+001, +3.31818485487E+002
+2.27818030050E+007, +1.13780962233E+001, +3.34165043694E+002
+2.29485809683E+007, +1.19245612006E+001, +3.37269698011E+002
+2.31153589316E+007, +1.17894036877E+001, +3.40092883196E+002
+2.32821368948E+007, +1.20834552756E+001, +3.42997655418E+002
+2.34489148581E+007, +1.17403714956E+001, +3.45618017082E+002
+2.36156928214E+007, +1.23396506176E+001, +3.49015966906E+002
+2.37824707846E+007, +1.28501894129E+001, +3.51577286671E+002
+2.39492487479E+007, +1.22972298112E+001, +3.53996961675E+002
+2.41160267112E+007, +1.27915563170E+001, +3.57651656077E+002
+2.42828046745E+007, +1.27887816485E+001, +3.59925261097E+002
+2.44495826377E+007, +1.29725687468E+001, +3.63842030633E+002
+2.46163606010E+007, +1.32389196416E+001, +3.66421166337E+002
+2.47831385643E+007, +1.30387314066E+001, +3.69539389680E+002
+2.49499165275E+007, +1.40984112879E+001, +3.72270920664E+002
+2.51166944908E+007, +1.42057676919E+001, +3.75474223660E+002
+2.52834724541E+007, +1.45520436181E+001, +3.78756169133E+002
+2.54502504174E+007, +1.50204875380E+001, +3.81742712571E+002
+2.56170283806E+007, +1.48256335588E+001, +3.83714356800E+002
+2.57838063439E+007, +1.44631460589E+001, +3.88770898773E+002
+2.59505843072E+007, +1.53209085805E+001, +3.91559988858E+002
+2.61173622705E+007, +1.51293455307E+001, +3.94375293432E+002
+2.62841402337E+007, +1.49337456213E+001, +3.96801607210E+002
+2.64509181970E+007, +1.50909860710E+001, +4.00479992402E+002
+2.66176961603E+007, +1.56627790100E+001, +4.04017681659E+002
+2.67844741235E+007, +1.60439249784E+001, +4.06298319351E+002
+2.69512520868E+007, +1.61603238104E+001, +4.09354686242E+002
+2.71180300501E+007, +1.62273166953E+001, +4.11864898710E+002
+2.72848080134E+007, +1.65826270686E+001, +4.15096165719E+002
+2.74515859766E+007, +1.66299084774E+001, +4.18558014681E+002
+2.76183639399E+007, +1.59947801655E+001, +4.20877884527E+002
+2.77851419032E+007, +1.51995194780E+001, +4.23968084606E+002
+2.79519198664E+007, +1.64195051493E+001, +4.27858760317E+002
+2.81186978297E+007, +1.65436531518E+001, +4.30599371508E+002
+2.82854757930E+007, +1.66954801991E+001, +4.34096836347E+002
+2.84522537563E+007, +1.60705850764E+001, +4.38016231784E+002
+2.86190317195E+007, +1.65570046765E+001, +4.40066999324E+002
+2.87858096828E+007, +1.68731495010E+001, +4.44934153433E+002
+2.89525876461E+007, +1.72294097876E+001, +4.47289744165E+002
+2.91193656093E+007, +1.66186302798E+001, +4.49759780583E+002
+2.92861435726E+007, +1.52922498389E+001, +4.53973348725E+002
+2.94529215359E+007, +1.72459608052E+001, +4.57550396828E+002
+2.96196994992E+007, +1.81912066056E+001, +4.60641476124E+002
+2.97864774624E+007, +1.81138487331E+001, +4.64172428083E+002
+2.99532554257E+007, +1.79685390272E+001, +4.68465756148E+002
+3.01200333890E+007, +1.82693662504E+001, +4.71432809584E+002
+3.02868113523E+007, +1.67627062085E+001, +4.75475242604E+002
+3.04535893155E+007, +1.72024700672E+001, +4.79175456692E+002
+3.06203672788E+007, +1.87254155574E+001, +4.82542027096E+002
+3.07871452421E+007, +1.71747775302E+001, +4.86249565632E+002
+3.09539232053E+007, +1.71690079016E+001, +4.89105443115E+002
+3.11207011686E+007, +1.72285792964E+001, +4.94420989417E+002
+3.12874791319E+007, +1.82210504791E+001, +4.96309588892E+002
+3.14542570952E+007, +1.77352538637E+001, +5.00161169359E+002
+3.16210350584E+007, +1.76870886735E+001, +5.04950554211E+002
+3.17878130217E+007, +1.68961027840E+001, +5.08175877204E+002
+3.19545909850E+007, +1.74965477046E+001, +5.10767444018E+002
+3.21213689482E+007, +1.75140233752E+001, +5.17378556485E+002
+3.22881469115E+007, +1.87188236125E+001, +5.19859711923E+002
+3.24549248748E+007, +1.79512769325E+001, +5.23790168459E+002
+3.26217028381E+007, +1.74487123305E+001, +5.28340774128E+002
+3.27884808013E+007, +1.80531051215E+001, +5.31288345691E+002
+3.29552587646E+007, +1.92171606568E+001, +5.34830235140E+002
+3.31220367279E+007, +1.96810797963E+001, +5.39336520754E+002
+3.32888146912E+007, +1.86739389101E+001, +5.44242961911E+002
+3.34555926544E+007, +1.80243490438E+001, +5.46699904381E+002
+3.36223706177E+007, +1.92157827086E+001, +5.50437252803E+002
+3.37891485810E+007, +1.91863744941E+001, +5.54480856505E+002
+3.39559265442E+007, +2.00968090378E+001, +5.59399792275E+002
+3.41227045075E+007, +1.86661640089E+001, +5.63862380327E+002
+3.42894824708E+007, +1.97306603554E+001, +5.67462057006E+002
+3.44562604341E+007, +2.01694182840E+001, +5.72722285828E+002
+3.46230383973E+007, +1.91425222056E+001, +5.77308481466E+002
+3.47898163606E+007, +2.06504231339E+001, +5.80341402104E+002
+3.49565943239E+007, +2.15209607159E+001, +5.84606551950E+002
+3.51233722871E+007, +2.04054466581E+001, +5.89954788228E+002
+3.52901502504E+007, +2.15561606649E+001, +5.91822229139E+002
+3.54569282137E+007, +2.01070970228E+001, +5.97800290642E+002
+3.56237061770E+007, +2.03104397123E+001, +6.02697058823E+002
+3.57904841402E+007, +2.03078198291E+001, +6.05722951197E+002
+3.59572621035E+007, +2.10999058323E+001, +6.11162883864E+002
+3.61240400668E+007, +2.04961243596E+001, +6.15994843009E+002
+3.62908180301E+007, +2.19472881969E+001, +6.24362089508E+002
+3.64575959933E+007, +2.10645432088E+001, +6.26350438101E+002
+3.66243739566E+007, +2.31287536275E+001, +6.28041981528E+002
+3.67911519199E+007, +2.06986706805E+001, +6.35261781451E+002
+3.69579298831E+007, +2.04775643259E+001, +6.39756266049E+002
+3.71247078464E+007, +2.11790776688E+001, +6.44409202421E+002
+3.72914858097E+007, +2.18860647073E+001, +6.49188060667E+002
+3.74582637730E+007, +2.29678308132E+001, +6.56875740317E+002
+3.76250417362E+007, +2.25325116922E+001, +6.58745007876E+002
+3.77918196995E+007, +2.37589241809E+001, +6.65170268465E+002
+3.79585976628E+007, +2.31632505463E+001, +6.70210070446E+002
+3.81253756260E+007, +2.39215967789E+001, +6.74374849365E+002
+3.82921535893E+007, +2.40302405303E+001, +6.80884692777E+002
+3.84589315526E+007, +2.58148273124E+001, +6.84541323555E+002
+3.86257095159E+007, +2.47257951742E+001, +6.89546319000E+002
+3.87924874791E+007, +2.35116220778E+001, +6.96140469739E+002
+3.89592654424E+007, +2.59109887821E+001, +7.00623993903E+002
+3.91260434057E+007, +2.58222267167E+001, +7.06048127267E+002
+3.92928213689E+007, +2.70982785801E+001, +7.11614618395E+002
+3.94595993322E+007, +2.53239562106E+001, +7.19341827942E+002
+3.96263772955E+007, +2.41744729373E+001, +7.23321713078E+002
+3.97931552588E+007, +2.46248699581E+001, +7.30729093373E+002
+3.99599332220E+007, +2.59042517983E+001, +7.35033254592E+002
+4.01267111853E+007, +2.63989761164E+001, +7.40981576467E+002
+4.02934891486E+007, +2.52881471409E+001, +7.45775665966E+002
+4.04602671119E+007, +2.59192860726E+001, +7.50198605401E+002
+4.06270450751E+007, +2.71195205780E+001, +7.59163943198E+002
+4.07938230384E+007, +2.83154826805E+001, +7.65102322232E+002
+4.09606010017E+007, +2.44660976808E+001, +7.71979021998E+002
+4.11273789649E+007, +2.73687729830E+001, +7.74492167040E+002
+4.12941569282E+007, +2.86326595844E+001, +7.82084592863E+002
+4.14609348915E+007, +2.86819271868E+001, +7.93129850022E+002
+4.16277128548E+007, +3.02999293148E+001, +7.93247347442E+002
+4.17944908180E+007, +3.18491120900E+001, +7.99616996806E+002
+4.19612687813E+007, +2.92878948865E+001, +8.06229710799E+002
+4.21280467446E+007, +2.98158508089E+001, +8.12723258095E+002
+4.22948247078E+007, +3.11408994716E+001, +8.21896241448E+002
+4.24616026711E+007, +3.50365112707E+001, +8.26648433777E+002
+4.26283806344E+007, +3.49396873642E+001, +8.35187127491E+002
+4.27951585977E+007, +2.95599419119E+001, +8.43561782411E+002
+4.29619365609E+007, +3.57366407178E+001, +8.48590141406E+002
+4.31287145242E+007, +3.80530948935E+001, +8.54851914021E+002
+4.32954924875E+007, +3.33362696451E+001, +8.61621107339E+002
+4.34622704508E+007, +3.17258579184E+001, +8.70964149317E+002
+4.36290484140E+007, +3.58693656068E+001, +8.77625501984E+002
+4.37958263773E+007, +3.37704440398E+001, +8.86116816869E+002
+4.39626043406E+007, +3.79204123754E+001, +8.90209583345E+002
+4.41293823038E+007, +3.68704856227E+001, +9.02092960257E+002
+4.42961602671E+007, +3.48419681200E+001, +9.07349226728E+002
+4.44629382304E+007, +3.66539780263E+001, +9.16899520165E+002
+4.46297161937E+007, +3.72621259412E+001, +9.21760355077E+002
+4.47964941569E+007, +3.92507585253E+001, +9.32320041144E+002
+4.49632721202E+007, +4.09076145744E+001, +9.39466336497E+002
+4.51300500835E+007, +3.78397491530E+001, +9.45064621158E+002
+4.52968280467E+007, +4.31478431089E+001, +9.58229849136E+002
+4.54636060100E+007, +4.29737562809E+001, +9.67830605402E+002
+4.56303839733E+007, +4.45947900286E+001, +9.77234938096E+002
+4.57971619366E+007, +4.20484550586E+001, +9.84435801916E+002
+4.59639398998E+007, +4.02584970768E+001, +9.99662262318E+002
+4.61307178631E+007, +4.41890311374E+001, +1.00518255511E+003
+4.62974958264E+007, +4.50538044317E+001, +1.01811310193E+003
+4.64642737896E+007, +4.32501164820E+001, +1.02107628094E+003
+4.66310517529E+007, +4.54507911124E+001, +1.02719080288E+003
+4.67978297162E+007, +5.50345536782E+001, +1.03972142365E+003
+4.69646076795E+007, +4.73348374780E+001, +1.05364000306E+003
+4.71313856427E+007, +5.50299369097E+001, +1.06206214272E+003
+4.72981636060E+007, +5.24586484951E+001, +1.07799292739E+003
+4.74649415693E+007, +4.94715350887E+001, +1.08113390977E+003
+4.76317195326E+007, +5.88799641923E+001, +1.09203293144E+003
+4.77984974958E+007, +5.66666149135E+001, +1.10122626814E+003
+4.79652754591E+007, +6.09269453515E+001, +1.11725603698E+003
+4.81320534224E+007, +5.99693074140E+001, +1.12659223382E+003
+4.82988313856E+007, +6.19639344193E+001, +1.14000695784E+003
+4.84656093489E+007, +6.91399404714E+001, +1.14722646113E+003
+4.86323873122E+007, +6.88206260558E+001, +1.16225237483E+003
+4.87991652755E+007, +7.26207872979E+001, +1.17272083903E+003
+4.89659432387E+007, +7.03396169635E+001, +1.18562707458E+003
+4.91327212020E+007, +7.45553281412E+001, +1.19918368506E+003
+4.92994991653E+007, +7.98278565646E+001, +1.21080538778E+003
+4.94662771285E+007, +8.36067562792E+001, +1.22382837158E+003
+4.96330550918E+007, +8.75578194036E+001, +1.22880532796E+003
+4.97998330551E+007, +8.98462538839E+001, +1.24700833876E+003
+4.99666110184E+007, +9.19110430390E+001, +1.25733292066E+003
+5.01333889816E+007, +9.43541715365E+001, +1.27151755067E+003
+5.03001669449E+007, +9.45995916696E+001, +1.28321140613E+003
+5.04669449082E+007, +9.61661800866E+001, +1.29807828321E+003
+5.06337228715E+007, +1.01060223078E+002, +1.31353386944E+003
+5.08005008347E+007, +9.25249821048E+001, +1.31753948978E+003
+5.09672787980E+007, +1.07490595353E+002, +1.33857241444E+003
+5.11340567613E+007, +1.11125337330E+002, +1.35347102959E+003
+5.13008347245E+007, +1.03669322402E+002, +1.37947325582E+003
+5.14676126878E+007, +1.04135180964E+002, +1.38295138625E+003
+5.16343906511E+007, +1.11796914298E+002, +1.40449669430E+003
+5.18011686144E+007, +1.12191735068E+002, +1.41174991522E+003
+5.19679465776E+007, +1.22020118474E+002, +1.43516053819E+003
+5.21347245409E+007, +1.29854814706E+002, +1.46108623982E+003
+5.23015025042E+007, +1.33012531450E+002, +1.48228630125E+003
+5.24682804674E+007, +1.14604089928E+002, +1.50312046775E+003
+5.26350584307E+007, +1.35342868313E+002, +1.51207029499E+003
+5.28018363940E+007, +1.30773259170E+002, +1.53606242516E+003
+5.29686143573E+007, +1.31861633476E+002, +1.56582128169E+003
+5.31353923205E+007, +1.41319292116E+002, +1.56963744474E+003
+5.33021702838E+007, +1.33595372169E+002, +1.59925235275E+003
+5.34689482471E+007, +1.59241998967E+002, +1.61951182389E+003
