"# Channel 1"
"# Trace 1"
Frequency, Formatted Data, Formatted Data
+1.00000000000E+006, +5.46239982259E+000, +1.27293749941E+001
+1.16527545910E+006, +5.46725597334E+000, +1.48446861000E+001
+1.33055091820E+006, +5.53110365367E+000, +1.68928399182E+001
+1.49582637730E+006, +5.48967951738E+000, +1.89926465128E+001
+1.66110183639E+006, +5.52069894231E+000, +2.10658007603E+001
+1.82637729549E+006, +5.52435851499E+000, +2.31439655963E+001
+1.99165275459E+006, +5.54596126972E+000, +2.52268125968E+001
+2.15692821369E+006, +5.52840865707E+000, +2.73057428383E+001
+2.32220367279E+006, +5.51266320822E+000, +2.94075095416E+001
+2.48747913189E+006, +5.53631437869E+000, +3.14977560583E+001
+2.65275459098E+006, +5.50958096794E+000, +3.35669190784E+001
+2.81803005008E+006, +5.51462299534E+000, +3.57195650860E+001
+2.98330550918E+006, +5.49792023722E+000, +3.77360586593E+001
+3.14858096828E+006, +5.56732922760E+000, +3.98057426147E+001
+3.31385642738E+006, +5.63387498942E+000, +4.19306699261E+001
+3.47913188648E+006, +5.49482464260E+000, +4.40471541324E+001
+3.64440734558E+006, +5.58593775208E+000, +4.60900092919E+001
+3.80968280467E+006, +5.66994897843E+000, +4.81936297915E+001
+3.97495826377E+006, +5.69460125042E+000, +5.02840676925E+001
+4.14023372287E+006, +5.67422355460E+000, +5.25220751014E+001
+4.30550918197E+006, +5.70116013616E+000, +5.43700418012E+001
+4.47078464107E+006, +5.65557753281E+000, +5.65558783680E+001
+4.63606010017E+006, +5.61737455928E+000, +5.86734658112E+001
+4.80133555927E+006, +5.62621168039E+000, +6.07496685518E+001
+4.96661101836E+006, +5.70208140969E+000, +6.28263413741E+001
+5.13188647746E+006, +5.72685957129E+000, +6.49799349267E+001
+5.29716193656E+006, +5.71086258738E+000, +6.69611249346E+001
+5.46243739566E+006, +5.73189710725E+000, +6.91586859033E+001
+5.62771285476E+006, +5.82780594630E+000, +7.12043075894E+001
+5.79298831386E+006, +5.79538051272E+000, +7.33651234155E+001
+5.95826377295E+006, +5.87209501548E+000, +7.54365366595E+001
+6.12353923205E+006, +6.05646482511E+000, +7.74954522467E+001
+6.28881469115E+006, +5.89509343998E+000, +7.96372637427E+001
+6.45409015025E+006, +6.00568638709E+000, +8.16977647272E+001
+6.61936560935E+006, +5.97336864914E+000, +8.38062789448E+001
+6.78464106845E+006, +6.04179377700E+000, +8.59296190381E+001
+6.94991652755E+006, +6.07345296070E+000, +8.80325108898E+001
+7.11519198664E+006, +6.12021105972E+000, +9.01366837361E+001
+7.28046744574E+006, +6.13227579679E+000, +9.21967124568E+001
+7.44574290484E+006, +6.18883533642E+000, +9.43316402617E+001
+7.61101836394E+006, +6.16157127642E+000, +9.64029340543E+001
+7.77629382304E+006, +6.22658930811E+000, +9.85331691826E+001
+7.94156928214E+006, +6.15404086167E+000, +1.00545588622E+002
+8.10684474124E+006, +6.23286862958E+000, +1.02603964008E+002
+8.27212020033E+006, +6.26230103299E+000, +1.04746750691E+002
+8.43739565943E+006, +6.28667354461E+000, +1.06905033350E+002
+8.60267111853E+006, +6.23288879399E+000, +1.08924086795E+002
+8.76794657763E+006, +6.31332260743E+000, +1.11034020347E+002
+8.93322203673E+006, +6.29152439540E+000, +1.13267273228E+002
+9.09849749583E+006, +6.42158885467E+000, +1.15193958919E+002
+9.26377295492E+006, +6.31479459288E+000, +1.17400048945E+002
+9.42904841402E+006, +6.41826754656E+000, +1.19406243180E+002
+9.59432387312E+006, +6.36881441987E+000, +1.21518181949E+002
+9.75959933222E+006, +6.39569967691E+000, +1.23671157932E+002
+9.92487479132E+006, +6.38020915768E+000, +1.25686151893E+002
+1.00901502504E+007, +6.44637316119E+000, +1.27938559366E+002
+1.02554257095E+007, +6.44789622993E+000, +1.29930252122E+002
+1.04207011686E+007, +6.50456583893E+000, +1.31969888936E+002
+1.05859766277E+007, +6.36662962427E+000, +1.34274697399E+002
+1.07512520868E+007, +6.57037762369E+000, +1.36254219893E+002
+1.09165275459E+007, +6.52655730498E+000, +1.38457448085E+002
+1.10818030050E+007, +6.57574305216E+000, +1.40543941119E+002
+1.12470784641E+007, +6.57851620293E+000, +1.42547632178E+002
+1.14123539232E+007, +6.62693586387E+000, +1.44615268988E+002
+1.15776293823E+007, +6.70633383985E+000, +1.47116711347E+002
+1.17429048414E+007, +6.58791141252E+000, +1.48965557504E+002
+1.19081803005E+007, +6.59716506750E+000, +1.51225695013E+002
+1.20734557596E+007, +6.57496131414E+000, +1.53287836179E+002
+1.22387312187E+007, +6.52901132186E+000, +1.55333270620E+002
+1.24040066778E+007, +6.77317551799E+000, +1.57415155456E+002
+1.25692821369E+007, +6.67725270663E+000, +1.59563251720E+002
+1.27345575960E+007, +6.83526721735E+000, +1.61566784890E+002
+1.28998330551E+007, +6.73483470512E+000, +1.63822965432E+002
+1.30651085142E+007, +6.62454881923E+000, +1.65871339707E+002
+1.32303839733E+007, +6.99669109629E+000, +1.68248745628E+002
+1.33956594324E+007, +6.69989271690E+000, +1.70407678451E+002
+1.35609348915E+007, +6.84341006712E+000, +1.72397126542E+002
+1.37262103506E+007, +6.69394477070E+000, +1.74339080277E+002
+1.38914858097E+007, +6.99593337316E+000, +1.76639307179E+002
+1.40567612688E+007, +7.12388086611E+000, +1.78679994996E+002
+1.42220367279E+007, +6.79334389334E+000, +1.80872732939E+002
+1.43873121870E+007, +6.89884650462E+000, +1.83304374716E+002
+1.45525876461E+007, +6.99697197946E+000, +1.85178515327E+002
+1.47178631052E+007, +6.93174598264E+000, +1.87475545165E+002
+1.48831385643E+007, +7.01838578198E+000, +1.89304659715E+002
+1.50484140234E+007, +7.12320788834E+000, +1.91571790387E+002
+1.52136894825E+007, +7.03895875074E+000, +1.93705051855E+002
+1.53789649416E+007, +7.12103346355E+000, +1.95900014534E+002
+1.55442404007E+007, +7.04095786287E+000, +1.98031710204E+002
+1.57095158598E+007, +7.29041313224E+000, +2.00364970117E+002
+1.58747913189E+007, +7.38170067084E+000, +2.02664084188E+002
+1.60400667780E+007, +7.24945813614E+000, +2.04365595494E+002
+1.62053422371E+007, +7.18234676867E+000, +2.06658770598E+002
+1.63706176962E+007, +7.41474962894E+000, +2.08756066241E+002
+1.65358931553E+007, +7.24787192877E+000, +2.10877724943E+002
+1.67011686144E+007, +7.50315459621E+000, +2.13047105751E+002
+1.68664440735E+007, +7.34321184943E+000, +2.15284712389E+002
+1.70317195326E+007, +6.81799713070E+000, +2.17406571536E+002
+1.71969949917E+007, +7.05219684347E+000, +2.19770264325E+002
+1.73622704508E+007, +7.28847720233E+000, +2.21803046643E+002
+1.75275459098E+007, +7.00112312364E+000, +2.23931419482E+002
+1.76928213689E+007, +7.36510187795E+000, +2.26492470366E+002
+1.78580968280E+007, +7.47098886732E+000, +2.28639992503E+002
+1.80233722871E+007, +7.51464920065E+000, +2.30658157981E+002
+1.81886477462E+007, +7.51516369213E+000, +2.32742531026E+002
+1.83539232053E+007, +7.77075746215E+000, +2.35110072761E+002
+1.85191986644E+007, +7.74478666097E+000, +2.37492300687E+002
+1.86844741235E+007, +7.63219960112E+000, +2.38887933102E+002
+1.88497495826E+007, +7.57802384948E+000, +2.41617479054E+002
+1.90150250417E+007, +7.52876278614E+000, +2.43993927437E+002
+1.91803005008E+007, +7.71540925527E+000, +2.45831093403E+002
+1.93455759599E+007, +7.76838840079E+000, +2.47794219158E+002
+1.95108514190E+007, +8.03784003952E+000, +2.50382128988E+002
+1.96761268781E+007, +7.97886895793E+000, +2.52307574689E+002
+1.98414023372E+007, +8.03865755619E+000, +2.54870029747E+002
+2.00066777963E+007, +8.00781162395E+000, +2.56572940309E+002
+2.01719532554E+007, +7.81237431188E+000, +2.59154317017E+002
+2.03372287145E+007, +8.36047690722E+000, +2.61645001607E+002
+2.05025041736E+007, +8.03955161073E+000, +2.63878980678E+002
+2.06677796327E+007, +8.46369731309E+000, +2.65817160865E+002
+2.08330550918E+007, +8.02274198951E+000, +2.68068127430E+002
+2.09983305509E+007, +8.25346241737E+000, +2.70505405688E+002
+2.11636060100E+007, +8.00337669456E+000, +2.72555484751E+002
+2.13288814691E+007, +8.52570987005E+000, +2.74738076707E+002
+2.14941569282E+007, +8.18741114734E+000, +2.76728354971E+002
+2.16594323873E+007, +8.61383643489E+000, +2.79440326835E+002
+2.18247078464E+007, +8.96224169242E+000, +2.81518313401E+002
+2.19899833055E+007, +8.26905512650E+000, +2.83905422849E+002
+2.21552587646E+007, +7.95460149715E+000, +2.85604427140E+002
+2.23205342237E+007, +8.74285098928E+000, +2.88277849163E+002
+2.24858096828E+007, +8.37098004918E+000, +2.90720100970E+002
+2.26510851419E+007, +8.88128689787E+000, +2.92609697511E+002
+2.28163606010E+007, +8.71806754396E+000, +2.94873159233E+002
+2.29816360601E+007, +8.79007616032E+000, +2.96897967409E+002
+2.31469115192E+007, +9.44032050999E+000, +2.99370004560E+002
+2.33121869783E+007, +9.13547835240E+000, +3.01754830919E+002
+2.34774624374E+007, +9.39386321524E+000, +3.03894724796E+002
+2.36427378965E+007, +9.33729988325E+000, +3.06441404394E+002
+2.38080133556E+007, +9.45617182972E+000, +3.08615216135E+002
+2.39732888147E+007, +9.38320872113E+000, +3.11361404879E+002
+2.41385642738E+007, +9.64749434052E+000, +3.13657631693E+002
+2.43038397329E+007, +8.85087880389E+000, +3.15800143572E+002
+2.44691151920E+007, +9.66782280898E+000, +3.18129273690E+002
+2.46343906511E+007, +9.20562262004E+000, +3.19947787587E+002
+2.47996661102E+007, +9.55718739832E+000, +3.22610510953E+002
+2.49649415693E+007, +9.47079431648E+000, +3.25008257915E+002
+2.51302170284E+007, +9.68988592919E+000, +3.27121204396E+002
+2.52954924875E+007, +1.04093549373E+001, +3.29170883814E+002
+2.54607679466E+007, +9.89274919963E+000, +3.31228819541E+002
+2.56260434057E+007, +1.01055086561E+001, +3.33461551064E+002
+2.57913188648E+007, +1.00178614378E+001, +3.35598459442E+002
+2.59565943239E+007, +1.06130546014E+001, +3.38630781190E+002
+2.61218697830E+007, +1.00618760468E+001, +3.40791789065E+002
+2.62871452421E+007, +1.07705182577E+001, +3.42906254941E+002
+2.64524207012E+007, +1.01373729731E+001, +3.45492261963E+002
+2.66176961603E+007, +1.08031836110E+001, +3.48063043953E+002
+2.67829716194E+007, +1.04281751197E+001, +3.49214526373E+002
+2.69482470785E+007, +1.03680939504E+001, +3.52388317748E+002
+2.71135225376E+007, +1.08956615143E+001, +3.54897082212E+002
+2.72787979967E+007, +1.11906535380E+001, +3.57648040019E+002
+2.74440734558E+007, +1.13982906857E+001, +3.59088763811E+002
+2.76093489149E+007, +1.12704913882E+001, +3.62108488845E+002
+2.77746243740E+007, +1.11447377377E+001, +3.64028544976E+002
+2.79398998331E+007, +1.09055162395E+001, +3.66915320664E+002
+2.81051752922E+007, +1.19108390950E+001, +3.69133375869E+002
+2.82704507513E+007, +1.06414967604E+001, +3.71279601279E+002
+2.84357262104E+007, +1.18680010891E+001, +3.73601507682E+002
+2.86010016694E+007, +1.12417638706E+001, +3.76607313136E+002
+2.87662771285E+007, +1.16742667297E+001, +3.78367058127E+002
+2.89315525876E+007, +1.14213168904E+001, +3.81203251397E+002
+2.90968280467E+007, +1.17082264462E+001, +3.83083269147E+002
+2.92621035058E+007, +1.22389934771E+001, +3.84705436965E+002
+2.94273789649E+007, +1.23211102920E+001, +3.87679173168E+002
+2.95926544240E+007, +1.14186677348E+001, +3.89781520897E+002
+2.97579298831E+007, +1.21153500530E+001, +3.92666324854E+002
+2.99232053422E+007, +1.20532044310E+001, +3.94931869332E+002
+3.00884808013E+007, +1.20862079557E+001, +3.97462621944E+002
+3.02537562604E+007, +1.23658183710E+001, +3.99555509786E+002
+3.04190317195E+007, +1.26230913788E+001, +4.02476272889E+002
+3.05843071786E+007, +1.19054784890E+001, +4.04298549874E+002
+3.07495826377E+007, +1.09545549506E+001, +4.07369558532E+002
+3.09148580968E+007, +1.24035095449E+001, +4.09813159564E+002
+3.10801335559E+007, +1.31101069035E+001, +4.12208643880E+002
+3.12454090150E+007, +1.24548141947E+001, +4.14576923104E+002
+3.14106844741E+007, +1.26389738747E+001, +4.16600336826E+002
+3.15759599332E+007, +1.23062608852E+001, +4.19514328072E+002
+3.17412353923E+007, +1.21625324610E+001, +4.22177660932E+002
+3.19065108514E+007, +1.31868545024E+001, +4.24537746962E+002
+3.20717863105E+007, +1.16734663055E+001, +4.26427224849E+002
+3.22370617696E+007, +1.22479566337E+001, +4.28677290462E+002
+3.24023372287E+007, +1.19314455602E+001, +4.31969977344E+002
+3.25676126878E+007, +1.25002843535E+001, +4.34124555556E+002
+3.27328881469E+007, +1.35547288952E+001, +4.35646997189E+002
+3.28981636060E+007, +1.15064606796E+001, +4.38517387515E+002
+3.30634390651E+007, +1.26467539174E+001, +4.42050508814E+002
+3.32287145242E+007, +1.17538547235E+001, +4.45002544123E+002
+3.33939899833E+007, +1.26419649091E+001, +4.47221773257E+002
+3.35592654424E+007, +1.27380187004E+001, +4.49377051347E+002
+3.37245409015E+007, +1.31071998482E+001, +4.52192939058E+002
+3.38898163606E+007, +1.22670920032E+001, +4.54084042179E+002
+3.40550918197E+007, +1.30010601103E+001, +4.56773120077E+002
+3.42203672788E+007, +1.27783988220E+001, +4.59410467480E+002
+3.43856427379E+007, +1.30408430193E+001, +4.61943834265E+002
+3.45509181970E+007, +1.22328208312E+001, +4.64826892600E+002
+3.47161936561E+007, +1.34308129577E+001, +4.67483433965E+002
+3.48814691152E+007, +1.37984050793E+001, +4.69699532907E+002
+3.50467445743E+007, +1.37226485582E+001, +4.72392157877E+002
+3.52120200334E+007, +1.38002455079E+001, +4.74919330330E+002
+3.53772954925E+007, +1.33476739463E+001, +4.77723356672E+002
+3.55425709516E+007, +1.35729340159E+001, +4.80513713490E+002
+3.57078464107E+007, +1.34187620326E+001, +4.83264396264E+002
+3.58731218698E+007, +1.48177865110E+001, +4.85762973590E+002
+3.60383973289E+007, +1.34463614753E+001, +4.88224824654E+002
+3.62036727880E+007, +1.42860376957E+001, +4.90029828853E+002
+3.63689482471E+007, +1.49561420914E+001, +4.93922559947E+002
+3.65342237062E+007, +1.40065125737E+001, +4.95149766693E+002
+3.66994991653E+007, +1.27784922656E+001, +4.99740950829E+002
+3.68647746244E+007, +1.35937856375E+001, +5.01171124524E+002
+3.70300500835E+007, +1.37752853134E+001, +5.04282581572E+002
+3.71953255426E+007, +1.35442717185E+001, +5.08203407412E+002
+3.73606010017E+007, +1.49348013520E+001, +5.11245202800E+002
+3.75258764608E+007, +1.34948248125E+001, +5.13904341425E+002
+3.76911519199E+007, +1.35617612286E+001, +5.15834956092E+002
+3.78564273790E+007, +1.24283866774E+001, +5.18697825026E+002
+3.80217028381E+007, +1.40165732873E+001, +5.20848282343E+002
+3.81869782972E+007, +1.39030615222E+001, +5.23819092449E+002
+3.83522537563E+007, +1.29022816763E+001, +5.27321777631E+002
+3.85175292154E+007, +1.44563357746E+001, +5.29799930252E+002
+3.86828046745E+007, +1.30957646249E+001, +5.32921868151E+002
+3.88480801336E+007, +1.38545451732E+001, +5.36100698042E+002
+3.90133555927E+007, +1.33772970547E+001, +5.38698509298E+002
+3.91786310518E+007, +1.35674908503E+001, +5.44065621176E+002
+3.93439065109E+007, +1.33556899224E+001, +5.46452919869E+002
+3.95091819699E+007, +1.57174138077E+001, +5.47990736438E+002
+3.96744574290E+007, +1.48985021577E+001, +5.50773625133E+002
+3.98397328881E+007, +1.39481120637E+001, +5.54494321098E+002
+4.00050083472E+007, +1.26222687424E+001, +5.57100517032E+002
+4.01702838063E+007, +1.31015649071E+001, +5.59586673537E+002
+4.03355592654E+007, +1.51765864972E+001, +5.62144138495E+002
+4.05008347245E+007, +1.45505368004E+001, +5.67077724417E+002
+4.06661101836E+007, +1.37028838809E+001, +5.67719012444E+002
+4.08313856427E+007, +1.45113442668E+001, +5.72496442494E+002
+4.09966611018E+007, +1.46112614831E+001, +5.74925551868E+002
+4.11619365609E+007, +1.49187847714E+001, +5.78158292715E+002
+4.13272120200E+007, +1.57747850055E+001, +5.81430711087E+002
+4.14924874791E+007, +1.54553642337E+001, +5.82248348433E+002
+4.16577629382E+007, +1.55515224121E+001, +5.89244000016E+002
+4.18230383973E+007, +1.54139897085E+001, +5.89611187586E+002
+4.19883138564E+007, +1.54529328904E+001, +5.93568362398E+002
+4.21535893155E+007, +1.55572499322E+001, +5.97470495354E+002
+4.23188647746E+007, +1.59483593999E+001, +6.00386159133E+002
+4.24841402337E+007, +1.43083312721E+001, +6.05915109053E+002
+4.26494156928E+007, +1.49032216467E+001, +6.06352772195E+002
+4.28146911519E+007, +1.71730551611E+001, +6.10874103143E+002
+4.29799666110E+007, +1.68460893713E+001, +6.13677021431E+002
+4.31452420701E+007, +1.44114102276E+001, +6.19013938154E+002
+4.33105175292E+007, +1.77866691020E+001, +6.19798295732E+002
+4.34757929883E+007, +1.51477329361E+001, +6.24509951044E+002
+4.36410684474E+007, +1.48501302295E+001, +6.26359930885E+002
+4.38063439065E+007, +1.47906777339E+001, +6.31385600072E+002
+4.39716193656E+007, +1.63299153180E+001, +6.34374649159E+002
+4.41368948247E+007, +1.52919221696E+001, +6.37459339565E+002
+4.43021702838E+007, +1.62702723621E+001, +6.41616693773E+002
+4.44674457429E+007, +1.71092352973E+001, +6.46249025519E+002
+4.46327212020E+007, +1.69688695577E+001, +6.48437744326E+002
+4.47979966611E+007, +1.60534505246E+001, +6.52858290601E+002
+4.49632721202E+007, +1.83105601538E+001, +6.58208519762E+002
+4.51285475793E+007, +1.50611950236E+001, +6.59210198807E+002
+4.52938230384E+007, +1.87322235964E+001, +6.64009355735E+002
+4.54590984975E+007, +1.48132463757E+001, +6.65864755790E+002
+4.56243739566E+007, +1.92450511994E+001, +6.71889749718E+002
+4.57896494157E+007, +1.77126143717E+001, +6.72288364719E+002
+4.59549248748E+007, +1.68506977937E+001, +6.80154442059E+002
+4.61202003339E+007, +1.58217508082E+001, +6.81353908381E+002
+4.62854757930E+007, +1.85199392803E+001, +6.87168326474E+002
+4.64507512521E+007, +1.76067786026E+001, +6.89750571882E+002
+4.66160267112E+007, +1.95192137681E+001, +6.93816753026E+002
+4.67813021703E+007, +1.96132838635E+001, +6.96005307741E+002
+4.69465776294E+007, +2.01027050094E+001, +7.02472406651E+002
+4.71118530885E+007, +1.95364535446E+001, +7.05730443463E+002
+4.72771285476E+007, +1.98770044739E+001, +7.10470685372E+002
+4.74424040067E+007, +2.03503801530E+001, +7.14467930199E+002
+4.76076794658E+007, +2.13406222502E+001, +7.18861921914E+002
+4.77729549249E+007, +1.94514732121E+001, +7.20967340197E+002
+4.79382303840E+007, +2.23940563975E+001, +7.24697922331E+002
+4.81035058431E+007, +2.22913317944E+001, +7.29674541099E+002
+4.82687813022E+007, +2.17663366172E+001, +7.33413430189E+002
+4.84340567613E+007, +2.16863628507E+001, +7.38762399320E+002
+4.85993322204E+007, +2.36201109312E+001, +7.45708847994E+002
+4.87646076795E+007, +2.41808343970E+001, +7.48310986258E+002
+4.89298831386E+007, +2.50707518132E+001, +7.49786622269E+002
+4.90951585977E+007, +2.30864931165E+001, +7.52745478615E+002
+4.92604340568E+007, +2.59094272426E+001, +7.59188148663E+002
+4.94257095159E+007, +2.77210881802E+001, +7.61290175545E+002
+4.95909849750E+007, +2.53335162058E+001, +7.67439881728E+002
+4.97562604341E+007, +2.60944094311E+001, +7.73231751274E+002
+4.99215358932E+007, +2.46449836234E+001, +7.77781505845E+002
+5.00868113523E+007, +2.65177046222E+001, +7.81686515358E+002
+5.02520868114E+007, +2.72949761516E+001, +7.87628906112E+002
+5.04173622705E+007, +2.90362701919E+001, +7.93412173379E+002
+5.05826377295E+007, +2.68616564656E+001, +7.91972036048E+002
+5.07479131886E+007, +2.75344128011E+001, +8.00182450007E+002
+5.09131886477E+007, +2.78133237234E+001, +8.05616268436E+002
+5.10784641068E+007, +2.96366760855E+001, +8.10494402010E+002
+5.12437395659E+007, +2.78994913603E+001, +8.15826803539E+002
+5.14090150250E+007, +3.13602360171E+001, +8.21350315801E+002
+5.15742904841E+007, +3.06801660018E+001, +8.24554187844E+002
+5.17395659432E+007, +3.23655894184E+001, +8.28451650142E+002
+5.19048414023E+007, +3.51865835074E+001, +8.35990745675E+002
+5.20701168614E+007, +3.26981060164E+001, +8.42901321868E+002
+5.22353923205E+007, +3.43518008080E+001, +8.48119099952E+002
+5.24006677796E+007, +3.33386533836E+001, +8.47948689440E+002
+5.25659432387E+007, +3.76862831334E+001, +8.56854072219E+002
+5.27312186978E+007, +4.10322385890E+001, +8.60731902404E+002
+5.28964941569E+007, +4.06562833674E+001, +8.68699046862E+002
+5.30617696160E+007, +3.73725077825E+001, +8.72057245539E+002
+5.32270450751E+007, +4.13971038109E+001, +8.75032492966E+002
+5.33923205342E+007, +3.89967260564E+001, +8.82504109551E+002
+5.35575959933E+007, +4.23911145239E+001, +8.87346019765E+002
+5.37228714524E+007, +4.34482261616E+001, +8.93777743147E+002
+5.38881469115E+007, +4.33037421668E+001, +8.95048558254E+002
