"# Channel 1"
"# Trace 1"
Frequency, Formatted Data, Formatted Data
+1.00000000000E+006, +5.43923755512E+000, +1.27347450770E+001
+1.16527545910E+006, +5.48694177879E+000, +1.48608145911E+001
+1.33055091820E+006, +5.50651022872E+000, +1.68754207613E+001
+1.49582637730E+006, +5.49492543125E+000, +1.89782980524E+001
+1.66110183639E+006, +5.51900770658E+000, +2.10822601516E+001
+1.82637729549E+006, +5.52318468607E+000, +2.31361502967E+001
+1.99165275459E+006, +5.55223532234E+000, +2.52252035406E+001
+2.15692821369E+006, +5.53572962309E+000, +2.73240441372E+001
+2.32220367279E+006, +5.49822641972E+000, +2.94117182537E+001
+2.48747913189E+006, +5.52291898611E+000, +3.15019977661E+001
+2.65275459098E+006, +5.47787205909E+000, +3.36073674406E+001
+2.81803005008E+006, +5.52712422099E+000, +3.56719189209E+001
+2.98330550918E+006, +5.49682304995E+000, +3.77062781768E+001
+3.14858096828E+006, +5.58718233125E+000, +3.98164226161E+001
+3.31385642738E+006, +5.62783351415E+000, +4.19043757500E+001
+3.47913188648E+006, +5.51512759997E+000, +4.40530385302E+001
+3.64440734558E+006, +5.58958121320E+000, +4.61009543276E+001
+3.80968280467E+006, +5.67566896560E+000, +4.81971272385E+001
+3.97495826377E+006, +5.66319556282E+000, +5.03158367353E+001
+4.14023372287E+006, +5.68926597987E+000, +5.25481210892E+001
+4.30550918197E+006, +5.73079021598E+000, +5.43572009783E+001
+4.47078464107E+006, +5.67768067951E+000, +5.65495013533E+001
+4.63606010017E+006, +5.62277799998E+000, +5.86266653906E+001
+4.80133555927E+006, +5.61986312006E+000, +6.07875159597E+001
+4.96661101836E+006, +5.72059266533E+000, +6.28607053507E+001
+5.13188647746E+006, +5.68888709977E+000, +6.49668650682E+001
+5.29716193656E+006, +5.73445153827E+000, +6.69618304895E+001
+5.46243739566E+006, +5.72825249338E+000, +6.91649824666E+001
+5.62771285476E+006, +5.78420666417E+000, +7.12445488997E+001
+5.79298831386E+006, +5.87260290323E+000, +7.34032413850E+001
+5.95826377295E+006, +5.81414292831E+000, +7.54162749100E+001
+6.12353923205E+006, +6.00766065709E+000, +7.75042497346E+001
+6.28881469115E+006, +5.97894343324E+000, +7.96195488534E+001
+6.45409015025E+006, +6.00533303996E+000, +8.17387074860E+001
+6.61936560935E+006, +5.95644256890E+000, +8.38423626536E+001
+6.78464106845E+006, +6.00473522108E+000, +8.59210136628E+001
+6.94991652755E+006, +6.06735581646E+000, +8.80317761969E+001
+7.11519198664E+006, +6.11487337899E+000, +9.01112288432E+001
+7.28046744574E+006, +6.16568490463E+000, +9.22261371845E+001
+7.44574290484E+006, +6.21433685995E+000, +9.43229462851E+001
+7.61101836394E+006, +6.21645450282E+000, +9.64223967053E+001
+7.77629382304E+006, +6.27543692289E+000, +9.84686501983E+001
+7.94156928214E+006, +6.18774674063E+000, +1.00630269321E+002
+8.10684474124E+006, +6.21693564632E+000, +1.02514671876E+002
+8.27212020033E+006, +6.33321920380E+000, +1.04719964655E+002
+8.43739565943E+006, +6.29276846785E+000, +1.06966258680E+002
+8.60267111853E+006, +6.20688081682E+000, +1.08904236990E+002
+8.76794657763E+006, +6.32176882945E+000, +1.11049294050E+002
+8.93322203673E+006, +6.33062021073E+000, +1.13253423940E+002
+9.09849749583E+006, +6.36021032073E+000, +1.15223469671E+002
+9.26377295492E+006, +6.34699256151E+000, +1.17500466512E+002
+9.42904841402E+006, +6.49620132927E+000, +1.19485154486E+002
+9.59432387312E+006, +6.38432170781E+000, +1.21538830343E+002
+9.75959933222E+006, +6.33268932581E+000, +1.23660104063E+002
+9.92487479132E+006, +6.38125621465E+000, +1.25678089446E+002
+1.00901502504E+007, +6.45770304304E+000, +1.27919967219E+002
+1.02554257095E+007, +6.41832889783E+000, +1.29895795505E+002
+1.04207011686E+007, +6.47025072394E+000, +1.31973762000E+002
+1.05859766277E+007, +6.43169258827E+000, +1.34297308148E+002
+1.07512520868E+007, +6.54300906298E+000, +1.36370308203E+002
+1.09165275459E+007, +6.56899441686E+000, +1.38495173593E+002
+1.10818030050E+007, +6.64677869881E+000, +1.40654486082E+002
+1.12470784641E+007, +6.56828332766E+000, +1.42516330807E+002
+1.14123539232E+007, +6.58064166906E+000, +1.44662556230E+002
+1.15776293823E+007, +6.68279203003E+000, +1.46929907475E+002
+1.17429048414E+007, +6.61968473550E+000, +1.49087641376E+002
+1.19081803005E+007, +6.62683883087E+000, +1.51209670410E+002
+1.20734557596E+007, +6.77627771401E+000, +1.53291865117E+002
+1.22387312187E+007, +6.57889261523E+000, +1.55317117536E+002
+1.24040066778E+007, +6.72437085182E+000, +1.57475413399E+002
+1.25692821369E+007, +6.65023436382E+000, +1.59635908598E+002
+1.27345575960E+007, +6.81555930103E+000, +1.61655607445E+002
+1.28998330551E+007, +6.83832519225E+000, +1.63857903057E+002
+1.30651085142E+007, +6.64513821606E+000, +1.65992982562E+002
+1.32303839733E+007, +6.98176163781E+000, +1.68190571890E+002
+1.33956594324E+007, +6.81919232659E+000, +1.70396863509E+002
+1.35609348915E+007, +6.85154340429E+000, +1.72429586532E+002
+1.37262103506E+007, +6.84335964618E+000, +1.74235108319E+002
+1.38914858097E+007, +7.02024537721E+000, +1.76609269776E+002
+1.40567612688E+007, +7.03174416082E+000, +1.78746997885E+002
+1.42220367279E+007, +7.03071668246E+000, +1.80865368226E+002
+1.43873121870E+007, +7.00447365629E+000, +1.83143220617E+002
+1.45525876461E+007, +6.98635932440E+000, +1.85171530298E+002
+1.47178631052E+007, +7.04396479125E+000, +1.87479834831E+002
+1.48831385643E+007, +7.05828519669E+000, +1.89463427185E+002
+1.50484140234E+007, +7.20905146464E+000, +1.91599463703E+002
+1.52136894825E+007, +7.10745485597E+000, +1.93888981615E+002
+1.53789649416E+007, +7.15577710941E+000, +1.95949610838E+002
+1.55442404007E+007, +7.06003031909E+000, +1.98013114537E+002
+1.57095158598E+007, +7.09828992714E+000, +2.00340517941E+002
+1.58747913189E+007, +7.29915144483E+000, +2.02627865919E+002
+1.60400667780E+007, +7.20104625337E+000, +2.04468592527E+002
+1.62053422371E+007, +7.17818766697E+000, +2.06638254613E+002
+1.63706176962E+007, +7.32236500425E+000, +2.08795773724E+002
+1.65358931553E+007, +7.41069886937E+000, +2.10874791308E+002
+1.67011686144E+007, +7.76111409980E+000, +2.13086708911E+002
+1.68664440735E+007, +7.28665458594E+000, +2.15241999981E+002
+1.70317195326E+007, +7.28792417467E+000, +2.17666364064E+002
+1.71969949917E+007, +7.04128198710E+000, +2.19572896702E+002
+1.73622704508E+007, +7.36871340338E+000, +2.21813413982E+002
+1.75275459098E+007, +7.23142504002E+000, +2.23931553984E+002
+1.76928213689E+007, +7.44061848936E+000, +2.26375374731E+002
+1.78580968280E+007, +7.41696690009E+000, +2.28541151742E+002
+1.80233722871E+007, +7.61563798336E+000, +2.30754446288E+002
+1.81886477462E+007, +7.58296684066E+000, +2.32959439554E+002
+1.83539232053E+007, +7.79382291171E+000, +2.34993498134E+002
+1.85191986644E+007, +7.87958562289E+000, +2.37255020736E+002
+1.86844741235E+007, +7.67847612245E+000, +2.38823717790E+002
+1.88497495826E+007, +7.70275258304E+000, +2.41596195530E+002
+1.90150250417E+007, +7.51021552249E+000, +2.43587503341E+002
+1.91803005008E+007, +7.61590518074E+000, +2.45716793410E+002
+1.93455759599E+007, +7.78419070983E+000, +2.47729979286E+002
+1.95108514190E+007, +8.05710843390E+000, +2.50315143019E+002
+1.96761268781E+007, +8.12812633728E+000, +2.52491308964E+002
+1.98414023372E+007, +8.10395962730E+000, +2.54967289886E+002
+2.00066777963E+007, +8.00117012352E+000, +2.56724130367E+002
+2.01719532554E+007, +8.05179953485E+000, +2.59304182313E+002
+2.03372287145E+007, +8.27280086803E+000, +2.61479010953E+002
+2.05025041736E+007, +8.27922310852E+000, +2.63656580987E+002
+2.06677796327E+007, +8.17625258353E+000, +2.65888860549E+002
+2.08330550918E+007, +8.00325671930E+000, +2.68146989825E+002
+2.09983305509E+007, +8.26361354833E+000, +2.70588668733E+002
+2.11636060100E+007, +7.95560464242E+000, +2.72680686284E+002
+2.13288814691E+007, +8.36296190123E+000, +2.74685608133E+002
+2.14941569282E+007, +8.35926893254E+000, +2.76713127124E+002
+2.16594323873E+007, +8.73463455514E+000, +2.79261973299E+002
+2.18247078464E+007, +8.45085724969E+000, +2.81563350155E+002
+2.19899833055E+007, +8.32603960106E+000, +2.83816435389E+002
+2.21552587646E+007, +8.54688231079E+000, +2.86022423013E+002
+2.23205342237E+007, +8.39117510022E+000, +2.88352260212E+002
+2.24858096828E+007, +8.53335755868E+000, +2.90317947324E+002
+2.26510851419E+007, +9.15978861431E+000, +2.92796159826E+002
+2.28163606010E+007, +8.86712513406E+000, +2.95093932292E+002
+2.29816360601E+007, +8.53686380331E+000, +2.97135708782E+002
+2.31469115192E+007, +9.68616594823E+000, +2.99604640501E+002
+2.33121869783E+007, +9.62668978630E+000, +3.02254563390E+002
+2.34774624374E+007, +9.26850334400E+000, +3.04337201619E+002
+2.36427378965E+007, +9.35994282648E+000, +3.06663085264E+002
+2.38080133556E+007, +9.40726384183E+000, +3.08621307796E+002
+2.39732888147E+007, +9.91434673710E+000, +3.11186878147E+002
+2.41385642738E+007, +9.33150020647E+000, +3.13190989117E+002
+2.43038397329E+007, +9.49279696717E+000, +3.15529779146E+002
+2.44691151920E+007, +9.67355374088E+000, +3.17803927430E+002
+2.46343906511E+007, +9.43991364199E+000, +3.20155593803E+002
+2.47996661102E+007, +9.73390018518E+000, +3.22279874285E+002
+2.49649415693E+007, +9.58230166898E+000, +3.24964310456E+002
+2.51302170284E+007, +9.46965977050E+000, +3.26676368771E+002
+2.52954924875E+007, +1.01980427809E+001, +3.29330958412E+002
+2.54607679466E+007, +1.01504128563E+001, +3.31751489392E+002
+2.56260434057E+007, +1.01203987875E+001, +3.33189562069E+002
+2.57913188648E+007, +1.01749319774E+001, +3.36078248275E+002
+2.59565943239E+007, +1.06151482471E+001, +3.38374259478E+002
+2.61218697830E+007, +1.05152895106E+001, +3.40284465529E+002
+2.62871452421E+007, +1.05565197494E+001, +3.42704622788E+002
+2.64524207012E+007, +1.04118583066E+001, +3.45225058314E+002
+2.66176961603E+007, +1.06392434232E+001, +3.47709035957E+002
+2.67829716194E+007, +1.03455778233E+001, +3.49725574946E+002
+2.69482470785E+007, +1.06824104900E+001, +3.52534456046E+002
+2.71135225376E+007, +1.07891511213E+001, +3.54995135961E+002
+2.72787979967E+007, +1.13338222264E+001, +3.57679418851E+002
+2.74440734558E+007, +1.09982317436E+001, +3.59300671746E+002
+2.76093489149E+007, +1.14397035966E+001, +3.61138457741E+002
+2.77746243740E+007, +1.05222189557E+001, +3.64220795605E+002
+2.79398998331E+007, +1.08098747859E+001, +3.66516875334E+002
+2.81051752922E+007, +1.15392204718E+001, +3.68858342286E+002
+2.82704507513E+007, +1.09850671000E+001, +3.71310380595E+002
+2.84357262104E+007, +1.18327567882E+001, +3.73822985752E+002
+2.86010016694E+007, +1.10409127353E+001, +3.76460803037E+002
+2.87662771285E+007, +1.15808221939E+001, +3.78258065886E+002
+2.89315525876E+007, +1.16780666613E+001, +3.79939396527E+002
+2.90968280467E+007, +1.17136256997E+001, +3.82953792389E+002
+2.92621035058E+007, +1.18144036306E+001, +3.85203661070E+002
+2.94273789649E+007, +1.20684322187E+001, +3.87067358764E+002
+2.95926544240E+007, +1.09148503700E+001, +3.89428623204E+002
+2.97579298831E+007, +1.22418348295E+001, +3.92527509642E+002
+2.99232053422E+007, +1.22977500314E+001, +3.95052544657E+002
+3.00884808013E+007, +1.18411396317E+001, +3.97244864751E+002
+3.02537562604E+007, +1.18531535934E+001, +3.99895696453E+002
+3.04190317195E+007, +1.20141948921E+001, +4.02521615570E+002
+3.05843071786E+007, +1.20901830943E+001, +4.03849075097E+002
+3.07495826377E+007, +1.16227519377E+001, +4.06264631335E+002
+3.09148580968E+007, +1.20877595203E+001, +4.09464726801E+002
+3.10801335559E+007, +1.21933820023E+001, +4.11791881019E+002
+3.12454090150E+007, +1.23211998126E+001, +4.14111440447E+002
+3.14106844741E+007, +1.17429785347E+001, +4.16836565330E+002
+3.15759599332E+007, +1.23568912647E+001, +4.19245447027E+002
+3.17412353923E+007, +1.19318400236E+001, +4.22172933888E+002
+3.19065108514E+007, +1.29200677617E+001, +4.24444173894E+002
+3.20717863105E+007, +1.15701587217E+001, +4.26243766090E+002
+3.22370617696E+007, +1.26655723597E+001, +4.28331999834E+002
+3.24023372287E+007, +1.17418805336E+001, +4.31440065352E+002
+3.25676126878E+007, +1.29251136012E+001, +4.34451790426E+002
+3.27328881469E+007, +1.35340576433E+001, +4.35768687059E+002
+3.28981636060E+007, +1.20133824766E+001, +4.38373115496E+002
+3.30634390651E+007, +1.35743649409E+001, +4.42174799632E+002
+3.32287145242E+007, +1.17305289953E+001, +4.45216558330E+002
+3.33939899833E+007, +1.28104839730E+001, +4.47559471522E+002
+3.35592654424E+007, +1.23084942682E+001, +4.49859482858E+002
+3.37245409015E+007, +1.30627611976E+001, +4.51886083261E+002
+3.38898163606E+007, +1.22948558901E+001, +4.54190883635E+002
+3.40550918197E+007, +1.25790496216E+001, +4.57046760950E+002
+3.42203672788E+007, +1.39532990364E+001, +4.59658531485E+002
+3.43856427379E+007, +1.34915238830E+001, +4.63067321381E+002
+3.45509181970E+007, +1.24506012471E+001, +4.65558288914E+002
+3.47161936561E+007, +1.24758568339E+001, +4.66856125202E+002
+3.48814691152E+007, +1.25780632978E+001, +4.69340236508E+002
+3.50467445743E+007, +1.30417223989E+001, +4.72315158746E+002
+3.52120200334E+007, +1.46143187320E+001, +4.75028495785E+002
+3.53772954925E+007, +1.33859152523E+001, +4.77410220872E+002
+3.55425709516E+007, +1.36440481055E+001, +4.81681204343E+002
+3.57078464107E+007, +1.39813057238E+001, +4.82749013145E+002
+3.58731218698E+007, +1.35174824742E+001, +4.84934132186E+002
+3.60383973289E+007, +1.36290651823E+001, +4.87751619173E+002
+3.62036727880E+007, +1.38019401438E+001, +4.91192299386E+002
+3.63689482471E+007, +1.36792389260E+001, +4.92968732369E+002
+3.65342237062E+007, +1.37089530701E+001, +4.95949546227E+002
+3.66994991653E+007, +1.28193140063E+001, +4.99562687377E+002
+3.68647746244E+007, +1.46457920766E+001, +5.01437782308E+002
+3.70300500835E+007, +1.30554861092E+001, +5.05254092909E+002
+3.71953255426E+007, +1.37502564863E+001, +5.08223240606E+002
+3.73606010017E+007, +1.40915114572E+001, +5.11400192694E+002
+3.75258764608E+007, +1.23866706822E+001, +5.14136217058E+002
+3.76911519199E+007, +1.36679142762E+001, +5.15541180742E+002
+3.78564273790E+007, +1.38122225026E+001, +5.18825251172E+002
+3.80217028381E+007, +1.31544019952E+001, +5.21489660092E+002
+3.81869782972E+007, +1.27626259782E+001, +5.24046238956E+002
+3.83522537563E+007, +1.30511114101E+001, +5.26672526040E+002
+3.85175292154E+007, +1.42543180722E+001, +5.29335864624E+002
+3.86828046745E+007, +1.37991409948E+001, +5.33128726695E+002
+3.88480801336E+007, +1.54146804942E+001, +5.36014202280E+002
+3.90133555927E+007, +1.38597801557E+001, +5.38891499128E+002
+3.91786310518E+007, +1.39221586575E+001, +5.42814703486E+002
+3.93439065109E+007, +1.39507689989E+001, +5.45845835002E+002
+3.95091819699E+007, +1.67481608325E+001, +5.48002350911E+002
+3.96744574290E+007, +1.43739988626E+001, +5.50734635575E+002
+3.98397328881E+007, +1.44312446751E+001, +5.54455342291E+002
+4.00050083472E+007, +1.47052747868E+001, +5.57747826268E+002
+4.01702838063E+007, +1.29778925536E+001, +5.60067817444E+002
+4.03355592654E+007, +1.51070390994E+001, +5.63058094502E+002
+4.05008347245E+007, +1.38082057476E+001, +5.67368432026E+002
+4.06661101836E+007, +1.36305669997E+001, +5.68838708455E+002
+4.08313856427E+007, +1.32077667163E+001, +5.73481191814E+002
+4.09966611018E+007, +1.43659790855E+001, +5.73682020510E+002
+4.11619365609E+007, +1.46652273405E+001, +5.77340793134E+002
+4.13272120200E+007, +1.62501881912E+001, +5.82466388338E+002
+4.14924874791E+007, +1.50886806307E+001, +5.83372870064E+002
+4.16577629382E+007, +1.43123282457E+001, +5.88692092158E+002
+4.18230383973E+007, +1.47652593089E+001, +5.90872698598E+002
+4.19883138564E+007, +1.54050198015E+001, +5.93913871279E+002
+4.21535893155E+007, +1.40258020007E+001, +5.96187553380E+002
+4.23188647746E+007, +1.57491404020E+001, +6.02271445356E+002
+4.24841402337E+007, +1.35678594655E+001, +6.06088744402E+002
+4.26494156928E+007, +1.36286262082E+001, +6.05919672771E+002
+4.28146911519E+007, +1.63662509100E+001, +6.10042749088E+002
+4.29799666110E+007, +1.44758401861E+001, +6.13488685362E+002
+4.31452420701E+007, +1.44267528896E+001, +6.17877395241E+002
+4.33105175292E+007, +1.49292350431E+001, +6.20562569928E+002
+4.34757929883E+007, +1.38481963374E+001, +6.23746199047E+002
+4.36410684474E+007, +1.22686931674E+001, +6.29000107365E+002
+4.38063439065E+007, +1.64273307653E+001, +6.31621851283E+002
+4.39716193656E+007, +1.81003708641E+001, +6.34440287803E+002
+4.41368948247E+007, +1.41487941757E+001, +6.38806696865E+002
+4.43021702838E+007, +1.60689061447E+001, +6.42301750285E+002
+4.44674457429E+007, +1.48717011237E+001, +6.46451931539E+002
+4.46327212020E+007, +1.63937731690E+001, +6.48923559482E+002
+4.47979966611E+007, +1.50804273195E+001, +6.52115444319E+002
+4.49632721202E+007, +1.72972498085E+001, +6.56915634488E+002
+4.51285475793E+007, +1.63920017896E+001, +6.60708936479E+002
+4.52938230384E+007, +1.77577900495E+001, +6.65760138278E+002
+4.54590984975E+007, +1.52419033363E+001, +6.65932559424E+002
+4.56243739566E+007, +1.75750708658E+001, +6.71973534315E+002
+4.57896494157E+007, +1.64372091105E+001, +6.73652306214E+002
+4.59549248748E+007, +1.58846197333E+001, +6.79568410329E+002
+4.61202003339E+007, +1.51517128353E+001, +6.83079853892E+002
+4.62854757930E+007, +1.73921837538E+001, +6.88657393864E+002
+4.64507512521E+007, +1.78271747197E+001, +6.91330184292E+002
+4.66160267112E+007, +1.82294145802E+001, +6.96092272923E+002
+4.67813021703E+007, +1.87709085272E+001, +7.00657389553E+002
+4.69465776294E+007, +1.92742196425E+001, +7.02144993218E+002
+4.71118530885E+007, +2.06578065072E+001, +7.08059821694E+002
+4.72771285476E+007, +1.95121327820E+001, +7.12828997985E+002
+4.74424040067E+007, +1.87399922763E+001, +7.15196446395E+002
+4.76076794658E+007, +2.04772171192E+001, +7.18941092261E+002
+4.77729549249E+007, +1.96336654111E+001, +7.24728994972E+002
+4.79382303840E+007, +2.32996772394E+001, +7.26112825242E+002
+4.81035058431E+007, +2.17165339764E+001, +7.32062552452E+002
+4.82687813022E+007, +2.29598285073E+001, +7.35425030230E+002
+4.84340567613E+007, +2.17608511888E+001, +7.43038865035E+002
+4.85993322204E+007, +2.31499665770E+001, +7.45616997295E+002
+4.87646076795E+007, +2.42263426307E+001, +7.50768715499E+002
+4.89298831386E+007, +2.66073692917E+001, +7.52816657430E+002
+4.90951585977E+007, +2.48821303930E+001, +7.56948481606E+002
+4.92604340568E+007, +2.35634261015E+001, +7.61623798019E+002
+4.94257095159E+007, +2.73181435711E+001, +7.67055024331E+002
+4.95909849750E+007, +2.87137102618E+001, +7.72579754700E+002
+4.97562604341E+007, +2.76542157676E+001, +7.73983571642E+002
+4.99215358932E+007, +2.62940150182E+001, +7.80870757332E+002
+5.00868113523E+007, +2.71331054539E+001, +7.87505883955E+002
+5.02520868114E+007, +2.79159474279E+001, +7.94335855437E+002
+5.04173622705E+007, +2.67127842218E+001, +7.96480625478E+002
+5.05826377295E+007, +2.61505234498E+001, +7.96307060367E+002
+5.07479131886E+007, +2.94437857030E+001, +8.04422762193E+002
+5.09131886477E+007, +2.68256752691E+001, +8.10238027491E+002
+5.10784641068E+007, +3.02201315715E+001, +8.16222724630E+002
+5.12437395659E+007, +3.10082912969E+001, +8.20542561402E+002
+5.14090150250E+007, +3.04873375767E+001, +8.25108285929E+002
+5.15742904841E+007, +3.11798276812E+001, +8.29563321642E+002
+5.17395659432E+007, +3.32371922563E+001, +8.34784094332E+002
+5.19048414023E+007, +3.61649000808E+001, +8.40976219137E+002
+5.20701168614E+007, +3.43061189862E+001, +8.46743076360E+002
+5.22353923205E+007, +3.47119184766E+001, +8.53992317580E+002
+5.24006677796E+007, +3.72797361844E+001, +8.53303722549E+002
+5.25659432387E+007, +3.82096567496E+001, +8.62557493209E+002
+5.27312186978E+007, +4.08770429060E+001, +8.65086956971E+002
+5.28964941569E+007, +3.96340550884E+001, +8.73920711972E+002
+5.30617696160E+007, +4.02619317256E+001, +8.77003583410E+002
+5.32270450751E+007, +4.14846190450E+001, +8.82284414595E+002
+5.33923205342E+007, +4.17811174102E+001, +8.89936516836E+002
+5.35575959933E+007, +4.28770177179E+001, +8.93519516622E+002
+5.37228714524E+007, +4.51901397392E+001, +8.97114521236E+002
+5.38881469115E+007, +4.68578024763E+001, +9.01996276163E+002
