"# Channel 1"
"# Trace 1"
Frequency, Formatted Data, Formatted Data
+1.00000000000E+005, +6.44026151458E+001, +1.26230154424E+000
+2.25031289111E+005, +6.43905691003E+001, +3.19935953617E+000
+3.50062578223E+005, +6.43285634144E+001, +5.07285225820E+000
+4.75093867334E+005, +6.44466207817E+001, +6.82499249821E+000
+6.00125156446E+005, +6.45329338501E+001, +8.61952275856E+000
+7.25156445557E+005, +6.44896694645E+001, +1.04713877620E+001
+8.50187734668E+005, +6.44006139111E+001, +1.22582525142E+001
+9.75219023780E+005, +6.44706897163E+001, +1.39661968501E+001
+1.10025031289E+006, +6.46330926027E+001, +1.58559065000E+001
+1.22528160200E+006, +6.45276071460E+001, +1.74683749103E+001
+1.35031289111E+006, +6.45604177147E+001, +1.92404387668E+001
+1.47534418023E+006, +6.45632041716E+001, +2.11122185666E+001
+1.60037546934E+006, +6.45521709271E+001, +2.27409469445E+001
+1.72540675845E+006, +6.46634350409E+001, +2.46409699551E+001
+1.85043804756E+006, +6.45001398275E+001, +2.65705732776E+001
+1.97546933667E+006, +6.46335333435E+001, +2.82011622803E+001
+2.10050062578E+006, +6.47402691434E+001, +3.01298396511E+001
+2.22553191489E+006, +6.45660189172E+001, +3.18734003090E+001
+2.35056320401E+006, +6.46962068344E+001, +3.36086635229E+001
+2.47559449312E+006, +6.45527353398E+001, +3.54131354997E+001
+2.60062578223E+006, +6.48301407227E+001, +3.72687510328E+001
+2.72565707134E+006, +6.47322024327E+001, +3.90359652978E+001
+2.85068836045E+006, +6.49610531235E+001, +4.06570814025E+001
+2.97571964956E+006, +6.48049447804E+001, +4.26437870090E+001
+3.10075093867E+006, +6.46548287911E+001, +4.44302074189E+001
+3.22578222778E+006, +6.49055028631E+001, +4.61815601320E+001
+3.35081351690E+006, +6.48822998896E+001, +4.80368854497E+001
+3.47584480601E+006, +6.47252089901E+001, +4.96719843853E+001
+3.60087609512E+006, +6.49334140536E+001, +5.17431714678E+001
+3.72590738423E+006, +6.54156889451E+001, +5.34369564122E+001
+3.85093867334E+006, +6.49972784511E+001, +5.51177488330E+001
+3.97596996245E+006, +6.48996762093E+001, +5.71274805896E+001
+4.10100125156E+006, +6.50655007951E+001, +5.86407197949E+001
+4.22603254068E+006, +6.48683893868E+001, +6.04856643268E+001
+4.35106382979E+006, +6.52367761950E+001, +6.22008130160E+001
+4.47609511890E+006, +6.51483846432E+001, +6.43880937881E+001
+4.60112640801E+006, +6.52251940506E+001, +6.59640905010E+001
+4.72615769712E+006, +6.53293587143E+001, +6.75604259042E+001
+4.85118898623E+006, +6.52846094277E+001, +6.94814669780E+001
+4.97622027534E+006, +6.52510977194E+001, +7.13030536997E+001
+5.10125156446E+006, +6.54348949225E+001, +7.30695875179E+001
+5.22628285357E+006, +6.56391223453E+001, +7.51492486681E+001
+5.35131414268E+006, +6.54969272679E+001, +7.68372552044E+001
+5.47634543179E+006, +6.56788213045E+001, +7.87386965511E+001
+5.60137672090E+006, +6.56016703470E+001, +8.04270499691E+001
+5.72640801001E+006, +6.54689770733E+001, +8.20393374366E+001
+5.85143929912E+006, +6.58310060182E+001, +8.39025676696E+001
+5.97647058824E+006, +6.57762000962E+001, +8.57560059849E+001
+6.10150187735E+006, +6.58494609307E+001, +8.75690644767E+001
+6.22653316646E+006, +6.57576043419E+001, +8.95773504055E+001
+6.35156445557E+006, +6.58835677109E+001, +9.11986492139E+001
+6.47659574468E+006, +6.60727414384E+001, +9.30098170069E+001
+6.60162703379E+006, +6.59742089532E+001, +9.46607411684E+001
+6.72665832290E+006, +6.61945021025E+001, +9.65616279041E+001
+6.85168961202E+006, +6.61646858080E+001, +9.84166589892E+001
+6.97672090113E+006, +6.61648714043E+001, +1.00144284192E+002
+7.10175219024E+006, +6.64610039467E+001, +1.02070397404E+002
+7.22678347935E+006, +6.64236385702E+001, +1.03841252279E+002
+7.35181476846E+006, +6.64913952242E+001, +1.05625509967E+002
+7.47684605757E+006, +6.64847455289E+001, +1.07455585107E+002
+7.60187734668E+006, +6.65785273090E+001, +1.09225345435E+002
+7.72690863579E+006, +6.65827352214E+001, +1.11033200476E+002
+7.85193992491E+006, +6.68451366408E+001, +1.12849046600E+002
+7.97697121402E+006, +6.67852889261E+001, +1.14585377950E+002
+8.10200250313E+006, +6.68558787558E+001, +1.16641525092E+002
+8.22703379224E+006, +6.68498308476E+001, +1.18443383333E+002
+8.35206508135E+006, +6.68955645094E+001, +1.20108124500E+002
+8.47709637046E+006, +6.71121755999E+001, +1.21977994858E+002
+8.60212765957E+006, +6.71460715711E+001, +1.23951044353E+002
+8.72715894869E+006, +6.72899463110E+001, +1.25788249913E+002
+8.85219023780E+006, +6.73213024894E+001, +1.27427908563E+002
+8.97722152691E+006, +6.74945847963E+001, +1.29306850623E+002
+9.10225281602E+006, +6.74716455627E+001, +1.31275082642E+002
+9.22728410513E+006, +6.76072469439E+001, +1.33060597426E+002
+9.35231539424E+006, +6.76372198253E+001, +1.34983094406E+002
+9.47734668335E+006, +6.74762179477E+001, +1.36642400600E+002
+9.60237797247E+006, +6.77856304728E+001, +1.38521032582E+002
+9.72740926158E+006, +6.76451862617E+001, +1.40232711434E+002
+9.85244055069E+006, +6.76990330654E+001, +1.42337846154E+002
+9.97747183980E+006, +6.78723955442E+001, +1.44043106498E+002
+1.01025031289E+007, +6.79267841051E+001, +1.45968093638E+002
+1.02275344180E+007, +6.77315772790E+001, +1.47669715719E+002
+1.03525657071E+007, +6.81112572952E+001, +1.49742961471E+002
+1.04775969962E+007, +6.81876648348E+001, +1.51487418850E+002
+1.06026282854E+007, +6.81815194192E+001, +1.53467175105E+002
+1.07276595745E+007, +6.83390260355E+001, +1.55439141269E+002
+1.08526908636E+007, +6.85999004573E+001, +1.57047487295E+002
+1.09777221527E+007, +6.84561482161E+001, +1.59062063408E+002
+1.11027534418E+007, +6.85212466133E+001, +1.60923326946E+002
+1.12277847309E+007, +6.89624808812E+001, +1.62717771924E+002
+1.13528160200E+007, +6.87298125384E+001, +1.64502353218E+002
+1.14778473091E+007, +6.87590480674E+001, +1.66445798172E+002
+1.16028785982E+007, +6.90793126705E+001, +1.68278501597E+002
+1.17279098874E+007, +6.89101312178E+001, +1.70041944089E+002
+1.18529411765E+007, +6.91497766016E+001, +1.72230490489E+002
+1.19779724656E+007, +6.93636576778E+001, +1.74014818782E+002
+1.21030037547E+007, +6.92447629215E+001, +1.75743522114E+002
+1.22280350438E+007, +6.91601029489E+001, +1.77631297253E+002
+1.23530663329E+007, +6.95783485996E+001, +1.79911485737E+002
+1.24780976220E+007, +6.96483345068E+001, +1.81518369142E+002
+1.26031289111E+007, +6.97635839228E+001, +1.83307856761E+002
+1.27281602003E+007, +6.96238005594E+001, +1.85225106392E+002
+1.28531914894E+007, +6.97949936723E+001, +1.87044277334E+002
+1.29782227785E+007, +6.97506544306E+001, +1.89081852220E+002
+1.31032540676E+007, +7.00691676160E+001, +1.90814458490E+002
+1.32282853567E+007, +7.01607649466E+001, +1.92988470036E+002
+1.33533166458E+007, +7.03365211860E+001, +1.94699415670E+002
+1.34783479349E+007, +7.04110218503E+001, +1.96508298390E+002
+1.36033792240E+007, +7.01759329128E+001, +1.98760926769E+002
+1.37284105131E+007, +7.04449939210E+001, +2.00192320176E+002
+1.38534418023E+007, +7.06166065962E+001, +2.02272847272E+002
+1.39784730914E+007, +7.08628069003E+001, +2.04250682999E+002
+1.41035043805E+007, +7.08175402033E+001, +2.06251934773E+002
+1.42285356696E+007, +7.10724103077E+001, +2.07989537650E+002
+1.43535669587E+007, +7.11507425111E+001, +2.09818299722E+002
+1.44785982478E+007, +7.11188895961E+001, +2.11829791813E+002
+1.46036295369E+007, +7.12818795494E+001, +2.13859688575E+002
+1.47286608260E+007, +7.13222012380E+001, +2.15976903338E+002
+1.48536921151E+007, +7.15635871794E+001, +2.17500626113E+002
+1.49787234043E+007, +7.14763219079E+001, +2.19295534791E+002
+1.51037546934E+007, +7.20757494113E+001, +2.21617986295E+002
+1.52287859825E+007, +7.20979343213E+001, +2.23337582841E+002
+1.53538172716E+007, +7.21319152836E+001, +2.25373559657E+002
+1.54788485607E+007, +7.22676822424E+001, +2.27498414246E+002
+1.56038798498E+007, +7.25551115260E+001, +2.29041256052E+002
+1.57289111389E+007, +7.18926895803E+001, +2.31021323888E+002
+1.58539424280E+007, +7.21610798702E+001, +2.33208136858E+002
+1.59789737171E+007, +7.29529055293E+001, +2.35159380181E+002
+1.61040050063E+007, +7.30609968921E+001, +2.37279260250E+002
+1.62290362954E+007, +7.27000435488E+001, +2.39065800703E+002
+1.63540675845E+007, +7.29876159406E+001, +2.40821962226E+002
+1.64790988736E+007, +7.27790542385E+001, +2.43271363168E+002
+1.66041301627E+007, +7.28942222384E+001, +2.45070630678E+002
+1.67291614518E+007, +7.33818151999E+001, +2.47009529092E+002
+1.68541927409E+007, +7.34358784155E+001, +2.48679987825E+002
+1.69792240300E+007, +7.35504390265E+001, +2.50673927613E+002
+1.71042553191E+007, +7.35526215849E+001, +2.53190257115E+002
+1.72292866083E+007, +7.36761313055E+001, +2.54504893300E+002
+1.73543178974E+007, +7.36124729756E+001, +2.57092838117E+002
+1.74793491865E+007, +7.39822959908E+001, +2.58801050420E+002
+1.76043804756E+007, +7.39334929454E+001, +2.60925391465E+002
+1.77294117647E+007, +7.41529993772E+001, +2.63063971623E+002
+1.78544430538E+007, +7.45432367141E+001, +2.64782355176E+002
+1.79794743429E+007, +7.44426206221E+001, +2.66629044075E+002
+1.81045056320E+007, +7.48676851467E+001, +2.68922458195E+002
+1.82295369212E+007, +7.50275950876E+001, +2.71181264995E+002
+1.83545682103E+007, +7.50887073042E+001, +2.72872500658E+002
+1.84795994994E+007, +7.53210995421E+001, +2.74332594149E+002
+1.86046307885E+007, +7.56962158782E+001, +2.77055339827E+002
+1.87296620776E+007, +7.49961522384E+001, +2.79222046450E+002
+1.88546933667E+007, +7.57546552983E+001, +2.80564252089E+002
+1.89797246558E+007, +7.57371139267E+001, +2.83068996872E+002
+1.91047559449E+007, +7.62050655746E+001, +2.84841013830E+002
+1.92297872340E+007, +7.56636698229E+001, +2.87281352280E+002
+1.93548185232E+007, +7.61091574076E+001, +2.89167175132E+002
+1.94798498123E+007, +7.64956007342E+001, +2.91108454698E+002
+1.96048811014E+007, +7.70155328674E+001, +2.93031277868E+002
+1.97299123905E+007, +7.69525660488E+001, +2.95232719965E+002
+1.98549436796E+007, +7.67320579402E+001, +2.97173803336E+002
+1.99799749687E+007, +7.74084503982E+001, +2.99435336018E+002
+2.01050062578E+007, +7.75110380832E+001, +3.01579768562E+002
+2.02300375469E+007, +7.73241599599E+001, +3.03476812998E+002
+2.03550688360E+007, +7.78480697554E+001, +3.05521268849E+002
+2.04801001252E+007, +7.78644828459E+001, +3.07835835202E+002
+2.06051314143E+007, +7.86878148877E+001, +3.09362069307E+002
+2.07301627034E+007, +7.85293833416E+001, +3.11094988973E+002
+2.08551939925E+007, +7.86177279540E+001, +3.13691969887E+002
+2.09802252816E+007, +7.89112884092E+001, +3.16053289490E+002
+2.11052565707E+007, +7.90705844708E+001, +3.17867901353E+002
+2.12302878598E+007, +7.93609792982E+001, +3.19929652320E+002
+2.13553191489E+007, +7.91098473785E+001, +3.21727854766E+002
+2.14803504380E+007, +7.93275998300E+001, +3.23232266519E+002
+2.16053817272E+007, +7.92975326564E+001, +3.26551545557E+002
+2.17304130163E+007, +7.99559506450E+001, +3.27505124377E+002
+2.18554443054E+007, +8.02399185318E+001, +3.30286545828E+002
+2.19804755945E+007, +8.05457925404E+001, +3.32589335104E+002
+2.21055068836E+007, +8.07318660268E+001, +3.34129863293E+002
+2.22305381727E+007, +8.07184274112E+001, +3.36099266589E+002
+2.23555694618E+007, +8.05824039341E+001, +3.38031358868E+002
+2.24806007509E+007, +8.09221339306E+001, +3.40699381981E+002
+2.26056320401E+007, +8.14561573915E+001, +3.42831120808E+002
+2.27306633292E+007, +8.09430750715E+001, +3.45457822483E+002
+2.28556946183E+007, +8.21303611688E+001, +3.46539712526E+002
+2.29807259074E+007, +8.17954265199E+001, +3.49384124234E+002
+2.31057571965E+007, +8.24327933872E+001, +3.51676600439E+002
+2.32307884856E+007, +8.13755644196E+001, +3.53593882318E+002
+2.33558197747E+007, +8.22123814762E+001, +3.56191687625E+002
+2.34808510638E+007, +8.27294135787E+001, +3.57799982552E+002
+2.36058823529E+007, +8.28113008402E+001, +3.60160928389E+002
+2.37309136421E+007, +8.24551840355E+001, +3.62342209703E+002
+2.38559449312E+007, +8.36352241808E+001, +3.64302657749E+002
+2.39809762203E+007, +8.39258719012E+001, +3.66084474055E+002
+2.41060075094E+007, +8.43157694562E+001, +3.69607636659E+002
+2.42310387985E+007, +8.42140249393E+001, +3.70581398320E+002
+2.43560700876E+007, +8.49161736738E+001, +3.72661781023E+002
+2.44811013767E+007, +8.42793506383E+001, +3.76125372827E+002
+2.46061326658E+007, +8.53032329348E+001, +3.77483715056E+002
+2.47311639549E+007, +8.54517240584E+001, +3.78966411801E+002
+2.48561952441E+007, +8.56054399183E+001, +3.81395018505E+002
+2.49812265332E+007, +8.52582745631E+001, +3.84003184554E+002
+2.51062578223E+007, +8.47496268865E+001, +3.86101086160E+002
+2.52312891114E+007, +8.53324106665E+001, +3.88941769411E+002
+2.53563204005E+007, +8.61640074852E+001, +3.90853556209E+002
+2.54813516896E+007, +8.69639686088E+001, +3.92519442276E+002
+2.56063829787E+007, +8.66220738437E+001, +3.94743982609E+002
+2.57314142678E+007, +8.66641835861E+001, +3.98338344319E+002
+2.58564455569E+007, +8.69079686255E+001, +3.99389388018E+002
+2.59814768461E+007, +8.72143131519E+001, +4.01659458766E+002
+2.61065081352E+007, +8.70839102299E+001, +4.04776530933E+002
+2.62315394243E+007, +8.80915191605E+001, +4.06755181583E+002
+2.63565707134E+007, +8.81598361077E+001, +4.07713870074E+002
+2.64816020025E+007, +8.90226847076E+001, +4.10720510440E+002
+2.66066332916E+007, +8.90185216588E+001, +4.12928375753E+002
+2.67316645807E+007, +8.83101584972E+001, +4.14865895641E+002
+2.68566958698E+007, +8.94379445697E+001, +4.16658489602E+002
+2.69817271589E+007, +8.98847955866E+001, +4.19836787649E+002
+2.71067584481E+007, +8.95431644284E+001, +4.23151124472E+002
+2.72317897372E+007, +8.98114232964E+001, +4.24206478108E+002
+2.73568210263E+007, +9.06735990448E+001, +4.25936322362E+002
+2.74818523154E+007, +9.07690947948E+001, +4.29034147321E+002
+2.76068836045E+007, +9.08602623655E+001, +4.32016318483E+002
+2.77319148936E+007, +9.02173997293E+001, +4.33485135331E+002
+2.78569461827E+007, +9.01164981083E+001, +4.36501378959E+002
+2.79819774718E+007, +9.12512059799E+001, +4.38927331686E+002
+2.81070087610E+007, +9.10085640746E+001, +4.40108143879E+002
+2.82320400501E+007, +9.21293403181E+001, +4.42035655654E+002
+2.83570713392E+007, +9.19343942714E+001, +4.46018293487E+002
+2.84821026283E+007, +9.29143853748E+001, +4.47424231474E+002
+2.86071339174E+007, +9.18429769306E+001, +4.50420364446E+002
+2.87321652065E+007, +9.25593095952E+001, +4.53382122231E+002
+2.88571964956E+007, +9.23380648057E+001, +4.54524512382E+002
+2.89822277847E+007, +9.34373268362E+001, +4.57919461924E+002
+2.91072590738E+007, +9.29098196380E+001, +4.60407209064E+002
+2.92322903630E+007, +9.36606863796E+001, +4.63187595845E+002
+2.93573216521E+007, +9.52291355044E+001, +4.64270135320E+002
+2.94823529412E+007, +9.44509862392E+001, +4.67258044760E+002
+2.96073842303E+007, +9.51589894019E+001, +4.70185887678E+002
+2.97324155194E+007, +9.48257368149E+001, +4.71942279134E+002
+2.98574468085E+007, +9.50109584229E+001, +4.73819262627E+002
+2.99824780976E+007, +9.47652737230E+001, +4.76580332645E+002
+3.01075093867E+007, +9.54528068014E+001, +4.80466457804E+002
+3.02325406758E+007, +9.48290470088E+001, +4.83681417952E+002
+3.03575719650E+007, +9.68207190084E+001, +4.85308912442E+002
+3.04826032541E+007, +9.73037676140E+001, +4.87579165276E+002
+3.06076345432E+007, +9.61076716756E+001, +4.89294294341E+002
+3.07326658323E+007, +9.72773623215E+001, +4.93005503918E+002
+3.08576971214E+007, +9.62863629739E+001, +4.96051269063E+002
+3.09827284105E+007, +9.83520203777E+001, +4.95786306518E+002
+3.11077596996E+007, +9.74817806308E+001, +5.00610589813E+002
+3.12327909887E+007, +9.68830308946E+001, +5.01893707182E+002
+3.13578222778E+007, +9.80896967350E+001, +5.04905801591E+002
+3.14828535670E+007, +9.97912340971E+001, +5.05434817587E+002
+3.16078848561E+007, +1.00003486048E+002, +5.09642915848E+002
+3.17329161452E+007, +1.00068285062E+002, +5.11293063508E+002
+3.18579474343E+007, +9.86127725382E+001, +5.14357763019E+002
+3.19829787234E+007, +1.00771321690E+002, +5.17674926777E+002
+3.21080100125E+007, +9.97858177406E+001, +5.19247370623E+002
+3.22330413016E+007, +1.01162174757E+002, +5.23286801077E+002
+3.23580725907E+007, +1.02539325107E+002, +5.24787860538E+002
+3.24831038798E+007, +1.02235260893E+002, +5.27648449484E+002
+3.26081351690E+007, +1.02355225882E+002, +5.31136030771E+002
+3.27331664581E+007, +1.03318950803E+002, +5.32922048392E+002
+3.28581977472E+007, +1.01991817049E+002, +5.36252988111E+002
+3.29832290363E+007, +1.02328171412E+002, +5.38958490807E+002
+3.31082603254E+007, +1.03890209012E+002, +5.41148391134E+002
+3.32332916145E+007, +1.04242597721E+002, +5.44116483297E+002
+3.33583229036E+007, +1.04152947168E+002, +5.46179292065E+002
+3.34833541927E+007, +1.04784307076E+002, +5.48362895878E+002
+3.36083854819E+007, +1.03794219914E+002, +5.52051701996E+002
+3.37334167710E+007, +1.04417936638E+002, +5.53890955020E+002
+3.38584480601E+007, +1.05258160743E+002, +5.58144356029E+002
+3.39834793492E+007, +1.05666096139E+002, +5.59470844199E+002
+3.41085106383E+007, +1.04433901474E+002, +5.61044405861E+002
+3.42335419274E+007, +1.05843955298E+002, +5.65081061959E+002
+3.43585732165E+007, +1.07779583979E+002, +5.68761200230E+002
+3.44836045056E+007, +1.07095036359E+002, +5.69517334609E+002
+3.46086357947E+007, +1.06957861420E+002, +5.73347604352E+002
+3.47336670839E+007, +1.09490322127E+002, +5.75581236482E+002
+3.48586983730E+007, +1.08935468543E+002, +5.79681912184E+002
+3.49837296621E+007, +1.08600135484E+002, +5.84329081883E+002
+3.51087609512E+007, +1.09918518553E+002, +5.83571120784E+002
+3.52337922403E+007, +1.10459917036E+002, +5.88515822675E+002
+3.53588235294E+007, +1.11031579746E+002, +5.89977664488E+002
+3.54838548185E+007, +1.12349072369E+002, +5.93229587728E+002
+3.56088861076E+007, +1.10897807723E+002, +5.94975178652E+002
+3.57339173967E+007, +1.11104272806E+002, +5.97422328178E+002
+3.58589486859E+007, +1.13365157906E+002, +6.00241458982E+002
+3.59839799750E+007, +1.13097235019E+002, +6.02451984892E+002
+3.61090112641E+007, +1.11607752235E+002, +6.06289767899E+002
+3.62340425532E+007, +1.11279463443E+002, +6.09310642794E+002
+3.63590738423E+007, +1.13769687610E+002, +6.12139688724E+002
+3.64841051314E+007, +1.12788076236E+002, +6.15273146261E+002
+3.66091364205E+007, +1.14171457661E+002, +6.16463037172E+002
+3.67341677096E+007, +1.16140719395E+002, +6.21877097747E+002
+3.68591989987E+007, +1.14689217293E+002, +6.23978240478E+002
+3.69842302879E+007, +1.16644405768E+002, +6.30110136258E+002
+3.71092615770E+007, +1.17320076167E+002, +6.29756463720E+002
+3.72342928661E+007, +1.17961182219E+002, +6.34066661846E+002
+3.73593241552E+007, +1.16020442889E+002, +6.36409756647E+002
+3.74843554443E+007, +1.18071052721E+002, +6.37645728302E+002
+3.76093867334E+007, +1.20135269219E+002, +6.42234273209E+002
+3.77344180225E+007, +1.19312775762E+002, +6.44498219357E+002
+3.78594493116E+007, +1.18269166627E+002, +6.48790886348E+002
+3.79844806008E+007, +1.18729838397E+002, +6.50441582789E+002
+3.81095118899E+007, +1.16861364050E+002, +6.52883571395E+002
+3.82345431790E+007, +1.20842052389E+002, +6.59529496529E+002
+3.83595744681E+007, +1.21014305500E+002, +6.58982535543E+002
+3.84846057572E+007, +1.21342366739E+002, +6.62615002571E+002
+3.86096370463E+007, +1.23039634048E+002, +6.68427320700E+002
+3.87346683354E+007, +1.25777641207E+002, +6.70171156466E+002
+3.88596996245E+007, +1.24111498605E+002, +6.74504098272E+002
+3.89847309136E+007, +1.23503488943E+002, +6.75795437632E+002
+3.91097622028E+007, +1.27750955549E+002, +6.80105536648E+002
+3.92347934919E+007, +1.24933023137E+002, +6.82509000444E+002
+3.93598247810E+007, +1.28221644931E+002, +6.83973552406E+002
+3.94848560701E+007, +1.26436526767E+002, +6.88902937744E+002
+3.96098873592E+007, +1.27508264913E+002, +6.90658401906E+002
+3.97349186483E+007, +1.28308969824E+002, +6.93547714631E+002
+3.98599499374E+007, +1.28178738352E+002, +6.96591641585E+002
+3.99849812265E+007, +1.26394718473E+002, +7.03817613183E+002
+4.01100125156E+007, +1.29852204163E+002, +7.06582193901E+002
