"# Channel 1"
"# Trace 1"
Frequency, Formatted Data, Formatted Data
+1.00000000000E+005, +4.45593881197E+000, +1.54005650397E+000
+2.25031289111E+005, +4.57212623788E+000, +3.29051461022E+000
+3.50062578223E+005, +4.65843839071E+000, +5.07043881650E+000
+4.75093867334E+005, +4.70601219012E+000, +6.75354643201E+000
+6.00125156446E+005, +4.79313821306E+000, +8.45989979823E+000
+7.25156445557E+005, +4.83803641188E+000, +1.01593211861E+001
+8.50187734668E+005, +4.94173564054E+000, +1.18095155538E+001
+9.75219023780E+005, +4.95553503933E+000, +1.35057060283E+001
+1.10025031289E+006, +5.03069256412E+000, +1.51721285546E+001
+1.22528160200E+006, +5.11797331718E+000, +1.68824248476E+001
+1.35031289111E+006, +5.14755304307E+000, +1.85202139877E+001
+1.47534418023E+006, +5.15984494813E+000, +2.01924257170E+001
+1.60037546934E+006, +5.20645571095E+000, +2.19040536797E+001
+1.72540675845E+006, +5.24916477076E+000, +2.35117666030E+001
+1.85043804756E+006, +5.29316913291E+000, +2.51593684744E+001
+1.97546933667E+006, +5.32293470961E+000, +2.68109713317E+001
+2.10050062578E+006, +5.39283395837E+000, +2.85078111547E+001
+2.22553191489E+006, +5.38027857159E+000, +3.01447058064E+001
+2.35056320401E+006, +5.39962426004E+000, +3.18123296416E+001
+2.47559449312E+006, +5.47752782574E+000, +3.35022477608E+001
+2.60062578223E+006, +5.50919483636E+000, +3.51210130075E+001
+2.72565707134E+006, +5.47812206439E+000, +3.68163516131E+001
+2.85068836045E+006, +5.57407568372E+000, +3.84888004881E+001
+2.97571964956E+006, +5.51633732328E+000, +4.01059308032E+001
+3.10075093867E+006, +5.57903759387E+000, +4.17797577455E+001
+3.22578222778E+006, +5.70431611519E+000, +4.34290456236E+001
+3.35081351690E+006, +5.64725386089E+000, +4.50839550315E+001
+3.47584480601E+006, +5.71840754120E+000, +4.68343615444E+001
+3.60087609512E+006, +5.72859235968E+000, +4.84733613077E+001
+3.72590738423E+006, +5.82006506875E+000, +5.00863623594E+001
+3.85093867334E+006, +5.79089833814E+000, +5.17601878398E+001
+3.97596996245E+006, +5.82486625815E+000, +5.34484184812E+001
+4.10100125156E+006, +5.83734322258E+000, +5.50375931433E+001
+4.22603254068E+006, +5.85402562093E+000, +5.68379715562E+001
+4.35106382979E+006, +5.94374757170E+000, +5.84493129528E+001
+4.47609511890E+006, +5.94778496653E+000, +6.00940077945E+001
+4.60112640801E+006, +5.98049822349E+000, +6.17614992653E+001
+4.72615769712E+006, +5.99760705333E+000, +6.34344513848E+001
+4.85118898623E+006, +6.18975716613E+000, +6.51317573100E+001
+4.97622027534E+006, +6.12682124798E+000, +6.67355268759E+001
+5.10125156446E+006, +6.13782710284E+000, +6.84133647180E+001
+5.22628285357E+006, +6.19336366165E+000, +7.00562167099E+001
+5.35131414268E+006, +6.20868513819E+000, +7.17656448395E+001
+5.47634543179E+006, +6.20717217160E+000, +7.34928909363E+001
+5.60137672090E+006, +6.15601427039E+000, +7.52366710974E+001
+5.72640801001E+006, +6.33052816483E+000, +7.68548017377E+001
+5.85143929912E+006, +6.27530429297E+000, +7.85474412948E+001
+5.97647058824E+006, +6.43156503208E+000, +8.02921902491E+001
+6.10150187735E+006, +6.36996375573E+000, +8.19051804896E+001
+6.22653316646E+006, +6.41925418961E+000, +8.34694389270E+001
+6.35156445557E+006, +6.58394740340E+000, +8.53072236945E+001
+6.47659574468E+006, +6.59118704911E+000, +8.68063736119E+001
+6.60162703379E+006, +6.59896980602E+000, +8.85700580798E+001
+6.72665832290E+006, +6.67483037163E+000, +9.02276499937E+001
+6.85168961202E+006, +6.68348184257E+000, +9.18655909641E+001
+6.97672090113E+006, +6.71783720010E+000, +9.35444467587E+001
+7.10175219024E+006, +6.77307718576E+000, +9.52112669786E+001
+7.22678347935E+006, +6.86618811042E+000, +9.69237156875E+001
+7.35181476846E+006, +6.89355166988E+000, +9.85753694825E+001
+7.47684605757E+006, +6.81847009056E+000, +1.00283712795E+002
+7.60187734668E+006, +6.91721121545E+000, +1.02041922275E+002
+7.72690863579E+006, +6.95474370910E+000, +1.03687207902E+002
+7.85193992491E+006, +6.94163822691E+000, +1.05344296324E+002
+7.97697121402E+006, +6.95531168129E+000, +1.07037153838E+002
+8.10200250313E+006, +7.02225479252E+000, +1.08737716774E+002
+8.22703379224E+006, +7.02843710078E+000, +1.10424753880E+002
+8.35206508135E+006, +7.07865498577E+000, +1.12167423648E+002
+8.47709637046E+006, +7.20566097217E+000, +1.13884145644E+002
+8.60212765957E+006, +7.13737917166E+000, +1.15459574495E+002
+8.72715894869E+006, +7.12690295624E+000, +1.17236113590E+002
+8.85219023780E+006, +7.24888623396E+000, +1.18949222600E+002
+8.97722152691E+006, +7.17516753694E+000, +1.20683667768E+002
+9.10225281602E+006, +7.11810470753E+000, +1.22289795798E+002
+9.22728410513E+006, +7.33824688312E+000, +1.23972629500E+002
+9.35231539424E+006, +7.41512118771E+000, +1.25797361682E+002
+9.47734668335E+006, +7.42072035268E+000, +1.27328520423E+002
+9.60237797247E+006, +7.36911403757E+000, +1.29073213479E+002
+9.72740926158E+006, +7.37958696374E+000, +1.30796854715E+002
+9.85244055069E+006, +7.54881412728E+000, +1.32583521888E+002
+9.97747183980E+006, +7.43892617047E+000, +1.34272895895E+002
+1.01025031289E+007, +7.56854636233E+000, +1.35898846994E+002
+1.02275344180E+007, +7.49508125016E+000, +1.37621099577E+002
+1.03525657071E+007, +7.53684060335E+000, +1.39379996667E+002
+1.04775969962E+007, +7.50023377331E+000, +1.41143477643E+002
+1.06026282854E+007, +7.38389469472E+000, +1.42809939955E+002
+1.07276595745E+007, +7.55143920672E+000, +1.44573451107E+002
+1.08526908636E+007, +7.66118936182E+000, +1.46217267437E+002
+1.09777221527E+007, +7.60711962970E+000, +1.47870865752E+002
+1.11027534418E+007, +7.69283835305E+000, +1.49700127385E+002
+1.12277847309E+007, +7.62590387817E+000, +1.51320480277E+002
+1.13528160200E+007, +7.92061546098E+000, +1.53221698968E+002
+1.14778473091E+007, +7.64341681252E+000, +1.55008224815E+002
+1.16028785982E+007, +7.79579141897E+000, +1.56597789519E+002
+1.17279098874E+007, +7.90183332881E+000, +1.58473938185E+002
+1.18529411765E+007, +7.69766514294E+000, +1.60143991933E+002
+1.19779724656E+007, +7.85585827063E+000, +1.61827281870E+002
+1.21030037547E+007, +7.90511384287E+000, +1.63523205329E+002
+1.22280350438E+007, +7.86757821444E+000, +1.65309516000E+002
+1.23530663329E+007, +8.00482104068E+000, +1.67201894392E+002
+1.24780976220E+007, +7.85332188949E+000, +1.68963638980E+002
+1.26031289111E+007, +7.87222868336E+000, +1.70570341318E+002
+1.27281602003E+007, +7.97164102317E+000, +1.72359962656E+002
+1.28531914894E+007, +7.98811204259E+000, +1.74261597542E+002
+1.29782227785E+007, +8.06636437230E+000, +1.75963763389E+002
+1.31032540676E+007, +8.20650984953E+000, +1.77553893027E+002
+1.32282853567E+007, +7.87712719140E+000, +1.79430112031E+002
+1.33533166458E+007, +8.34004260030E+000, +1.81248288816E+002
+1.34783479349E+007, +8.30303049288E+000, +1.82878725250E+002
+1.36033792240E+007, +8.32002215098E+000, +1.84766789720E+002
+1.37284105131E+007, +8.40008184179E+000, +1.86555670684E+002
+1.38534418023E+007, +8.23463064871E+000, +1.88370557994E+002
+1.39784730914E+007, +8.26723532762E+000, +1.89988522428E+002
+1.41035043805E+007, +8.15159646462E+000, +1.91856929131E+002
+1.42285356696E+007, +8.66286889081E+000, +1.93654503340E+002
+1.43535669587E+007, +8.21390025011E+000, +1.95509523401E+002
+1.44785982478E+007, +8.20665981153E+000, +1.97232652829E+002
+1.46036295369E+007, +8.43633368992E+000, +1.99092596985E+002
+1.47286608260E+007, +8.32575150283E+000, +2.00758219550E+002
+1.48536921151E+007, +8.25773713262E+000, +2.02765070263E+002
+1.49787234043E+007, +8.43634825085E+000, +2.04551316795E+002
+1.51037546934E+007, +8.47953059898E+000, +2.06056455645E+002
+1.52287859825E+007, +8.44755544969E+000, +2.07859535914E+002
+1.53538172716E+007, +8.55489568941E+000, +2.09924228111E+002
+1.54788485607E+007, +8.77680352256E+000, +2.11506572162E+002
+1.56038798498E+007, +8.68803058646E+000, +2.13607098901E+002
+1.57289111389E+007, +8.63272819327E+000, +2.15305521751E+002
+1.58539424280E+007, +8.63735815466E+000, +2.17031417776E+002
+1.59789737171E+007, +8.66967910174E+000, +2.19123842431E+002
+1.61040050063E+007, +8.93721858911E+000, +2.20892656267E+002
+1.62290362954E+007, +8.96868514466E+000, +2.22590626198E+002
+1.63540675845E+007, +9.13273635556E+000, +2.24669934662E+002
+1.64790988736E+007, +8.81477233596E+000, +2.26350239346E+002
+1.66041301627E+007, +8.74973926918E+000, +2.28111996991E+002
+1.67291614518E+007, +8.84627514555E+000, +2.29783343869E+002
+1.68541927409E+007, +8.90102088341E+000, +2.31958940994E+002
+1.69792240300E+007, +9.43906223774E+000, +2.33925130720E+002
+1.71042553191E+007, +8.60039448881E+000, +2.35750315303E+002
+1.72292866083E+007, +8.74035044000E+000, +2.37312564506E+002
+1.73543178974E+007, +8.83504196749E+000, +2.39634171930E+002
+1.74793491865E+007, +9.04440288702E+000, +2.41494618945E+002
+1.76043804756E+007, +9.10533514257E+000, +2.43102681377E+002
+1.77294117647E+007, +9.03323143822E+000, +2.44980158413E+002
+1.78544430538E+007, +9.31027138710E+000, +2.47038875828E+002
+1.79794743429E+007, +9.27531719245E+000, +2.48800274576E+002
+1.81045056320E+007, +9.51779101593E+000, +2.50564103119E+002
+1.82295369212E+007, +9.12995575036E+000, +2.52527466102E+002
+1.83545682103E+007, +9.44881215453E+000, +2.54403627568E+002
+1.84795994994E+007, +9.65278795660E+000, +2.56232887356E+002
+1.86046307885E+007, +9.71185053036E+000, +2.58349741746E+002
+1.87296620776E+007, +9.67572386021E+000, +2.60190248456E+002
+1.88546933667E+007, +9.53875169487E+000, +2.62223892028E+002
+1.89797246558E+007, +9.77041510896E+000, +2.63938677888E+002
+1.91047559449E+007, +9.66292879089E+000, +2.65801256673E+002
+1.92297872340E+007, +9.83260155614E+000, +2.68082920383E+002
+1.93548185232E+007, +9.93502464487E+000, +2.69989446971E+002
+1.94798498123E+007, +9.63483681504E+000, +2.71242827502E+002
+1.96048811014E+007, +9.54786583909E+000, +2.73820339674E+002
+1.97299123905E+007, +1.01435577452E+001, +2.75536456776E+002
+1.98549436796E+007, +1.03598028353E+001, +2.77846896306E+002
+1.99799749687E+007, +9.92713302470E+000, +2.79426739012E+002
+2.01050062578E+007, +9.69900941647E+000, +2.81368180769E+002
+2.02300375469E+007, +1.01365339937E+001, +2.83419302779E+002
+2.03550688360E+007, +1.03026108105E+001, +2.85876647433E+002
+2.04801001252E+007, +1.05905759605E+001, +2.87179437136E+002
+2.06051314143E+007, +1.07392801454E+001, +2.89536339518E+002
+2.07301627034E+007, +1.03846238161E+001, +2.91508728832E+002
+2.08551939925E+007, +1.01694494603E+001, +2.93536997557E+002
+2.09802252816E+007, +1.04752950837E+001, +2.95419791327E+002
+2.11052565707E+007, +1.08762755923E+001, +2.97170341756E+002
+2.12302878598E+007, +1.04550225050E+001, +2.99740156573E+002
+2.13553191489E+007, +1.04083232001E+001, +3.01155388956E+002
+2.14803504380E+007, +1.05931413331E+001, +3.03481579777E+002
+2.16053817272E+007, +1.06197515001E+001, +3.05438623458E+002
+2.17304130163E+007, +1.10839442861E+001, +3.07513391387E+002
+2.18554443054E+007, +1.13184193496E+001, +3.09496839766E+002
+2.19804755945E+007, +1.13286016429E+001, +3.10812298375E+002
+2.21055068836E+007, +1.14235030945E+001, +3.13046512451E+002
+2.22305381727E+007, +1.14842956493E+001, +3.15520287573E+002
+2.23555694618E+007, +1.12246946463E+001, +3.17731534502E+002
+2.24806007509E+007, +1.17675739792E+001, +3.19570882845E+002
+2.26056320401E+007, +1.07715933148E+001, +3.21822747263E+002
+2.27306633292E+007, +1.16831497279E+001, +3.23057788653E+002
+2.28556946183E+007, +1.21727536057E+001, +3.25760157644E+002
+2.29807259074E+007, +1.22262507263E+001, +3.27135508561E+002
+2.31057571965E+007, +1.15845041843E+001, +3.29547219798E+002
+2.32307884856E+007, +1.26167343740E+001, +3.31222003037E+002
+2.33558197747E+007, +1.20646605095E+001, +3.32850174582E+002
+2.34808510638E+007, +1.28711268698E+001, +3.35166680686E+002
+2.36058823529E+007, +1.17422896921E+001, +3.37885402653E+002
+2.37309136421E+007, +1.22676642935E+001, +3.39132433984E+002
+2.38559449312E+007, +1.17485703943E+001, +3.42308970670E+002
+2.39809762203E+007, +1.22258992316E+001, +3.43547358014E+002
+2.41060075094E+007, +1.24322416226E+001, +3.46131287915E+002
+2.42310387985E+007, +1.23987320640E+001, +3.47875885882E+002
+2.43560700876E+007, +1.19765946231E+001, +3.50505802385E+002
+2.44811013767E+007, +1.26857441593E+001, +3.52222760931E+002
+2.46061326658E+007, +1.20710724574E+001, +3.53889841794E+002
+2.47311639549E+007, +1.18297876176E+001, +3.56808351732E+002
+2.48561952441E+007, +1.20575750704E+001, +3.58143447020E+002
+2.49812265332E+007, +1.25307676232E+001, +3.60913001204E+002
+2.51062578223E+007, +1.28184767844E+001, +3.63551722626E+002
+2.52312891114E+007, +1.32269452623E+001, +3.64993533790E+002
+2.53563204005E+007, +1.29390464579E+001, +3.67302352243E+002
+2.54813516896E+007, +1.24029639271E+001, +3.69241950260E+002
+2.56063829787E+007, +1.26097919960E+001, +3.70001044497E+002
+2.57314142678E+007, +1.23194045315E+001, +3.73050062789E+002
+2.58564455569E+007, +1.18731350834E+001, +3.75503369539E+002
+2.59814768461E+007, +1.37216688936E+001, +3.77689098670E+002
+2.61065081352E+007, +1.24620435435E+001, +3.80258319301E+002
+2.62315394243E+007, +1.28462618085E+001, +3.82720888531E+002
+2.63565707134E+007, +1.20407102956E+001, +3.84600070907E+002
+2.64816020025E+007, +1.20865945466E+001, +3.87478756980E+002
+2.66066332916E+007, +1.28033635414E+001, +3.89359856354E+002
+2.67316645807E+007, +1.31869377258E+001, +3.91439298942E+002
+2.68566958698E+007, +1.32569503878E+001, +3.93806763831E+002
+2.69817271589E+007, +1.26907499941E+001, +3.96267322005E+002
+2.71067584481E+007, +1.34840299388E+001, +3.98540505356E+002
+2.72317897372E+007, +1.34058666722E+001, +4.00972770234E+002
+2.73568210263E+007, +1.36294256987E+001, +4.02667785602E+002
+2.74818523154E+007, +1.30727019169E+001, +4.05343942521E+002
+2.76068836045E+007, +1.41992745833E+001, +4.06697679888E+002
+2.77319148936E+007, +1.35282487065E+001, +4.08809976191E+002
+2.78569461827E+007, +1.40002674930E+001, +4.12678814611E+002
+2.79819774718E+007, +1.29960703079E+001, +4.14092760817E+002
+2.81070087610E+007, +1.42117172711E+001, +4.17611413284E+002
+2.82320400501E+007, +1.34331598424E+001, +4.19476937837E+002
+2.83570713392E+007, +1.44044379164E+001, +4.20564668727E+002
+2.84821026283E+007, +1.44529813296E+001, +4.22993095807E+002
+2.86071339174E+007, +1.28023383296E+001, +4.26480028823E+002
+2.87321652065E+007, +1.37347751139E+001, +4.29663267853E+002
+2.88571964956E+007, +1.40740083398E+001, +4.30517222595E+002
+2.89822277847E+007, +1.42200852345E+001, +4.33509048501E+002
+2.91072590738E+007, +1.43246649537E+001, +4.36102968467E+002
+2.92322903630E+007, +1.46505417013E+001, +4.37085484564E+002
+2.93573216521E+007, +1.35901523039E+001, +4.39843198867E+002
+2.94823529412E+007, +1.46902090507E+001, +4.44214103671E+002
+2.96073842303E+007, +1.37389691142E+001, +4.45260353376E+002
+2.97324155194E+007, +1.45245362563E+001, +4.47636205505E+002
+2.98574468085E+007, +1.49815088444E+001, +4.49796011532E+002
+2.99824780976E+007, +1.46864822930E+001, +4.52361758489E+002
+3.01075093867E+007, +1.38564002520E+001, +4.54223193425E+002
+3.02325406758E+007, +1.48600089873E+001, +4.57301323060E+002
+3.03575719650E+007, +1.42758935926E+001, +4.60130955684E+002
+3.04826032541E+007, +1.43896405162E+001, +4.63877206967E+002
+3.06076345432E+007, +1.46567114683E+001, +4.64618293286E+002
+3.07326658323E+007, +1.53366108538E+001, +4.66891297946E+002
+3.08576971214E+007, +1.49234230070E+001, +4.71054894034E+002
+3.09827284105E+007, +1.57846464284E+001, +4.73440118755E+002
+3.11077596996E+007, +1.43906717224E+001, +4.75922728573E+002
+3.12327909887E+007, +1.42946110128E+001, +4.77337127539E+002
+3.13578222778E+007, +1.52142017685E+001, +4.80426539371E+002
+3.14828535670E+007, +1.49474411052E+001, +4.83103357984E+002
+3.16078848561E+007, +1.36906097560E+001, +4.83690446447E+002
+3.17329161452E+007, +1.47803421190E+001, +4.88736217822E+002
+3.18579474343E+007, +1.44817967999E+001, +4.90732679117E+002
+3.19829787234E+007, +1.55119700802E+001, +4.93771940013E+002
+3.21080100125E+007, +1.52722665552E+001, +4.95999071689E+002
+3.22330413016E+007, +1.53388454790E+001, +4.98876346426E+002
+3.23580725907E+007, +1.57911917613E+001, +5.00448099925E+002
+3.24831038798E+007, +1.52864296192E+001, +5.03624938629E+002
+3.26081351690E+007, +1.56457988092E+001, +5.05745068680E+002
+3.27331664581E+007, +1.48248134208E+001, +5.07314778237E+002
+3.28581977472E+007, +1.52385906069E+001, +5.11452139272E+002
+3.29832290363E+007, +1.51382550883E+001, +5.14166028170E+002
+3.31082603254E+007, +1.58072071315E+001, +5.17159386845E+002
+3.32332916145E+007, +1.49164213937E+001, +5.21119024054E+002
+3.33583229036E+007, +1.58723408652E+001, +5.22746798659E+002
+3.34833541927E+007, +1.69665077262E+001, +5.24622773987E+002
+3.36083854819E+007, +1.64252412214E+001, +5.28151483483E+002
+3.37334167710E+007, +1.56867855465E+001, +5.31769774500E+002
+3.38584480601E+007, +1.50538530976E+001, +5.34356311738E+002
+3.39834793492E+007, +1.60104584596E+001, +5.36787302531E+002
+3.41085106383E+007, +1.64053173686E+001, +5.39659794863E+002
+3.42335419274E+007, +1.57315504674E+001, +5.40867222513E+002
+3.43585732165E+007, +1.67545347863E+001, +5.44849271057E+002
+3.44836045056E+007, +1.68681300151E+001, +5.48639548768E+002
+3.46086357947E+007, +1.50589389571E+001, +5.50975510218E+002
+3.47336670839E+007, +1.58763920720E+001, +5.53258805457E+002
+3.48586983730E+007, +1.74868371823E+001, +5.57519973108E+002
+3.49837296621E+007, +1.60344177619E+001, +5.59824907486E+002
+3.51087609512E+007, +1.64537755044E+001, +5.62382098746E+002
+3.52337922403E+007, +1.60042653306E+001, +5.64801964510E+002
+3.53588235294E+007, +1.73978654806E+001, +5.69175202448E+002
+3.54838548185E+007, +1.74363574859E+001, +5.72667311449E+002
+3.56088861076E+007, +1.66335145547E+001, +5.74768873121E+002
+3.57339173967E+007, +1.73130343772E+001, +5.76764193845E+002
+3.58589486859E+007, +1.61938251570E+001, +5.81267893600E+002
+3.59839799750E+007, +1.74574038689E+001, +5.84771732221E+002
+3.61090112641E+007, +1.68832017242E+001, +5.88775547355E+002
+3.62340425532E+007, +1.76346354717E+001, +5.89467883119E+002
+3.63590738423E+007, +1.83440060605E+001, +5.92198633744E+002
+3.64841051314E+007, +1.66375126438E+001, +5.96570663027E+002
+3.66091364205E+007, +1.63479059396E+001, +5.97468641022E+002
+3.67341677096E+007, +1.96023812107E+001, +6.01733767860E+002
+3.68591989987E+007, +1.93163398865E+001, +6.05587701319E+002
+3.69842302879E+007, +1.80710729713E+001, +6.08810725446E+002
+3.71092615770E+007, +1.84371215156E+001, +6.10599276639E+002
+3.72342928661E+007, +1.95575513864E+001, +6.14498454949E+002
+3.73593241552E+007, +1.69642982859E+001, +6.18758903360E+002
+3.74843554443E+007, +1.88895311421E+001, +6.20958834007E+002
+3.76093867334E+007, +1.85579604817E+001, +6.23453734252E+002
+3.77344180225E+007, +2.12920153749E+001, +6.28829061427E+002
+3.78594493116E+007, +1.96766747077E+001, +6.29637180140E+002
+3.79844806008E+007, +2.19222402043E+001, +6.33047340758E+002
+3.81095118899E+007, +1.91666838761E+001, +6.36631649086E+002
+3.82345431790E+007, +1.99011750602E+001, +6.40706297349E+002
+3.83595744681E+007, +2.20128587911E+001, +6.44186328364E+002
+3.84846057572E+007, +1.97855386264E+001, +6.46568025335E+002
+3.86096370463E+007, +1.89429542355E+001, +6.51547149542E+002
+3.87346683354E+007, +2.07404240331E+001, +6.55137265728E+002
+3.88596996245E+007, +2.04993672608E+001, +6.56740365443E+002
+3.89847309136E+007, +2.44482327905E+001, +6.59196202036E+002
+3.91097622028E+007, +2.09841268168E+001, +6.66867362664E+002
+3.92347934919E+007, +1.91643841756E+001, +6.66654270616E+002
+3.93598247810E+007, +2.14113862817E+001, +6.72721510571E+002
+3.94848560701E+007, +2.14616886251E+001, +6.72692864521E+002
+3.96098873592E+007, +2.28881445311E+001, +6.79590484098E+002
+3.97349186483E+007, +2.03449713249E+001, +6.80743552348E+002
+3.98599499374E+007, +2.26449522103E+001, +6.85810359971E+002
+3.99849812265E+007, +2.20085407940E+001, +6.87574376776E+002
+4.01100125156E+007, +2.24742924323E+001, +6.89745009482E+002
