"# Channel 1"
"# Trace 1"
Frequency, Formatted Data, Formatted Data
+1.00000000000E+005, +2.61054272600E+001, +6.47955849235E-001
+2.25031289111E+005, +2.55552204671E+001, +2.26135828187E+000
+3.50062578223E+005, +2.53464994563E+001, +4.00635924170E+000
+4.75093867334E+005, +2.52083897617E+001, +5.79315582450E+000
+6.00125156446E+005, +2.51727926068E+001, +7.47153108423E+000
+7.25156445557E+005, +2.51353601855E+001, +9.19997601634E+000
+8.50187734668E+005, +2.51216964227E+001, +1.08512550031E+001
+9.75219023780E+005, +2.50853383507E+001, +1.25212109054E+001
+1.10025031289E+006, +2.50896188467E+001, +1.41330837935E+001
+1.22528160200E+006, +2.51335970842E+001, +1.58304170909E+001
+1.35031289111E+006, +2.51230133205E+001, +1.74410299799E+001
+1.47534418023E+006, +2.50735697470E+001, +1.90926365950E+001
+1.60037546934E+006, +2.50813458571E+001, +2.07235701034E+001
+1.72540675845E+006, +2.51396105293E+001, +2.23339109539E+001
+1.85043804756E+006, +2.51171713025E+001, +2.39845917616E+001
+1.97546933667E+006, +2.51528002273E+001, +2.56312871134E+001
+2.10050062578E+006, +2.51204745859E+001, +2.72172234289E+001
+2.22553191489E+006, +2.51189714168E+001, +2.88334861625E+001
+2.35056320401E+006, +2.51180511323E+001, +3.04958269507E+001
+2.47559449312E+006, +2.51619772066E+001, +3.21573526168E+001
+2.60062578223E+006, +2.50904770165E+001, +3.37639971358E+001
+2.72565707134E+006, +2.51517013304E+001, +3.54013796573E+001
+2.85068836045E+006, +2.51694724591E+001, +3.69998968300E+001
+2.97571964956E+006, +2.51371869223E+001, +3.86385070333E+001
+3.10075093867E+006, +2.50988907278E+001, +4.02601453832E+001
+3.22578222778E+006, +2.51729359045E+001, +4.19003633036E+001
+3.35081351690E+006, +2.51805164430E+001, +4.34901754607E+001
+3.47584480601E+006, +2.52315904181E+001, +4.51453021705E+001
+3.60087609512E+006, +2.52123194815E+001, +4.67746738531E+001
+3.72590738423E+006, +2.52229195430E+001, +4.84642370100E+001
+3.85093867334E+006, +2.51811130873E+001, +5.00691393239E+001
+3.97596996245E+006, +2.52667589170E+001, +5.17446068698E+001
+4.10100125156E+006, +2.52728581824E+001, +5.33365914130E+001
+4.22603254068E+006, +2.52655847555E+001, +5.49163977233E+001
+4.35106382979E+006, +2.52547696292E+001, +5.66083319519E+001
+4.47609511890E+006, +2.52650062149E+001, +5.81980729543E+001
+4.60112640801E+006, +2.51497113134E+001, +5.97786389587E+001
+4.72615769712E+006, +2.52592574786E+001, +6.14605742401E+001
+4.85118898623E+006, +2.53264227428E+001, +6.31209352947E+001
+4.97622027534E+006, +2.53785270778E+001, +6.47271561895E+001
+5.10125156446E+006, +2.53180829444E+001, +6.64244035284E+001
+5.22628285357E+006, +2.53545907425E+001, +6.80714127247E+001
+5.35131414268E+006, +2.53968215954E+001, +6.96911253914E+001
+5.47634543179E+006, +2.52891271657E+001, +7.11901125577E+001
+5.60137672090E+006, +2.53974344352E+001, +7.28315329111E+001
+5.72640801001E+006, +2.54885410457E+001, +7.44561884362E+001
+5.85143929912E+006, +2.54234169497E+001, +7.61572080680E+001
+5.97647058824E+006, +2.54609778810E+001, +7.79497630143E+001
+6.10150187735E+006, +2.54595555201E+001, +7.95336435920E+001
+6.22653316646E+006, +2.54183392988E+001, +8.11654649921E+001
+6.35156445557E+006, +2.54786156125E+001, +8.27420723053E+001
+6.47659574468E+006, +2.55396200108E+001, +8.44250710273E+001
+6.60162703379E+006, +2.55167298904E+001, +8.60957721759E+001
+6.72665832290E+006, +2.56016544634E+001, +8.77723384650E+001
+6.85168961202E+006, +2.56106978331E+001, +8.93443141506E+001
+6.97672090113E+006, +2.56932708733E+001, +9.10460698672E+001
+7.10175219024E+006, +2.56602366287E+001, +9.26878599384E+001
+7.22678347935E+006, +2.55790419074E+001, +9.44066205490E+001
+7.35181476846E+006, +2.57085150541E+001, +9.60292420166E+001
+7.47684605757E+006, +2.57450653990E+001, +9.76150047866E+001
+7.60187734668E+006, +2.57394903836E+001, +9.93285223701E+001
+7.72690863579E+006, +2.57339680367E+001, +1.01008889808E+002
+7.85193992491E+006, +2.57790604652E+001, +1.02651605127E+002
+7.97697121402E+006, +2.57891917333E+001, +1.04268123005E+002
+8.10200250313E+006, +2.56911920988E+001, +1.06007538360E+002
+8.22703379224E+006, +2.58195771421E+001, +1.07549757442E+002
+8.35206508135E+006, +2.57819710068E+001, +1.09265014940E+002
+8.47709637046E+006, +2.59074330930E+001, +1.10888275661E+002
+8.60212765957E+006, +2.58396165154E+001, +1.12620381022E+002
+8.72715894869E+006, +2.59045055399E+001, +1.14297232135E+002
+8.85219023780E+006, +2.59604045647E+001, +1.16011456753E+002
+8.97722152691E+006, +2.59721739026E+001, +1.17600569583E+002
+9.10225281602E+006, +2.60043446763E+001, +1.19359691565E+002
+9.22728410513E+006, +2.60540877597E+001, +1.20935847177E+002
+9.35231539424E+006, +2.60652381167E+001, +1.22704530783E+002
+9.47734668335E+006, +2.60540471411E+001, +1.24157434426E+002
+9.60237797247E+006, +2.60020857023E+001, +1.26026551741E+002
+9.72740926158E+006, +2.60242980312E+001, +1.27631322405E+002
+9.85244055069E+006, +2.60610512042E+001, +1.29330409904E+002
+9.97747183980E+006, +2.61531783451E+001, +1.30995255883E+002
+1.01025031289E+007, +2.60850035368E+001, +1.32589708982E+002
+1.02275344180E+007, +2.62335158437E+001, +1.34307308176E+002
+1.03525657071E+007, +2.60415634693E+001, +1.36176041161E+002
+1.04775969962E+007, +2.61969607093E+001, +1.37842550372E+002
+1.06026282854E+007, +2.61854534570E+001, +1.39495055227E+002
+1.07276595745E+007, +2.63452509669E+001, +1.41087965343E+002
+1.08526908636E+007, +2.63531187507E+001, +1.42768135889E+002
+1.09777221527E+007, +2.62546182889E+001, +1.44504571965E+002
+1.11027534418E+007, +2.64068380911E+001, +1.46086276378E+002
+1.12277847309E+007, +2.65285513585E+001, +1.47803609898E+002
+1.13528160200E+007, +2.63580378603E+001, +1.49723921096E+002
+1.14778473091E+007, +2.65359212187E+001, +1.51553392176E+002
+1.16028785982E+007, +2.64010137108E+001, +1.52905465045E+002
+1.17279098874E+007, +2.63680139353E+001, +1.54860119907E+002
+1.18529411765E+007, +2.64433662844E+001, +1.56318853976E+002
+1.19779724656E+007, +2.63897805631E+001, +1.58114329999E+002
+1.21030037547E+007, +2.65276919226E+001, +1.59846007323E+002
+1.22280350438E+007, +2.63843640317E+001, +1.61652387397E+002
+1.23530663329E+007, +2.65580925659E+001, +1.63485403536E+002
+1.24780976220E+007, +2.66358286017E+001, +1.65094417757E+002
+1.26031289111E+007, +2.64462219544E+001, +1.66616387775E+002
+1.27281602003E+007, +2.64639733944E+001, +1.68504530610E+002
+1.28531914894E+007, +2.65897688181E+001, +1.70131685978E+002
+1.29782227785E+007, +2.66369063256E+001, +1.72042537432E+002
+1.31032540676E+007, +2.67148723900E+001, +1.73756368333E+002
+1.32282853567E+007, +2.66608962007E+001, +1.75415050352E+002
+1.33533166458E+007, +2.68354498649E+001, +1.77149321203E+002
+1.34783479349E+007, +2.67364139242E+001, +1.79009977739E+002
+1.36033792240E+007, +2.68653422669E+001, +1.80662109690E+002
+1.37284105131E+007, +2.67974546233E+001, +1.82193360320E+002
+1.38534418023E+007, +2.70173778530E+001, +1.84287355774E+002
+1.39784730914E+007, +2.69841349962E+001, +1.85826348174E+002
+1.41035043805E+007, +2.68671938176E+001, +1.87739284331E+002
+1.42285356696E+007, +2.69097460586E+001, +1.89427504157E+002
+1.43535669587E+007, +2.68616326895E+001, +1.91228352951E+002
+1.44785982478E+007, +2.70790702707E+001, +1.93019178078E+002
+1.46036295369E+007, +2.71980865120E+001, +1.94839790779E+002
+1.47286608260E+007, +2.71097854606E+001, +1.96471804922E+002
+1.48536921151E+007, +2.70754945567E+001, +1.98216657299E+002
+1.49787234043E+007, +2.68194235601E+001, +2.00162144811E+002
+1.51037546934E+007, +2.70454063332E+001, +2.01916973655E+002
+1.52287859825E+007, +2.70137265504E+001, +2.03317676549E+002
+1.53538172716E+007, +2.69491152020E+001, +2.05405507492E+002
+1.54788485607E+007, +2.73869530959E+001, +2.07362843423E+002
+1.56038798498E+007, +2.71811844871E+001, +2.09134889482E+002
+1.57289111389E+007, +2.73903508199E+001, +2.10843606538E+002
+1.58539424280E+007, +2.73931817800E+001, +2.12509162581E+002
+1.59789737171E+007, +2.73502308287E+001, +2.14019816701E+002
+1.61040050063E+007, +2.77188520033E+001, +2.16109463849E+002
+1.62290362954E+007, +2.76908186975E+001, +2.17806277663E+002
+1.63540675845E+007, +2.75552895430E+001, +2.19634116126E+002
+1.64790988736E+007, +2.75571866572E+001, +2.21304726475E+002
+1.66041301627E+007, +2.76049717969E+001, +2.23466176923E+002
+1.67291614518E+007, +2.77449118283E+001, +2.25291421130E+002
+1.68541927409E+007, +2.79112039034E+001, +2.26924767398E+002
+1.69792240300E+007, +2.78064621388E+001, +2.28681489418E+002
+1.71042553191E+007, +2.73021131883E+001, +2.31078034672E+002
+1.72292866083E+007, +2.75458054821E+001, +2.32397195508E+002
+1.73543178974E+007, +2.75300473151E+001, +2.34295781484E+002
+1.74793491865E+007, +2.74353303505E+001, +2.36417168255E+002
+1.76043804756E+007, +2.76209795804E+001, +2.37983651672E+002
+1.77294117647E+007, +2.77573847673E+001, +2.40072563981E+002
+1.78544430538E+007, +2.77640175276E+001, +2.41817162104E+002
+1.79794743429E+007, +2.79333358560E+001, +2.43560028276E+002
+1.81045056320E+007, +2.79251749116E+001, +2.45560631874E+002
+1.82295369212E+007, +2.80319339854E+001, +2.47388513675E+002
+1.83545682103E+007, +2.82642796378E+001, +2.49253219081E+002
+1.84795994994E+007, +2.79890024735E+001, +2.50855004033E+002
+1.86046307885E+007, +2.81341032845E+001, +2.52952885362E+002
+1.87296620776E+007, +2.80960284545E+001, +2.54747153621E+002
+1.88546933667E+007, +2.84755918754E+001, +2.56655433694E+002
+1.89797246558E+007, +2.82064527031E+001, +2.58535421366E+002
+1.91047559449E+007, +2.81989197671E+001, +2.60214447705E+002
+1.92297872340E+007, +2.83382955050E+001, +2.62206749730E+002
+1.93548185232E+007, +2.84280733935E+001, +2.64143348993E+002
+1.94798498123E+007, +2.81288407501E+001, +2.66310112078E+002
+1.96048811014E+007, +2.87555099650E+001, +2.68162205405E+002
+1.97299123905E+007, +2.88848599732E+001, +2.69997663453E+002
+1.98549436796E+007, +2.85234988083E+001, +2.72221825223E+002
+1.99799749687E+007, +2.85856680228E+001, +2.73633507801E+002
+2.01050062578E+007, +2.85299107725E+001, +2.75462535827E+002
+2.02300375469E+007, +2.84690949955E+001, +2.77753915329E+002
+2.03550688360E+007, +2.86180410742E+001, +2.79419442673E+002
+2.04801001252E+007, +2.92980160758E+001, +2.81406861287E+002
+2.06051314143E+007, +2.93977143277E+001, +2.83706438424E+002
+2.07301627034E+007, +2.91722526687E+001, +2.85246175893E+002
+2.08551939925E+007, +2.90504435958E+001, +2.87391896501E+002
+2.09802252816E+007, +2.88509807949E+001, +2.89274736951E+002
+2.11052565707E+007, +2.90062121977E+001, +2.91918656051E+002
+2.12302878598E+007, +2.91555294507E+001, +2.93825042839E+002
+2.13553191489E+007, +2.98938107952E+001, +2.95155214756E+002
+2.14803504380E+007, +2.92984697587E+001, +2.97053153972E+002
+2.16053817272E+007, +2.97178247046E+001, +2.99084704000E+002
+2.17304130163E+007, +2.99317380900E+001, +3.01449047363E+002
+2.18554443054E+007, +2.95375789209E+001, +3.03035148633E+002
+2.19804755945E+007, +3.01249393815E+001, +3.05237874110E+002
+2.21055068836E+007, +3.02417712386E+001, +3.07075381567E+002
+2.22305381727E+007, +2.99121110427E+001, +3.09395088170E+002
+2.23555694618E+007, +3.02877955159E+001, +3.10863582448E+002
+2.24806007509E+007, +3.02412894380E+001, +3.12811949997E+002
+2.26056320401E+007, +3.01511214128E+001, +3.14903122166E+002
+2.27306633292E+007, +3.00626386748E+001, +3.16903115953E+002
+2.28556946183E+007, +3.03728076029E+001, +3.18509734986E+002
+2.29807259074E+007, +3.04676046963E+001, +3.20547269002E+002
+2.31057571965E+007, +3.08201539068E+001, +3.23147591584E+002
+2.32307884856E+007, +3.08757776094E+001, +3.25098962732E+002
+2.33558197747E+007, +3.16610096013E+001, +3.27140897238E+002
+2.34808510638E+007, +3.08560211692E+001, +3.28815782837E+002
+2.36058823529E+007, +3.07210769694E+001, +3.31541953146E+002
+2.37309136421E+007, +3.13024108124E+001, +3.33347428934E+002
+2.38559449312E+007, +3.11616159941E+001, +3.34920462286E+002
+2.39809762203E+007, +3.17629964787E+001, +3.36740933506E+002
+2.41060075094E+007, +3.15079325346E+001, +3.39263279662E+002
+2.42310387985E+007, +3.14993825986E+001, +3.40710827559E+002
+2.43560700876E+007, +3.17834386944E+001, +3.43343544235E+002
+2.44811013767E+007, +3.18163671466E+001, +3.44153620710E+002
+2.46061326658E+007, +3.20234328308E+001, +3.47044275704E+002
+2.47311639549E+007, +3.18086705011E+001, +3.49186759735E+002
+2.48561952441E+007, +3.16689515472E+001, +3.51465654917E+002
+2.49812265332E+007, +3.19093485541E+001, +3.52836384910E+002
+2.51062578223E+007, +3.14806300362E+001, +3.55631900878E+002
+2.52312891114E+007, +3.14033817104E+001, +3.57105412218E+002
+2.53563204005E+007, +3.15193682344E+001, +3.59577872222E+002
+2.54813516896E+007, +3.14586379995E+001, +3.61646434633E+002
+2.56063829787E+007, +3.21154153233E+001, +3.64403021074E+002
+2.57314142678E+007, +3.19139056277E+001, +3.66062698342E+002
+2.58564455569E+007, +3.26664704010E+001, +3.68000061986E+002
+2.59814768461E+007, +3.19915811276E+001, +3.70604025626E+002
+2.61065081352E+007, +3.22109469158E+001, +3.72615433863E+002
+2.62315394243E+007, +3.23300926674E+001, +3.75658103195E+002
+2.63565707134E+007, +3.19927218074E+001, +3.76171123078E+002
+2.64816020025E+007, +3.21534632784E+001, +3.78838942241E+002
+2.66066332916E+007, +3.23296032971E+001, +3.80528294790E+002
+2.67316645807E+007, +3.30824566051E+001, +3.83176367969E+002
+2.68566958698E+007, +3.29985839432E+001, +3.86123906689E+002
+2.69817271589E+007, +3.35062307853E+001, +3.87802706916E+002
+2.71067584481E+007, +3.28269793822E+001, +3.89565661467E+002
+2.72317897372E+007, +3.31700841615E+001, +3.91971443916E+002
+2.73568210263E+007, +3.30198026953E+001, +3.94830790466E+002
+2.74818523154E+007, +3.34269628890E+001, +3.96046076642E+002
+2.76068836045E+007, +3.29452212268E+001, +3.98739944403E+002
+2.77319148936E+007, +3.32552295048E+001, +4.01618303196E+002
+2.78569461827E+007, +3.32957807077E+001, +4.03677758965E+002
+2.79819774718E+007, +3.34147464914E+001, +4.05759903169E+002
+2.81070087610E+007, +3.34909917443E+001, +4.07683571065E+002
+2.82320400501E+007, +3.27826621065E+001, +4.10712060633E+002
+2.83570713392E+007, +3.39506405538E+001, +4.12750045557E+002
+2.84821026283E+007, +3.30534922505E+001, +4.14838530598E+002
+2.86071339174E+007, +3.27261028777E+001, +4.16969552371E+002
+2.87321652065E+007, +3.33563508519E+001, +4.20030264178E+002
+2.88571964956E+007, +3.36672211128E+001, +4.21599478878E+002
+2.89822277847E+007, +3.30411178941E+001, +4.23820632812E+002
+2.91072590738E+007, +3.38930469570E+001, +4.26629024666E+002
+2.92322903630E+007, +3.41065910068E+001, +4.29040705445E+002
+2.93573216521E+007, +3.32126110336E+001, +4.30573770670E+002
+2.94823529412E+007, +3.35792623604E+001, +4.33579628739E+002
+2.96073842303E+007, +3.39729423022E+001, +4.35180307945E+002
+2.97324155194E+007, +3.45771474959E+001, +4.38054286453E+002
+2.98574468085E+007, +3.37284241294E+001, +4.40375747059E+002
+2.99824780976E+007, +3.43062464449E+001, +4.43421356409E+002
+3.01075093867E+007, +3.42280036774E+001, +4.45193781368E+002
+3.02325406758E+007, +3.45924874594E+001, +4.47226095191E+002
+3.03575719650E+007, +3.44234278985E+001, +4.49518928704E+002
+3.04826032541E+007, +3.48742729637E+001, +4.52280545431E+002
+3.06076345432E+007, +3.43990693207E+001, +4.54587918435E+002
+3.07326658323E+007, +3.54819443988E+001, +4.57032972566E+002
+3.08576971214E+007, +3.54357327237E+001, +4.59355616938E+002
+3.09827284105E+007, +3.48375778658E+001, +4.62133670261E+002
+3.11077596996E+007, +3.50278610863E+001, +4.64984260810E+002
+3.12327909887E+007, +3.45139227728E+001, +4.67916341642E+002
+3.13578222778E+007, +3.49626067128E+001, +4.69616216487E+002
+3.14828535670E+007, +3.63338268261E+001, +4.72124291569E+002
+3.16078848561E+007, +3.64007714670E+001, +4.75109831419E+002
+3.17329161452E+007, +3.52682183767E+001, +4.77896384056E+002
+3.18579474343E+007, +3.59517812252E+001, +4.81226764538E+002
+3.19829787234E+007, +3.69823162381E+001, +4.82662848898E+002
+3.21080100125E+007, +3.55808640434E+001, +4.84770369596E+002
+3.22330413016E+007, +3.55021319116E+001, +4.89000261447E+002
+3.23580725907E+007, +3.42878313643E+001, +4.89440249542E+002
+3.24831038798E+007, +3.61421092583E+001, +4.92948075550E+002
+3.26081351690E+007, +3.54545845879E+001, +4.95138717076E+002
+3.27331664581E+007, +3.63088518261E+001, +4.96740592794E+002
+3.28581977472E+007, +3.69459089411E+001, +5.02304569609E+002
+3.29832290363E+007, +3.57035194103E+001, +5.03435081159E+002
+3.31082603254E+007, +3.68134851517E+001, +5.06217378265E+002
+3.32332916145E+007, +3.83744105074E+001, +5.07916864379E+002
+3.33583229036E+007, +3.58079530837E+001, +5.11157971421E+002
+3.34833541927E+007, +3.60174750127E+001, +5.14366118009E+002
+3.36083854819E+007, +3.59602455313E+001, +5.16712728512E+002
+3.37334167710E+007, +3.68293111163E+001, +5.18229496102E+002
+3.38584480601E+007, +3.83104646341E+001, +5.22295562526E+002
+3.39834793492E+007, +3.76174516756E+001, +5.25583247579E+002
+3.41085106383E+007, +3.69457944497E+001, +5.26461459858E+002
+3.42335419274E+007, +3.82781970032E+001, +5.29222231939E+002
+3.43585732165E+007, +3.76323249166E+001, +5.32457828853E+002
+3.44836045056E+007, +3.78258203897E+001, +5.34698211188E+002
+3.46086357947E+007, +3.81006927778E+001, +5.39191862074E+002
+3.47336670839E+007, +3.90337294093E+001, +5.41214860506E+002
+3.48586983730E+007, +3.99181716866E+001, +5.44111110546E+002
+3.49837296621E+007, +3.87469510166E+001, +5.47132615949E+002
+3.51087609512E+007, +3.72234004823E+001, +5.51101591755E+002
+3.52337922403E+007, +3.84537422764E+001, +5.52513132549E+002
+3.53588235294E+007, +4.04298723464E+001, +5.55886422673E+002
+3.54838548185E+007, +3.79955358236E+001, +5.58628915566E+002
+3.56088861076E+007, +3.89708316204E+001, +5.61907659843E+002
+3.57339173967E+007, +4.03322168875E+001, +5.62504309034E+002
+3.58589486859E+007, +3.79775332444E+001, +5.66078329988E+002
+3.59839799750E+007, +3.90065256422E+001, +5.70396193946E+002
+3.61090112641E+007, +3.93021766261E+001, +5.74164535014E+002
+3.62340425532E+007, +3.87331495929E+001, +5.75669689957E+002
+3.63590738423E+007, +3.99495704842E+001, +5.78430455442E+002
+3.64841051314E+007, +3.96705371026E+001, +5.80550403775E+002
+3.66091364205E+007, +4.05937155306E+001, +5.84618223805E+002
+3.67341677096E+007, +3.88067813748E+001, +5.87090574278E+002
+3.68591989987E+007, +3.94657363497E+001, +5.91164204294E+002
+3.69842302879E+007, +4.10023254526E+001, +5.95349993998E+002
+3.71092615770E+007, +4.14818178833E+001, +5.95557396762E+002
+3.72342928661E+007, +4.08367531036E+001, +6.00390389442E+002
+3.73593241552E+007, +3.95782983959E+001, +6.03544745075E+002
+3.74843554443E+007, +4.04435993072E+001, +6.05039560999E+002
+3.76093867334E+007, +4.14776931891E+001, +6.08705031835E+002
+3.77344180225E+007, +4.14004594353E+001, +6.10486163886E+002
+3.78594493116E+007, +4.16902348097E+001, +6.16335286613E+002
+3.79844806008E+007, +4.12655671820E+001, +6.19262796227E+002
+3.81095118899E+007, +4.18589553788E+001, +6.21713638842E+002
+3.82345431790E+007, +4.31154272003E+001, +6.24912891906E+002
+3.83595744681E+007, +4.25563599616E+001, +6.28310662306E+002
+3.84846057572E+007, +4.37157185039E+001, +6.31045402139E+002
+3.86096370463E+007, +4.34009586360E+001, +6.33263375546E+002
+3.87346683354E+007, +4.37101620316E+001, +6.38749649097E+002
+3.88596996245E+007, +4.01948338542E+001, +6.40825051483E+002
+3.89847309136E+007, +4.33189302509E+001, +6.46991184248E+002
+3.91097622028E+007, +4.23602177556E+001, +6.47151150034E+002
+3.92347934919E+007, +4.41354434388E+001, +6.50097902486E+002
+3.93598247810E+007, +4.21775163858E+001, +6.54793352041E+002
+3.94848560701E+007, +4.27823191514E+001, +6.57415910388E+002
+3.96098873592E+007, +4.31106863429E+001, +6.61324380488E+002
+3.97349186483E+007, +4.42180178737E+001, +6.63262524982E+002
+3.98599499374E+007, +4.51096692876E+001, +6.68591376654E+002
+3.99849812265E+007, +4.55479279544E+001, +6.69869899988E+002
+4.01100125156E+007, +4.61005246031E+001, +6.73726637993E+002
