"# Channel 1"
"# Trace 1"
Frequency, Formatted Data, Formatted Data
+1.00000000000E+005, +7.67313150956E-001, +1.30694796052E+000
+2.25031289111E+005, +7.90729355657E-001, +2.91383057640E+000
+3.50062578223E+005, +8.11060538650E-001, +4.52765276267E+000
+4.75093867334E+005, +7.83982570900E-001, +6.09778424261E+000
+6.00125156446E+005, +8.17700526816E-001, +7.69969399592E+000
+7.25156445557E+005, +8.91292134230E-001, +9.28531208528E+000
+8.50187734668E+005, +8.57187357065E-001, +1.08575304285E+001
+9.75219023780E+005, +8.77581585554E-001, +1.24455053197E+001
+1.10025031289E+006, +9.07211856710E-001, +1.40034564470E+001
+1.22528160200E+006, +9.66599507509E-001, +1.55712543309E+001
+1.35031289111E+006, +9.42886428697E-001, +1.71498192763E+001
+1.47534418023E+006, +1.01486615801E+000, +1.86981216134E+001
+1.60037546934E+006, +1.05458945292E+000, +2.02528352545E+001
+1.72540675845E+006, +1.05228116186E+000, +2.18396171562E+001
+1.85043804756E+006, +1.04603326236E+000, +2.33906494207E+001
+1.97546933667E+006, +1.08327873518E+000, +2.49736571392E+001
+2.10050062578E+006, +1.15555360559E+000, +2.65420029981E+001
+2.22553191489E+006, +1.09054092172E+000, +2.80559890778E+001
+2.35056320401E+006, +1.12378417531E+000, +2.96363079562E+001
+2.47559449312E+006, +1.19362160172E+000, +3.12055197994E+001
+2.60062578223E+006, +1.12561729260E+000, +3.27314325968E+001
+2.72565707134E+006, +1.19262841940E+000, +3.42963982967E+001
+2.85068836045E+006, +1.19499467193E+000, +3.58872113435E+001
+2.97571964956E+006, +1.18707398056E+000, +3.74374401106E+001
+3.10075093867E+006, +1.17090771535E+000, +3.89699821463E+001
+3.22578222778E+006, +1.27765039869E+000, +4.05289565177E+001
+3.35081351690E+006, +1.28099648411E+000, +4.21371066335E+001
+3.47584480601E+006, +1.23055562747E+000, +4.36456279314E+001
+3.60087609512E+006, +1.22892512598E+000, +4.51841944091E+001
+3.72590738423E+006, +1.27771915040E+000, +4.68289694385E+001
+3.85093867334E+006, +1.25758514796E+000, +4.82957862945E+001
+3.97596996245E+006, +1.26001078669E+000, +4.99438227885E+001
+4.10100125156E+006, +1.26210217190E+000, +5.16026477315E+001
+4.22603254068E+006, +1.34745243365E+000, +5.30185736529E+001
+4.35106382979E+006, +1.38214277013E+000, +5.45449242995E+001
+4.47609511890E+006, +1.44156745434E+000, +5.62132000240E+001
+4.60112640801E+006, +1.39067549476E+000, +5.77643828745E+001
+4.72615769712E+006, +1.42018268723E+000, +5.93257227713E+001
+4.85118898623E+006, +1.50119500471E+000, +6.08484630909E+001
+4.97622027534E+006, +1.42888141690E+000, +6.25429331834E+001
+5.10125156446E+006, +1.43550898782E+000, +6.39792595877E+001
+5.22628285357E+006, +1.48279517163E+000, +6.56784497303E+001
+5.35131414268E+006, +1.38395807743E+000, +6.71447100819E+001
+5.47634543179E+006, +1.43594818728E+000, +6.88070516099E+001
+5.60137672090E+006, +1.46909993379E+000, +7.03051120775E+001
+5.72640801001E+006, +1.44235545941E+000, +7.18593139729E+001
+5.85143929912E+006, +1.48235393202E+000, +7.34383636598E+001
+5.97647058824E+006, +1.44546369282E+000, +7.51764682809E+001
+6.10150187735E+006, +1.50642347003E+000, +7.67175748565E+001
+6.22653316646E+006, +1.40895835232E+000, +7.81784797626E+001
+6.35156445557E+006, +1.53717298156E+000, +7.97912506674E+001
+6.47659574468E+006, +1.51373271600E+000, +8.14957439454E+001
+6.60162703379E+006, +1.53530410402E+000, +8.29808665658E+001
+6.72665832290E+006, +1.54144443091E+000, +8.46166644447E+001
+6.85168961202E+006, +1.56098918991E+000, +8.61998694028E+001
+6.97672090113E+006, +1.52141791307E+000, +8.77903453314E+001
+7.10175219024E+006, +1.58443646175E+000, +8.93702329004E+001
+7.22678347935E+006, +1.53658015160E+000, +9.09642109960E+001
+7.35181476846E+006, +1.55949165428E+000, +9.24792306586E+001
+7.47684605757E+006, +1.62479943933E+000, +9.40973061475E+001
+7.60187734668E+006, +1.56525951204E+000, +9.56493032294E+001
+7.72690863579E+006, +1.57783177053E+000, +9.72581510911E+001
+7.85193992491E+006, +1.59528007626E+000, +9.89339580909E+001
+7.97697121402E+006, +1.61806563447E+000, +1.00517422978E+002
+8.10200250313E+006, +1.63981013808E+000, +1.02056302329E+002
+8.22703379224E+006, +1.66357265088E+000, +1.03622085805E+002
+8.35206508135E+006, +1.61422367121E+000, +1.05287792477E+002
+8.47709637046E+006, +1.67460034725E+000, +1.06911863170E+002
+8.60212765957E+006, +1.66323565979E+000, +1.08360199036E+002
+8.72715894869E+006, +1.67722629682E+000, +1.10150719453E+002
+8.85219023780E+006, +1.59953995890E+000, +1.11682416113E+002
+8.97722152691E+006, +1.67001266434E+000, +1.13323485098E+002
+9.10225281602E+006, +1.69881345556E+000, +1.14936627131E+002
+9.22728410513E+006, +1.76354780575E+000, +1.16559602038E+002
+9.35231539424E+006, +1.62586621204E+000, +1.18092738671E+002
+9.47734668335E+006, +1.74088674631E+000, +1.19727979581E+002
+9.60237797247E+006, +1.65281277433E+000, +1.21381764414E+002
+9.72740926158E+006, +1.71104736018E+000, +1.22903703940E+002
+9.85244055069E+006, +1.67074535025E+000, +1.24449230414E+002
+9.97747183980E+006, +1.54955509539E+000, +1.26072786771E+002
+1.01025031289E+007, +1.82857981024E+000, +1.27706871537E+002
+1.02275344180E+007, +1.58853094319E+000, +1.29420273184E+002
+1.03525657071E+007, +1.57660734722E+000, +1.31021262509E+002
+1.04775969962E+007, +1.66342040876E+000, +1.32627476077E+002
+1.06026282854E+007, +1.55980275022E+000, +1.34121613294E+002
+1.07276595745E+007, +1.70517008489E+000, +1.35726031896E+002
+1.08526908636E+007, +1.68876402243E+000, +1.37431597073E+002
+1.09777221527E+007, +1.69955311801E+000, +1.38981019820E+002
+1.11027534418E+007, +1.59194787773E+000, +1.40754495405E+002
+1.12277847309E+007, +1.74167791609E+000, +1.42146226392E+002
+1.13528160200E+007, +1.55376840683E+000, +1.43891589364E+002
+1.14778473091E+007, +1.61340041913E+000, +1.45505483142E+002
+1.16028785982E+007, +1.69405662947E+000, +1.47289812237E+002
+1.17279098874E+007, +1.62420828549E+000, +1.48980996259E+002
+1.18529411765E+007, +1.84356494959E+000, +1.50402970368E+002
+1.19779724656E+007, +1.64179478885E+000, +1.52098623110E+002
+1.21030037547E+007, +1.78480566235E+000, +1.53929418589E+002
+1.22280350438E+007, +1.60796314266E+000, +1.55562792622E+002
+1.23530663329E+007, +1.77386010285E+000, +1.57323419756E+002
+1.24780976220E+007, +1.89221174706E+000, +1.58731208833E+002
+1.26031289111E+007, +1.57050469715E+000, +1.60414228237E+002
+1.27281602003E+007, +1.78753321113E+000, +1.62096490284E+002
+1.28531914894E+007, +1.95616747067E+000, +1.63584176229E+002
+1.29782227785E+007, +1.70157152970E+000, +1.65573084998E+002
+1.31032540676E+007, +1.80581899965E+000, +1.67155529545E+002
+1.32282853567E+007, +1.76238749143E+000, +1.68540725178E+002
+1.33533166458E+007, +1.61292850425E+000, +1.70126566689E+002
+1.34783479349E+007, +1.65986451915E+000, +1.72044501923E+002
+1.36033792240E+007, +1.73027328649E+000, +1.73789853282E+002
+1.37284105131E+007, +1.58396263473E+000, +1.75180676012E+002
+1.38534418023E+007, +1.72321354880E+000, +1.76777120507E+002
+1.39784730914E+007, +1.79032856423E+000, +1.78746285891E+002
+1.41035043805E+007, +1.65846296671E+000, +1.80170741148E+002
+1.42285356696E+007, +1.73258199520E+000, +1.82138064844E+002
+1.43535669587E+007, +1.78506843940E+000, +1.83783246491E+002
+1.44785982478E+007, +1.63023089773E+000, +1.85374799238E+002
+1.46036295369E+007, +1.79920532261E+000, +1.87218545650E+002
+1.47286608260E+007, +1.55813981920E+000, +1.88874634088E+002
+1.48536921151E+007, +1.60622366768E+000, +1.90449683158E+002
+1.49787234043E+007, +1.52782932247E+000, +1.92098349754E+002
+1.51037546934E+007, +1.80343462709E+000, +1.93729314606E+002
+1.52287859825E+007, +1.64197062558E+000, +1.95717163422E+002
+1.53538172716E+007, +1.65133923594E+000, +1.97305356484E+002
+1.54788485607E+007, +1.57915335905E+000, +1.98844074781E+002
+1.56038798498E+007, +1.41208377594E+000, +2.00201825002E+002
+1.57289111389E+007, +1.41869265038E+000, +2.02058268976E+002
+1.58539424280E+007, +1.39073488156E+000, +2.04057815597E+002
+1.59789737171E+007, +1.72839875823E+000, +2.05574382877E+002
+1.61040050063E+007, +1.48552074345E+000, +2.07372572738E+002
+1.62290362954E+007, +1.78941638868E+000, +2.09026583084E+002
+1.63540675845E+007, +1.57908344762E+000, +2.10837402088E+002
+1.64790988736E+007, +1.52317055464E+000, +2.12722715153E+002
+1.66041301627E+007, +1.60014449813E+000, +2.14416462735E+002
+1.67291614518E+007, +1.52178165683E+000, +2.16443329093E+002
+1.68541927409E+007, +1.77812191403E+000, +2.18103489388E+002
+1.69792240300E+007, +1.58711083448E+000, +2.19976590763E+002
+1.71042553191E+007, +1.21299228285E+000, +2.21516622098E+002
+1.72292866083E+007, +1.46177373842E+000, +2.23263372055E+002
+1.73543178974E+007, +1.73392554516E+000, +2.24729402718E+002
+1.74793491865E+007, +1.10269446315E+000, +2.26571817451E+002
+1.76043804756E+007, +1.58476264724E+000, +2.28668005970E+002
+1.77294117647E+007, +1.59730092298E+000, +2.29919453743E+002
+1.78544430538E+007, +1.48283402215E+000, +2.32173407397E+002
+1.79794743429E+007, +1.40752026495E+000, +2.34279420132E+002
+1.81045056320E+007, +1.52353725742E+000, +2.35490189003E+002
+1.82295369212E+007, +1.30310462109E+000, +2.37404632592E+002
+1.83545682103E+007, +1.54259314623E+000, +2.39100453723E+002
+1.84795994994E+007, +1.21868758143E+000, +2.40732976253E+002
+1.86046307885E+007, +1.53282622910E+000, +2.42797543094E+002
+1.87296620776E+007, +1.45205792588E+000, +2.44204543793E+002
+1.88546933667E+007, +1.52678410884E+000, +2.46051902643E+002
+1.89797246558E+007, +1.51108464633E+000, +2.47888172090E+002
+1.91047559449E+007, +2.00646424708E+000, +2.49610845272E+002
+1.92297872340E+007, +1.81545428653E+000, +2.51823374333E+002
+1.93548185232E+007, +1.45968613794E+000, +2.52926006800E+002
+1.94798498123E+007, +1.53766844391E+000, +2.55189875652E+002
+1.96048811014E+007, +1.58260856720E+000, +2.57260553722E+002
+1.97299123905E+007, +1.31037048128E+000, +2.58611057954E+002
+1.98549436796E+007, +1.88743824503E+000, +2.60351135329E+002
+1.99799749687E+007, +1.70703428103E+000, +2.62114654539E+002
+2.01050062578E+007, +1.40900007516E+000, +2.64467494605E+002
+2.02300375469E+007, +1.55605029894E+000, +2.66120853901E+002
+2.03550688360E+007, +1.37752804843E+000, +2.68198817204E+002
+2.04801001252E+007, +1.77864969896E+000, +2.70101251244E+002
+2.06051314143E+007, +1.63414089719E+000, +2.71308087027E+002
+2.07301627034E+007, +1.53314519148E+000, +2.73088909198E+002
+2.08551939925E+007, +1.43024552000E+000, +2.75310179037E+002
+2.09802252816E+007, +1.86574481819E+000, +2.77015826942E+002
+2.11052565707E+007, +1.74787642356E+000, +2.78822039992E+002
+2.12302878598E+007, +1.54668913300E+000, +2.80660893959E+002
+2.13553191489E+007, +1.81323723018E+000, +2.82712752306E+002
+2.14803504380E+007, +2.05327652647E+000, +2.84378013005E+002
+2.16053817272E+007, +1.54515817516E+000, +2.86602899915E+002
+2.17304130163E+007, +1.76766084089E+000, +2.88577665770E+002
+2.18554443054E+007, +1.22739191429E+000, +2.90249903406E+002
+2.19804755945E+007, +1.53553852302E+000, +2.92095050794E+002
+2.21055068836E+007, +1.44339153856E+000, +2.94298014408E+002
+2.22305381727E+007, +1.56974298759E+000, +2.95677563035E+002
+2.23555694618E+007, +1.99284261698E+000, +2.97850591975E+002
+2.24806007509E+007, +2.21068606487E+000, +2.99323470190E+002
+2.26056320401E+007, +1.96187538407E+000, +3.01657756832E+002
+2.27306633292E+007, +1.75583914176E+000, +3.03431522419E+002
+2.28556946183E+007, +1.86907756534E+000, +3.05215288272E+002
+2.29807259074E+007, +1.68827210084E+000, +3.07818711833E+002
+2.31057571965E+007, +1.72602626547E+000, +3.09150259668E+002
+2.32307884856E+007, +2.00125271794E+000, +3.11243913778E+002
+2.33558197747E+007, +1.82003909647E+000, +3.13390946357E+002
+2.34808510638E+007, +1.46337372087E+000, +3.15113892999E+002
+2.36058823529E+007, +2.32631434213E+000, +3.16977371567E+002
+2.37309136421E+007, +1.75970352456E+000, +3.18206831205E+002
+2.38559449312E+007, +1.85925052778E+000, +3.20486838265E+002
+2.39809762203E+007, +2.44546497730E+000, +3.22219119091E+002
+2.41060075094E+007, +2.08934655518E+000, +3.24408282983E+002
+2.42310387985E+007, +2.64149367497E+000, +3.26421547479E+002
+2.43560700876E+007, +2.01464475654E+000, +3.28086393112E+002
+2.44811013767E+007, +2.14954346118E+000, +3.30121087936E+002
+2.46061326658E+007, +1.96589194889E+000, +3.32218993325E+002
+2.47311639549E+007, +2.21859255642E+000, +3.34001757748E+002
+2.48561952441E+007, +2.37996904729E+000, +3.36257989316E+002
+2.49812265332E+007, +2.99665096605E+000, +3.37064741108E+002
+2.51062578223E+007, +1.41113301446E+000, +3.39741777471E+002
+2.52312891114E+007, +2.30738813274E+000, +3.41044213615E+002
+2.53563204005E+007, +1.58055976347E+000, +3.43875719532E+002
+2.54813516896E+007, +2.48568371720E+000, +3.45507731743E+002
+2.56063829787E+007, +2.26640834741E+000, +3.48280275378E+002
+2.57314142678E+007, +2.27706419285E+000, +3.49831340106E+002
+2.58564455569E+007, +2.58600788936E+000, +3.52131942164E+002
+2.59814768461E+007, +2.19577221778E+000, +3.53850205128E+002
+2.61065081352E+007, +2.45517749061E+000, +3.56293486785E+002
+2.62315394243E+007, +1.98248026869E+000, +3.57759548896E+002
+2.63565707134E+007, +1.44811446539E+000, +3.60199982288E+002
+2.64816020025E+007, +2.15964809709E+000, +3.61379166393E+002
+2.66066332916E+007, +1.68131605128E+000, +3.64157562883E+002
+2.67316645807E+007, +2.15117288573E+000, +3.66049730997E+002
+2.68566958698E+007, +2.37984615912E+000, +3.68760388996E+002
+2.69817271589E+007, +2.60303969795E+000, +3.70039043842E+002
+2.71067584481E+007, +2.74320169227E+000, +3.72149124185E+002
+2.72317897372E+007, +2.05904224315E+000, +3.75002936239E+002
+2.73568210263E+007, +1.09234340029E+000, +3.76608984093E+002
+2.74818523154E+007, +1.72495059415E+000, +3.78826576077E+002
+2.76068836045E+007, +2.66291895278E+000, +3.80764755649E+002
+2.77319148936E+007, +1.45885540231E+000, +3.81956716391E+002
+2.78569461827E+007, +1.47298888870E+000, +3.84360545480E+002
+2.79819774718E+007, +1.87744582000E+000, +3.87385134228E+002
+2.81070087610E+007, +1.37509217725E+000, +3.89301680013E+002
+2.82320400501E+007, +1.77806772994E+000, +3.91156670727E+002
+2.83570713392E+007, +8.21764307054E-001, +3.93302998377E+002
+2.84821026283E+007, +1.79427263793E+000, +3.95813975353E+002
+2.86071339174E+007, +1.05875391535E+000, +3.97721495521E+002
+2.87321652065E+007, +1.78119701978E+000, +3.99525325302E+002
+2.88571964956E+007, +1.52852848307E+000, +4.01755834541E+002
+2.89822277847E+007, +1.06951231254E+000, +4.03645242796E+002
+2.91072590738E+007, +1.54003022627E+000, +4.07085435846E+002
+2.92322903630E+007, +1.12957622296E+000, +4.08549735572E+002
+2.93573216521E+007, +9.90949165641E-001, +4.10555480220E+002
+2.94823529412E+007, +1.40212763762E+000, +4.12291808686E+002
+2.96073842303E+007, +1.08078901067E+000, +4.16289198131E+002
+2.97324155194E+007, +1.11614433508E+000, +4.17295512445E+002
+2.98574468085E+007, +2.27722167354E+000, +4.19909516076E+002
+2.99824780976E+007, +2.92262283022E-001, +4.23454630291E+002
+3.01075093867E+007, +1.71025655584E+000, +4.24305775991E+002
+3.02325406758E+007, +8.25138921734E-001, +4.26828626144E+002
+3.03575719650E+007, +9.22531052593E-001, +4.29247143212E+002
+3.04826032541E+007, +1.60970479012E+000, +4.30895349125E+002
+3.06076345432E+007, +1.20786772742E+000, +4.33634562159E+002
+3.07326658323E+007, +1.89280773870E+000, +4.36024701328E+002
+3.08576971214E+007, +1.81917797907E+000, +4.38538789659E+002
+3.09827284105E+007, +2.01518061171E+000, +4.40816894194E+002
+3.11077596996E+007, +1.04592437488E+000, +4.43453001259E+002
+3.12327909887E+007, +1.68807843997E+000, +4.44395523865E+002
+3.13578222778E+007, +6.80182855809E-001, +4.46520943384E+002
+3.14828535670E+007, +1.05030058494E-001, +4.49805241132E+002
+3.16078848561E+007, +1.35424945376E+000, +4.52531419390E+002
+3.17329161452E+007, +7.36601285243E-001, +4.54139271407E+002
+3.18579474343E+007, +1.77811795068E+000, +4.55613694398E+002
+3.19829787234E+007, +6.53630771195E-001, +4.58304207169E+002
+3.21080100125E+007, +2.22019224343E+000, +4.61868415266E+002
+3.22330413016E+007, +1.39086943417E+000, +4.62808868787E+002
+3.23580725907E+007, +1.08731062511E+000, +4.64491792150E+002
+3.24831038798E+007, +1.76175332984E+000, +4.68452881519E+002
+3.26081351690E+007, -1.01417475906E-001, +4.70507189473E+002
+3.27331664581E+007, +2.24152471316E+000, +4.73044475936E+002
+3.28581977472E+007, +1.72006860350E+000, +4.76186810233E+002
+3.29832290363E+007, +1.49566803636E+000, +4.78962923191E+002
+3.31082603254E+007, +2.29337675636E+000, +4.81227057893E+002
+3.32332916145E+007, +1.33211359689E+000, +4.81923654575E+002
+3.33583229036E+007, +1.37712183297E+000, +4.85478291556E+002
+3.34833541927E+007, +1.22128200827E+000, +4.88390317022E+002
+3.36083854819E+007, +1.06348522394E+000, +4.89827136160E+002
+3.37334167710E+007, +1.11429770974E+000, +4.92847141144E+002
+3.38584480601E+007, +1.68641027375E+000, +4.93891536824E+002
+3.39834793492E+007, +9.79662645731E-001, +4.97332477790E+002
+3.41085106383E+007, -2.34889783537E-001, +4.98303094730E+002
+3.42335419274E+007, +1.75395264751E+000, +5.01569564881E+002
+3.43585732165E+007, +1.68513612029E+000, +5.04565360232E+002
+3.44836045056E+007, +9.93892501528E-001, +5.08729919372E+002
+3.46086357947E+007, +9.40238679933E-001, +5.10416328629E+002
+3.47336670839E+007, +1.03175995000E+000, +5.11057187448E+002
+3.48586983730E+007, -8.10802798915E-001, +5.15797041187E+002
+3.49837296621E+007, +1.59256101621E+000, +5.18000524797E+002
+3.51087609512E+007, +4.14100945385E-001, +5.21032653789E+002
+3.52337922403E+007, +2.02258409291E+000, +5.23105683062E+002
+3.53588235294E+007, +8.99644510003E-001, +5.25292352513E+002
+3.54838548185E+007, +1.41983326133E+000, +5.28014110207E+002
+3.56088861076E+007, +2.07582707510E+000, +5.30473769306E+002
+3.57339173967E+007, -6.47093404620E-001, +5.34469873302E+002
+3.58589486859E+007, +1.98765592863E+000, +5.35305065855E+002
+3.59839799750E+007, +1.85252863409E+000, +5.38583242856E+002
+3.61090112641E+007, -4.00121335764E-001, +5.40914666518E+002
+3.62340425532E+007, +1.09887197132E+000, +5.44082618538E+002
+3.63590738423E+007, +2.29086610506E-001, +5.46737851038E+002
+3.64841051314E+007, +1.69539958138E+000, +5.50010936178E+002
+3.66091364205E+007, +2.33110045765E+000, +5.52544579207E+002
+3.67341677096E+007, +8.76816569836E-001, +5.55926004317E+002
+3.68591989987E+007, -1.31637821773E+000, +5.57302329692E+002
+3.69842302879E+007, +6.91152007555E-001, +5.60268455561E+002
+3.71092615770E+007, +6.43506025898E-001, +5.63131867345E+002
+3.72342928661E+007, +2.38520419394E-002, +5.66097384447E+002
+3.73593241552E+007, +2.25759770618E+000, +5.68521755123E+002
+3.74843554443E+007, +3.30997036116E-003, +5.72000648873E+002
+3.76093867334E+007, +1.57209477769E+000, +5.74417531703E+002
+3.77344180225E+007, +1.66357990427E+000, +5.76784153829E+002
+3.78594493116E+007, -4.98880641398E-002, +5.79273251035E+002
+3.79844806008E+007, +3.97848767595E-001, +5.81897685224E+002
+3.81095118899E+007, +2.11890706709E+000, +5.85716326562E+002
+3.82345431790E+007, -1.78726339013E-001, +5.89426158318E+002
+3.83595744681E+007, +1.13654086544E+000, +5.90674534993E+002
+3.84846057572E+007, -4.68745881385E-001, +5.94768402905E+002
+3.86096370463E+007, +1.82171043831E+000, +5.97742901013E+002
+3.87346683354E+007, +1.41911191022E+000, +6.01357805146E+002
+3.88596996245E+007, +2.61237872165E-001, +6.04133749362E+002
+3.89847309136E+007, +5.40695965592E-001, +6.07058078815E+002
+3.91097622028E+007, +3.77413545323E-001, +6.08756456637E+002
+3.92347934919E+007, +7.65331808845E-001, +6.12828294023E+002
+3.93598247810E+007, +1.44727314498E+000, +6.15402864737E+002
+3.94848560701E+007, +1.25175948914E+000, +6.18686292815E+002
+3.96098873592E+007, -1.10583148798E+000, +6.20724154324E+002
+3.97349186483E+007, -6.26136682057E-001, +6.25087463987E+002
+3.98599499374E+007, +1.15756345986E-002, +6.28558342645E+002
+3.99849812265E+007, +1.97041061129E+000, +6.32346826938E+002
+4.01100125156E+007, +6.15365271279E-001, +6.33972445674E+002
