"# Channel 1"
"# Trace 1"
Frequency, Formatted Data, Formatted Data
+1.00000000000E+005, +3.28825487265E+001, +1.27264763754E+000
+2.66777963272E+005, +3.28754157641E+001, +3.71131365684E+000
+4.33555926544E+005, +3.28835337027E+001, +6.04654657605E+000
+6.00333889816E+005, +3.28891358340E+001, +8.33851256583E+000
+7.67111853088E+005, +3.29186764104E+001, +1.06022159451E+001
+9.33889816361E+005, +3.29210525180E+001, +1.29208951275E+001
+1.10066777963E+006, +3.29224109301E+001, +1.52740389828E+001
+1.26744574290E+006, +3.29147002499E+001, +1.75128943214E+001
+1.43422370618E+006, +3.29494559983E+001, +1.99052412692E+001
+1.60100166945E+006, +3.28929276658E+001, +2.21491257084E+001
+1.76777963272E+006, +3.29365730262E+001, +2.44100335425E+001
+1.93455759599E+006, +3.29054512961E+001, +2.67915975706E+001
+2.10133555927E+006, +3.28896292591E+001, +2.90357368107E+001
+2.26811352254E+006, +3.29248611654E+001, +3.13708869376E+001
+2.43489148581E+006, +3.30004666966E+001, +3.36878920259E+001
+2.60166944908E+006, +3.29243873412E+001, +3.59503175884E+001
+2.76844741235E+006, +3.29752069529E+001, +3.83334180408E+001
+2.93522537563E+006, +3.29206363826E+001, +4.06057082952E+001
+3.10200333890E+006, +3.30283150612E+001, +4.28285089982E+001
+3.26878130217E+006, +3.29627557004E+001, +4.52850372710E+001
+3.43555926544E+006, +3.29400542232E+001, +4.75082263398E+001
+3.60233722871E+006, +3.30245524897E+001, +4.98397081830E+001
+3.76911519199E+006, +3.30221475928E+001, +5.22022419481E+001
+3.93589315526E+006, +3.28819087827E+001, +5.44452488541E+001
+4.10267111853E+006, +3.29950245246E+001, +5.68776638826E+001
+4.26944908180E+006, +3.31662788993E+001, +5.92017835790E+001
+4.43622704508E+006, +3.30172777243E+001, +6.14383316357E+001
+4.60300500835E+006, +3.30824060915E+001, +6.37822855712E+001
+4.76978297162E+006, +3.30396893558E+001, +6.61119035981E+001
+4.93656093489E+006, +3.30453706025E+001, +6.83856540509E+001
+5.10333889816E+006, +3.30785271187E+001, +7.06794188648E+001
+5.27011686144E+006, +3.33892860127E+001, +7.31192211303E+001
+5.43689482471E+006, +3.31713103312E+001, +7.54782466274E+001
+5.60367278798E+006, +3.32318662206E+001, +7.78764003569E+001
+5.77045075125E+006, +3.32167855484E+001, +8.00567796555E+001
+5.93722871452E+006, +3.33613948593E+001, +8.24101588548E+001
+6.10400667780E+006, +3.33058461343E+001, +8.47930579994E+001
+6.27078464107E+006, +3.33696371747E+001, +8.70937343819E+001
+6.43756260434E+006, +3.34573268252E+001, +8.94852060318E+001
+6.60434056761E+006, +3.34303748902E+001, +9.18166127103E+001
+6.77111853088E+006, +3.35427387782E+001, +9.41086438435E+001
+6.93789649416E+006, +3.34653408193E+001, +9.64731767739E+001
+7.10467445743E+006, +3.34435116361E+001, +9.88895526290E+001
+7.27145242070E+006, +3.35485972266E+001, +1.01150931590E+002
+7.43823038397E+006, +3.36175434328E+001, +1.03501257921E+002
+7.60500834725E+006, +3.35338255944E+001, +1.05931771889E+002
+7.77178631052E+006, +3.36485616518E+001, +1.08326978886E+002
+7.93856427379E+006, +3.36228693190E+001, +1.10618703467E+002
+8.10534223706E+006, +3.36786834813E+001, +1.12977297983E+002
+8.27212020033E+006, +3.36935051309E+001, +1.15321003775E+002
+8.43889816361E+006, +3.36945761392E+001, +1.17849086237E+002
+8.60567612688E+006, +3.36530549236E+001, +1.20221835832E+002
+8.77245409015E+006, +3.36805491180E+001, +1.22505018282E+002
+8.93923205342E+006, +3.37433797732E+001, +1.24964855388E+002
+9.10601001669E+006, +3.37727235635E+001, +1.27384607609E+002
+9.27278797997E+006, +3.38203891113E+001, +1.29759557171E+002
+9.43956594324E+006, +3.38031687193E+001, +1.32169421503E+002
+9.60634390651E+006, +3.38459285329E+001, +1.34571172501E+002
+9.77312186978E+006, +3.38692907670E+001, +1.36877846187E+002
+9.93989983306E+006, +3.39412955695E+001, +1.39386501476E+002
+1.01066777963E+007, +3.38229913357E+001, +1.41894729815E+002
+1.02734557596E+007, +3.38765937467E+001, +1.44327560466E+002
+1.04402337229E+007, +3.39618287229E+001, +1.46736264471E+002
+1.06070116861E+007, +3.39245072971E+001, +1.49180305590E+002
+1.07737896494E+007, +3.39353383345E+001, +1.51703271634E+002
+1.09405676127E+007, +3.41808285844E+001, +1.54054983203E+002
+1.11073455760E+007, +3.41312983482E+001, +1.56616625427E+002
+1.12741235392E+007, +3.40284563579E+001, +1.58969886138E+002
+1.14409015025E+007, +3.42341013803E+001, +1.61319487737E+002
+1.16076794658E+007, +3.43230007650E+001, +1.63829479678E+002
+1.17744574290E+007, +3.43325483339E+001, +1.66491675683E+002
+1.19412353923E+007, +3.43032364341E+001, +1.68894108940E+002
+1.21080133556E+007, +3.41924620292E+001, +1.71528182553E+002
+1.22747913189E+007, +3.43909464890E+001, +1.73924675834E+002
+1.24415692821E+007, +3.44523121184E+001, +1.76357693511E+002
+1.26083472454E+007, +3.43284491300E+001, +1.78995690699E+002
+1.27751252087E+007, +3.46869964078E+001, +1.81321437810E+002
+1.29419031720E+007, +3.44155896961E+001, +1.83740420910E+002
+1.31086811352E+007, +3.46791029627E+001, +1.86522413688E+002
+1.32754590985E+007, +3.45242670892E+001, +1.88877727988E+002
+1.34422370618E+007, +3.45671187993E+001, +1.91660083667E+002
+1.36090150250E+007, +3.47841206502E+001, +1.93977509309E+002
+1.37757929883E+007, +3.47641458276E+001, +1.96448888013E+002
+1.39425709516E+007, +3.49095776409E+001, +1.99068568827E+002
+1.41093489149E+007, +3.50197813578E+001, +2.01667474714E+002
+1.42761268781E+007, +3.50481495949E+001, +2.04328027926E+002
+1.44429048414E+007, +3.52346546651E+001, +2.06800679024E+002
+1.46096828047E+007, +3.52166651836E+001, +2.09520783824E+002
+1.47764607679E+007, +3.52970247761E+001, +2.11807472077E+002
+1.49432387312E+007, +3.52770391360E+001, +2.14370812207E+002
+1.51100166945E+007, +3.50656364979E+001, +2.17189840655E+002
+1.52767946578E+007, +3.55869091070E+001, +2.19808111244E+002
+1.54435726210E+007, +3.55231665727E+001, +2.22528910124E+002
+1.56103505843E+007, +3.58455635780E+001, +2.24890633181E+002
+1.57771285476E+007, +3.56963030068E+001, +2.27424024391E+002
+1.59439065109E+007, +3.57695086961E+001, +2.30199674880E+002
+1.61106844741E+007, +3.56645515919E+001, +2.32624374889E+002
+1.62774624374E+007, +3.60663809881E+001, +2.35234435220E+002
+1.64442404007E+007, +3.57680116282E+001, +2.38026756372E+002
+1.66110183639E+007, +3.60045000698E+001, +2.40754815168E+002
+1.67777963272E+007, +3.60728589254E+001, +2.43922686308E+002
+1.69445742905E+007, +3.62220652316E+001, +2.45940860721E+002
+1.71113522538E+007, +3.56031659922E+001, +2.48588002611E+002
+1.72781302170E+007, +3.61054539275E+001, +2.51528780917E+002
+1.74449081803E+007, +3.58198896643E+001, +2.54098345953E+002
+1.76116861436E+007, +3.61710977105E+001, +2.56815765478E+002
+1.77784641068E+007, +3.60192737032E+001, +2.59250384860E+002
+1.79452420701E+007, +3.64929073327E+001, +2.62381330987E+002
+1.81120200334E+007, +3.65978039943E+001, +2.64549044557E+002
+1.82787979967E+007, +3.68496571467E+001, +2.67490618519E+002
+1.84455759599E+007, +3.68491985352E+001, +2.70490563427E+002
+1.86123539232E+007, +3.75209249469E+001, +2.72925417564E+002
+1.87791318865E+007, +3.70050116324E+001, +2.75663867489E+002
+1.89459098497E+007, +3.70651268327E+001, +2.78602996370E+002
+1.91126878130E+007, +3.74077216196E+001, +2.81172129862E+002
+1.92794657763E+007, +3.73115198387E+001, +2.84361632793E+002
+1.94462437396E+007, +3.77348773995E+001, +2.87423123752E+002
+1.96130217028E+007, +3.78520133128E+001, +2.90378314652E+002
+1.97797996661E+007, +3.77866469121E+001, +2.92598341748E+002
+1.99465776294E+007, +3.75095101284E+001, +2.95677386127E+002
+2.01133555927E+007, +3.80465691522E+001, +2.98832481813E+002
+2.02801335559E+007, +3.72907905036E+001, +3.01640747546E+002
+2.04469115192E+007, +3.80841740145E+001, +3.04838069558E+002
+2.06136894825E+007, +3.79970554515E+001, +3.07230092187E+002
+2.07804674457E+007, +3.83017402818E+001, +3.10166114747E+002
+2.09472454090E+007, +3.85392693268E+001, +3.13248674500E+002
+2.11140233723E+007, +3.87960076079E+001, +3.15854142212E+002
+2.12808013356E+007, +3.88278004878E+001, +3.18924066848E+002
+2.14475792988E+007, +3.90446392447E+001, +3.21799944432E+002
+2.16143572621E+007, +3.94761121600E+001, +3.24678338558E+002
+2.17811352254E+007, +3.90685158339E+001, +3.27583346808E+002
+2.19479131886E+007, +3.95590797963E+001, +3.30726497225E+002
+2.21146911519E+007, +4.05061207321E+001, +3.33068607480E+002
+2.22814691152E+007, +4.03703439888E+001, +3.35974809600E+002
+2.24482470785E+007, +4.01304595295E+001, +3.39838419670E+002
+2.26150250417E+007, +4.08946594313E+001, +3.42446931897E+002
+2.27818030050E+007, +4.09566252735E+001, +3.45328202650E+002
+2.29485809683E+007, +4.13950777741E+001, +3.48334142860E+002
+2.31153589316E+007, +4.11397877284E+001, +3.52116412676E+002
+2.32821368948E+007, +4.18586132200E+001, +3.55168593513E+002
+2.34489148581E+007, +4.15196100519E+001, +3.57435045011E+002
+2.36156928214E+007, +4.18013259192E+001, +3.61378756458E+002
+2.37824707846E+007, +4.19480401977E+001, +3.63561833111E+002
+2.39492487479E+007, +4.21383114987E+001, +3.66487504976E+002
+2.41160267112E+007, +4.19409577559E+001, +3.69540738219E+002
+2.42828046745E+007, +4.24387604188E+001, +3.72501147337E+002
+2.44495826377E+007, +4.29753807588E+001, +3.76825256694E+002
+2.46163606010E+007, +4.33363457309E+001, +3.79200864928E+002
+2.47831385643E+007, +4.30360065587E+001, +3.82579875133E+002
+2.49499165275E+007, +4.41369648224E+001, +3.85517224576E+002
+2.51166944908E+007, +4.43197389660E+001, +3.88808239918E+002
+2.52834724541E+007, +4.48241870504E+001, +3.92280013545E+002
+2.54502504174E+007, +4.49144848185E+001, +3.95016987590E+002
+2.56170283806E+007, +4.47610946070E+001, +3.98141481201E+002
+2.57838063439E+007, +4.50119143269E+001, +4.02264714157E+002
+2.59505843072E+007, +4.50269743611E+001, +4.05330009032E+002
+2.61173622705E+007, +4.50917034112E+001, +4.08139550624E+002
+2.62841402337E+007, +4.55397389179E+001, +4.11921367365E+002
+2.64509181970E+007, +4.53382678939E+001, +4.14727444284E+002
+2.66176961603E+007, +4.61442203020E+001, +4.18648616126E+002
+2.67844741235E+007, +4.63124607634E+001, +4.21710184790E+002
+2.69512520868E+007, +4.68456889864E+001, +4.24644113738E+002
+2.71180300501E+007, +4.71918707098E+001, +4.27596459764E+002
+2.72848080134E+007, +4.77857456373E+001, +4.31566800320E+002
+2.74515859766E+007, +4.77284994203E+001, +4.35085671303E+002
+2.76183639399E+007, +4.76691255906E+001, +4.37470097190E+002
+2.77851419032E+007, +4.75316740049E+001, +4.41558392239E+002
+2.79519198664E+007, +4.84047430359E+001, +4.44389248702E+002
+2.81186978297E+007, +4.92879269982E+001, +4.47289686240E+002
+2.82854757930E+007, +4.82838254598E+001, +4.50876027087E+002
+2.84522537563E+007, +4.80411452610E+001, +4.54914031491E+002
+2.86190317195E+007, +4.84635513378E+001, +4.57946823377E+002
+2.87858096828E+007, +5.11496190158E+001, +4.61867287066E+002
+2.89525876461E+007, +4.97888187466E+001, +4.65274562861E+002
+2.91193656093E+007, +4.93567724035E+001, +4.67950450629E+002
+2.92861435726E+007, +4.87012532125E+001, +4.72712733963E+002
+2.94529215359E+007, +5.04190078268E+001, +4.75485474606E+002
+2.96196994992E+007, +5.09594588749E+001, +4.79855096264E+002
+2.97864774624E+007, +5.18452102036E+001, +4.83237557510E+002
+2.99532554257E+007, +5.17357204015E+001, +4.86704443038E+002
+3.01200333890E+007, +5.24416118206E+001, +4.90691790440E+002
+3.02868113523E+007, +5.08538564275E+001, +4.94548256804E+002
+3.04535893155E+007, +5.12778895735E+001, +4.98311572221E+002
+3.06203672788E+007, +5.28240209242E+001, +5.02615766165E+002
+3.07871452421E+007, +5.19488996827E+001, +5.05435439851E+002
+3.09539232053E+007, +5.27890764177E+001, +5.07760901964E+002
+3.11207011686E+007, +5.21193874624E+001, +5.14268151576E+002
+3.12874791319E+007, +5.22064975741E+001, +5.16611004267E+002
+3.14542570952E+007, +5.28037617756E+001, +5.20387469938E+002
+3.16210350584E+007, +5.24852882611E+001, +5.25034861347E+002
+3.17878130217E+007, +5.11596390591E+001, +5.29338183206E+002
+3.19545909850E+007, +5.31940106743E+001, +5.33266477235E+002
+3.21213689482E+007, +5.30157331010E+001, +5.38291868805E+002
+3.22881469115E+007, +5.37907590538E+001, +5.40420244827E+002
+3.24549248748E+007, +5.34535357075E+001, +5.45481152129E+002
+3.26217028381E+007, +5.46638178232E+001, +5.50089315041E+002
+3.27884808013E+007, +5.35757284080E+001, +5.52674031204E+002
+3.29552587646E+007, +5.51779275975E+001, +5.57554871071E+002
+3.31220367279E+007, +5.60401808552E+001, +5.62196921624E+002
+3.32888146912E+007, +5.57909473200E+001, +5.66545362320E+002
+3.34555926544E+007, +5.47568898246E+001, +5.70766983667E+002
+3.36223706177E+007, +5.52641822391E+001, +5.73421080529E+002
+3.37891485810E+007, +5.52248341145E+001, +5.77738970286E+002
+3.39559265442E+007, +5.65816025737E+001, +5.84500104400E+002
+3.41227045075E+007, +5.64765074606E+001, +5.86974432649E+002
+3.42894824708E+007, +5.67227480737E+001, +5.91843339602E+002
+3.44562604341E+007, +5.70970984480E+001, +5.94959470577E+002
+3.46230383973E+007, +5.79178718276E+001, +6.01942142241E+002
+3.47898163606E+007, +5.85343419183E+001, +6.04355571496E+002
+3.49565943239E+007, +5.96961849014E+001, +6.09448512737E+002
+3.51233722871E+007, +6.01249757524E+001, +6.14816655303E+002
+3.52901502504E+007, +5.87989638849E+001, +6.16576531810E+002
+3.54569282137E+007, +6.07922526963E+001, +6.24216740070E+002
+3.56237061770E+007, +5.97313340208E+001, +6.29275316166E+002
+3.57904841402E+007, +6.01557000198E+001, +6.33716159407E+002
+3.59572621035E+007, +6.05073967473E+001, +6.38126910055E+002
+3.61240400668E+007, +6.20471132544E+001, +6.42862021279E+002
+3.62908180301E+007, +6.29111423973E+001, +6.49381451788E+002
+3.64575959933E+007, +6.03153283756E+001, +6.54031032930E+002
+3.66243739566E+007, +6.33373761636E+001, +6.56980968636E+002
+3.67911519199E+007, +6.37754460492E+001, +6.65426857672E+002
+3.69579298831E+007, +6.27182564555E+001, +6.67039893184E+002
+3.71247078464E+007, +6.36275240742E+001, +6.74822786137E+002
+3.72914858097E+007, +6.48976947102E+001, +6.80814856612E+002
+3.74582637730E+007, +6.62925062512E+001, +6.85539763507E+002
+3.76250417362E+007, +6.62909370061E+001, +6.88696949250E+002
+3.77918196995E+007, +6.69598388216E+001, +6.92725560794E+002
+3.79585976628E+007, +6.66571527330E+001, +7.01202445519E+002
+3.81253756260E+007, +6.87424184451E+001, +7.04984337690E+002
+3.82921535893E+007, +6.93802577100E+001, +7.08518219674E+002
+3.84589315526E+007, +6.94075419712E+001, +7.15684221669E+002
+3.86257095159E+007, +6.79322995649E+001, +7.24989237942E+002
+3.87924874791E+007, +7.08567686609E+001, +7.29142738414E+002
+3.89592654424E+007, +7.00296770610E+001, +7.33297553127E+002
+3.91260434057E+007, +7.14516122849E+001, +7.43661225713E+002
+3.92928213689E+007, +7.32137190668E+001, +7.46271368199E+002
+3.94595993322E+007, +7.13437461558E+001, +7.52214790334E+002
+3.96263772955E+007, +7.14002422346E+001, +7.59808673155E+002
+3.97931552588E+007, +7.32133544897E+001, +7.64221881298E+002
+3.99599332220E+007, +7.31563165613E+001, +7.68710767610E+002
+4.01267111853E+007, +7.67357780446E+001, +7.76336144339E+002
+4.02934891486E+007, +7.50368991693E+001, +7.83334094180E+002
+4.04602671119E+007, +7.69634647396E+001, +7.88296877422E+002
+4.06270450751E+007, +7.99204921260E+001, +7.96593695758E+002
+4.07938230384E+007, +7.74777055633E+001, +8.01635506677E+002
+4.09606010017E+007, +7.85473172513E+001, +8.08239724391E+002
+4.11273789649E+007, +8.05857868494E+001, +8.12923561338E+002
+4.12941569282E+007, +7.90036838263E+001, +8.21883310300E+002
+4.14609348915E+007, +8.23240530592E+001, +8.29065814907E+002
+4.16277128548E+007, +8.26712161079E+001, +8.37262591986E+002
+4.17944908180E+007, +8.43962583140E+001, +8.40105874015E+002
+4.19612687813E+007, +8.43989832061E+001, +8.47989508214E+002
+4.21280467446E+007, +8.50138755530E+001, +8.56611053718E+002
+4.22948247078E+007, +8.73591617291E+001, +8.59373780695E+002
+4.24616026711E+007, +9.01227705948E+001, +8.67081106893E+002
+4.26283806344E+007, +8.99197270395E+001, +8.79622177399E+002
+4.27951585977E+007, +8.56651172236E+001, +8.87759164257E+002
+4.29619365609E+007, +9.42814442132E+001, +8.92032266109E+002
+4.31287145242E+007, +9.68319391777E+001, +9.01033120224E+002
+4.32954924875E+007, +9.51933328577E+001, +9.07526778591E+002
+4.34622704508E+007, +9.62695748795E+001, +9.19370430070E+002
+4.36290484140E+007, +9.66538625636E+001, +9.25531745858E+002
+4.37958263773E+007, +9.43611943771E+001, +9.34763613426E+002
+4.39626043406E+007, +9.64942153110E+001, +9.39961815549E+002
+4.41293823038E+007, +1.04686202766E+002, +9.54126582095E+002
+4.42961602671E+007, +9.77451456580E+001, +9.56866855377E+002
+4.44629382304E+007, +1.01640096370E+002, +9.65920005454E+002
+4.46297161937E+007, +1.05131206573E+002, +9.74991577949E+002
+4.47964941569E+007, +1.02759148267E+002, +9.81987560818E+002
+4.49632721202E+007, +1.05398034705E+002, +9.98899476700E+002
+4.51300500835E+007, +1.08970543464E+002, +1.00096665224E+003
+4.52968280467E+007, +1.13346116382E+002, +1.01332143483E+003
+4.54636060100E+007, +1.13625068559E+002, +1.02628109620E+003
+4.56303839733E+007, +1.15722204516E+002, +1.03306155548E+003
+4.57971619366E+007, +1.19064293739E+002, +1.04526701993E+003
+4.59639398998E+007, +1.19939709816E+002, +1.06111948812E+003
+4.61307178631E+007, +1.23307991932E+002, +1.06696660015E+003
+4.62974958264E+007, +1.28417153836E+002, +1.07178300947E+003
+4.64642737896E+007, +1.23228088527E+002, +1.08362730028E+003
+4.66310517529E+007, +1.28836484358E+002, +1.10313145891E+003
+4.67978297162E+007, +1.35905538408E+002, +1.09967673987E+003
+4.69646076795E+007, +1.35621931241E+002, +1.11886741556E+003
+4.71313856427E+007, +1.37096648699E+002, +1.13392081439E+003
+4.72981636060E+007, +1.40287853076E+002, +1.14240836077E+003
+4.74649415693E+007, +1.43214572361E+002, +1.15684035747E+003
+4.76317195326E+007, +1.53170751410E+002, +1.16641594108E+003
+4.77984974958E+007, +1.60527135822E+002, +1.17207156413E+003
+4.79652754591E+007, +1.58288502069E+002, +1.18788291364E+003
+4.81320534224E+007, +1.61317285617E+002, +1.19693435345E+003
+4.82988313856E+007, +1.67051384651E+002, +1.21522604789E+003
+4.84656093489E+007, +1.72024251660E+002, +1.22470463381E+003
+4.86323873122E+007, +1.77526829962E+002, +1.23519538386E+003
+4.87991652755E+007, +1.80449340016E+002, +1.24637891076E+003
+4.89659432387E+007, +1.84179773375E+002, +1.25798421883E+003
+4.91327212020E+007, +1.92482412357E+002, +1.27674210280E+003
+4.92994991653E+007, +2.02655051540E+002, +1.28001507033E+003
+4.94662771285E+007, +2.14392112035E+002, +1.29921581342E+003
+4.96330550918E+007, +2.12254916558E+002, +1.30465669384E+003
+4.97998330551E+007, +2.25547245644E+002, +1.31338524357E+003
+4.99666110184E+007, +2.26090345594E+002, +1.32872157556E+003
+5.01333889816E+007, +2.28660246103E+002, +1.34759523821E+003
+5.03001669449E+007, +2.32395746263E+002, +1.34913612942E+003
+5.04669449082E+007, +2.40848536526E+002, +1.37216973902E+003
+5.06337228715E+007, +2.47865063185E+002, +1.38754445711E+003
+5.08005008347E+007, +2.38399487380E+002, +1.38720466238E+003
+5.09672787980E+007, +2.58227836722E+002, +1.40234764692E+003
+5.11340567613E+007, +2.61281143201E+002, +1.41836747102E+003
+5.13008347245E+007, +2.56446822022E+002, +1.43571282959E+003
+5.14676126878E+007, +2.68197364141E+002, +1.44540813302E+003
+5.16343906511E+007, +2.71538919480E+002, +1.46464417364E+003
+5.18011686144E+007, +2.67041885423E+002, +1.47724988014E+003
+5.19679465776E+007, +2.85014743740E+002, +1.49257667926E+003
+5.21347245409E+007, +2.89312202891E+002, +1.51425287242E+003
+5.23015025042E+007, +3.01705349400E+002, +1.54990527116E+003
+5.24682804674E+007, +2.87808185276E+002, +1.56232426723E+003
+5.26350584307E+007, +3.02161175673E+002, +1.57420147939E+003
+5.28018363940E+007, +2.98814617620E+002, +1.59913022910E+003
+5.29686143573E+007, +3.07498047131E+002, +1.60823382191E+003
+5.31353923205E+007, +3.09418186913E+002, +1.62540745867E+003
+5.33021702838E+007, +3.15105261576E+002, +1.65441013216E+003
+5.34689482471E+007, +3.23612449037E+002, +1.68678427831E+003
