"# Channel 1"
"# Trace 1"
Frequency, Formatted Data, Formatted Data
+1.00000000000E+005, +4.16271340591E+000, +1.36585128013E+000
+2.25031289111E+005, +4.12467543124E+000, +3.01253757790E+000
+3.50062578223E+005, +4.13293594524E+000, +4.72273190876E+000
+4.75093867334E+005, +4.16846504042E+000, +6.37649740945E+000
+6.00125156446E+005, +4.15568404740E+000, +8.02510452537E+000
+7.25156445557E+005, +4.14585160690E+000, +9.71631489468E+000
+8.50187734668E+005, +4.15666295543E+000, +1.13688413520E+001
+9.75219023780E+005, +4.16940702232E+000, +1.30265961148E+001
+1.10025031289E+006, +4.19374029199E+000, +1.46671413911E+001
+1.22528160200E+006, +4.18518115223E+000, +1.63541718703E+001
+1.35031289111E+006, +4.19268801734E+000, +1.80291668034E+001
+1.47534418023E+006, +4.18575619443E+000, +1.96796161621E+001
+1.60037546934E+006, +4.22532045612E+000, +2.13146402013E+001
+1.72540675845E+006, +4.19297735156E+000, +2.29712111131E+001
+1.85043804756E+006, +4.23373727003E+000, +2.46597309833E+001
+1.97546933667E+006, +4.24244286823E+000, +2.63557010854E+001
+2.10050062578E+006, +4.24254308786E+000, +2.79468735547E+001
+2.22553191489E+006, +4.22281883962E+000, +2.95801109794E+001
+2.35056320401E+006, +4.24743804248E+000, +3.13009759450E+001
+2.47559449312E+006, +4.25708087351E+000, +3.28999429031E+001
+2.60062578223E+006, +4.22748628712E+000, +3.45632921402E+001
+2.72565707134E+006, +4.22798417944E+000, +3.62460887766E+001
+2.85068836045E+006, +4.25307309891E+000, +3.78997053667E+001
+2.97571964956E+006, +4.29923840157E+000, +3.95751877084E+001
+3.10075093867E+006, +4.21237234951E+000, +4.12502382519E+001
+3.22578222778E+006, +4.28358173797E+000, +4.29133518313E+001
+3.35081351690E+006, +4.33086015160E+000, +4.45711469827E+001
+3.47584480601E+006, +4.37074106840E+000, +4.62555275636E+001
+3.60087609512E+006, +4.28946166004E+000, +4.79215546793E+001
+3.72590738423E+006, +4.29732134453E+000, +4.95443119897E+001
+3.85093867334E+006, +4.33486958873E+000, +5.12879672594E+001
+3.97596996245E+006, +4.37259642353E+000, +5.28863838464E+001
+4.10100125156E+006, +4.39068280852E+000, +5.46176298567E+001
+4.22603254068E+006, +4.32218802031E+000, +5.62228727312E+001
+4.35106382979E+006, +4.27443607581E+000, +5.78163428431E+001
+4.47609511890E+006, +4.28186503717E+000, +5.95068468203E+001
+4.60112640801E+006, +4.32919913761E+000, +6.11472637064E+001
+4.72615769712E+006, +4.35343899075E+000, +6.28275154288E+001
+4.85118898623E+006, +4.46919135349E+000, +6.44808794345E+001
+4.97622027534E+006, +4.37812702036E+000, +6.61845991772E+001
+5.10125156446E+006, +4.49217655068E+000, +6.78463246849E+001
+5.22628285357E+006, +4.41194842589E+000, +6.94917211576E+001
+5.35131414268E+006, +4.39257783116E+000, +7.11412344368E+001
+5.47634543179E+006, +4.42958978434E+000, +7.28129107198E+001
+5.60137672090E+006, +4.41911844415E+000, +7.45632259044E+001
+5.72640801001E+006, +4.47112703413E+000, +7.61570924480E+001
+5.85143929912E+006, +4.54012378776E+000, +7.79081715973E+001
+5.97647058824E+006, +4.59474767346E+000, +7.95119074142E+001
+6.10150187735E+006, +4.62325022329E+000, +8.10978943985E+001
+6.22653316646E+006, +4.59024840197E+000, +8.28853457152E+001
+6.35156445557E+006, +4.61241847414E+000, +8.45068041295E+001
+6.47659574468E+006, +4.60663976012E+000, +8.61931153263E+001
+6.60162703379E+006, +4.71383169397E+000, +8.78898508078E+001
+6.72665832290E+006, +4.67298187134E+000, +8.95622810018E+001
+6.85168961202E+006, +4.70292217713E+000, +9.12396151669E+001
+6.97672090113E+006, +4.72782832641E+000, +9.28864972355E+001
+7.10175219024E+006, +4.78902175047E+000, +9.45231459234E+001
+7.22678347935E+006, +4.76991666906E+000, +9.62169054223E+001
+7.35181476846E+006, +4.80286491334E+000, +9.79770241782E+001
+7.47684605757E+006, +4.84356031425E+000, +9.95809034617E+001
+7.60187734668E+006, +4.80801144700E+000, +1.01229566126E+002
+7.72690863579E+006, +4.95480069277E+000, +1.02917809774E+002
+7.85193992491E+006, +4.83656728793E+000, +1.04541228076E+002
+7.97697121402E+006, +4.84109092414E+000, +1.06279856793E+002
+8.10200250313E+006, +4.97088471247E+000, +1.07880535121E+002
+8.22703379224E+006, +4.98613252594E+000, +1.09729599352E+002
+8.35206508135E+006, +5.01763404405E+000, +1.11261768809E+002
+8.47709637046E+006, +5.01861745763E+000, +1.12966497306E+002
+8.60212765957E+006, +4.92407108300E+000, +1.14619268557E+002
+8.72715894869E+006, +4.99546305142E+000, +1.16244844069E+002
+8.85219023780E+006, +5.04964750271E+000, +1.17857452041E+002
+8.97722152691E+006, +5.07786579434E+000, +1.19625703681E+002
+9.10225281602E+006, +5.10167880818E+000, +1.21317973058E+002
+9.22728410513E+006, +4.99074073052E+000, +1.22852522165E+002
+9.35231539424E+006, +5.08329474286E+000, +1.24588764801E+002
+9.47734668335E+006, +5.13924571237E+000, +1.26311877565E+002
+9.60237797247E+006, +5.07898528697E+000, +1.27963732980E+002
+9.72740926158E+006, +5.23653782686E+000, +1.29600478363E+002
+9.85244055069E+006, +5.22873567868E+000, +1.31275202869E+002
+9.97747183980E+006, +5.15994786042E+000, +1.32956062457E+002
+1.01025031289E+007, +5.14009526196E+000, +1.34552494111E+002
+1.02275344180E+007, +5.28044668637E+000, +1.36366172300E+002
+1.03525657071E+007, +5.28139084933E+000, +1.37907054586E+002
+1.04775969962E+007, +5.18047303203E+000, +1.39599385633E+002
+1.06026282854E+007, +5.24830638816E+000, +1.41293081339E+002
+1.07276595745E+007, +5.23258323250E+000, +1.43071236233E+002
+1.08526908636E+007, +5.21484211494E+000, +1.44622560940E+002
+1.09777221527E+007, +5.34100568053E+000, +1.46241314909E+002
+1.11027534418E+007, +5.38558976904E+000, +1.47994005067E+002
+1.12277847309E+007, +5.37730461466E+000, +1.49813854544E+002
+1.13528160200E+007, +5.16481675577E+000, +1.51379353870E+002
+1.14778473091E+007, +5.45128851878E+000, +1.53068651493E+002
+1.16028785982E+007, +5.49298724439E+000, +1.54608863987E+002
+1.17279098874E+007, +5.29394033406E+000, +1.56525836128E+002
+1.18529411765E+007, +5.40498263684E+000, +1.58107997375E+002
+1.19779724656E+007, +5.41097532984E+000, +1.59729363558E+002
+1.21030037547E+007, +5.43436384341E+000, +1.61279961066E+002
+1.22280350438E+007, +5.45940869743E+000, +1.63191236489E+002
+1.23530663329E+007, +5.59040447852E+000, +1.64864535100E+002
+1.24780976220E+007, +5.62443750481E+000, +1.66417963893E+002
+1.26031289111E+007, +5.55978959024E+000, +1.68109178585E+002
+1.27281602003E+007, +5.51966789896E+000, +1.69773143046E+002
+1.28531914894E+007, +5.59554662181E+000, +1.71266923000E+002
+1.29782227785E+007, +5.56241185847E+000, +1.73130143922E+002
+1.31032540676E+007, +5.65629564053E+000, +1.75030283505E+002
+1.32282853567E+007, +5.78628929805E+000, +1.76589120110E+002
+1.33533166458E+007, +5.80043289062E+000, +1.78260117809E+002
+1.34783479349E+007, +5.53348025670E+000, +1.79858310920E+002
+1.36033792240E+007, +5.68260965470E+000, +1.81727337103E+002
+1.37284105131E+007, +5.62828556390E+000, +1.83243181055E+002
+1.38534418023E+007, +5.73175470803E+000, +1.85045735629E+002
+1.39784730914E+007, +5.57632834039E+000, +1.86678269371E+002
+1.41035043805E+007, +5.72750295606E+000, +1.88623864310E+002
+1.42285356696E+007, +5.84177813671E+000, +1.90336558755E+002
+1.43535669587E+007, +5.94742126872E+000, +1.91955593235E+002
+1.44785982478E+007, +5.94791893646E+000, +1.93713474726E+002
+1.46036295369E+007, +5.74962141338E+000, +1.95271528491E+002
+1.47286608260E+007, +5.84083709883E+000, +1.97002732685E+002
+1.48536921151E+007, +6.03837479401E+000, +1.98686790136E+002
+1.49787234043E+007, +5.98724494560E+000, +2.00505291506E+002
+1.51037546934E+007, +5.98270471111E+000, +2.02074302645E+002
+1.52287859825E+007, +6.04731327317E+000, +2.03935062898E+002
+1.53538172716E+007, +6.02142096858E+000, +2.05338006408E+002
+1.54788485607E+007, +6.03291184961E+000, +2.07011440755E+002
+1.56038798498E+007, +5.88366624712E+000, +2.09027815919E+002
+1.57289111389E+007, +5.89209146538E+000, +2.10429351382E+002
+1.58539424280E+007, +5.99029944911E+000, +2.12053134487E+002
+1.59789737171E+007, +6.11367243563E+000, +2.13844040082E+002
+1.61040050063E+007, +6.36953301703E+000, +2.15479318473E+002
+1.62290362954E+007, +6.07308076144E+000, +2.17217743427E+002
+1.63540675845E+007, +6.04000428484E+000, +2.19100689097E+002
+1.64790988736E+007, +6.34056562442E+000, +2.20929216426E+002
+1.66041301627E+007, +6.47391184918E+000, +2.22591916804E+002
+1.67291614518E+007, +6.09349182305E+000, +2.23903884331E+002
+1.68541927409E+007, +6.07597474900E+000, +2.25934498794E+002
+1.69792240300E+007, +6.24635811628E+000, +2.27450073838E+002
+1.71042553191E+007, +6.01523390223E+000, +2.29254416415E+002
+1.72292866083E+007, +6.04559516607E+000, +2.31116752837E+002
+1.73543178974E+007, +6.55854666522E+000, +2.32961107679E+002
+1.74793491865E+007, +6.29043631686E+000, +2.34378293853E+002
+1.76043804756E+007, +5.95554607919E+000, +2.36353945847E+002
+1.77294117647E+007, +6.12130981281E+000, +2.38160362531E+002
+1.78544430538E+007, +6.21254664054E+000, +2.39672279140E+002
+1.79794743429E+007, +6.08348037485E+000, +2.41024443919E+002
+1.81045056320E+007, +5.94552129665E+000, +2.43556469488E+002
+1.82295369212E+007, +6.44640482228E+000, +2.44651677278E+002
+1.83545682103E+007, +6.07799136640E+000, +2.46789992091E+002
+1.84795994994E+007, +6.24107181436E+000, +2.48386414134E+002
+1.86046307885E+007, +6.00067399444E+000, +2.50372847735E+002
+1.87296620776E+007, +6.30688972058E+000, +2.51767863110E+002
+1.88546933667E+007, +6.16985344864E+000, +2.53626304914E+002
+1.89797246558E+007, +6.70644228518E+000, +2.55390341102E+002
+1.91047559449E+007, +6.52929903621E+000, +2.56569224610E+002
+1.92297872340E+007, +6.17158986248E+000, +2.58525807652E+002
+1.93548185232E+007, +6.55674446288E+000, +2.60439173573E+002
+1.94798498123E+007, +6.21262211159E+000, +2.62353372825E+002
+1.96048811014E+007, +7.24921753872E+000, +2.64002330179E+002
+1.97299123905E+007, +6.46678739523E+000, +2.66041978190E+002
+1.98549436796E+007, +6.87914877342E+000, +2.67475264312E+002
+1.99799749687E+007, +6.45214634028E+000, +2.69513853364E+002
+2.01050062578E+007, +6.61733821556E+000, +2.71174298083E+002
+2.02300375469E+007, +6.13295932305E+000, +2.72750585527E+002
+2.03550688360E+007, +6.94218971580E+000, +2.74325726010E+002
+2.04801001252E+007, +6.68966144704E+000, +2.76289516507E+002
+2.06051314143E+007, +6.46893133201E+000, +2.77928088487E+002
+2.07301627034E+007, +7.15557855885E+000, +2.79971218621E+002
+2.08551939925E+007, +7.01247838727E+000, +2.81307608055E+002
+2.09802252816E+007, +6.91346887411E+000, +2.83647988399E+002
+2.11052565707E+007, +6.40220373463E+000, +2.85309169249E+002
+2.12302878598E+007, +6.86362588674E+000, +2.87076210649E+002
+2.13553191489E+007, +6.86560500345E+000, +2.89022152882E+002
+2.14803504380E+007, +6.73371013581E+000, +2.90523325274E+002
+2.16053817272E+007, +6.63726798211E+000, +2.92617116896E+002
+2.17304130163E+007, +6.86453895926E+000, +2.94374810407E+002
+2.18554443054E+007, +6.60815105701E+000, +2.96102583225E+002
+2.19804755945E+007, +6.96742969406E+000, +2.97372527905E+002
+2.21055068836E+007, +7.19918104738E+000, +2.99256579367E+002
+2.22305381727E+007, +7.16408212255E+000, +3.01425875451E+002
+2.23555694618E+007, +7.03702983011E+000, +3.02989616884E+002
+2.24806007509E+007, +7.08320579063E+000, +3.05536221068E+002
+2.26056320401E+007, +7.57965116366E+000, +3.06751069180E+002
+2.27306633292E+007, +6.79356812236E+000, +3.08639760945E+002
+2.28556946183E+007, +7.81047359515E+000, +3.11009210059E+002
+2.29807259074E+007, +7.62114525466E+000, +3.11998693252E+002
+2.31057571965E+007, +8.06046981558E+000, +3.13985596479E+002
+2.32307884856E+007, +7.95598711893E+000, +3.15480060319E+002
+2.33558197747E+007, +7.59070841321E+000, +3.18086195043E+002
+2.34808510638E+007, +7.79943620099E+000, +3.19092888453E+002
+2.36058823529E+007, +8.10800789106E+000, +3.21487013868E+002
+2.37309136421E+007, +8.08975774113E+000, +3.22874153110E+002
+2.38559449312E+007, +8.01999195937E+000, +3.24354892733E+002
+2.39809762203E+007, +8.03154881467E+000, +3.26871086416E+002
+2.41060075094E+007, +7.02815067869E+000, +3.28043001305E+002
+2.42310387985E+007, +8.37736443701E+000, +3.30166884708E+002
+2.43560700876E+007, +8.15631135241E+000, +3.31462047708E+002
+2.44811013767E+007, +8.48501139820E+000, +3.34015897118E+002
+2.46061326658E+007, +8.08773911183E+000, +3.35606097009E+002
+2.47311639549E+007, +8.00634172097E+000, +3.37107148012E+002
+2.48561952441E+007, +8.12080691598E+000, +3.39244370455E+002
+2.49812265332E+007, +8.24756319672E+000, +3.40973832092E+002
+2.51062578223E+007, +8.56507960187E+000, +3.42848762912E+002
+2.52312891114E+007, +8.34212116960E+000, +3.44066289343E+002
+2.53563204005E+007, +8.53460552265E+000, +3.46500714779E+002
+2.54813516896E+007, +8.67303156775E+000, +3.48475042999E+002
+2.56063829787E+007, +8.71852510541E+000, +3.50054107346E+002
+2.57314142678E+007, +8.84972717723E+000, +3.51586718144E+002
+2.58564455569E+007, +8.39704445737E+000, +3.53512684071E+002
+2.59814768461E+007, +8.46073926020E+000, +3.55496736448E+002
+2.61065081352E+007, +8.76015482829E+000, +3.57054903744E+002
+2.62315394243E+007, +8.93678509056E+000, +3.59645110904E+002
+2.63565707134E+007, +8.79453318683E+000, +3.61278077643E+002
+2.64816020025E+007, +8.46208010138E+000, +3.62494796841E+002
+2.66066332916E+007, +8.81174318205E+000, +3.64284602868E+002
+2.67316645807E+007, +9.06643660004E+000, +3.66041939102E+002
+2.68566958698E+007, +9.01708978620E+000, +3.68902888606E+002
+2.69817271589E+007, +9.34159307856E+000, +3.70569541194E+002
+2.71067584481E+007, +9.32043104899E+000, +3.71683722046E+002
+2.72317897372E+007, +9.06798659749E+000, +3.73622772243E+002
+2.73568210263E+007, +9.86761206028E+000, +3.75752950109E+002
+2.74818523154E+007, +9.33629203382E+000, +3.78157766955E+002
+2.76068836045E+007, +9.75459530821E+000, +3.79818015003E+002
+2.77319148936E+007, +9.43494949925E+000, +3.80895749075E+002
+2.78569461827E+007, +9.45344581593E+000, +3.82794306029E+002
+2.79819774718E+007, +9.67629816130E+000, +3.85325461702E+002
+2.81070087610E+007, +9.85489841644E+000, +3.86620936384E+002
+2.82320400501E+007, +1.01123610017E+001, +3.88984411928E+002
+2.83570713392E+007, +9.45350465448E+000, +3.90551623467E+002
+2.84821026283E+007, +1.01473030948E+001, +3.92137060566E+002
+2.86071339174E+007, +9.61830218913E+000, +3.94467260496E+002
+2.87321652065E+007, +9.85584282597E+000, +3.96336527758E+002
+2.88571964956E+007, +9.57249858659E+000, +3.97427802963E+002
+2.89822277847E+007, +9.66617044807E+000, +4.00371870086E+002
+2.91072590738E+007, +1.00129109569E+001, +4.01193873337E+002
+2.92322903630E+007, +8.68977701809E+000, +4.03898128451E+002
+2.93573216521E+007, +1.08653278007E+001, +4.05331467383E+002
+2.94823529412E+007, +9.53432155369E+000, +4.08361387798E+002
+2.96073842303E+007, +9.76317860463E+000, +4.09702601887E+002
+2.97324155194E+007, +9.89082639429E+000, +4.10652735315E+002
+2.98574468085E+007, +9.97257932546E+000, +4.13467110614E+002
+2.99824780976E+007, +1.09209728265E+001, +4.14364700205E+002
+3.01075093867E+007, +1.05784431096E+001, +4.17213743334E+002
+3.02325406758E+007, +1.03534923517E+001, +4.19032160894E+002
+3.03575719650E+007, +9.44706384875E+000, +4.20918594175E+002
+3.04826032541E+007, +1.04013393283E+001, +4.23303886485E+002
+3.06076345432E+007, +9.59571784828E+000, +4.24960580875E+002
+3.07326658323E+007, +9.47165223272E+000, +4.26707292153E+002
+3.08576971214E+007, +1.00410454795E+001, +4.27828795103E+002
+3.09827284105E+007, +1.04034796030E+001, +4.30476192766E+002
+3.11077596996E+007, +9.53339322764E+000, +4.33053562614E+002
+3.12327909887E+007, +1.01411028865E+001, +4.34518944312E+002
+3.13578222778E+007, +9.48248368251E+000, +4.37190707260E+002
+3.14828535670E+007, +9.58360488347E+000, +4.38249819239E+002
+3.16078848561E+007, +9.81762353560E+000, +4.40486672254E+002
+3.17329161452E+007, +1.07584361320E+001, +4.41409988272E+002
+3.18579474343E+007, +1.04461475118E+001, +4.44068863425E+002
+3.19829787234E+007, +9.41613189143E+000, +4.45796044323E+002
+3.21080100125E+007, +9.90985419720E+000, +4.47974834097E+002
+3.22330413016E+007, +9.93786776533E+000, +4.49926332005E+002
+3.23580725907E+007, +9.73933123808E+000, +4.52004590705E+002
+3.24831038798E+007, +1.07649859509E+001, +4.55192077490E+002
+3.26081351690E+007, +1.00404129872E+001, +4.56049289078E+002
+3.27331664581E+007, +9.95122821653E+000, +4.57817209284E+002
+3.28581977472E+007, +1.04043255279E+001, +4.60172334019E+002
+3.29832290363E+007, +8.95361896497E+000, +4.62244342175E+002
+3.31082603254E+007, +1.10050634342E+001, +4.64253256700E+002
+3.32332916145E+007, +9.84396433681E+000, +4.66271386571E+002
+3.33583229036E+007, +9.28881303517E+000, +4.69069174718E+002
+3.34833541927E+007, +1.05273377343E+001, +4.70170384832E+002
+3.36083854819E+007, +9.85112834742E+000, +4.73036254460E+002
+3.37334167710E+007, +9.82708116577E+000, +4.73338153058E+002
+3.38584480601E+007, +9.44099979303E+000, +4.76368994658E+002
+3.39834793492E+007, +1.01417686070E+001, +4.77731797334E+002
+3.41085106383E+007, +1.10959359529E+001, +4.81692384348E+002
+3.42335419274E+007, +1.04976950035E+001, +4.82938012484E+002
+3.43585732165E+007, +9.90314803301E+000, +4.84349039466E+002
+3.44836045056E+007, +1.01349812246E+001, +4.86219723994E+002
+3.46086357947E+007, +1.08182302822E+001, +4.89652675385E+002
+3.47336670839E+007, +9.64516412263E+000, +4.91055902232E+002
+3.48586983730E+007, +1.01005152057E+001, +4.92380551774E+002
+3.49837296621E+007, +1.07619023018E+001, +4.94245386376E+002
+3.51087609512E+007, +8.33112135011E+000, +4.96821635223E+002
+3.52337922403E+007, +1.15720809199E+001, +4.99613425280E+002
+3.53588235294E+007, +1.06393760851E+001, +5.02221619459E+002
+3.54838548185E+007, +1.16134192385E+001, +5.03328803931E+002
+3.56088861076E+007, +1.14413915223E+001, +5.05863416011E+002
+3.57339173967E+007, +1.04944003598E+001, +5.08462610046E+002
+3.58589486859E+007, +1.08269895413E+001, +5.09787621591E+002
+3.59839799750E+007, +1.06665714115E+001, +5.12739849408E+002
+3.61090112641E+007, +9.61324606602E+000, +5.13824471369E+002
+3.62340425532E+007, +1.00590959532E+001, +5.15819860265E+002
+3.63590738423E+007, +1.16782056069E+001, +5.19711382611E+002
+3.64841051314E+007, +8.93676946779E+000, +5.20795883870E+002
+3.66091364205E+007, +1.08771679013E+001, +5.22027891702E+002
+3.67341677096E+007, +1.11011058223E+001, +5.24875998603E+002
+3.68591989987E+007, +1.01126546354E+001, +5.28576016736E+002
+3.69842302879E+007, +9.97657925778E+000, +5.30435764534E+002
+3.71092615770E+007, +9.88578699910E+000, +5.32654997487E+002
+3.72342928661E+007, +9.84976954521E+000, +5.34610952461E+002
+3.73593241552E+007, +9.15599252419E+000, +5.36444187752E+002
+3.74843554443E+007, +1.15008844253E+001, +5.39359187565E+002
+3.76093867334E+007, +9.82443277738E+000, +5.40156305094E+002
+3.77344180225E+007, +1.18686112721E+001, +5.42689220762E+002
+3.78594493116E+007, +1.11169750318E+001, +5.45430818397E+002
+3.79844806008E+007, +9.85409274942E+000, +5.46598188487E+002
+3.81095118899E+007, +9.48120697177E+000, +5.49545698898E+002
+3.82345431790E+007, +1.19890091701E+001, +5.51721673707E+002
+3.83595744681E+007, +1.10089986968E+001, +5.54500885761E+002
+3.84846057572E+007, +1.10798825930E+001, +5.56379140059E+002
+3.86096370463E+007, +9.11059526677E+000, +5.60666951578E+002
+3.87346683354E+007, +1.08588204939E+001, +5.60103339740E+002
+3.88596996245E+007, +1.08995658438E+001, +5.65002746301E+002
+3.89847309136E+007, +1.12273207865E+001, +5.67177486925E+002
+3.91097622028E+007, +1.10838365501E+001, +5.68417823281E+002
+3.92347934919E+007, +1.29050411623E+001, +5.71815951221E+002
+3.93598247810E+007, +1.02032346120E+001, +5.74052540265E+002
+3.94848560701E+007, +1.21045499520E+001, +5.75156630327E+002
+3.96098873592E+007, +1.06626205200E+001, +5.78833902388E+002
+3.97349186483E+007, +1.06729422636E+001, +5.80571347681E+002
+3.98599499374E+007, +1.01941229720E+001, +5.83216353287E+002
+3.99849812265E+007, +1.12072135770E+001, +5.85186912731E+002
+4.01100125156E+007, +1.11830856121E+001, +5.88141860286E+002
