"# Channel 1"
"# Trace 1"
Frequency, Formatted Data, Formatted Data
+1.00000000000E+006, +5.39608598717E+000, +1.27284464360E+001
+1.16527545910E+006, +5.41444803007E+000, +1.48489212300E+001
+1.33055091820E+006, +5.46220522785E+000, +1.68613198824E+001
+1.49582637730E+006, +5.43039786629E+000, +1.89811567929E+001
+1.66110183639E+006, +5.45886789167E+000, +2.10800427015E+001
+1.82637729549E+006, +5.47090527109E+000, +2.31115588400E+001
+1.99165275459E+006, +5.48417822853E+000, +2.52341326629E+001
+2.15692821369E+006, +5.48905150658E+000, +2.73188610668E+001
+2.32220367279E+006, +5.45839649562E+000, +2.93967882695E+001
+2.48747913189E+006, +5.47261483138E+000, +3.14839634576E+001
+2.65275459098E+006, +5.45764913329E+000, +3.35855461917E+001
+2.81803005008E+006, +5.43262819998E+000, +3.56681016995E+001
+2.98330550918E+006, +5.43287421007E+000, +3.76958518153E+001
+3.14858096828E+006, +5.50835044123E+000, +3.98127292699E+001
+3.31385642738E+006, +5.57502943065E+000, +4.19258762797E+001
+3.47913188648E+006, +5.45033596933E+000, +4.40465084659E+001
+3.64440734558E+006, +5.49872243006E+000, +4.60887596719E+001
+3.80968280467E+006, +5.60750938465E+000, +4.81814260534E+001
+3.97495826377E+006, +5.61940385730E+000, +5.02759409350E+001
+4.14023372287E+006, +5.63565584295E+000, +5.25077061194E+001
+4.30550918197E+006, +5.64487706246E+000, +5.43396354667E+001
+4.47078464107E+006, +5.60003310559E+000, +5.65490478294E+001
+4.63606010017E+006, +5.59284629817E+000, +5.86082851849E+001
+4.80133555927E+006, +5.54014664181E+000, +6.07314471667E+001
+4.96661101836E+006, +5.64603225390E+000, +6.28414753561E+001
+5.13188647746E+006, +5.65605886371E+000, +6.49039912680E+001
+5.29716193656E+006, +5.59415947125E+000, +6.69364330220E+001
+5.46243739566E+006, +5.71974144153E+000, +6.91104738403E+001
+5.62771285476E+006, +5.79047607168E+000, +7.12216213345E+001
+5.79298831386E+006, +5.85162082340E+000, +7.33740023900E+001
+5.95826377295E+006, +5.79112045188E+000, +7.54370895338E+001
+6.12353923205E+006, +5.95473795245E+000, +7.74425910809E+001
+6.28881469115E+006, +5.86118143134E+000, +7.96047323915E+001
+6.45409015025E+006, +5.98298797253E+000, +8.16864841339E+001
+6.61936560935E+006, +5.90072853463E+000, +8.37843553050E+001
+6.78464106845E+006, +5.98151041376E+000, +8.59061108029E+001
+6.94991652755E+006, +6.02057038072E+000, +8.79997230918E+001
+7.11519198664E+006, +6.06968801087E+000, +9.01115694524E+001
+7.28046744574E+006, +6.08563427078E+000, +9.21895642666E+001
+7.44574290484E+006, +6.11066978620E+000, +9.42587032972E+001
+7.61101836394E+006, +6.13632550276E+000, +9.64023859751E+001
+7.77629382304E+006, +6.24269686030E+000, +9.84206784332E+001
+7.94156928214E+006, +6.10885212045E+000, +1.00539360429E+002
+8.10684474124E+006, +6.16585256775E+000, +1.02510108536E+002
+8.27212020033E+006, +6.26743053084E+000, +1.04698214926E+002
+8.43739565943E+006, +6.22525072713E+000, +1.06864388987E+002
+8.60267111853E+006, +6.19232513760E+000, +1.08866478455E+002
+8.76794657763E+006, +6.31491730667E+000, +1.10978283417E+002
+8.93322203673E+006, +6.26327051759E+000, +1.13211779139E+002
+9.09849749583E+006, +6.30559436740E+000, +1.15112008911E+002
+9.26377295492E+006, +6.24631261549E+000, +1.17461788466E+002
+9.42904841402E+006, +6.35727009850E+000, +1.19385197414E+002
+9.59432387312E+006, +6.36042362006E+000, +1.21568777367E+002
+9.75959933222E+006, +6.25265980343E+000, +1.23612762877E+002
+9.92487479132E+006, +6.38204357427E+000, +1.25633192191E+002
+1.00901502504E+007, +6.38480739044E+000, +1.27805511025E+002
+1.02554257095E+007, +6.42221427819E+000, +1.29785078870E+002
+1.04207011686E+007, +6.44781355828E+000, +1.31909134980E+002
+1.05859766277E+007, +6.38383229968E+000, +1.34197544821E+002
+1.07512520868E+007, +6.46558508677E+000, +1.36229589176E+002
+1.09165275459E+007, +6.42862289477E+000, +1.38307426274E+002
+1.10818030050E+007, +6.50399419506E+000, +1.40483950039E+002
+1.12470784641E+007, +6.45429313052E+000, +1.42490089352E+002
+1.14123539232E+007, +6.57252324788E+000, +1.44651035363E+002
+1.15776293823E+007, +6.57780169880E+000, +1.46847810377E+002
+1.17429048414E+007, +6.45176784379E+000, +1.48985608761E+002
+1.19081803005E+007, +6.70882248238E+000, +1.51079255204E+002
+1.20734557596E+007, +6.64941541059E+000, +1.53236406977E+002
+1.22387312187E+007, +6.56993381719E+000, +1.55271868487E+002
+1.24040066778E+007, +6.79256161856E+000, +1.57336805192E+002
+1.25692821369E+007, +6.64063423612E+000, +1.59502175195E+002
+1.27345575960E+007, +6.77201852676E+000, +1.61492127490E+002
+1.28998330551E+007, +6.70008520688E+000, +1.63732171462E+002
+1.30651085142E+007, +6.52896174937E+000, +1.65780434145E+002
+1.32303839733E+007, +6.89807762557E+000, +1.68111108131E+002
+1.33956594324E+007, +6.67296912754E+000, +1.70294061566E+002
+1.35609348915E+007, +6.82505498252E+000, +1.72371470386E+002
+1.37262103506E+007, +6.73509972329E+000, +1.74239505940E+002
+1.38914858097E+007, +7.07542658120E+000, +1.76418901715E+002
+1.40567612688E+007, +6.95032844034E+000, +1.78556779123E+002
+1.42220367279E+007, +6.96765252926E+000, +1.80916386853E+002
+1.43873121870E+007, +6.92389091606E+000, +1.83098853711E+002
+1.45525876461E+007, +6.83435442060E+000, +1.84996948288E+002
+1.47178631052E+007, +6.97482075471E+000, +1.87429958871E+002
+1.48831385643E+007, +7.13478593950E+000, +1.89304050269E+002
+1.50484140234E+007, +7.02304717412E+000, +1.91361836632E+002
+1.52136894825E+007, +6.83291872759E+000, +1.93690886895E+002
+1.53789649416E+007, +7.12187047028E+000, +1.95850154441E+002
+1.55442404007E+007, +7.13039657630E+000, +1.98018417349E+002
+1.57095158598E+007, +6.95923413430E+000, +2.00113451675E+002
+1.58747913189E+007, +7.34511508153E+000, +2.02389989169E+002
+1.60400667780E+007, +7.18777566262E+000, +2.04384754017E+002
+1.62053422371E+007, +7.15381255353E+000, +2.06664132382E+002
+1.63706176962E+007, +7.19748376710E+000, +2.08494304452E+002
+1.65358931553E+007, +7.17222183025E+000, +2.10827950988E+002
+1.67011686144E+007, +7.57290617969E+000, +2.13030036205E+002
+1.68664440735E+007, +7.37152315831E+000, +2.15103861394E+002
+1.70317195326E+007, +6.90599754540E+000, +2.17661738911E+002
+1.71969949917E+007, +7.00875646359E+000, +2.19748328699E+002
+1.73622704508E+007, +7.21308296940E+000, +2.21844049995E+002
+1.75275459098E+007, +6.88531596117E+000, +2.23796614080E+002
+1.76928213689E+007, +7.13987367110E+000, +2.26241157217E+002
+1.78580968280E+007, +7.21893029243E+000, +2.28398969550E+002
+1.80233722871E+007, +7.33615422016E+000, +2.30454905882E+002
+1.81886477462E+007, +7.48433575892E+000, +2.32745203133E+002
+1.83539232053E+007, +7.77830113298E+000, +2.34902122912E+002
+1.85191986644E+007, +7.47646368426E+000, +2.37253445329E+002
+1.86844741235E+007, +7.66929242791E+000, +2.39019477063E+002
+1.88497495826E+007, +7.68277295464E+000, +2.41309723143E+002
+1.90150250417E+007, +7.45453774887E+000, +2.43693271236E+002
+1.91803005008E+007, +7.56655208886E+000, +2.45799551174E+002
+1.93455759599E+007, +7.84781746408E+000, +2.47861102152E+002
+1.95108514190E+007, +8.04002152417E+000, +2.50304105565E+002
+1.96761268781E+007, +8.14881686889E+000, +2.52505888128E+002
+1.98414023372E+007, +7.88084821505E+000, +2.54655875290E+002
+2.00066777963E+007, +7.78823273945E+000, +2.56676279206E+002
+2.01719532554E+007, +7.77632474346E+000, +2.59041904116E+002
+2.03372287145E+007, +8.29596954839E+000, +2.61516769124E+002
+2.05025041736E+007, +8.10771105911E+000, +2.63743005091E+002
+2.06677796327E+007, +8.32553430433E+000, +2.65954886434E+002
+2.08330550918E+007, +7.88005758464E+000, +2.67983231270E+002
+2.09983305509E+007, +8.21787572670E+000, +2.70252701227E+002
+2.11636060100E+007, +8.07543495898E+000, +2.72633537066E+002
+2.13288814691E+007, +7.96239634231E+000, +2.74623209207E+002
+2.14941569282E+007, +8.09921078453E+000, +2.76768680468E+002
+2.16594323873E+007, +8.38132723555E+000, +2.79212432452E+002
+2.18247078464E+007, +8.25832446030E+000, +2.81451115616E+002
+2.19899833055E+007, +8.09543300381E+000, +2.83588766827E+002
+2.21552587646E+007, +8.10932477243E+000, +2.85484869100E+002
+2.23205342237E+007, +8.73147736190E+000, +2.87875183765E+002
+2.24858096828E+007, +8.27163602624E+000, +2.90151097728E+002
+2.26510851419E+007, +8.81443133395E+000, +2.92336428913E+002
+2.28163606010E+007, +8.88852395553E+000, +2.94769530055E+002
+2.29816360601E+007, +8.52511123199E+000, +2.97372580252E+002
+2.31469115192E+007, +9.34998264200E+000, +2.99201608997E+002
+2.33121869783E+007, +9.31109505991E+000, +3.02147622309E+002
+2.34774624374E+007, +9.38732439056E+000, +3.03818753614E+002
+2.36427378965E+007, +9.32710657184E+000, +3.06568578799E+002
+2.38080133556E+007, +9.67410076385E+000, +3.08426610038E+002
+2.39732888147E+007, +9.78713267475E+000, +3.11095535994E+002
+2.41385642738E+007, +9.60329159567E+000, +3.13106729897E+002
+2.43038397329E+007, +9.12619201290E+000, +3.15325213833E+002
+2.44691151920E+007, +9.88462776061E+000, +3.17599509493E+002
+2.46343906511E+007, +9.26941525318E+000, +3.19873336716E+002
+2.47996661102E+007, +9.17488640044E+000, +3.22088229463E+002
+2.49649415693E+007, +9.43830171338E+000, +3.24896685273E+002
+2.51302170284E+007, +9.96535128009E+000, +3.26553754826E+002
+2.52954924875E+007, +9.99126446900E+000, +3.28931939603E+002
+2.54607679466E+007, +9.90969402975E+000, +3.30682442077E+002
+2.56260434057E+007, +1.03873659700E+001, +3.33191895862E+002
+2.57913188648E+007, +9.72071574663E+000, +3.35670785611E+002
+2.59565943239E+007, +1.02048163528E+001, +3.37782985064E+002
+2.61218697830E+007, +1.05881002835E+001, +3.40757957981E+002
+2.62871452421E+007, +1.10059966301E+001, +3.42945022774E+002
+2.64524207012E+007, +1.06069768697E+001, +3.45181757792E+002
+2.66176961603E+007, +1.07832070332E+001, +3.47738109139E+002
+2.67829716194E+007, +1.04465692630E+001, +3.49375989642E+002
+2.69482470785E+007, +1.03467825505E+001, +3.52654447763E+002
+2.71135225376E+007, +1.05797348981E+001, +3.54681696766E+002
+2.72787979967E+007, +1.14391522569E+001, +3.57239272865E+002
+2.74440734558E+007, +1.11020242072E+001, +3.59227524264E+002
+2.76093489149E+007, +1.13203995505E+001, +3.60990364899E+002
+2.77746243740E+007, +1.13842535144E+001, +3.63818992712E+002
+2.79398998331E+007, +1.10113475924E+001, +3.66423488392E+002
+2.81051752922E+007, +1.16046094291E+001, +3.68124445697E+002
+2.82704507513E+007, +1.11074351109E+001, +3.71248848360E+002
+2.84357262104E+007, +1.14251733284E+001, +3.73090056047E+002
+2.86010016694E+007, +1.16057178817E+001, +3.76148173642E+002
+2.87662771285E+007, +1.18764087269E+001, +3.78458834868E+002
+2.89315525876E+007, +1.14140935170E+001, +3.80645754624E+002
+2.90968280467E+007, +1.17856582544E+001, +3.82526862303E+002
+2.92621035058E+007, +1.14596473394E+001, +3.85279230070E+002
+2.94273789649E+007, +1.24784872143E+001, +3.87333992818E+002
+2.95926544240E+007, +1.13563317003E+001, +3.89142573540E+002
+2.97579298831E+007, +1.21837923060E+001, +3.92540933727E+002
+2.99232053422E+007, +1.18627417113E+001, +3.95008535111E+002
+3.00884808013E+007, +1.21122627522E+001, +3.97126934473E+002
+3.02537562604E+007, +1.21657359046E+001, +3.99131962219E+002
+3.04190317195E+007, +1.24979252872E+001, +4.01729024132E+002
+3.05843071786E+007, +1.21684935545E+001, +4.03603335136E+002
+3.07495826377E+007, +1.19515437440E+001, +4.06000276663E+002
+3.09148580968E+007, +1.21616579269E+001, +4.08784817573E+002
+3.10801335559E+007, +1.30373923369E+001, +4.11268251803E+002
+3.12454090150E+007, +1.27884413829E+001, +4.13473208226E+002
+3.14106844741E+007, +1.26514013420E+001, +4.15535859469E+002
+3.15759599332E+007, +1.26131436335E+001, +4.18938359610E+002
+3.17412353923E+007, +1.26184760632E+001, +4.21998342867E+002
+3.19065108514E+007, +1.32462357110E+001, +4.23904270956E+002
+3.20717863105E+007, +1.17178517523E+001, +4.25913984256E+002
+3.22370617696E+007, +1.23273603157E+001, +4.27258531768E+002
+3.24023372287E+007, +1.21183073833E+001, +4.31099996962E+002
+3.25676126878E+007, +1.31175991966E+001, +4.33897142803E+002
+3.27328881469E+007, +1.27614763170E+001, +4.35071419020E+002
+3.28981636060E+007, +1.26324414931E+001, +4.37872848081E+002
+3.30634390651E+007, +1.23834000178E+001, +4.41257557522E+002
+3.32287145242E+007, +1.21197406456E+001, +4.44499445129E+002
+3.33939899833E+007, +1.28046325937E+001, +4.46065756130E+002
+3.35592654424E+007, +1.31070603869E+001, +4.48433963387E+002
+3.37245409015E+007, +1.28068262410E+001, +4.51366096802E+002
+3.38898163606E+007, +1.25574964013E+001, +4.53374117437E+002
+3.40550918197E+007, +1.25248587291E+001, +4.56389211189E+002
+3.42203672788E+007, +1.33148637001E+001, +4.58860885806E+002
+3.43856427379E+007, +1.34023213901E+001, +4.61565978672E+002
+3.45509181970E+007, +1.39612012462E+001, +4.64008897122E+002
+3.47161936561E+007, +1.31657400413E+001, +4.65978586972E+002
+3.48814691152E+007, +1.41217535418E+001, +4.68663827577E+002
+3.50467445743E+007, +1.47633484319E+001, +4.72120492332E+002
+3.52120200334E+007, +1.42809782062E+001, +4.73668969275E+002
+3.53772954925E+007, +1.27242700467E+001, +4.77079866279E+002
+3.55425709516E+007, +1.36359939080E+001, +4.79956522196E+002
+3.57078464107E+007, +1.43373259129E+001, +4.82452136366E+002
+3.58731218698E+007, +1.48512148628E+001, +4.85128540620E+002
+3.60383973289E+007, +1.35436934329E+001, +4.86887109606E+002
+3.62036727880E+007, +1.44570441519E+001, +4.89576462434E+002
+3.63689482471E+007, +1.39244006701E+001, +4.92568864305E+002
+3.65342237062E+007, +1.33564309680E+001, +4.95427397904E+002
+3.66994991653E+007, +1.31034392535E+001, +4.98446262940E+002
+3.68647746244E+007, +1.48033543816E+001, +5.01037664100E+002
+3.70300500835E+007, +1.39100310351E+001, +5.03390340226E+002
+3.71953255426E+007, +1.41278001369E+001, +5.07246903723E+002
+3.73606010017E+007, +1.38914516493E+001, +5.09755913636E+002
+3.75258764608E+007, +1.42961109967E+001, +5.13905496615E+002
+3.76911519199E+007, +1.35409870033E+001, +5.14369609299E+002
+3.78564273790E+007, +1.40064215684E+001, +5.18502260700E+002
+3.80217028381E+007, +1.47278199434E+001, +5.19386710834E+002
+3.81869782972E+007, +1.40108649370E+001, +5.22900898250E+002
+3.83522537563E+007, +1.38054140602E+001, +5.26169757235E+002
+3.85175292154E+007, +1.33016208743E+001, +5.29092457995E+002
+3.86828046745E+007, +1.40721749988E+001, +5.31663018420E+002
+3.88480801336E+007, +1.51773903265E+001, +5.36302276863E+002
+3.90133555927E+007, +1.44972386344E+001, +5.39383382275E+002
+3.91786310518E+007, +1.36851977427E+001, +5.41362709157E+002
+3.93439065109E+007, +1.41323818459E+001, +5.44640912370E+002
+3.95091819699E+007, +1.55675786521E+001, +5.46293990443E+002
+3.96744574290E+007, +1.48713057014E+001, +5.49066679203E+002
+3.98397328881E+007, +1.38317945005E+001, +5.51998481102E+002
+4.00050083472E+007, +1.32805513912E+001, +5.57391741698E+002
+4.01702838063E+007, +1.34387960919E+001, +5.59897309448E+002
+4.03355592654E+007, +1.47865748677E+001, +5.61766499440E+002
+4.05008347245E+007, +1.40442478761E+001, +5.66282856547E+002
+4.06661101836E+007, +1.41418702158E+001, +5.67222437888E+002
+4.08313856427E+007, +1.35461870799E+001, +5.71545439925E+002
+4.09966611018E+007, +1.43177702161E+001, +5.74275755557E+002
+4.11619365609E+007, +1.46333078925E+001, +5.77996662676E+002
+4.13272120200E+007, +1.57538526530E+001, +5.81264893399E+002
+4.14924874791E+007, +1.59872559967E+001, +5.82218317834E+002
+4.16577629382E+007, +1.52301486159E+001, +5.86860130887E+002
+4.18230383973E+007, +1.65152118639E+001, +5.89218688845E+002
+4.19883138564E+007, +1.57198657220E+001, +5.92831795179E+002
+4.21535893155E+007, +1.47461459083E+001, +5.94383735399E+002
+4.23188647746E+007, +1.60399807704E+001, +5.99138910272E+002
+4.24841402337E+007, +1.46554998054E+001, +6.04227966704E+002
+4.26494156928E+007, +1.38096270278E+001, +6.05293028420E+002
+4.28146911519E+007, +1.72946461809E+001, +6.08894680069E+002
+4.29799666110E+007, +1.57930730349E+001, +6.11893127347E+002
+4.31452420701E+007, +1.54852911008E+001, +6.17013717353E+002
+4.33105175292E+007, +1.71450036071E+001, +6.19308675235E+002
+4.34757929883E+007, +1.44252148075E+001, +6.22559559887E+002
+4.36410684474E+007, +1.42719128394E+001, +6.25966574425E+002
+4.38063439065E+007, +1.57271672049E+001, +6.28427419998E+002
+4.39716193656E+007, +1.69097638506E+001, +6.31808977575E+002
+4.41368948247E+007, +1.52521570198E+001, +6.36382403793E+002
+4.43021702838E+007, +1.59698165001E+001, +6.38802728415E+002
+4.44674457429E+007, +1.68962092204E+001, +6.44497831557E+002
+4.46327212020E+007, +1.65696940406E+001, +6.45960880512E+002
+4.47979966611E+007, +1.78362488814E+001, +6.50020678381E+002
+4.49632721202E+007, +1.79623144542E+001, +6.56053394058E+002
+4.51285475793E+007, +1.67113607018E+001, +6.59490020182E+002
+4.52938230384E+007, +1.76041922103E+001, +6.63575695371E+002
+4.54590984975E+007, +1.53377941317E+001, +6.62346980784E+002
+4.56243739566E+007, +1.73789385451E+001, +6.69837663816E+002
+4.57896494157E+007, +2.06019660034E+001, +6.72518859220E+002
+4.59549248748E+007, +1.82135713844E+001, +6.78846146732E+002
+4.61202003339E+007, +1.73239431688E+001, +6.79638625167E+002
+4.62854757930E+007, +1.96097265025E+001, +6.85462757779E+002
+4.64507512521E+007, +1.82865273152E+001, +6.89352124273E+002
+4.66160267112E+007, +1.90837375763E+001, +6.94342273592E+002
+4.67813021703E+007, +2.07191217712E+001, +6.96192058161E+002
+4.69465776294E+007, +2.15476650451E+001, +6.99968175725E+002
+4.71118530885E+007, +2.18872846594E+001, +7.05533496923E+002
+4.72771285476E+007, +2.17960347653E+001, +7.09162080254E+002
+4.74424040067E+007, +2.09960010139E+001, +7.12710395606E+002
+4.76076794658E+007, +2.20197567948E+001, +7.15485677333E+002
+4.77729549249E+007, +2.35583295687E+001, +7.22138320145E+002
+4.79382303840E+007, +2.55920282861E+001, +7.23658017210E+002
+4.81035058431E+007, +2.45045327398E+001, +7.30415053318E+002
+4.82687813022E+007, +2.59031935550E+001, +7.32559838881E+002
+4.84340567613E+007, +2.65694004930E+001, +7.38630246620E+002
+4.85993322204E+007, +2.74128895490E+001, +7.42613786533E+002
+4.87646076795E+007, +2.73482172957E+001, +7.45974891828E+002
+4.89298831386E+007, +2.83699627721E+001, +7.49640288780E+002
+4.90951585977E+007, +2.75417917245E+001, +7.50119200494E+002
+4.92604340568E+007, +3.00546764841E+001, +7.54626294236E+002
+4.94257095159E+007, +2.99704918235E+001, +7.60819964247E+002
+4.95909849750E+007, +2.97047861701E+001, +7.64285102000E+002
+4.97562604341E+007, +3.40494983691E+001, +7.67396633638E+002
+4.99215358932E+007, +3.14660163549E+001, +7.76383393084E+002
+5.00868113523E+007, +3.04450865243E+001, +7.78456244941E+002
+5.02520868114E+007, +3.47577945446E+001, +7.82931612199E+002
+5.04173622705E+007, +3.20301209350E+001, +7.87379020681E+002
+5.05826377295E+007, +3.23419419855E+001, +7.88707724684E+002
+5.07479131886E+007, +3.38757581878E+001, +7.94044894596E+002
+5.09131886477E+007, +2.95536986762E+001, +7.98834536749E+002
+5.10784641068E+007, +3.67175266929E+001, +8.04264650471E+002
+5.12437395659E+007, +3.39144471432E+001, +8.09930151893E+002
+5.14090150250E+007, +3.57830575400E+001, +8.11511802108E+002
+5.15742904841E+007, +3.61742165996E+001, +8.17864519365E+002
+5.17395659432E+007, +3.60881295931E+001, +8.19616857499E+002
+5.19048414023E+007, +3.75826668217E+001, +8.28041522154E+002
+5.20701168614E+007, +3.61764803645E+001, +8.31969997076E+002
+5.22353923205E+007, +3.56479945340E+001, +8.38841333373E+002
+5.24006677796E+007, +3.59340129013E+001, +8.39872527276E+002
+5.25659432387E+007, +4.04735115926E+001, +8.43772640793E+002
+5.27312186978E+007, +4.03031451233E+001, +8.51939928253E+002
+5.28964941569E+007, +4.07970844887E+001, +8.58265468030E+002
+5.30617696160E+007, +3.92329504297E+001, +8.62650509616E+002
+5.32270450751E+007, +3.90089488701E+001, +8.68289929948E+002
+5.33923205342E+007, +3.82657198755E+001, +8.75008779117E+002
+5.35575959933E+007, +3.85244456358E+001, +8.78761820041E+002
+5.37228714524E+007, +4.30385545897E+001, +8.86722743793E+002
+5.38881469115E+007, +4.24238505806E+001, +8.84466218825E+002
