"# Channel 1"
"# Trace 1"
Frequency, Formatted Data, Formatted Data
+1.00000000000E+005, +4.15927264438E+000, +1.35421067150E+000
+2.25031289111E+005, +4.11950029361E+000, +2.99964354770E+000
+3.50062578223E+005, +4.15181710702E+000, +4.71245274272E+000
+4.75093867334E+005, +4.17869461184E+000, +6.36248264293E+000
+6.00125156446E+005, +4.15738191300E+000, +8.02928229432E+000
+7.25156445557E+005, +4.13855344421E+000, +9.70914133490E+000
+8.50187734668E+005, +4.15399279765E+000, +1.13618990858E+001
+9.75219023780E+005, +4.18289392882E+000, +1.30109243277E+001
+1.10025031289E+006, +4.18668034266E+000, +1.46544057172E+001
+1.22528160200E+006, +4.19008513916E+000, +1.63411740105E+001
+1.35031289111E+006, +4.19234242931E+000, +1.80022960012E+001
+1.47534418023E+006, +4.20107803435E+000, +1.96652528389E+001
+1.60037546934E+006, +4.20678944381E+000, +2.13033116649E+001
+1.72540675845E+006, +4.19088665065E+000, +2.29506205286E+001
+1.85043804756E+006, +4.24077312024E+000, +2.46410852162E+001
+1.97546933667E+006, +4.24781736594E+000, +2.63326705140E+001
+2.10050062578E+006, +4.22852832927E+000, +2.79357151660E+001
+2.22553191489E+006, +4.21608971665E+000, +2.95636097047E+001
+2.35056320401E+006, +4.26268668352E+000, +3.12661931435E+001
+2.47559449312E+006, +4.26313392878E+000, +3.29128516477E+001
+2.60062578223E+006, +4.23791371599E+000, +3.45205193226E+001
+2.72565707134E+006, +4.22274115850E+000, +3.62230423655E+001
+2.85068836045E+006, +4.23867090382E+000, +3.78821645525E+001
+2.97571964956E+006, +4.32168431827E+000, +3.95848260577E+001
+3.10075093867E+006, +4.22411403746E+000, +4.12351203655E+001
+3.22578222778E+006, +4.27556963316E+000, +4.28958290043E+001
+3.35081351690E+006, +4.35440886396E+000, +4.45484488996E+001
+3.47584480601E+006, +4.37798806673E+000, +4.62111577712E+001
+3.60087609512E+006, +4.33011465469E+000, +4.78924159020E+001
+3.72590738423E+006, +4.33457366353E+000, +4.95011079256E+001
+3.85093867334E+006, +4.31141399570E+000, +5.12066751723E+001
+3.97596996245E+006, +4.34921598521E+000, +5.28081589992E+001
+4.10100125156E+006, +4.34431549965E+000, +5.46057456704E+001
+4.22603254068E+006, +4.32752469078E+000, +5.61426610635E+001
+4.35106382979E+006, +4.31666941482E+000, +5.77620435739E+001
+4.47609511890E+006, +4.33537980166E+000, +5.94282421597E+001
+4.60112640801E+006, +4.32721239460E+000, +6.11550896194E+001
+4.72615769712E+006, +4.47735920318E+000, +6.28192606466E+001
+4.85118898623E+006, +4.42158360796E+000, +6.44357958354E+001
+4.97622027534E+006, +4.41438695155E+000, +6.61647069836E+001
+5.10125156446E+006, +4.49532081657E+000, +6.78400767586E+001
+5.22628285357E+006, +4.47139730822E+000, +6.94728486542E+001
+5.35131414268E+006, +4.43185625400E+000, +7.11122857618E+001
+5.47634543179E+006, +4.45099267187E+000, +7.27886851557E+001
+5.60137672090E+006, +4.47693364952E+000, +7.45099713133E+001
+5.72640801001E+006, +4.45783324182E+000, +7.61262243310E+001
+5.85143929912E+006, +4.60574880091E+000, +7.78307257386E+001
+5.97647058824E+006, +4.60468099343E+000, +7.95269895225E+001
+6.10150187735E+006, +4.50928911345E+000, +8.11366192469E+001
+6.22653316646E+006, +4.67515042124E+000, +8.28791474649E+001
+6.35156445557E+006, +4.64574687100E+000, +8.44734023896E+001
+6.47659574468E+006, +4.58829725410E+000, +8.61547467250E+001
+6.60162703379E+006, +4.69888610345E+000, +8.78284779357E+001
+6.72665832290E+006, +4.65140461867E+000, +8.94842087510E+001
+6.85168961202E+006, +4.70812468958E+000, +9.12045437361E+001
+6.97672090113E+006, +4.75127042035E+000, +9.28503246770E+001
+7.10175219024E+006, +4.81017242709E+000, +9.45000943146E+001
+7.22678347935E+006, +4.79383289227E+000, +9.61968905677E+001
+7.35181476846E+006, +4.83135135841E+000, +9.78625986871E+001
+7.47684605757E+006, +4.81670765557E+000, +9.94711283366E+001
+7.60187734668E+006, +4.84456911524E+000, +1.01195169197E+002
+7.72690863579E+006, +4.93110763324E+000, +1.02844835651E+002
+7.85193992491E+006, +4.89669205447E+000, +1.04562556587E+002
+7.97697121402E+006, +4.84417356778E+000, +1.06186062823E+002
+8.10200250313E+006, +4.97079332799E+000, +1.07872512987E+002
+8.22703379224E+006, +4.90253290358E+000, +1.09628221033E+002
+8.35206508135E+006, +5.00560626507E+000, +1.11202873445E+002
+8.47709637046E+006, +4.93469667814E+000, +1.12860881194E+002
+8.60212765957E+006, +5.03107256567E+000, +1.14530811978E+002
+8.72715894869E+006, +5.02096511629E+000, +1.16102884025E+002
+8.85219023780E+006, +4.99270280938E+000, +1.17779000169E+002
+8.97722152691E+006, +5.09815638078E+000, +1.19546863198E+002
+9.10225281602E+006, +5.08558464482E+000, +1.21190462230E+002
+9.22728410513E+006, +5.03899127923E+000, +1.22834985816E+002
+9.35231539424E+006, +5.07538111939E+000, +1.24455477139E+002
+9.47734668335E+006, +5.08434987857E+000, +1.26322790455E+002
+9.60237797247E+006, +5.05544291774E+000, +1.27833760918E+002
+9.72740926158E+006, +5.35511950536E+000, +1.29532242105E+002
+9.85244055069E+006, +5.20169503796E+000, +1.31203921956E+002
+9.97747183980E+006, +5.17576637455E+000, +1.32891925675E+002
+1.01025031289E+007, +5.23140753242E+000, +1.34399538538E+002
+1.02275344180E+007, +5.15944644944E+000, +1.36375761123E+002
+1.03525657071E+007, +5.24260775148E+000, +1.37707192856E+002
+1.04775969962E+007, +5.22747811368E+000, +1.39573642067E+002
+1.06026282854E+007, +5.26479524354E+000, +1.41228358766E+002
+1.07276595745E+007, +5.21098546423E+000, +1.43004221796E+002
+1.08526908636E+007, +5.28132175331E+000, +1.44581056107E+002
+1.09777221527E+007, +5.36507811337E+000, +1.46288239757E+002
+1.11027534418E+007, +5.34827326890E+000, +1.47860025560E+002
+1.12277847309E+007, +5.33019065207E+000, +1.49604701385E+002
+1.13528160200E+007, +5.23716894856E+000, +1.51293754081E+002
+1.14778473091E+007, +5.49642530076E+000, +1.52903320211E+002
+1.16028785982E+007, +5.48240031148E+000, +1.54407991381E+002
+1.17279098874E+007, +5.38472295063E+000, +1.56495679198E+002
+1.18529411765E+007, +5.44102224531E+000, +1.57912445848E+002
+1.19779724656E+007, +5.46165701696E+000, +1.59616114988E+002
+1.21030037547E+007, +5.42041389962E+000, +1.61158541236E+002
+1.22280350438E+007, +5.41971809658E+000, +1.63176078936E+002
+1.23530663329E+007, +5.69919035397E+000, +1.64731230185E+002
+1.24780976220E+007, +5.62682630552E+000, +1.66465138811E+002
+1.26031289111E+007, +5.67243255475E+000, +1.68058821986E+002
+1.27281602003E+007, +5.72765842866E+000, +1.69591271225E+002
+1.28531914894E+007, +5.66203025744E+000, +1.71178601392E+002
+1.29782227785E+007, +5.57617328864E+000, +1.73001427183E+002
+1.31032540676E+007, +5.71399378700E+000, +1.74916614880E+002
+1.32282853567E+007, +5.72856451544E+000, +1.76503810332E+002
+1.33533166458E+007, +5.75531400564E+000, +1.78139225286E+002
+1.34783479349E+007, +5.55737061231E+000, +1.79690776181E+002
+1.36033792240E+007, +5.63152946653E+000, +1.81387081072E+002
+1.37284105131E+007, +5.63249719371E+000, +1.83286179845E+002
+1.38534418023E+007, +5.76156970033E+000, +1.84956360634E+002
+1.39784730914E+007, +5.77283712017E+000, +1.86743574304E+002
+1.41035043805E+007, +5.66032551384E+000, +1.88409056654E+002
+1.42285356696E+007, +5.69385130390E+000, +1.90254155130E+002
+1.43535669587E+007, +5.93861014737E+000, +1.91715717713E+002
+1.44785982478E+007, +6.07168202676E+000, +1.93510867774E+002
+1.46036295369E+007, +5.84212847167E+000, +1.95137199762E+002
+1.47286608260E+007, +5.72989213597E+000, +1.96610458056E+002
+1.48536921151E+007, +6.05070451677E+000, +1.98523003626E+002
+1.49787234043E+007, +5.91569392145E+000, +2.00205353979E+002
+1.51037546934E+007, +6.01989863209E+000, +2.01945696881E+002
+1.52287859825E+007, +6.00184449736E+000, +2.03735267530E+002
+1.53538172716E+007, +5.94259022545E+000, +2.05097019308E+002
+1.54788485607E+007, +6.06765636843E+000, +2.07199998361E+002
+1.56038798498E+007, +5.91555646464E+000, +2.08916166492E+002
+1.57289111389E+007, +6.03735701426E+000, +2.10222035780E+002
+1.58539424280E+007, +6.13018848786E+000, +2.12016451003E+002
+1.59789737171E+007, +6.14973995202E+000, +2.13926652035E+002
+1.61040050063E+007, +6.20562678364E+000, +2.15405697395E+002
+1.62290362954E+007, +6.03724586121E+000, +2.17068369147E+002
+1.63540675845E+007, +6.03969656509E+000, +2.18739438084E+002
+1.64790988736E+007, +6.50136899060E+000, +2.20829864939E+002
+1.66041301627E+007, +6.40550996853E+000, +2.22437141899E+002
+1.67291614518E+007, +6.16725307211E+000, +2.23772760167E+002
+1.68541927409E+007, +6.19719130864E+000, +2.25666250716E+002
+1.69792240300E+007, +6.30384739627E+000, +2.27342841024E+002
+1.71042553191E+007, +5.84836050347E+000, +2.29078118006E+002
+1.72292866083E+007, +5.90932597469E+000, +2.30880827762E+002
+1.73543178974E+007, +6.24292500650E+000, +2.32764328785E+002
+1.74793491865E+007, +6.17101668011E+000, +2.34265730402E+002
+1.76043804756E+007, +6.17459869115E+000, +2.36302180419E+002
+1.77294117647E+007, +6.16800271302E+000, +2.38065070500E+002
+1.78544430538E+007, +6.13034902596E+000, +2.39378704926E+002
+1.79794743429E+007, +6.51412557397E+000, +2.41067185634E+002
+1.81045056320E+007, +6.34343950884E+000, +2.43293622988E+002
+1.82295369212E+007, +6.35406825093E+000, +2.44477942449E+002
+1.83545682103E+007, +6.07849586892E+000, +2.46398354786E+002
+1.84795994994E+007, +6.41497876181E+000, +2.48260440852E+002
+1.86046307885E+007, +6.16593882272E+000, +2.50065169347E+002
+1.87296620776E+007, +6.33795354377E+000, +2.51750778327E+002
+1.88546933667E+007, +6.55702855967E+000, +2.53402071452E+002
+1.89797246558E+007, +6.74096543150E+000, +2.55184199123E+002
+1.91047559449E+007, +6.71689546363E+000, +2.56442509716E+002
+1.92297872340E+007, +6.38132192290E+000, +2.58961253758E+002
+1.93548185232E+007, +6.60076432729E+000, +2.60399009764E+002
+1.94798498123E+007, +6.27493916106E+000, +2.62207871365E+002
+1.96048811014E+007, +7.10681241318E+000, +2.64012516730E+002
+1.97299123905E+007, +6.46708344297E+000, +2.65801198455E+002
+1.98549436796E+007, +6.96491185584E+000, +2.66962084871E+002
+1.99799749687E+007, +6.48256249096E+000, +2.69352452080E+002
+2.01050062578E+007, +6.47475556795E+000, +2.70911217404E+002
+2.02300375469E+007, +6.60212155653E+000, +2.71989223918E+002
+2.03550688360E+007, +6.53030850262E+000, +2.74172159801E+002
+2.04801001252E+007, +6.60305992905E+000, +2.75956559638E+002
+2.06051314143E+007, +6.68788603821E+000, +2.77902778519E+002
+2.07301627034E+007, +6.94621515796E+000, +2.79657662558E+002
+2.08551939925E+007, +6.64795760438E+000, +2.81406897788E+002
+2.09802252816E+007, +6.96170594045E+000, +2.82918348534E+002
+2.11052565707E+007, +6.90560621052E+000, +2.85255702757E+002
+2.12302878598E+007, +6.78029595348E+000, +2.86822958868E+002
+2.13553191489E+007, +6.72603668264E+000, +2.88718592690E+002
+2.14803504380E+007, +6.99790705938E+000, +2.90192066045E+002
+2.16053817272E+007, +6.86509607029E+000, +2.92391540425E+002
+2.17304130163E+007, +6.68921425239E+000, +2.94057134076E+002
+2.18554443054E+007, +6.36855840847E+000, +2.95505421805E+002
+2.19804755945E+007, +6.78805926125E+000, +2.97168537200E+002
+2.21055068836E+007, +7.17604754954E+000, +2.99179500358E+002
+2.22305381727E+007, +6.90507191319E+000, +3.01225606289E+002
+2.23555694618E+007, +7.04301661455E+000, +3.02861775154E+002
+2.24806007509E+007, +7.24770443052E+000, +3.05049153488E+002
+2.26056320401E+007, +7.33302683395E+000, +3.06465564787E+002
+2.27306633292E+007, +6.91141415013E+000, +3.08257209029E+002
+2.28556946183E+007, +7.81568756259E+000, +3.10638020611E+002
+2.29807259074E+007, +7.65355520693E+000, +3.11702509251E+002
+2.31057571965E+007, +7.75388326583E+000, +3.13781315449E+002
+2.32307884856E+007, +7.90921926878E+000, +3.15416762727E+002
+2.33558197747E+007, +7.51922617653E+000, +3.17545794458E+002
+2.34808510638E+007, +8.26045561390E+000, +3.18410462115E+002
+2.36058823529E+007, +8.08574942135E+000, +3.20943608297E+002
+2.37309136421E+007, +7.96473716204E+000, +3.22817562102E+002
+2.38559449312E+007, +7.87499569427E+000, +3.24015117356E+002
+2.39809762203E+007, +7.94317408507E+000, +3.26392962446E+002
+2.41060075094E+007, +7.60327560647E+000, +3.27866258596E+002
+2.42310387985E+007, +7.98983460288E+000, +3.30021974393E+002
+2.43560700876E+007, +8.26536507624E+000, +3.31737455434E+002
+2.44811013767E+007, +7.80403839991E+000, +3.33521103823E+002
+2.46061326658E+007, +8.59529841122E+000, +3.35499450361E+002
+2.47311639549E+007, +8.25208213782E+000, +3.36825343810E+002
+2.48561952441E+007, +7.81264285342E+000, +3.38788040653E+002
+2.49812265332E+007, +7.97065866033E+000, +3.40742532288E+002
+2.51062578223E+007, +8.34056225392E+000, +3.42996962092E+002
+2.52312891114E+007, +8.32783837029E+000, +3.43587700257E+002
+2.53563204005E+007, +8.39293920357E+000, +3.46358719290E+002
+2.54813516896E+007, +8.19073595750E+000, +3.48189701507E+002
+2.56063829787E+007, +8.50082108530E+000, +3.49720524659E+002
+2.57314142678E+007, +8.89927229893E+000, +3.51933384423E+002
+2.58564455569E+007, +9.08407172505E+000, +3.53129268167E+002
+2.59814768461E+007, +8.28186290374E+000, +3.55131189502E+002
+2.61065081352E+007, +9.30653497615E+000, +3.56856122793E+002
+2.62315394243E+007, +8.42103290922E+000, +3.59222288585E+002
+2.63565707134E+007, +9.03544869229E+000, +3.61202121313E+002
+2.64816020025E+007, +8.61323456720E+000, +3.62837295804E+002
+2.66066332916E+007, +8.69189143227E+000, +3.64753538306E+002
+2.67316645807E+007, +9.18303098392E+000, +3.66246285642E+002
+2.68566958698E+007, +8.96123581192E+000, +3.68566002530E+002
+2.69817271589E+007, +9.45845608852E+000, +3.69907724903E+002
+2.71067584481E+007, +9.88349181340E+000, +3.71699887675E+002
+2.72317897372E+007, +9.28528385156E+000, +3.74262375787E+002
+2.73568210263E+007, +9.63781741986E+000, +3.75967962342E+002
+2.74818523154E+007, +9.25721151345E+000, +3.77371035912E+002
+2.76068836045E+007, +9.68560680953E+000, +3.78791881728E+002
+2.77319148936E+007, +9.96574135485E+000, +3.80426914789E+002
+2.78569461827E+007, +9.01898097159E+000, +3.83070500684E+002
+2.79819774718E+007, +9.77147448471E+000, +3.85420258864E+002
+2.81070087610E+007, +9.88776839860E+000, +3.87372863471E+002
+2.82320400501E+007, +9.58159884149E+000, +3.88851629634E+002
+2.83570713392E+007, +9.77220037863E+000, +3.90342935267E+002
+2.84821026283E+007, +1.04534746841E+001, +3.92495050482E+002
+2.86071339174E+007, +9.87200537743E+000, +3.94569327680E+002
+2.87321652065E+007, +1.03288929730E+001, +3.96176146098E+002
+2.88571964956E+007, +9.98719200718E+000, +3.97692684550E+002
+2.89822277847E+007, +9.73841700767E+000, +3.99693679486E+002
+2.91072590738E+007, +1.11883523786E+001, +4.01340203037E+002
+2.92322903630E+007, +9.05557774307E+000, +4.04408444482E+002
+2.93573216521E+007, +1.06308812470E+001, +4.04896972069E+002
+2.94823529412E+007, +9.84598268649E+000, +4.07612058807E+002
+2.96073842303E+007, +9.94393961757E+000, +4.09144986734E+002
+2.97324155194E+007, +1.03594468873E+001, +4.10624446778E+002
+2.98574468085E+007, +1.02860690853E+001, +4.13531389370E+002
+2.99824780976E+007, +1.11272587684E+001, +4.14461889477E+002
+3.01075093867E+007, +1.11613057690E+001, +4.16896111249E+002
+3.02325406758E+007, +1.07243138080E+001, +4.19170836123E+002
+3.03575719650E+007, +9.51490152599E+000, +4.20130694263E+002
+3.04826032541E+007, +1.00319796350E+001, +4.22958627909E+002
+3.06076345432E+007, +1.02409532272E+001, +4.24215168177E+002
+3.07326658323E+007, +9.68691370041E+000, +4.26943120124E+002
+3.08576971214E+007, +9.54327240402E+000, +4.27918301363E+002
+3.09827284105E+007, +1.00542840845E+001, +4.30259934087E+002
+3.11077596996E+007, +9.60013528913E+000, +4.32060093775E+002
+3.12327909887E+007, +1.05931222191E+001, +4.34293230176E+002
+3.13578222778E+007, +9.57078922140E+000, +4.36419180646E+002
+3.14828535670E+007, +9.69934561553E+000, +4.38440481550E+002
+3.16078848561E+007, +1.05597463934E+001, +4.39535008451E+002
+3.17329161452E+007, +1.08045806997E+001, +4.41931477967E+002
+3.18579474343E+007, +1.02647675482E+001, +4.43319084552E+002
+3.19829787234E+007, +9.69368709937E+000, +4.46312148458E+002
+3.21080100125E+007, +1.08376370179E+001, +4.47741883248E+002
+3.22330413016E+007, +1.02831204069E+001, +4.49410509196E+002
+3.23580725907E+007, +1.06527174335E+001, +4.51474518045E+002
+3.24831038798E+007, +1.04846247563E+001, +4.54731279146E+002
+3.26081351690E+007, +1.02504626376E+001, +4.55953617873E+002
+3.27331664581E+007, +1.08400795853E+001, +4.58986862297E+002
+3.28581977472E+007, +1.02711599496E+001, +4.59645195050E+002
+3.29832290363E+007, +9.64475044248E+000, +4.61836038557E+002
+3.31082603254E+007, +1.05937004932E+001, +4.63707612331E+002
+3.32332916145E+007, +1.03291746567E+001, +4.65084106980E+002
+3.33583229036E+007, +1.02423430908E+001, +4.67642929378E+002
+3.34833541927E+007, +1.06702310257E+001, +4.69164437240E+002
+3.36083854819E+007, +1.08642521411E+001, +4.71187039969E+002
+3.37334167710E+007, +1.07368016631E+001, +4.71701961044E+002
+3.38584480601E+007, +9.72003471090E+000, +4.75908320952E+002
+3.39834793492E+007, +1.01774219076E+001, +4.78151402591E+002
+3.41085106383E+007, +1.04789329981E+001, +4.80928213920E+002
+3.42335419274E+007, +1.14027184005E+001, +4.82460173201E+002
+3.43585732165E+007, +1.00996441772E+001, +4.84747540811E+002
+3.44836045056E+007, +1.08706653762E+001, +4.86405427752E+002
+3.46086357947E+007, +1.03867179376E+001, +4.88554275901E+002
+3.47336670839E+007, +8.80858921644E+000, +4.90050025063E+002
+3.48586983730E+007, +1.07331807632E+001, +4.92650106023E+002
+3.49837296621E+007, +1.08177038350E+001, +4.93379392341E+002
+3.51087609512E+007, +8.34197728589E+000, +4.96442714823E+002
+3.52337922403E+007, +1.08541131343E+001, +4.98229957710E+002
+3.53588235294E+007, +1.07238854389E+001, +5.00490956817E+002
+3.54838548185E+007, +1.05876246447E+001, +5.03152141817E+002
+3.56088861076E+007, +1.17702945391E+001, +5.04013758069E+002
+3.57339173967E+007, +1.13572113792E+001, +5.08078666141E+002
+3.58589486859E+007, +1.10264052306E+001, +5.09840452722E+002
+3.59839799750E+007, +1.06474251113E+001, +5.11491920352E+002
+3.61090112641E+007, +9.74811068055E+000, +5.13514460693E+002
+3.62340425532E+007, +1.00898416139E+001, +5.16339454193E+002
+3.63590738423E+007, +1.07648412772E+001, +5.17640795631E+002
+3.64841051314E+007, +1.06610559988E+001, +5.19313636856E+002
+3.66091364205E+007, +1.09864624330E+001, +5.21762902444E+002
+3.67341677096E+007, +1.15786520760E+001, +5.24421515025E+002
+3.68591989987E+007, +9.86690239218E+000, +5.27515851181E+002
+3.69842302879E+007, +1.08042126508E+001, +5.28873774042E+002
+3.71092615770E+007, +1.06789991854E+001, +5.30789139517E+002
+3.72342928661E+007, +1.05703195333E+001, +5.33917495528E+002
+3.73593241552E+007, +9.98074805878E+000, +5.35333619451E+002
+3.74843554443E+007, +1.10673719799E+001, +5.38264176713E+002
+3.76093867334E+007, +9.86371985059E+000, +5.41167020610E+002
+3.77344180225E+007, +1.03130892107E+001, +5.43739947709E+002
+3.78594493116E+007, +1.02080263295E+001, +5.44552649753E+002
+3.79844806008E+007, +1.11302383816E+001, +5.46707252089E+002
+3.81095118899E+007, +9.69429500023E+000, +5.48774223312E+002
+3.82345431790E+007, +1.11111118043E+001, +5.51207783366E+002
+3.83595744681E+007, +1.17776388035E+001, +5.52486669982E+002
+3.84846057572E+007, +1.11425718743E+001, +5.56302972932E+002
+3.86096370463E+007, +1.08610636213E+001, +5.57892873199E+002
+3.87346683354E+007, +1.13369640311E+001, +5.59433188214E+002
+3.88596996245E+007, +1.19747249665E+001, +5.63423123890E+002
+3.89847309136E+007, +1.17574760801E+001, +5.65389451915E+002
+3.91097622028E+007, +1.05582878109E+001, +5.68640326375E+002
+3.92347934919E+007, +1.28731665911E+001, +5.71346631959E+002
+3.93598247810E+007, +1.11401060527E+001, +5.74300287458E+002
+3.94848560701E+007, +1.11853294146E+001, +5.74639117859E+002
+3.96098873592E+007, +1.16107700058E+001, +5.77691667918E+002
+3.97349186483E+007, +1.11809749956E+001, +5.79089618505E+002
+3.98599499374E+007, +9.91790486869E+000, +5.84393964632E+002
+3.99849812265E+007, +1.17586406411E+001, +5.84467134665E+002
+4.01100125156E+007, +1.16486096624E+001, +5.85929737020E+002
