"# Channel 1"
"# Trace 1"
Frequency, Formatted Data, Formatted Data
+1.00000000000E+005, +5.01654472709E+001, +1.86794598641E+000
+3.18898623279E+005, +5.02151860133E+001, +4.38553027852E+000
+5.37797246558E+005, +5.02984681590E+001, +7.40209019229E+000
+7.56695869837E+005, +5.03199442511E+001, +1.04205517020E+001
+9.75594493116E+005, +5.04027692990E+001, +1.34288655705E+001
+1.19449311640E+006, +5.03487420315E+001, +1.63095617410E+001
+1.41339173967E+006, +5.02946491331E+001, +1.92789259294E+001
+1.63229036295E+006, +5.04376974747E+001, +2.22621357003E+001
+1.85118898623E+006, +5.04409575036E+001, +2.53464902485E+001
+2.07008760951E+006, +5.04361122157E+001, +2.83158255434E+001
+2.28898623279E+006, +5.05920484121E+001, +3.14174520891E+001
+2.50788485607E+006, +5.05616892335E+001, +3.42084393542E+001
+2.72678347935E+006, +5.03954204868E+001, +3.73184256296E+001
+2.94568210263E+006, +5.05145955404E+001, +4.01540650055E+001
+3.16458072591E+006, +5.04751103577E+001, +4.33723768665E+001
+3.38347934919E+006, +5.06258676829E+001, +4.63246003956E+001
+3.60237797247E+006, +5.06374683936E+001, +4.91749208480E+001
+3.82127659574E+006, +5.06276951312E+001, +5.19675808944E+001
+4.04017521902E+006, +5.08432893298E+001, +5.51833069729E+001
+4.25907384230E+006, +5.07651354655E+001, +5.80835747342E+001
+4.47797246558E+006, +5.08430052315E+001, +6.11310604244E+001
+4.69687108886E+006, +5.06071543338E+001, +6.42260469799E+001
+4.91576971214E+006, +5.07383852526E+001, +6.71130131236E+001
+5.13466833542E+006, +5.08500760907E+001, +7.00636374167E+001
+5.35356695870E+006, +5.09844433303E+001, +7.31057181647E+001
+5.57246558198E+006, +5.08412619948E+001, +7.58464156007E+001
+5.79136420526E+006, +5.11785404418E+001, +7.92536025980E+001
+6.01026282854E+006, +5.11674833865E+001, +8.20038731979E+001
+6.22916145181E+006, +5.12013341779E+001, +8.51786363732E+001
+6.44806007509E+006, +5.12095041301E+001, +8.79956592090E+001
+6.66695869837E+006, +5.13362364326E+001, +9.10033263929E+001
+6.88585732165E+006, +5.12613691329E+001, +9.41140065599E+001
+7.10475594493E+006, +5.14006361568E+001, +9.70918894977E+001
+7.32365456821E+006, +5.14594020476E+001, +1.00079331612E+002
+7.54255319149E+006, +5.13660140297E+001, +1.02904840250E+002
+7.76145181477E+006, +5.16339868916E+001, +1.06102454899E+002
+7.98035043805E+006, +5.17241559500E+001, +1.09051335422E+002
+8.19924906133E+006, +5.16502895249E+001, +1.12081175115E+002
+8.41814768461E+006, +5.18890257830E+001, +1.15087624164E+002
+8.63704630788E+006, +5.18193719134E+001, +1.18094711864E+002
+8.85594493116E+006, +5.19040934225E+001, +1.21069761665E+002
+9.07484355444E+006, +5.18532635217E+001, +1.24275436078E+002
+9.29374217772E+006, +5.19867851965E+001, +1.27284645921E+002
+9.51264080100E+006, +5.21482876456E+001, +1.30319250849E+002
+9.73153942428E+006, +5.21146119283E+001, +1.33456538197E+002
+9.95043804756E+006, +5.19527102330E+001, +1.36278432573E+002
+1.01693366708E+007, +5.21082338270E+001, +1.39463121185E+002
+1.03882352941E+007, +5.23896703285E+001, +1.42385422179E+002
+1.06071339174E+007, +5.22404503846E+001, +1.45496257892E+002
+1.08260325407E+007, +5.23468940063E+001, +1.48545211838E+002
+1.10449311640E+007, +5.24417612273E+001, +1.51680256060E+002
+1.12638297872E+007, +5.24709394239E+001, +1.54896200518E+002
+1.14827284105E+007, +5.27623528509E+001, +1.57696069284E+002
+1.17016270338E+007, +5.26627607682E+001, +1.60913434191E+002
+1.19205256571E+007, +5.27523517773E+001, +1.63873618957E+002
+1.21394242804E+007, +5.28881228350E+001, +1.67036912789E+002
+1.23583229036E+007, +5.30127681719E+001, +1.70154887933E+002
+1.25772215269E+007, +5.28741219570E+001, +1.73345171998E+002
+1.27961201502E+007, +5.29424370853E+001, +1.76141187138E+002
+1.30150187735E+007, +5.31603895469E+001, +1.79405678893E+002
+1.32339173967E+007, +5.31983588421E+001, +1.82749561378E+002
+1.34528160200E+007, +5.32204268996E+001, +1.85744947373E+002
+1.36717146433E+007, +5.33806563564E+001, +1.88745663117E+002
+1.38906132666E+007, +5.34295891158E+001, +1.92023817787E+002
+1.41095118899E+007, +5.36133140052E+001, +1.95488771129E+002
+1.43284105131E+007, +5.34501138764E+001, +1.98350038589E+002
+1.45473091364E+007, +5.38471867150E+001, +2.01593357182E+002
+1.47662077597E+007, +5.38763452343E+001, +2.04410746293E+002
+1.49851063830E+007, +5.41271013901E+001, +2.07725227703E+002
+1.52040050063E+007, +5.39665370548E+001, +2.11311121725E+002
+1.54229036295E+007, +5.41387215494E+001, +2.14217923429E+002
+1.56418022528E+007, +5.37403527103E+001, +2.17524892431E+002
+1.58607008761E+007, +5.41989179967E+001, +2.20432559373E+002
+1.60795994994E+007, +5.41210876594E+001, +2.24008499895E+002
+1.62984981227E+007, +5.44704541997E+001, +2.27130798418E+002
+1.65173967459E+007, +5.46059818140E+001, +2.30443082771E+002
+1.67362953692E+007, +5.42782983954E+001, +2.33698919447E+002
+1.69551939925E+007, +5.46586227036E+001, +2.36413997864E+002
+1.71740926158E+007, +5.41602939587E+001, +2.40504353553E+002
+1.73929912390E+007, +5.44609671113E+001, +2.43395486032E+002
+1.76118898623E+007, +5.48027462396E+001, +2.46219923204E+002
+1.78307884856E+007, +5.50136872010E+001, +2.49602428693E+002
+1.80496871089E+007, +5.52080011670E+001, +2.53172849246E+002
+1.82685857322E+007, +5.49743628357E+001, +2.56676012170E+002
+1.84874843554E+007, +5.54333894828E+001, +2.59485240855E+002
+1.87063829787E+007, +5.52723758927E+001, +2.62828515787E+002
+1.89252816020E+007, +5.56200190907E+001, +2.66331012577E+002
+1.91441802253E+007, +5.56865675229E+001, +2.69339968918E+002
+1.93630788486E+007, +5.52176244809E+001, +2.72921273715E+002
+1.95819774718E+007, +5.65187974327E+001, +2.76411394447E+002
+1.98008760951E+007, +5.60152032805E+001, +2.79751973237E+002
+2.00197747184E+007, +5.59300438830E+001, +2.83154032561E+002
+2.02386733417E+007, +5.61569924931E+001, +2.85999721362E+002
+2.04575719650E+007, +5.60447382979E+001, +2.89930506725E+002
+2.06764705882E+007, +5.63034939084E+001, +2.92920119347E+002
+2.08953692115E+007, +5.67143883486E+001, +2.96700797846E+002
+2.11142678348E+007, +5.69136225309E+001, +2.99686881276E+002
+2.13331664581E+007, +5.71630480317E+001, +3.03837713676E+002
+2.15520650814E+007, +5.68412625693E+001, +3.06198349341E+002
+2.17709637046E+007, +5.73946208622E+001, +3.09890840038E+002
+2.19898623279E+007, +5.78317428497E+001, +3.13954754924E+002
+2.22087609512E+007, +5.71250215612E+001, +3.17007602724E+002
+2.24276595745E+007, +5.85030757400E+001, +3.21349527956E+002
+2.26465581977E+007, +5.85427159463E+001, +3.24087667476E+002
+2.28654568210E+007, +5.87626827361E+001, +3.27772095122E+002
+2.30843554443E+007, +5.87030658038E+001, +3.31312971341E+002
+2.33032540676E+007, +5.89248981052E+001, +3.34360976394E+002
+2.35221526909E+007, +5.89115614878E+001, +3.38448421987E+002
+2.37410513141E+007, +5.92557792246E+001, +3.41277149475E+002
+2.39599499374E+007, +5.85591539838E+001, +3.44876277131E+002
+2.41788485607E+007, +5.90594576469E+001, +3.48134896942E+002
+2.43977471840E+007, +5.97755757914E+001, +3.52344825048E+002
+2.46166458073E+007, +5.90571708898E+001, +3.56252108326E+002
+2.48355444305E+007, +5.97474242185E+001, +3.59570456727E+002
+2.50544430538E+007, +6.11971891917E+001, +3.63002766094E+002
+2.52733416771E+007, +6.10532114603E+001, +3.66308814907E+002
+2.54922403004E+007, +6.05758097890E+001, +3.70816937002E+002
+2.57111389237E+007, +6.15942670347E+001, +3.74177881458E+002
+2.59300375469E+007, +6.14068183555E+001, +3.77101757005E+002
+2.61489361702E+007, +6.15626287049E+001, +3.80492091661E+002
+2.63678347935E+007, +6.06347750796E+001, +3.84757981551E+002
+2.65867334168E+007, +6.21253497026E+001, +3.88388397124E+002
+2.68056320401E+007, +6.16412208073E+001, +3.92295440932E+002
+2.70245306633E+007, +6.24860541540E+001, +3.95911357261E+002
+2.72434292866E+007, +6.16678067941E+001, +3.98627534742E+002
+2.74623279099E+007, +6.23777559740E+001, +4.03552957933E+002
+2.76812265332E+007, +6.21636338116E+001, +4.06668388898E+002
+2.79001251564E+007, +6.24968716950E+001, +4.10976244581E+002
+2.81190237797E+007, +6.37502328688E+001, +4.14570317503E+002
+2.83379224030E+007, +6.34005009590E+001, +4.17953966120E+002
+2.85568210263E+007, +6.29201843342E+001, +4.22561541939E+002
+2.87757196496E+007, +6.25685911062E+001, +4.26488883869E+002
+2.89946182728E+007, +6.26631157796E+001, +4.30126316578E+002
+2.92135168961E+007, +6.33260046150E+001, +4.34865619513E+002
+2.94324155194E+007, +6.40838758808E+001, +4.39726511445E+002
+2.96513141427E+007, +6.35967075468E+001, +4.42014853853E+002
+2.98702127660E+007, +6.40671588266E+001, +4.45722331272E+002
+3.00891113892E+007, +6.31084392705E+001, +4.50497924572E+002
+3.03080100125E+007, +6.51687383905E+001, +4.52887229263E+002
+3.05269086358E+007, +6.51533014023E+001, +4.58363215388E+002
+3.07458072591E+007, +6.65275345391E+001, +4.62040904764E+002
+3.09647058824E+007, +6.59751034842E+001, +4.66124557763E+002
+3.11836045056E+007, +6.50744396151E+001, +4.70125864206E+002
+3.14025031289E+007, +6.53669880993E+001, +4.72968616734E+002
+3.16214017522E+007, +6.66337103052E+001, +4.76853455767E+002
+3.18403003755E+007, +6.63321339907E+001, +4.83975523218E+002
+3.20591989987E+007, +6.55383111056E+001, +4.86639812586E+002
+3.22780976220E+007, +6.64215853508E+001, +4.91230389557E+002
+3.24969962453E+007, +6.56024313361E+001, +4.94368820081E+002
+3.27158948686E+007, +6.64925979163E+001, +4.98609480859E+002
+3.29347934919E+007, +6.59241302316E+001, +5.02741456121E+002
+3.31536921151E+007, +6.68014828086E+001, +5.06005716051E+002
+3.33725907384E+007, +6.71423329189E+001, +5.12394663935E+002
+3.35914893617E+007, +6.72274178550E+001, +5.16896481906E+002
+3.38103879850E+007, +6.73698042955E+001, +5.19727990182E+002
+3.40292866083E+007, +6.74627775728E+001, +5.24753989028E+002
+3.42481852315E+007, +6.79302775546E+001, +5.28610046960E+002
+3.44670838548E+007, +6.76196999856E+001, +5.33621489477E+002
+3.46859824781E+007, +7.06629932757E+001, +5.39401886066E+002
+3.49048811014E+007, +6.95357480870E+001, +5.43755645290E+002
+3.51237797247E+007, +6.98536806539E+001, +5.47129090470E+002
+3.53426783479E+007, +6.95550828954E+001, +5.52070513138E+002
+3.55615769712E+007, +7.11171020184E+001, +5.56713982585E+002
+3.57804755945E+007, +7.24926037460E+001, +5.60903144347E+002
+3.59993742178E+007, +7.10176401272E+001, +5.67909436371E+002
+3.62182728411E+007, +7.14014807312E+001, +5.68276028131E+002
+3.64371714643E+007, +7.28818570994E+001, +5.73570680303E+002
+3.66560700876E+007, +7.19170617981E+001, +5.80159865948E+002
+3.68749687109E+007, +7.25519746390E+001, +5.86172091031E+002
+3.70938673342E+007, +7.43262485252E+001, +5.90314584438E+002
+3.73127659574E+007, +7.30268656678E+001, +5.94964579841E+002
+3.75316645807E+007, +7.21422817405E+001, +5.97764437809E+002
+3.77505632040E+007, +7.33555705075E+001, +6.04113306130E+002
+3.79694618273E+007, +7.57578833041E+001, +6.07092047128E+002
+3.81883604506E+007, +7.30626803334E+001, +6.15205713209E+002
+3.84072590738E+007, +7.40267982331E+001, +6.19435141946E+002
+3.86261576971E+007, +7.44249735425E+001, +6.24181881410E+002
+3.88450563204E+007, +7.57110255282E+001, +6.27757156726E+002
+3.90639549437E+007, +7.80153748066E+001, +6.31957211782E+002
+3.92828535670E+007, +7.58992261793E+001, +6.41786270941E+002
+3.95017521902E+007, +7.81395077275E+001, +6.44364347755E+002
+3.97206508135E+007, +7.80858044009E+001, +6.49908929244E+002
+3.99395494368E+007, +7.75647691724E+001, +6.52122080012E+002
+4.01584480601E+007, +7.86290051017E+001, +6.58926463272E+002
+4.03773466834E+007, +8.04228970335E+001, +6.65726814198E+002
+4.05962453066E+007, +7.86375751842E+001, +6.71192263951E+002
+4.08151439299E+007, +8.03148873602E+001, +6.75394278026E+002
+4.10340425532E+007, +7.94505259526E+001, +6.80058959378E+002
+4.12529411765E+007, +7.84474994993E+001, +6.83914598272E+002
+4.14718397997E+007, +7.99547367339E+001, +6.91705391933E+002
+4.16907384230E+007, +8.11146323793E+001, +6.97836914186E+002
+4.19096370463E+007, +8.27602309538E+001, +7.01525253265E+002
+4.21285356696E+007, +8.16615579340E+001, +7.08736579034E+002
+4.23474342929E+007, +8.41921778763E+001, +7.17130479383E+002
+4.25663329161E+007, +8.37303103393E+001, +7.17079079799E+002
+4.27852315394E+007, +8.23080882240E+001, +7.25188860541E+002
+4.30041301627E+007, +8.71879443922E+001, +7.32262598340E+002
+4.32230287860E+007, +8.71326537635E+001, +7.36715967798E+002
+4.34419274093E+007, +8.71268514260E+001, +7.42749360853E+002
+4.36608260325E+007, +8.72949777981E+001, +7.46418451359E+002
+4.38797246558E+007, +8.82670348049E+001, +7.53676865671E+002
+4.40986232791E+007, +8.75743998441E+001, +7.60978813977E+002
+4.43175219024E+007, +8.86539205638E+001, +7.66219750823E+002
+4.45364205257E+007, +8.98857553588E+001, +7.76107747504E+002
+4.47553191489E+007, +9.17175899515E+001, +7.81692036663E+002
+4.49742177722E+007, +9.05070345110E+001, +7.86493900980E+002
+4.51931163955E+007, +9.07171113919E+001, +7.88937033702E+002
+4.54120150188E+007, +8.98436250239E+001, +7.96317834297E+002
+4.56309136421E+007, +9.47425394498E+001, +8.05108270096E+002
+4.58498122653E+007, +9.39717043987E+001, +8.07131866837E+002
+4.60687108886E+007, +8.98530785958E+001, +8.17923137370E+002
+4.62876095119E+007, +9.56372801093E+001, +8.24809889372E+002
+4.65065081352E+007, +9.60212310095E+001, +8.26005381767E+002
+4.67254067584E+007, +9.55381935037E+001, +8.35625127860E+002
+4.69443053817E+007, +9.43219495128E+001, +8.37447049433E+002
+4.71632040050E+007, +9.41719704815E+001, +8.49244270798E+002
+4.73821026283E+007, +1.00546833691E+002, +8.52677809151E+002
+4.76010012516E+007, +9.91443182044E+001, +8.63674398154E+002
+4.78198998748E+007, +9.95391810468E+001, +8.69100918919E+002
+4.80387984981E+007, +1.00815270314E+002, +8.79819009440E+002
+4.82576971214E+007, +1.00849437435E+002, +8.84291478232E+002
+4.84765957447E+007, +1.00769708683E+002, +8.89394482746E+002
+4.86954943680E+007, +1.01262869907E+002, +9.00389143953E+002
+4.89143929912E+007, +1.04101927165E+002, +9.05415131376E+002
+4.91332916145E+007, +1.04824982549E+002, +9.11844480455E+002
+4.93521902378E+007, +1.06426090902E+002, +9.13831475987E+002
+4.95710888611E+007, +1.12205108821E+002, +9.26310914447E+002
+4.97899874844E+007, +1.09324400541E+002, +9.33822244555E+002
+5.00088861076E+007, +1.07713429821E+002, +9.37212271180E+002
+5.02277847309E+007, +1.09708991741E+002, +9.51736974463E+002
+5.04466833542E+007, +1.14970150555E+002, +9.59191607361E+002
+5.06655819775E+007, +1.16119357260E+002, +9.65216101099E+002
+5.08844806008E+007, +1.13965348672E+002, +9.74196013182E+002
+5.11033792240E+007, +1.17804316787E+002, +9.81704194513E+002
+5.13222778473E+007, +1.13673275645E+002, +9.92024745286E+002
+5.15411764706E+007, +1.21403059890E+002, +9.96015947351E+002
+5.17600750939E+007, +1.18289141184E+002, +1.01153061217E+003
+5.19789737171E+007, +1.22180355695E+002, +1.01347800487E+003
+5.21978723404E+007, +1.24481544028E+002, +1.02174270253E+003
+5.24167709637E+007, +1.16790926931E+002, +1.03538143461E+003
+5.26356695870E+007, +1.27957790148E+002, +1.03477024797E+003
+5.28545682103E+007, +1.29405952323E+002, +1.05024487730E+003
+5.30734668335E+007, +1.26216769959E+002, +1.06476716812E+003
+5.32923654568E+007, +1.29495991856E+002, +1.07082482696E+003
+5.35112640801E+007, +1.34209346825E+002, +1.07341562414E+003
+5.37301627034E+007, +1.34661487702E+002, +1.08907035594E+003
+5.39490613267E+007, +1.33709940184E+002, +1.09414263020E+003
+5.41679599499E+007, +1.33937481119E+002, +1.10436462171E+003
+5.43868585732E+007, +1.35007430317E+002, +1.11383333513E+003
+5.46057571965E+007, +1.35660916942E+002, +1.12318063422E+003
+5.48246558198E+007, +1.39202163928E+002, +1.13397611782E+003
+5.50435544431E+007, +1.43011568659E+002, +1.14730115577E+003
+5.52624530663E+007, +1.44141159997E+002, +1.15803090965E+003
+5.54813516896E+007, +1.47084483234E+002, +1.16380703546E+003
+5.57002503129E+007, +1.51591159699E+002, +1.16852713235E+003
+5.59191489362E+007, +1.52148750031E+002, +1.18055411768E+003
+5.61380475594E+007, +1.49421268000E+002, +1.19473130400E+003
+5.63569461827E+007, +1.53068532274E+002, +1.21602512753E+003
+5.65758448060E+007, +1.58300555760E+002, +1.21617236548E+003
+5.67947434293E+007, +1.58649141416E+002, +1.23099119372E+003
+5.70136420526E+007, +1.60532911116E+002, +1.24335953254E+003
+5.72325406758E+007, +1.68702754776E+002, +1.24970125660E+003
+5.74514392991E+007, +1.59578225466E+002, +1.26110177834E+003
+5.76703379224E+007, +1.66438326252E+002, +1.27010560549E+003
+5.78892365457E+007, +1.64129252930E+002, +1.28373498879E+003
+5.81081351690E+007, +1.85140149151E+002, +1.30167366682E+003
+5.83270337922E+007, +1.76905483966E+002, +1.31375812665E+003
+5.85459324155E+007, +1.91754555269E+002, +1.32463035528E+003
+5.87648310388E+007, +1.80012341685E+002, +1.33444961502E+003
+5.89837296621E+007, +1.87238210357E+002, +1.34775267117E+003
+5.92026282854E+007, +2.01604312092E+002, +1.35752719726E+003
+5.94215269086E+007, +1.94840536619E+002, +1.37689162967E+003
+5.96404255319E+007, +1.92014257941E+002, +1.39316341072E+003
+5.98593241552E+007, +2.02836982910E+002, +1.40516505764E+003
+6.00782227785E+007, +2.03749854344E+002, +1.41443021393E+003
+6.02971214018E+007, +2.13843222285E+002, +1.42911354014E+003
+6.05160200250E+007, +2.12406035463E+002, +1.44120319570E+003
+6.07349186483E+007, +2.18209643975E+002, +1.45637811437E+003
+6.09538172716E+007, +2.16922230822E+002, +1.47710764751E+003
+6.11727158949E+007, +2.37848643115E+002, +1.49361675994E+003
+6.13916145181E+007, +2.19686390073E+002, +1.50917530066E+003
+6.16105131414E+007, +2.26221658618E+002, +1.51337416096E+003
+6.18294117647E+007, +2.37719570330E+002, +1.53947750532E+003
+6.20483103880E+007, +2.40210286277E+002, +1.55036085369E+003
+6.22672090113E+007, +2.47335761973E+002, +1.56432886101E+003
+6.24861076345E+007, +2.62207442941E+002, +1.58544451297E+003
+6.27050062578E+007, +2.69725029965E+002, +1.59897392866E+003
+6.29239048811E+007, +2.50669093357E+002, +1.62704270885E+003
+6.31428035044E+007, +2.56260173458E+002, +1.64284351566E+003
+6.33617021277E+007, +2.77880442396E+002, +1.65071549393E+003
+6.35806007509E+007, +2.72860165468E+002, +1.68345091766E+003
+6.37994993742E+007, +2.67735954063E+002, +1.68685851123E+003
+6.40183979975E+007, +2.99318009805E+002, +1.70506482531E+003
+6.42372966208E+007, +2.83720380815E+002, +1.72250827624E+003
+6.44561952441E+007, +3.04565372669E+002, +1.73999622709E+003
+6.46750938673E+007, +3.17669236296E+002, +1.78054519341E+003
+6.48939924906E+007, +3.31626600877E+002, +1.79592076118E+003
+6.51128911139E+007, +3.28318796186E+002, +1.81874746216E+003
+6.53317897372E+007, +3.47838882685E+002, +1.83684960434E+003
+6.55506883605E+007, +3.51179539222E+002, +1.85567117700E+003
+6.57695869837E+007, +3.51134678284E+002, +1.88560355145E+003
+6.59884856070E+007, +3.81920807235E+002, +1.90526656627E+003
+6.62073842303E+007, +3.70655553284E+002, +1.92453055154E+003
+6.64262828536E+007, +3.71463672665E+002, +1.94308939411E+003
+6.66451814768E+007, +3.97462702943E+002, +1.97012729383E+003
+6.68640801001E+007, +4.02442459589E+002, +1.99412728166E+003
+6.70829787234E+007, +4.18143768556E+002, +2.02490661380E+003
+6.73018773467E+007, +4.40776515514E+002, +2.02139385632E+003
+6.75207759700E+007, +4.73327645268E+002, +2.04896161919E+003
+6.77396745932E+007, +4.51438880251E+002, +2.07804969920E+003
+6.79585732165E+007, +4.81142134920E+002, +2.10596759924E+003
+6.81774718398E+007, +4.75233165854E+002, +2.15952097800E+003
+6.83963704631E+007, +4.85248552184E+002, +2.16197338836E+003
+6.86152690864E+007, +5.18486078857E+002, +2.20214078997E+003
+6.88341677096E+007, +5.41498091107E+002, +2.20704402276E+003
+6.90530663329E+007, +5.20223260689E+002, +2.25776325755E+003
+6.92719649562E+007, +5.50179104342E+002, +2.27907686007E+003
+6.94908635795E+007, +6.03992728135E+002, +2.30945984165E+003
+6.97097622028E+007, +6.14121592419E+002, +2.34838666329E+003
+6.99286608260E+007, +6.31514194977E+002, +2.37761235505E+003
+7.01475594493E+007, +6.47058955231E+002, +2.40094968575E+003
