"# Channel 1"
"# Trace 1"
Frequency, Formatted Data, Formatted Data
+1.00000000000E+005, +3.30464433146E+001, +1.31871508580E+000
+2.66777963272E+005, +3.30112768169E+001, +3.67945214799E+000
+4.33555926544E+005, +3.30086676436E+001, +6.03925681236E+000
+6.00333889816E+005, +3.30261955584E+001, +8.33759434690E+000
+7.67111853088E+005, +3.30509027007E+001, +1.05981850490E+001
+9.33889816361E+005, +3.30306303738E+001, +1.28931154626E+001
+1.10066777963E+006, +3.30633854568E+001, +1.52952094865E+001
+1.26744574290E+006, +3.30958974462E+001, +1.75477689437E+001
+1.43422370618E+006, +3.30541107901E+001, +1.98984006838E+001
+1.60100166945E+006, +3.30644163131E+001, +2.21434394435E+001
+1.76777963272E+006, +3.30728538301E+001, +2.44758577368E+001
+1.93455759599E+006, +3.30202328090E+001, +2.67352478153E+001
+2.10133555927E+006, +3.30472239247E+001, +2.90330126125E+001
+2.26811352254E+006, +3.30678255086E+001, +3.13933222213E+001
+2.43489148581E+006, +3.31059232697E+001, +3.37242483605E+001
+2.60166944908E+006, +3.30829306397E+001, +3.59169455221E+001
+2.76844741235E+006, +3.30781745665E+001, +3.83384590008E+001
+2.93522537563E+006, +3.30569393063E+001, +4.05628180730E+001
+3.10200333890E+006, +3.31597826706E+001, +4.28242693091E+001
+3.26878130217E+006, +3.30510817336E+001, +4.52515711243E+001
+3.43555926544E+006, +3.30792738455E+001, +4.75099573238E+001
+3.60233722871E+006, +3.31414776897E+001, +4.98880017765E+001
+3.76911519199E+006, +3.31464912561E+001, +5.22597223117E+001
+3.93589315526E+006, +3.30309944020E+001, +5.44626668325E+001
+4.10267111853E+006, +3.31260212063E+001, +5.69319143156E+001
+4.26944908180E+006, +3.31775355436E+001, +5.92770347979E+001
+4.43622704508E+006, +3.31400626225E+001, +6.14244545196E+001
+4.60300500835E+006, +3.32379832809E+001, +6.39028129200E+001
+4.76978297162E+006, +3.31306525212E+001, +6.61153088906E+001
+4.93656093489E+006, +3.32692643265E+001, +6.84686105682E+001
+5.10333889816E+006, +3.32299185729E+001, +7.06945929750E+001
+5.27011686144E+006, +3.33913694452E+001, +7.32048520214E+001
+5.43689482471E+006, +3.32390711457E+001, +7.54324987574E+001
+5.60367278798E+006, +3.33872042199E+001, +7.79499225874E+001
+5.77045075125E+006, +3.33002324696E+001, +8.01257773881E+001
+5.93722871452E+006, +3.33886543633E+001, +8.23669192263E+001
+6.10400667780E+006, +3.34421668620E+001, +8.49570368522E+001
+6.27078464107E+006, +3.34951671510E+001, +8.71393207142E+001
+6.43756260434E+006, +3.35604000659E+001, +8.95678694151E+001
+6.60434056761E+006, +3.35438578359E+001, +9.18452816828E+001
+6.77111853088E+006, +3.36352285147E+001, +9.41304458774E+001
+6.93789649416E+006, +3.36137846451E+001, +9.65954719686E+001
+7.10467445743E+006, +3.35899427662E+001, +9.88970919166E+001
+7.27145242070E+006, +3.36950238694E+001, +1.01179581216E+002
+7.43823038397E+006, +3.37449049517E+001, +1.03550939943E+002
+7.60500834725E+006, +3.37418538466E+001, +1.05970570301E+002
+7.77178631052E+006, +3.38251880089E+001, +1.08380932221E+002
+7.93856427379E+006, +3.37955515925E+001, +1.10639367517E+002
+8.10534223706E+006, +3.38146126550E+001, +1.12940037211E+002
+8.27212020033E+006, +3.38096082655E+001, +1.15379531320E+002
+8.43889816361E+006, +3.37510569353E+001, +1.17770721279E+002
+8.60567612688E+006, +3.37818286134E+001, +1.20217444968E+002
+8.77245409015E+006, +3.38357444043E+001, +1.22563930208E+002
+8.93923205342E+006, +3.39001161679E+001, +1.24945713198E+002
+9.10601001669E+006, +3.38468482618E+001, +1.27453240555E+002
+9.27278797997E+006, +3.39244827899E+001, +1.29801661743E+002
+9.43956594324E+006, +3.39793040896E+001, +1.32213958467E+002
+9.60634390651E+006, +3.38550276754E+001, +1.34638643409E+002
+9.77312186978E+006, +3.39153671526E+001, +1.36995098472E+002
+9.93989983306E+006, +3.40229535717E+001, +1.39489003610E+002
+1.01066777963E+007, +3.39209376640E+001, +1.42020931370E+002
+1.02734557596E+007, +3.40515098077E+001, +1.44436648530E+002
+1.04402337229E+007, +3.40805652293E+001, +1.46835553692E+002
+1.06070116861E+007, +3.40448315899E+001, +1.49280287144E+002
+1.07737896494E+007, +3.39880737580E+001, +1.51721699669E+002
+1.09405676127E+007, +3.43912309299E+001, +1.54077820503E+002
+1.11073455760E+007, +3.41966658651E+001, +1.56729883022E+002
+1.12741235392E+007, +3.42689223621E+001, +1.58914306265E+002
+1.14409015025E+007, +3.43746831286E+001, +1.61572115085E+002
+1.16076794658E+007, +3.43407318975E+001, +1.64031019940E+002
+1.17744574290E+007, +3.45470533406E+001, +1.66620686872E+002
+1.19412353923E+007, +3.43868479220E+001, +1.69029205653E+002
+1.21080133556E+007, +3.43128618174E+001, +1.71528279752E+002
+1.22747913189E+007, +3.46015980726E+001, +1.74044919167E+002
+1.24415692821E+007, +3.45302306923E+001, +1.76634042415E+002
+1.26083472454E+007, +3.44769873582E+001, +1.78982448531E+002
+1.27751252087E+007, +3.46788949541E+001, +1.81428692668E+002
+1.29419031720E+007, +3.45261683106E+001, +1.83975262067E+002
+1.31086811352E+007, +3.45766069191E+001, +1.86459575302E+002
+1.32754590985E+007, +3.48198188957E+001, +1.89140001452E+002
+1.34422370618E+007, +3.47714495000E+001, +1.91687528407E+002
+1.36090150250E+007, +3.50344486278E+001, +1.93975564757E+002
+1.37757929883E+007, +3.46654650714E+001, +1.96620821528E+002
+1.39425709516E+007, +3.49994911908E+001, +1.99057145010E+002
+1.41093489149E+007, +3.52159069010E+001, +2.01719546755E+002
+1.42761268781E+007, +3.52778980684E+001, +2.04477831642E+002
+1.44429048414E+007, +3.50180385749E+001, +2.06745668220E+002
+1.46096828047E+007, +3.51713327624E+001, +2.09715461597E+002
+1.47764607679E+007, +3.52942692993E+001, +2.11976288590E+002
+1.49432387312E+007, +3.53662742515E+001, +2.14676633870E+002
+1.51100166945E+007, +3.51522982225E+001, +2.17375848355E+002
+1.52767946578E+007, +3.56080002594E+001, +2.19779983085E+002
+1.54435726210E+007, +3.57139971737E+001, +2.22477102402E+002
+1.56103505843E+007, +3.58148012836E+001, +2.25045753897E+002
+1.57771285476E+007, +3.56925590225E+001, +2.27496101004E+002
+1.59439065109E+007, +3.57821773440E+001, +2.30381597862E+002
+1.61106844741E+007, +3.59212069467E+001, +2.32942884009E+002
+1.62774624374E+007, +3.64268830753E+001, +2.35391250711E+002
+1.64442404007E+007, +3.60821780634E+001, +2.38362582624E+002
+1.66110183639E+007, +3.60910053789E+001, +2.40864076061E+002
+1.67777963272E+007, +3.62869604578E+001, +2.43817786949E+002
+1.69445742905E+007, +3.64589639976E+001, +2.46127458407E+002
+1.71113522538E+007, +3.57546935704E+001, +2.48914926436E+002
+1.72781302170E+007, +3.61291346390E+001, +2.51631104103E+002
+1.74449081803E+007, +3.59571828160E+001, +2.54295914522E+002
+1.76116861436E+007, +3.65747325744E+001, +2.57016451921E+002
+1.77784641068E+007, +3.64157402366E+001, +2.59171663427E+002
+1.79452420701E+007, +3.66878993592E+001, +2.62398807308E+002
+1.81120200334E+007, +3.68880368688E+001, +2.64598661006E+002
+1.82787979967E+007, +3.69545348975E+001, +2.67691219008E+002
+1.84455759599E+007, +3.68989559834E+001, +2.70197465095E+002
+1.86123539232E+007, +3.71424407933E+001, +2.73477203511E+002
+1.87791318865E+007, +3.68244289977E+001, +2.76039932508E+002
+1.89459098497E+007, +3.71521716810E+001, +2.78755061471E+002
+1.91126878130E+007, +3.74209017971E+001, +2.81319954678E+002
+1.92794657763E+007, +3.73233273651E+001, +2.84649888999E+002
+1.94462437396E+007, +3.74251582495E+001, +2.87194423931E+002
+1.96130217028E+007, +3.75543865906E+001, +2.90533741668E+002
+1.97797996661E+007, +3.79199655013E+001, +2.92825283377E+002
+1.99465776294E+007, +3.73977983152E+001, +2.95523376482E+002
+2.01133555927E+007, +3.75718361160E+001, +2.98531361631E+002
+2.02801335559E+007, +3.78501013109E+001, +3.02186777599E+002
+2.04469115192E+007, +3.84664043916E+001, +3.04370683350E+002
+2.06136894825E+007, +3.86244135541E+001, +3.07435443639E+002
+2.07804674457E+007, +3.84075051057E+001, +3.10312854082E+002
+2.09472454090E+007, +3.84474267917E+001, +3.13522610702E+002
+2.11140233723E+007, +3.86420677185E+001, +3.16358022739E+002
+2.12808013356E+007, +3.88765676048E+001, +3.18894153622E+002
+2.14475792988E+007, +3.92368619792E+001, +3.22145575692E+002
+2.16143572621E+007, +3.95256558484E+001, +3.25170061947E+002
+2.17811352254E+007, +3.90211681390E+001, +3.27118827838E+002
+2.19479131886E+007, +4.01897470870E+001, +3.30691159097E+002
+2.21146911519E+007, +4.02580768372E+001, +3.33598052840E+002
+2.22814691152E+007, +3.97132964513E+001, +3.36127429914E+002
+2.24482470785E+007, +4.03999414218E+001, +3.39552812177E+002
+2.26150250417E+007, +4.09628431807E+001, +3.42399261616E+002
+2.27818030050E+007, +4.04370636703E+001, +3.45665627645E+002
+2.29485809683E+007, +4.16604573991E+001, +3.48575792891E+002
+2.31153589316E+007, +4.07481547426E+001, +3.51865551541E+002
+2.32821368948E+007, +4.20100699818E+001, +3.54880909374E+002
+2.34489148581E+007, +4.11791217062E+001, +3.57902103555E+002
+2.36156928214E+007, +4.20775005648E+001, +3.60865240365E+002
+2.37824707846E+007, +4.17479321980E+001, +3.63980763750E+002
+2.39492487479E+007, +4.17748880922E+001, +3.67206066868E+002
+2.41160267112E+007, +4.30743640283E+001, +3.69927011569E+002
+2.42828046745E+007, +4.23158808716E+001, +3.73368114244E+002
+2.44495826377E+007, +4.32611705379E+001, +3.76655470977E+002
+2.46163606010E+007, +4.28987943587E+001, +3.79757291645E+002
+2.47831385643E+007, +4.27684585796E+001, +3.82267350136E+002
+2.49499165275E+007, +4.36985286366E+001, +3.85940631901E+002
+2.51166944908E+007, +4.46468852260E+001, +3.88772451155E+002
+2.52834724541E+007, +4.41708141250E+001, +3.92224830778E+002
+2.54502504174E+007, +4.47792178849E+001, +3.95529619680E+002
+2.56170283806E+007, +4.45474603501E+001, +3.98453423194E+002
+2.57838063439E+007, +4.50136476352E+001, +4.01740607454E+002
+2.59505843072E+007, +4.54797066579E+001, +4.05574762279E+002
+2.61173622705E+007, +4.60311062216E+001, +4.08796144472E+002
+2.62841402337E+007, +4.56109934801E+001, +4.11537737591E+002
+2.64509181970E+007, +4.51207136907E+001, +4.14796305519E+002
+2.66176961603E+007, +4.58990119389E+001, +4.18914053761E+002
+2.67844741235E+007, +4.59988784602E+001, +4.21672508996E+002
+2.69512520868E+007, +4.70963167923E+001, +4.25108092475E+002
+2.71180300501E+007, +4.60135168158E+001, +4.27402160656E+002
+2.72848080134E+007, +4.72130514714E+001, +4.31223848948E+002
+2.74515859766E+007, +4.83163912975E+001, +4.34790971859E+002
+2.76183639399E+007, +4.75288233258E+001, +4.38279897517E+002
+2.77851419032E+007, +4.81736275152E+001, +4.41426840895E+002
+2.79519198664E+007, +4.82827096435E+001, +4.44327356476E+002
+2.81186978297E+007, +4.89965781705E+001, +4.47688906829E+002
+2.82854757930E+007, +4.86713047525E+001, +4.52122690694E+002
+2.84522537563E+007, +4.81626963555E+001, +4.56098880089E+002
+2.86190317195E+007, +4.77073135080E+001, +4.58474478330E+002
+2.87858096828E+007, +5.03234648869E+001, +4.62532680763E+002
+2.89525876461E+007, +4.92009619655E+001, +4.65684891466E+002
+2.91193656093E+007, +4.93770997149E+001, +4.68714132107E+002
+2.92861435726E+007, +4.91123698521E+001, +4.72843958473E+002
+2.94529215359E+007, +4.94721296604E+001, +4.76179222793E+002
+2.96196994992E+007, +5.03053175961E+001, +4.79595320439E+002
+2.97864774624E+007, +5.13284192988E+001, +4.83739577263E+002
+2.99532554257E+007, +5.13851082838E+001, +4.87264515092E+002
+3.01200333890E+007, +5.13738390177E+001, +4.92168722283E+002
+3.02868113523E+007, +5.07389396462E+001, +4.94929245423E+002
+3.04535893155E+007, +5.09901980705E+001, +4.99098100210E+002
+3.06203672788E+007, +5.21135780359E+001, +5.02311282829E+002
+3.07871452421E+007, +5.16102973343E+001, +5.05334005238E+002
+3.09539232053E+007, +5.23834997260E+001, +5.10343071122E+002
+3.11207011686E+007, +5.29000175721E+001, +5.14839423902E+002
+3.12874791319E+007, +5.32055003841E+001, +5.17871649837E+002
+3.14542570952E+007, +5.36027768616E+001, +5.20420736619E+002
+3.16210350584E+007, +5.27635935378E+001, +5.25634149770E+002
+3.17878130217E+007, +5.31946038082E+001, +5.28429706621E+002
+3.19545909850E+007, +5.39736668309E+001, +5.34143004340E+002
+3.21213689482E+007, +5.25198115541E+001, +5.37988430509E+002
+3.22881469115E+007, +5.40395473095E+001, +5.40486945825E+002
+3.24549248748E+007, +5.45163445966E+001, +5.45310769375E+002
+3.26217028381E+007, +5.40833172347E+001, +5.49950565929E+002
+3.27884808013E+007, +5.56681476480E+001, +5.54426535535E+002
+3.29552587646E+007, +5.52227916397E+001, +5.57781976287E+002
+3.31220367279E+007, +5.51562648024E+001, +5.62585420850E+002
+3.32888146912E+007, +5.51908001355E+001, +5.67383340941E+002
+3.34555926544E+007, +5.55153740460E+001, +5.71265922174E+002
+3.36223706177E+007, +5.58595760540E+001, +5.74403399225E+002
+3.37891485810E+007, +5.72400081192E+001, +5.77004917338E+002
+3.39559265442E+007, +5.62062809724E+001, +5.83345956091E+002
+3.41227045075E+007, +5.57050311428E+001, +5.87783399962E+002
+3.42894824708E+007, +5.74093959114E+001, +5.91911957167E+002
+3.44562604341E+007, +5.85017357878E+001, +5.96952028482E+002
+3.46230383973E+007, +5.73976594090E+001, +6.02856153582E+002
+3.47898163606E+007, +5.85513006131E+001, +6.05934273964E+002
+3.49565943239E+007, +6.05380155986E+001, +6.10584139927E+002
+3.51233722871E+007, +5.92390967246E+001, +6.14603792533E+002
+3.52901502504E+007, +5.96491152385E+001, +6.17716991372E+002
+3.54569282137E+007, +5.94623130553E+001, +6.24503825136E+002
+3.56237061770E+007, +5.89547749535E+001, +6.28636902907E+002
+3.57904841402E+007, +6.00453898783E+001, +6.34676748716E+002
+3.59572621035E+007, +6.11636235130E+001, +6.40520308455E+002
+3.61240400668E+007, +6.19416465625E+001, +6.43958232575E+002
+3.62908180301E+007, +6.21107829767E+001, +6.49234810964E+002
+3.64575959933E+007, +6.36910981769E+001, +6.53413231431E+002
+3.66243739566E+007, +6.30426650616E+001, +6.57610089531E+002
+3.67911519199E+007, +6.39058059699E+001, +6.64348504508E+002
+3.69579298831E+007, +6.29086832042E+001, +6.66122742309E+002
+3.71247078464E+007, +6.49589165642E+001, +6.73077251532E+002
+3.72914858097E+007, +6.32147783734E+001, +6.81096665300E+002
+3.74582637730E+007, +6.71893232127E+001, +6.85325526522E+002
+3.76250417362E+007, +6.66566026208E+001, +6.91153851443E+002
+3.77918196995E+007, +6.58266085587E+001, +6.95340417350E+002
+3.79585976628E+007, +6.85491511598E+001, +6.99465327041E+002
+3.81253756260E+007, +6.83735158054E+001, +7.04507819447E+002
+3.82921535893E+007, +6.77346341796E+001, +7.11242812413E+002
+3.84589315526E+007, +6.99855353205E+001, +7.18531958579E+002
+3.86257095159E+007, +6.90776225097E+001, +7.22385900149E+002
+3.87924874791E+007, +6.97065632293E+001, +7.28266676415E+002
+3.89592654424E+007, +7.13290354699E+001, +7.35022929963E+002
+3.91260434057E+007, +7.22394560554E+001, +7.41015701734E+002
+3.92928213689E+007, +7.35943446387E+001, +7.45294648213E+002
+3.94595993322E+007, +7.06586900130E+001, +7.52887600762E+002
+3.96263772955E+007, +7.25607502864E+001, +7.57481235134E+002
+3.97931552588E+007, +7.24245282590E+001, +7.63266932642E+002
+3.99599332220E+007, +7.34351342221E+001, +7.70628772498E+002
+4.01267111853E+007, +7.64047919710E+001, +7.77518235802E+002
+4.02934891486E+007, +7.35477012930E+001, +7.83818274167E+002
+4.04602671119E+007, +7.63239686064E+001, +7.89185997348E+002
+4.06270450751E+007, +7.93985520109E+001, +7.95448729191E+002
+4.07938230384E+007, +7.78099757986E+001, +8.01894553424E+002
+4.09606010017E+007, +7.95054545001E+001, +8.08080450313E+002
+4.11273789649E+007, +7.86558524492E+001, +8.14636214671E+002
+4.12941569282E+007, +8.06636402505E+001, +8.22809646025E+002
+4.14609348915E+007, +7.95355789710E+001, +8.32814257848E+002
+4.16277128548E+007, +8.27381442683E+001, +8.34906087033E+002
+4.17944908180E+007, +8.48301358712E+001, +8.43458592623E+002
+4.19612687813E+007, +8.33129397567E+001, +8.49676437351E+002
+4.21280467446E+007, +8.46569328753E+001, +8.56332127945E+002
+4.22948247078E+007, +8.70390749966E+001, +8.64045726299E+002
+4.24616026711E+007, +8.81271065463E+001, +8.68396350497E+002
+4.26283806344E+007, +9.31156385796E+001, +8.77574087434E+002
+4.27951585977E+007, +8.94580346081E+001, +8.88502301267E+002
+4.29619365609E+007, +9.15290698577E+001, +8.92534693477E+002
+4.31287145242E+007, +9.48224137024E+001, +9.02806107020E+002
+4.32954924875E+007, +9.46178895514E+001, +9.07522649278E+002
+4.34622704508E+007, +9.23015743264E+001, +9.17807987101E+002
+4.36290484140E+007, +9.38716042926E+001, +9.29739962432E+002
+4.37958263773E+007, +9.63305826387E+001, +9.34976010578E+002
+4.39626043406E+007, +9.69139992146E+001, +9.40745771016E+002
+4.41293823038E+007, +1.00448889548E+002, +9.50215592578E+002
+4.42961602671E+007, +9.64649772969E+001, +9.59222780858E+002
+4.44629382304E+007, +1.00303978815E+002, +9.71927841890E+002
+4.46297161937E+007, +1.02912040010E+002, +9.75580389694E+002
+4.47964941569E+007, +1.03689143290E+002, +9.87881867542E+002
+4.49632721202E+007, +1.06735345747E+002, +9.96368673866E+002
+4.51300500835E+007, +1.11354130935E+002, +1.00100495742E+003
+4.52968280467E+007, +1.12368046126E+002, +1.01212252697E+003
+4.54636060100E+007, +1.16424365568E+002, +1.02710279217E+003
+4.56303839733E+007, +1.12880154738E+002, +1.03573566657E+003
+4.57971619366E+007, +1.17068380744E+002, +1.04443885914E+003
+4.59639398998E+007, +1.15259116080E+002, +1.06070264293E+003
+4.61307178631E+007, +1.23477922857E+002, +1.06672783131E+003
+4.62974958264E+007, +1.27525134605E+002, +1.07905666431E+003
+4.64642737896E+007, +1.24807125268E+002, +1.08545559756E+003
+4.66310517529E+007, +1.22438773463E+002, +1.09784547750E+003
+4.67978297162E+007, +1.37731904663E+002, +1.10510911481E+003
+4.69646076795E+007, +1.32024428056E+002, +1.12647317853E+003
+4.71313856427E+007, +1.39266209511E+002, +1.13497405719E+003
+4.72981636060E+007, +1.39989173025E+002, +1.14589412614E+003
+4.74649415693E+007, +1.41462284241E+002, +1.15649765004E+003
+4.76317195326E+007, +1.52142906288E+002, +1.16684230874E+003
+4.77984974958E+007, +1.57609058163E+002, +1.17832849760E+003
+4.79652754591E+007, +1.53104915777E+002, +1.18806711540E+003
+4.81320534224E+007, +1.62208774301E+002, +1.19961060827E+003
+4.82988313856E+007, +1.63893751428E+002, +1.21546001693E+003
+4.84656093489E+007, +1.69575063702E+002, +1.22067623487E+003
+4.86323873122E+007, +1.76490706799E+002, +1.23372890407E+003
+4.87991652755E+007, +1.84410312544E+002, +1.24855310680E+003
+4.89659432387E+007, +1.84608711114E+002, +1.25822529183E+003
+4.91327212020E+007, +1.93358858323E+002, +1.27836499181E+003
+4.92994991653E+007, +2.01214921013E+002, +1.28478043717E+003
+4.94662771285E+007, +2.04863716754E+002, +1.29455367357E+003
+4.96330550918E+007, +2.13645218679E+002, +1.30652088631E+003
+4.97998330551E+007, +2.19804300178E+002, +1.31720935445E+003
+4.99666110184E+007, +2.25608755071E+002, +1.33353075256E+003
+5.01333889816E+007, +2.26783725770E+002, +1.34599537390E+003
+5.03001669449E+007, +2.24590539479E+002, +1.35583976538E+003
+5.04669449082E+007, +2.38316331511E+002, +1.37140862736E+003
+5.06337228715E+007, +2.44606638612E+002, +1.38053480915E+003
+5.08005008347E+007, +2.43076005265E+002, +1.38924245834E+003
+5.09672787980E+007, +2.52299280325E+002, +1.40488709607E+003
+5.11340567613E+007, +2.57420392437E+002, +1.41766708134E+003
+5.13008347245E+007, +2.58915432439E+002, +1.44064428010E+003
+5.14676126878E+007, +2.61256830608E+002, +1.45044464431E+003
+5.16343906511E+007, +2.70965596950E+002, +1.46463761915E+003
+5.18011686144E+007, +2.67786466911E+002, +1.48103885176E+003
+5.19679465776E+007, +2.75964309326E+002, +1.49687267076E+003
+5.21347245409E+007, +2.81289107455E+002, +1.51172770062E+003
+5.23015025042E+007, +2.85925207928E+002, +1.54468497224E+003
+5.24682804674E+007, +2.79942051749E+002, +1.56566578488E+003
+5.26350584307E+007, +3.00824423452E+002, +1.57319963624E+003
+5.28018363940E+007, +2.96262541949E+002, +1.60027691279E+003
+5.29686143573E+007, +3.06254072002E+002, +1.62418597416E+003
+5.31353923205E+007, +3.06483144973E+002, +1.63657420265E+003
+5.33021702838E+007, +3.15749020864E+002, +1.66081725371E+003
+5.34689482471E+007, +3.27929085689E+002, +1.69121328413E+003
