"# Channel 1"
"# Trace 1"
Frequency, Formatted Data, Formatted Data
+1.00000000000E+005, +2.61166470092E+001, +6.28942503360E-001
+2.25031289111E+005, +2.55435694410E+001, +2.27242968769E+000
+3.50062578223E+005, +2.53149932561E+001, +4.01639269745E+000
+4.75093867334E+005, +2.51903419065E+001, +5.76496714306E+000
+6.00125156446E+005, +2.51785611805E+001, +7.44583804305E+000
+7.25156445557E+005, +2.51139491730E+001, +9.15884589702E+000
+8.50187734668E+005, +2.51208986539E+001, +1.08177529657E+001
+9.75219023780E+005, +2.50878743349E+001, +1.24603729398E+001
+1.10025031289E+006, +2.50712694791E+001, +1.41079548486E+001
+1.22528160200E+006, +2.50868467774E+001, +1.57700076200E+001
+1.35031289111E+006, +2.51216727779E+001, +1.73874782050E+001
+1.47534418023E+006, +2.50992043811E+001, +1.90670414460E+001
+1.60037546934E+006, +2.50656061575E+001, +2.06793933000E+001
+1.72540675845E+006, +2.50842452991E+001, +2.23255029050E+001
+1.85043804756E+006, +2.51016487341E+001, +2.39140127527E+001
+1.97546933667E+006, +2.50958882998E+001, +2.55409382778E+001
+2.10050062578E+006, +2.51345350605E+001, +2.71515795521E+001
+2.22553191489E+006, +2.50938441799E+001, +2.87951292755E+001
+2.35056320401E+006, +2.51295152292E+001, +3.04412796571E+001
+2.47559449312E+006, +2.51529517466E+001, +3.20728593608E+001
+2.60062578223E+006, +2.51081320255E+001, +3.36690894069E+001
+2.72565707134E+006, +2.51144949828E+001, +3.53470090599E+001
+2.85068836045E+006, +2.51584059735E+001, +3.68980617701E+001
+2.97571964956E+006, +2.51543911249E+001, +3.85435411183E+001
+3.10075093867E+006, +2.51330736728E+001, +4.01382104391E+001
+3.22578222778E+006, +2.52008560809E+001, +4.17760706309E+001
+3.35081351690E+006, +2.52268585596E+001, +4.33433459544E+001
+3.47584480601E+006, +2.52503188117E+001, +4.50457518989E+001
+3.60087609512E+006, +2.51835781113E+001, +4.66647538386E+001
+3.72590738423E+006, +2.52210050669E+001, +4.82912378564E+001
+3.85093867334E+006, +2.52244895972E+001, +4.99328871648E+001
+3.97596996245E+006, +2.52411797786E+001, +5.15995345999E+001
+4.10100125156E+006, +2.52547902643E+001, +5.32280359148E+001
+4.22603254068E+006, +2.53151778096E+001, +5.47397433123E+001
+4.35106382979E+006, +2.52806066910E+001, +5.64768687665E+001
+4.47609511890E+006, +2.52998150082E+001, +5.80504827935E+001
+4.60112640801E+006, +2.52355545500E+001, +5.96668266874E+001
+4.72615769712E+006, +2.52500801149E+001, +6.13139760866E+001
+4.85118898623E+006, +2.52657775148E+001, +6.29333812294E+001
+4.97622027534E+006, +2.54010716828E+001, +6.45234734709E+001
+5.10125156446E+006, +2.53735839980E+001, +6.62565589250E+001
+5.22628285357E+006, +2.53293152557E+001, +6.79001714379E+001
+5.35131414268E+006, +2.53835639185E+001, +6.94743091201E+001
+5.47634543179E+006, +2.53035586060E+001, +7.10603719469E+001
+5.60137672090E+006, +2.53841004116E+001, +7.26540864301E+001
+5.72640801001E+006, +2.55269772122E+001, +7.43676502394E+001
+5.85143929912E+006, +2.53486397378E+001, +7.58723850076E+001
+5.97647058824E+006, +2.53771011257E+001, +7.77258172534E+001
+6.10150187735E+006, +2.55255988687E+001, +7.93052740921E+001
+6.22653316646E+006, +2.55168827167E+001, +8.09117086171E+001
+6.35156445557E+006, +2.55074062398E+001, +8.24750873891E+001
+6.47659574468E+006, +2.55415905980E+001, +8.42511656990E+001
+6.60162703379E+006, +2.55480258851E+001, +8.58835525479E+001
+6.72665832290E+006, +2.56526986646E+001, +8.75025821837E+001
+6.85168961202E+006, +2.56394539257E+001, +8.90576138724E+001
+6.97672090113E+006, +2.57180658786E+001, +9.07857507400E+001
+7.10175219024E+006, +2.56731293073E+001, +9.24379204834E+001
+7.22678347935E+006, +2.56888913816E+001, +9.41066115131E+001
+7.35181476846E+006, +2.57125117373E+001, +9.57531031505E+001
+7.47684605757E+006, +2.57462908677E+001, +9.73647597390E+001
+7.60187734668E+006, +2.57504986022E+001, +9.91271617544E+001
+7.72690863579E+006, +2.57141759683E+001, +1.00729542213E+002
+7.85193992491E+006, +2.58143355092E+001, +1.02395535184E+002
+7.97697121402E+006, +2.57949978741E+001, +1.04006509284E+002
+8.10200250313E+006, +2.56776302638E+001, +1.05677455666E+002
+8.22703379224E+006, +2.58297704512E+001, +1.07297563611E+002
+8.35206508135E+006, +2.58184306313E+001, +1.08997117159E+002
+8.47709637046E+006, +2.59630873864E+001, +1.10658786788E+002
+8.60212765957E+006, +2.58421115630E+001, +1.12300685695E+002
+8.72715894869E+006, +2.59444827200E+001, +1.13967242190E+002
+8.85219023780E+006, +2.59573127123E+001, +1.15763744306E+002
+8.97722152691E+006, +2.59975467610E+001, +1.17279299378E+002
+9.10225281602E+006, +2.60092039779E+001, +1.19001980038E+002
+9.22728410513E+006, +2.60861368176E+001, +1.20507442872E+002
+9.35231539424E+006, +2.61144607133E+001, +1.22350240941E+002
+9.47734668335E+006, +2.61196213278E+001, +1.23882775655E+002
+9.60237797247E+006, +2.60974006838E+001, +1.25635639755E+002
+9.72740926158E+006, +2.61474643092E+001, +1.27379709311E+002
+9.85244055069E+006, +2.60546668814E+001, +1.28956150130E+002
+9.97747183980E+006, +2.62019569556E+001, +1.30674503114E+002
+1.01025031289E+007, +2.61572004964E+001, +1.32291579386E+002
+1.02275344180E+007, +2.61290586115E+001, +1.33916866128E+002
+1.03525657071E+007, +2.60764824272E+001, +1.35719477390E+002
+1.04775969962E+007, +2.62933598273E+001, +1.37470452104E+002
+1.06026282854E+007, +2.62604704922E+001, +1.39086578134E+002
+1.07276595745E+007, +2.61447936679E+001, +1.40703840670E+002
+1.08526908636E+007, +2.62741838865E+001, +1.42466748989E+002
+1.09777221527E+007, +2.63286111009E+001, +1.44022350285E+002
+1.11027534418E+007, +2.64020110954E+001, +1.45674406802E+002
+1.12277847309E+007, +2.64627213473E+001, +1.47520662163E+002
+1.13528160200E+007, +2.63061197261E+001, +1.49285456808E+002
+1.14778473091E+007, +2.65308394351E+001, +1.51036064005E+002
+1.16028785982E+007, +2.62701840204E+001, +1.52535383214E+002
+1.17279098874E+007, +2.64531765652E+001, +1.54432070799E+002
+1.18529411765E+007, +2.64858726154E+001, +1.56030907032E+002
+1.19779724656E+007, +2.64739235173E+001, +1.57834077505E+002
+1.21030037547E+007, +2.66552190265E+001, +1.59503985942E+002
+1.22280350438E+007, +2.64130954032E+001, +1.61308104493E+002
+1.23530663329E+007, +2.65681654876E+001, +1.63010482592E+002
+1.24780976220E+007, +2.67323034536E+001, +1.64601359701E+002
+1.26031289111E+007, +2.65254543194E+001, +1.66274849392E+002
+1.27281602003E+007, +2.66046031576E+001, +1.68123327153E+002
+1.28531914894E+007, +2.67201340435E+001, +1.69740324621E+002
+1.29782227785E+007, +2.66145158480E+001, +1.71671803354E+002
+1.31032540676E+007, +2.67849650869E+001, +1.73287833769E+002
+1.32282853567E+007, +2.66769878077E+001, +1.74957254806E+002
+1.33533166458E+007, +2.68645129651E+001, +1.76692901398E+002
+1.34783479349E+007, +2.69063805479E+001, +1.78554555378E+002
+1.36033792240E+007, +2.67168433174E+001, +1.80211345538E+002
+1.37284105131E+007, +2.68783097501E+001, +1.82003219890E+002
+1.38534418023E+007, +2.69271104487E+001, +1.83819571124E+002
+1.39784730914E+007, +2.70030080555E+001, +1.85262754517E+002
+1.41035043805E+007, +2.67056975439E+001, +1.87349858892E+002
+1.42285356696E+007, +2.69724576426E+001, +1.88997056288E+002
+1.43535669587E+007, +2.68579397864E+001, +1.90784978555E+002
+1.44785982478E+007, +2.72011825337E+001, +1.92547229083E+002
+1.46036295369E+007, +2.71550534231E+001, +1.94285534832E+002
+1.47286608260E+007, +2.70322314269E+001, +1.95848637575E+002
+1.48536921151E+007, +2.71870554292E+001, +1.97399532030E+002
+1.49787234043E+007, +2.69104756305E+001, +1.99654549826E+002
+1.51037546934E+007, +2.70179803779E+001, +2.01508562705E+002
+1.52287859825E+007, +2.72546612271E+001, +2.02957782263E+002
+1.53538172716E+007, +2.70550101322E+001, +2.04975617531E+002
+1.54788485607E+007, +2.70102126333E+001, +2.06663700957E+002
+1.56038798498E+007, +2.72110825723E+001, +2.08398557568E+002
+1.57289111389E+007, +2.73853529147E+001, +2.10202837256E+002
+1.58539424280E+007, +2.73029845579E+001, +2.11985278707E+002
+1.59789737171E+007, +2.72748514679E+001, +2.13759254407E+002
+1.61040050063E+007, +2.75052924352E+001, +2.15682236883E+002
+1.62290362954E+007, +2.78382742102E+001, +2.17402997713E+002
+1.63540675845E+007, +2.77388032478E+001, +2.19390918468E+002
+1.64790988736E+007, +2.75148687357E+001, +2.20740084365E+002
+1.66041301627E+007, +2.77364625053E+001, +2.22929496141E+002
+1.67291614518E+007, +2.78058684176E+001, +2.24823839431E+002
+1.68541927409E+007, +2.78839822303E+001, +2.26574108023E+002
+1.69792240300E+007, +2.80107968270E+001, +2.28495198999E+002
+1.71042553191E+007, +2.75497170967E+001, +2.30226236678E+002
+1.72292866083E+007, +2.74341180278E+001, +2.32039118230E+002
+1.73543178974E+007, +2.75888433712E+001, +2.33907028844E+002
+1.74793491865E+007, +2.71554929560E+001, +2.35708372781E+002
+1.76043804756E+007, +2.76147488576E+001, +2.37737388598E+002
+1.77294117647E+007, +2.79882952822E+001, +2.39237698498E+002
+1.78544430538E+007, +2.78741904699E+001, +2.41259969227E+002
+1.79794743429E+007, +2.78986885922E+001, +2.43128781830E+002
+1.81045056320E+007, +2.79127890773E+001, +2.45038874671E+002
+1.82295369212E+007, +2.81654309811E+001, +2.46549489146E+002
+1.83545682103E+007, +2.83859220741E+001, +2.48723402408E+002
+1.84795994994E+007, +2.81668680658E+001, +2.50113749398E+002
+1.86046307885E+007, +2.83888073501E+001, +2.52117825416E+002
+1.87296620776E+007, +2.80158670541E+001, +2.54166796438E+002
+1.88546933667E+007, +2.87836018074E+001, +2.56066943472E+002
+1.89797246558E+007, +2.83011943612E+001, +2.58401167170E+002
+1.91047559449E+007, +2.82230043073E+001, +2.59786443961E+002
+1.92297872340E+007, +2.86731621286E+001, +2.62084261354E+002
+1.93548185232E+007, +2.82972810606E+001, +2.63911192681E+002
+1.94798498123E+007, +2.84140772718E+001, +2.65592582512E+002
+1.96048811014E+007, +2.87604725028E+001, +2.67952114240E+002
+1.97299123905E+007, +2.86566245551E+001, +2.69438191070E+002
+1.98549436796E+007, +2.88624621797E+001, +2.71296911843E+002
+1.99799749687E+007, +2.85983671650E+001, +2.72910876622E+002
+2.01050062578E+007, +2.86401404690E+001, +2.74919448041E+002
+2.02300375469E+007, +2.86526021673E+001, +2.76924269524E+002
+2.03550688360E+007, +2.88693068368E+001, +2.78862870476E+002
+2.04801001252E+007, +2.93191096467E+001, +2.80629361244E+002
+2.06051314143E+007, +2.87785532625E+001, +2.82877210817E+002
+2.07301627034E+007, +2.94283685027E+001, +2.84635059505E+002
+2.08551939925E+007, +2.93460510759E+001, +2.86441015508E+002
+2.09802252816E+007, +2.89391782237E+001, +2.88414559015E+002
+2.11052565707E+007, +2.89056487000E+001, +2.90782498172E+002
+2.12302878598E+007, +2.89191874957E+001, +2.92855951453E+002
+2.13553191489E+007, +2.96449862160E+001, +2.94599337313E+002
+2.14803504380E+007, +2.93524778665E+001, +2.96515636324E+002
+2.16053817272E+007, +3.00530640159E+001, +2.98507233506E+002
+2.17304130163E+007, +3.00589674384E+001, +3.00668868942E+002
+2.18554443054E+007, +2.99340005986E+001, +3.02220076988E+002
+2.19804755945E+007, +2.98692271342E+001, +3.04629987618E+002
+2.21055068836E+007, +3.00731251947E+001, +3.06433599084E+002
+2.22305381727E+007, +3.01218019659E+001, +3.08718082795E+002
+2.23555694618E+007, +2.99212288303E+001, +3.10527397323E+002
+2.24806007509E+007, +3.03992572503E+001, +3.12620088910E+002
+2.26056320401E+007, +3.05773583857E+001, +3.14709756730E+002
+2.27306633292E+007, +3.02354674643E+001, +3.16319640661E+002
+2.28556946183E+007, +3.06177987481E+001, +3.17853665685E+002
+2.29807259074E+007, +3.07104709352E+001, +3.20196151508E+002
+2.31057571965E+007, +3.11319862739E+001, +3.22652997329E+002
+2.32307884856E+007, +3.10825472335E+001, +3.24357941252E+002
+2.33558197747E+007, +3.17758340815E+001, +3.26365397837E+002
+2.34808510638E+007, +3.09760777583E+001, +3.27765707423E+002
+2.36058823529E+007, +3.13392207518E+001, +3.31104590153E+002
+2.37309136421E+007, +3.15650215110E+001, +3.33182400395E+002
+2.38559449312E+007, +3.07149101558E+001, +3.34740252976E+002
+2.39809762203E+007, +3.16746474232E+001, +3.36033297249E+002
+2.41060075094E+007, +3.14719468783E+001, +3.38612338280E+002
+2.42310387985E+007, +3.14024666561E+001, +3.40283395427E+002
+2.43560700876E+007, +3.19826056866E+001, +3.42657274204E+002
+2.44811013767E+007, +3.15605971707E+001, +3.44020709778E+002
+2.46061326658E+007, +3.17419108969E+001, +3.46394826042E+002
+2.47311639549E+007, +3.16704238444E+001, +3.49107502342E+002
+2.48561952441E+007, +3.17749697989E+001, +3.50369680961E+002
+2.49812265332E+007, +3.18401171732E+001, +3.52294353013E+002
+2.51062578223E+007, +3.16847468501E+001, +3.54201082840E+002
+2.52312891114E+007, +3.13931042429E+001, +3.56905754226E+002
+2.53563204005E+007, +3.17474943020E+001, +3.58940430080E+002
+2.54813516896E+007, +3.13826216673E+001, +3.60701100027E+002
+2.56063829787E+007, +3.21554274733E+001, +3.63325708713E+002
+2.57314142678E+007, +3.21757924971E+001, +3.65299509443E+002
+2.58564455569E+007, +3.24795504728E+001, +3.67372066659E+002
+2.59814768461E+007, +3.17174265159E+001, +3.69732322577E+002
+2.61065081352E+007, +3.21990317392E+001, +3.71638071009E+002
+2.62315394243E+007, +3.22770427142E+001, +3.74761216375E+002
+2.63565707134E+007, +3.21556811383E+001, +3.75810504569E+002
+2.64816020025E+007, +3.20118040554E+001, +3.78169101060E+002
+2.66066332916E+007, +3.19598670707E+001, +3.80534978204E+002
+2.67316645807E+007, +3.33578228980E+001, +3.82583034856E+002
+2.68566958698E+007, +3.32127396498E+001, +3.84927288503E+002
+2.69817271589E+007, +3.36158144308E+001, +3.87055192272E+002
+2.71067584481E+007, +3.29943468470E+001, +3.89326809148E+002
+2.72317897372E+007, +3.34856251813E+001, +3.91458517387E+002
+2.73568210263E+007, +3.28065265602E+001, +3.94022553772E+002
+2.74818523154E+007, +3.33750358499E+001, +3.95907352325E+002
+2.76068836045E+007, +3.29144560376E+001, +3.98459662306E+002
+2.77319148936E+007, +3.37886022845E+001, +4.00503763658E+002
+2.78569461827E+007, +3.37920255963E+001, +4.02315178559E+002
+2.79819774718E+007, +3.40061920132E+001, +4.05244700356E+002
+2.81070087610E+007, +3.37904354090E+001, +4.06688689979E+002
+2.82320400501E+007, +3.32194130650E+001, +4.10081722518E+002
+2.83570713392E+007, +3.29629499958E+001, +4.12247678717E+002
+2.84821026283E+007, +3.30037246343E+001, +4.13988184082E+002
+2.86071339174E+007, +3.30721489111E+001, +4.16886468129E+002
+2.87321652065E+007, +3.29530730614E+001, +4.18382151530E+002
+2.88571964956E+007, +3.37894116923E+001, +4.20964242546E+002
+2.89822277847E+007, +3.24197337463E+001, +4.23380130284E+002
+2.91072590738E+007, +3.34736545315E+001, +4.25211252080E+002
+2.92322903630E+007, +3.39234896588E+001, +4.28759206053E+002
+2.93573216521E+007, +3.43576971933E+001, +4.29872912875E+002
+2.94823529412E+007, +3.43861780982E+001, +4.33285960136E+002
+2.96073842303E+007, +3.34992347610E+001, +4.34640902562E+002
+2.97324155194E+007, +3.49092405012E+001, +4.37371739671E+002
+2.98574468085E+007, +3.37365458414E+001, +4.40550238071E+002
+2.99824780976E+007, +3.42079512412E+001, +4.43362056668E+002
+3.01075093867E+007, +3.48016537259E+001, +4.44303641911E+002
+3.02325406758E+007, +3.45005921082E+001, +4.47359039691E+002
+3.03575719650E+007, +3.44645566840E+001, +4.49347574849E+002
+3.04826032541E+007, +3.48605438325E+001, +4.52046222458E+002
+3.06076345432E+007, +3.39057813944E+001, +4.55051281579E+002
+3.07326658323E+007, +3.57444736772E+001, +4.56589384998E+002
+3.08576971214E+007, +3.50721538957E+001, +4.59530244074E+002
+3.09827284105E+007, +3.45694169098E+001, +4.62600254232E+002
+3.11077596996E+007, +3.48607938464E+001, +4.64363803206E+002
+3.12327909887E+007, +3.55866414242E+001, +4.67653780138E+002
+3.13578222778E+007, +3.47404846831E+001, +4.69852269205E+002
+3.14828535670E+007, +3.57323756381E+001, +4.72496261854E+002
+3.16078848561E+007, +3.59081305976E+001, +4.75333438282E+002
+3.17329161452E+007, +3.61401568697E+001, +4.77421200517E+002
+3.18579474343E+007, +3.59677634522E+001, +4.79964422963E+002
+3.19829787234E+007, +3.54109836916E+001, +4.81972364964E+002
+3.21080100125E+007, +3.63214578520E+001, +4.84294537546E+002
+3.22330413016E+007, +3.72436437522E+001, +4.88587217835E+002
+3.23580725907E+007, +3.50127719145E+001, +4.88957812840E+002
+3.24831038798E+007, +3.61438039414E+001, +4.92150391177E+002
+3.26081351690E+007, +3.67028435371E+001, +4.95755182318E+002
+3.27331664581E+007, +3.60383655664E+001, +4.96032663221E+002
+3.28581977472E+007, +3.69140166276E+001, +5.00864171041E+002
+3.29832290363E+007, +3.70128549814E+001, +5.02647246115E+002
+3.31082603254E+007, +3.76058995971E+001, +5.06259919330E+002
+3.32332916145E+007, +3.80527811582E+001, +5.08358629094E+002
+3.33583229036E+007, +3.61448075548E+001, +5.10047844440E+002
+3.34833541927E+007, +3.56079057108E+001, +5.13172156120E+002
+3.36083854819E+007, +3.68013682719E+001, +5.16517158917E+002
+3.37334167710E+007, +3.78254660963E+001, +5.17771509967E+002
+3.38584480601E+007, +3.88337870736E+001, +5.21315732198E+002
+3.39834793492E+007, +3.70622904486E+001, +5.24552175144E+002
+3.41085106383E+007, +3.69500596186E+001, +5.26373050168E+002
+3.42335419274E+007, +3.85122007380E+001, +5.29210733980E+002
+3.43585732165E+007, +3.77102188709E+001, +5.33129861333E+002
+3.44836045056E+007, +3.72298284708E+001, +5.34087504637E+002
+3.46086357947E+007, +4.00223130554E+001, +5.38505426210E+002
+3.47336670839E+007, +3.88300022643E+001, +5.40182899042E+002
+3.48586983730E+007, +3.88020520725E+001, +5.42389351977E+002
+3.49837296621E+007, +3.93309851335E+001, +5.46072060156E+002
+3.51087609512E+007, +3.81246196035E+001, +5.49086539057E+002
+3.52337922403E+007, +3.84862350478E+001, +5.51518314628E+002
+3.53588235294E+007, +3.98730275195E+001, +5.56179954478E+002
+3.54838548185E+007, +3.75067407565E+001, +5.59070717856E+002
+3.56088861076E+007, +3.89765813060E+001, +5.61147499184E+002
+3.57339173967E+007, +3.91438562108E+001, +5.62144375060E+002
+3.58589486859E+007, +3.86849303619E+001, +5.66550605877E+002
+3.59839799750E+007, +3.91939597773E+001, +5.70149146181E+002
+3.61090112641E+007, +3.94151181304E+001, +5.73896732292E+002
+3.62340425532E+007, +4.00207666732E+001, +5.74215189579E+002
+3.63590738423E+007, +4.16756076443E+001, +5.76647214321E+002
+3.64841051314E+007, +4.10108084596E+001, +5.80527906032E+002
+3.66091364205E+007, +4.09973471749E+001, +5.84394360793E+002
+3.67341677096E+007, +3.98648692433E+001, +5.86343368136E+002
+3.68591989987E+007, +4.10287328113E+001, +5.90109436116E+002
+3.69842302879E+007, +4.11644347167E+001, +5.93833051017E+002
+3.71092615770E+007, +4.23887007808E+001, +5.95706913460E+002
+3.72342928661E+007, +4.17328815158E+001, +6.01726418652E+002
+3.73593241552E+007, +4.07965058870E+001, +6.04046041441E+002
+3.74843554443E+007, +4.21333822264E+001, +6.03854132096E+002
+3.76093867334E+007, +4.20050341788E+001, +6.09032451060E+002
+3.77344180225E+007, +4.22499609381E+001, +6.09184010072E+002
+3.78594493116E+007, +4.18813787311E+001, +6.15134791978E+002
+3.79844806008E+007, +4.17683603383E+001, +6.19097956059E+002
+3.81095118899E+007, +4.12345171198E+001, +6.19920796080E+002
+3.82345431790E+007, +4.27234076334E+001, +6.23284034831E+002
+3.83595744681E+007, +4.31787656844E+001, +6.26740985713E+002
+3.84846057572E+007, +4.31555166819E+001, +6.33738566959E+002
+3.86096370463E+007, +4.29034368549E+001, +6.32154882847E+002
+3.87346683354E+007, +4.41921710827E+001, +6.37893056660E+002
+3.88596996245E+007, +4.24400748868E+001, +6.40725316979E+002
+3.89847309136E+007, +4.42891693553E+001, +6.44827797440E+002
+3.91097622028E+007, +4.29675411071E+001, +6.46092253201E+002
+3.92347934919E+007, +4.48266169435E+001, +6.50505349652E+002
+3.93598247810E+007, +4.26809503593E+001, +6.54425316734E+002
+3.94848560701E+007, +4.30208888743E+001, +6.56458110337E+002
+3.96098873592E+007, +4.35723302408E+001, +6.60907546415E+002
+3.97349186483E+007, +4.43316522957E+001, +6.64625246089E+002
+3.98599499374E+007, +4.61716919259E+001, +6.69565502573E+002
+3.99849812265E+007, +4.43700462928E+001, +6.70700030706E+002
+4.01100125156E+007, +4.68719725544E+001, +6.75634138834E+002
