"# Channel 1"
"# Trace 1"
Frequency, Formatted Data, Formatted Data
+1.00000000000E+005, +6.00226756482E+001, +1.08271991864E+000
+2.25031289111E+005, +5.99569891899E+001, +3.16821050080E+000
+3.50062578223E+005, +5.99437988210E+001, +4.92749831725E+000
+4.75093867334E+005, +6.01518811796E+001, +6.60069358269E+000
+6.00125156446E+005, +6.01492575103E+001, +8.35412977823E+000
+7.25156445557E+005, +6.01801496180E+001, +9.96923536533E+000
+8.50187734668E+005, +6.02254309249E+001, +1.17273411282E+001
+9.75219023780E+005, +6.03547152844E+001, +1.33662795491E+001
+1.10025031289E+006, +6.03292388190E+001, +1.50474240254E+001
+1.22528160200E+006, +6.04017637167E+001, +1.67114753010E+001
+1.35031289111E+006, +6.03561853994E+001, +1.85017182673E+001
+1.47534418023E+006, +6.05230532958E+001, +2.00102438746E+001
+1.60037546934E+006, +6.05107363852E+001, +2.15886495381E+001
+1.72540675845E+006, +6.04876911209E+001, +2.33630373306E+001
+1.85043804756E+006, +6.04569434152E+001, +2.50309595026E+001
+1.97546933667E+006, +6.06753229331E+001, +2.66344573709E+001
+2.10050062578E+006, +6.05967854144E+001, +2.83844490274E+001
+2.22553191489E+006, +6.05719184063E+001, +2.99593032482E+001
+2.35056320401E+006, +6.06916196012E+001, +3.16857503604E+001
+2.47559449312E+006, +6.08038844306E+001, +3.32598715543E+001
+2.60062578223E+006, +6.07716569587E+001, +3.49214672046E+001
+2.72565707134E+006, +6.08416220771E+001, +3.65417409759E+001
+2.85068836045E+006, +6.08359476494E+001, +3.82634519710E+001
+2.97571964956E+006, +6.09163101700E+001, +3.98523085098E+001
+3.10075093867E+006, +6.09699281513E+001, +4.16311539136E+001
+3.22578222778E+006, +6.09165472529E+001, +4.31703522741E+001
+3.35081351690E+006, +6.09698635960E+001, +4.48482846342E+001
+3.47584480601E+006, +6.09211800513E+001, +4.63084513911E+001
+3.60087609512E+006, +6.10958069313E+001, +4.80815205009E+001
+3.72590738423E+006, +6.10639127021E+001, +4.95828627329E+001
+3.85093867334E+006, +6.09991596510E+001, +5.13072445493E+001
+3.97596996245E+006, +6.09216457008E+001, +5.30437569339E+001
+4.10100125156E+006, +6.09984395975E+001, +5.47625618664E+001
+4.22603254068E+006, +6.11461484927E+001, +5.64307518826E+001
+4.35106382979E+006, +6.12208864623E+001, +5.80663722149E+001
+4.47609511890E+006, +6.13155905190E+001, +5.96464093716E+001
+4.60112640801E+006, +6.13260096487E+001, +6.13291664178E+001
+4.72615769712E+006, +6.13517727481E+001, +6.29619037302E+001
+4.85118898623E+006, +6.13775031417E+001, +6.45835636483E+001
+4.97622027534E+006, +6.13835493185E+001, +6.62878371967E+001
+5.10125156446E+006, +6.13553947106E+001, +6.79899536024E+001
+5.22628285357E+006, +6.13897144006E+001, +6.95033953848E+001
+5.35131414268E+006, +6.14348836776E+001, +7.11299798075E+001
+5.47634543179E+006, +6.14419204928E+001, +7.28820799532E+001
+5.60137672090E+006, +6.13752481674E+001, +7.45048588717E+001
+5.72640801001E+006, +6.16648671107E+001, +7.61314047919E+001
+5.85143929912E+006, +6.17654866442E+001, +7.77976642837E+001
+5.97647058824E+006, +6.16387223637E+001, +7.93951051279E+001
+6.10150187735E+006, +6.19038011391E+001, +8.10970161103E+001
+6.22653316646E+006, +6.18130002785E+001, +8.26942282657E+001
+6.35156445557E+006, +6.18748670045E+001, +8.44713267395E+001
+6.47659574468E+006, +6.18029181696E+001, +8.61395533854E+001
+6.60162703379E+006, +6.18529613493E+001, +8.77887024981E+001
+6.72665832290E+006, +6.19963555027E+001, +8.93741805198E+001
+6.85168961202E+006, +6.20526392973E+001, +9.10323818885E+001
+6.97672090113E+006, +6.20843096468E+001, +9.28151420446E+001
+7.10175219024E+006, +6.20760908656E+001, +9.44773597730E+001
+7.22678347935E+006, +6.21624144559E+001, +9.61452560036E+001
+7.35181476846E+006, +6.21873130305E+001, +9.77724238678E+001
+7.47684605757E+006, +6.22277463204E+001, +9.94985317704E+001
+7.60187734668E+006, +6.23134697297E+001, +1.01177690577E+002
+7.72690863579E+006, +6.22146362934E+001, +1.02815203671E+002
+7.85193992491E+006, +6.23904948571E+001, +1.04446410947E+002
+7.97697121402E+006, +6.25185067361E+001, +1.06109051759E+002
+8.10200250313E+006, +6.25902367974E+001, +1.07848790924E+002
+8.22703379224E+006, +6.24515504158E+001, +1.09535935113E+002
+8.35206508135E+006, +6.25264662315E+001, +1.11250896058E+002
+8.47709637046E+006, +6.24760439001E+001, +1.12859925463E+002
+8.60212765957E+006, +6.26739789873E+001, +1.14587907658E+002
+8.72715894869E+006, +6.26627356377E+001, +1.16220608223E+002
+8.85219023780E+006, +6.26599457406E+001, +1.17871858861E+002
+8.97722152691E+006, +6.28515223181E+001, +1.19584760989E+002
+9.10225281602E+006, +6.27767662336E+001, +1.21410424133E+002
+9.22728410513E+006, +6.30467920387E+001, +1.22863285243E+002
+9.35231539424E+006, +6.28832999372E+001, +1.24759557868E+002
+9.47734668335E+006, +6.28942823185E+001, +1.26239703700E+002
+9.60237797247E+006, +6.29393257185E+001, +1.28095044644E+002
+9.72740926158E+006, +6.31639015815E+001, +1.29744249920E+002
+9.85244055069E+006, +6.31406274383E+001, +1.31539056738E+002
+9.97747183980E+006, +6.32412218777E+001, +1.33208047217E+002
+1.01025031289E+007, +6.31502467226E+001, +1.34973091889E+002
+1.02275344180E+007, +6.32947878571E+001, +1.36687164384E+002
+1.03525657071E+007, +6.34181328909E+001, +1.38253438758E+002
+1.04775969962E+007, +6.34191464141E+001, +1.40004634400E+002
+1.06026282854E+007, +6.33902641610E+001, +1.41748103963E+002
+1.07276595745E+007, +6.33956197136E+001, +1.43395823768E+002
+1.08526908636E+007, +6.34915273870E+001, +1.45086440297E+002
+1.09777221527E+007, +6.36972048417E+001, +1.46919838088E+002
+1.11027534418E+007, +6.35589645741E+001, +1.48561602344E+002
+1.12277847309E+007, +6.37556973979E+001, +1.50344526623E+002
+1.13528160200E+007, +6.39230010563E+001, +1.51994688054E+002
+1.14778473091E+007, +6.39174488259E+001, +1.53681030051E+002
+1.16028785982E+007, +6.37920712826E+001, +1.55603959398E+002
+1.17279098874E+007, +6.40682530883E+001, +1.57384143468E+002
+1.18529411765E+007, +6.41382061496E+001, +1.59125532674E+002
+1.19779724656E+007, +6.41216287605E+001, +1.60697454516E+002
+1.21030037547E+007, +6.42314676677E+001, +1.62412486440E+002
+1.22280350438E+007, +6.41818348891E+001, +1.64217161060E+002
+1.23530663329E+007, +6.42186194991E+001, +1.65969786508E+002
+1.24780976220E+007, +6.43193123275E+001, +1.67711792670E+002
+1.26031289111E+007, +6.44136574146E+001, +1.69557544722E+002
+1.27281602003E+007, +6.43271749353E+001, +1.71266412685E+002
+1.28531914894E+007, +6.43585590335E+001, +1.72942323601E+002
+1.29782227785E+007, +6.47178898431E+001, +1.74934782683E+002
+1.31032540676E+007, +6.46115362878E+001, +1.76394303800E+002
+1.32282853567E+007, +6.47960451573E+001, +1.78392684251E+002
+1.33533166458E+007, +6.48358230595E+001, +1.79979341537E+002
+1.34783479349E+007, +6.51425369875E+001, +1.81838023159E+002
+1.36033792240E+007, +6.50165521804E+001, +1.83436396631E+002
+1.37284105131E+007, +6.47909947887E+001, +1.85211383638E+002
+1.38534418023E+007, +6.51283592206E+001, +1.87126883028E+002
+1.39784730914E+007, +6.49373162323E+001, +1.88733974023E+002
+1.41035043805E+007, +6.54702177832E+001, +1.90647804316E+002
+1.42285356696E+007, +6.54423694807E+001, +1.92534155050E+002
+1.43535669587E+007, +6.54769403575E+001, +1.94237730217E+002
+1.44785982478E+007, +6.56229876634E+001, +1.95926088883E+002
+1.46036295369E+007, +6.56780705661E+001, +1.97810585810E+002
+1.47286608260E+007, +6.56458466722E+001, +1.99576420170E+002
+1.48536921151E+007, +6.56058989235E+001, +2.01552669743E+002
+1.49787234043E+007, +6.57730993300E+001, +2.02947030507E+002
+1.51037546934E+007, +6.56463686079E+001, +2.04939990106E+002
+1.52287859825E+007, +6.57881309263E+001, +2.06771702624E+002
+1.53538172716E+007, +6.59286917825E+001, +2.08352962416E+002
+1.54788485607E+007, +6.60872008323E+001, +2.10556149761E+002
+1.56038798498E+007, +6.65620205505E+001, +2.12038992706E+002
+1.57289111389E+007, +6.63164876938E+001, +2.13887466859E+002
+1.58539424280E+007, +6.61815946859E+001, +2.15662680476E+002
+1.59789737171E+007, +6.65396547954E+001, +2.17487011330E+002
+1.61040050063E+007, +6.65354671682E+001, +2.19522688113E+002
+1.62290362954E+007, +6.64698090811E+001, +2.21357764169E+002
+1.63540675845E+007, +6.67268765823E+001, +2.23143566969E+002
+1.64790988736E+007, +6.67647439449E+001, +2.25225413411E+002
+1.66041301627E+007, +6.68312325747E+001, +2.26902758514E+002
+1.67291614518E+007, +6.66296105971E+001, +2.28798409861E+002
+1.68541927409E+007, +6.71761607777E+001, +2.30389647690E+002
+1.69792240300E+007, +6.69542678771E+001, +2.32310313270E+002
+1.71042553191E+007, +6.66715014898E+001, +2.34360638222E+002
+1.72292866083E+007, +6.67966585156E+001, +2.36231070940E+002
+1.73543178974E+007, +6.75336344108E+001, +2.38220411992E+002
+1.74793491865E+007, +6.69984572316E+001, +2.39880281407E+002
+1.76043804756E+007, +6.75914838061E+001, +2.41826037643E+002
+1.77294117647E+007, +6.72128881020E+001, +2.43688100923E+002
+1.78544430538E+007, +6.76471852551E+001, +2.45573023935E+002
+1.79794743429E+007, +6.75814633244E+001, +2.47295182306E+002
+1.81045056320E+007, +6.80112029277E+001, +2.49354621829E+002
+1.82295369212E+007, +6.76223944646E+001, +2.51141566381E+002
+1.83545682103E+007, +6.80989074134E+001, +2.53304683522E+002
+1.84795994994E+007, +6.81121914255E+001, +2.54781688063E+002
+1.86046307885E+007, +6.81869641377E+001, +2.56688376532E+002
+1.87296620776E+007, +6.85544033705E+001, +2.58507350797E+002
+1.88546933667E+007, +6.83233311040E+001, +2.60630002688E+002
+1.89797246558E+007, +6.87077807398E+001, +2.62599538034E+002
+1.91047559449E+007, +6.89308493719E+001, +2.64683147333E+002
+1.92297872340E+007, +6.85877600271E+001, +2.66080143628E+002
+1.93548185232E+007, +6.93053019614E+001, +2.67841027702E+002
+1.94798498123E+007, +6.91759144269E+001, +2.69870398618E+002
+1.96048811014E+007, +6.92800406428E+001, +2.72320784923E+002
+1.97299123905E+007, +6.93774142745E+001, +2.73965935902E+002
+1.98549436796E+007, +6.94869286187E+001, +2.76450605367E+002
+1.99799749687E+007, +6.93902939237E+001, +2.77973040775E+002
+2.01050062578E+007, +6.97841758504E+001, +2.80071334304E+002
+2.02300375469E+007, +7.00183271403E+001, +2.81606198389E+002
+2.03550688360E+007, +6.95296566659E+001, +2.83920494242E+002
+2.04801001252E+007, +6.99962855342E+001, +2.85760065395E+002
+2.06051314143E+007, +6.98045111979E+001, +2.87884768248E+002
+2.07301627034E+007, +6.97778506227E+001, +2.89874113844E+002
+2.08551939925E+007, +7.08656448485E+001, +2.92107062069E+002
+2.09802252816E+007, +7.03224507688E+001, +2.92950347640E+002
+2.11052565707E+007, +7.03564454090E+001, +2.95209452503E+002
+2.12302878598E+007, +7.08893140046E+001, +2.97410955689E+002
+2.13553191489E+007, +7.09376701899E+001, +2.99287099128E+002
+2.14803504380E+007, +7.07141306501E+001, +3.01620711379E+002
+2.16053817272E+007, +7.15116304621E+001, +3.02910956912E+002
+2.17304130163E+007, +7.16884112063E+001, +3.05411065841E+002
+2.18554443054E+007, +7.08341600938E+001, +3.06932706358E+002
+2.19804755945E+007, +7.10349303407E+001, +3.09709268913E+002
+2.21055068836E+007, +7.13164040706E+001, +3.12028156366E+002
+2.22305381727E+007, +7.21014828768E+001, +3.13745153205E+002
+2.23555694618E+007, +7.13295289886E+001, +3.15353065192E+002
+2.24806007509E+007, +7.19904770471E+001, +3.16657165907E+002
+2.26056320401E+007, +7.20554396037E+001, +3.19736992514E+002
+2.27306633292E+007, +7.23747559678E+001, +3.21748570145E+002
+2.28556946183E+007, +7.23026092167E+001, +3.23928675024E+002
+2.29807259074E+007, +7.20925932443E+001, +3.25931933779E+002
+2.31057571965E+007, +7.32205877603E+001, +3.28375943182E+002
+2.32307884856E+007, +7.29650271021E+001, +3.30729360303E+002
+2.33558197747E+007, +7.33042353426E+001, +3.31592125540E+002
+2.34808510638E+007, +7.29555119609E+001, +3.33672260873E+002
+2.36058823529E+007, +7.37107340999E+001, +3.36270724205E+002
+2.37309136421E+007, +7.29763006246E+001, +3.38740779010E+002
+2.38559449312E+007, +7.39083019122E+001, +3.40503774999E+002
+2.39809762203E+007, +7.40049844790E+001, +3.42718977943E+002
+2.41060075094E+007, +7.34850855734E+001, +3.44438791040E+002
+2.42310387985E+007, +7.44495770627E+001, +3.46687265819E+002
+2.43560700876E+007, +7.41583444165E+001, +3.48842331086E+002
+2.44811013767E+007, +7.50794302267E+001, +3.50761876191E+002
+2.46061326658E+007, +7.48282858355E+001, +3.52933364053E+002
+2.47311639549E+007, +7.48438791726E+001, +3.55562550347E+002
+2.48561952441E+007, +7.51999830815E+001, +3.57761986236E+002
+2.49812265332E+007, +7.50846695232E+001, +3.59904815963E+002
+2.51062578223E+007, +7.54948787222E+001, +3.61618497208E+002
+2.52312891114E+007, +7.59756005957E+001, +3.63967938183E+002
+2.53563204005E+007, +7.54071297195E+001, +3.66236812933E+002
+2.54813516896E+007, +7.52064219268E+001, +3.68770829913E+002
+2.56063829787E+007, +7.59488629632E+001, +3.71026705127E+002
+2.57314142678E+007, +7.61870758589E+001, +3.72020838157E+002
+2.58564455569E+007, +7.64932037706E+001, +3.73919348338E+002
+2.59814768461E+007, +7.68943992954E+001, +3.77365070836E+002
+2.61065081352E+007, +7.72515692644E+001, +3.79817329243E+002
+2.62315394243E+007, +7.69197422777E+001, +3.82279813648E+002
+2.63565707134E+007, +7.68582220748E+001, +3.84263347934E+002
+2.64816020025E+007, +7.72799656139E+001, +3.85666261116E+002
+2.66066332916E+007, +7.81347086300E+001, +3.88060002568E+002
+2.67316645807E+007, +7.76798017805E+001, +3.90091775595E+002
+2.68566958698E+007, +7.80399561391E+001, +3.92514561965E+002
+2.69817271589E+007, +7.77089285754E+001, +3.94809664658E+002
+2.71067584481E+007, +7.84123160539E+001, +3.97178472063E+002
+2.72317897372E+007, +7.84650797635E+001, +4.00442677088E+002
+2.73568210263E+007, +7.77839571862E+001, +4.01954042383E+002
+2.74818523154E+007, +7.86373655933E+001, +4.03892766799E+002
+2.76068836045E+007, +7.88828709224E+001, +4.05783734818E+002
+2.77319148936E+007, +7.85980146023E+001, +4.09532165199E+002
+2.78569461827E+007, +7.97024513316E+001, +4.11394825714E+002
+2.79819774718E+007, +8.00174542356E+001, +4.12636220205E+002
+2.81070087610E+007, +7.96398330375E+001, +4.15381138736E+002
+2.82320400501E+007, +8.00834060427E+001, +4.17796429931E+002
+2.83570713392E+007, +8.03204732486E+001, +4.19255182813E+002
+2.84821026283E+007, +7.99142162531E+001, +4.21418940200E+002
+2.86071339174E+007, +8.01075895508E+001, +4.24275852431E+002
+2.87321652065E+007, +8.12158865507E+001, +4.27124262446E+002
+2.88571964956E+007, +8.03587194192E+001, +4.29475085042E+002
+2.89822277847E+007, +8.08724758857E+001, +4.32276781338E+002
+2.91072590738E+007, +8.10112519740E+001, +4.35183485773E+002
+2.92322903630E+007, +8.03284379843E+001, +4.37541912965E+002
+2.93573216521E+007, +8.09355472177E+001, +4.39553239897E+002
+2.94823529412E+007, +8.02450707431E+001, +4.41003007644E+002
+2.96073842303E+007, +8.21522327532E+001, +4.43243508921E+002
+2.97324155194E+007, +8.18925818329E+001, +4.45527766905E+002
+2.98574468085E+007, +8.23790319873E+001, +4.49448109890E+002
+2.99824780976E+007, +8.05781161052E+001, +4.50938107962E+002
+3.01075093867E+007, +8.28122642925E+001, +4.54643617308E+002
+3.02325406758E+007, +8.31467509051E+001, +4.56810458466E+002
+3.03575719650E+007, +8.35346559767E+001, +4.58073083714E+002
+3.04826032541E+007, +8.39395647821E+001, +4.60435672196E+002
+3.06076345432E+007, +8.34362093683E+001, +4.64161575001E+002
+3.07326658323E+007, +8.41459307102E+001, +4.67014140691E+002
+3.08576971214E+007, +8.47946481730E+001, +4.68950192923E+002
+3.09827284105E+007, +8.44403767896E+001, +4.72179354798E+002
+3.11077596996E+007, +8.51716560155E+001, +4.74420816779E+002
+3.12327909887E+007, +8.48555958529E+001, +4.75973736862E+002
+3.13578222778E+007, +8.49829556174E+001, +4.77863174345E+002
+3.14828535670E+007, +8.59929543377E+001, +4.80706313985E+002
+3.16078848561E+007, +8.46393087446E+001, +4.83331328071E+002
+3.17329161452E+007, +8.50775979111E+001, +4.86826009172E+002
+3.18579474343E+007, +8.56721556756E+001, +4.89647456742E+002
+3.19829787234E+007, +8.55173718119E+001, +4.92372776641E+002
+3.21080100125E+007, +8.75998533555E+001, +4.94867667005E+002
+3.22330413016E+007, +8.51941280563E+001, +4.98310479951E+002
+3.23580725907E+007, +8.84179562483E+001, +5.00308848755E+002
+3.24831038798E+007, +8.67586365448E+001, +5.03762002658E+002
+3.26081351690E+007, +8.67708983714E+001, +5.05260093769E+002
+3.27331664581E+007, +8.75728553462E+001, +5.07800317705E+002
+3.28581977472E+007, +8.82523775331E+001, +5.11658240378E+002
+3.29832290363E+007, +8.79178417373E+001, +5.15223736544E+002
+3.31082603254E+007, +8.72637029573E+001, +5.16627825835E+002
+3.32332916145E+007, +8.84552965415E+001, +5.18786994351E+002
+3.33583229036E+007, +8.91284895773E+001, +5.20030181840E+002
+3.34833541927E+007, +8.95520679904E+001, +5.25479596543E+002
+3.36083854819E+007, +8.96294136719E+001, +5.27988420052E+002
+3.37334167710E+007, +8.92688516173E+001, +5.29623227457E+002
+3.38584480601E+007, +9.06980094274E+001, +5.32868526776E+002
+3.39834793492E+007, +8.96380150017E+001, +5.36282912282E+002
+3.41085106383E+007, +9.02365069665E+001, +5.37932493791E+002
+3.42335419274E+007, +9.19195630364E+001, +5.41403344308E+002
+3.43585732165E+007, +9.09465167915E+001, +5.43006256748E+002
+3.44836045056E+007, +9.06359553199E+001, +5.45330590947E+002
+3.46086357947E+007, +9.10842095070E+001, +5.49637957908E+002
+3.47336670839E+007, +9.16406068621E+001, +5.53042994330E+002
+3.48586983730E+007, +9.08347113465E+001, +5.55470876655E+002
+3.49837296621E+007, +9.29679332200E+001, +5.58302740393E+002
+3.51087609512E+007, +9.19607473398E+001, +5.61537667393E+002
+3.52337922403E+007, +9.32933490217E+001, +5.65705653942E+002
+3.53588235294E+007, +9.31210878641E+001, +5.67298616987E+002
+3.54838548185E+007, +9.42632144151E+001, +5.70499589899E+002
+3.56088861076E+007, +9.41194383817E+001, +5.71888907222E+002
+3.57339173967E+007, +9.45534129853E+001, +5.76128703909E+002
+3.58589486859E+007, +9.53546313897E+001, +5.78140155040E+002
+3.59839799750E+007, +9.33940129511E+001, +5.82217167257E+002
+3.61090112641E+007, +9.53255027236E+001, +5.84027804141E+002
+3.62340425532E+007, +9.62906306977E+001, +5.88018127922E+002
+3.63590738423E+007, +9.46637025970E+001, +5.90953491200E+002
+3.64841051314E+007, +9.63740339214E+001, +5.93973878979E+002
+3.66091364205E+007, +9.84612735656E+001, +5.96882763158E+002
+3.67341677096E+007, +1.00631659567E+002, +6.00065658457E+002
+3.68591989987E+007, +9.69954685457E+001, +6.03881055071E+002
+3.69842302879E+007, +9.77011623131E+001, +6.07473740432E+002
+3.71092615770E+007, +9.69388222692E+001, +6.10913655045E+002
+3.72342928661E+007, +9.70129187583E+001, +6.13756968740E+002
+3.73593241552E+007, +9.74822083128E+001, +6.16252627053E+002
+3.74843554443E+007, +9.92283873760E+001, +6.19290969425E+002
+3.76093867334E+007, +9.98743340988E+001, +6.22925855028E+002
+3.77344180225E+007, +9.97855328738E+001, +6.26454601874E+002
+3.78594493116E+007, +1.02883898032E+002, +6.30459541790E+002
+3.79844806008E+007, +1.00336217701E+002, +6.33699937441E+002
+3.81095118899E+007, +1.01245449437E+002, +6.35872935956E+002
+3.82345431790E+007, +1.04630055097E+002, +6.38817606906E+002
+3.83595744681E+007, +1.02462054888E+002, +6.41777173763E+002
+3.84846057572E+007, +1.03028157326E+002, +6.46183476962E+002
+3.86096370463E+007, +1.02260225664E+002, +6.48172434306E+002
+3.87346683354E+007, +1.07559071149E+002, +6.50675850870E+002
+3.88596996245E+007, +1.05146147166E+002, +6.57596131259E+002
+3.89847309136E+007, +1.05472718223E+002, +6.60903827262E+002
+3.91097622028E+007, +1.05565358737E+002, +6.59814456982E+002
+3.92347934919E+007, +1.05817183369E+002, +6.65239664871E+002
+3.93598247810E+007, +1.06392156832E+002, +6.69297968989E+002
+3.94848560701E+007, +1.06947440285E+002, +6.73920920718E+002
+3.96098873592E+007, +1.08247043212E+002, +6.75124324286E+002
+3.97349186483E+007, +1.07131447177E+002, +6.81175157775E+002
+3.98599499374E+007, +1.08562460755E+002, +6.83746050705E+002
+3.99849812265E+007, +1.06870269118E+002, +6.87158517374E+002
+4.01100125156E+007, +1.09436792216E+002, +6.91485741348E+002
