"# Channel 1"
"# Trace 1"
Frequency, Formatted Data, Formatted Data
+1.00000000000E+005, +3.30507370234E+001, +1.25332008204E+000
+2.66777963272E+005, +3.30084584956E+001, +3.68897007522E+000
+4.33555926544E+005, +3.30227252707E+001, +6.03967497762E+000
+6.00333889816E+005, +3.30138569846E+001, +8.30448899749E+000
+7.67111853088E+005, +3.30641806936E+001, +1.06468011286E+001
+9.33889816361E+005, +3.30306426685E+001, +1.29135253470E+001
+1.10066777963E+006, +3.30375701814E+001, +1.52815858305E+001
+1.26744574290E+006, +3.30803773919E+001, +1.76049005985E+001
+1.43422370618E+006, +3.30348250661E+001, +1.99092142460E+001
+1.60100166945E+006, +3.30684020358E+001, +2.21751676239E+001
+1.76777963272E+006, +3.30757610603E+001, +2.44417930056E+001
+1.93455759599E+006, +3.29866943629E+001, +2.67426720630E+001
+2.10133555927E+006, +3.30186836284E+001, +2.90570921626E+001
+2.26811352254E+006, +3.30716375252E+001, +3.13805264086E+001
+2.43489148581E+006, +3.31554806489E+001, +3.37077865225E+001
+2.60166944908E+006, +3.30482152698E+001, +3.59890583979E+001
+2.76844741235E+006, +3.30703845686E+001, +3.83517167004E+001
+2.93522537563E+006, +3.30796903189E+001, +4.06315305389E+001
+3.10200333890E+006, +3.31146617888E+001, +4.28547130565E+001
+3.26878130217E+006, +3.30768204468E+001, +4.52555714581E+001
+3.43555926544E+006, +3.30754890575E+001, +4.75114606834E+001
+3.60233722871E+006, +3.31825655628E+001, +4.98783540556E+001
+3.76911519199E+006, +3.31866580688E+001, +5.21936226133E+001
+3.93589315526E+006, +3.30381088428E+001, +5.44606709006E+001
+4.10267111853E+006, +3.30817657095E+001, +5.69655543811E+001
+4.26944908180E+006, +3.31618757648E+001, +5.93539011070E+001
+4.43622704508E+006, +3.30850236730E+001, +6.15213084045E+001
+4.60300500835E+006, +3.32512145018E+001, +6.39249311537E+001
+4.76978297162E+006, +3.31808293960E+001, +6.61440106380E+001
+4.93656093489E+006, +3.32593715807E+001, +6.85711369643E+001
+5.10333889816E+006, +3.32152384369E+001, +7.07248286599E+001
+5.27011686144E+006, +3.34259227633E+001, +7.31530381617E+001
+5.43689482471E+006, +3.32393532942E+001, +7.54769193161E+001
+5.60367278798E+006, +3.33821839449E+001, +7.78623874506E+001
+5.77045075125E+006, +3.32897543807E+001, +8.00768687654E+001
+5.93722871452E+006, +3.33906028169E+001, +8.25120173916E+001
+6.10400667780E+006, +3.33973958097E+001, +8.49303624076E+001
+6.27078464107E+006, +3.34547492021E+001, +8.71990211973E+001
+6.43756260434E+006, +3.35371753070E+001, +8.95378400193E+001
+6.60434056761E+006, +3.35906211522E+001, +9.18928860914E+001
+6.77111853088E+006, +3.36557866351E+001, +9.41802412291E+001
+6.93789649416E+006, +3.36328248687E+001, +9.65846214608E+001
+7.10467445743E+006, +3.36028640777E+001, +9.89423079301E+001
+7.27145242070E+006, +3.36637271406E+001, +1.01204992458E+002
+7.43823038397E+006, +3.37120668254E+001, +1.03518168300E+002
+7.60500834725E+006, +3.36752006743E+001, +1.05909432161E+002
+7.77178631052E+006, +3.37584821784E+001, +1.08416913257E+002
+7.93856427379E+006, +3.37733828132E+001, +1.10638331068E+002
+8.10534223706E+006, +3.38088583496E+001, +1.13023427946E+002
+8.27212020033E+006, +3.38267526398E+001, +1.15402420471E+002
+8.43889816361E+006, +3.37901363068E+001, +1.17828292116E+002
+8.60567612688E+006, +3.37976910210E+001, +1.20328961799E+002
+8.77245409015E+006, +3.37770260039E+001, +1.22569684645E+002
+8.93923205342E+006, +3.38977898367E+001, +1.25007488869E+002
+9.10601001669E+006, +3.39262913069E+001, +1.27548664266E+002
+9.27278797997E+006, +3.40001855822E+001, +1.29873495674E+002
+9.43956594324E+006, +3.39274588449E+001, +1.32277681427E+002
+9.60634390651E+006, +3.39410306682E+001, +1.34753549469E+002
+9.77312186978E+006, +3.38686653712E+001, +1.37086686153E+002
+9.93989983306E+006, +3.41630124930E+001, +1.39494980894E+002
+1.01066777963E+007, +3.40352488346E+001, +1.41978767514E+002
+1.02734557596E+007, +3.41048519974E+001, +1.44425506840E+002
+1.04402337229E+007, +3.40465960874E+001, +1.46852370839E+002
+1.06070116861E+007, +3.40750698644E+001, +1.49323247792E+002
+1.07737896494E+007, +3.41005055739E+001, +1.51861996510E+002
+1.09405676127E+007, +3.42405872918E+001, +1.54064656380E+002
+1.11073455760E+007, +3.42576027850E+001, +1.56702624695E+002
+1.12741235392E+007, +3.43121250790E+001, +1.59078277809E+002
+1.14409015025E+007, +3.43633055210E+001, +1.61592983094E+002
+1.16076794658E+007, +3.44924850069E+001, +1.64078527664E+002
+1.17744574290E+007, +3.44956835249E+001, +1.66721850287E+002
+1.19412353923E+007, +3.43496508196E+001, +1.69116702618E+002
+1.21080133556E+007, +3.43039843642E+001, +1.71573222742E+002
+1.22747913189E+007, +3.45624832011E+001, +1.74146386541E+002
+1.24415692821E+007, +3.44572411156E+001, +1.76482815864E+002
+1.26083472454E+007, +3.45490422752E+001, +1.79099896755E+002
+1.27751252087E+007, +3.47553393777E+001, +1.81518005099E+002
+1.29419031720E+007, +3.44546062635E+001, +1.84038025503E+002
+1.31086811352E+007, +3.48673341026E+001, +1.86694982699E+002
+1.32754590985E+007, +3.45824242281E+001, +1.89041680022E+002
+1.34422370618E+007, +3.48392614962E+001, +1.91663833024E+002
+1.36090150250E+007, +3.50009861568E+001, +1.94353211176E+002
+1.37757929883E+007, +3.48147964686E+001, +1.96659452552E+002
+1.39425709516E+007, +3.51043534624E+001, +1.99249834356E+002
+1.41093489149E+007, +3.50574112210E+001, +2.01753738649E+002
+1.42761268781E+007, +3.52607771066E+001, +2.04383016910E+002
+1.44429048414E+007, +3.52206750300E+001, +2.06957693312E+002
+1.46096828047E+007, +3.52075353901E+001, +2.09543887174E+002
+1.47764607679E+007, +3.55376868498E+001, +2.12291874440E+002
+1.49432387312E+007, +3.53156597278E+001, +2.14783803275E+002
+1.51100166945E+007, +3.54322846913E+001, +2.17445495461E+002
+1.52767946578E+007, +3.56648835771E+001, +2.20018753414E+002
+1.54435726210E+007, +3.57509333933E+001, +2.22235286215E+002
+1.56103505843E+007, +3.58300036406E+001, +2.25028982944E+002
+1.57771285476E+007, +3.56529142369E+001, +2.27557587430E+002
+1.59439065109E+007, +3.56227376273E+001, +2.30492141876E+002
+1.61106844741E+007, +3.55979512869E+001, +2.33016490035E+002
+1.62774624374E+007, +3.60758603900E+001, +2.35687419015E+002
+1.64442404007E+007, +3.59652540165E+001, +2.38315570037E+002
+1.66110183639E+007, +3.63187871360E+001, +2.40835274056E+002
+1.67777963272E+007, +3.61930617536E+001, +2.43879507987E+002
+1.69445742905E+007, +3.64858387512E+001, +2.46136051505E+002
+1.71113522538E+007, +3.57740147285E+001, +2.48756617574E+002
+1.72781302170E+007, +3.62402937445E+001, +2.51722305543E+002
+1.74449081803E+007, +3.60560998814E+001, +2.54205947218E+002
+1.76116861436E+007, +3.68227600244E+001, +2.57146037654E+002
+1.77784641068E+007, +3.64914093690E+001, +2.59523834119E+002
+1.79452420701E+007, +3.66035036949E+001, +2.62607458404E+002
+1.81120200334E+007, +3.66788632087E+001, +2.64707641953E+002
+1.82787979967E+007, +3.70197183152E+001, +2.68063347915E+002
+1.84455759599E+007, +3.71785499237E+001, +2.70665396854E+002
+1.86123539232E+007, +3.74033597265E+001, +2.73506460481E+002
+1.87791318865E+007, +3.68375441471E+001, +2.76143440189E+002
+1.89459098497E+007, +3.75805829856E+001, +2.79395436085E+002
+1.91126878130E+007, +3.74075742664E+001, +2.81685395734E+002
+1.92794657763E+007, +3.74084415284E+001, +2.84738989326E+002
+1.94462437396E+007, +3.75231096341E+001, +2.87609169175E+002
+1.96130217028E+007, +3.75334634483E+001, +2.90261952351E+002
+1.97797996661E+007, +3.79259249772E+001, +2.93324571878E+002
+1.99465776294E+007, +3.74691731960E+001, +2.95777225033E+002
+2.01133555927E+007, +3.75958342010E+001, +2.98659114917E+002
+2.02801335559E+007, +3.80884916174E+001, +3.01823369343E+002
+2.04469115192E+007, +3.83482196937E+001, +3.04417492363E+002
+2.06136894825E+007, +3.86727237009E+001, +3.07788176126E+002
+2.07804674457E+007, +3.85287542371E+001, +3.10549999490E+002
+2.09472454090E+007, +3.85527720466E+001, +3.13934593002E+002
+2.11140233723E+007, +3.91547300570E+001, +3.15754821967E+002
+2.12808013356E+007, +3.93343843976E+001, +3.19397994821E+002
+2.14475792988E+007, +3.92101174728E+001, +3.22224983202E+002
+2.16143572621E+007, +3.94186429424E+001, +3.25135036422E+002
+2.17811352254E+007, +3.89884758954E+001, +3.27864612116E+002
+2.19479131886E+007, +4.02655192937E+001, +3.30997597987E+002
+2.21146911519E+007, +4.01929954779E+001, +3.33006456488E+002
+2.22814691152E+007, +4.02342468550E+001, +3.36654383359E+002
+2.24482470785E+007, +4.02046785787E+001, +3.39898756529E+002
+2.26150250417E+007, +4.12865345409E+001, +3.42949670442E+002
+2.27818030050E+007, +4.06168183345E+001, +3.45947788118E+002
+2.29485809683E+007, +4.17775608630E+001, +3.48897527598E+002
+2.31153589316E+007, +4.08110547865E+001, +3.52364132097E+002
+2.32821368948E+007, +4.16329953491E+001, +3.54918604172E+002
+2.34489148581E+007, +4.19448911813E+001, +3.57699760564E+002
+2.36156928214E+007, +4.21511443093E+001, +3.61403843778E+002
+2.37824707846E+007, +4.19924559227E+001, +3.63947796167E+002
+2.39492487479E+007, +4.20512899563E+001, +3.66862696068E+002
+2.41160267112E+007, +4.25722278575E+001, +3.70248118195E+002
+2.42828046745E+007, +4.25864483518E+001, +3.73393086085E+002
+2.44495826377E+007, +4.26270059339E+001, +3.76972322953E+002
+2.46163606010E+007, +4.36712346703E+001, +3.78968071526E+002
+2.47831385643E+007, +4.30789615985E+001, +3.83181738088E+002
+2.49499165275E+007, +4.47584785180E+001, +3.86433029564E+002
+2.51166944908E+007, +4.44960278576E+001, +3.89059838539E+002
+2.52834724541E+007, +4.44620327479E+001, +3.93063072672E+002
+2.54502504174E+007, +4.52466286852E+001, +3.95690784372E+002
+2.56170283806E+007, +4.48050853656E+001, +3.97794680012E+002
+2.57838063439E+007, +4.58074962507E+001, +4.02681297198E+002
+2.59505843072E+007, +4.55498482752E+001, +4.05523127329E+002
+2.61173622705E+007, +4.58073688822E+001, +4.08959191233E+002
+2.62841402337E+007, +4.63070177248E+001, +4.11713299291E+002
+2.64509181970E+007, +4.53050807481E+001, +4.15112308397E+002
+2.66176961603E+007, +4.67251211303E+001, +4.19280952910E+002
+2.67844741235E+007, +4.61951089467E+001, +4.21444659724E+002
+2.69512520868E+007, +4.70443416340E+001, +4.25352707369E+002
+2.71180300501E+007, +4.65969173070E+001, +4.27532965119E+002
+2.72848080134E+007, +4.76023221208E+001, +4.31723793019E+002
+2.74515859766E+007, +4.84072085199E+001, +4.35177101096E+002
+2.76183639399E+007, +4.81227250192E+001, +4.38419665015E+002
+2.77851419032E+007, +4.65872009926E+001, +4.41515091938E+002
+2.79519198664E+007, +4.85114397183E+001, +4.45223754266E+002
+2.81186978297E+007, +4.84001575351E+001, +4.47842123100E+002
+2.82854757930E+007, +4.88456890420E+001, +4.51497640947E+002
+2.84522537563E+007, +4.72954613024E+001, +4.56035603383E+002
+2.86190317195E+007, +4.85436649898E+001, +4.59509404303E+002
+2.87858096828E+007, +4.88906010956E+001, +4.61869464800E+002
+2.89525876461E+007, +4.96951727903E+001, +4.66189974556E+002
+2.91193656093E+007, +4.96693988942E+001, +4.69015724054E+002
+2.92861435726E+007, +4.85887782389E+001, +4.72707710391E+002
+2.94529215359E+007, +4.98205115525E+001, +4.76362622780E+002
+2.96196994992E+007, +5.12784702029E+001, +4.80191102277E+002
+2.97864774624E+007, +5.21877604007E+001, +4.83657274339E+002
+2.99532554257E+007, +5.12234076761E+001, +4.87920391039E+002
+3.01200333890E+007, +5.07763617937E+001, +4.91011042293E+002
+3.02868113523E+007, +5.09654399596E+001, +4.95323705006E+002
+3.04535893155E+007, +5.17430652880E+001, +4.99874384743E+002
+3.06203672788E+007, +5.10922482903E+001, +5.02034609726E+002
+3.07871452421E+007, +5.23628854956E+001, +5.06561671813E+002
+3.09539232053E+007, +5.33484723941E+001, +5.09670436691E+002
+3.11207011686E+007, +5.17798622108E+001, +5.15241834901E+002
+3.12874791319E+007, +5.33812481622E+001, +5.17544428465E+002
+3.14542570952E+007, +5.31232040724E+001, +5.21111640425E+002
+3.16210350584E+007, +5.30736861157E+001, +5.26373937832E+002
+3.17878130217E+007, +5.33837059976E+001, +5.30170328463E+002
+3.19545909850E+007, +5.34378086233E+001, +5.34992105963E+002
+3.21213689482E+007, +5.27418071955E+001, +5.38313390548E+002
+3.22881469115E+007, +5.46254081024E+001, +5.42077896319E+002
+3.24549248748E+007, +5.48725216429E+001, +5.47011116779E+002
+3.26217028381E+007, +5.21928870349E+001, +5.49923282278E+002
+3.27884808013E+007, +5.51396989727E+001, +5.54296609768E+002
+3.29552587646E+007, +5.55150416258E+001, +5.58412035598E+002
+3.31220367279E+007, +5.62588025689E+001, +5.61858745023E+002
+3.32888146912E+007, +5.56981087560E+001, +5.67789133476E+002
+3.34555926544E+007, +5.42946121834E+001, +5.71143945778E+002
+3.36223706177E+007, +5.58433777737E+001, +5.75617254985E+002
+3.37891485810E+007, +5.57872310934E+001, +5.78672385490E+002
+3.39559265442E+007, +5.69220905715E+001, +5.84042366949E+002
+3.41227045075E+007, +5.63219634543E+001, +5.88222913261E+002
+3.42894824708E+007, +5.71953823839E+001, +5.92556785803E+002
+3.44562604341E+007, +5.71690569649E+001, +5.96742786510E+002
+3.46230383973E+007, +5.82071177886E+001, +6.03112840938E+002
+3.47898163606E+007, +5.91636471906E+001, +6.05416354615E+002
+3.49565943239E+007, +6.03413094854E+001, +6.11493064861E+002
+3.51233722871E+007, +6.04085722087E+001, +6.15724151796E+002
+3.52901502504E+007, +6.02726105321E+001, +6.18341593944E+002
+3.54569282137E+007, +5.92440780518E+001, +6.25835589819E+002
+3.56237061770E+007, +5.93788411112E+001, +6.30885252385E+002
+3.57904841402E+007, +6.13452035160E+001, +6.34899938660E+002
+3.59572621035E+007, +6.07150434291E+001, +6.40500646634E+002
+3.61240400668E+007, +6.22502550534E+001, +6.44033997733E+002
+3.62908180301E+007, +6.16973870541E+001, +6.50859505000E+002
+3.64575959933E+007, +6.24147872763E+001, +6.55391938740E+002
+3.66243739566E+007, +6.33489560493E+001, +6.56922104286E+002
+3.67911519199E+007, +6.45589397172E+001, +6.64564465473E+002
+3.69579298831E+007, +6.21997220502E+001, +6.67953212136E+002
+3.71247078464E+007, +6.30484980536E+001, +6.74972290257E+002
+3.72914858097E+007, +6.43979895855E+001, +6.79079851385E+002
+3.74582637730E+007, +6.52074390735E+001, +6.86583944542E+002
+3.76250417362E+007, +6.65123515869E+001, +6.90105433523E+002
+3.77918196995E+007, +6.50970729052E+001, +6.94936529655E+002
+3.79585976628E+007, +6.57609721385E+001, +7.01135682365E+002
+3.81253756260E+007, +6.81242773974E+001, +7.07757258869E+002
+3.82921535893E+007, +6.87306398650E+001, +7.11731760977E+002
+3.84589315526E+007, +6.89648934000E+001, +7.19063693157E+002
+3.86257095159E+007, +6.71235566480E+001, +7.25196943201E+002
+3.87924874791E+007, +6.87723879165E+001, +7.30018403800E+002
+3.89592654424E+007, +6.98630422803E+001, +7.33836182983E+002
+3.91260434057E+007, +7.16024069886E+001, +7.41728277556E+002
+3.92928213689E+007, +7.21962609232E+001, +7.48558743089E+002
+3.94595993322E+007, +7.13394497674E+001, +7.54827089834E+002
+3.96263772955E+007, +7.21531493536E+001, +7.57634521927E+002
+3.97931552588E+007, +7.21539115542E+001, +7.64613230563E+002
+3.99599332220E+007, +7.43058130158E+001, +7.71905504527E+002
+4.01267111853E+007, +7.47404391146E+001, +7.76746871095E+002
+4.02934891486E+007, +7.21166358786E+001, +7.83988054711E+002
+4.04602671119E+007, +7.76087203934E+001, +7.89424210536E+002
+4.06270450751E+007, +7.95238130597E+001, +7.98052532043E+002
+4.07938230384E+007, +7.80064974174E+001, +8.01524047186E+002
+4.09606010017E+007, +7.89424665929E+001, +8.08808709812E+002
+4.11273789649E+007, +7.85922633628E+001, +8.13328147412E+002
+4.12941569282E+007, +7.99612608144E+001, +8.23463105063E+002
+4.14609348915E+007, +8.26291482912E+001, +8.32135623134E+002
+4.16277128548E+007, +8.36853670029E+001, +8.36928927291E+002
+4.17944908180E+007, +8.13746841025E+001, +8.41344400074E+002
+4.19612687813E+007, +8.26838620950E+001, +8.49688927328E+002
+4.21280467446E+007, +8.57725358556E+001, +8.58306842460E+002
+4.22948247078E+007, +8.77071552978E+001, +8.64069473673E+002
+4.24616026711E+007, +8.63668515182E+001, +8.71431441670E+002
+4.26283806344E+007, +8.97654060200E+001, +8.78603794163E+002
+4.27951585977E+007, +8.48775415293E+001, +8.86635114794E+002
+4.29619365609E+007, +9.27477972851E+001, +8.97296558048E+002
+4.31287145242E+007, +9.35280136975E+001, +9.01635754949E+002
+4.32954924875E+007, +9.40400021934E+001, +9.09601287603E+002
+4.34622704508E+007, +9.25045436593E+001, +9.18314337660E+002
+4.36290484140E+007, +9.59365936965E+001, +9.25797089086E+002
+4.37958263773E+007, +9.68154490325E+001, +9.38069074550E+002
+4.39626043406E+007, +1.00287553187E+002, +9.42438618364E+002
+4.41293823038E+007, +1.02212736993E+002, +9.55375135826E+002
+4.42961602671E+007, +1.01454163281E+002, +9.58435360142E+002
+4.44629382304E+007, +9.86083010698E+001, +9.70444026010E+002
+4.46297161937E+007, +1.04591429482E+002, +9.75660827889E+002
+4.47964941569E+007, +1.06866316125E+002, +9.85929395317E+002
+4.49632721202E+007, +1.03428795770E+002, +9.97503960808E+002
+4.51300500835E+007, +1.07479608284E+002, +1.00126624163E+003
+4.52968280467E+007, +1.14125287317E+002, +1.01653593017E+003
+4.54636060100E+007, +1.12912375828E+002, +1.02654374497E+003
+4.56303839733E+007, +1.11352355869E+002, +1.03568118318E+003
+4.57971619366E+007, +1.15725860838E+002, +1.04665237697E+003
+4.59639398998E+007, +1.14691251348E+002, +1.06396921694E+003
+4.61307178631E+007, +1.18427970499E+002, +1.06685077823E+003
+4.62974958264E+007, +1.27632977426E+002, +1.07919548083E+003
+4.64642737896E+007, +1.20655092022E+002, +1.08946552809E+003
+4.66310517529E+007, +1.25931210624E+002, +1.10416685254E+003
+4.67978297162E+007, +1.37499370299E+002, +1.10857906412E+003
+4.69646076795E+007, +1.32858681466E+002, +1.12357135271E+003
+4.71313856427E+007, +1.36872043060E+002, +1.13400448265E+003
+4.72981636060E+007, +1.37833202802E+002, +1.14495692472E+003
+4.74649415693E+007, +1.39629305131E+002, +1.15493481047E+003
+4.76317195326E+007, +1.50014148668E+002, +1.16491149514E+003
+4.77984974958E+007, +1.51530849596E+002, +1.17894660767E+003
+4.79652754591E+007, +1.52797825180E+002, +1.18731393025E+003
+4.81320534224E+007, +1.61613330757E+002, +1.20057800784E+003
+4.82988313856E+007, +1.63859143845E+002, +1.21109864544E+003
+4.84656093489E+007, +1.67807900417E+002, +1.23102730379E+003
+4.86323873122E+007, +1.72598044086E+002, +1.23548477564E+003
+4.87991652755E+007, +1.80465572809E+002, +1.24420429192E+003
+4.89659432387E+007, +1.82487883458E+002, +1.25732991102E+003
+4.91327212020E+007, +1.90144051510E+002, +1.28173148116E+003
+4.92994991653E+007, +1.90492778143E+002, +1.28579424066E+003
+4.94662771285E+007, +2.03372504444E+002, +1.30168333965E+003
+4.96330550918E+007, +2.06684445710E+002, +1.30685665794E+003
+4.97998330551E+007, +2.17765319459E+002, +1.32446834960E+003
+4.99666110184E+007, +2.26097303926E+002, +1.33627881696E+003
+5.01333889816E+007, +2.21954106181E+002, +1.34476061280E+003
+5.03001669449E+007, +2.17442306639E+002, +1.36500881606E+003
+5.04669449082E+007, +2.28496745754E+002, +1.38200956687E+003
+5.06337228715E+007, +2.35787510413E+002, +1.39019784317E+003
+5.08005008347E+007, +2.38981341773E+002, +1.39452667886E+003
+5.09672787980E+007, +2.42246562138E+002, +1.41259425246E+003
+5.11340567613E+007, +2.55740481857E+002, +1.43055351786E+003
+5.13008347245E+007, +2.50776472754E+002, +1.44990290955E+003
+5.14676126878E+007, +2.44397637864E+002, +1.45888615175E+003
+5.16343906511E+007, +2.64701887416E+002, +1.47602565758E+003
+5.18011686144E+007, +2.58637911391E+002, +1.48512295327E+003
+5.19679465776E+007, +2.71700012768E+002, +1.50525190121E+003
+5.21347245409E+007, +2.70230223464E+002, +1.52618534842E+003
+5.23015025042E+007, +2.87509109613E+002, +1.55035442536E+003
+5.24682804674E+007, +2.82572717483E+002, +1.57727510829E+003
+5.26350584307E+007, +2.92759665581E+002, +1.59203055674E+003
+5.28018363940E+007, +2.83981657493E+002, +1.61538132898E+003
+5.29686143573E+007, +3.00104019334E+002, +1.63003530962E+003
+5.31353923205E+007, +2.95718163958E+002, +1.64397316214E+003
+5.33021702838E+007, +3.17340678155E+002, +1.67876313745E+003
+5.34689482471E+007, +3.33352153454E+002, +1.69801100886E+003
