"# Channel 1"
"# Trace 1"
Frequency, Formatted Data, Formatted Data
+1.00000000000E+005, +1.49808798228E+001, +1.29606765579E+000
+2.25031289111E+005, +1.49793605350E+001, +2.94474720775E+000
+3.50062578223E+005, +1.49774840245E+001, +4.56207140172E+000
+4.75093867334E+005, +1.49969672467E+001, +6.14679647439E+000
+6.00125156446E+005, +1.50384283286E+001, +7.73922520758E+000
+7.25156445557E+005, +1.50241650636E+001, +9.35614968495E+000
+8.50187734668E+005, +1.50470154446E+001, +1.09548897960E+001
+9.75219023780E+005, +1.50435475029E+001, +1.25475678581E+001
+1.10025031289E+006, +1.50393348678E+001, +1.41225069315E+001
+1.22528160200E+006, +1.50894436594E+001, +1.57371934957E+001
+1.35031289111E+006, +1.50881263775E+001, +1.73159054762E+001
+1.47534418023E+006, +1.51002217628E+001, +1.89250854861E+001
+1.60037546934E+006, +1.50753342784E+001, +2.05301654462E+001
+1.72540675845E+006, +1.50873033650E+001, +2.21066854064E+001
+1.85043804756E+006, +1.50511154992E+001, +2.37040225494E+001
+1.97546933667E+006, +1.50900832057E+001, +2.52898937545E+001
+2.10050062578E+006, +1.50771446838E+001, +2.68781740303E+001
+2.22553191489E+006, +1.51238398728E+001, +2.84518961049E+001
+2.35056320401E+006, +1.50778037459E+001, +3.00686033468E+001
+2.47559449312E+006, +1.51093233505E+001, +3.16830802786E+001
+2.60062578223E+006, +1.51245200445E+001, +3.32860453360E+001
+2.72565707134E+006, +1.51533740278E+001, +3.48789601769E+001
+2.85068836045E+006, +1.51314834856E+001, +3.65061233203E+001
+2.97571964956E+006, +1.51123407057E+001, +3.80563336773E+001
+3.10075093867E+006, +1.52027166827E+001, +3.97127438946E+001
+3.22578222778E+006, +1.51711628230E+001, +4.12536769836E+001
+3.35081351690E+006, +1.51603482942E+001, +4.28721899172E+001
+3.47584480601E+006, +1.51385229372E+001, +4.44810640001E+001
+3.60087609512E+006, +1.51397650939E+001, +4.61182744620E+001
+3.72590738423E+006, +1.51640764584E+001, +4.77403942107E+001
+3.85093867334E+006, +1.51629551562E+001, +4.92513253596E+001
+3.97596996245E+006, +1.51961412299E+001, +5.08370259491E+001
+4.10100125156E+006, +1.51966759667E+001, +5.25167265910E+001
+4.22603254068E+006, +1.51996197569E+001, +5.40163013584E+001
+4.35106382979E+006, +1.52360005166E+001, +5.56896936339E+001
+4.47609511890E+006, +1.51088803650E+001, +5.73291882133E+001
+4.60112640801E+006, +1.51630288121E+001, +5.88522176675E+001
+4.72615769712E+006, +1.52829582294E+001, +6.05672854046E+001
+4.85118898623E+006, +1.52381172869E+001, +6.20724891216E+001
+4.97622027534E+006, +1.51818253352E+001, +6.36942690203E+001
+5.10125156446E+006, +1.52301085458E+001, +6.52585146295E+001
+5.22628285357E+006, +1.53100934979E+001, +6.69264130064E+001
+5.35131414268E+006, +1.52987306579E+001, +6.85344652477E+001
+5.47634543179E+006, +1.52748254514E+001, +7.00742021340E+001
+5.60137672090E+006, +1.52950486384E+001, +7.18168446763E+001
+5.72640801001E+006, +1.52353781182E+001, +7.34308300484E+001
+5.85143929912E+006, +1.51940543218E+001, +7.48992343750E+001
+5.97647058824E+006, +1.52577462861E+001, +7.66833069313E+001
+6.10150187735E+006, +1.53569900583E+001, +7.82269421967E+001
+6.22653316646E+006, +1.53927905394E+001, +7.97775012410E+001
+6.35156445557E+006, +1.53735821628E+001, +8.14728050694E+001
+6.47659574468E+006, +1.54228394951E+001, +8.31564148914E+001
+6.60162703379E+006, +1.54259249466E+001, +8.47406782060E+001
+6.72665832290E+006, +1.54092787536E+001, +8.63307025469E+001
+6.85168961202E+006, +1.54541094056E+001, +8.79636933105E+001
+6.97672090113E+006, +1.55026497515E+001, +8.97282664104E+001
+7.10175219024E+006, +1.54855050384E+001, +9.12828790018E+001
+7.22678347935E+006, +1.55186101690E+001, +9.28509500132E+001
+7.35181476846E+006, +1.55254973292E+001, +9.45376211884E+001
+7.47684605757E+006, +1.55506329910E+001, +9.61066397578E+001
+7.60187734668E+006, +1.55025414366E+001, +9.77175696490E+001
+7.72690863579E+006, +1.55456159940E+001, +9.94212620011E+001
+7.85193992491E+006, +1.55413828494E+001, +1.01060977332E+002
+7.97697121402E+006, +1.56297680541E+001, +1.02641584169E+002
+8.10200250313E+006, +1.56593161350E+001, +1.04371681592E+002
+8.22703379224E+006, +1.54859200434E+001, +1.05983913233E+002
+8.35206508135E+006, +1.56528404642E+001, +1.07727012665E+002
+8.47709637046E+006, +1.55553252940E+001, +1.09176275383E+002
+8.60212765957E+006, +1.56767778194E+001, +1.10846408812E+002
+8.72715894869E+006, +1.55064577133E+001, +1.12552024001E+002
+8.85219023780E+006, +1.56298396660E+001, +1.14237747518E+002
+8.97722152691E+006, +1.57723320317E+001, +1.15860025191E+002
+9.10225281602E+006, +1.54957104328E+001, +1.17473570799E+002
+9.22728410513E+006, +1.56067869863E+001, +1.19098112718E+002
+9.35231539424E+006, +1.57214737531E+001, +1.20657253727E+002
+9.47734668335E+006, +1.57492278504E+001, +1.22352265611E+002
+9.60237797247E+006, +1.56204011988E+001, +1.24084603824E+002
+9.72740926158E+006, +1.57337057125E+001, +1.25684623019E+002
+9.85244055069E+006, +1.57211599785E+001, +1.27358660550E+002
+9.97747183980E+006, +1.57457359162E+001, +1.29040344175E+002
+1.01025031289E+007, +1.56934434911E+001, +1.30714212315E+002
+1.02275344180E+007, +1.57788563255E+001, +1.32220521267E+002
+1.03525657071E+007, +1.57668135366E+001, +1.34029197552E+002
+1.04775969962E+007, +1.57337103430E+001, +1.35745273637E+002
+1.06026282854E+007, +1.58255052884E+001, +1.37310646610E+002
+1.07276595745E+007, +1.58077168888E+001, +1.38978905551E+002
+1.08526908636E+007, +1.59057346626E+001, +1.40615491333E+002
+1.09777221527E+007, +1.58802549217E+001, +1.42247431728E+002
+1.11027534418E+007, +1.57661872042E+001, +1.44043226590E+002
+1.12277847309E+007, +1.58312235873E+001, +1.45581554524E+002
+1.13528160200E+007, +1.59235169919E+001, +1.47276324099E+002
+1.14778473091E+007, +1.58868972754E+001, +1.48944266606E+002
+1.16028785982E+007, +1.59717980792E+001, +1.50745912168E+002
+1.17279098874E+007, +1.60527864048E+001, +1.52488159797E+002
+1.18529411765E+007, +1.60012024205E+001, +1.54098123475E+002
+1.19779724656E+007, +1.59694947589E+001, +1.55815544492E+002
+1.21030037547E+007, +1.59254898851E+001, +1.57337324681E+002
+1.22280350438E+007, +1.59511409396E+001, +1.59100384259E+002
+1.23530663329E+007, +1.61405068097E+001, +1.60801008619E+002
+1.24780976220E+007, +1.59640058828E+001, +1.62406500988E+002
+1.26031289111E+007, +1.59653891574E+001, +1.64061965212E+002
+1.27281602003E+007, +1.60715667194E+001, +1.65936829892E+002
+1.28531914894E+007, +1.61345161372E+001, +1.67617859929E+002
+1.29782227785E+007, +1.60117151642E+001, +1.69495267328E+002
+1.31032540676E+007, +1.57577748394E+001, +1.71154747393E+002
+1.32282853567E+007, +1.60181602674E+001, +1.72612218625E+002
+1.33533166458E+007, +1.59767969141E+001, +1.74374279528E+002
+1.34783479349E+007, +1.59977401492E+001, +1.76201069158E+002
+1.36033792240E+007, +1.59800524176E+001, +1.77817486927E+002
+1.37284105131E+007, +1.61094606408E+001, +1.79549622836E+002
+1.38534418023E+007, +1.62742754081E+001, +1.81160139979E+002
+1.39784730914E+007, +1.59833208963E+001, +1.83064115656E+002
+1.41035043805E+007, +1.60026751544E+001, +1.84514251631E+002
+1.42285356696E+007, +1.59905593865E+001, +1.86423066125E+002
+1.43535669587E+007, +1.61193777676E+001, +1.88247957293E+002
+1.44785982478E+007, +1.60932652745E+001, +1.89740436017E+002
+1.46036295369E+007, +1.63044037231E+001, +1.91607896025E+002
+1.47286608260E+007, +1.60633754508E+001, +1.93416718480E+002
+1.48536921151E+007, +1.62340308142E+001, +1.95134011130E+002
+1.49787234043E+007, +1.60309390246E+001, +1.96686687198E+002
+1.51037546934E+007, +1.62677068952E+001, +1.98629891712E+002
+1.52287859825E+007, +1.62187310110E+001, +2.00211257900E+002
+1.53538172716E+007, +1.63639963782E+001, +2.02120511488E+002
+1.54788485607E+007, +1.63143687159E+001, +2.03701394740E+002
+1.56038798498E+007, +1.63614639820E+001, +2.05608533410E+002
+1.57289111389E+007, +1.64698785280E+001, +2.07421171157E+002
+1.58539424280E+007, +1.62820013374E+001, +2.09146958611E+002
+1.59789737171E+007, +1.64968262540E+001, +2.10724872893E+002
+1.61040050063E+007, +1.64528805272E+001, +2.13010757980E+002
+1.62290362954E+007, +1.64913855185E+001, +2.14577610740E+002
+1.63540675845E+007, +1.63336817338E+001, +2.16169641188E+002
+1.64790988736E+007, +1.65148021357E+001, +2.17874572777E+002
+1.66041301627E+007, +1.66534756501E+001, +2.19536200512E+002
+1.67291614518E+007, +1.64793007804E+001, +2.21465332308E+002
+1.68541927409E+007, +1.67980447147E+001, +2.23064715708E+002
+1.69792240300E+007, +1.66199371777E+001, +2.24763324822E+002
+1.71042553191E+007, +1.62521190652E+001, +2.26986455692E+002
+1.72292866083E+007, +1.64810959438E+001, +2.28818926630E+002
+1.73543178974E+007, +1.61907639351E+001, +2.30530367344E+002
+1.74793491865E+007, +1.62830309753E+001, +2.31881975332E+002
+1.76043804756E+007, +1.62299138501E+001, +2.33835317121E+002
+1.77294117647E+007, +1.63163933186E+001, +2.36292429234E+002
+1.78544430538E+007, +1.62669558120E+001, +2.37777850924E+002
+1.79794743429E+007, +1.66112802033E+001, +2.39727120860E+002
+1.81045056320E+007, +1.64244431194E+001, +2.41561946605E+002
+1.82295369212E+007, +1.67660464977E+001, +2.43411054794E+002
+1.83545682103E+007, +1.68695436297E+001, +2.45177508143E+002
+1.84795994994E+007, +1.69226237793E+001, +2.46712573629E+002
+1.86046307885E+007, +1.71311976298E+001, +2.48302965924E+002
+1.87296620776E+007, +1.64318656763E+001, +2.50607323704E+002
+1.88546933667E+007, +1.68948065360E+001, +2.52413788394E+002
+1.89797246558E+007, +1.70066476063E+001, +2.54369197076E+002
+1.91047559449E+007, +1.69532876116E+001, +2.56127082566E+002
+1.92297872340E+007, +1.68973612673E+001, +2.57463040785E+002
+1.93548185232E+007, +1.72003358243E+001, +2.60266902526E+002
+1.94798498123E+007, +1.68167942223E+001, +2.61289700140E+002
+1.96048811014E+007, +1.70607504088E+001, +2.63394733097E+002
+1.97299123905E+007, +1.69349620438E+001, +2.65155198250E+002
+1.98549436796E+007, +1.70338419459E+001, +2.66959364641E+002
+1.99799749687E+007, +1.74492363422E+001, +2.68868863631E+002
+2.01050062578E+007, +1.70031474131E+001, +2.70842158965E+002
+2.02300375469E+007, +1.73035622214E+001, +2.72675616231E+002
+2.03550688360E+007, +1.70701005774E+001, +2.74772967356E+002
+2.04801001252E+007, +1.71043500623E+001, +2.76639886644E+002
+2.06051314143E+007, +1.71732193177E+001, +2.77913570092E+002
+2.07301627034E+007, +1.74999717836E+001, +2.80178145018E+002
+2.08551939925E+007, +1.73081148434E+001, +2.82379083799E+002
+2.09802252816E+007, +1.74602458432E+001, +2.84027987061E+002
+2.11052565707E+007, +1.77028361178E+001, +2.86849825071E+002
+2.12302878598E+007, +1.76108753283E+001, +2.87948591102E+002
+2.13553191489E+007, +1.76811357816E+001, +2.90089260946E+002
+2.14803504380E+007, +1.77265265318E+001, +2.91889144605E+002
+2.16053817272E+007, +1.78259450330E+001, +2.93256917100E+002
+2.17304130163E+007, +1.78852674503E+001, +2.95641179859E+002
+2.18554443054E+007, +1.73947213451E+001, +2.97481905652E+002
+2.19804755945E+007, +1.75459290978E+001, +2.99430048660E+002
+2.21055068836E+007, +1.78830429661E+001, +3.01640619471E+002
+2.22305381727E+007, +1.76421623724E+001, +3.03215942354E+002
+2.23555694618E+007, +1.75486139112E+001, +3.05584879992E+002
+2.24806007509E+007, +1.79868935008E+001, +3.07066585329E+002
+2.26056320401E+007, +1.76326741635E+001, +3.09150532344E+002
+2.27306633292E+007, +1.82063251533E+001, +3.11370776841E+002
+2.28556946183E+007, +1.84074682018E+001, +3.12812937353E+002
+2.29807259074E+007, +1.82022479727E+001, +3.15426386163E+002
+2.31057571965E+007, +1.83865653206E+001, +3.17604731098E+002
+2.32307884856E+007, +1.85816971433E+001, +3.19043555970E+002
+2.33558197747E+007, +1.88648786587E+001, +3.21311368602E+002
+2.34808510638E+007, +1.88265400564E+001, +3.22580719008E+002
+2.36058823529E+007, +1.85132238007E+001, +3.24476300382E+002
+2.37309136421E+007, +1.85821004490E+001, +3.27709668353E+002
+2.38559449312E+007, +1.82307234551E+001, +3.29159210450E+002
+2.39809762203E+007, +1.91872283043E+001, +3.30715090915E+002
+2.41060075094E+007, +1.91814427585E+001, +3.32780063106E+002
+2.42310387985E+007, +1.91212309446E+001, +3.34454770130E+002
+2.43560700876E+007, +1.86325182409E+001, +3.36348981124E+002
+2.44811013767E+007, +1.92732597045E+001, +3.38709247211E+002
+2.46061326658E+007, +1.92451869882E+001, +3.40876251522E+002
+2.47311639549E+007, +1.93916331931E+001, +3.42522834728E+002
+2.48561952441E+007, +1.93665694774E+001, +3.44579309804E+002
+2.49812265332E+007, +1.95367229515E+001, +3.46468215624E+002
+2.51062578223E+007, +1.90789959053E+001, +3.48314529853E+002
+2.52312891114E+007, +1.96005952929E+001, +3.50168819028E+002
+2.53563204005E+007, +1.91873749383E+001, +3.53423124260E+002
+2.54813516896E+007, +1.94642835200E+001, +3.55221516961E+002
+2.56063829787E+007, +1.92510309460E+001, +3.57021172620E+002
+2.57314142678E+007, +1.95649399843E+001, +3.58027143661E+002
+2.58564455569E+007, +2.00076987562E+001, +3.60894631132E+002
+2.59814768461E+007, +1.95096560963E+001, +3.62232710654E+002
+2.61065081352E+007, +1.91624859170E+001, +3.65950266354E+002
+2.62315394243E+007, +1.88123674154E+001, +3.67103417974E+002
+2.63565707134E+007, +1.94558493197E+001, +3.69723941315E+002
+2.64816020025E+007, +1.85996167231E+001, +3.71964731205E+002
+2.66066332916E+007, +2.01316872242E+001, +3.73441341443E+002
+2.67316645807E+007, +1.94809644839E+001, +3.75260803044E+002
+2.68566958698E+007, +1.92128234665E+001, +3.77664074257E+002
+2.69817271589E+007, +1.95780215716E+001, +3.80357955428E+002
+2.71067584481E+007, +1.98895181053E+001, +3.82153893664E+002
+2.72317897372E+007, +1.93491112449E+001, +3.83925108477E+002
+2.73568210263E+007, +1.99472369707E+001, +3.87099672446E+002
+2.74818523154E+007, +2.00908348749E+001, +3.88502218962E+002
+2.76068836045E+007, +2.00620928257E+001, +3.90435430240E+002
+2.77319148936E+007, +2.01414813667E+001, +3.91588926954E+002
+2.78569461827E+007, +1.98752458608E+001, +3.95411981845E+002
+2.79819774718E+007, +2.08172256016E+001, +3.97381318001E+002
+2.81070087610E+007, +2.04593632669E+001, +3.99667178532E+002
+2.82320400501E+007, +2.00472593801E+001, +4.00634645319E+002
+2.83570713392E+007, +1.93919499718E+001, +4.02796035841E+002
+2.84821026283E+007, +1.97442122838E+001, +4.05913902736E+002
+2.86071339174E+007, +1.88846586620E+001, +4.08005275814E+002
+2.87321652065E+007, +2.04360569922E+001, +4.10734386555E+002
+2.88571964956E+007, +1.97836695854E+001, +4.12003254986E+002
+2.89822277847E+007, +2.05697400653E+001, +4.14477079745E+002
+2.91072590738E+007, +2.10195283594E+001, +4.16871329510E+002
+2.92322903630E+007, +2.11199369855E+001, +4.18937872215E+002
+2.93573216521E+007, +2.12083016856E+001, +4.20840948238E+002
+2.94823529412E+007, +1.96841842117E+001, +4.24847288685E+002
+2.96073842303E+007, +2.06879202131E+001, +4.26243908716E+002
+2.97324155194E+007, +1.98230953237E+001, +4.28378128998E+002
+2.98574468085E+007, +2.00889916859E+001, +4.30974515136E+002
+2.99824780976E+007, +1.96599725726E+001, +4.33321836318E+002
+3.01075093867E+007, +2.00993419109E+001, +4.35805126929E+002
+3.02325406758E+007, +1.95174301958E+001, +4.38076724162E+002
+3.03575719650E+007, +2.11733147132E+001, +4.40740152843E+002
+3.04826032541E+007, +1.96061555418E+001, +4.42521399453E+002
+3.06076345432E+007, +2.06537239916E+001, +4.45409085432E+002
+3.07326658323E+007, +2.10123912316E+001, +4.47638056045E+002
+3.08576971214E+007, +2.04028533476E+001, +4.49561613487E+002
+3.09827284105E+007, +2.08816619634E+001, +4.52886957037E+002
+3.11077596996E+007, +2.03371761961E+001, +4.54735918714E+002
+3.12327909887E+007, +2.09174541170E+001, +4.56257840210E+002
+3.13578222778E+007, +2.07641934401E+001, +4.58848565703E+002
+3.14828535670E+007, +2.03638752592E+001, +4.61897560866E+002
+3.16078848561E+007, +2.04327089628E+001, +4.63227962075E+002
+3.17329161452E+007, +2.13168091297E+001, +4.66619846826E+002
+3.18579474343E+007, +2.05500438172E+001, +4.70105778529E+002
+3.19829787234E+007, +2.09836679416E+001, +4.70851759314E+002
+3.21080100125E+007, +2.08598391807E+001, +4.73161149369E+002
+3.22330413016E+007, +2.07215408212E+001, +4.76565438818E+002
+3.23580725907E+007, +2.16791976988E+001, +4.78913083659E+002
+3.24831038798E+007, +2.16288369929E+001, +4.80528875102E+002
+3.26081351690E+007, +2.21118205639E+001, +4.83413642256E+002
+3.27331664581E+007, +2.02347720056E+001, +4.86284187670E+002
+3.28581977472E+007, +2.23858641350E+001, +4.88794134291E+002
+3.29832290363E+007, +2.19637741035E+001, +4.91132381733E+002
+3.31082603254E+007, +2.21378154632E+001, +4.93338381448E+002
+3.32332916145E+007, +2.17617808791E+001, +4.96245857079E+002
+3.33583229036E+007, +2.25912518242E+001, +4.98597953310E+002
+3.34833541927E+007, +2.18592726088E+001, +5.01470637982E+002
+3.36083854819E+007, +2.20472764660E+001, +5.03252269532E+002
+3.37334167710E+007, +2.27770726090E+001, +5.06626943056E+002
+3.38584480601E+007, +2.21332438514E+001, +5.10083922844E+002
+3.39834793492E+007, +2.25015423180E+001, +5.11022399435E+002
+3.41085106383E+007, +2.23145102730E+001, +5.13082936151E+002
+3.42335419274E+007, +2.26844737482E+001, +5.16108160804E+002
+3.43585732165E+007, +2.45955969545E+001, +5.18371351295E+002
+3.44836045056E+007, +2.34124108824E+001, +5.22120460796E+002
+3.46086357947E+007, +2.20323238111E+001, +5.23667038239E+002
+3.47336670839E+007, +2.39420365132E+001, +5.25493274972E+002
+3.48586983730E+007, +2.22846168968E+001, +5.30073152539E+002
+3.49837296621E+007, +2.21433191280E+001, +5.31611104270E+002
+3.51087609512E+007, +2.29650763856E+001, +5.36191741214E+002
+3.52337922403E+007, +2.38584708098E+001, +5.37876725880E+002
+3.53588235294E+007, +2.43311051208E+001, +5.39392022959E+002
+3.54838548185E+007, +2.29818828044E+001, +5.43000283968E+002
+3.56088861076E+007, +2.21306189457E+001, +5.45700915399E+002
+3.57339173967E+007, +2.31371617037E+001, +5.49774522073E+002
+3.58589486859E+007, +2.16895428166E+001, +5.50490857402E+002
+3.59839799750E+007, +2.42978732183E+001, +5.54505370299E+002
+3.61090112641E+007, +2.28506080078E+001, +5.55628387411E+002
+3.62340425532E+007, +2.36769463458E+001, +5.59276695434E+002
+3.63590738423E+007, +2.39157590868E+001, +5.63297262291E+002
+3.64841051314E+007, +2.27351412461E+001, +5.65140266254E+002
+3.66091364205E+007, +2.40782384303E+001, +5.67960110068E+002
+3.67341677096E+007, +2.36957636801E+001, +5.69778851733E+002
+3.68591989987E+007, +2.41297401397E+001, +5.74157474961E+002
+3.69842302879E+007, +2.37471557828E+001, +5.73988511587E+002
+3.71092615770E+007, +2.50170373857E+001, +5.77411291606E+002
+3.72342928661E+007, +2.22126342654E+001, +5.82795795021E+002
+3.73593241552E+007, +2.50390406314E+001, +5.85028996166E+002
+3.74843554443E+007, +2.47091239007E+001, +5.87461130897E+002
+3.76093867334E+007, +2.34831441403E+001, +5.90408405991E+002
+3.77344180225E+007, +2.46772591508E+001, +5.94205800842E+002
+3.78594493116E+007, +2.45188764215E+001, +5.98853379231E+002
+3.79844806008E+007, +2.53856190391E+001, +6.00132362414E+002
+3.81095118899E+007, +2.32826279636E+001, +6.03990179481E+002
+3.82345431790E+007, +2.35097103721E+001, +6.05628299990E+002
+3.83595744681E+007, +2.43016388261E+001, +6.09760259643E+002
+3.84846057572E+007, +2.62294482468E+001, +6.10784029069E+002
+3.86096370463E+007, +2.72046596916E+001, +6.14919963661E+002
+3.87346683354E+007, +2.49600052382E+001, +6.17246638892E+002
+3.88596996245E+007, +2.48374336689E+001, +6.22038335200E+002
+3.89847309136E+007, +2.65122294262E+001, +6.25454246992E+002
+3.91097622028E+007, +2.57823823201E+001, +6.28630941857E+002
+3.92347934919E+007, +2.67521647532E+001, +6.30791092226E+002
+3.93598247810E+007, +2.51292756711E+001, +6.32876336713E+002
+3.94848560701E+007, +2.59607087105E+001, +6.35566651811E+002
+3.96098873592E+007, +2.58139163640E+001, +6.41163175224E+002
+3.97349186483E+007, +2.46636197764E+001, +6.42640375387E+002
+3.98599499374E+007, +2.73065470385E+001, +6.45642163169E+002
+3.99849812265E+007, +2.53412483722E+001, +6.50639615989E+002
+4.01100125156E+007, +2.62869470675E+001, +6.55556575418E+002
