"# Channel 1"
"# Trace 1"
Frequency, Formatted Data, Formatted Data
+1.00000000000E+005, +2.10017121853E-001, +1.22163095291E+000
+2.66777963272E+005, +2.23878349659E-001, +3.21897728423E+000
+4.33555926544E+005, +2.39519653958E-001, +5.23246335350E+000
+6.00333889816E+005, +2.93732975654E-001, +7.17651995509E+000
+7.67111853088E+005, +3.09506901790E-001, +9.17792923063E+000
+9.33889816361E+005, +3.22055494667E-001, +1.11240661174E+001
+1.10066777963E+006, +2.85327633086E-001, +1.31033743857E+001
+1.26744574290E+006, +3.64518938221E-001, +1.50579794444E+001
+1.43422370618E+006, +2.91371583014E-001, +1.70468844851E+001
+1.60100166945E+006, +3.87281374149E-001, +1.89851522920E+001
+1.76777963272E+006, +3.71738962482E-001, +2.09519211955E+001
+1.93455759599E+006, +3.97766277918E-001, +2.28515923832E+001
+2.10133555927E+006, +4.22895360248E-001, +2.48059398095E+001
+2.26811352254E+006, +4.45524705375E-001, +2.68081253081E+001
+2.43489148581E+006, +3.98725231430E-001, +2.88117334608E+001
+2.60166944908E+006, +4.29495013323E-001, +3.07208353068E+001
+2.76844741235E+006, +4.02916285994E-001, +3.27211058938E+001
+2.93522537563E+006, +4.16617000762E-001, +3.46530619548E+001
+3.10200333890E+006, +4.74304268724E-001, +3.66077123149E+001
+3.26878130217E+006, +3.83257085384E-001, +3.85832197285E+001
+3.43555926544E+006, +4.50655806766E-001, +4.05393588566E+001
+3.60233722871E+006, +4.78321263060E-001, +4.25391717777E+001
+3.76911519199E+006, +4.27537613374E-001, +4.45583760508E+001
+3.93589315526E+006, +4.64076044459E-001, +4.64303733336E+001
+4.10267111853E+006, +3.00418650127E-001, +4.83255865183E+001
+4.26944908180E+006, +3.65755633428E-001, +5.05797389957E+001
+4.43622704508E+006, +4.68684916949E-001, +5.23986287825E+001
+4.60300500835E+006, +4.98293745731E-001, +5.44619206012E+001
+4.76978297162E+006, +4.64284338907E-001, +5.63528832278E+001
+4.93656093489E+006, +5.07542869327E-001, +5.83960166381E+001
+5.10333889816E+006, +4.73460753448E-001, +6.03099875067E+001
+5.27011686144E+006, +5.48304220077E-001, +6.24702756670E+001
+5.43689482471E+006, +5.33787476745E-001, +6.43606098900E+001
+5.60367278798E+006, +4.80445081533E-001, +6.64231141740E+001
+5.77045075125E+006, +4.65827800269E-001, +6.82898200132E+001
+5.93722871452E+006, +5.86995329032E-001, +7.03586402531E+001
+6.10400667780E+006, +5.21914665497E-001, +7.23349674920E+001
+6.27078464107E+006, +5.99453420326E-001, +7.43259940951E+001
+6.43756260434E+006, +6.45346571303E-001, +7.63487952813E+001
+6.60434056761E+006, +6.77314622809E-001, +7.83208495044E+001
+6.77111853088E+006, +7.65964751300E-001, +8.03029378875E+001
+6.93789649416E+006, +6.85184985336E-001, +8.23248731602E+001
+7.10467445743E+006, +6.71193517903E-001, +8.42789237697E+001
+7.27145242070E+006, +7.29943480302E-001, +8.63016858845E+001
+7.43823038397E+006, +7.29510253398E-001, +8.82499511276E+001
+7.60500834725E+006, +6.71490389122E-001, +9.02812606820E+001
+7.77178631052E+006, +7.07745825210E-001, +9.23731395806E+001
+7.93856427379E+006, +7.21448530150E-001, +9.42970777425E+001
+8.10534223706E+006, +7.23201095878E-001, +9.63205858034E+001
+8.27212020033E+006, +6.76102522073E-001, +9.82581264117E+001
+8.43889816361E+006, +6.68262225121E-001, +1.00346783620E+002
+8.60567612688E+006, +5.83635784713E-001, +1.02393639368E+002
+8.77245409015E+006, +6.33079256225E-001, +1.04341364079E+002
+8.93923205342E+006, +6.55381837244E-001, +1.06426561629E+002
+9.10601001669E+006, +6.80954388656E-001, +1.08543039312E+002
+9.27278797997E+006, +6.27316678238E-001, +1.10542369725E+002
+9.43956594324E+006, +5.74272459241E-001, +1.12550179565E+002
+9.60634390651E+006, +5.87747068797E-001, +1.14683050985E+002
+9.77312186978E+006, +5.45728830761E-001, +1.16671356354E+002
+9.93989983306E+006, +6.19205667463E-001, +1.18876628258E+002
+1.01066777963E+007, +4.85084268684E-001, +1.20755580021E+002
+1.02734557596E+007, +5.57612380998E-001, +1.22909170963E+002
+1.04402337229E+007, +4.89077753514E-001, +1.24895946988E+002
+1.06070116861E+007, +4.46200131215E-001, +1.26949508150E+002
+1.07737896494E+007, +4.89482705071E-001, +1.29166994940E+002
+1.09405676127E+007, +5.88363633010E-001, +1.31209434949E+002
+1.11073455760E+007, +5.50501738443E-001, +1.33329652883E+002
+1.12741235392E+007, +5.37537821834E-001, +1.35385040200E+002
+1.14409015025E+007, +6.17138181712E-001, +1.37489096586E+002
+1.16076794658E+007, +6.19003866402E-001, +1.39506615671E+002
+1.17744574290E+007, +5.51829186245E-001, +1.41801032409E+002
+1.19412353923E+007, +4.88545591338E-001, +1.43817898371E+002
+1.21080133556E+007, +3.30902011178E-001, +1.45941916708E+002
+1.22747913189E+007, +5.48334498724E-001, +1.48076917781E+002
+1.24415692821E+007, +4.38676840968E-001, +1.50171510868E+002
+1.26083472454E+007, +3.61856851558E-001, +1.52334883129E+002
+1.27751252087E+007, +4.64622474857E-001, +1.54355031323E+002
+1.29419031720E+007, +4.41973169585E-001, +1.56461178912E+002
+1.31086811352E+007, +4.75640833816E-001, +1.58745849328E+002
+1.32754590985E+007, +5.05332649091E-001, +1.60743989908E+002
+1.34422370618E+007, +3.96143191732E-001, +1.62936400783E+002
+1.36090150250E+007, +5.26174032498E-001, +1.65069561264E+002
+1.37757929883E+007, +4.53518794512E-001, +1.67265567042E+002
+1.39425709516E+007, +6.31892869144E-001, +1.69468305153E+002
+1.41093489149E+007, +4.90349483114E-001, +1.71395989375E+002
+1.42761268781E+007, +6.77449943157E-001, +1.73718103350E+002
+1.44429048414E+007, +6.24892479099E-001, +1.75947495796E+002
+1.46096828047E+007, +5.87188392739E-001, +1.78258196502E+002
+1.47764607679E+007, +7.72924388641E-001, +1.80207101732E+002
+1.49432387312E+007, +3.76602925959E-001, +1.82604897422E+002
+1.51100166945E+007, +5.43567832501E-001, +1.84742949401E+002
+1.52767946578E+007, +7.29810185161E-001, +1.86860894118E+002
+1.54435726210E+007, +6.62195776345E-001, +1.89042635679E+002
+1.56103505843E+007, +7.15134068470E-001, +1.91254029791E+002
+1.57771285476E+007, +5.34499333298E-001, +1.93396240507E+002
+1.59439065109E+007, +7.59195928415E-001, +1.95651655263E+002
+1.61106844741E+007, +4.43942837153E-001, +1.98070136708E+002
+1.62774624374E+007, +6.04142062442E-001, +2.00131169439E+002
+1.64442404007E+007, +5.48197165315E-001, +2.02363002323E+002
+1.66110183639E+007, +7.52472444642E-001, +2.04571339663E+002
+1.67777963272E+007, +8.52079416357E-001, +2.07149795756E+002
+1.69445742905E+007, +8.06700320918E-001, +2.09120841668E+002
+1.71113522538E+007, +4.56453465521E-001, +2.11297322515E+002
+1.72781302170E+007, +4.88798779447E-001, +2.13799895206E+002
+1.74449081803E+007, +5.25465784781E-001, +2.16060414695E+002
+1.76116861436E+007, +7.20441767184E-001, +2.18437264834E+002
+1.77784641068E+007, +6.69493969778E-001, +2.20394688595E+002
+1.79452420701E+007, +6.01733010081E-001, +2.22816526308E+002
+1.81120200334E+007, +8.68436617089E-001, +2.25057016656E+002
+1.82787979967E+007, +8.34214474855E-001, +2.27500365506E+002
+1.84455759599E+007, +9.51786038862E-001, +2.29889998405E+002
+1.86123539232E+007, +9.24770111365E-001, +2.31864854225E+002
+1.87791318865E+007, +7.22358920686E-001, +2.34233275949E+002
+1.89459098497E+007, +8.47046713076E-001, +2.36894846431E+002
+1.91126878130E+007, +1.03170160369E+000, +2.39058382196E+002
+1.92794657763E+007, +8.16875200244E-001, +2.41418364803E+002
+1.94462437396E+007, +1.20840221600E+000, +2.44242421621E+002
+1.96130217028E+007, +9.58638051780E-001, +2.46478930972E+002
+1.97797996661E+007, +1.18458287522E+000, +2.48550269481E+002
+1.99465776294E+007, +8.34106932736E-001, +2.50981813968E+002
+2.01133555927E+007, +7.06109497661E-001, +2.53273644694E+002
+2.02801335559E+007, +7.82293902295E-001, +2.56143971514E+002
+2.04469115192E+007, +1.22234921471E+000, +2.58449654223E+002
+2.06136894825E+007, +1.18591882392E+000, +2.60820534908E+002
+2.07804674457E+007, +1.52845647170E+000, +2.63662099509E+002
+2.09472454090E+007, +1.03932342801E+000, +2.65661554369E+002
+2.11140233723E+007, +1.32980780544E+000, +2.67904914096E+002
+2.12808013356E+007, +1.56427184320E+000, +2.70180079419E+002
+2.14475792988E+007, +1.21404758688E+000, +2.73041049403E+002
+2.16143572621E+007, +1.93554681389E+000, +2.75483125804E+002
+2.17811352254E+007, +1.44701182614E+000, +2.77744582855E+002
+2.19479131886E+007, +1.92137992850E+000, +2.80362158927E+002
+2.21146911519E+007, +1.93862520012E+000, +2.82610155295E+002
+2.22814691152E+007, +1.57527489697E+000, +2.85194724973E+002
+2.24482470785E+007, +1.69037281027E+000, +2.88155075419E+002
+2.26150250417E+007, +2.49884943034E+000, +2.90575705351E+002
+2.27818030050E+007, +2.01299588978E+000, +2.93341140205E+002
+2.29485809683E+007, +2.56023580166E+000, +2.95459333170E+002
+2.31153589316E+007, +2.07612938392E+000, +2.98256870035E+002
+2.32821368948E+007, +2.19652686799E+000, +3.00872459073E+002
+2.34489148581E+007, +2.56586634524E+000, +3.03449470890E+002
+2.36156928214E+007, +2.63476305359E+000, +3.06328724990E+002
+2.37824707846E+007, +2.31516454016E+000, +3.08211509378E+002
+2.39492487479E+007, +2.43095538654E+000, +3.10485763300E+002
+2.41160267112E+007, +2.48267781063E+000, +3.13497329358E+002
+2.42828046745E+007, +2.47221528512E+000, +3.15651074893E+002
+2.44495826377E+007, +2.86217892236E+000, +3.19680844127E+002
+2.46163606010E+007, +2.82873604953E+000, +3.21515741499E+002
+2.47831385643E+007, +2.81741244852E+000, +3.23676139362E+002
+2.49499165275E+007, +3.63053193712E+000, +3.26586484956E+002
+2.51166944908E+007, +3.79151440894E+000, +3.29052670198E+002
+2.52834724541E+007, +3.67865736968E+000, +3.32127551235E+002
+2.54502504174E+007, +3.72380068828E+000, +3.35769449544E+002
+2.56170283806E+007, +3.22319382006E+000, +3.37353951345E+002
+2.57838063439E+007, +3.53504881813E+000, +3.40768151637E+002
+2.59505843072E+007, +3.61276554876E+000, +3.44206460940E+002
+2.61173622705E+007, +3.71520976672E+000, +3.45521275301E+002
+2.62841402337E+007, +3.68279516551E+000, +3.48578291969E+002
+2.64509181970E+007, +3.37102765658E+000, +3.51295270784E+002
+2.66176961603E+007, +3.62664291248E+000, +3.54285359141E+002
+2.67844741235E+007, +3.90914846143E+000, +3.56882112075E+002
+2.69512520868E+007, +4.17205344411E+000, +3.59407959470E+002
+2.71180300501E+007, +4.19540526801E+000, +3.61874626630E+002
+2.72848080134E+007, +4.77867397212E+000, +3.65362868258E+002
+2.74515859766E+007, +4.82520743215E+000, +3.67896661456E+002
+2.76183639399E+007, +4.91048962572E+000, +3.70115632801E+002
+2.77851419032E+007, +3.88065033245E+000, +3.72925930911E+002
+2.79519198664E+007, +4.71560577486E+000, +3.75998551804E+002
+2.81186978297E+007, +4.84461294616E+000, +3.78718206409E+002
+2.82854757930E+007, +4.63632997575E+000, +3.80941796755E+002
+2.84522537563E+007, +3.43162579433E+000, +3.84113104198E+002
+2.86190317195E+007, +4.25135677927E+000, +3.87111920041E+002
+2.87858096828E+007, +5.02757320064E+000, +3.90235587280E+002
+2.89525876461E+007, +4.92264722102E+000, +3.93042902984E+002
+2.91193656093E+007, +4.52289158311E+000, +3.94908416122E+002
+2.92861435726E+007, +4.51814394619E+000, +3.99268157248E+002
+2.94529215359E+007, +5.44776516653E+000, +4.02088737818E+002
+2.96196994992E+007, +4.96392188182E+000, +4.05432259589E+002
+2.97864774624E+007, +6.28965404020E+000, +4.07874189049E+002
+2.99532554257E+007, +5.77647551832E+000, +4.11702501482E+002
+3.01200333890E+007, +5.19059064111E+000, +4.14371696288E+002
+3.02868113523E+007, +4.13936164040E+000, +4.17697823963E+002
+3.04535893155E+007, +5.16566279973E+000, +4.20560686914E+002
+3.06203672788E+007, +5.34732902174E+000, +4.23911336501E+002
+3.07871452421E+007, +5.72080199490E+000, +4.26532692805E+002
+3.09539232053E+007, +5.38631892016E+000, +4.29189069684E+002
+3.11207011686E+007, +3.80291874160E+000, +4.33745915401E+002
+3.12874791319E+007, +4.80367864039E+000, +4.35553441225E+002
+3.14542570952E+007, +5.45105753094E+000, +4.39758378756E+002
+3.16210350584E+007, +4.30451594420E+000, +4.42908230763E+002
+3.17878130217E+007, +3.56212278604E+000, +4.45546368545E+002
+3.19545909850E+007, +4.63100646281E+000, +4.49852064832E+002
+3.21213689482E+007, +2.86998719128E+000, +4.52955860799E+002
+3.22881469115E+007, +4.54990139901E+000, +4.56175029205E+002
+3.24549248748E+007, +4.52558039895E+000, +4.60220297937E+002
+3.26217028381E+007, +3.62781790506E+000, +4.62742175464E+002
+3.27884808013E+007, +4.76305247178E+000, +4.66520575818E+002
+3.29552587646E+007, +5.20823412127E+000, +4.69503690657E+002
+3.31220367279E+007, +5.07158755844E+000, +4.73190548837E+002
+3.32888146912E+007, +4.06070319884E+000, +4.76724589464E+002
+3.34555926544E+007, +3.41825994891E+000, +4.81483913212E+002
+3.36223706177E+007, +5.29420074909E+000, +4.83413614146E+002
+3.37891485810E+007, +4.95504674193E+000, +4.86199185794E+002
+3.39559265442E+007, +4.75561550152E+000, +4.91157511369E+002
+3.41227045075E+007, +4.30013304632E+000, +4.94113173891E+002
+3.42894824708E+007, +3.79827361673E+000, +4.98021418946E+002
+3.44562604341E+007, +5.11897843547E+000, +5.01826537748E+002
+3.46230383973E+007, +4.84940852130E+000, +5.05969664855E+002
+3.47898163606E+007, +5.03505312289E+000, +5.07934032948E+002
+3.49565943239E+007, +5.68215703028E+000, +5.13240409465E+002
+3.51233722871E+007, +5.14845527706E+000, +5.17840307462E+002
+3.52901502504E+007, +5.67154878128E+000, +5.20146333581E+002
+3.54569282137E+007, +3.96264733526E+000, +5.25581517562E+002
+3.56237061770E+007, +4.21282316126E+000, +5.27790249100E+002
+3.57904841402E+007, +3.90600046994E+000, +5.32603575948E+002
+3.59572621035E+007, +4.92569407923E+000, +5.36732986970E+002
+3.61240400668E+007, +4.77719923061E+000, +5.39984315482E+002
+3.62908180301E+007, +4.75652319045E+000, +5.45749037912E+002
+3.64575959933E+007, +4.99270281828E+000, +5.49916789410E+002
+3.66243739566E+007, +5.32141175232E+000, +5.52117403788E+002
+3.67911519199E+007, +5.20732873809E+000, +5.57497962101E+002
+3.69579298831E+007, +5.38562719619E+000, +5.59861101095E+002
+3.71247078464E+007, +4.11838589414E+000, +5.65549544872E+002
+3.72914858097E+007, +5.46839997685E+000, +5.68704066447E+002
+3.74582637730E+007, +5.39341950869E+000, +5.76851650423E+002
+3.76250417362E+007, +4.89842936300E+000, +5.78749235369E+002
+3.77918196995E+007, +4.70152808372E+000, +5.82404028603E+002
+3.79585976628E+007, +5.28309232416E+000, +5.86678022870E+002
+3.81253756260E+007, +6.54460412019E+000, +5.91913494724E+002
+3.82921535893E+007, +6.76298530963E+000, +5.95172284122E+002
+3.84589315526E+007, +6.62605205249E+000, +6.01146266862E+002
+3.86257095159E+007, +6.59846721451E+000, +6.04920360768E+002
+3.87924874791E+007, +5.79965799199E+000, +6.09528086703E+002
+3.89592654424E+007, +7.19597164482E+000, +6.14143139265E+002
+3.91260434057E+007, +7.11621802426E+000, +6.20753713373E+002
+3.92928213689E+007, +6.79121405921E+000, +6.22479422945E+002
+3.94595993322E+007, +5.00287601212E+000, +6.30320659157E+002
+3.96263772955E+007, +5.20988033959E+000, +6.34285018275E+002
+3.97931552588E+007, +5.39763712127E+000, +6.38311664311E+002
+3.99599332220E+007, +6.32924910572E+000, +6.43483196393E+002
+4.01267111853E+007, +5.70210222260E+000, +6.48818601100E+002
+4.02934891486E+007, +6.19961824981E+000, +6.51945111576E+002
+4.04602671119E+007, +6.53772412829E+000, +6.59387716151E+002
+4.06270450751E+007, +7.99355009215E+000, +6.64386346033E+002
+4.07938230384E+007, +7.02597605179E+000, +6.68893861202E+002
+4.09606010017E+007, +9.31157144048E+000, +6.72910193527E+002
+4.11273789649E+007, +8.86325489703E+000, +6.77979066574E+002
+4.12941569282E+007, +8.68967494942E+000, +6.84403316936E+002
+4.14609348915E+007, +9.56872564683E+000, +6.92857094578E+002
+4.16277128548E+007, +7.16381818550E+000, +6.96128901309E+002
+4.17944908180E+007, +8.95662643614E+000, +7.00261002150E+002
+4.19612687813E+007, +7.50568109517E+000, +7.06329105475E+002
+4.21280467446E+007, +6.89319204601E+000, +7.14665813353E+002
+4.22948247078E+007, +9.08834479723E+000, +7.18984008055E+002
+4.24616026711E+007, +8.90127373636E+000, +7.25531308620E+002
+4.26283806344E+007, +9.85082579091E+000, +7.32184977322E+002
+4.27951585977E+007, +6.53496969687E+000, +7.37929722076E+002
+4.29619365609E+007, +1.34990758420E+001, +7.44684333720E+002
+4.31287145242E+007, +9.51980913731E+000, +7.49105571204E+002
+4.32954924875E+007, +1.06850015622E+001, +7.53415821267E+002
+4.34622704508E+007, +7.98341908083E+000, +7.61052488685E+002
+4.36290484140E+007, +1.33745277586E+001, +7.68404664666E+002
+4.37958263773E+007, +7.73931563015E+000, +7.77057425120E+002
+4.39626043406E+007, +1.13132500497E+001, +7.79008161808E+002
+4.41293823038E+007, +1.25807907690E+001, +7.89261292995E+002
+4.42961602671E+007, +1.15104136010E+001, +7.93168692484E+002
+4.44629382304E+007, +1.00447293197E+001, +8.02346997726E+002
+4.46297161937E+007, +1.43336353096E+001, +8.07958505411E+002
+4.47964941569E+007, +1.25824628665E+001, +8.16827294168E+002
+4.49632721202E+007, +1.26633467105E+001, +8.23976742445E+002
+4.51300500835E+007, +1.39641974263E+001, +8.27686043346E+002
+4.52968280467E+007, +1.51751460303E+001, +8.34183175137E+002
+4.54636060100E+007, +1.49305097447E+001, +8.45221878256E+002
+4.56303839733E+007, +1.25882654556E+001, +8.51432903088E+002
+4.57971619366E+007, +1.21468439427E+001, +8.60406874969E+002
+4.59639398998E+007, +1.57444543952E+001, +8.73779312573E+002
+4.61307178631E+007, +1.80311233394E+001, +8.77373097132E+002
+4.62974958264E+007, +1.81182365368E+001, +8.88326065863E+002
+4.64642737896E+007, +1.53370445777E+001, +8.92207811306E+002
+4.66310517529E+007, +1.50745824415E+001, +9.02144602107E+002
+4.67978297162E+007, +2.02570101847E+001, +9.10100634194E+002
+4.69646076795E+007, +1.91500392121E+001, +9.22188747217E+002
+4.71313856427E+007, +2.03716573505E+001, +9.31598806478E+002
+4.72981636060E+007, +2.13662032410E+001, +9.39129892149E+002
+4.74649415693E+007, +1.84698947523E+001, +9.45772435986E+002
+4.76317195326E+007, +2.55421689122E+001, +9.56665228233E+002
+4.77984974958E+007, +2.32205317167E+001, +9.65508725533E+002
+4.79652754591E+007, +2.06916272015E+001, +9.74315159128E+002
+4.81320534224E+007, +2.54270844543E+001, +9.82594409654E+002
+4.82988313856E+007, +2.74750925698E+001, +9.97058573264E+002
+4.84656093489E+007, +2.65491890172E+001, +1.00181383231E+003
+4.86323873122E+007, +3.03610291705E+001, +1.01223354859E+003
+4.87991652755E+007, +3.02381542897E+001, +1.02513151137E+003
+4.89659432387E+007, +3.20701970993E+001, +1.03176256512E+003
+4.91327212020E+007, +2.87344549945E+001, +1.04708574508E+003
+4.92994991653E+007, +3.71843795806E+001, +1.05260303359E+003
+4.94662771285E+007, +3.94349656117E+001, +1.06542982724E+003
+4.96330550918E+007, +4.10559890202E+001, +1.07528007689E+003
+4.97998330551E+007, +4.73764313501E+001, +1.08456875916E+003
+4.99666110184E+007, +4.27121708716E+001, +1.09873662435E+003
+5.01333889816E+007, +4.59904436138E+001, +1.10545042665E+003
+5.03001669449E+007, +4.37076439712E+001, +1.11778904264E+003
+5.04669449082E+007, +4.29344948138E+001, +1.13514315719E+003
+5.06337228715E+007, +5.37627278999E+001, +1.14385275655E+003
+5.08005008347E+007, +4.56788392728E+001, +1.15904926688E+003
+5.09672787980E+007, +5.38619240662E+001, +1.16748354315E+003
+5.11340567613E+007, +5.55391224291E+001, +1.18322915020E+003
+5.13008347245E+007, +4.76044181975E+001, +1.20139293099E+003
+5.14676126878E+007, +5.35028434766E+001, +1.20653897683E+003
+5.16343906511E+007, +6.25531945860E+001, +1.22418321647E+003
+5.18011686144E+007, +5.90808456923E+001, +1.23866915583E+003
+5.19679465776E+007, +6.26120240459E+001, +1.25369072844E+003
+5.21347245409E+007, +6.09640492350E+001, +1.26893345194E+003
+5.23015025042E+007, +7.17512637580E+001, +1.29424362018E+003
+5.24682804674E+007, +6.35064291471E+001, +1.30684878524E+003
+5.26350584307E+007, +7.44464787804E+001, +1.32407069352E+003
+5.28018363940E+007, +6.82019527878E+001, +1.34198963001E+003
+5.29686143573E+007, +7.23314412888E+001, +1.35415430742E+003
+5.31353923205E+007, +7.95908253720E+001, +1.36451834082E+003
+5.33021702838E+007, +7.48484783896E+001, +1.39341970904E+003
+5.34689482471E+007, +8.99807557655E+001, +1.41266289399E+003
