"# Channel 1"
"# Trace 1"
Frequency, Formatted Data, Formatted Data
+1.00000000000E+005, +5.39155619835E-001, +1.28468854059E+000
+2.25031289111E+005, +5.49255114489E-001, +2.88521900737E+000
+3.50062578223E+005, +5.49165675849E-001, +4.48763327135E+000
+4.75093867334E+005, +5.43977735446E-001, +6.11166111657E+000
+6.00125156446E+005, +5.72548960909E-001, +7.70722883340E+000
+7.25156445557E+005, +6.06472132678E-001, +9.29345543264E+000
+8.50187734668E+005, +6.54539736277E-001, +1.08828802906E+001
+9.75219023780E+005, +6.58627435733E-001, +1.24377475295E+001
+1.10025031289E+006, +7.24436971555E-001, +1.40262657804E+001
+1.22528160200E+006, +7.30234256667E-001, +1.56256621000E+001
+1.35031289111E+006, +7.14477654775E-001, +1.72346487695E+001
+1.47534418023E+006, +7.74478633731E-001, +1.87718375335E+001
+1.60037546934E+006, +7.75527568018E-001, +2.02864289540E+001
+1.72540675845E+006, +8.43491058880E-001, +2.19037010672E+001
+1.85043804756E+006, +8.72098471182E-001, +2.34246572030E+001
+1.97546933667E+006, +8.55216710123E-001, +2.50017497669E+001
+2.10050062578E+006, +8.82289591528E-001, +2.65668594600E+001
+2.22553191489E+006, +8.38612412980E-001, +2.81681612763E+001
+2.35056320401E+006, +8.62235793727E-001, +2.96983624797E+001
+2.47559449312E+006, +9.20080085722E-001, +3.12393507177E+001
+2.60062578223E+006, +9.22868784389E-001, +3.28019431156E+001
+2.72565707134E+006, +9.58276016077E-001, +3.43813508843E+001
+2.85068836045E+006, +9.55258586787E-001, +3.59562707841E+001
+2.97571964956E+006, +9.86106222166E-001, +3.75289051242E+001
+3.10075093867E+006, +9.57348373583E-001, +3.91152618944E+001
+3.22578222778E+006, +1.03263165165E+000, +4.06457920508E+001
+3.35081351690E+006, +1.06650564651E+000, +4.22561567993E+001
+3.47584480601E+006, +1.08022952562E+000, +4.37267717549E+001
+3.60087609512E+006, +1.12749518939E+000, +4.53470450029E+001
+3.72590738423E+006, +1.09350068735E+000, +4.69591673902E+001
+3.85093867334E+006, +1.10067536830E+000, +4.84664537700E+001
+3.97596996245E+006, +1.10182501334E+000, +5.00098830802E+001
+4.10100125156E+006, +1.04483190266E+000, +5.16568027974E+001
+4.22603254068E+006, +1.14135000247E+000, +5.31036770296E+001
+4.35106382979E+006, +1.15744883628E+000, +5.47420437887E+001
+4.47609511890E+006, +1.20156647094E+000, +5.62928107512E+001
+4.60112640801E+006, +1.11279586558E+000, +5.78765442077E+001
+4.72615769712E+006, +1.12254802380E+000, +5.94110420446E+001
+4.85118898623E+006, +1.14104884789E+000, +6.09783602139E+001
+4.97622027534E+006, +1.20556058352E+000, +6.25768329584E+001
+5.10125156446E+006, +1.18145637368E+000, +6.40455709807E+001
+5.22628285357E+006, +1.25032989220E+000, +6.57136127239E+001
+5.35131414268E+006, +1.25772721910E+000, +6.72669767401E+001
+5.47634543179E+006, +1.19093444844E+000, +6.88326577288E+001
+5.60137672090E+006, +1.24769425441E+000, +7.05120291334E+001
+5.72640801001E+006, +1.28678432706E+000, +7.19664908514E+001
+5.85143929912E+006, +1.27848092649E+000, +7.36637386171E+001
+5.97647058824E+006, +1.33257607266E+000, +7.51788940245E+001
+6.10150187735E+006, +1.20579262871E+000, +7.67544505271E+001
+6.22653316646E+006, +1.45273774190E+000, +7.83386725889E+001
+6.35156445557E+006, +1.36918713389E+000, +7.99663230513E+001
+6.47659574468E+006, +1.45885862994E+000, +8.15838942790E+001
+6.60162703379E+006, +1.37974161483E+000, +8.31081013643E+001
+6.72665832290E+006, +1.42936052392E+000, +8.46986847671E+001
+6.85168961202E+006, +1.41610552574E+000, +8.63718953757E+001
+6.97672090113E+006, +1.41573267037E+000, +8.79132245346E+001
+7.10175219024E+006, +1.45611703442E+000, +8.95090125053E+001
+7.22678347935E+006, +1.43673445971E+000, +9.10144156433E+001
+7.35181476846E+006, +1.43851168733E+000, +9.25745859623E+001
+7.47684605757E+006, +1.48632924012E+000, +9.42115788220E+001
+7.60187734668E+006, +1.50803542178E+000, +9.58051547242E+001
+7.72690863579E+006, +1.53098190468E+000, +9.73423683943E+001
+7.85193992491E+006, +1.56252139659E+000, +9.90524294210E+001
+7.97697121402E+006, +1.66278041945E+000, +1.00605849227E+002
+8.10200250313E+006, +1.61652186825E+000, +1.02225590173E+002
+8.22703379224E+006, +1.57899437743E+000, +1.03850611531E+002
+8.35206508135E+006, +1.54201337004E+000, +1.05292002850E+002
+8.47709637046E+006, +1.58938011624E+000, +1.06923647484E+002
+8.60212765957E+006, +1.57663742822E+000, +1.08521434292E+002
+8.72715894869E+006, +1.60275644168E+000, +1.10227058074E+002
+8.85219023780E+006, +1.67564146281E+000, +1.11835830484E+002
+8.97722152691E+006, +1.62808526859E+000, +1.13462291793E+002
+9.10225281602E+006, +1.68005714588E+000, +1.15069728362E+002
+9.22728410513E+006, +1.76161024920E+000, +1.16585501037E+002
+9.35231539424E+006, +1.63180896188E+000, +1.18316851621E+002
+9.47734668335E+006, +1.68846783777E+000, +1.19734928377E+002
+9.60237797247E+006, +1.65891828027E+000, +1.21420039516E+002
+9.72740926158E+006, +1.74322272375E+000, +1.23068169733E+002
+9.85244055069E+006, +1.81520713285E+000, +1.24643575383E+002
+9.97747183980E+006, +1.57463350575E+000, +1.26158646983E+002
+1.01025031289E+007, +1.70106037024E+000, +1.27717404838E+002
+1.02275344180E+007, +1.84412904768E+000, +1.29437200096E+002
+1.03525657071E+007, +1.74772875731E+000, +1.30996916573E+002
+1.04775969962E+007, +1.86437703190E+000, +1.32696533756E+002
+1.06026282854E+007, +1.77600013794E+000, +1.34246294965E+002
+1.07276595745E+007, +1.83501017532E+000, +1.36017041512E+002
+1.08526908636E+007, +1.88883324820E+000, +1.37600496693E+002
+1.09777221527E+007, +1.75606342708E+000, +1.39237878595E+002
+1.11027534418E+007, +1.79927844858E+000, +1.40779645408E+002
+1.12277847309E+007, +1.71917084399E+000, +1.42474571892E+002
+1.13528160200E+007, +1.58440612647E+000, +1.44153317788E+002
+1.14778473091E+007, +1.83276983028E+000, +1.45637063224E+002
+1.16028785982E+007, +1.81646561839E+000, +1.47436437112E+002
+1.17279098874E+007, +1.83547568120E+000, +1.48964679747E+002
+1.18529411765E+007, +1.80197683641E+000, +1.50535613569E+002
+1.19779724656E+007, +1.78580201251E+000, +1.52068708493E+002
+1.21030037547E+007, +1.74984279836E+000, +1.53985869785E+002
+1.22280350438E+007, +1.77369928431E+000, +1.55404588168E+002
+1.23530663329E+007, +1.85309578787E+000, +1.57310535401E+002
+1.24780976220E+007, +1.70231885880E+000, +1.58769769521E+002
+1.26031289111E+007, +1.76263323526E+000, +1.60379584524E+002
+1.27281602003E+007, +1.80677515633E+000, +1.62113483396E+002
+1.28531914894E+007, +1.74842607008E+000, +1.63861402601E+002
+1.29782227785E+007, +1.77454784427E+000, +1.65438967161E+002
+1.31032540676E+007, +1.87286451205E+000, +1.67235268666E+002
+1.32282853567E+007, +1.94352879401E+000, +1.68708767028E+002
+1.33533166458E+007, +1.93798046589E+000, +1.70339711856E+002
+1.34783479349E+007, +1.75798048250E+000, +1.72247193021E+002
+1.36033792240E+007, +1.91438410276E+000, +1.73736774206E+002
+1.37284105131E+007, +1.66773198830E+000, +1.75513545958E+002
+1.38534418023E+007, +2.01142684824E+000, +1.77098152490E+002
+1.39784730914E+007, +1.91360300751E+000, +1.78587066026E+002
+1.41035043805E+007, +1.85319041582E+000, +1.80504801479E+002
+1.42285356696E+007, +1.92429677512E+000, +1.82130281447E+002
+1.43535669587E+007, +1.94089586078E+000, +1.83959906937E+002
+1.44785982478E+007, +1.70668465857E+000, +1.85413804006E+002
+1.46036295369E+007, +1.72461749982E+000, +1.87072346337E+002
+1.47286608260E+007, +1.63230781198E+000, +1.89010951717E+002
+1.48536921151E+007, +1.95616299145E+000, +1.90667147589E+002
+1.49787234043E+007, +2.09714468620E+000, +1.92382514498E+002
+1.51037546934E+007, +2.01326727342E+000, +1.93761461014E+002
+1.52287859825E+007, +1.84436752496E+000, +1.95649550016E+002
+1.53538172716E+007, +1.92130978717E+000, +1.97410407189E+002
+1.54788485607E+007, +1.88231021785E+000, +1.99194764956E+002
+1.56038798498E+007, +2.13979397990E+000, +2.00730587293E+002
+1.57289111389E+007, +1.89132674303E+000, +2.02582439519E+002
+1.58539424280E+007, +2.15653243630E+000, +2.04201974422E+002
+1.59789737171E+007, +1.87765360588E+000, +2.05945733225E+002
+1.61040050063E+007, +2.14559895987E+000, +2.07535930404E+002
+1.62290362954E+007, +1.81317252555E+000, +2.09166022165E+002
+1.63540675845E+007, +1.93937918642E+000, +2.10868788594E+002
+1.64790988736E+007, +1.87460844042E+000, +2.12723274829E+002
+1.66041301627E+007, +1.76370382037E+000, +2.14665208289E+002
+1.67291614518E+007, +1.66967444178E+000, +2.16217107992E+002
+1.68541927409E+007, +1.81333157468E+000, +2.18092381811E+002
+1.69792240300E+007, +1.79340309511E+000, +2.19930939347E+002
+1.71042553191E+007, +1.49065021591E+000, +2.21473264862E+002
+1.72292866083E+007, +1.80140125801E+000, +2.23112762603E+002
+1.73543178974E+007, +1.92656013799E+000, +2.25485792819E+002
+1.74793491865E+007, +1.77605023407E+000, +2.26696807568E+002
+1.76043804756E+007, +1.73788935540E+000, +2.28656852208E+002
+1.77294117647E+007, +1.86962283119E+000, +2.30232879062E+002
+1.78544430538E+007, +1.73122152296E+000, +2.32085323264E+002
+1.79794743429E+007, +1.92192862266E+000, +2.33898999392E+002
+1.81045056320E+007, +1.64388055830E+000, +2.35732870070E+002
+1.82295369212E+007, +1.88820494447E+000, +2.37161347448E+002
+1.83545682103E+007, +2.09864177315E+000, +2.39216260720E+002
+1.84795994994E+007, +2.14763953937E+000, +2.40758903846E+002
+1.86046307885E+007, +2.10476125098E+000, +2.42797292640E+002
+1.87296620776E+007, +1.80013911815E+000, +2.44742237705E+002
+1.88546933667E+007, +1.90683584593E+000, +2.46205702052E+002
+1.89797246558E+007, +2.23656916263E+000, +2.47640032650E+002
+1.91047559449E+007, +2.12110334456E+000, +2.49329492343E+002
+1.92297872340E+007, +1.95217820284E+000, +2.52131620360E+002
+1.93548185232E+007, +2.26282940909E+000, +2.53239816716E+002
+1.94798498123E+007, +1.84257500172E+000, +2.55072230608E+002
+1.96048811014E+007, +2.12579802010E+000, +2.57094390677E+002
+1.97299123905E+007, +1.81130395975E+000, +2.58513201140E+002
+1.98549436796E+007, +1.81770736949E+000, +2.60833620360E+002
+1.99799749687E+007, +2.11455519750E+000, +2.62458081102E+002
+2.01050062578E+007, +1.99293383408E+000, +2.63987798507E+002
+2.02300375469E+007, +2.34325111223E+000, +2.66037906912E+002
+2.03550688360E+007, +1.73892490096E+000, +2.68367397491E+002
+2.04801001252E+007, +1.82853151953E+000, +2.69866163395E+002
+2.06051314143E+007, +2.12400076194E+000, +2.72067637842E+002
+2.07301627034E+007, +2.21109694938E+000, +2.73464934142E+002
+2.08551939925E+007, +2.07339803957E+000, +2.75877731115E+002
+2.09802252816E+007, +2.23667709564E+000, +2.77136170740E+002
+2.11052565707E+007, +2.28458531903E+000, +2.79462502569E+002
+2.12302878598E+007, +2.08341671008E+000, +2.80974374776E+002
+2.13553191489E+007, +2.35210165430E+000, +2.82164579145E+002
+2.14803504380E+007, +2.47711317603E+000, +2.84561527313E+002
+2.16053817272E+007, +1.79939126412E+000, +2.86701892286E+002
+2.17304130163E+007, +2.25404136007E+000, +2.88857256731E+002
+2.18554443054E+007, +2.74281705395E+000, +2.90325433438E+002
+2.19804755945E+007, +2.17221545637E+000, +2.92597415485E+002
+2.21055068836E+007, +2.30043031255E+000, +2.94875073174E+002
+2.22305381727E+007, +2.34836642420E+000, +2.95825153364E+002
+2.23555694618E+007, +2.79028096507E+000, +2.98181741322E+002
+2.24806007509E+007, +2.69828781263E+000, +2.99770613178E+002
+2.26056320401E+007, +2.62191140331E+000, +3.02009066623E+002
+2.27306633292E+007, +2.82031637575E+000, +3.03249786811E+002
+2.28556946183E+007, +2.23350146114E+000, +3.05667702899E+002
+2.29807259074E+007, +2.47037743034E+000, +3.07784255960E+002
+2.31057571965E+007, +2.87107291664E+000, +3.09384132432E+002
+2.32307884856E+007, +2.77253010197E+000, +3.11709235257E+002
+2.33558197747E+007, +2.72053518132E+000, +3.13207485941E+002
+2.34808510638E+007, +2.77576348549E+000, +3.15167975294E+002
+2.36058823529E+007, +2.63124134808E+000, +3.17153116091E+002
+2.37309136421E+007, +3.08471463404E+000, +3.19342565313E+002
+2.38559449312E+007, +2.80646430334E+000, +3.21461760179E+002
+2.39809762203E+007, +2.98692194496E+000, +3.23231678612E+002
+2.41060075094E+007, +2.26059724141E+000, +3.24544228750E+002
+2.42310387985E+007, +3.02370351190E+000, +3.27187297009E+002
+2.43560700876E+007, +3.42440622148E+000, +3.28559462714E+002
+2.44811013767E+007, +2.68439387356E+000, +3.31098794473E+002
+2.46061326658E+007, +2.89591204191E+000, +3.32787426320E+002
+2.47311639549E+007, +2.71285439119E+000, +3.33873309608E+002
+2.48561952441E+007, +3.53390019041E+000, +3.37042248853E+002
+2.49812265332E+007, +2.63960935898E+000, +3.39020989598E+002
+2.51062578223E+007, +3.41218092909E+000, +3.39839742926E+002
+2.52312891114E+007, +3.03202496315E+000, +3.41996901492E+002
+2.53563204005E+007, +2.55647931101E+000, +3.44638338701E+002
+2.54813516896E+007, +2.14343862091E+000, +3.46461122034E+002
+2.56063829787E+007, +2.61565697109E+000, +3.48606377453E+002
+2.57314142678E+007, +2.88457200270E+000, +3.50747504853E+002
+2.58564455569E+007, +3.01782283512E+000, +3.52232709757E+002
+2.59814768461E+007, +3.67258313089E+000, +3.55081818785E+002
+2.61065081352E+007, +3.27240576334E+000, +3.56288303060E+002
+2.62315394243E+007, +2.56757220750E+000, +3.58829204145E+002
+2.63565707134E+007, +3.03485740468E+000, +3.60989618789E+002
+2.64816020025E+007, +2.55682616939E+000, +3.62677275534E+002
+2.66066332916E+007, +3.05521352655E+000, +3.64727222734E+002
+2.67316645807E+007, +2.67770568288E+000, +3.66773252187E+002
+2.68566958698E+007, +3.39505468786E+000, +3.69412065488E+002
+2.69817271589E+007, +2.91081198491E+000, +3.70840837277E+002
+2.71067584481E+007, +3.63405478161E+000, +3.73356265360E+002
+2.72317897372E+007, +3.30742146181E+000, +3.75571106480E+002
+2.73568210263E+007, +4.50401601802E+000, +3.76631170257E+002
+2.74818523154E+007, +3.29409809994E+000, +3.78832091732E+002
+2.76068836045E+007, +3.26269714086E+000, +3.81340588949E+002
+2.77319148936E+007, +3.27390859127E+000, +3.83488069466E+002
+2.78569461827E+007, +3.06283438359E+000, +3.85017201928E+002
+2.79819774718E+007, +2.94280576174E+000, +3.88204389285E+002
+2.81070087610E+007, +3.62881595938E+000, +3.90218877546E+002
+2.82320400501E+007, +2.95804341893E+000, +3.92748553405E+002
+2.83570713392E+007, +2.88250067975E+000, +3.93386917579E+002
+2.84821026283E+007, +3.63222977248E+000, +3.96097734045E+002
+2.86071339174E+007, +1.83781073273E+000, +3.98182280584E+002
+2.87321652065E+007, +2.72749121800E+000, +4.00679645512E+002
+2.88571964956E+007, +3.53076489181E+000, +4.02948140376E+002
+2.89822277847E+007, +3.47933573138E+000, +4.05046238436E+002
+2.91072590738E+007, +2.77122409278E+000, +4.06998835350E+002
+2.92322903630E+007, +3.06546176808E+000, +4.10298762268E+002
+2.93573216521E+007, +2.91765240334E+000, +4.12561821798E+002
+2.94823529412E+007, +3.17712288923E+000, +4.13796609186E+002
+2.96073842303E+007, +2.84144046484E+000, +4.16343550309E+002
+2.97324155194E+007, +2.64059493918E+000, +4.19933653883E+002
+2.98574468085E+007, +2.58129901205E+000, +4.21176372230E+002
+2.99824780976E+007, +2.57382217492E+000, +4.23708093620E+002
+3.01075093867E+007, +3.37875880631E+000, +4.24918099478E+002
+3.02325406758E+007, +2.48531046579E+000, +4.27587945219E+002
+3.03575719650E+007, +2.31557668462E+000, +4.29810054637E+002
+3.04826032541E+007, +2.23917174391E+000, +4.32266405458E+002
+3.06076345432E+007, +3.77262153839E+000, +4.34100680597E+002
+3.07326658323E+007, +2.64303348988E+000, +4.36114757763E+002
+3.08576971214E+007, +2.15399634180E+000, +4.38687117808E+002
+3.09827284105E+007, +2.82811855233E+000, +4.41299165464E+002
+3.11077596996E+007, +2.02961668574E+000, +4.43179172558E+002
+3.12327909887E+007, +2.64663908990E+000, +4.45716851602E+002
+3.13578222778E+007, +3.50860426018E+000, +4.48458508948E+002
+3.14828535670E+007, +2.69082812044E+000, +4.51047071376E+002
+3.16078848561E+007, +2.87874120620E+000, +4.53126665163E+002
+3.17329161452E+007, +2.40066862250E+000, +4.55569703226E+002
+3.18579474343E+007, +1.66291254841E+000, +4.58337348340E+002
+3.19829787234E+007, +1.94390368999E+000, +4.60107515957E+002
+3.21080100125E+007, +3.15811242146E+000, +4.62736557778E+002
+3.22330413016E+007, +2.81100514336E+000, +4.64921093202E+002
+3.23580725907E+007, +1.84055654137E+000, +4.67502225939E+002
+3.24831038798E+007, +3.00398616670E+000, +4.69773414815E+002
+3.26081351690E+007, +2.38139040046E+000, +4.71847937243E+002
+3.27331664581E+007, +2.30725909928E+000, +4.75139944422E+002
+3.28581977472E+007, +2.10395950572E+000, +4.77909089411E+002
+3.29832290363E+007, +2.00810544000E+000, +4.78908897427E+002
+3.31082603254E+007, +1.98495623979E+000, +4.82431498004E+002
+3.32332916145E+007, +3.83594861369E+000, +4.84942853508E+002
+3.33583229036E+007, +2.76808198927E+000, +4.87151111241E+002
+3.34833541927E+007, +2.14240520152E+000, +4.88992767324E+002
+3.36083854819E+007, +1.98698555508E+000, +4.92113047915E+002
+3.37334167710E+007, +3.07000187383E+000, +4.94329252506E+002
+3.38584480601E+007, +2.31611347329E+000, +4.96301721622E+002
+3.39834793492E+007, +2.29553485651E+000, +5.00806919610E+002
+3.41085106383E+007, +2.93772389856E+000, +5.03158594812E+002
+3.42335419274E+007, +2.33652509860E+000, +5.04694326598E+002
+3.43585732165E+007, +3.03417784347E+000, +5.07651712959E+002
+3.44836045056E+007, +3.11370050406E+000, +5.11843832630E+002
+3.46086357947E+007, +2.76780423211E+000, +5.12203585001E+002
+3.47336670839E+007, +2.73891567426E+000, +5.15653418273E+002
+3.48586983730E+007, +3.55253489735E+000, +5.18042709257E+002
+3.49837296621E+007, +3.94390435211E+000, +5.21061944519E+002
+3.51087609512E+007, +3.09978995992E+000, +5.24605815430E+002
+3.52337922403E+007, +4.06685537427E+000, +5.25456238016E+002
+3.53588235294E+007, +9.86467927187E-001, +5.29411563473E+002
+3.54838548185E+007, +2.14468851943E+000, +5.31130435068E+002
+3.56088861076E+007, +1.91543629305E+000, +5.34250007105E+002
+3.57339173967E+007, +2.70480630141E+000, +5.36512593844E+002
+3.58589486859E+007, +1.08342989377E+000, +5.37882197373E+002
+3.59839799750E+007, +2.45122291329E+000, +5.42433038194E+002
+3.61090112641E+007, +2.55178182270E+000, +5.44622434477E+002
+3.62340425532E+007, +2.40526069555E+000, +5.46589132995E+002
+3.63590738423E+007, +3.11052597008E+000, +5.50571098013E+002
+3.64841051314E+007, +2.25442733076E+000, +5.51014437671E+002
+3.66091364205E+007, +2.33082287626E+000, +5.55588993745E+002
+3.67341677096E+007, +2.52460886866E+000, +5.59539986295E+002
+3.68591989987E+007, +2.48476871143E+000, +5.61037992949E+002
+3.69842302879E+007, +3.54124901032E+000, +5.63111660632E+002
+3.71092615770E+007, +3.14590054339E+000, +5.66750020492E+002
+3.72342928661E+007, +2.98065155101E+000, +5.68722088932E+002
+3.73593241552E+007, +1.30165853965E+000, +5.73729175524E+002
+3.74843554443E+007, +2.23116449536E+000, +5.75651274863E+002
+3.76093867334E+007, +1.70415029337E+000, +5.77247609399E+002
+3.77344180225E+007, +3.27650299470E+000, +5.82457032147E+002
+3.78594493116E+007, +3.10724972878E+000, +5.84543491306E+002
+3.79844806008E+007, +2.68371258965E+000, +5.87863766879E+002
+3.81095118899E+007, +1.17429593240E+000, +5.90342565205E+002
+3.82345431790E+007, +2.70379380580E+000, +5.93282595778E+002
+3.83595744681E+007, +3.58253054649E+000, +5.95537688006E+002
+3.84846057572E+007, +2.42092408275E+000, +5.99047221960E+002
+3.86096370463E+007, +2.06999062621E+000, +6.02282375432E+002
+3.87346683354E+007, +4.63959708756E+000, +6.05587925256E+002
+3.88596996245E+007, +2.53766042418E+000, +6.07357529856E+002
+3.89847309136E+007, +5.27558622341E+000, +6.11045576217E+002
+3.91097622028E+007, +3.51287699783E+000, +6.16277856167E+002
+3.92347934919E+007, +2.68874858409E+000, +6.15540968282E+002
+3.93598247810E+007, +4.44665027809E+000, +6.19642144868E+002
+3.94848560701E+007, +2.38470325139E+000, +6.22180008813E+002
+3.96098873592E+007, +3.47377025611E+000, +6.25096914637E+002
+3.97349186483E+007, +5.93901791517E+000, +6.29320002010E+002
+3.98599499374E+007, +4.68769912038E+000, +6.32885815807E+002
+3.99849812265E+007, +2.31129396139E+000, +6.37332820024E+002
+4.01100125156E+007, +3.42292214130E+000, +6.40060467677E+002
