"# Channel 1"
"# Trace 1"
Frequency, Formatted Data, Formatted Data
+1.00000000000E+005, +3.24791027240E+001, +1.26054775652E+000
+2.66777963272E+005, +3.24835506151E+001, +3.71616731283E+000
+4.33555926544E+005, +3.24673874156E+001, +6.06216379607E+000
+6.00333889816E+005, +3.24674687307E+001, +8.36149885868E+000
+7.67111853088E+005, +3.24909112476E+001, +1.06642381213E+001
+9.33889816361E+005, +3.24645286610E+001, +1.29715782231E+001
+1.10066777963E+006, +3.25079770805E+001, +1.53408428056E+001
+1.26744574290E+006, +3.24973871253E+001, +1.76225717714E+001
+1.43422370618E+006, +3.25166069981E+001, +1.99887458591E+001
+1.60100166945E+006, +3.25299638788E+001, +2.22572298010E+001
+1.76777963272E+006, +3.25148115326E+001, +2.45315514011E+001
+1.93455759599E+006, +3.25177915755E+001, +2.68903237521E+001
+2.10133555927E+006, +3.24944066573E+001, +2.91447957063E+001
+2.26811352254E+006, +3.25424420788E+001, +3.14872863384E+001
+2.43489148581E+006, +3.25289668163E+001, +3.38689695834E+001
+2.60166944908E+006, +3.25270539611E+001, +3.61755405114E+001
+2.76844741235E+006, +3.25494624231E+001, +3.84840925331E+001
+2.93522537563E+006, +3.25230790021E+001, +4.07913909100E+001
+3.10200333890E+006, +3.26136539295E+001, +4.30525914103E+001
+3.26878130217E+006, +3.25550518356E+001, +4.54367214017E+001
+3.43555926544E+006, +3.25923353931E+001, +4.77375866331E+001
+3.60233722871E+006, +3.26181518937E+001, +5.00988058578E+001
+3.76911519199E+006, +3.26649355915E+001, +5.24721436697E+001
+3.93589315526E+006, +3.25943316335E+001, +5.46062850660E+001
+4.10267111853E+006, +3.21504743627E+001, +5.71446891330E+001
+4.26944908180E+006, +3.27914906792E+001, +5.97090803161E+001
+4.43622704508E+006, +3.27276146304E+001, +6.18204433817E+001
+4.60300500835E+006, +3.27116023377E+001, +6.41588370009E+001
+4.76978297162E+006, +3.26708230673E+001, +6.64321680864E+001
+4.93656093489E+006, +3.27860231972E+001, +6.88197957779E+001
+5.10333889816E+006, +3.27648614931E+001, +7.10262148637E+001
+5.27011686144E+006, +3.29790929747E+001, +7.35392521607E+001
+5.43689482471E+006, +3.28242047398E+001, +7.58259632067E+001
+5.60367278798E+006, +3.28976458730E+001, +7.82879612873E+001
+5.77045075125E+006, +3.28886414838E+001, +8.05913590636E+001
+5.93722871452E+006, +3.29720324505E+001, +8.29410209681E+001
+6.10400667780E+006, +3.29857383709E+001, +8.52021998358E+001
+6.27078464107E+006, +3.30682351792E+001, +8.75560453736E+001
+6.43756260434E+006, +3.30713081927E+001, +8.99400826808E+001
+6.60434056761E+006, +3.31262790792E+001, +9.22386669688E+001
+6.77111853088E+006, +3.32360834848E+001, +9.45742731065E+001
+6.93789649416E+006, +3.32055058751E+001, +9.69751546002E+001
+7.10467445743E+006, +3.31872556675E+001, +9.93141134774E+001
+7.27145242070E+006, +3.32548999301E+001, +1.01587242830E+002
+7.43823038397E+006, +3.32973769115E+001, +1.04006665231E+002
+7.60500834725E+006, +3.32585478330E+001, +1.06428429581E+002
+7.77178631052E+006, +3.33590945389E+001, +1.08858947345E+002
+7.93856427379E+006, +3.33332704901E+001, +1.11106201437E+002
+8.10534223706E+006, +3.33789129066E+001, +1.13515067495E+002
+8.27212020033E+006, +3.33409564866E+001, +1.15863057693E+002
+8.43889816361E+006, +3.33496174294E+001, +1.18384605568E+002
+8.60567612688E+006, +3.32648924552E+001, +1.20751231684E+002
+8.77245409015E+006, +3.33759048322E+001, +1.23137400699E+002
+8.93923205342E+006, +3.34965426887E+001, +1.25569217492E+002
+9.10601001669E+006, +3.35311289131E+001, +1.28104729823E+002
+9.27278797997E+006, +3.34280461271E+001, +1.30432439914E+002
+9.43956594324E+006, +3.35223246426E+001, +1.32839523031E+002
+9.60634390651E+006, +3.35281972099E+001, +1.35315464204E+002
+9.77312186978E+006, +3.35698782799E+001, +1.37770410496E+002
+9.93989983306E+006, +3.37502868284E+001, +1.40218076133E+002
+1.01066777963E+007, +3.35853617673E+001, +1.42602298482E+002
+1.02734557596E+007, +3.36980477643E+001, +1.45224554409E+002
+1.04402337229E+007, +3.36452359419E+001, +1.47589398203E+002
+1.06070116861E+007, +3.36894545480E+001, +1.50049989554E+002
+1.07737896494E+007, +3.37793932412E+001, +1.52568668778E+002
+1.09405676127E+007, +3.39115626639E+001, +1.54983091555E+002
+1.11073455760E+007, +3.38918101512E+001, +1.57523155164E+002
+1.12741235392E+007, +3.38158127095E+001, +1.60014600274E+002
+1.14409015025E+007, +3.40332094363E+001, +1.62521716272E+002
+1.16076794658E+007, +3.40941505306E+001, +1.64978291674E+002
+1.17744574290E+007, +3.41351048838E+001, +1.67733872275E+002
+1.19412353923E+007, +3.41924399196E+001, +1.70058379523E+002
+1.21080133556E+007, +3.41411003410E+001, +1.72585666264E+002
+1.22747913189E+007, +3.43499520683E+001, +1.75080531999E+002
+1.24415692821E+007, +3.41920116983E+001, +1.77630202001E+002
+1.26083472454E+007, +3.42525861086E+001, +1.80128121907E+002
+1.27751252087E+007, +3.44432653132E+001, +1.82511371476E+002
+1.29419031720E+007, +3.42988483646E+001, +1.85141827014E+002
+1.31086811352E+007, +3.45720391987E+001, +1.87861462819E+002
+1.32754590985E+007, +3.45154237178E+001, +1.90247815248E+002
+1.34422370618E+007, +3.46241897819E+001, +1.92694610807E+002
+1.36090150250E+007, +3.50017542676E+001, +1.95384714541E+002
+1.37757929883E+007, +3.47825717376E+001, +1.97967247400E+002
+1.39425709516E+007, +3.49042471454E+001, +2.00585018531E+002
+1.41093489149E+007, +3.49090648053E+001, +2.02946055453E+002
+1.42761268781E+007, +3.51187113357E+001, +2.05884387426E+002
+1.44429048414E+007, +3.51590178240E+001, +2.08324629423E+002
+1.46096828047E+007, +3.51472119910E+001, +2.11009534546E+002
+1.47764607679E+007, +3.54193654706E+001, +2.13432095525E+002
+1.49432387312E+007, +3.51096053277E+001, +2.16049471612E+002
+1.51100166945E+007, +3.53658569938E+001, +2.18923358377E+002
+1.52767946578E+007, +3.56928351056E+001, +2.21221450419E+002
+1.54435726210E+007, +3.56575099286E+001, +2.24011574887E+002
+1.56103505843E+007, +3.58325684886E+001, +2.26554301845E+002
+1.57771285476E+007, +3.58160999847E+001, +2.29158762558E+002
+1.59439065109E+007, +3.59637035337E+001, +2.31988718122E+002
+1.61106844741E+007, +3.60874617422E+001, +2.34446932466E+002
+1.62774624374E+007, +3.62932643347E+001, +2.37180661854E+002
+1.64442404007E+007, +3.59606324825E+001, +2.39868016643E+002
+1.66110183639E+007, +3.62016766012E+001, +2.42404298523E+002
+1.67777963272E+007, +3.63339053516E+001, +2.45253579728E+002
+1.69445742905E+007, +3.65447056022E+001, +2.47884863816E+002
+1.71113522538E+007, +3.60361402783E+001, +2.50445013420E+002
+1.72781302170E+007, +3.65924737790E+001, +2.53514375843E+002
+1.74449081803E+007, +3.63288493584E+001, +2.56387506889E+002
+1.76116861436E+007, +3.66222945386E+001, +2.59190630899E+002
+1.77784641068E+007, +3.68129505679E+001, +2.61642830581E+002
+1.79452420701E+007, +3.69972380491E+001, +2.64362563638E+002
+1.81120200334E+007, +3.70268704998E+001, +2.66570727797E+002
+1.82787979967E+007, +3.73499773424E+001, +2.69692233702E+002
+1.84455759599E+007, +3.75787190795E+001, +2.72540900049E+002
+1.86123539232E+007, +3.80594739291E+001, +2.75183801261E+002
+1.87791318865E+007, +3.74679436068E+001, +2.78462396609E+002
+1.89459098497E+007, +3.78145811058E+001, +2.80973517749E+002
+1.91126878130E+007, +3.80555786338E+001, +2.83905296575E+002
+1.92794657763E+007, +3.78947005974E+001, +2.86811979198E+002
+1.94462437396E+007, +3.78660806355E+001, +2.89643972723E+002
+1.96130217028E+007, +3.80745194612E+001, +2.92342087169E+002
+1.97797996661E+007, +3.85886625446E+001, +2.95188749590E+002
+1.99465776294E+007, +3.83166448786E+001, +2.97803177473E+002
+2.01133555927E+007, +3.84051188551E+001, +3.01215240334E+002
+2.02801335559E+007, +3.88924631817E+001, +3.04434226672E+002
+2.04469115192E+007, +3.90324731322E+001, +3.06905218642E+002
+2.06136894825E+007, +3.93451975788E+001, +3.10016064175E+002
+2.07804674457E+007, +3.93505088008E+001, +3.13182477672E+002
+2.09472454090E+007, +3.95025051401E+001, +3.16266275180E+002
+2.11140233723E+007, +3.97506875892E+001, +3.18856314809E+002
+2.12808013356E+007, +3.98495428913E+001, +3.21088819238E+002
+2.14475792988E+007, +3.95130259107E+001, +3.24234850685E+002
+2.16143572621E+007, +4.05290972234E+001, +3.27047613410E+002
+2.17811352254E+007, +4.00734783416E+001, +3.30051565489E+002
+2.19479131886E+007, +4.09990058955E+001, +3.33282452798E+002
+2.21146911519E+007, +4.09978435184E+001, +3.35737380811E+002
+2.22814691152E+007, +4.10983927050E+001, +3.39300578920E+002
+2.24482470785E+007, +4.05795609720E+001, +3.42254563307E+002
+2.26150250417E+007, +4.17413757429E+001, +3.45443471342E+002
+2.27818030050E+007, +4.10291684490E+001, +3.48822972738E+002
+2.29485809683E+007, +4.22825905999E+001, +3.51112221392E+002
+2.31153589316E+007, +4.18545852840E+001, +3.54678253691E+002
+2.32821368948E+007, +4.27006465517E+001, +3.57674653639E+002
+2.34489148581E+007, +4.28072101220E+001, +3.60299946839E+002
+2.36156928214E+007, +4.30531924264E+001, +3.64628891693E+002
+2.37824707846E+007, +4.33584640883E+001, +3.67006873573E+002
+2.39492487479E+007, +4.25672545093E+001, +3.70582698145E+002
+2.41160267112E+007, +4.36577379268E+001, +3.72665134651E+002
+2.42828046745E+007, +4.33649108875E+001, +3.76259228154E+002
+2.44495826377E+007, +4.44724315616E+001, +3.80126860953E+002
+2.46163606010E+007, +4.44556440566E+001, +3.82542076856E+002
+2.47831385643E+007, +4.42911269102E+001, +3.86699281899E+002
+2.49499165275E+007, +4.55242149441E+001, +3.89202364649E+002
+2.51166944908E+007, +4.54540901137E+001, +3.92108125307E+002
+2.52834724541E+007, +4.59875124087E+001, +3.95634657147E+002
+2.54502504174E+007, +4.67104217529E+001, +3.99319718810E+002
+2.56170283806E+007, +4.60573781168E+001, +4.02361103934E+002
+2.57838063439E+007, +4.69284111905E+001, +4.05951829803E+002
+2.59505843072E+007, +4.71774688521E+001, +4.09036998359E+002
+2.61173622705E+007, +4.72802652502E+001, +4.12289665716E+002
+2.62841402337E+007, +4.73178595988E+001, +4.15180000703E+002
+2.64509181970E+007, +4.70365941959E+001, +4.18291146909E+002
+2.66176961603E+007, +4.79679871641E+001, +4.22845185275E+002
+2.67844741235E+007, +4.80925025446E+001, +4.25888500469E+002
+2.69512520868E+007, +4.87489862398E+001, +4.28272956157E+002
+2.71180300501E+007, +4.94409869099E+001, +4.31341566933E+002
+2.72848080134E+007, +5.01092014836E+001, +4.34323079120E+002
+2.74515859766E+007, +5.03751408429E+001, +4.38123281523E+002
+2.76183639399E+007, +4.96568116471E+001, +4.41824313514E+002
+2.77851419032E+007, +5.00247910087E+001, +4.44595915942E+002
+2.79519198664E+007, +4.97937487097E+001, +4.48090738940E+002
+2.81186978297E+007, +5.06294595358E+001, +4.50275877727E+002
+2.82854757930E+007, +5.14113552991E+001, +4.54581766257E+002
+2.84522537563E+007, +4.93781759567E+001, +4.58821935584E+002
+2.86190317195E+007, +4.99915572262E+001, +4.62174922148E+002
+2.87858096828E+007, +5.23591355222E+001, +4.65470473303E+002
+2.89525876461E+007, +5.22838236333E+001, +4.68195829160E+002
+2.91193656093E+007, +5.12396131155E+001, +4.72175216716E+002
+2.92861435726E+007, +5.15108410915E+001, +4.75740162255E+002
+2.94529215359E+007, +5.23091383847E+001, +4.80133680920E+002
+2.96196994992E+007, +5.21260561227E+001, +4.82925890400E+002
+2.97864774624E+007, +5.38989254330E+001, +4.87674613131E+002
+2.99532554257E+007, +5.30472932776E+001, +4.91690908186E+002
+3.01200333890E+007, +5.25684461070E+001, +4.96376366959E+002
+3.02868113523E+007, +5.33285258625E+001, +4.99634625079E+002
+3.04535893155E+007, +5.31759590955E+001, +5.02551467928E+002
+3.06203672788E+007, +5.39275531893E+001, +5.06211657987E+002
+3.07871452421E+007, +5.35432773586E+001, +5.10190656722E+002
+3.09539232053E+007, +5.43244929416E+001, +5.14386694241E+002
+3.11207011686E+007, +5.39978105793E+001, +5.20606798152E+002
+3.12874791319E+007, +5.43259648042E+001, +5.21132308869E+002
+3.14542570952E+007, +5.52291907819E+001, +5.26121836284E+002
+3.16210350584E+007, +5.42876116475E+001, +5.29950379859E+002
+3.17878130217E+007, +5.37919335312E+001, +5.33946959052E+002
+3.19545909850E+007, +5.51787520778E+001, +5.37979251256E+002
+3.21213689482E+007, +5.34089754593E+001, +5.43783442959E+002
+3.22881469115E+007, +5.51205312002E+001, +5.45830011807E+002
+3.24549248748E+007, +5.61010845166E+001, +5.51472671749E+002
+3.26217028381E+007, +5.42923393745E+001, +5.55616796102E+002
+3.27884808013E+007, +5.69197854728E+001, +5.59665728525E+002
+3.29552587646E+007, +5.72978727973E+001, +5.63326185352E+002
+3.31220367279E+007, +5.91625261913E+001, +5.67867091637E+002
+3.32888146912E+007, +5.73128352472E+001, +5.73505836894E+002
+3.34555926544E+007, +5.59469409808E+001, +5.78032811362E+002
+3.36223706177E+007, +5.85627315658E+001, +5.81855176474E+002
+3.37891485810E+007, +5.85146512514E+001, +5.85052030867E+002
+3.39559265442E+007, +5.87295227819E+001, +5.90948578262E+002
+3.41227045075E+007, +5.89202964673E+001, +5.94506506178E+002
+3.42894824708E+007, +5.89492714197E+001, +5.98593923062E+002
+3.44562604341E+007, +5.92409074228E+001, +6.03103528017E+002
+3.46230383973E+007, +6.11936197333E+001, +6.10042732384E+002
+3.47898163606E+007, +6.07003018769E+001, +6.13352033548E+002
+3.49565943239E+007, +6.21131164757E+001, +6.17668418324E+002
+3.51233722871E+007, +6.13789131375E+001, +6.23686895320E+002
+3.52901502504E+007, +6.14874510201E+001, +6.26478704575E+002
+3.54569282137E+007, +6.32436642758E+001, +6.32029554015E+002
+3.56237061770E+007, +6.24909440626E+001, +6.36879319628E+002
+3.57904841402E+007, +6.21379111118E+001, +6.43401649056E+002
+3.59572621035E+007, +6.45078091121E+001, +6.46780533477E+002
+3.61240400668E+007, +6.59648385419E+001, +6.51882825207E+002
+3.62908180301E+007, +6.56333959798E+001, +6.59725466986E+002
+3.64575959933E+007, +6.56928929442E+001, +6.62599895380E+002
+3.66243739566E+007, +6.57843227915E+001, +6.65957647474E+002
+3.67911519199E+007, +6.70261465870E+001, +6.74627798743E+002
+3.69579298831E+007, +6.51204742284E+001, +6.78576728536E+002
+3.71247078464E+007, +6.61480317024E+001, +6.83221088741E+002
+3.72914858097E+007, +6.75250972627E+001, +6.89230558456E+002
+3.74582637730E+007, +6.84996016290E+001, +6.97299510039E+002
+3.76250417362E+007, +6.88058447807E+001, +7.00134133422E+002
+3.77918196995E+007, +7.16588999686E+001, +7.03985393632E+002
+3.79585976628E+007, +6.94573947499E+001, +7.12479002912E+002
+3.81253756260E+007, +6.92982737283E+001, +7.16326796044E+002
+3.82921535893E+007, +7.25494385432E+001, +7.21734201566E+002
+3.84589315526E+007, +7.25873209932E+001, +7.27954510322E+002
+3.86257095159E+007, +7.18957992973E+001, +7.35844754656E+002
+3.87924874791E+007, +7.28784471816E+001, +7.41121036916E+002
+3.89592654424E+007, +7.32859541028E+001, +7.44733440414E+002
+3.91260434057E+007, +7.55870183628E+001, +7.53261637397E+002
+3.92928213689E+007, +7.72184508824E+001, +7.58132753895E+002
+3.94595993322E+007, +7.58617363149E+001, +7.64969357424E+002
+3.96263772955E+007, +7.48956082897E+001, +7.69678050030E+002
+3.97931552588E+007, +7.44134068646E+001, +7.75961716718E+002
+3.99599332220E+007, +8.01162331180E+001, +7.82592627842E+002
+4.01267111853E+007, +7.95965577674E+001, +7.90309324268E+002
+4.02934891486E+007, +7.66774407850E+001, +7.96158277988E+002
+4.04602671119E+007, +7.94040257009E+001, +8.00652692568E+002
+4.06270450751E+007, +8.17331917651E+001, +8.09147047228E+002
+4.07938230384E+007, +8.37014780223E+001, +8.15382842201E+002
+4.09606010017E+007, +8.46615104103E+001, +8.21555862422E+002
+4.11273789649E+007, +8.55592747647E+001, +8.28928924488E+002
+4.12941569282E+007, +8.36211052970E+001, +8.37124091791E+002
+4.14609348915E+007, +8.61317100544E+001, +8.46601231375E+002
+4.16277128548E+007, +8.94576646753E+001, +8.53041556406E+002
+4.17944908180E+007, +8.82123942656E+001, +8.55860050351E+002
+4.19612687813E+007, +8.78530872466E+001, +8.64526996343E+002
+4.21280467446E+007, +8.60305674863E+001, +8.73991579853E+002
+4.22948247078E+007, +9.07754253336E+001, +8.81641743237E+002
+4.24616026711E+007, +9.50122231150E+001, +8.81420626865E+002
+4.26283806344E+007, +9.49607689740E+001, +8.95814215165E+002
+4.27951585977E+007, +9.10247181996E+001, +9.07732017102E+002
+4.29619365609E+007, +9.57070116876E+001, +9.10606225634E+002
+4.31287145242E+007, +9.80872517370E+001, +9.17660413256E+002
+4.32954924875E+007, +9.95818071892E+001, +9.25450315382E+002
+4.34622704508E+007, +9.69779047927E+001, +9.36410572021E+002
+4.36290484140E+007, +1.04056354500E+002, +9.44657993920E+002
+4.37958263773E+007, +1.00959259141E+002, +9.55134446711E+002
+4.39626043406E+007, +1.02448092289E+002, +9.59025673479E+002
+4.41293823038E+007, +1.07820795942E+002, +9.75174441386E+002
+4.42961602671E+007, +1.07090179078E+002, +9.82655051629E+002
+4.44629382304E+007, +1.07220871219E+002, +9.90887788155E+002
+4.46297161937E+007, +1.11783105941E+002, +9.97812606073E+002
+4.47964941569E+007, +1.11872702332E+002, +1.01075400788E+003
+4.49632721202E+007, +1.06617230770E+002, +1.01838069028E+003
+4.51300500835E+007, +1.14800380093E+002, +1.02609466683E+003
+4.52968280467E+007, +1.17480392277E+002, +1.03477843478E+003
+4.54636060100E+007, +1.19397869856E+002, +1.05255454712E+003
+4.56303839733E+007, +1.17641568196E+002, +1.05840403222E+003
+4.57971619366E+007, +1.21996625638E+002, +1.06800164656E+003
+4.59639398998E+007, +1.24235102875E+002, +1.08552371447E+003
+4.61307178631E+007, +1.22652659212E+002, +1.08518837404E+003
+4.62974958264E+007, +1.28912737647E+002, +1.10080499904E+003
+4.64642737896E+007, +1.28749965496E+002, +1.11209262530E+003
+4.66310517529E+007, +1.29698221451E+002, +1.12596592998E+003
+4.67978297162E+007, +1.37732238875E+002, +1.12481948971E+003
+4.69646076795E+007, +1.38517068354E+002, +1.14725689434E+003
+4.71313856427E+007, +1.45498717020E+002, +1.15890706936E+003
+4.72981636060E+007, +1.45825772549E+002, +1.17579922294E+003
+4.74649415693E+007, +1.40689197358E+002, +1.17784520937E+003
+4.76317195326E+007, +1.53181538558E+002, +1.19442965212E+003
+4.77984974958E+007, +1.58173195395E+002, +1.20874905328E+003
+4.79652754591E+007, +1.59223176245E+002, +1.21745356187E+003
+4.81320534224E+007, +1.62829719713E+002, +1.23472890965E+003
+4.82988313856E+007, +1.60207891834E+002, +1.24751321348E+003
+4.84656093489E+007, +1.69340251272E+002, +1.26393001012E+003
+4.86323873122E+007, +1.73789659624E+002, +1.27081840879E+003
+4.87991652755E+007, +1.77560824649E+002, +1.28366310411E+003
+4.89659432387E+007, +1.82134267703E+002, +1.29942831927E+003
+4.91327212020E+007, +1.84554927107E+002, +1.32235273577E+003
+4.92994991653E+007, +1.91779238468E+002, +1.33053603055E+003
+4.94662771285E+007, +1.97421129435E+002, +1.34203214120E+003
+4.96330550918E+007, +2.04431377309E+002, +1.36250270479E+003
+4.97998330551E+007, +2.12704955509E+002, +1.37008981348E+003
+4.99666110184E+007, +2.18858565110E+002, +1.38616546414E+003
+5.01333889816E+007, +2.24059397124E+002, +1.39704184287E+003
+5.03001669449E+007, +2.13519230202E+002, +1.41698245420E+003
+5.04669449082E+007, +2.21981019841E+002, +1.43484258029E+003
+5.06337228715E+007, +2.38121514626E+002, +1.45353653064E+003
+5.08005008347E+007, +2.36404793649E+002, +1.46054822923E+003
+5.09672787980E+007, +2.49392234370E+002, +1.47962861494E+003
+5.11340567613E+007, +2.54860051487E+002, +1.50345033327E+003
+5.13008347245E+007, +2.53007306292E+002, +1.52709976979E+003
+5.14676126878E+007, +2.55768347695E+002, +1.54911704421E+003
+5.16343906511E+007, +2.65714458276E+002, +1.56053335917E+003
+5.18011686144E+007, +2.66941549763E+002, +1.58390970614E+003
+5.19679465776E+007, +2.67249918902E+002, +1.59968666249E+003
+5.21347245409E+007, +2.80620356411E+002, +1.61815893456E+003
+5.23015025042E+007, +3.04582317254E+002, +1.66660268250E+003
+5.24682804674E+007, +2.88007085947E+002, +1.67300599182E+003
+5.26350584307E+007, +3.14075207340E+002, +1.69937260281E+003
+5.28018363940E+007, +3.11637979243E+002, +1.73761681002E+003
+5.29686143573E+007, +3.18368516533E+002, +1.75939175081E+003
+5.31353923205E+007, +3.24968399341E+002, +1.76675020896E+003
+5.33021702838E+007, +3.39306248951E+002, +1.81029598434E+003
+5.34689482471E+007, +3.61353819420E+002, +1.84342119322E+003
