"# Channel 1"
"# Trace 1"
Frequency, Formatted Data, Formatted Data
+1.00000000000E+005, +5.99785266940E+001, +1.04046434264E+000
+2.25031289111E+005, +5.98753053251E+001, +3.20941681779E+000
+3.50062578223E+005, +5.99671193984E+001, +4.88526984851E+000
+4.75093867334E+005, +6.00802436937E+001, +6.67426917355E+000
+6.00125156446E+005, +6.00558555964E+001, +8.30526476353E+000
+7.25156445557E+005, +6.01311693113E+001, +9.93956554150E+000
+8.50187734668E+005, +6.01905387534E+001, +1.17083140055E+001
+9.75219023780E+005, +6.02413271053E+001, +1.33622504334E+001
+1.10025031289E+006, +6.03106753580E+001, +1.49840927577E+001
+1.22528160200E+006, +6.03094589724E+001, +1.66807652905E+001
+1.35031289111E+006, +6.03513906455E+001, +1.84580964105E+001
+1.47534418023E+006, +6.03930326958E+001, +1.99823589104E+001
+1.60037546934E+006, +6.05166076849E+001, +2.15806507514E+001
+1.72540675845E+006, +6.04219394039E+001, +2.32387397230E+001
+1.85043804756E+006, +6.04508257470E+001, +2.49295032304E+001
+1.97546933667E+006, +6.06050088638E+001, +2.65193479232E+001
+2.10050062578E+006, +6.06000732583E+001, +2.82204951991E+001
+2.22553191489E+006, +6.05067050220E+001, +2.98368265867E+001
+2.35056320401E+006, +6.06544462663E+001, +3.15374805158E+001
+2.47559449312E+006, +6.06875735789E+001, +3.31781799420E+001
+2.60062578223E+006, +6.07315847444E+001, +3.47581474933E+001
+2.72565707134E+006, +6.06684633556E+001, +3.64490971997E+001
+2.85068836045E+006, +6.08124675172E+001, +3.81199768730E+001
+2.97571964956E+006, +6.08430060417E+001, +3.96847163776E+001
+3.10075093867E+006, +6.08268611075E+001, +4.14137037116E+001
+3.22578222778E+006, +6.08890207535E+001, +4.31301422385E+001
+3.35081351690E+006, +6.08547113729E+001, +4.47433135235E+001
+3.47584480601E+006, +6.09210232809E+001, +4.62101388423E+001
+3.60087609512E+006, +6.10489072071E+001, +4.78833540815E+001
+3.72590738423E+006, +6.09187223866E+001, +4.95476405862E+001
+3.85093867334E+006, +6.09433597232E+001, +5.12210655911E+001
+3.97596996245E+006, +6.09481903380E+001, +5.29344117380E+001
+4.10100125156E+006, +6.09614310603E+001, +5.46488292991E+001
+4.22603254068E+006, +6.10863168235E+001, +5.63047014294E+001
+4.35106382979E+006, +6.11758955632E+001, +5.78692420865E+001
+4.47609511890E+006, +6.11753819822E+001, +5.94518613981E+001
+4.60112640801E+006, +6.12885772789E+001, +6.12061524689E+001
+4.72615769712E+006, +6.12805013278E+001, +6.28048365096E+001
+4.85118898623E+006, +6.14557090283E+001, +6.44328786372E+001
+4.97622027534E+006, +6.12687864962E+001, +6.60791264468E+001
+5.10125156446E+006, +6.13231404298E+001, +6.77175739180E+001
+5.22628285357E+006, +6.13620086389E+001, +6.93443452896E+001
+5.35131414268E+006, +6.14084736119E+001, +7.09039254173E+001
+5.47634543179E+006, +6.15078350441E+001, +7.27453687567E+001
+5.60137672090E+006, +6.14581229538E+001, +7.42634917395E+001
+5.72640801001E+006, +6.16004422445E+001, +7.58323464281E+001
+5.85143929912E+006, +6.17138409137E+001, +7.75661629821E+001
+5.97647058824E+006, +6.16984414324E+001, +7.91395449461E+001
+6.10150187735E+006, +6.17980281465E+001, +8.09758936085E+001
+6.22653316646E+006, +6.18322015854E+001, +8.23897181441E+001
+6.35156445557E+006, +6.18313587873E+001, +8.43236107553E+001
+6.47659574468E+006, +6.18520946736E+001, +8.58961257103E+001
+6.60162703379E+006, +6.18571555124E+001, +8.75855613764E+001
+6.72665832290E+006, +6.20203502390E+001, +8.91759001404E+001
+6.85168961202E+006, +6.20685080312E+001, +9.08220194611E+001
+6.97672090113E+006, +6.20609341630E+001, +9.26019423591E+001
+7.10175219024E+006, +6.21172293941E+001, +9.42576913749E+001
+7.22678347935E+006, +6.21374718219E+001, +9.59190811644E+001
+7.35181476846E+006, +6.22571937980E+001, +9.74815635333E+001
+7.47684605757E+006, +6.21895209507E+001, +9.92689490335E+001
+7.60187734668E+006, +6.23020664137E+001, +1.00906718895E+002
+7.72690863579E+006, +6.22496100520E+001, +1.02570419424E+002
+7.85193992491E+006, +6.24316986197E+001, +1.04232336183E+002
+7.97697121402E+006, +6.24488261747E+001, +1.05788206500E+002
+8.10200250313E+006, +6.25849114407E+001, +1.07521347932E+002
+8.22703379224E+006, +6.25895702141E+001, +1.09312723942E+002
+8.35206508135E+006, +6.25399908178E+001, +1.11125123114E+002
+8.47709637046E+006, +6.25805987459E+001, +1.12646036144E+002
+8.60212765957E+006, +6.27087927767E+001, +1.14314226422E+002
+8.72715894869E+006, +6.27448458416E+001, +1.16057330050E+002
+8.85219023780E+006, +6.27250814038E+001, +1.17597959067E+002
+8.97722152691E+006, +6.28559398380E+001, +1.19361690707E+002
+9.10225281602E+006, +6.27827573587E+001, +1.21165382106E+002
+9.22728410513E+006, +6.30526026636E+001, +1.22595156428E+002
+9.35231539424E+006, +6.29983958066E+001, +1.24442442880E+002
+9.47734668335E+006, +6.30471962304E+001, +1.25985919834E+002
+9.60237797247E+006, +6.30696050178E+001, +1.27782551109E+002
+9.72740926158E+006, +6.32259269726E+001, +1.29432530648E+002
+9.85244055069E+006, +6.31426156203E+001, +1.31234796523E+002
+9.97747183980E+006, +6.32217708613E+001, +1.33052307440E+002
+1.01025031289E+007, +6.31532883336E+001, +1.34672750464E+002
+1.02275344180E+007, +6.34934334029E+001, +1.36208092107E+002
+1.03525657071E+007, +6.34118503535E+001, +1.38134562554E+002
+1.04775969962E+007, +6.33768935330E+001, +1.39809202892E+002
+1.06026282854E+007, +6.34595002278E+001, +1.41459293081E+002
+1.07276595745E+007, +6.36283860015E+001, +1.43093144138E+002
+1.08526908636E+007, +6.36738691742E+001, +1.44853241791E+002
+1.09777221527E+007, +6.38042122229E+001, +1.46666392437E+002
+1.11027534418E+007, +6.37929525987E+001, +1.48261386151E+002
+1.12277847309E+007, +6.38231885036E+001, +1.50050774721E+002
+1.13528160200E+007, +6.39170196734E+001, +1.51691575221E+002
+1.14778473091E+007, +6.39228216161E+001, +1.53386506852E+002
+1.16028785982E+007, +6.40212901126E+001, +1.55284498872E+002
+1.17279098874E+007, +6.40912296387E+001, +1.57090552097E+002
+1.18529411765E+007, +6.42959355745E+001, +1.58825620560E+002
+1.19779724656E+007, +6.42227340055E+001, +1.60434750101E+002
+1.21030037547E+007, +6.44301641058E+001, +1.62210496941E+002
+1.22280350438E+007, +6.43995143165E+001, +1.64169640863E+002
+1.23530663329E+007, +6.44083490628E+001, +1.65534263169E+002
+1.24780976220E+007, +6.44930248020E+001, +1.67420845519E+002
+1.26031289111E+007, +6.44704801304E+001, +1.69242871888E+002
+1.27281602003E+007, +6.44646298519E+001, +1.71025758587E+002
+1.28531914894E+007, +6.47886839188E+001, +1.72705378922E+002
+1.29782227785E+007, +6.48957439471E+001, +1.74613833687E+002
+1.31032540676E+007, +6.50748438435E+001, +1.76235948576E+002
+1.32282853567E+007, +6.48441322626E+001, +1.78033925337E+002
+1.33533166458E+007, +6.50329486553E+001, +1.79861501213E+002
+1.34783479349E+007, +6.51189985839E+001, +1.81637106968E+002
+1.36033792240E+007, +6.52349755383E+001, +1.83279433701E+002
+1.37284105131E+007, +6.49817726311E+001, +1.85048830842E+002
+1.38534418023E+007, +6.53154665447E+001, +1.86788418132E+002
+1.39784730914E+007, +6.52989858157E+001, +1.88580491811E+002
+1.41035043805E+007, +6.54367321516E+001, +1.90613768700E+002
+1.42285356696E+007, +6.56469183414E+001, +1.92466157625E+002
+1.43535669587E+007, +6.56988726277E+001, +1.94071165353E+002
+1.44785982478E+007, +6.58090960850E+001, +1.95885806587E+002
+1.46036295369E+007, +6.60802251210E+001, +1.97649119618E+002
+1.47286608260E+007, +6.58446898438E+001, +1.99430552043E+002
+1.48536921151E+007, +6.60015965104E+001, +2.01395302554E+002
+1.49787234043E+007, +6.59504921379E+001, +2.03110060455E+002
+1.51037546934E+007, +6.57479615403E+001, +2.05071240664E+002
+1.52287859825E+007, +6.62736326886E+001, +2.06553311341E+002
+1.53538172716E+007, +6.62746980256E+001, +2.08521108832E+002
+1.54788485607E+007, +6.64969938160E+001, +2.10437839435E+002
+1.56038798498E+007, +6.65944245938E+001, +2.12131225123E+002
+1.57289111389E+007, +6.65596999427E+001, +2.13723766340E+002
+1.58539424280E+007, +6.64946212143E+001, +2.15536727833E+002
+1.59789737171E+007, +6.66062691823E+001, +2.17553168645E+002
+1.61040050063E+007, +6.69797461013E+001, +2.19336730021E+002
+1.62290362954E+007, +6.69958069686E+001, +2.21357038328E+002
+1.63540675845E+007, +6.70755963614E+001, +2.23249507026E+002
+1.64790988736E+007, +6.69838271013E+001, +2.25179121246E+002
+1.66041301627E+007, +6.72416561659E+001, +2.26829191396E+002
+1.67291614518E+007, +6.73742093983E+001, +2.28883504850E+002
+1.68541927409E+007, +6.76874375952E+001, +2.30348005186E+002
+1.69792240300E+007, +6.74236332921E+001, +2.32356694156E+002
+1.71042553191E+007, +6.68325034599E+001, +2.34386196229E+002
+1.72292866083E+007, +6.71068731778E+001, +2.36379309876E+002
+1.73543178974E+007, +6.79369028347E+001, +2.38477846647E+002
+1.74793491865E+007, +6.72830307261E+001, +2.40071914586E+002
+1.76043804756E+007, +6.79904697596E+001, +2.42066740255E+002
+1.77294117647E+007, +6.76810658982E+001, +2.44004986312E+002
+1.78544430538E+007, +6.77809656247E+001, +2.45414447994E+002
+1.79794743429E+007, +6.80824631485E+001, +2.47247998556E+002
+1.81045056320E+007, +6.85195669156E+001, +2.49606803313E+002
+1.82295369212E+007, +6.85806492242E+001, +2.51354145099E+002
+1.83545682103E+007, +6.86185026789E+001, +2.53413530162E+002
+1.84795994994E+007, +6.82299482762E+001, +2.55061982165E+002
+1.86046307885E+007, +6.86651441086E+001, +2.56956755807E+002
+1.87296620776E+007, +6.86054997758E+001, +2.58582768616E+002
+1.88546933667E+007, +6.89430300897E+001, +2.60356381552E+002
+1.89797246558E+007, +6.93870657288E+001, +2.62936773968E+002
+1.91047559449E+007, +6.94113993834E+001, +2.64382206305E+002
+1.92297872340E+007, +6.90014218175E+001, +2.66555618670E+002
+1.93548185232E+007, +6.96652308449E+001, +2.68525620851E+002
+1.94798498123E+007, +6.97885391966E+001, +2.70304813698E+002
+1.96048811014E+007, +6.98476914601E+001, +2.72504079021E+002
+1.97299123905E+007, +6.98622786146E+001, +2.74369252429E+002
+1.98549436796E+007, +6.98305345934E+001, +2.77284938086E+002
+1.99799749687E+007, +6.98727010362E+001, +2.78459719967E+002
+2.01050062578E+007, +7.03038785814E+001, +2.80105286170E+002
+2.02300375469E+007, +7.05769120053E+001, +2.82529537458E+002
+2.03550688360E+007, +6.98701242825E+001, +2.84093234525E+002
+2.04801001252E+007, +7.05709561370E+001, +2.86677911829E+002
+2.06051314143E+007, +7.02335135812E+001, +2.88332814399E+002
+2.07301627034E+007, +7.07860094040E+001, +2.89976223516E+002
+2.08551939925E+007, +7.13761698649E+001, +2.92193684592E+002
+2.09802252816E+007, +7.12592901000E+001, +2.94039937153E+002
+2.11052565707E+007, +7.14314973492E+001, +2.95543097148E+002
+2.12302878598E+007, +7.16397515090E+001, +2.98131867386E+002
+2.13553191489E+007, +7.13662050476E+001, +2.99969690723E+002
+2.14803504380E+007, +7.14618732811E+001, +3.02502069002E+002
+2.16053817272E+007, +7.19525007846E+001, +3.03679349571E+002
+2.17304130163E+007, +7.16185488558E+001, +3.05769111198E+002
+2.18554443054E+007, +7.19445841899E+001, +3.07905463676E+002
+2.19804755945E+007, +7.21262328180E+001, +3.10323167088E+002
+2.21055068836E+007, +7.21765805454E+001, +3.12205376558E+002
+2.22305381727E+007, +7.23098800221E+001, +3.14242396865E+002
+2.23555694618E+007, +7.23111820062E+001, +3.15960779165E+002
+2.24806007509E+007, +7.30728468542E+001, +3.18259504762E+002
+2.26056320401E+007, +7.28176398440E+001, +3.20538211923E+002
+2.27306633292E+007, +7.29338594714E+001, +3.22732136993E+002
+2.28556946183E+007, +7.27153847751E+001, +3.24665806085E+002
+2.29807259074E+007, +7.29801936119E+001, +3.26971265397E+002
+2.31057571965E+007, +7.38883790910E+001, +3.29224650943E+002
+2.32307884856E+007, +7.32585876644E+001, +3.30956340444E+002
+2.33558197747E+007, +7.43791913104E+001, +3.32525548405E+002
+2.34808510638E+007, +7.41007727338E+001, +3.34199089524E+002
+2.36058823529E+007, +7.45433289935E+001, +3.37570834478E+002
+2.37309136421E+007, +7.36367427301E+001, +3.39664135386E+002
+2.38559449312E+007, +7.49430184993E+001, +3.41956933324E+002
+2.39809762203E+007, +7.54743547901E+001, +3.43737253312E+002
+2.41060075094E+007, +7.41254343720E+001, +3.45409625919E+002
+2.42310387985E+007, +7.50867476805E+001, +3.47749166074E+002
+2.43560700876E+007, +7.50789160301E+001, +3.50245793957E+002
+2.44811013767E+007, +7.53914320621E+001, +3.52181689301E+002
+2.46061326658E+007, +7.56800935638E+001, +3.54576991664E+002
+2.47311639549E+007, +7.59850120700E+001, +3.56156339846E+002
+2.48561952441E+007, +7.63550337215E+001, +3.58767655642E+002
+2.49812265332E+007, +7.58999652196E+001, +3.61162639451E+002
+2.51062578223E+007, +7.67525077676E+001, +3.63082102309E+002
+2.52312891114E+007, +7.69736226173E+001, +3.64862127308E+002
+2.53563204005E+007, +7.64680787562E+001, +3.67032745547E+002
+2.54813516896E+007, +7.69926781369E+001, +3.69950250672E+002
+2.56063829787E+007, +7.66622194029E+001, +3.72353118356E+002
+2.57314142678E+007, +7.74276953176E+001, +3.73594746017E+002
+2.58564455569E+007, +7.73535616279E+001, +3.75836002002E+002
+2.59814768461E+007, +7.78177598498E+001, +3.78786481775E+002
+2.61065081352E+007, +7.83585893458E+001, +3.81292542830E+002
+2.62315394243E+007, +7.83465826486E+001, +3.84017807896E+002
+2.63565707134E+007, +7.80918269498E+001, +3.85370084577E+002
+2.64816020025E+007, +7.87573312012E+001, +3.87591009161E+002
+2.66066332916E+007, +7.94631277679E+001, +3.89442803394E+002
+2.67316645807E+007, +7.94491429483E+001, +3.91877803136E+002
+2.68566958698E+007, +7.91115595484E+001, +3.94660767575E+002
+2.69817271589E+007, +7.86678961468E+001, +3.97123080875E+002
+2.71067584481E+007, +7.91575694486E+001, +3.99403275437E+002
+2.72317897372E+007, +7.98268289963E+001, +4.01614667069E+002
+2.73568210263E+007, +7.95045816212E+001, +4.03708876358E+002
+2.74818523154E+007, +8.00538626352E+001, +4.06094571294E+002
+2.76068836045E+007, +8.03123227108E+001, +4.08428445452E+002
+2.77319148936E+007, +7.96945737807E+001, +4.10895769632E+002
+2.78569461827E+007, +8.06229965386E+001, +4.12327986348E+002
+2.79819774718E+007, +8.07669350703E+001, +4.14568021820E+002
+2.81070087610E+007, +8.05619044551E+001, +4.18069436089E+002
+2.82320400501E+007, +8.15671146303E+001, +4.20803985346E+002
+2.83570713392E+007, +8.15149851102E+001, +4.21941878237E+002
+2.84821026283E+007, +8.19978661772E+001, +4.24832010747E+002
+2.86071339174E+007, +8.26072610201E+001, +4.26755634020E+002
+2.87321652065E+007, +8.25643163886E+001, +4.29561151250E+002
+2.88571964956E+007, +8.26969643289E+001, +4.32787729682E+002
+2.89822277847E+007, +8.26385576268E+001, +4.34558159740E+002
+2.91072590738E+007, +8.26525256204E+001, +4.37885591438E+002
+2.92322903630E+007, +8.25877211054E+001, +4.39148475783E+002
+2.93573216521E+007, +8.30140953492E+001, +4.42829930825E+002
+2.94823529412E+007, +8.36476024026E+001, +4.44631293625E+002
+2.96073842303E+007, +8.33361260336E+001, +4.46957280798E+002
+2.97324155194E+007, +8.35587634268E+001, +4.48879784432E+002
+2.98574468085E+007, +8.33977808787E+001, +4.52174479338E+002
+2.99824780976E+007, +8.36439521177E+001, +4.54493476576E+002
+3.01075093867E+007, +8.38370527456E+001, +4.56897057218E+002
+3.02325406758E+007, +8.45448491305E+001, +4.58852980676E+002
+3.03575719650E+007, +8.49042166948E+001, +4.61815560851E+002
+3.04826032541E+007, +8.51169330989E+001, +4.63539409165E+002
+3.06076345432E+007, +8.56870965634E+001, +4.66722645493E+002
+3.07326658323E+007, +8.60329990056E+001, +4.71701762555E+002
+3.08576971214E+007, +8.68824465305E+001, +4.72746042428E+002
+3.09827284105E+007, +8.60069381590E+001, +4.75964793055E+002
+3.11077596996E+007, +8.66883024158E+001, +4.79028531911E+002
+3.12327909887E+007, +8.56418214458E+001, +4.79559941560E+002
+3.13578222778E+007, +8.63212389617E+001, +4.82505719894E+002
+3.14828535670E+007, +8.75996745478E+001, +4.85637063788E+002
+3.16078848561E+007, +8.67894428187E+001, +4.89016577499E+002
+3.17329161452E+007, +8.80055100600E+001, +4.90306037212E+002
+3.18579474343E+007, +8.87640297019E+001, +4.94619002213E+002
+3.19829787234E+007, +8.77302572710E+001, +4.98263626192E+002
+3.21080100125E+007, +8.78191862233E+001, +4.98308549311E+002
+3.22330413016E+007, +8.76236650686E+001, +5.02537635360E+002
+3.23580725907E+007, +8.98586493960E+001, +5.05227890051E+002
+3.24831038798E+007, +8.85443008952E+001, +5.09452819556E+002
+3.26081351690E+007, +8.87028503048E+001, +5.10707352758E+002
+3.27331664581E+007, +8.96585976707E+001, +5.12829186578E+002
+3.28581977472E+007, +8.98744832993E+001, +5.16226571722E+002
+3.29832290363E+007, +9.04093475027E+001, +5.20482317504E+002
+3.31082603254E+007, +9.01554657532E+001, +5.21221012705E+002
+3.32332916145E+007, +9.12828979494E+001, +5.23813382217E+002
+3.33583229036E+007, +9.02936662597E+001, +5.25990735484E+002
+3.34833541927E+007, +9.18319080918E+001, +5.30246664868E+002
+3.36083854819E+007, +9.33506107652E+001, +5.33345830528E+002
+3.37334167710E+007, +9.21910423414E+001, +5.35406056223E+002
+3.38584480601E+007, +9.30461260211E+001, +5.37571621475E+002
+3.39834793492E+007, +9.22606403427E+001, +5.41069056932E+002
+3.41085106383E+007, +9.22877891877E+001, +5.44042267428E+002
+3.42335419274E+007, +9.31489307250E+001, +5.46436073010E+002
+3.43585732165E+007, +9.29791241112E+001, +5.49447611718E+002
+3.44836045056E+007, +9.34628848396E+001, +5.51732443445E+002
+3.46086357947E+007, +9.40872349606E+001, +5.56637379685E+002
+3.47336670839E+007, +9.51501725459E+001, +5.59445095903E+002
+3.48586983730E+007, +9.48921166107E+001, +5.60797666339E+002
+3.49837296621E+007, +9.74850522466E+001, +5.65654872928E+002
+3.51087609512E+007, +9.51438242242E+001, +5.68265804014E+002
+3.52337922403E+007, +9.59132288840E+001, +5.72121469853E+002
+3.53588235294E+007, +9.64760491923E+001, +5.73053289515E+002
+3.54838548185E+007, +9.76727312299E+001, +5.77886808384E+002
+3.56088861076E+007, +9.62891730678E+001, +5.80910803742E+002
+3.57339173967E+007, +9.70731747241E+001, +5.83331640709E+002
+3.58589486859E+007, +9.70576355976E+001, +5.88417883433E+002
+3.59839799750E+007, +9.74513434262E+001, +5.90082989291E+002
+3.61090112641E+007, +1.00074325582E+002, +5.91691183905E+002
+3.62340425532E+007, +9.84631471673E+001, +5.96355660882E+002
+3.63590738423E+007, +9.91008556766E+001, +5.99836987700E+002
+3.64841051314E+007, +9.94634553053E+001, +6.01555980774E+002
+3.66091364205E+007, +1.00724429069E+002, +6.05936677746E+002
+3.67341677096E+007, +1.01255913201E+002, +6.08547144847E+002
+3.68591989987E+007, +9.99230372527E+001, +6.13173185281E+002
+3.69842302879E+007, +1.02658910178E+002, +6.15070922290E+002
+3.71092615770E+007, +1.02461891740E+002, +6.20443438370E+002
+3.72342928661E+007, +1.01093008659E+002, +6.21106762627E+002
+3.73593241552E+007, +1.02467342284E+002, +6.26298639113E+002
+3.74843554443E+007, +1.01689536334E+002, +6.26694424620E+002
+3.76093867334E+007, +1.04149382105E+002, +6.33138814656E+002
+3.77344180225E+007, +1.03777320660E+002, +6.35483059344E+002
+3.78594493116E+007, +1.04826237313E+002, +6.39614127727E+002
+3.79844806008E+007, +1.03690928008E+002, +6.42390071768E+002
+3.81095118899E+007, +1.04501129296E+002, +6.44666817220E+002
+3.82345431790E+007, +1.06425153468E+002, +6.48370369278E+002
+3.83595744681E+007, +1.04889399524E+002, +6.50555171328E+002
+3.84846057572E+007, +1.07188394872E+002, +6.56345045276E+002
+3.86096370463E+007, +1.05205795916E+002, +6.58207177217E+002
+3.87346683354E+007, +1.10970512586E+002, +6.62733321203E+002
+3.88596996245E+007, +1.07468024390E+002, +6.67489920739E+002
+3.89847309136E+007, +1.09275947230E+002, +6.72426260619E+002
+3.91097622028E+007, +1.10363004045E+002, +6.73282147368E+002
+3.92347934919E+007, +1.09487512562E+002, +6.76650341702E+002
+3.93598247810E+007, +1.10623736501E+002, +6.82155134957E+002
+3.94848560701E+007, +1.12608164492E+002, +6.87182613351E+002
+3.96098873592E+007, +1.13851598797E+002, +6.87996584588E+002
+3.97349186483E+007, +1.12614115582E+002, +6.91195277428E+002
+3.98599499374E+007, +1.12218946108E+002, +6.94579122492E+002
+3.99849812265E+007, +1.12248550489E+002, +6.99932339849E+002
+4.01100125156E+007, +1.13741981245E+002, +7.03246953863E+002
