"# Channel 1"
"# Trace 1"
Frequency, Formatted Data, Formatted Data
+1.00000000000E+005, +7.63821092648E+001, +1.74015965416E+000
+3.18898623279E+005, +7.64470974975E+001, +4.69580819987E+000
+5.37797246558E+005, +7.65101666098E+001, +8.01059431254E+000
+7.56695869837E+005, +7.64999331631E+001, +1.12523297064E+001
+9.75594493116E+005, +7.65085728731E+001, +1.44511675539E+001
+1.19449311640E+006, +7.64448128982E+001, +1.75937132467E+001
+1.41339173967E+006, +7.64125625433E+001, +2.09115446099E+001
+1.63229036295E+006, +7.64776563003E+001, +2.41320140446E+001
+1.85118898623E+006, +7.63944690824E+001, +2.75879541610E+001
+2.07008760951E+006, +7.64377652352E+001, +3.06664211495E+001
+2.28898623279E+006, +7.65900861738E+001, +3.41132087614E+001
+2.50788485607E+006, +7.65566329701E+001, +3.72231964090E+001
+2.72678347935E+006, +7.64891733809E+001, +4.05525367381E+001
+2.94568210263E+006, +7.65677588270E+001, +4.39285469791E+001
+3.16458072591E+006, +7.65106921007E+001, +4.72020638904E+001
+3.38347934919E+006, +7.66452441878E+001, +5.03179586432E+001
+3.60237797247E+006, +7.66623564535E+001, +5.34032114555E+001
+3.82127659574E+006, +7.66629537882E+001, +5.67460026294E+001
+4.04017521902E+006, +7.68184157146E+001, +6.00963415318E+001
+4.25907384230E+006, +7.66447179989E+001, +6.31879073311E+001
+4.47797246558E+006, +7.68690426828E+001, +6.65510014121E+001
+4.69687108886E+006, +7.66433297416E+001, +6.97819899484E+001
+4.91576971214E+006, +7.68221486196E+001, +7.31031826356E+001
+5.13466833542E+006, +7.69093972028E+001, +7.63767438264E+001
+5.35356695870E+006, +7.69950154738E+001, +7.96130894092E+001
+5.57246558198E+006, +7.68398892404E+001, +8.27416802866E+001
+5.79136420526E+006, +7.71014976350E+001, +8.62718582711E+001
+6.01026282854E+006, +7.72482271669E+001, +8.92579108215E+001
+6.22916145181E+006, +7.72212229419E+001, +9.25529078648E+001
+6.44806007509E+006, +7.72893959151E+001, +9.58325882621E+001
+6.66695869837E+006, +7.74849641539E+001, +9.92267233077E+001
+6.88585732165E+006, +7.73542707912E+001, +1.02521860116E+002
+7.10475594493E+006, +7.74905852862E+001, +1.05680802697E+002
+7.32365456821E+006, +7.75745736301E+001, +1.08979682311E+002
+7.54255319149E+006, +7.75357968365E+001, +1.12196325895E+002
+7.76145181477E+006, +7.79567096497E+001, +1.15442667444E+002
+7.98035043805E+006, +7.79394608142E+001, +1.18863310195E+002
+8.19924906133E+006, +7.80290142671E+001, +1.22016360808E+002
+8.41814768461E+006, +7.81894651889E+001, +1.25279045452E+002
+8.63704630788E+006, +7.80844568567E+001, +1.28544493214E+002
+8.85594493116E+006, +7.81490210042E+001, +1.31932781230E+002
+9.07484355444E+006, +7.82913295445E+001, +1.35453034757E+002
+9.29374217772E+006, +7.83736372957E+001, +1.38789876350E+002
+9.51264080100E+006, +7.84717796264E+001, +1.41993638195E+002
+9.73153942428E+006, +7.84987822832E+001, +1.45368336419E+002
+9.95043804756E+006, +7.84188526171E+001, +1.48590404600E+002
+1.01693366708E+007, +7.86738436854E+001, +1.51985583642E+002
+1.03882352941E+007, +7.89879704532E+001, +1.55201832752E+002
+1.06071339174E+007, +7.87396878923E+001, +1.58749984720E+002
+1.08260325407E+007, +7.89810483478E+001, +1.62023984991E+002
+1.10449311640E+007, +7.90848888445E+001, +1.65194086644E+002
+1.12638297872E+007, +7.90925233432E+001, +1.68591074496E+002
+1.14827284105E+007, +7.92586031824E+001, +1.71864601071E+002
+1.17016270338E+007, +7.94577165381E+001, +1.75423068252E+002
+1.19205256571E+007, +7.93767941716E+001, +1.78709874859E+002
+1.21394242804E+007, +7.95060119477E+001, +1.82108953191E+002
+1.23583229036E+007, +7.98410160257E+001, +1.85588024797E+002
+1.25772215269E+007, +7.97183882116E+001, +1.89107877321E+002
+1.27961201502E+007, +7.97690573359E+001, +1.92461318827E+002
+1.30150187735E+007, +8.00893479925E+001, +1.95524341632E+002
+1.32339173967E+007, +8.01351308096E+001, +1.99304268160E+002
+1.34528160200E+007, +8.02147829986E+001, +2.02778022115E+002
+1.36717146433E+007, +8.04908070606E+001, +2.06010043650E+002
+1.38906132666E+007, +8.07458257211E+001, +2.09689753007E+002
+1.41095118899E+007, +8.07289277786E+001, +2.13149663797E+002
+1.43284105131E+007, +8.05043959218E+001, +2.16440707501E+002
+1.45473091364E+007, +8.12164543841E+001, +2.19907830499E+002
+1.47662077597E+007, +8.09524265067E+001, +2.23314911725E+002
+1.49851063830E+007, +8.12408692347E+001, +2.26704248214E+002
+1.52040050063E+007, +8.16310474200E+001, +2.30716086047E+002
+1.54229036295E+007, +8.15806794647E+001, +2.34025622988E+002
+1.56418022528E+007, +8.13728781868E+001, +2.37629746963E+002
+1.58607008761E+007, +8.16319633431E+001, +2.40999610301E+002
+1.60795994994E+007, +8.20069974474E+001, +2.44970018394E+002
+1.62984981227E+007, +8.23084024431E+001, +2.47922211828E+002
+1.65173967459E+007, +8.21352670972E+001, +2.51967991661E+002
+1.67362953692E+007, +8.23176940910E+001, +2.55112238064E+002
+1.69551939925E+007, +8.25041041716E+001, +2.58517969730E+002
+1.71740926158E+007, +8.22059970162E+001, +2.62710494795E+002
+1.73929912390E+007, +8.23441409480E+001, +2.65845733006E+002
+1.76118898623E+007, +8.28180220463E+001, +2.69111204520E+002
+1.78307884856E+007, +8.34183993089E+001, +2.73093654082E+002
+1.80496871089E+007, +8.34262422243E+001, +2.76656039689E+002
+1.82685857322E+007, +8.38804632926E+001, +2.80707837416E+002
+1.84874843554E+007, +8.36819618556E+001, +2.84018411820E+002
+1.87063829787E+007, +8.33718652787E+001, +2.87927392653E+002
+1.89252816020E+007, +8.40242052072E+001, +2.91547156158E+002
+1.91441802253E+007, +8.40767616137E+001, +2.94465478257E+002
+1.93630788486E+007, +8.42420524564E+001, +2.98686216385E+002
+1.95819774718E+007, +8.52112121388E+001, +3.02014954070E+002
+1.98008760951E+007, +8.52422683268E+001, +3.06089246036E+002
+2.00197747184E+007, +8.53873945081E+001, +3.09828922930E+002
+2.02386733417E+007, +8.49287410722E+001, +3.13114809070E+002
+2.04575719650E+007, +8.53120660246E+001, +3.16993179592E+002
+2.06764705882E+007, +8.60406504965E+001, +3.20871640526E+002
+2.08953692115E+007, +8.58637442207E+001, +3.24770186102E+002
+2.11142678348E+007, +8.62302759765E+001, +3.27892716625E+002
+2.13331664581E+007, +8.67795090084E+001, +3.32131322573E+002
+2.15520650814E+007, +8.64562280553E+001, +3.35549339552E+002
+2.17709637046E+007, +8.71310908376E+001, +3.39844115629E+002
+2.19898623279E+007, +8.70764269388E+001, +3.43937050444E+002
+2.22087609512E+007, +8.72138915641E+001, +3.47267854885E+002
+2.24276595745E+007, +8.81668433552E+001, +3.51294184842E+002
+2.26465581977E+007, +8.82963108168E+001, +3.54792004351E+002
+2.28654568210E+007, +8.90762712861E+001, +3.58693370213E+002
+2.30843554443E+007, +8.85733697675E+001, +3.63015026803E+002
+2.33032540676E+007, +8.98144573480E+001, +3.66428096370E+002
+2.35221526909E+007, +8.96208953521E+001, +3.70547029155E+002
+2.37410513141E+007, +8.94216132775E+001, +3.73258165009E+002
+2.39599499374E+007, +8.98153551313E+001, +3.77974240335E+002
+2.41788485607E+007, +8.99486316108E+001, +3.82037900437E+002
+2.43977471840E+007, +9.03597747908E+001, +3.86286792375E+002
+2.46166458073E+007, +9.08730668570E+001, +3.90508975152E+002
+2.48355444305E+007, +9.05166569192E+001, +3.93705690755E+002
+2.50544430538E+007, +9.21013530524E+001, +3.97730540017E+002
+2.52733416771E+007, +9.28918930591E+001, +4.02005764868E+002
+2.54922403004E+007, +9.22344565169E+001, +4.06015470700E+002
+2.57111389237E+007, +9.19042474567E+001, +4.09326864056E+002
+2.59300375469E+007, +9.26384617853E+001, +4.12878403300E+002
+2.61489361702E+007, +9.35813585508E+001, +4.17141293359E+002
+2.63678347935E+007, +9.26831383073E+001, +4.22137799415E+002
+2.65867334168E+007, +9.37699647137E+001, +4.26152410284E+002
+2.68056320401E+007, +9.42213221221E+001, +4.29812619081E+002
+2.70245306633E+007, +9.40589510847E+001, +4.34152926704E+002
+2.72434292866E+007, +9.51541770219E+001, +4.37317487139E+002
+2.74623279099E+007, +9.45100087357E+001, +4.42851524180E+002
+2.76812265332E+007, +9.50218541083E+001, +4.47821372683E+002
+2.79001251564E+007, +9.55215793357E+001, +4.51202844028E+002
+2.81190237797E+007, +9.63084803789E+001, +4.54950963011E+002
+2.83379224030E+007, +9.57296082660E+001, +4.58589432527E+002
+2.85568210263E+007, +9.56083937713E+001, +4.64184799783E+002
+2.87757196496E+007, +9.69423443106E+001, +4.68593977917E+002
+2.89946182728E+007, +9.68915037617E+001, +4.73339419605E+002
+2.92135168961E+007, +9.60577092533E+001, +4.78636154811E+002
+2.94324155194E+007, +9.74432570033E+001, +4.82968306929E+002
+2.96513141427E+007, +9.78310249889E+001, +4.86100549262E+002
+2.98702127660E+007, +9.80936971534E+001, +4.90674218873E+002
+3.00891113892E+007, +9.84741289107E+001, +4.95764724136E+002
+3.03080100125E+007, +9.91383548943E+001, +4.98123165252E+002
+3.05269086358E+007, +1.00765701414E+002, +5.04033451262E+002
+3.07458072591E+007, +9.99079580602E+001, +5.07226156666E+002
+3.09647058824E+007, +9.99732234252E+001, +5.13087892364E+002
+3.11836045056E+007, +9.97199210151E+001, +5.16680837652E+002
+3.14025031289E+007, +1.00625475857E+002, +5.21629818315E+002
+3.16214017522E+007, +1.02546215814E+002, +5.26406501451E+002
+3.18403003755E+007, +1.00918653769E+002, +5.33685471506E+002
+3.20591989987E+007, +1.00225674205E+002, +5.36262592269E+002
+3.22780976220E+007, +1.02145419524E+002, +5.40192192224E+002
+3.24969962453E+007, +1.02745765921E+002, +5.45130339982E+002
+3.27158948686E+007, +1.02251205815E+002, +5.48496405526E+002
+3.29347934919E+007, +1.03197471333E+002, +5.53979354033E+002
+3.31536921151E+007, +1.02735650235E+002, +5.57057130909E+002
+3.33725907384E+007, +1.05213428311E+002, +5.64383034298E+002
+3.35914893617E+007, +1.05455410366E+002, +5.69718027628E+002
+3.38103879850E+007, +1.04014579205E+002, +5.74038416291E+002
+3.40292866083E+007, +1.07072812743E+002, +5.78847195211E+002
+3.42481852315E+007, +1.06788576100E+002, +5.83758945403E+002
+3.44670838548E+007, +1.06263163615E+002, +5.88289188568E+002
+3.46859824781E+007, +1.07601371337E+002, +5.94804350133E+002
+3.49048811014E+007, +1.09643834583E+002, +5.99473687613E+002
+3.51237797247E+007, +1.09267382202E+002, +6.03446928317E+002
+3.53426783479E+007, +1.09393649811E+002, +6.10011745880E+002
+3.55615769712E+007, +1.09243116554E+002, +6.14281366183E+002
+3.57804755945E+007, +1.12170131030E+002, +6.17372002122E+002
+3.59993742178E+007, +1.09992715262E+002, +6.26932302177E+002
+3.62182728411E+007, +1.11118645046E+002, +6.28712294956E+002
+3.64371714643E+007, +1.12887406357E+002, +6.32562581971E+002
+3.66560700876E+007, +1.12136251179E+002, +6.40810917939E+002
+3.68749687109E+007, +1.12793559398E+002, +6.48342277485E+002
+3.70938673342E+007, +1.16625615487E+002, +6.51530623062E+002
+3.73127659574E+007, +1.13244710556E+002, +6.56954595529E+002
+3.75316645807E+007, +1.13723131734E+002, +6.59445967965E+002
+3.77505632040E+007, +1.15081694421E+002, +6.67678980028E+002
+3.79694618273E+007, +1.17337579695E+002, +6.71976864818E+002
+3.81883604506E+007, +1.15699762427E+002, +6.80921159213E+002
+3.84072590738E+007, +1.12981179861E+002, +6.84639166982E+002
+3.86261576971E+007, +1.14823126083E+002, +6.90398888130E+002
+3.88450563204E+007, +1.19046263337E+002, +6.94160950268E+002
+3.90639549437E+007, +1.20906373478E+002, +6.99369750075E+002
+3.92828535670E+007, +1.18887568854E+002, +7.09014749084E+002
+3.95017521902E+007, +1.21135271730E+002, +7.13409438867E+002
+3.97206508135E+007, +1.20644461957E+002, +7.18338670551E+002
+3.99395494368E+007, +1.22823476208E+002, +7.25045312175E+002
+4.01584480601E+007, +1.24587173496E+002, +7.27739215644E+002
+4.03773466834E+007, +1.25295515872E+002, +7.36657848705E+002
+4.05962453066E+007, +1.24191990640E+002, +7.42197640245E+002
+4.08151439299E+007, +1.27850286972E+002, +7.47225265849E+002
+4.10340425532E+007, +1.24561442143E+002, +7.53146402356E+002
+4.12529411765E+007, +1.25524280145E+002, +7.57546212173E+002
+4.14718397997E+007, +1.26471031455E+002, +7.65391198461E+002
+4.16907384230E+007, +1.27236413488E+002, +7.74344494861E+002
+4.19096370463E+007, +1.28720942228E+002, +7.79437656606E+002
+4.21285356696E+007, +1.30453303278E+002, +7.86726843260E+002
+4.23474342929E+007, +1.31735559206E+002, +7.93370343954E+002
+4.25663329161E+007, +1.34154098109E+002, +7.94543908030E+002
+4.27852315394E+007, +1.33137838918E+002, +8.05529249053E+002
+4.30041301627E+007, +1.37293474233E+002, +8.11397051692E+002
+4.32230287860E+007, +1.34685930094E+002, +8.19041499626E+002
+4.34419274093E+007, +1.35843907325E+002, +8.29216025288E+002
+4.36608260325E+007, +1.35599641498E+002, +8.28849861188E+002
+4.38797246558E+007, +1.36943681806E+002, +8.38659139990E+002
+4.40986232791E+007, +1.36050822756E+002, +8.46400673981E+002
+4.43175219024E+007, +1.37159291655E+002, +8.51243015515E+002
+4.45364205257E+007, +1.43464042528E+002, +8.63314192505E+002
+4.47553191489E+007, +1.42462435339E+002, +8.68579675105E+002
+4.49742177722E+007, +1.42777592694E+002, +8.76439566376E+002
+4.51931163955E+007, +1.43895566795E+002, +8.77015544326E+002
+4.54120150188E+007, +1.44115149940E+002, +8.86146539543E+002
+4.56309136421E+007, +1.48156751142E+002, +8.93478168145E+002
+4.58498122653E+007, +1.45921947863E+002, +8.98274287979E+002
+4.60687108886E+007, +1.46462478163E+002, +9.11050418687E+002
+4.62876095119E+007, +1.49662885759E+002, +9.18189449560E+002
+4.65065081352E+007, +1.54383373532E+002, +9.24850380098E+002
+4.67254067584E+007, +1.50585665763E+002, +9.30890894186E+002
+4.69443053817E+007, +1.53028664475E+002, +9.34763908006E+002
+4.71632040050E+007, +1.51964249342E+002, +9.44715872418E+002
+4.73821026283E+007, +1.57397389476E+002, +9.50836101776E+002
+4.76010012516E+007, +1.60437475607E+002, +9.62055186736E+002
+4.78198998748E+007, +1.56735868544E+002, +9.72281992565E+002
+4.80387984981E+007, +1.59124139116E+002, +9.78717619525E+002
+4.82576971214E+007, +1.61166696116E+002, +9.91904607536E+002
+4.84765957447E+007, +1.60915105636E+002, +9.94764476197E+002
+4.86954943680E+007, +1.64747984271E+002, +1.00354370005E+003
+4.89143929912E+007, +1.67569097045E+002, +1.00811245424E+003
+4.91332916145E+007, +1.62444993642E+002, +1.02506793008E+003
+4.93521902378E+007, +1.66663234741E+002, +1.02541636091E+003
+4.95710888611E+007, +1.78442999388E+002, +1.03872925212E+003
+4.97899874844E+007, +1.75275747868E+002, +1.04083915773E+003
+5.00088861076E+007, +1.72807575635E+002, +1.04784422230E+003
+5.02277847309E+007, +1.80150387764E+002, +1.06290467408E+003
+5.04466833542E+007, +1.81698226110E+002, +1.06884199058E+003
+5.06655819775E+007, +1.84281657680E+002, +1.08492377102E+003
+5.08844806008E+007, +1.82049673539E+002, +1.09291457530E+003
+5.11033792240E+007, +1.86753279291E+002, +1.10183873983E+003
+5.13222778473E+007, +1.85751025900E+002, +1.11905213684E+003
+5.15411764706E+007, +1.89364753522E+002, +1.11863490801E+003
+5.17600750939E+007, +1.90510620995E+002, +1.13280362368E+003
+5.19789737171E+007, +1.98914559560E+002, +1.13780574040E+003
+5.21978723404E+007, +1.96804659510E+002, +1.15346663221E+003
+5.24167709637E+007, +1.86937033891E+002, +1.16203529973E+003
+5.26356695870E+007, +2.04348815314E+002, +1.16420578746E+003
+5.28545682103E+007, +2.03785758435E+002, +1.18331957776E+003
+5.30734668335E+007, +2.01356425766E+002, +1.19279775124E+003
+5.32923654568E+007, +2.05382335746E+002, +1.20955408952E+003
+5.35112640801E+007, +2.13995491501E+002, +1.21060421155E+003
+5.37301627034E+007, +2.13108302950E+002, +1.22397752624E+003
+5.39490613267E+007, +2.15102502112E+002, +1.23965304602E+003
+5.41679599499E+007, +2.13235876602E+002, +1.24618127277E+003
+5.43868585732E+007, +2.19966903773E+002, +1.25205732027E+003
+5.46057571965E+007, +2.22623850607E+002, +1.27215212269E+003
+5.48246558198E+007, +2.26768665610E+002, +1.28308604185E+003
+5.50435544431E+007, +2.31923869439E+002, +1.30314751978E+003
+5.52624530663E+007, +2.32603266515E+002, +1.31632243091E+003
+5.54813516896E+007, +2.37331602856E+002, +1.30963561630E+003
+5.57002503129E+007, +2.49556795598E+002, +1.33206162406E+003
+5.59191489362E+007, +2.44896450272E+002, +1.33958382445E+003
+5.61380475594E+007, +2.48023875110E+002, +1.35691792959E+003
+5.63569461827E+007, +2.45306108555E+002, +1.37004456162E+003
+5.65758448060E+007, +2.50875084774E+002, +1.37502356643E+003
+5.67947434293E+007, +2.55631994253E+002, +1.39441765390E+003
+5.70136420526E+007, +2.63843761487E+002, +1.40237768612E+003
+5.72325406758E+007, +2.65231798834E+002, +1.42115952207E+003
+5.74514392991E+007, +2.65425824068E+002, +1.43227692884E+003
+5.76703379224E+007, +2.69244100903E+002, +1.43924771781E+003
+5.78892365457E+007, +2.68301536286E+002, +1.45980139278E+003
+5.81081351690E+007, +2.89892912728E+002, +1.48577465568E+003
+5.83270337922E+007, +2.78648722371E+002, +1.49199887427E+003
+5.85459324155E+007, +3.04478882388E+002, +1.50130641926E+003
+5.87648310388E+007, +2.98283159063E+002, +1.51514684587E+003
+5.89837296621E+007, +3.09493627603E+002, +1.53096440198E+003
+5.92026282854E+007, +3.14825729183E+002, +1.55287182027E+003
+5.94215269086E+007, +3.10665674418E+002, +1.56428289626E+003
+5.96404255319E+007, +3.17429604511E+002, +1.59894217084E+003
+5.98593241552E+007, +3.34034817602E+002, +1.60237908660E+003
+6.00782227785E+007, +3.33957131523E+002, +1.62557393645E+003
+6.02971214018E+007, +3.49894142001E+002, +1.63221768422E+003
+6.05160200250E+007, +3.43591258983E+002, +1.65440893321E+003
+6.07349186483E+007, +3.51216836011E+002, +1.66944640074E+003
+6.09538172716E+007, +3.53602781738E+002, +1.69781750783E+003
+6.11727158949E+007, +3.70334189165E+002, +1.70702580381E+003
+6.13916145181E+007, +3.62302438859E+002, +1.73045727164E+003
+6.16105131414E+007, +3.72651999065E+002, +1.73862142843E+003
+6.18294117647E+007, +3.84991393094E+002, +1.74709478531E+003
+6.20483103880E+007, +3.79306783011E+002, +1.77913237687E+003
+6.22672090113E+007, +4.03787942987E+002, +1.79648239723E+003
+6.24861076345E+007, +4.17762921222E+002, +1.81393193105E+003
+6.27050062578E+007, +4.20494967763E+002, +1.83182887390E+003
+6.29239048811E+007, +4.05213093106E+002, +1.85868453191E+003
+6.31428035044E+007, +4.11938664369E+002, +1.87972118643E+003
+6.33617021277E+007, +4.37835446259E+002, +1.90896530696E+003
+6.35806007509E+007, +4.43687159794E+002, +1.93126274341E+003
+6.37994993742E+007, +4.47392668549E+002, +1.96822556527E+003
+6.40183979975E+007, +4.85073695151E+002, +1.95847510666E+003
+6.42372966208E+007, +4.72960987089E+002, +2.00587673246E+003
+6.44561952441E+007, +4.89643156334E+002, +2.01320824149E+003
+6.46750938673E+007, +5.12811224341E+002, +2.04277853482E+003
+6.48939924906E+007, +5.33566215925E+002, +2.07316680944E+003
+6.51128911139E+007, +5.17837379865E+002, +2.12505336001E+003
+6.53317897372E+007, +5.60710903438E+002, +2.13281184758E+003
+6.55506883605E+007, +5.65266407825E+002, +2.16362793200E+003
+6.57695869837E+007, +5.72579694860E+002, +2.17998936799E+003
+6.59884856070E+007, +6.02557303081E+002, +2.18984497709E+003
+6.62073842303E+007, +6.03137996677E+002, +2.24232508752E+003
+6.64262828536E+007, +6.10714567255E+002, +2.26804449435E+003
+6.66451814768E+007, +6.38155538733E+002, +2.30358463620E+003
+6.68640801001E+007, +6.65509096842E+002, +2.33918314824E+003
+6.70829787234E+007, +6.76301186160E+002, +2.36663702986E+003
+6.73018773467E+007, +6.93760187018E+002, +2.36806829077E+003
+6.75207759700E+007, +7.57445746668E+002, +2.40086756608E+003
+6.77396745932E+007, +7.32086896831E+002, +2.45354530935E+003
+6.79585732165E+007, +7.90435458349E+002, +2.47116532847E+003
+6.81774718398E+007, +7.82663938305E+002, +2.53045505308E+003
+6.83963704631E+007, +8.28468527002E+002, +2.54619417108E+003
+6.86152690864E+007, +8.48438084462E+002, +2.58504137483E+003
+6.88341677096E+007, +8.63138164171E+002, +2.59280717871E+003
+6.90530663329E+007, +8.95013483401E+002, +2.68134616069E+003
+6.92719649562E+007, +9.27862712911E+002, +2.67235112908E+003
+6.94908635795E+007, +9.72949614277E+002, +2.67297410366E+003
+6.97097622028E+007, +9.96483725717E+002, +2.77058613085E+003
+6.99286608260E+007, +1.03109938200E+003, +2.80305883899E+003
+7.01475594493E+007, +1.05784931518E+003, +2.83587992768E+003
