"# Channel 1"
"# Trace 1"
Frequency, Formatted Data, Formatted Data
+1.00000000000E+005, +2.39795308074E-001, +1.30909707145E+000
+2.66777963272E+005, +2.51586224883E-001, +3.46560564951E+000
+4.33555926544E+005, +2.77373006736E-001, +5.63002587601E+000
+6.00333889816E+005, +3.29917933024E-001, +7.73000233582E+000
+7.67111853088E+005, +3.71895535644E-001, +9.86477862546E+000
+9.33889816361E+005, +3.95990527252E-001, +1.19572610560E+001
+1.10066777963E+006, +3.62908782023E-001, +1.40774630614E+001
+1.26744574290E+006, +4.48836624553E-001, +1.61701034413E+001
+1.43422370618E+006, +3.74810358863E-001, +1.83074988916E+001
+1.60100166945E+006, +4.84601350133E-001, +2.03568620047E+001
+1.76777963272E+006, +4.88763311561E-001, +2.24787042221E+001
+1.93455759599E+006, +5.18084038901E-001, +2.45085878024E+001
+2.10133555927E+006, +5.35018791148E-001, +2.66032111504E+001
+2.26811352254E+006, +5.76019322104E-001, +2.87284695733E+001
+2.43489148581E+006, +5.48816644992E-001, +3.08686529063E+001
+2.60166944908E+006, +5.92236036736E-001, +3.28952565863E+001
+2.76844741235E+006, +5.22386536815E-001, +3.50368009172E+001
+2.93522537563E+006, +5.33964116039E-001, +3.71211816069E+001
+3.10200333890E+006, +6.53347823840E-001, +3.91730484477E+001
+3.26878130217E+006, +5.22121263271E-001, +4.13319635841E+001
+3.43555926544E+006, +5.89253632440E-001, +4.34021497604E+001
+3.60233722871E+006, +6.45690230626E-001, +4.55305279935E+001
+3.76911519199E+006, +6.17606950665E-001, +4.77037760927E+001
+3.93589315526E+006, +5.46376553719E-001, +4.96794121927E+001
+4.10267111853E+006, +5.65591742854E-001, +5.19907047192E+001
+4.26944908180E+006, +5.80098855431E-001, +5.40573024378E+001
+4.43622704508E+006, +6.40704536720E-001, +5.61072792784E+001
+4.60300500835E+006, +6.03841503570E-001, +5.82617939720E+001
+4.76978297162E+006, +5.99024305179E-001, +6.02602131428E+001
+4.93656093489E+006, +7.10820411058E-001, +6.24708357766E+001
+5.10333889816E+006, +6.90371938458E-001, +6.45364660989E+001
+5.27011686144E+006, +7.59706763167E-001, +6.67932029365E+001
+5.43689482471E+006, +6.63136062745E-001, +6.88257073843E+001
+5.60367278798E+006, +6.63262641297E-001, +7.10183357970E+001
+5.77045075125E+006, +6.66084994219E-001, +7.30400285721E+001
+5.93722871452E+006, +7.76843644524E-001, +7.52248945573E+001
+6.10400667780E+006, +7.07036747172E-001, +7.74162407189E+001
+6.27078464107E+006, +8.15180464408E-001, +7.94917459164E+001
+6.43756260434E+006, +8.06169246052E-001, +8.16417561890E+001
+6.60434056761E+006, +8.23989405691E-001, +8.38369814444E+001
+6.77111853088E+006, +9.20038185433E-001, +8.59145375620E+001
+6.93789649416E+006, +8.53391678322E-001, +8.80435612954E+001
+7.10467445743E+006, +8.60889341954E-001, +9.02296017744E+001
+7.27145242070E+006, +9.01956946107E-001, +9.23065469921E+001
+7.43823038397E+006, +9.34892654889E-001, +9.44335638762E+001
+7.60500834725E+006, +8.72809176228E-001, +9.66194477479E+001
+7.77178631052E+006, +9.71266209278E-001, +9.88242433262E+001
+7.93856427379E+006, +9.07216293883E-001, +1.00918537812E+002
+8.10534223706E+006, +9.47860048563E-001, +1.03078992687E+002
+8.27212020033E+006, +9.43269222657E-001, +1.05167425993E+002
+8.43889816361E+006, +9.23104241472E-001, +1.07376835080E+002
+8.60567612688E+006, +8.60667127141E-001, +1.09576956529E+002
+8.77245409015E+006, +8.42494385360E-001, +1.11700892070E+002
+8.93923205342E+006, +8.90075055495E-001, +1.13853214986E+002
+9.10601001669E+006, +9.47119510406E-001, +1.16126242872E+002
+9.27278797997E+006, +8.55325291956E-001, +1.18325085517E+002
+9.43956594324E+006, +8.50920165784E-001, +1.20361776417E+002
+9.60634390651E+006, +8.65671489833E-001, +1.22531949799E+002
+9.77312186978E+006, +8.32827619720E-001, +1.24792817849E+002
+9.93989983306E+006, +1.03881512276E+000, +1.27049737419E+002
+1.01066777963E+007, +8.21374210066E-001, +1.29130378192E+002
+1.02734557596E+007, +8.29191204933E-001, +1.31436014855E+002
+1.04402337229E+007, +8.19358890670E-001, +1.33626897367E+002
+1.06070116861E+007, +8.16944790063E-001, +1.35716560313E+002
+1.07737896494E+007, +8.21104863454E-001, +1.38072582253E+002
+1.09405676127E+007, +9.26791964853E-001, +1.40213803157E+002
+1.11073455760E+007, +8.46858972146E-001, +1.42598159143E+002
+1.12741235392E+007, +8.92346207137E-001, +1.44770587802E+002
+1.14409015025E+007, +9.60933750024E-001, +1.47000987189E+002
+1.16076794658E+007, +9.95293181570E-001, +1.49155496882E+002
+1.17744574290E+007, +9.02701585575E-001, +1.51445272107E+002
+1.19412353923E+007, +8.11073771350E-001, +1.53779843230E+002
+1.21080133556E+007, +6.76910665846E-001, +1.55916406307E+002
+1.22747913189E+007, +8.14874086411E-001, +1.58264978866E+002
+1.24415692821E+007, +6.62619799582E-001, +1.60399455109E+002
+1.26083472454E+007, +7.41086002425E-001, +1.62824994458E+002
+1.27751252087E+007, +8.93407407123E-001, +1.65126615105E+002
+1.29419031720E+007, +7.94896454850E-001, +1.67134891141E+002
+1.31086811352E+007, +8.17676459042E-001, +1.69652992223E+002
+1.32754590985E+007, +8.25017382592E-001, +1.71863951380E+002
+1.34422370618E+007, +6.73932115663E-001, +1.74065059981E+002
+1.36090150250E+007, +8.68025277208E-001, +1.76437728621E+002
+1.37757929883E+007, +7.03631458986E-001, +1.78809167211E+002
+1.39425709516E+007, +7.09099967227E-001, +1.81005215075E+002
+1.41093489149E+007, +7.74533671599E-001, +1.83205033688E+002
+1.42761268781E+007, +9.18504164521E-001, +1.85667682015E+002
+1.44429048414E+007, +8.89157683666E-001, +1.87940703390E+002
+1.46096828047E+007, +7.52040881369E-001, +1.90382382338E+002
+1.47764607679E+007, +8.94152124520E-001, +1.92517227764E+002
+1.49432387312E+007, +6.11450525701E-001, +1.94988687072E+002
+1.51100166945E+007, +7.29325278639E-001, +1.97353206003E+002
+1.52767946578E+007, +9.43550243103E-001, +1.99631227144E+002
+1.54435726210E+007, +7.79802303342E-001, +2.01877329486E+002
+1.56103505843E+007, +8.83737157849E-001, +2.04441027099E+002
+1.57771285476E+007, +8.22358073102E-001, +2.06678475713E+002
+1.59439065109E+007, +8.72168758939E-001, +2.09205819973E+002
+1.61106844741E+007, +8.30566800112E-001, +2.11472204033E+002
+1.62774624374E+007, +8.02399287426E-001, +2.13786050819E+002
+1.64442404007E+007, +8.85836162333E-001, +2.16267964848E+002
+1.66110183639E+007, +8.89841708307E-001, +2.18446264052E+002
+1.67777963272E+007, +8.55358423915E-001, +2.21109359339E+002
+1.69445742905E+007, +1.02554911443E+000, +2.23523565973E+002
+1.71113522538E+007, +3.39940189495E-001, +2.25537796881E+002
+1.72781302170E+007, +5.41479401787E-001, +2.28249609795E+002
+1.74449081803E+007, +4.69711498562E-001, +2.30552234336E+002
+1.76116861436E+007, +9.04744300216E-001, +2.33004564913E+002
+1.77784641068E+007, +7.05897602471E-001, +2.35115720322E+002
+1.79452420701E+007, +8.65550034271E-001, +2.37987141596E+002
+1.81120200334E+007, +9.84330163165E-001, +2.40138998824E+002
+1.82787979967E+007, +6.64973755454E-001, +2.43031677633E+002
+1.84455759599E+007, +1.07530274691E+000, +2.45340312737E+002
+1.86123539232E+007, +1.09788961624E+000, +2.47861612714E+002
+1.87791318865E+007, +8.85548816342E-001, +2.50502986579E+002
+1.89459098497E+007, +9.77861963600E-001, +2.53194543577E+002
+1.91126878130E+007, +1.17263507101E+000, +2.55455568566E+002
+1.92794657763E+007, +8.24104532132E-001, +2.58088879687E+002
+1.94462437396E+007, +1.05462074325E+000, +2.60605114221E+002
+1.96130217028E+007, +9.76811530314E-001, +2.63268062301E+002
+1.97797996661E+007, +9.63029845560E-001, +2.65377870212E+002
+1.99465776294E+007, +8.52828390603E-001, +2.68023643165E+002
+2.01133555927E+007, +8.77886791702E-001, +2.70449314016E+002
+2.02801335559E+007, +7.36778963975E-001, +2.73771256635E+002
+2.04469115192E+007, +1.28122929128E+000, +2.76023683931E+002
+2.06136894825E+007, +8.31001088077E-001, +2.78898927841E+002
+2.07804674457E+007, +1.23490681273E+000, +2.81167620789E+002
+2.09472454090E+007, +9.12031013971E-001, +2.84102680933E+002
+2.11140233723E+007, +1.27320631229E+000, +2.86342328193E+002
+2.12808013356E+007, +1.49216854215E+000, +2.88941130310E+002
+2.14475792988E+007, +1.24401437654E+000, +2.91892665322E+002
+2.16143572621E+007, +1.62743609954E+000, +2.94464489005E+002
+2.17811352254E+007, +1.45886739417E+000, +2.97013651446E+002
+2.19479131886E+007, +1.84101050931E+000, +2.99874903172E+002
+2.21146911519E+007, +1.81203292770E+000, +3.02117239674E+002
+2.22814691152E+007, +1.36754028479E+000, +3.05105965099E+002
+2.24482470785E+007, +1.49309831673E+000, +3.07673455653E+002
+2.26150250417E+007, +2.31448781598E+000, +3.10306747446E+002
+2.27818030050E+007, +2.03396885654E+000, +3.13425148881E+002
+2.29485809683E+007, +2.71919119315E+000, +3.15973001950E+002
+2.31153589316E+007, +1.50472565381E+000, +3.18898920864E+002
+2.32821368948E+007, +2.48023400304E+000, +3.21368219195E+002
+2.34489148581E+007, +2.10544577483E+000, +3.23963060176E+002
+2.36156928214E+007, +2.44479895507E+000, +3.26721200087E+002
+2.37824707846E+007, +2.33290370415E+000, +3.29610426669E+002
+2.39492487479E+007, +2.45340520095E+000, +3.32046116603E+002
+2.41160267112E+007, +2.41770816213E+000, +3.35305794617E+002
+2.42828046745E+007, +2.25239557842E+000, +3.37900369005E+002
+2.44495826377E+007, +3.16877319914E+000, +3.41434747098E+002
+2.46163606010E+007, +3.17153297090E+000, +3.43782261135E+002
+2.47831385643E+007, +2.82840351486E+000, +3.46211770252E+002
+2.49499165275E+007, +3.05196265776E+000, +3.49082495850E+002
+2.51166944908E+007, +3.58410944109E+000, +3.52081322839E+002
+2.52834724541E+007, +3.53599976410E+000, +3.54482348361E+002
+2.54502504174E+007, +3.57023734967E+000, +3.57761129464E+002
+2.56170283806E+007, +3.14573090968E+000, +3.60577702338E+002
+2.57838063439E+007, +3.39562548010E+000, +3.64521335746E+002
+2.59505843072E+007, +3.49554848844E+000, +3.66942570393E+002
+2.61173622705E+007, +4.03647701461E+000, +3.69503703362E+002
+2.62841402337E+007, +3.81960117452E+000, +3.72271273773E+002
+2.64509181970E+007, +2.86766495918E+000, +3.75912006874E+002
+2.66176961603E+007, +3.77460836905E+000, +3.78792412237E+002
+2.67844741235E+007, +4.05129406025E+000, +3.81354335609E+002
+2.69512520868E+007, +3.52551063711E+000, +3.84128230921E+002
+2.71180300501E+007, +4.18428515936E+000, +3.86560324471E+002
+2.72848080134E+007, +4.88473482390E+000, +3.90601596281E+002
+2.74515859766E+007, +4.80299998185E+000, +3.93287535038E+002
+2.76183639399E+007, +3.90558318185E+000, +3.95974497860E+002
+2.77851419032E+007, +4.03629460239E+000, +3.98940508311E+002
+2.79519198664E+007, +4.28965653558E+000, +4.02444635123E+002
+2.81186978297E+007, +4.68994410309E+000, +4.04188757491E+002
+2.82854757930E+007, +4.60269017123E+000, +4.08263107831E+002
+2.84522537563E+007, +4.13387455660E+000, +4.11119667152E+002
+2.86190317195E+007, +4.41420852147E+000, +4.14149666921E+002
+2.87858096828E+007, +5.30350339663E+000, +4.17647559437E+002
+2.89525876461E+007, +5.25122249183E+000, +4.20217749725E+002
+2.91193656093E+007, +4.43689295535E+000, +4.23105212304E+002
+2.92861435726E+007, +3.78104751599E+000, +4.26503837807E+002
+2.94529215359E+007, +4.98272330000E+000, +4.29682001005E+002
+2.96196994992E+007, +5.36799203748E+000, +4.32773397957E+002
+2.97864774624E+007, +5.74889737966E+000, +4.36766336302E+002
+2.99532554257E+007, +5.86300779189E+000, +4.39746091820E+002
+3.01200333890E+007, +4.58646411110E+000, +4.43172867090E+002
+3.02868113523E+007, +4.68689503999E+000, +4.46600233437E+002
+3.04535893155E+007, +4.10224793554E+000, +4.50719275320E+002
+3.06203672788E+007, +5.34151721318E+000, +4.53168422591E+002
+3.07871452421E+007, +5.40630327180E+000, +4.56620382397E+002
+3.09539232053E+007, +5.05587848226E+000, +4.59237644913E+002
+3.11207011686E+007, +5.31407956872E+000, +4.65012214601E+002
+3.12874791319E+007, +5.70887595833E+000, +4.65772939128E+002
+3.14542570952E+007, +6.05823675318E+000, +4.70467791729E+002
+3.16210350584E+007, +4.24210686275E+000, +4.73222115383E+002
+3.17878130217E+007, +5.11958572250E+000, +4.77060750186E+002
+3.19545909850E+007, +4.88458512176E+000, +4.80215579262E+002
+3.21213689482E+007, +3.22696592980E+000, +4.84719597511E+002
+3.22881469115E+007, +4.60437428783E+000, +4.87045193343E+002
+3.24549248748E+007, +4.97552875642E+000, +4.91486592088E+002
+3.26217028381E+007, +4.10319559656E+000, +4.94692385032E+002
+3.27884808013E+007, +5.50875470250E+000, +4.97706088189E+002
+3.29552587646E+007, +5.10801768729E+000, +5.01252276602E+002
+3.31220367279E+007, +5.86870985957E+000, +5.04787229156E+002
+3.32888146912E+007, +4.91359640168E+000, +5.10168006824E+002
+3.34555926544E+007, +3.68778505071E+000, +5.12800417366E+002
+3.36223706177E+007, +5.28132862013E+000, +5.16420700934E+002
+3.37891485810E+007, +5.76949633960E+000, +5.19395798262E+002
+3.39559265442E+007, +5.39196899503E+000, +5.25016750366E+002
+3.41227045075E+007, +5.02437517059E+000, +5.26981480421E+002
+3.42894824708E+007, +5.14160360889E+000, +5.32115043233E+002
+3.44562604341E+007, +3.96949458948E+000, +5.35308782183E+002
+3.46230383973E+007, +5.04856767645E+000, +5.41624104491E+002
+3.47898163606E+007, +5.25906591266E+000, +5.43728044766E+002
+3.49565943239E+007, +7.18767143514E+000, +5.49402227767E+002
+3.51233722871E+007, +7.27498169139E+000, +5.52681670684E+002
+3.52901502504E+007, +6.09776728719E+000, +5.54982746228E+002
+3.54569282137E+007, +4.48862729845E+000, +5.59096338321E+002
+3.56237061770E+007, +4.73127316927E+000, +5.64370211228E+002
+3.57904841402E+007, +5.71745175773E+000, +5.68362395289E+002
+3.59572621035E+007, +5.55960097840E+000, +5.73188094233E+002
+3.61240400668E+007, +4.62958029213E+000, +5.76907868442E+002
+3.62908180301E+007, +6.27524943210E+000, +5.82323382196E+002
+3.64575959933E+007, +5.66251084778E+000, +5.85773501057E+002
+3.66243739566E+007, +6.70869785194E+000, +5.89981981679E+002
+3.67911519199E+007, +6.67811091637E+000, +5.95029062373E+002
+3.69579298831E+007, +6.15736404707E+000, +5.98282183627E+002
+3.71247078464E+007, +6.46059647210E+000, +6.02958758348E+002
+3.72914858097E+007, +5.96101118302E+000, +6.08075218428E+002
+3.74582637730E+007, +6.47291728841E+000, +6.13881764064E+002
+3.76250417362E+007, +6.63234561113E+000, +6.16408203101E+002
+3.77918196995E+007, +6.41370960669E+000, +6.22560154479E+002
+3.79585976628E+007, +4.76223245393E+000, +6.26291272802E+002
+3.81253756260E+007, +6.96795262185E+000, +6.29844345306E+002
+3.82921535893E+007, +7.77692476773E+000, +6.35006681912E+002
+3.84589315526E+007, +8.93021063124E+000, +6.40290239980E+002
+3.86257095159E+007, +5.84040626303E+000, +6.45338056955E+002
+3.87924874791E+007, +6.93879709482E+000, +6.48885476824E+002
+3.89592654424E+007, +6.80120223336E+000, +6.53988291909E+002
+3.91260434057E+007, +7.63385962436E+000, +6.61671016138E+002
+3.92928213689E+007, +7.62716602709E+000, +6.63305748895E+002
+3.94595993322E+007, +7.34728809993E+000, +6.71179910372E+002
+3.96263772955E+007, +6.88428969135E+000, +6.72015783907E+002
+3.97931552588E+007, +7.71540881874E+000, +6.77743993832E+002
+3.99599332220E+007, +8.14546415425E+000, +6.84990222735E+002
+4.01267111853E+007, +8.88827647094E+000, +6.90704089014E+002
+4.02934891486E+007, +6.13942367967E+000, +6.94496932161E+002
+4.04602671119E+007, +8.31105589503E+000, +6.99778149325E+002
+4.06270450751E+007, +9.21119986748E+000, +7.05534103468E+002
+4.07938230384E+007, +8.37215901478E+000, +7.11940390726E+002
+4.09606010017E+007, +8.04171839361E+000, +7.16880617640E+002
+4.11273789649E+007, +8.70011763661E+000, +7.21171196128E+002
+4.12941569282E+007, +9.27846778677E+000, +7.27433579897E+002
+4.14609348915E+007, +9.31547360019E+000, +7.37575236831E+002
+4.16277128548E+007, +6.91537515206E+000, +7.38014071530E+002
+4.17944908180E+007, +9.58928180395E+000, +7.44173615036E+002
+4.19612687813E+007, +8.16684423968E+000, +7.51661904892E+002
+4.21280467446E+007, +8.26017808500E+000, +7.57930906010E+002
+4.22948247078E+007, +1.02260824375E+001, +7.64299406855E+002
+4.24616026711E+007, +1.07040832059E+001, +7.68917155951E+002
+4.26283806344E+007, +1.04312792567E+001, +7.78841190407E+002
+4.27951585977E+007, +6.58328511408E+000, +7.82413206495E+002
+4.29619365609E+007, +1.09804754455E+001, +7.89105336514E+002
+4.31287145242E+007, +1.27553687748E+001, +7.97597304143E+002
+4.32954924875E+007, +9.82249962104E+000, +8.01188511807E+002
+4.34622704508E+007, +1.00728611731E+001, +8.10196597192E+002
+4.36290484140E+007, +1.09791407827E+001, +8.14679830931E+002
+4.37958263773E+007, +1.18677436543E+001, +8.23190170443E+002
+4.39626043406E+007, +1.04504582704E+001, +8.28845255019E+002
+4.41293823038E+007, +1.43303337476E+001, +8.37529106565E+002
+4.42961602671E+007, +1.09019270670E+001, +8.42661526942E+002
+4.44629382304E+007, +1.15229788261E+001, +8.49172397764E+002
+4.46297161937E+007, +1.23953759347E+001, +8.57572532694E+002
+4.47964941569E+007, +1.05407506431E+001, +8.65151039225E+002
+4.49632721202E+007, +1.26334352022E+001, +8.75074483120E+002
+4.51300500835E+007, +1.23619328077E+001, +8.75977767326E+002
+4.52968280467E+007, +1.53906812333E+001, +8.85727450907E+002
+4.54636060100E+007, +1.32570468688E+001, +8.99702426524E+002
+4.56303839733E+007, +1.17066236489E+001, +9.05756080604E+002
+4.57971619366E+007, +1.51504717267E+001, +9.11422433803E+002
+4.59639398998E+007, +1.34900565896E+001, +9.22296544306E+002
+4.61307178631E+007, +1.72720383769E+001, +9.31774568381E+002
+4.62974958264E+007, +1.85987846540E+001, +9.41104690251E+002
+4.64642737896E+007, +1.53290705327E+001, +9.47493973784E+002
+4.66310517529E+007, +1.58748225897E+001, +9.56416475466E+002
+4.67978297162E+007, +1.99307572205E+001, +9.61418279635E+002
+4.69646076795E+007, +1.55729744594E+001, +9.76013863764E+002
+4.71313856427E+007, +2.00064892671E+001, +9.84738882862E+002
+4.72981636060E+007, +2.03265499111E+001, +9.94961119662E+002
+4.74649415693E+007, +2.24432746627E+001, +1.00381809306E+003
+4.76317195326E+007, +2.66765936903E+001, +1.01286457715E+003
+4.77984974958E+007, +2.35702052057E+001, +1.02505135465E+003
+4.79652754591E+007, +2.59804422475E+001, +1.03044309469E+003
+4.81320534224E+007, +2.72991090941E+001, +1.03923677492E+003
+4.82988313856E+007, +2.81671672582E+001, +1.04995816083E+003
+4.84656093489E+007, +3.14409223519E+001, +1.05947745362E+003
+4.86323873122E+007, +3.84534075308E+001, +1.06344959678E+003
+4.87991652755E+007, +3.65737351537E+001, +1.08044239845E+003
+4.89659432387E+007, +3.70946588496E+001, +1.08774217458E+003
+4.91327212020E+007, +4.37096208356E+001, +1.10287172242E+003
+4.92994991653E+007, +4.25144912119E+001, +1.10835832182E+003
+4.94662771285E+007, +4.88351517111E+001, +1.12149557931E+003
+4.96330550918E+007, +5.48659680686E+001, +1.13487431875E+003
+4.97998330551E+007, +5.48636618852E+001, +1.14468875425E+003
+4.99666110184E+007, +5.83763556855E+001, +1.15415309231E+003
+5.01333889816E+007, +5.77700696582E+001, +1.16215614828E+003
+5.03001669449E+007, +6.03694092522E+001, +1.17371930746E+003
+5.04669449082E+007, +6.30940843694E+001, +1.18488740205E+003
+5.06337228715E+007, +6.96494271283E+001, +1.19294763065E+003
+5.08005008347E+007, +5.88073026554E+001, +1.20215451715E+003
+5.09672787980E+007, +6.64777638971E+001, +1.21197339702E+003
+5.11340567613E+007, +7.23548770506E+001, +1.22343870909E+003
+5.13008347245E+007, +6.41903559369E+001, +1.23843873849E+003
+5.14676126878E+007, +6.99452509907E+001, +1.24661338222E+003
+5.16343906511E+007, +7.79398066016E+001, +1.26228254875E+003
+5.18011686144E+007, +6.60580462157E+001, +1.27302693574E+003
+5.19679465776E+007, +6.53753398982E+001, +1.28687544243E+003
+5.21347245409E+007, +6.64133023135E+001, +1.29778591241E+003
+5.23015025042E+007, +7.50310034608E+001, +1.32084997756E+003
+5.24682804674E+007, +6.57207164129E+001, +1.33527857580E+003
+5.26350584307E+007, +6.43768251799E+001, +1.35164412218E+003
+5.28018363940E+007, +6.07068720117E+001, +1.36308700661E+003
+5.29686143573E+007, +7.21123813184E+001, +1.37988483603E+003
+5.31353923205E+007, +6.97555843653E+001, +1.38699004077E+003
+5.33021702838E+007, +5.52512070914E+001, +1.41220040699E+003
+5.34689482471E+007, +6.53699943091E+001, +1.44036794482E+003
