"# Channel 1"
"# Trace 1"
Frequency, Formatted Data, Formatted Data
+1.00000000000E+005, +2.68109937067E+001, +1.22532390014E+000
+2.25031289111E+005, +2.68054219116E+001, +2.92628696813E+000
+3.50062578223E+005, +2.68441362043E+001, +4.62501206506E+000
+4.75093867334E+005, +2.68706340469E+001, +6.18708516613E+000
+6.00125156446E+005, +2.68593040375E+001, +7.82496372833E+000
+7.25156445557E+005, +2.68451237414E+001, +9.41696283599E+000
+8.50187734668E+005, +2.68968606584E+001, +1.10188969547E+001
+9.75219023780E+005, +2.68941848182E+001, +1.26256630727E+001
+1.10025031289E+006, +2.69188172498E+001, +1.42895216444E+001
+1.22528160200E+006, +2.68680329141E+001, +1.58899329011E+001
+1.35031289111E+006, +2.69153751648E+001, +1.74875433081E+001
+1.47534418023E+006, +2.69316139798E+001, +1.90778980242E+001
+1.60037546934E+006, +2.69252798414E+001, +2.07097095644E+001
+1.72540675845E+006, +2.69614195292E+001, +2.23158986064E+001
+1.85043804756E+006, +2.69251658622E+001, +2.39191384378E+001
+1.97546933667E+006, +2.69311442456E+001, +2.55291500355E+001
+2.10050062578E+006, +2.69586390531E+001, +2.71239394212E+001
+2.22553191489E+006, +2.69321117126E+001, +2.87748757375E+001
+2.35056320401E+006, +2.69449314583E+001, +3.04387818798E+001
+2.47559449312E+006, +2.69962600028E+001, +3.19857159566E+001
+2.60062578223E+006, +2.69636748234E+001, +3.35381187838E+001
+2.72565707134E+006, +2.69109716754E+001, +3.51482840175E+001
+2.85068836045E+006, +2.69384611543E+001, +3.68398970965E+001
+2.97571964956E+006, +2.69521220440E+001, +3.84096168451E+001
+3.10075093867E+006, +2.69879345244E+001, +3.99909895587E+001
+3.22578222778E+006, +2.69378905323E+001, +4.16239101612E+001
+3.35081351690E+006, +2.70981486999E+001, +4.32137103556E+001
+3.47584480601E+006, +2.70643992902E+001, +4.47975067381E+001
+3.60087609512E+006, +2.69669820799E+001, +4.65130129838E+001
+3.72590738423E+006, +2.70395627543E+001, +4.81296060208E+001
+3.85093867334E+006, +2.70258004086E+001, +4.97342160525E+001
+3.97596996245E+006, +2.70279711084E+001, +5.13698923843E+001
+4.10100125156E+006, +2.70381313837E+001, +5.30718574932E+001
+4.22603254068E+006, +2.71291350872E+001, +5.45095018460E+001
+4.35106382979E+006, +2.71094534180E+001, +5.61836993245E+001
+4.47609511890E+006, +2.71363966382E+001, +5.77113686094E+001
+4.60112640801E+006, +2.70659442181E+001, +5.93529315390E+001
+4.72615769712E+006, +2.71455529346E+001, +6.10451661985E+001
+4.85118898623E+006, +2.70877378380E+001, +6.26019987685E+001
+4.97622027534E+006, +2.71171471434E+001, +6.42608024720E+001
+5.10125156446E+006, +2.71253448756E+001, +6.59717539229E+001
+5.22628285357E+006, +2.72105603150E+001, +6.75424645589E+001
+5.35131414268E+006, +2.71757582133E+001, +6.92046493254E+001
+5.47634543179E+006, +2.70908254059E+001, +7.07667225018E+001
+5.60137672090E+006, +2.71301271383E+001, +7.23315184497E+001
+5.72640801001E+006, +2.71238873698E+001, +7.40534620436E+001
+5.85143929912E+006, +2.72326210861E+001, +7.56204594513E+001
+5.97647058824E+006, +2.73202958638E+001, +7.73383891576E+001
+6.10150187735E+006, +2.72335762821E+001, +7.89227565059E+001
+6.22653316646E+006, +2.72639500248E+001, +8.05465693602E+001
+6.35156445557E+006, +2.73479763645E+001, +8.21920904937E+001
+6.47659574468E+006, +2.73959741884E+001, +8.38197171477E+001
+6.60162703379E+006, +2.74161425859E+001, +8.55393141305E+001
+6.72665832290E+006, +2.74851326034E+001, +8.70919414003E+001
+6.85168961202E+006, +2.73894875751E+001, +8.87863017617E+001
+6.97672090113E+006, +2.73374818258E+001, +9.03995695646E+001
+7.10175219024E+006, +2.75052775313E+001, +9.20000584376E+001
+7.22678347935E+006, +2.73288411889E+001, +9.36565607897E+001
+7.35181476846E+006, +2.74984235509E+001, +9.53372500981E+001
+7.47684605757E+006, +2.74944226135E+001, +9.70379246949E+001
+7.60187734668E+006, +2.75051391937E+001, +9.86191767610E+001
+7.72690863579E+006, +2.74101588968E+001, +1.00259082513E+002
+7.85193992491E+006, +2.75475231903E+001, +1.02006458759E+002
+7.97697121402E+006, +2.75465464977E+001, +1.03536908633E+002
+8.10200250313E+006, +2.75703412719E+001, +1.05225787186E+002
+8.22703379224E+006, +2.75706348323E+001, +1.06793763263E+002
+8.35206508135E+006, +2.76230792716E+001, +1.08532675069E+002
+8.47709637046E+006, +2.76701617238E+001, +1.10239282288E+002
+8.60212765957E+006, +2.76537856020E+001, +1.11805860288E+002
+8.72715894869E+006, +2.77698964860E+001, +1.13604007145E+002
+8.85219023780E+006, +2.78614496487E+001, +1.15105062692E+002
+8.97722152691E+006, +2.76350613687E+001, +1.16800584455E+002
+9.10225281602E+006, +2.77405889201E+001, +1.18524166913E+002
+9.22728410513E+006, +2.76774475241E+001, +1.20166762500E+002
+9.35231539424E+006, +2.78638419899E+001, +1.21771348875E+002
+9.47734668335E+006, +2.77468649018E+001, +1.23593689926E+002
+9.60237797247E+006, +2.78831833649E+001, +1.25171788394E+002
+9.72740926158E+006, +2.78371996369E+001, +1.26851036390E+002
+9.85244055069E+006, +2.78404630951E+001, +1.28421721321E+002
+9.97747183980E+006, +2.78012332191E+001, +1.30151572708E+002
+1.01025031289E+007, +2.78715705200E+001, +1.31806627269E+002
+1.02275344180E+007, +2.77542578561E+001, +1.33619639768E+002
+1.03525657071E+007, +2.79374494216E+001, +1.35127446448E+002
+1.04775969962E+007, +2.78282413023E+001, +1.36833079312E+002
+1.06026282854E+007, +2.79489366773E+001, +1.38555255831E+002
+1.07276595745E+007, +2.78635449659E+001, +1.40121018345E+002
+1.08526908636E+007, +2.79060445666E+001, +1.41884117647E+002
+1.09777221527E+007, +2.79737323304E+001, +1.43562935952E+002
+1.11027534418E+007, +2.80249184444E+001, +1.45295261919E+002
+1.12277847309E+007, +2.79334093112E+001, +1.46958079959E+002
+1.13528160200E+007, +2.80371800101E+001, +1.48750586613E+002
+1.14778473091E+007, +2.81172720902E+001, +1.50372174445E+002
+1.16028785982E+007, +2.82587225400E+001, +1.52130407969E+002
+1.17279098874E+007, +2.79774104021E+001, +1.53960411888E+002
+1.18529411765E+007, +2.82268225091E+001, +1.55203164651E+002
+1.19779724656E+007, +2.80146923712E+001, +1.57302655669E+002
+1.21030037547E+007, +2.81320407424E+001, +1.58993500129E+002
+1.22280350438E+007, +2.82735360268E+001, +1.60702111801E+002
+1.23530663329E+007, +2.81656963474E+001, +1.62211564443E+002
+1.24780976220E+007, +2.82489320737E+001, +1.63977261713E+002
+1.26031289111E+007, +2.80558724293E+001, +1.65935813387E+002
+1.27281602003E+007, +2.82087149474E+001, +1.67448825910E+002
+1.28531914894E+007, +2.81034844589E+001, +1.69297479079E+002
+1.29782227785E+007, +2.81717071823E+001, +1.70737943839E+002
+1.31032540676E+007, +2.83549390872E+001, +1.72513249634E+002
+1.32282853567E+007, +2.81871091719E+001, +1.74450227571E+002
+1.33533166458E+007, +2.82476692486E+001, +1.76168261082E+002
+1.34783479349E+007, +2.83721627374E+001, +1.77684381945E+002
+1.36033792240E+007, +2.82767920776E+001, +1.79842244266E+002
+1.37284105131E+007, +2.82865708437E+001, +1.81422500602E+002
+1.38534418023E+007, +2.85822812428E+001, +1.83020791648E+002
+1.39784730914E+007, +2.84401250871E+001, +1.85052365920E+002
+1.41035043805E+007, +2.83826951169E+001, +1.86457440252E+002
+1.42285356696E+007, +2.83543640940E+001, +1.88388133212E+002
+1.43535669587E+007, +2.81985237552E+001, +1.90039469121E+002
+1.44785982478E+007, +2.86113414572E+001, +1.91763136557E+002
+1.46036295369E+007, +2.84922279204E+001, +1.94092434928E+002
+1.47286608260E+007, +2.85977968395E+001, +1.95262212479E+002
+1.48536921151E+007, +2.88242473861E+001, +1.97070403585E+002
+1.49787234043E+007, +2.86838251229E+001, +1.99077202453E+002
+1.51037546934E+007, +2.86816221466E+001, +2.00570956440E+002
+1.52287859825E+007, +2.85775394498E+001, +2.02427272718E+002
+1.53538172716E+007, +2.85638837278E+001, +2.04414400638E+002
+1.54788485607E+007, +2.90352773588E+001, +2.05862752728E+002
+1.56038798498E+007, +2.87762524549E+001, +2.08209637156E+002
+1.57289111389E+007, +2.88095340552E+001, +2.09773298782E+002
+1.58539424280E+007, +2.87523779989E+001, +2.11226648160E+002
+1.59789737171E+007, +2.89575377124E+001, +2.13240470182E+002
+1.61040050063E+007, +2.87778777671E+001, +2.14738966670E+002
+1.62290362954E+007, +2.92650600784E+001, +2.16750731877E+002
+1.63540675845E+007, +2.91136048574E+001, +2.18916455920E+002
+1.64790988736E+007, +2.90962393520E+001, +2.20596187176E+002
+1.66041301627E+007, +2.92385190817E+001, +2.22408566019E+002
+1.67291614518E+007, +2.88250826930E+001, +2.23844472272E+002
+1.68541927409E+007, +2.89774198275E+001, +2.25848684584E+002
+1.69792240300E+007, +2.92553309192E+001, +2.27539339232E+002
+1.71042553191E+007, +2.87311427238E+001, +2.29557838856E+002
+1.72292866083E+007, +2.91775997260E+001, +2.31252698973E+002
+1.73543178974E+007, +2.91976148288E+001, +2.33116670230E+002
+1.74793491865E+007, +2.92211721738E+001, +2.35128748413E+002
+1.76043804756E+007, +2.94816594426E+001, +2.36911896148E+002
+1.77294117647E+007, +2.92436350131E+001, +2.38759746728E+002
+1.78544430538E+007, +2.92821200969E+001, +2.40602676651E+002
+1.79794743429E+007, +2.89841483365E+001, +2.42293857952E+002
+1.81045056320E+007, +2.91856863383E+001, +2.43988875735E+002
+1.82295369212E+007, +2.93965168446E+001, +2.46284144542E+002
+1.83545682103E+007, +2.95055900788E+001, +2.47913721108E+002
+1.84795994994E+007, +2.94201549393E+001, +2.49976883223E+002
+1.86046307885E+007, +2.95401331897E+001, +2.51606753130E+002
+1.87296620776E+007, +2.99365680470E+001, +2.53426755651E+002
+1.88546933667E+007, +2.95368534223E+001, +2.54997916431E+002
+1.89797246558E+007, +2.99801030034E+001, +2.57187292713E+002
+1.91047559449E+007, +3.01760127142E+001, +2.58837747777E+002
+1.92297872340E+007, +2.98759798238E+001, +2.61525999227E+002
+1.93548185232E+007, +3.00959536596E+001, +2.62996410728E+002
+1.94798498123E+007, +2.96841626994E+001, +2.64539405886E+002
+1.96048811014E+007, +2.95413883137E+001, +2.66825897298E+002
+1.97299123905E+007, +3.02223086914E+001, +2.68612415075E+002
+1.98549436796E+007, +3.00193414898E+001, +2.70600594824E+002
+1.99799749687E+007, +3.02189927851E+001, +2.72553201633E+002
+2.01050062578E+007, +3.03882112264E+001, +2.74306227318E+002
+2.02300375469E+007, +2.99575907628E+001, +2.76101765856E+002
+2.03550688360E+007, +3.00479778019E+001, +2.77714622454E+002
+2.04801001252E+007, +2.99615193957E+001, +2.80044796825E+002
+2.06051314143E+007, +3.03578249325E+001, +2.81892172913E+002
+2.07301627034E+007, +2.96885625024E+001, +2.84230753745E+002
+2.08551939925E+007, +3.04417567581E+001, +2.85805717802E+002
+2.09802252816E+007, +3.00898527329E+001, +2.87867437624E+002
+2.11052565707E+007, +3.03033398765E+001, +2.89598503582E+002
+2.12302878598E+007, +3.01626880944E+001, +2.92079122788E+002
+2.13553191489E+007, +3.05493600231E+001, +2.93448763747E+002
+2.14803504380E+007, +3.06552406725E+001, +2.95247089731E+002
+2.16053817272E+007, +3.06398957735E+001, +2.98203533214E+002
+2.17304130163E+007, +3.02453524922E+001, +3.00099961861E+002
+2.18554443054E+007, +3.01612643721E+001, +3.01526396683E+002
+2.19804755945E+007, +3.08471741864E+001, +3.03695603445E+002
+2.21055068836E+007, +3.05898675866E+001, +3.05807623256E+002
+2.22305381727E+007, +3.08458580692E+001, +3.07209565517E+002
+2.23555694618E+007, +3.13504561533E+001, +3.09584978703E+002
+2.24806007509E+007, +3.12292237524E+001, +3.11858687019E+002
+2.26056320401E+007, +3.13920219731E+001, +3.13569765634E+002
+2.27306633292E+007, +3.17107472395E+001, +3.15813983556E+002
+2.28556946183E+007, +3.13343757786E+001, +3.17589579679E+002
+2.29807259074E+007, +3.19094736848E+001, +3.19377169180E+002
+2.31057571965E+007, +3.13907258748E+001, +3.21525621233E+002
+2.32307884856E+007, +3.16439693522E+001, +3.24210358411E+002
+2.33558197747E+007, +3.21812139958E+001, +3.25241300542E+002
+2.34808510638E+007, +3.24039079929E+001, +3.27494320085E+002
+2.36058823529E+007, +3.16413994010E+001, +3.29567090683E+002
+2.37309136421E+007, +3.23044631254E+001, +3.31711415897E+002
+2.38559449312E+007, +3.17691113597E+001, +3.33374200200E+002
+2.39809762203E+007, +3.15724663426E+001, +3.35787226094E+002
+2.41060075094E+007, +3.20477584673E+001, +3.37365726607E+002
+2.42310387985E+007, +3.23198602766E+001, +3.39644261437E+002
+2.43560700876E+007, +3.25588556541E+001, +3.41944800947E+002
+2.44811013767E+007, +3.21750179882E+001, +3.43264046777E+002
+2.46061326658E+007, +3.20953107383E+001, +3.45585381041E+002
+2.47311639549E+007, +3.29139143007E+001, +3.47697219598E+002
+2.48561952441E+007, +3.31564182002E+001, +3.49637358055E+002
+2.49812265332E+007, +3.25390905693E+001, +3.51498036199E+002
+2.51062578223E+007, +3.21623252199E+001, +3.53714096961E+002
+2.52312891114E+007, +3.25670051924E+001, +3.55845351119E+002
+2.53563204005E+007, +3.23330807334E+001, +3.58356131682E+002
+2.54813516896E+007, +3.26055313596E+001, +3.60394790457E+002
+2.56063829787E+007, +3.30377151271E+001, +3.63519903329E+002
+2.57314142678E+007, +3.29461224216E+001, +3.65210868313E+002
+2.58564455569E+007, +3.18302967694E+001, +3.65861354464E+002
+2.59814768461E+007, +3.28676830220E+001, +3.68478967267E+002
+2.61065081352E+007, +3.22689464090E+001, +3.71085283477E+002
+2.62315394243E+007, +3.29471824013E+001, +3.72926422510E+002
+2.63565707134E+007, +3.34486269392E+001, +3.76335853318E+002
+2.64816020025E+007, +3.31336037786E+001, +3.76671088014E+002
+2.66066332916E+007, +3.34513386004E+001, +3.79624160676E+002
+2.67316645807E+007, +3.38065447785E+001, +3.81680763146E+002
+2.68566958698E+007, +3.32026925519E+001, +3.84063776330E+002
+2.69817271589E+007, +3.23203462049E+001, +3.87468806588E+002
+2.71067584481E+007, +3.39761344143E+001, +3.89330264601E+002
+2.72317897372E+007, +3.31744291476E+001, +3.91075144457E+002
+2.73568210263E+007, +3.39277190798E+001, +3.92750106938E+002
+2.74818523154E+007, +3.40047994367E+001, +3.94180852500E+002
+2.76068836045E+007, +3.39017834374E+001, +3.96661673950E+002
+2.77319148936E+007, +3.31664568466E+001, +3.99670694942E+002
+2.78569461827E+007, +3.44625063906E+001, +4.01767179330E+002
+2.79819774718E+007, +3.36911755986E+001, +4.04567957094E+002
+2.81070087610E+007, +3.47538708853E+001, +4.06773621881E+002
+2.82320400501E+007, +3.41911458194E+001, +4.08386995723E+002
+2.83570713392E+007, +3.36281074988E+001, +4.10882657007E+002
+2.84821026283E+007, +3.41612874352E+001, +4.13031134390E+002
+2.86071339174E+007, +3.35021152503E+001, +4.15036368652E+002
+2.87321652065E+007, +3.40464153818E+001, +4.16964478115E+002
+2.88571964956E+007, +3.43740131783E+001, +4.21052658220E+002
+2.89822277847E+007, +3.39934376841E+001, +4.22636030677E+002
+2.91072590738E+007, +3.40332193081E+001, +4.24379797639E+002
+2.92322903630E+007, +3.36984745032E+001, +4.27186468447E+002
+2.93573216521E+007, +3.41739562977E+001, +4.29798109416E+002
+2.94823529412E+007, +3.40808991461E+001, +4.32178784383E+002
+2.96073842303E+007, +3.41767046662E+001, +4.34125244232E+002
+2.97324155194E+007, +3.56342647684E+001, +4.37762103056E+002
+2.98574468085E+007, +3.51500778743E+001, +4.38585365783E+002
+2.99824780976E+007, +3.48702304974E+001, +4.40977425852E+002
+3.01075093867E+007, +3.39465270420E+001, +4.44199202283E+002
+3.02325406758E+007, +3.60613809079E+001, +4.46031175436E+002
+3.03575719650E+007, +3.54930939234E+001, +4.48641480566E+002
+3.04826032541E+007, +3.48965581789E+001, +4.50710957825E+002
+3.06076345432E+007, +3.52440627124E+001, +4.53944160820E+002
+3.07326658323E+007, +3.56545771807E+001, +4.55930216783E+002
+3.08576971214E+007, +3.50090550560E+001, +4.58482068795E+002
+3.09827284105E+007, +3.58681016634E+001, +4.59966698206E+002
+3.11077596996E+007, +3.47147917214E+001, +4.62931876535E+002
+3.12327909887E+007, +3.54004250257E+001, +4.64520033149E+002
+3.13578222778E+007, +3.55790600681E+001, +4.68515693030E+002
+3.14828535670E+007, +3.60526098866E+001, +4.70649262254E+002
+3.16078848561E+007, +3.53467232902E+001, +4.74327573703E+002
+3.17329161452E+007, +3.52382820467E+001, +4.75442794081E+002
+3.18579474343E+007, +3.60288061744E+001, +4.76830206827E+002
+3.19829787234E+007, +3.64142030698E+001, +4.80915340063E+002
+3.21080100125E+007, +3.66631884893E+001, +4.83116724793E+002
+3.22330413016E+007, +3.52425810664E+001, +4.85927041582E+002
+3.23580725907E+007, +3.62273603811E+001, +4.89495542100E+002
+3.24831038798E+007, +3.53151243923E+001, +4.91366624167E+002
+3.26081351690E+007, +3.59729273379E+001, +4.93781419953E+002
+3.27331664581E+007, +3.64807467362E+001, +4.96258599970E+002
+3.28581977472E+007, +3.81824699796E+001, +4.99350069393E+002
+3.29832290363E+007, +3.70551658391E+001, +5.00722403375E+002
+3.31082603254E+007, +3.63078363023E+001, +5.03201753277E+002
+3.32332916145E+007, +3.76122915313E+001, +5.07015004611E+002
+3.33583229036E+007, +3.76380786835E+001, +5.09424222005E+002
+3.34833541927E+007, +3.73464165765E+001, +5.11719241136E+002
+3.36083854819E+007, +3.76016131369E+001, +5.14588971972E+002
+3.37334167710E+007, +3.72832627910E+001, +5.17181041064E+002
+3.38584480601E+007, +3.70720963619E+001, +5.19903203627E+002
+3.39834793492E+007, +3.69630323473E+001, +5.21836357403E+002
+3.41085106383E+007, +3.85032568570E+001, +5.25759522587E+002
+3.42335419274E+007, +3.80203738313E+001, +5.28950341172E+002
+3.43585732165E+007, +3.71228670469E+001, +5.30579733661E+002
+3.44836045056E+007, +3.86036821194E+001, +5.33906759341E+002
+3.46086357947E+007, +3.92586820013E+001, +5.36416055746E+002
+3.47336670839E+007, +3.99213187670E+001, +5.40514964191E+002
+3.48586983730E+007, +3.88018702569E+001, +5.42736012828E+002
+3.49837296621E+007, +3.82324976664E+001, +5.44465729311E+002
+3.51087609512E+007, +3.84178273277E+001, +5.48214605812E+002
+3.52337922403E+007, +3.87106823228E+001, +5.50729876709E+002
+3.53588235294E+007, +3.90401879528E+001, +5.53932206037E+002
+3.54838548185E+007, +4.01122233998E+001, +5.55866704950E+002
+3.56088861076E+007, +3.93887124665E+001, +5.59928937101E+002
+3.57339173967E+007, +3.87135016854E+001, +5.61786255804E+002
+3.58589486859E+007, +3.92591929174E+001, +5.64360124586E+002
+3.59839799750E+007, +3.84814841858E+001, +5.67409084325E+002
+3.61090112641E+007, +4.07204600858E+001, +5.70295703018E+002
+3.62340425532E+007, +3.93240735142E+001, +5.74694143082E+002
+3.63590738423E+007, +4.04524604333E+001, +5.76311868537E+002
+3.64841051314E+007, +4.06189771287E+001, +5.79658479877E+002
+3.66091364205E+007, +3.95919217857E+001, +5.82864591602E+002
+3.67341677096E+007, +4.05562410964E+001, +5.86602160834E+002
+3.68591989987E+007, +3.99522986456E+001, +5.88880238682E+002
+3.69842302879E+007, +3.96337363607E+001, +5.91495176582E+002
+3.71092615770E+007, +4.10334848957E+001, +5.94407657555E+002
+3.72342928661E+007, +4.03817759781E+001, +5.97028002040E+002
+3.73593241552E+007, +4.07559373498E+001, +6.01458446894E+002
+3.74843554443E+007, +4.04161269315E+001, +6.03051726232E+002
+3.76093867334E+007, +4.22416811438E+001, +6.07048337003E+002
+3.77344180225E+007, +4.19841286813E+001, +6.09826062420E+002
+3.78594493116E+007, +4.05877124569E+001, +6.11503559412E+002
+3.79844806008E+007, +4.17137920466E+001, +6.14956421364E+002
+3.81095118899E+007, +4.11562856275E+001, +6.20921882323E+002
+3.82345431790E+007, +4.09547024170E+001, +6.22123464046E+002
+3.83595744681E+007, +4.40492388293E+001, +6.23840472821E+002
+3.84846057572E+007, +4.17455938430E+001, +6.29438892221E+002
+3.86096370463E+007, +4.23490587614E+001, +6.33198100697E+002
+3.87346683354E+007, +4.37087649728E+001, +6.35471339289E+002
+3.88596996245E+007, +4.20025595411E+001, +6.38524746339E+002
+3.89847309136E+007, +4.28640374017E+001, +6.42702738831E+002
+3.91097622028E+007, +4.43228532249E+001, +6.46460666648E+002
+3.92347934919E+007, +4.43643126901E+001, +6.49546696079E+002
+3.93598247810E+007, +4.42065509552E+001, +6.52502871070E+002
+3.94848560701E+007, +4.41977487937E+001, +6.57408958066E+002
+3.96098873592E+007, +4.50214128094E+001, +6.59154361427E+002
+3.97349186483E+007, +4.34216665560E+001, +6.61100382281E+002
+3.98599499374E+007, +4.47579148404E+001, +6.66058396365E+002
+3.99849812265E+007, +4.62097229548E+001, +6.68849873934E+002
+4.01100125156E+007, +4.72228705276E+001, +6.73320440203E+002
