"# Channel 1"
"# Trace 1"
Frequency, Formatted Data, Formatted Data
+1.00000000000E+005, +6.33318077982E+000, +1.23121723177E+000
+2.66777963272E+005, +6.31314458608E+000, +3.31682874262E+000
+4.33555926544E+005, +6.32314593334E+000, +5.39455648235E+000
+6.00333889816E+005, +6.36136253564E+000, +7.42336309887E+000
+7.67111853088E+005, +6.36173938161E+000, +9.52162174132E+000
+9.33889816361E+005, +6.36625303079E+000, +1.15573402894E+001
+1.10066777963E+006, +6.33045875203E+000, +1.36233335024E+001
+1.26744574290E+006, +6.38218327961E+000, +1.56644123542E+001
+1.43422370618E+006, +6.30813445708E+000, +1.77560879755E+001
+1.60100166945E+006, +6.40963287800E+000, +1.97700310017E+001
+1.76777963272E+006, +6.37653476439E+000, +2.18299972505E+001
+1.93455759599E+006, +6.38031114708E+000, +2.38273809557E+001
+2.10133555927E+006, +6.41407657605E+000, +2.58949690954E+001
+2.26811352254E+006, +6.42733027284E+000, +2.79507587044E+001
+2.43489148581E+006, +6.42323621092E+000, +3.00431752826E+001
+2.60166944908E+006, +6.46364944575E+000, +3.20605101598E+001
+2.76844741235E+006, +6.43321215068E+000, +3.41373740161E+001
+2.93522537563E+006, +6.41263179914E+000, +3.61857362256E+001
+3.10200333890E+006, +6.52280078398E+000, +3.82227982400E+001
+3.26878130217E+006, +6.41115029916E+000, +4.03033885355E+001
+3.43555926544E+006, +6.46438478809E+000, +4.23413350250E+001
+3.60233722871E+006, +6.48841881674E+000, +4.44323346065E+001
+3.76911519199E+006, +6.50803852028E+000, +4.65466002350E+001
+3.93589315526E+006, +6.51829493818E+000, +4.84998430479E+001
+4.10267111853E+006, +6.42791294273E+000, +5.05487494604E+001
+4.26944908180E+006, +6.50090196185E+000, +5.28745415413E+001
+4.43622704508E+006, +6.54776278088E+000, +5.47637186974E+001
+4.60300500835E+006, +6.59588054058E+000, +5.69021232107E+001
+4.76978297162E+006, +6.54659129136E+000, +5.88537793044E+001
+4.93656093489E+006, +6.69600790487E+000, +6.10326166361E+001
+5.10333889816E+006, +6.70590676268E+000, +6.29766082119E+001
+5.27011686144E+006, +6.78298749693E+000, +6.52763193980E+001
+5.43689482471E+006, +6.70437036848E+000, +6.72188330443E+001
+5.60367278798E+006, +6.74293072038E+000, +6.93794774518E+001
+5.77045075125E+006, +6.74253782382E+000, +7.14371588085E+001
+5.93722871452E+006, +6.89279246345E+000, +7.35068043228E+001
+6.10400667780E+006, +6.84115335241E+000, +7.55882716833E+001
+6.27078464107E+006, +6.92003840192E+000, +7.76869882061E+001
+6.43756260434E+006, +6.96682075895E+000, +7.97819826896E+001
+6.60434056761E+006, +6.96182759059E+000, +8.18474477314E+001
+6.77111853088E+006, +7.12202531017E+000, +8.38849088021E+001
+6.93789649416E+006, +7.05545543736E+000, +8.60478631072E+001
+7.10467445743E+006, +7.05189797671E+000, +8.80761515695E+001
+7.27145242070E+006, +7.09291788871E+000, +9.01284203013E+001
+7.43823038397E+006, +7.18606353735E+000, +9.21921061462E+001
+7.60500834725E+006, +7.13220530980E+000, +9.42634618778E+001
+7.77178631052E+006, +7.22449942227E+000, +9.64960838260E+001
+7.93856427379E+006, +7.21156732133E+000, +9.84772584908E+001
+8.10534223706E+006, +7.28894510042E+000, +1.00576217136E+002
+8.27212020033E+006, +7.26595121394E+000, +1.02653952713E+002
+8.43889816361E+006, +7.27567825918E+000, +1.04821437305E+002
+8.60567612688E+006, +7.19417760073E+000, +1.06927528542E+002
+8.77245409015E+006, +7.22404017103E+000, +1.09007354823E+002
+8.93923205342E+006, +7.31445404341E+000, +1.11137493812E+002
+9.10601001669E+006, +7.35287901573E+000, +1.13334129811E+002
+9.27278797997E+006, +7.36957024282E+000, +1.15467935889E+002
+9.43956594324E+006, +7.43582627620E+000, +1.17483641194E+002
+9.60634390651E+006, +7.37361123926E+000, +1.19670934588E+002
+9.77312186978E+006, +7.30735523073E+000, +1.21740980390E+002
+9.93989983306E+006, +7.45649957121E+000, +1.24023144829E+002
+1.01066777963E+007, +7.47052229563E+000, +1.26122929348E+002
+1.02734557596E+007, +7.48243631676E+000, +1.28255301774E+002
+1.04402337229E+007, +7.41362468100E+000, +1.30347626899E+002
+1.06070116861E+007, +7.45217761451E+000, +1.32553406256E+002
+1.07737896494E+007, +7.51767908546E+000, +1.34781458700E+002
+1.09405676127E+007, +7.65327235080E+000, +1.36940306344E+002
+1.11073455760E+007, +7.59698873505E+000, +1.39106990039E+002
+1.12741235392E+007, +7.60265246785E+000, +1.41183349985E+002
+1.14409015025E+007, +7.70343807271E+000, +1.43420334096E+002
+1.16076794658E+007, +7.80713078356E+000, +1.45600775545E+002
+1.17744574290E+007, +7.81467922682E+000, +1.47850776110E+002
+1.19412353923E+007, +7.69843812327E+000, +1.49901290247E+002
+1.21080133556E+007, +7.59460857541E+000, +1.52135939513E+002
+1.22747913189E+007, +7.90457946017E+000, +1.54548363378E+002
+1.24415692821E+007, +7.78503910200E+000, +1.56561155669E+002
+1.26083472454E+007, +7.67490733923E+000, +1.58934443374E+002
+1.27751252087E+007, +7.85366004549E+000, +1.60980843660E+002
+1.29419031720E+007, +7.86643303753E+000, +1.63135351216E+002
+1.31086811352E+007, +7.99357700576E+000, +1.65446467773E+002
+1.32754590985E+007, +7.97451651249E+000, +1.67616800594E+002
+1.34422370618E+007, +7.91506642768E+000, +1.69882904003E+002
+1.36090150250E+007, +8.20464898364E+000, +1.72203123043E+002
+1.37757929883E+007, +8.00572930486E+000, +1.74249962913E+002
+1.39425709516E+007, +8.16710424183E+000, +1.76591382940E+002
+1.41093489149E+007, +8.21668587282E+000, +1.78868617895E+002
+1.42761268781E+007, +8.32217972492E+000, +1.81162303327E+002
+1.44429048414E+007, +8.28385113835E+000, +1.83376941449E+002
+1.46096828047E+007, +8.29735591822E+000, +1.85581102383E+002
+1.47764607679E+007, +8.52504153884E+000, +1.87850528701E+002
+1.49432387312E+007, +8.41679789494E+000, +1.90210440610E+002
+1.51100166945E+007, +8.49289769639E+000, +1.92640657700E+002
+1.52767946578E+007, +8.61579205903E+000, +1.94660164848E+002
+1.54435726210E+007, +8.56249383497E+000, +1.97070159945E+002
+1.56103505843E+007, +8.63366483065E+000, +1.99324759620E+002
+1.57771285476E+007, +8.74056988813E+000, +2.01476951679E+002
+1.59439065109E+007, +8.67767000688E+000, +2.03762056880E+002
+1.61106844741E+007, +8.71421896469E+000, +2.06080517931E+002
+1.62774624374E+007, +8.79960257544E+000, +2.08392613453E+002
+1.64442404007E+007, +8.81268456737E+000, +2.11064388981E+002
+1.66110183639E+007, +8.86354893232E+000, +2.13087590071E+002
+1.67777963272E+007, +8.83307607744E+000, +2.15620297202E+002
+1.69445742905E+007, +9.05252399751E+000, +2.17700769916E+002
+1.71113522538E+007, +8.52695964517E+000, +2.20118571846E+002
+1.72781302170E+007, +8.71019795109E+000, +2.22622068170E+002
+1.74449081803E+007, +8.72890553065E+000, +2.24872318753E+002
+1.76116861436E+007, +9.07670943801E+000, +2.27406671807E+002
+1.77784641068E+007, +9.04050502467E+000, +2.29591974762E+002
+1.79452420701E+007, +9.22490214145E+000, +2.31888602024E+002
+1.81120200334E+007, +9.36417698120E+000, +2.34345437432E+002
+1.82787979967E+007, +9.37028690600E+000, +2.36971229903E+002
+1.84455759599E+007, +9.42820937698E+000, +2.39399981219E+002
+1.86123539232E+007, +9.65110312739E+000, +2.41499546978E+002
+1.87791318865E+007, +9.51275097586E+000, +2.44239842077E+002
+1.89459098497E+007, +9.53205589123E+000, +2.46559443962E+002
+1.91126878130E+007, +9.57119211897E+000, +2.48846190273E+002
+1.92794657763E+007, +9.88806709488E+000, +2.51186136933E+002
+1.94462437396E+007, +9.80149499650E+000, +2.54278108256E+002
+1.96130217028E+007, +9.91210212977E+000, +2.56479960690E+002
+1.97797996661E+007, +9.94821081074E+000, +2.59110452534E+002
+1.99465776294E+007, +9.41715344349E+000, +2.60964091513E+002
+2.01133555927E+007, +9.75401953803E+000, +2.63565905251E+002
+2.02801335559E+007, +9.99561591193E+000, +2.66517973320E+002
+2.04469115192E+007, +1.02728107144E+001, +2.69027516026E+002
+2.06136894825E+007, +1.01543974557E+001, +2.71471667421E+002
+2.07804674457E+007, +1.04762125670E+001, +2.73963224787E+002
+2.09472454090E+007, +1.02430384119E+001, +2.76637935311E+002
+2.11140233723E+007, +1.02594747062E+001, +2.78644109090E+002
+2.12808013356E+007, +1.06139779417E+001, +2.81594740816E+002
+2.14475792988E+007, +1.04095450940E+001, +2.84259632642E+002
+2.16143572621E+007, +1.11816696012E+001, +2.86761641629E+002
+2.17811352254E+007, +1.05878608058E+001, +2.88799412851E+002
+2.19479131886E+007, +1.13490070382E+001, +2.91999777624E+002
+2.21146911519E+007, +1.14122865901E+001, +2.94250194095E+002
+2.22814691152E+007, +1.11299978830E+001, +2.96888911976E+002
+2.24482470785E+007, +1.15559630793E+001, +2.99943874032E+002
+2.26150250417E+007, +1.19306979939E+001, +3.02305386691E+002
+2.27818030050E+007, +1.16622592635E+001, +3.04845323603E+002
+2.29485809683E+007, +1.22108662877E+001, +3.07403484472E+002
+2.31153589316E+007, +1.13836198835E+001, +3.10426616809E+002
+2.32821368948E+007, +1.20879284665E+001, +3.13280946772E+002
+2.34489148581E+007, +1.22637420441E+001, +3.15318336715E+002
+2.36156928214E+007, +1.23660272931E+001, +3.18739448382E+002
+2.37824707846E+007, +1.24137583037E+001, +3.20913925889E+002
+2.39492487479E+007, +1.22028599370E+001, +3.23515725177E+002
+2.41160267112E+007, +1.29979547500E+001, +3.26574852496E+002
+2.42828046745E+007, +1.25574520309E+001, +3.28666849357E+002
+2.44495826377E+007, +1.27439324579E+001, +3.32072265533E+002
+2.46163606010E+007, +1.29333476737E+001, +3.34620457820E+002
+2.47831385643E+007, +1.31097110552E+001, +3.36683621153E+002
+2.49499165275E+007, +1.33457551392E+001, +3.40279817739E+002
+2.51166944908E+007, +1.35012380123E+001, +3.43375950183E+002
+2.52834724541E+007, +1.39482525527E+001, +3.45260376930E+002
+2.54502504174E+007, +1.43613944423E+001, +3.48353895109E+002
+2.56170283806E+007, +1.43149657557E+001, +3.51229900451E+002
+2.57838063439E+007, +1.43462586930E+001, +3.54497333014E+002
+2.59505843072E+007, +1.47782109511E+001, +3.57921351771E+002
+2.61173622705E+007, +1.50988569016E+001, +3.60299352619E+002
+2.62841402337E+007, +1.49885706694E+001, +3.62708204030E+002
+2.64509181970E+007, +1.48490582752E+001, +3.65940573923E+002
+2.66176961603E+007, +1.50724668469E+001, +3.68526301002E+002
+2.67844741235E+007, +1.54213267559E+001, +3.71272820104E+002
+2.69512520868E+007, +1.55956551175E+001, +3.74026965218E+002
+2.71180300501E+007, +1.56662336550E+001, +3.76467108650E+002
+2.72848080134E+007, +1.62465853782E+001, +3.79630047436E+002
+2.74515859766E+007, +1.65007554957E+001, +3.82441194690E+002
+2.76183639399E+007, +1.64558596995E+001, +3.85028135804E+002
+2.77851419032E+007, +1.60206421150E+001, +3.87985467781E+002
+2.79519198664E+007, +1.67450566038E+001, +3.90830283940E+002
+2.81186978297E+007, +1.69205494389E+001, +3.93280693841E+002
+2.82854757930E+007, +1.73612514570E+001, +3.96444459727E+002
+2.84522537563E+007, +1.60255016761E+001, +4.00054082126E+002
+2.86190317195E+007, +1.67914893137E+001, +4.02259357260E+002
+2.87858096828E+007, +1.73610420388E+001, +4.05620107686E+002
+2.89525876461E+007, +1.72204946894E+001, +4.08523256539E+002
+2.91193656093E+007, +1.73652970751E+001, +4.10646901535E+002
+2.92861435726E+007, +1.72127130254E+001, +4.14008348049E+002
+2.94529215359E+007, +1.68804181578E+001, +4.16648132010E+002
+2.96196994992E+007, +1.72549013168E+001, +4.21388132619E+002
+2.97864774624E+007, +1.76868274589E+001, +4.23641834023E+002
+2.99532554257E+007, +1.86913309321E+001, +4.27283322358E+002
+3.01200333890E+007, +1.75267323950E+001, +4.30692719810E+002
+3.02868113523E+007, +1.65765665232E+001, +4.34597054391E+002
+3.04535893155E+007, +1.76017013168E+001, +4.37413602692E+002
+3.06203672788E+007, +1.84725416870E+001, +4.39364747981E+002
+3.07871452421E+007, +1.81007854631E+001, +4.43558830782E+002
+3.09539232053E+007, +1.81552209436E+001, +4.46299398862E+002
+3.11207011686E+007, +1.68658197979E+001, +4.50387368321E+002
+3.12874791319E+007, +1.84348884449E+001, +4.52762655839E+002
+3.14542570952E+007, +1.86530608455E+001, +4.56549525163E+002
+3.16210350584E+007, +1.74224361935E+001, +4.60244507599E+002
+3.17878130217E+007, +1.74648351163E+001, +4.62955698551E+002
+3.19545909850E+007, +1.83264969092E+001, +4.67142759786E+002
+3.21213689482E+007, +1.74516094671E+001, +4.71137902444E+002
+3.22881469115E+007, +1.81669771411E+001, +4.73394372841E+002
+3.24549248748E+007, +1.85152694270E+001, +4.78323460266E+002
+3.26217028381E+007, +1.76449257180E+001, +4.81489351054E+002
+3.27884808013E+007, +1.78449248275E+001, +4.84535440311E+002
+3.29552587646E+007, +1.80651815038E+001, +4.88018727510E+002
+3.31220367279E+007, +1.90180293191E+001, +4.91704177069E+002
+3.32888146912E+007, +1.84116808195E+001, +4.95837318050E+002
+3.34555926544E+007, +1.85521572115E+001, +4.99482919981E+002
+3.36223706177E+007, +1.90978304575E+001, +5.01978865598E+002
+3.37891485810E+007, +1.92711404712E+001, +5.04606988959E+002
+3.39559265442E+007, +1.86049466940E+001, +5.09739538507E+002
+3.41227045075E+007, +1.80494608510E+001, +5.13984834591E+002
+3.42894824708E+007, +1.93238927057E+001, +5.18369620639E+002
+3.44562604341E+007, +1.92034824580E+001, +5.21080301999E+002
+3.46230383973E+007, +1.97890733600E+001, +5.25483773484E+002
+3.47898163606E+007, +1.98500427854E+001, +5.28612639977E+002
+3.49565943239E+007, +2.15623756420E+001, +5.32666631508E+002
+3.51233722871E+007, +2.02140521793E+001, +5.37176371115E+002
+3.52901502504E+007, +2.07567586082E+001, +5.39567615922E+002
+3.54569282137E+007, +1.95183434563E+001, +5.44863259960E+002
+3.56237061770E+007, +1.99114649874E+001, +5.48482589920E+002
+3.57904841402E+007, +2.02417042608E+001, +5.53939566417E+002
+3.59572621035E+007, +2.09153404453E+001, +5.56419340629E+002
+3.61240400668E+007, +2.23656913275E+001, +5.60748848622E+002
+3.62908180301E+007, +2.13024648321E+001, +5.67213344316E+002
+3.64575959933E+007, +1.99958407088E+001, +5.68750094656E+002
+3.66243739566E+007, +2.30871315842E+001, +5.73164226693E+002
+3.67911519199E+007, +2.21455338816E+001, +5.78487935192E+002
+3.69579298831E+007, +2.10542573250E+001, +5.81385050209E+002
+3.71247078464E+007, +2.13434108818E+001, +5.87018814088E+002
+3.72914858097E+007, +2.20351583643E+001, +5.91384560788E+002
+3.74582637730E+007, +2.33046731737E+001, +5.97086149866E+002
+3.76250417362E+007, +2.12991406256E+001, +6.00285976393E+002
+3.77918196995E+007, +2.10343302446E+001, +6.03085556335E+002
+3.79585976628E+007, +2.23103160890E+001, +6.09301604157E+002
+3.81253756260E+007, +2.39385957349E+001, +6.12486429724E+002
+3.82921535893E+007, +2.44848426557E+001, +6.18571844067E+002
+3.84589315526E+007, +2.45993893441E+001, +6.22250641927E+002
+3.86257095159E+007, +2.39420435119E+001, +6.28290530202E+002
+3.87924874791E+007, +2.30528478889E+001, +6.33209095353E+002
+3.89592654424E+007, +2.41260660053E+001, +6.37908263024E+002
+3.91260434057E+007, +2.57370543609E+001, +6.43730893975E+002
+3.92928213689E+007, +2.33094482751E+001, +6.47473814635E+002
+3.94595993322E+007, +2.53798005093E+001, +6.52805583185E+002
+3.96263772955E+007, +2.45465174815E+001, +6.57372202380E+002
+3.97931552588E+007, +2.45270778096E+001, +6.61877552167E+002
+3.99599332220E+007, +2.41254181325E+001, +6.66803329201E+002
+4.01267111853E+007, +2.36179343025E+001, +6.71737837719E+002
+4.02934891486E+007, +2.56594316026E+001, +6.76246832145E+002
+4.04602671119E+007, +2.65682796350E+001, +6.80781601657E+002
+4.06270450751E+007, +2.76953070781E+001, +6.87875199656E+002
+4.07938230384E+007, +2.67082384232E+001, +6.93957893568E+002
+4.09606010017E+007, +2.78827938885E+001, +6.99732405284E+002
+4.11273789649E+007, +2.67406212178E+001, +7.03755736417E+002
+4.12941569282E+007, +2.76194711936E+001, +7.11618003099E+002
+4.14609348915E+007, +2.92107989920E+001, +7.17938198151E+002
+4.16277128548E+007, +2.91647346320E+001, +7.22270314812E+002
+4.17944908180E+007, +2.96073886352E+001, +7.24117127195E+002
+4.19612687813E+007, +2.77988703795E+001, +7.31985816025E+002
+4.21280467446E+007, +2.79423324843E+001, +7.40378886141E+002
+4.22948247078E+007, +3.13288213680E+001, +7.45848720625E+002
+4.24616026711E+007, +3.15093811209E+001, +7.49559793931E+002
+4.26283806344E+007, +3.18301853816E+001, +7.56929522926E+002
+4.27951585977E+007, +2.88107714924E+001, +7.64988716823E+002
+4.29619365609E+007, +3.20014415348E+001, +7.69461933740E+002
+4.31287145242E+007, +3.28589845206E+001, +7.77025404505E+002
+4.32954924875E+007, +3.24727542706E+001, +7.81624265897E+002
+4.34622704508E+007, +3.09722862068E+001, +7.88068570660E+002
+4.36290484140E+007, +3.47463750523E+001, +7.94637751636E+002
+4.37958263773E+007, +3.42247038559E+001, +8.04397479672E+002
+4.39626043406E+007, +3.52136451108E+001, +8.07586395000E+002
+4.41293823038E+007, +3.65490748654E+001, +8.19003628688E+002
+4.42961602671E+007, +3.57359135544E+001, +8.24740107038E+002
+4.44629382304E+007, +3.54049000134E+001, +8.28968800266E+002
+4.46297161937E+007, +3.81332652045E+001, +8.35237305636E+002
+4.47964941569E+007, +3.67467030712E+001, +8.46046567946E+002
+4.49632721202E+007, +3.56680732242E+001, +8.54346249638E+002
+4.51300500835E+007, +3.67827993882E+001, +8.57598072370E+002
+4.52968280467E+007, +3.97092998003E+001, +8.64911765946E+002
+4.54636060100E+007, +4.28796759194E+001, +8.75657175771E+002
+4.56303839733E+007, +3.78281381813E+001, +8.82117773282E+002
+4.57971619366E+007, +4.27307090444E+001, +8.90056316037E+002
+4.59639398998E+007, +3.93289767433E+001, +9.03378020879E+002
+4.61307178631E+007, +4.12253017246E+001, +9.05383575314E+002
+4.62974958264E+007, +4.27457688796E+001, +9.13302188888E+002
+4.64642737896E+007, +4.06991753913E+001, +9.18486185740E+002
+4.66310517529E+007, +4.20598580453E+001, +9.33314956043E+002
+4.67978297162E+007, +4.78471205860E+001, +9.34415878413E+002
+4.69646076795E+007, +4.78323517316E+001, +9.51626220691E+002
+4.71313856427E+007, +4.98677602034E+001, +9.59507913295E+002
+4.72981636060E+007, +4.55466226728E+001, +9.67712972838E+002
+4.74649415693E+007, +4.62533295960E+001, +9.79490887124E+002
+4.76317195326E+007, +5.43710505852E+001, +9.85734728502E+002
+4.77984974958E+007, +5.06474253817E+001, +9.97268762424E+002
+4.79652754591E+007, +5.42784460183E+001, +1.00469710372E+003
+4.81320534224E+007, +5.48196069832E+001, +1.01359103978E+003
+4.82988313856E+007, +5.22685528529E+001, +1.02706326781E+003
+4.84656093489E+007, +5.95481532336E+001, +1.03474252564E+003
+4.86323873122E+007, +6.32865600126E+001, +1.04076920963E+003
+4.87991652755E+007, +6.13903054528E+001, +1.05710929766E+003
+4.89659432387E+007, +6.08083362875E+001, +1.06380944076E+003
+4.91327212020E+007, +6.50079646966E+001, +1.07907805871E+003
+4.92994991653E+007, +7.10797388803E+001, +1.08574235371E+003
+4.94662771285E+007, +7.27935409961E+001, +1.09950925859E+003
+4.96330550918E+007, +7.53746726126E+001, +1.10565696836E+003
+4.97998330551E+007, +7.76282955559E+001, +1.11497571752E+003
+4.99666110184E+007, +7.83833565704E+001, +1.12652135153E+003
+5.01333889816E+007, +8.12442402652E+001, +1.13850619574E+003
+5.03001669449E+007, +7.90068197306E+001, +1.15050299743E+003
+5.04669449082E+007, +8.22269956239E+001, +1.16299561224E+003
+5.06337228715E+007, +8.85237366660E+001, +1.18022748814E+003
+5.08005008347E+007, +8.24485716589E+001, +1.18945611651E+003
+5.09672787980E+007, +9.00999243655E+001, +1.20103319875E+003
+5.11340567613E+007, +8.97735185960E+001, +1.21827559706E+003
+5.13008347245E+007, +8.62388253774E+001, +1.22783909102E+003
+5.14676126878E+007, +9.38303364184E+001, +1.24271742427E+003
+5.16343906511E+007, +9.74104371384E+001, +1.25681182943E+003
+5.18011686144E+007, +9.98012460038E+001, +1.26565959921E+003
+5.19679465776E+007, +9.72393316549E+001, +1.28115288791E+003
+5.21347245409E+007, +1.00998176237E+002, +1.30225395930E+003
+5.23015025042E+007, +1.07299435765E+002, +1.32910313189E+003
+5.24682804674E+007, +1.05407031080E+002, +1.33756871821E+003
+5.26350584307E+007, +1.09436762375E+002, +1.34497893228E+003
+5.28018363940E+007, +1.05341973208E+002, +1.35508046396E+003
+5.29686143573E+007, +1.13058772519E+002, +1.38453318754E+003
+5.31353923205E+007, +1.15093315935E+002, +1.39456296783E+003
+5.33021702838E+007, +1.11686238572E+002, +1.41761082556E+003
+5.34689482471E+007, +1.25177279817E+002, +1.44193511843E+003
