"# Channel 1"
"# Trace 1"
Frequency, Formatted Data, Formatted Data
+1.00000000000E+005, +4.06491371758E-001, +1.29148712202E+000
+2.25031289111E+005, +3.96512493654E-001, +2.80958219064E+000
+3.50062578223E+005, +4.34604205832E-001, +4.34577814760E+000
+4.75093867334E+005, +4.57538072128E-001, +5.90342435969E+000
+6.00125156446E+005, +5.20258862134E-001, +7.38432341519E+000
+7.25156445557E+005, +5.33655417897E-001, +8.93593988913E+000
+8.50187734668E+005, +5.22112636976E-001, +1.03669498254E+001
+9.75219023780E+005, +5.07096985212E-001, +1.19157080787E+001
+1.10025031289E+006, +6.17183792710E-001, +1.34273387503E+001
+1.22528160200E+006, +5.77747269100E-001, +1.48976439151E+001
+1.35031289111E+006, +6.09723861496E-001, +1.63679569939E+001
+1.47534418023E+006, +6.43307460114E-001, +1.79244128590E+001
+1.60037546934E+006, +6.62355097716E-001, +1.94021862944E+001
+1.72540675845E+006, +6.79684872967E-001, +2.08567299369E+001
+1.85043804756E+006, +7.11821593409E-001, +2.24069205600E+001
+1.97546933667E+006, +7.31057212939E-001, +2.38892237065E+001
+2.10050062578E+006, +7.45528477760E-001, +2.53729444452E+001
+2.22553191489E+006, +6.79612073653E-001, +2.68833436513E+001
+2.35056320401E+006, +7.29047265155E-001, +2.83410442334E+001
+2.47559449312E+006, +7.52525036644E-001, +2.98646953479E+001
+2.60062578223E+006, +7.48871199466E-001, +3.13755310404E+001
+2.72565707134E+006, +7.59285430400E-001, +3.28740386230E+001
+2.85068836045E+006, +8.02147973881E-001, +3.44150286287E+001
+2.97571964956E+006, +7.55280948737E-001, +3.58423742050E+001
+3.10075093867E+006, +8.15094756506E-001, +3.74013296713E+001
+3.22578222778E+006, +7.77593973474E-001, +3.88240373852E+001
+3.35081351690E+006, +7.41884601348E-001, +4.04193886873E+001
+3.47584480601E+006, +8.08240437071E-001, +4.18460077254E+001
+3.60087609512E+006, +7.96988253059E-001, +4.34437871865E+001
+3.72590738423E+006, +8.77620526244E-001, +4.49026581642E+001
+3.85093867334E+006, +9.00551629380E-001, +4.63110481911E+001
+3.97596996245E+006, +8.26147671574E-001, +4.79520852083E+001
+4.10100125156E+006, +8.75621236396E-001, +4.94334521373E+001
+4.22603254068E+006, +8.82965349894E-001, +5.08272350792E+001
+4.35106382979E+006, +8.46779621491E-001, +5.23502287345E+001
+4.47609511890E+006, +8.79306476654E-001, +5.39153282917E+001
+4.60112640801E+006, +9.06822296811E-001, +5.53258282132E+001
+4.72615769712E+006, +8.72519975264E-001, +5.68843953850E+001
+4.85118898623E+006, +9.41461551032E-001, +5.83774051337E+001
+4.97622027534E+006, +9.53534386928E-001, +5.99129777101E+001
+5.10125156446E+006, +8.32812210821E-001, +6.13696868397E+001
+5.22628285357E+006, +9.61346111708E-001, +6.28116771846E+001
+5.35131414268E+006, +8.36464999889E-001, +6.43511890479E+001
+5.47634543179E+006, +8.87446813069E-001, +6.58980757010E+001
+5.60137672090E+006, +9.67366461022E-001, +6.74377819606E+001
+5.72640801001E+006, +9.77284971274E-001, +6.90508118557E+001
+5.85143929912E+006, +9.78279295372E-001, +7.04374016261E+001
+5.97647058824E+006, +1.01349462930E+000, +7.21241834481E+001
+6.10150187735E+006, +9.87833744667E-001, +7.34976999518E+001
+6.22653316646E+006, +9.71755555567E-001, +7.51292222198E+001
+6.35156445557E+006, +9.71197311921E-001, +7.65672407830E+001
+6.47659574468E+006, +1.02363552162E+000, +7.80841966767E+001
+6.60162703379E+006, +9.93285163571E-001, +7.96535262426E+001
+6.72665832290E+006, +1.08855395558E+000, +8.12402116281E+001
+6.85168961202E+006, +1.07855511830E+000, +8.26436187136E+001
+6.97672090113E+006, +1.02307243416E+000, +8.42329184600E+001
+7.10175219024E+006, +1.04789985231E+000, +8.57446144740E+001
+7.22678347935E+006, +1.11431084117E+000, +8.73119893061E+001
+7.35181476846E+006, +1.06198706864E+000, +8.88546720658E+001
+7.47684605757E+006, +1.04164088444E+000, +9.04216027547E+001
+7.60187734668E+006, +1.07917960451E+000, +9.18457738988E+001
+7.72690863579E+006, +1.06982306027E+000, +9.33592780575E+001
+7.85193992491E+006, +1.06731177437E+000, +9.49026242000E+001
+7.97697121402E+006, +1.21712159138E+000, +9.64120118163E+001
+8.10200250313E+006, +1.05765463911E+000, +9.79449053808E+001
+8.22703379224E+006, +1.07730115064E+000, +9.94304077249E+001
+8.35206508135E+006, +1.10711174357E+000, +1.01038085212E+002
+8.47709637046E+006, +1.22471871181E+000, +1.02598871588E+002
+8.60212765957E+006, +1.13079317748E+000, +1.04198249278E+002
+8.72715894869E+006, +1.22225241015E+000, +1.05675442524E+002
+8.85219023780E+006, +1.08525188341E+000, +1.07170771495E+002
+8.97722152691E+006, +1.19999122252E+000, +1.08668900109E+002
+9.10225281602E+006, +1.11362863023E+000, +1.10218902061E+002
+9.22728410513E+006, +1.14944034376E+000, +1.11754660513E+002
+9.35231539424E+006, +1.23525339321E+000, +1.13399596823E+002
+9.47734668335E+006, +1.19206616033E+000, +1.14842566322E+002
+9.60237797247E+006, +1.12455065793E+000, +1.16464465173E+002
+9.72740926158E+006, +1.08391704040E+000, +1.18006128233E+002
+9.85244055069E+006, +1.06307974817E+000, +1.19407530876E+002
+9.97747183980E+006, +1.12680327194E+000, +1.21030097809E+002
+1.01025031289E+007, +1.29603084536E+000, +1.22616199770E+002
+1.02275344180E+007, +1.14624607664E+000, +1.24212672538E+002
+1.03525657071E+007, +1.16484339579E+000, +1.25696450831E+002
+1.04775969962E+007, +1.09680282579E+000, +1.27249145771E+002
+1.06026282854E+007, +1.11893565376E+000, +1.28847370484E+002
+1.07276595745E+007, +1.12402276235E+000, +1.30315016864E+002
+1.08526908636E+007, +1.16777999835E+000, +1.31812264762E+002
+1.09777221527E+007, +1.11477042885E+000, +1.33505327234E+002
+1.11027534418E+007, +1.18921455613E+000, +1.34976217900E+002
+1.12277847309E+007, +1.15099967822E+000, +1.36531572287E+002
+1.13528160200E+007, +1.12471207275E+000, +1.38159190446E+002
+1.14778473091E+007, +1.26316487854E+000, +1.39591627355E+002
+1.16028785982E+007, +1.05221622713E+000, +1.41333533503E+002
+1.17279098874E+007, +1.21678859433E+000, +1.42952232408E+002
+1.18529411765E+007, +1.11296336523E+000, +1.44494175517E+002
+1.19779724656E+007, +1.20861321815E+000, +1.46136760675E+002
+1.21030037547E+007, +1.22908431853E+000, +1.47548592680E+002
+1.22280350438E+007, +1.19177275480E+000, +1.49091959514E+002
+1.23530663329E+007, +9.73865175997E-001, +1.50862439318E+002
+1.24780976220E+007, +1.09018697342E+000, +1.52441853408E+002
+1.26031289111E+007, +1.12356687599E+000, +1.53867543339E+002
+1.27281602003E+007, +1.14403260838E+000, +1.55413548693E+002
+1.28531914894E+007, +1.24324949645E+000, +1.57198608857E+002
+1.29782227785E+007, +1.24203617357E+000, +1.58589024746E+002
+1.31032540676E+007, +1.30485713952E+000, +1.60201840741E+002
+1.32282853567E+007, +1.11371404067E+000, +1.61813854574E+002
+1.33533166458E+007, +1.10167649829E+000, +1.63463401712E+002
+1.34783479349E+007, +1.16841868794E+000, +1.64995203774E+002
+1.36033792240E+007, +1.26320011634E+000, +1.66585094582E+002
+1.37284105131E+007, +1.20238240173E+000, +1.68465328962E+002
+1.38534418023E+007, +1.18793739331E+000, +1.70045702143E+002
+1.39784730914E+007, +1.13161537494E+000, +1.71462345558E+002
+1.41035043805E+007, +1.16067438848E+000, +1.73024381373E+002
+1.42285356696E+007, +1.10238883006E+000, +1.74759823510E+002
+1.43535669587E+007, +1.09425755710E+000, +1.76285044397E+002
+1.44785982478E+007, +1.33029414174E+000, +1.78007463388E+002
+1.46036295369E+007, +1.04700420389E+000, +1.79625490813E+002
+1.47286608260E+007, +1.13911778068E+000, +1.81100605382E+002
+1.48536921151E+007, +1.21061401387E+000, +1.82740719633E+002
+1.49787234043E+007, +1.11221526331E+000, +1.84681266219E+002
+1.51037546934E+007, +1.33600566108E+000, +1.86079297967E+002
+1.52287859825E+007, +1.06220338086E+000, +1.87605603471E+002
+1.53538172716E+007, +1.17772656723E+000, +1.89320800131E+002
+1.54788485607E+007, +1.05847827648E+000, +1.90867311555E+002
+1.56038798498E+007, +9.10020986740E-001, +1.92623196278E+002
+1.57289111389E+007, +1.36447317973E+000, +1.94222753338E+002
+1.58539424280E+007, +9.50485232224E-001, +1.95826608309E+002
+1.59789737171E+007, +1.13864409231E+000, +1.97555050636E+002
+1.61040050063E+007, +1.19349271530E+000, +1.99276906652E+002
+1.62290362954E+007, +1.17081311934E+000, +2.00710209832E+002
+1.63540675845E+007, +1.24509857091E+000, +2.02314129111E+002
+1.64790988736E+007, +9.78692042690E-001, +2.03986781340E+002
+1.66041301627E+007, +1.40701334532E+000, +2.05955690100E+002
+1.67291614518E+007, +1.16391212240E+000, +2.07393984267E+002
+1.68541927409E+007, +1.29535375184E+000, +2.09118310295E+002
+1.69792240300E+007, +1.18209786840E+000, +2.10657061444E+002
+1.71042553191E+007, +8.92185714217E-001, +2.12021523012E+002
+1.72292866083E+007, +9.72677060506E-001, +2.14195920256E+002
+1.73543178974E+007, +6.28149771265E-001, +2.15646931607E+002
+1.74793491865E+007, +1.00858689988E+000, +2.17269441225E+002
+1.76043804756E+007, +1.09112207748E+000, +2.19657145934E+002
+1.77294117647E+007, +8.74696025078E-001, +2.20747322791E+002
+1.78544430538E+007, +8.45095703121E-001, +2.22391230693E+002
+1.79794743429E+007, +1.02137375099E+000, +2.24012361924E+002
+1.81045056320E+007, +1.02678375881E+000, +2.25950992608E+002
+1.82295369212E+007, +9.41998068970E-001, +2.27570517393E+002
+1.83545682103E+007, +1.36988778117E+000, +2.29570046126E+002
+1.84795994994E+007, +1.00244664783E+000, +2.31001902579E+002
+1.86046307885E+007, +1.24811803268E+000, +2.32990766787E+002
+1.87296620776E+007, +9.93762612531E-001, +2.34652495744E+002
+1.88546933667E+007, +1.11929731318E+000, +2.36383986791E+002
+1.89797246558E+007, +1.03665007663E+000, +2.38022398850E+002
+1.91047559449E+007, +1.11759335603E+000, +2.39540151763E+002
+1.92297872340E+007, +7.27122443668E-001, +2.41117767950E+002
+1.93548185232E+007, +9.91261748330E-001, +2.43283868865E+002
+1.94798498123E+007, +9.43747160577E-001, +2.45020077502E+002
+1.96048811014E+007, +1.09890668974E+000, +2.46635820535E+002
+1.97299123905E+007, +9.23281670585E-001, +2.48495437148E+002
+1.98549436796E+007, +1.40609968431E+000, +2.49868825674E+002
+1.99799749687E+007, +1.22120346418E+000, +2.51602118012E+002
+2.01050062578E+007, +1.11824803447E+000, +2.53494642717E+002
+2.02300375469E+007, +8.77603715444E-001, +2.55599199873E+002
+2.03550688360E+007, +1.17799013787E+000, +2.57036593313E+002
+2.04801001252E+007, +8.39046750966E-001, +2.58682113597E+002
+2.06051314143E+007, +1.36724711747E+000, +2.60917202381E+002
+2.07301627034E+007, +1.06315434052E+000, +2.62720146970E+002
+2.08551939925E+007, +9.10381484965E-001, +2.63861381044E+002
+2.09802252816E+007, +1.31091395003E+000, +2.66622611736E+002
+2.11052565707E+007, +8.96461199083E-001, +2.67924845259E+002
+2.12302878598E+007, +1.32859552660E+000, +2.69467598017E+002
+2.13553191489E+007, +1.15455006917E+000, +2.71460790154E+002
+2.14803504380E+007, +1.44251327954E+000, +2.73231622484E+002
+2.16053817272E+007, +8.48954846230E-001, +2.74749798096E+002
+2.17304130163E+007, +2.05499690149E+000, +2.76772136077E+002
+2.18554443054E+007, +8.26779147750E-001, +2.77893981646E+002
+2.19804755945E+007, +1.29397608842E+000, +2.80346268091E+002
+2.21055068836E+007, +1.14053525249E+000, +2.82176244784E+002
+2.22305381727E+007, +1.05737157294E+000, +2.84115012598E+002
+2.23555694618E+007, +1.40355164526E+000, +2.85550303870E+002
+2.24806007509E+007, +1.36549034427E+000, +2.87677866446E+002
+2.26056320401E+007, +1.26607820765E+000, +2.88868083309E+002
+2.27306633292E+007, +1.31352507828E+000, +2.91441549134E+002
+2.28556946183E+007, +1.27680321839E+000, +2.93022061767E+002
+2.29807259074E+007, +1.34395199751E+000, +2.95038772844E+002
+2.31057571965E+007, +1.40260512343E+000, +2.96639806324E+002
+2.32307884856E+007, +1.54016172585E+000, +2.98694677353E+002
+2.33558197747E+007, +1.90238618442E+000, +3.00730258077E+002
+2.34808510638E+007, +1.79991467439E+000, +3.02442819147E+002
+2.36058823529E+007, +1.65354514035E+000, +3.03816519142E+002
+2.37309136421E+007, +1.41333713389E+000, +3.05651653942E+002
+2.38559449312E+007, +1.49559618313E+000, +3.07527093152E+002
+2.39809762203E+007, +1.65959057872E+000, +3.09312780602E+002
+2.41060075094E+007, +1.48123096736E+000, +3.10995565338E+002
+2.42310387985E+007, +1.61198788605E+000, +3.12826124366E+002
+2.43560700876E+007, +1.85310086477E+000, +3.15135156483E+002
+2.44811013767E+007, +1.71179855971E+000, +3.16770436752E+002
+2.46061326658E+007, +1.81116059142E+000, +3.18892631236E+002
+2.47311639549E+007, +1.50024111793E+000, +3.19966125131E+002
+2.48561952441E+007, +1.75925554136E+000, +3.22073429487E+002
+2.49812265332E+007, +1.46970527430E+000, +3.24518319042E+002
+2.51062578223E+007, +2.07982098165E+000, +3.26197497136E+002
+2.52312891114E+007, +1.32315034708E+000, +3.28247958910E+002
+2.53563204005E+007, +1.86472532562E+000, +3.30317478676E+002
+2.54813516896E+007, +1.22715659439E+000, +3.31815124118E+002
+2.56063829787E+007, +1.74373720937E+000, +3.34293710941E+002
+2.57314142678E+007, +2.08750640617E+000, +3.35737161796E+002
+2.58564455569E+007, +1.59814875289E+000, +3.37561279355E+002
+2.59814768461E+007, +2.17923727198E+000, +3.39500530616E+002
+2.61065081352E+007, +1.65201405059E+000, +3.41729987680E+002
+2.62315394243E+007, +1.97640922636E+000, +3.43643479478E+002
+2.63565707134E+007, +1.54876361714E+000, +3.45497618920E+002
+2.64816020025E+007, +2.14311098538E+000, +3.47721804213E+002
+2.66066332916E+007, +1.55214149332E+000, +3.49251890539E+002
+2.67316645807E+007, +1.76459393786E+000, +3.51830789188E+002
+2.68566958698E+007, +1.40554845402E+000, +3.54326878438E+002
+2.69817271589E+007, +1.53479536459E+000, +3.55423908845E+002
+2.71067584481E+007, +1.34836739143E+000, +3.57594599524E+002
+2.72317897372E+007, +1.33402153323E+000, +3.59687591401E+002
+2.73568210263E+007, +1.76625564454E+000, +3.61508025180E+002
+2.74818523154E+007, +7.58402643137E-001, +3.62615643940E+002
+2.76068836045E+007, +1.94885952281E+000, +3.64745652946E+002
+2.77319148936E+007, +1.13945164413E+000, +3.67232046627E+002
+2.78569461827E+007, +1.66475534928E+000, +3.69545216377E+002
+2.79819774718E+007, +1.37327783963E+000, +3.70842291632E+002
+2.81070087610E+007, +1.65141466782E+000, +3.72654665630E+002
+2.82320400501E+007, +1.66548436934E+000, +3.75407906445E+002
+2.83570713392E+007, +1.02995017741E+000, +3.77371103769E+002
+2.84821026283E+007, +1.25872792270E+000, +3.79369500788E+002
+2.86071339174E+007, +1.34033895118E+000, +3.81819080345E+002
+2.87321652065E+007, +1.22980827468E+000, +3.83388156144E+002
+2.88571964956E+007, +1.11946611804E+000, +3.86520245902E+002
+2.89822277847E+007, +1.12425092641E+000, +3.88126224352E+002
+2.91072590738E+007, +1.03598723207E+000, +3.89709299828E+002
+2.92322903630E+007, +1.43450921944E+000, +3.92020238567E+002
+2.93573216521E+007, +2.03019864709E+000, +3.94514526021E+002
+2.94823529412E+007, +1.15148750898E+000, +3.96723766935E+002
+2.96073842303E+007, +1.80910317544E+000, +3.98794399364E+002
+2.97324155194E+007, +1.02817222882E+000, +4.00812301395E+002
+2.98574468085E+007, +4.03048876988E-001, +4.03475050039E+002
+2.99824780976E+007, +1.05201833221E+000, +4.05499202848E+002
+3.01075093867E+007, +2.37450536442E+000, +4.06990435224E+002
+3.02325406758E+007, +1.18493479899E+000, +4.09049172011E+002
+3.03575719650E+007, +7.63534700859E-001, +4.11180263554E+002
+3.04826032541E+007, +1.50501075019E+000, +4.12634551266E+002
+3.06076345432E+007, +1.33769984695E+000, +4.15629316027E+002
+3.07326658323E+007, +9.41176646608E-001, +4.17859692057E+002
+3.08576971214E+007, +1.37745463437E+000, +4.19992242262E+002
+3.09827284105E+007, +1.20628040482E+000, +4.21181460674E+002
+3.11077596996E+007, -8.30597358057E-002, +4.23995421012E+002
+3.12327909887E+007, +1.48605795612E+000, +4.27438568166E+002
+3.13578222778E+007, +1.43001248158E+000, +4.29552170595E+002
+3.14828535670E+007, +1.65452859569E+000, +4.31472937338E+002
+3.16078848561E+007, +1.28527085640E+000, +4.32894960271E+002
+3.17329161452E+007, +1.36024389683E+000, +4.35689199893E+002
+3.18579474343E+007, +5.94742737793E-001, +4.37621816534E+002
+3.19829787234E+007, +1.13968436320E+000, +4.40558075586E+002
+3.21080100125E+007, +8.86783547595E-002, +4.41601428505E+002
+3.22330413016E+007, +3.16235655216E-001, +4.45274805935E+002
+3.23580725907E+007, +2.25340294470E-001, +4.45911521150E+002
+3.24831038798E+007, +1.06380777577E+000, +4.48942467458E+002
+3.26081351690E+007, +1.16849347512E+000, +4.50441207368E+002
+3.27331664581E+007, +1.85131048632E+000, +4.53161683164E+002
+3.28581977472E+007, +1.07067553716E+000, +4.56766780675E+002
+3.29832290363E+007, +6.02612638089E-001, +4.59717677495E+002
+3.31082603254E+007, +1.89543384911E+000, +4.59956940167E+002
+3.32332916145E+007, +8.46951506352E-001, +4.62805592591E+002
+3.33583229036E+007, +7.59450585676E-001, +4.66569689026E+002
+3.34833541927E+007, +8.10633462958E-001, +4.68327457385E+002
+3.36083854819E+007, +9.48612533291E-001, +4.69722782446E+002
+3.37334167710E+007, +1.00844550052E+000, +4.71898449565E+002
+3.38584480601E+007, +7.38040865445E-001, +4.75452238150E+002
+3.39834793492E+007, +1.78101644391E+000, +4.77740532134E+002
+3.41085106383E+007, +5.17542147100E-001, +4.79197869659E+002
+3.42335419274E+007, +8.87866999323E-001, +4.82651133558E+002
+3.43585732165E+007, +8.96549417369E-001, +4.84824206035E+002
+3.44836045056E+007, +1.11009590284E+000, +4.86781838719E+002
+3.46086357947E+007, +9.40515739355E-001, +4.89055988514E+002
+3.47336670839E+007, +2.42267105533E+000, +4.92147807270E+002
+3.48586983730E+007, +4.00662758916E-001, +4.95034773872E+002
+3.49837296621E+007, +1.11547547353E+000, +4.94990030845E+002
+3.51087609512E+007, +1.50225717136E+000, +5.00309823609E+002
+3.52337922403E+007, +1.37713113213E+000, +5.01422657915E+002
+3.53588235294E+007, +1.28446722153E+000, +5.03943018572E+002
+3.54838548185E+007, +1.54008267817E+000, +5.06720622428E+002
+3.56088861076E+007, +1.24900963917E+000, +5.08763528686E+002
+3.57339173967E+007, +1.86567442334E+000, +5.10442091617E+002
+3.58589486859E+007, +1.22296678348E+000, +5.14264303259E+002
+3.59839799750E+007, +1.16372374204E-001, +5.16226650370E+002
+3.61090112641E+007, +2.75257416260E+000, +5.19430646730E+002
+3.62340425532E+007, +9.99535419213E-001, +5.21525324104E+002
+3.63590738423E+007, +1.38101674528E+000, +5.23493786819E+002
+3.64841051314E+007, +1.53411151176E+000, +5.28047804634E+002
+3.66091364205E+007, +2.63280065992E+000, +5.28668663984E+002
+3.67341677096E+007, +2.31635147474E+000, +5.31377285238E+002
+3.68591989987E+007, +1.62119086718E+000, +5.33944189625E+002
+3.69842302879E+007, +1.13723124638E+000, +5.35556229358E+002
+3.71092615770E+007, +1.71740690115E+000, +5.39269225115E+002
+3.72342928661E+007, +1.95939809530E+000, +5.43008313773E+002
+3.73593241552E+007, +4.32110983744E-001, +5.44836152697E+002
+3.74843554443E+007, +7.56529496933E-001, +5.49269794583E+002
+3.76093867334E+007, +1.27144726113E+000, +5.50490142432E+002
+3.77344180225E+007, +1.78968893673E+000, +5.53893108069E+002
+3.78594493116E+007, +1.14981269405E+000, +5.54975901675E+002
+3.79844806008E+007, +1.31326552013E+000, +5.57903368972E+002
+3.81095118899E+007, +1.62264831940E+000, +5.60413717219E+002
+3.82345431790E+007, -2.68282514951E-001, +5.63037544257E+002
+3.83595744681E+007, +1.53374188237E+000, +5.67282348617E+002
+3.84846057572E+007, +2.83448477803E+000, +5.70251961567E+002
+3.86096370463E+007, +8.48179521230E-001, +5.73642675332E+002
+3.87346683354E+007, +2.46397225709E+000, +5.76246467771E+002
+3.88596996245E+007, +1.55641077657E+000, +5.77710813425E+002
+3.89847309136E+007, +6.32260642889E-001, +5.82108159787E+002
+3.91097622028E+007, +1.61334736739E+000, +5.83246596870E+002
+3.92347934919E+007, +6.58798019169E-001, +5.87399236679E+002
+3.93598247810E+007, +1.13526295943E+000, +5.90686274231E+002
+3.94848560701E+007, +2.47642067371E+000, +5.91232812531E+002
+3.96098873592E+007, +1.80208774089E+000, +5.96450335351E+002
+3.97349186483E+007, +1.78916342724E+000, +5.97142585058E+002
+3.98599499374E+007, +9.98127444577E-001, +6.02116760252E+002
+3.99849812265E+007, +2.29725172971E+000, +6.05053365891E+002
+4.01100125156E+007, +1.04492911629E+000, +6.06120584574E+002
