"# Channel 1"
"# Trace 1"
Frequency, Formatted Data, Formatted Data
+1.00000000000E+005, +6.55695950595E+002, -3.31641738508E+001
+2.25031289111E+005, +6.51234467136E+002, +5.30139709371E+000
+3.50062578223E+005, +6.40376229393E+002, +4.80132607483E+000
+4.75093867334E+005, +6.47885920504E+002, +8.58196297061E+000
+6.00125156446E+005, +6.48528464328E+002, +6.85026256118E+000
+7.25156445557E+005, +6.46534376187E+002, +1.12615417741E+001
+8.50187734668E+005, +6.46874040115E+002, +1.49209308700E+001
+9.75219023780E+005, +6.51049247467E+002, +1.42651015068E+001
+1.10025031289E+006, +6.46004609389E+002, +1.22326958402E+001
+1.22528160200E+006, +6.44459499205E+002, +1.77594300653E+001
+1.35031289111E+006, +6.50467964316E+002, +1.91923792633E+001
+1.47534418023E+006, +6.48865471014E+002, +2.20585743478E+001
+1.60037546934E+006, +6.49411398438E+002, +2.05144030585E+001
+1.72540675845E+006, +6.53851005490E+002, +2.39400600639E+001
+1.85043804756E+006, +6.50336911165E+002, +2.37695475043E+001
+1.97546933667E+006, +6.52487536389E+002, +2.66852182881E+001
+2.10050062578E+006, +6.54967012343E+002, +3.09649374939E+001
+2.22553191489E+006, +6.51909294904E+002, +3.18507572406E+001
+2.35056320401E+006, +6.52006393399E+002, +3.18859334470E+001
+2.47559449312E+006, +6.56105198378E+002, +3.36888632446E+001
+2.60062578223E+006, +6.53211535271E+002, +3.63669529001E+001
+2.72565707134E+006, +6.55653357639E+002, +3.35957105300E+001
+2.85068836045E+006, +6.49513237949E+002, +3.92475883065E+001
+2.97571964956E+006, +6.49133240689E+002, +3.70444862301E+001
+3.10075093867E+006, +6.50328363219E+002, +3.77565582770E+001
+3.22578222778E+006, +6.47787029751E+002, +4.22591089497E+001
+3.35081351690E+006, +6.49859324298E+002, +4.34874418196E+001
+3.47584480601E+006, +6.48490910689E+002, +4.59334372251E+001
+3.60087609512E+006, +6.47458034008E+002, +4.30113357826E+001
+3.72590738423E+006, +6.45436858787E+002, +5.13480652376E+001
+3.85093867334E+006, +6.45188260648E+002, +5.19331783049E+001
+3.97596996245E+006, +6.40972381229E+002, +5.66032038358E+001
+4.10100125156E+006, +6.52271107501E+002, +6.71394346653E+001
+4.22603254068E+006, +6.53741432816E+002, +5.23794254059E+001
+4.35106382979E+006, +6.48626335708E+002, +5.49081876550E+001
+4.47609511890E+006, +6.42286107974E+002, +6.02096854137E+001
+4.60112640801E+006, +6.52031845559E+002, +5.72714697033E+001
+4.72615769712E+006, +6.47892509306E+002, +6.07758040995E+001
+4.85118898623E+006, +6.43860572373E+002, +6.74769984085E+001
+4.97622027534E+006, +6.45505524864E+002, +6.44622293033E+001
+5.10125156446E+006, +6.46669800872E+002, +6.69756343922E+001
+5.22628285357E+006, +6.47193834100E+002, +6.92393665600E+001
+5.35131414268E+006, +6.46867226119E+002, +6.85991857558E+001
+5.47634543179E+006, +6.49566690311E+002, +7.19751216313E+001
+5.60137672090E+006, +6.45325372208E+002, +7.04709419446E+001
+5.72640801001E+006, +6.40755293226E+002, +7.35311775047E+001
+5.85143929912E+006, +6.42450428528E+002, +7.59457869183E+001
+5.97647058824E+006, +6.43620745972E+002, +7.74224993849E+001
+6.10150187735E+006, +6.36481873111E+002, +8.11211001042E+001
+6.22653316646E+006, +6.45318384667E+002, +7.96163790630E+001
+6.35156445557E+006, +6.41773969880E+002, +8.30722824871E+001
+6.47659574468E+006, +6.42158213221E+002, +8.38220588253E+001
+6.60162703379E+006, +6.40715253043E+002, +8.69412268902E+001
+6.72665832290E+006, +6.39078208762E+002, +8.83756096714E+001
+6.85168961202E+006, +6.39530760660E+002, +8.84411306438E+001
+6.97672090113E+006, +6.39129827560E+002, +9.02520363159E+001
+7.10175219024E+006, +6.40509416843E+002, +9.10409228892E+001
+7.22678347935E+006, +6.40573433077E+002, +9.28768849003E+001
+7.35181476846E+006, +6.40841214254E+002, +9.48529518623E+001
+7.47684605757E+006, +6.39872479283E+002, +9.75360570228E+001
+7.60187734668E+006, +6.41856526322E+002, +9.78019229006E+001
+7.72690863579E+006, +6.42517607035E+002, +9.98794484423E+001
+7.85193992491E+006, +6.38407591857E+002, +1.01912724486E+002
+7.97697121402E+006, +6.40322113620E+002, +1.01853358239E+002
+8.10200250313E+006, +6.39894038812E+002, +1.04191452173E+002
+8.22703379224E+006, +6.42824201355E+002, +1.08056443895E+002
+8.35206508135E+006, +6.41979691040E+002, +1.08452667450E+002
+8.47709637046E+006, +6.42545363119E+002, +1.12107597630E+002
+8.60212765957E+006, +6.41705353533E+002, +1.10405031176E+002
+8.72715894869E+006, +6.43371313559E+002, +1.14197960325E+002
+8.85219023780E+006, +6.40511595086E+002, +1.16261552234E+002
+8.97722152691E+006, +6.42647784858E+002, +1.16152236237E+002
+9.10225281602E+006, +6.44296980582E+002, +1.18680253516E+002
+9.22728410513E+006, +6.43690108406E+002, +1.20601536360E+002
+9.35231539424E+006, +6.42382496335E+002, +1.23314292218E+002
+9.47734668335E+006, +6.41660538621E+002, +1.25117132772E+002
+9.60237797247E+006, +6.44160139011E+002, +1.25182881486E+002
+9.72740926158E+006, +6.42796434870E+002, +1.28103431062E+002
+9.85244055069E+006, +6.45525447625E+002, +1.29133719553E+002
+9.97747183980E+006, +6.43950514599E+002, +1.30318233561E+002
+1.01025031289E+007, +6.46318058924E+002, +1.34510680260E+002
+1.02275344180E+007, +6.43212374862E+002, +1.33497373082E+002
+1.03525657071E+007, +6.44420680671E+002, +1.36262274217E+002
+1.04775969962E+007, +6.45348471899E+002, +1.37656315446E+002
+1.06026282854E+007, +6.48521149060E+002, +1.39233799908E+002
+1.07276595745E+007, +6.47259155582E+002, +1.41842396305E+002
+1.08526908636E+007, +6.47586986337E+002, +1.42200152793E+002
+1.09777221527E+007, +6.45524291636E+002, +1.41691306712E+002
+1.11027534418E+007, +6.48274064807E+002, +1.47445533305E+002
+1.12277847309E+007, +6.48559699842E+002, +1.45883341673E+002
+1.13528160200E+007, +6.46735211101E+002, +1.48297872255E+002
+1.14778473091E+007, +6.46616248580E+002, +1.51594955749E+002
+1.16028785982E+007, +6.49787558243E+002, +1.54062546129E+002
+1.17279098874E+007, +6.48317416730E+002, +1.52958459177E+002
+1.18529411765E+007, +6.49395015162E+002, +1.55589912565E+002
+1.19779724656E+007, +6.49335153593E+002, +1.59106569432E+002
+1.21030037547E+007, +6.47304121639E+002, +1.60665177036E+002
+1.22280350438E+007, +6.51691579747E+002, +1.59930360840E+002
+1.23530663329E+007, +6.49945171947E+002, +1.61891272506E+002
+1.24780976220E+007, +6.49700014140E+002, +1.64984409213E+002
+1.26031289111E+007, +6.51420365194E+002, +1.65799545582E+002
+1.27281602003E+007, +6.51117294355E+002, +1.67028373016E+002
+1.28531914894E+007, +6.50347818715E+002, +1.70826393020E+002
+1.29782227785E+007, +6.51258937123E+002, +1.72201047352E+002
+1.31032540676E+007, +6.51150906188E+002, +1.71078800274E+002
+1.32282853567E+007, +6.52894397586E+002, +1.73633570852E+002
+1.33533166458E+007, +6.50353499764E+002, +1.76047385996E+002
+1.34783479349E+007, +6.52755137390E+002, +1.76601081870E+002
+1.36033792240E+007, +6.52811341434E+002, +1.79921154989E+002
+1.37284105131E+007, +6.53214874083E+002, +1.79276338290E+002
+1.38534418023E+007, +6.53690541972E+002, +1.82551694639E+002
+1.39784730914E+007, +6.55180144985E+002, +1.85077686939E+002
+1.41035043805E+007, +6.53149462342E+002, +1.86427505092E+002
+1.42285356696E+007, +6.55460155752E+002, +1.85235576830E+002
+1.43535669587E+007, +6.55114012228E+002, +1.89793084021E+002
+1.44785982478E+007, +6.53229237986E+002, +1.91377467239E+002
+1.46036295369E+007, +6.55059088881E+002, +1.89600316761E+002
+1.47286608260E+007, +6.55589719160E+002, +1.91769085295E+002
+1.48536921151E+007, +6.54623742539E+002, +1.94066713662E+002
+1.49787234043E+007, +6.55172301358E+002, +1.96827603036E+002
+1.51037546934E+007, +6.57609889094E+002, +2.01264584153E+002
+1.52287859825E+007, +6.58460253374E+002, +2.03083243011E+002
+1.53538172716E+007, +6.57078779733E+002, +2.03165258628E+002
+1.54788485607E+007, +6.56415012974E+002, +2.03802683840E+002
+1.56038798498E+007, +6.56942903366E+002, +2.06657605441E+002
+1.57289111389E+007, +6.56846141853E+002, +2.09527434582E+002
+1.58539424280E+007, +6.56064902928E+002, +2.12527070834E+002
+1.59789737171E+007, +6.57806912077E+002, +2.12324513484E+002
+1.61040050063E+007, +6.57605057075E+002, +2.13181979133E+002
+1.62290362954E+007, +6.58866043499E+002, +2.14529226702E+002
+1.63540675845E+007, +6.58242141860E+002, +2.17634975371E+002
+1.64790988736E+007, +6.60505462711E+002, +2.17750666577E+002
+1.66041301627E+007, +6.62678677495E+002, +2.22916664264E+002
+1.67291614518E+007, +6.59901940214E+002, +2.21854003767E+002
+1.68541927409E+007, +6.61750820227E+002, +2.23797092951E+002
+1.69792240300E+007, +6.62885790858E+002, +2.27843810289E+002
+1.71042553191E+007, +6.65658269396E+002, +2.30058623665E+002
+1.72292866083E+007, +6.63804301899E+002, +2.32889203024E+002
+1.73543178974E+007, +6.64406784138E+002, +2.29447794187E+002
+1.74793491865E+007, +6.64394027718E+002, +2.33982967750E+002
+1.76043804756E+007, +6.65725999664E+002, +2.35358332741E+002
+1.77294117647E+007, +6.66527781750E+002, +2.37052218250E+002
+1.78544430538E+007, +6.65785415646E+002, +2.40809856160E+002
+1.79794743429E+007, +6.65350663833E+002, +2.40757682341E+002
+1.81045056320E+007, +6.61942379989E+002, +2.42259272092E+002
+1.82295369212E+007, +6.65475586168E+002, +2.46179823922E+002
+1.83545682103E+007, +6.67165596470E+002, +2.46270689926E+002
+1.84795994994E+007, +6.64445302330E+002, +2.48248594858E+002
+1.86046307885E+007, +6.65148791677E+002, +2.49827592902E+002
+1.87296620776E+007, +6.65803939431E+002, +2.52274851176E+002
+1.88546933667E+007, +6.65591639506E+002, +2.55265242235E+002
+1.89797246558E+007, +6.66478258596E+002, +2.55331503720E+002
+1.91047559449E+007, +6.67839240816E+002, +2.56036173058E+002
+1.92297872340E+007, +6.67970697908E+002, +2.61799374370E+002
+1.93548185232E+007, +6.67425012076E+002, +2.61573768860E+002
+1.94798498123E+007, +6.66383428796E+002, +2.63036848230E+002
+1.96048811014E+007, +6.69140102231E+002, +2.66309364174E+002
+1.97299123905E+007, +6.68003505845E+002, +2.64580207049E+002
+1.98549436796E+007, +6.70183264471E+002, +2.67199199886E+002
+1.99799749687E+007, +6.69054014644E+002, +2.71939356037E+002
+2.01050062578E+007, +6.68994309146E+002, +2.72015325168E+002
+2.02300375469E+007, +6.71699290514E+002, +2.71261824590E+002
+2.03550688360E+007, +6.70517269676E+002, +2.76666204656E+002
+2.04801001252E+007, +6.70662080080E+002, +2.75694389423E+002
+2.06051314143E+007, +6.73169256609E+002, +2.76863268755E+002
+2.07301627034E+007, +6.71647488097E+002, +2.81247866477E+002
+2.08551939925E+007, +6.72396187086E+002, +2.82832811589E+002
+2.09802252816E+007, +6.73503726994E+002, +2.84991050870E+002
+2.11052565707E+007, +6.73024185501E+002, +2.90654692097E+002
+2.12302878598E+007, +6.76665969990E+002, +2.89328054595E+002
+2.13553191489E+007, +6.71925085598E+002, +2.91580308317E+002
+2.14803504380E+007, +6.75219314346E+002, +2.92539491801E+002
+2.16053817272E+007, +6.75307830001E+002, +2.96012007250E+002
+2.17304130163E+007, +6.74470764755E+002, +2.95552921766E+002
+2.18554443054E+007, +6.75200305006E+002, +2.97798931575E+002
+2.19804755945E+007, +6.75525827539E+002, +3.02873079463E+002
+2.21055068836E+007, +6.78635013341E+002, +3.01472180472E+002
+2.22305381727E+007, +6.78566948641E+002, +3.02203394581E+002
+2.23555694618E+007, +6.79950253953E+002, +3.07523201605E+002
+2.24806007509E+007, +6.77067265001E+002, +3.07710502954E+002
+2.26056320401E+007, +6.79381480916E+002, +3.09744007019E+002
+2.27306633292E+007, +6.80302367986E+002, +3.13172067228E+002
+2.28556946183E+007, +6.80760037939E+002, +3.12583631408E+002
+2.29807259074E+007, +6.81515308112E+002, +3.15075479532E+002
+2.31057571965E+007, +6.80261428106E+002, +3.20187773391E+002
+2.32307884856E+007, +6.84348436338E+002, +3.18554561803E+002
+2.33558197747E+007, +6.77948238678E+002, +3.22060417783E+002
+2.34808510638E+007, +6.82522387719E+002, +3.25077848135E+002
+2.36058823529E+007, +6.84172253675E+002, +3.24914006754E+002
+2.37309136421E+007, +6.85669856249E+002, +3.30482891748E+002
+2.38559449312E+007, +6.86736008012E+002, +3.27897880234E+002
+2.39809762203E+007, +6.85969380022E+002, +3.28806835758E+002
+2.41060075094E+007, +6.87634224203E+002, +3.36594461926E+002
+2.42310387985E+007, +6.83862785440E+002, +3.34901068325E+002
+2.43560700876E+007, +6.86076131422E+002, +3.38705253038E+002
+2.44811013767E+007, +6.85376824595E+002, +3.38152647115E+002
+2.46061326658E+007, +6.87261763460E+002, +3.40809880456E+002
+2.47311639549E+007, +6.87914962150E+002, +3.45123076435E+002
+2.48561952441E+007, +6.88435977554E+002, +3.45016013714E+002
+2.49812265332E+007, +6.90603226262E+002, +3.49476821772E+002
+2.51062578223E+007, +6.91481149292E+002, +3.47125206931E+002
+2.52312891114E+007, +6.91395012506E+002, +3.50410401700E+002
+2.53563204005E+007, +6.90869164343E+002, +3.54864438269E+002
+2.54813516896E+007, +6.93083379230E+002, +3.54734188017E+002
+2.56063829787E+007, +6.92603669708E+002, +3.58136105113E+002
+2.57314142678E+007, +6.93007041927E+002, +3.65187928040E+002
+2.58564455569E+007, +6.93322420997E+002, +3.63435322003E+002
+2.59814768461E+007, +6.97372324878E+002, +3.65089054933E+002
+2.61065081352E+007, +6.96683714388E+002, +3.65776196666E+002
+2.62315394243E+007, +7.00023935954E+002, +3.66251862463E+002
+2.63565707134E+007, +6.99440769542E+002, +3.70187554949E+002
+2.64816020025E+007, +6.96899728176E+002, +3.74450979423E+002
+2.66066332916E+007, +6.95810598435E+002, +3.71813655406E+002
+2.67316645807E+007, +6.93532807060E+002, +3.77797983506E+002
+2.68566958698E+007, +7.01533268018E+002, +3.79228601274E+002
+2.69817271589E+007, +7.02023577527E+002, +3.83759101528E+002
+2.71067584481E+007, +6.98493789290E+002, +3.84243110328E+002
+2.72317897372E+007, +7.03383248273E+002, +3.89363736896E+002
+2.73568210263E+007, +7.02157748948E+002, +3.89269770017E+002
+2.74818523154E+007, +7.03592563517E+002, +3.93827883408E+002
+2.76068836045E+007, +7.03038990751E+002, +3.93218275886E+002
+2.77319148936E+007, +7.05067044174E+002, +3.93876786133E+002
+2.78569461827E+007, +7.01837127090E+002, +3.93646605377E+002
+2.79819774718E+007, +7.04590806719E+002, +4.00385405368E+002
+2.81070087610E+007, +7.10349036265E+002, +4.00509565836E+002
+2.82320400501E+007, +7.08791207435E+002, +4.04096881024E+002
+2.83570713392E+007, +7.08470686329E+002, +4.05125965090E+002
+2.84821026283E+007, +7.06169050908E+002, +4.08014680875E+002
+2.86071339174E+007, +7.10121523400E+002, +4.09834550995E+002
+2.87321652065E+007, +7.10284978984E+002, +4.12669545644E+002
+2.88571964956E+007, +7.12336115757E+002, +4.14945450622E+002
+2.89822277847E+007, +7.14298309066E+002, +4.17481394503E+002
+2.91072590738E+007, +7.12664997869E+002, +4.21834914896E+002
+2.92322903630E+007, +7.11268241131E+002, +4.27052281558E+002
+2.93573216521E+007, +7.15685766242E+002, +4.27060519603E+002
+2.94823529412E+007, +7.14289810689E+002, +4.27666992538E+002
+2.96073842303E+007, +7.13637799558E+002, +4.31251078661E+002
+2.97324155194E+007, +7.17499353812E+002, +4.35332857451E+002
+2.98574468085E+007, +7.17594471028E+002, +4.35330233312E+002
+2.99824780976E+007, +7.17902446344E+002, +4.36060823736E+002
+3.01075093867E+007, +7.20494072438E+002, +4.40436407159E+002
+3.02325406758E+007, +7.20286185650E+002, +4.38659697385E+002
+3.03575719650E+007, +7.19182312219E+002, +4.43887658480E+002
+3.04826032541E+007, +7.21812273173E+002, +4.48515666886E+002
+3.06076345432E+007, +7.25125989197E+002, +4.46726240427E+002
+3.07326658323E+007, +7.26742834481E+002, +4.51430710373E+002
+3.08576971214E+007, +7.24637644896E+002, +4.53046681941E+002
+3.09827284105E+007, +7.26776251303E+002, +4.53688929849E+002
+3.11077596996E+007, +7.30003660117E+002, +4.57595526022E+002
+3.12327909887E+007, +7.28348956002E+002, +4.63364328462E+002
+3.13578222778E+007, +7.26147240284E+002, +4.64259976853E+002
+3.14828535670E+007, +7.29396529684E+002, +4.65417077743E+002
+3.16078848561E+007, +7.29572398370E+002, +4.71354988215E+002
+3.17329161452E+007, +7.29620031098E+002, +4.73852315154E+002
+3.18579474343E+007, +7.32331144082E+002, +4.74245854566E+002
+3.19829787234E+007, +7.34783283176E+002, +4.78336439486E+002
+3.21080100125E+007, +7.33858274385E+002, +4.80418891635E+002
+3.22330413016E+007, +7.40117624760E+002, +4.83235826665E+002
+3.23580725907E+007, +7.37596109704E+002, +4.77939282372E+002
+3.24831038798E+007, +7.39021260873E+002, +4.90900678135E+002
+3.26081351690E+007, +7.37747426616E+002, +4.90127444521E+002
+3.27331664581E+007, +7.39449026678E+002, +4.93640535403E+002
+3.28581977472E+007, +7.39245945183E+002, +4.92697903779E+002
+3.29832290363E+007, +7.44410929428E+002, +4.98808647591E+002
+3.31082603254E+007, +7.44001821246E+002, +5.01205173102E+002
+3.32332916145E+007, +7.43553460995E+002, +5.04052807817E+002
+3.33583229036E+007, +7.45295527322E+002, +5.08495511977E+002
+3.34833541927E+007, +7.47166642367E+002, +5.07715036481E+002
+3.36083854819E+007, +7.45866491899E+002, +5.09254984085E+002
+3.37334167710E+007, +7.47626648453E+002, +5.15010305380E+002
+3.38584480601E+007, +7.50192959523E+002, +5.16203402705E+002
+3.39834793492E+007, +7.52737196634E+002, +5.19089983879E+002
+3.41085106383E+007, +7.52550116903E+002, +5.20141347987E+002
+3.42335419274E+007, +7.57299692786E+002, +5.25645611377E+002
+3.43585732165E+007, +7.56237551352E+002, +5.27185780841E+002
+3.44836045056E+007, +7.53965679251E+002, +5.33714028138E+002
+3.46086357947E+007, +7.57971985149E+002, +5.36387166958E+002
+3.47336670839E+007, +7.61210091599E+002, +5.35678245041E+002
+3.48586983730E+007, +7.57935803777E+002, +5.40670491482E+002
+3.49837296621E+007, +7.61269869261E+002, +5.34069732974E+002
+3.51087609512E+007, +7.62280764768E+002, +5.44770031045E+002
+3.52337922403E+007, +7.67591838545E+002, +5.48894576088E+002
+3.53588235294E+007, +7.60376309178E+002, +5.51622395288E+002
+3.54838548185E+007, +7.68433938061E+002, +5.49198207502E+002
+3.56088861076E+007, +7.67480449767E+002, +5.52323415588E+002
+3.57339173967E+007, +7.68713545991E+002, +5.54928144599E+002
+3.58589486859E+007, +7.69558558544E+002, +5.58888823120E+002
+3.59839799750E+007, +7.75002409642E+002, +5.65203153190E+002
+3.61090112641E+007, +7.73324689603E+002, +5.67595780058E+002
+3.62340425532E+007, +7.69603781425E+002, +5.70336674027E+002
+3.63590738423E+007, +7.77291068546E+002, +5.73811559257E+002
+3.64841051314E+007, +7.75933326621E+002, +5.75113106782E+002
+3.66091364205E+007, +7.77926324244E+002, +5.75205003275E+002
+3.67341677096E+007, +7.75898843671E+002, +5.79354502643E+002
+3.68591989987E+007, +7.84093519286E+002, +5.85035845630E+002
+3.69842302879E+007, +7.81076624198E+002, +5.88151874791E+002
+3.71092615770E+007, +7.84953076343E+002, +5.86566030348E+002
+3.72342928661E+007, +7.86551745005E+002, +5.95788946910E+002
+3.73593241552E+007, +7.89030153526E+002, +5.95462243514E+002
+3.74843554443E+007, +7.88695207569E+002, +5.97678257724E+002
+3.76093867334E+007, +7.90694362281E+002, +6.02651849530E+002
+3.77344180225E+007, +7.89464027685E+002, +6.04814271871E+002
+3.78594493116E+007, +7.96071525455E+002, +6.04090007512E+002
+3.79844806008E+007, +7.96155984789E+002, +6.08615720162E+002
+3.81095118899E+007, +7.96650129097E+002, +6.16648866285E+002
+3.82345431790E+007, +7.94831269825E+002, +6.15370718184E+002
+3.83595744681E+007, +7.98305227421E+002, +6.24282092841E+002
+3.84846057572E+007, +7.98778339652E+002, +6.24480271923E+002
+3.86096370463E+007, +8.04470713802E+002, +6.28418383319E+002
+3.87346683354E+007, +8.03298983523E+002, +6.24093418928E+002
+3.88596996245E+007, +8.11185006174E+002, +6.35257963491E+002
+3.89847309136E+007, +8.13437300999E+002, +6.32549145971E+002
+3.91097622028E+007, +8.07438117888E+002, +6.37903006292E+002
+3.92347934919E+007, +8.11759058742E+002, +6.40446355561E+002
+3.93598247810E+007, +8.12736539341E+002, +6.44968739266E+002
+3.94848560701E+007, +8.15124378007E+002, +6.52624748157E+002
+3.96098873592E+007, +8.19081222265E+002, +6.52555663027E+002
+3.97349186483E+007, +8.17314992096E+002, +6.50990176780E+002
+3.98599499374E+007, +8.20707594906E+002, +6.55536923749E+002
+3.99849812265E+007, +8.23776603549E+002, +6.61753919130E+002
+4.01100125156E+007, +8.19140444679E+002, +6.68757654111E+002
