"# Channel 1"
"# Trace 1"
Frequency, Formatted Data, Formatted Data
+1.00000000000E+005, +2.44104380015E-001, +1.30116251281E+000
+2.66777963272E+005, +2.50370344971E-001, +3.45784503659E+000
+4.33555926544E+005, +2.69245239447E-001, +5.61701380504E+000
+6.00333889816E+005, +3.42066264019E-001, +7.72027117366E+000
+7.67111853088E+005, +3.84151100089E-001, +9.86996985964E+000
+9.33889816361E+005, +4.08868213435E-001, +1.19504112182E+001
+1.10066777963E+006, +3.65648668820E-001, +1.40696618708E+001
+1.26744574290E+006, +4.35500897143E-001, +1.61545643597E+001
+1.43422370618E+006, +3.98830182760E-001, +1.82983236151E+001
+1.60100166945E+006, +4.92075970016E-001, +2.03292238196E+001
+1.76777963272E+006, +4.95522726696E-001, +2.24474090100E+001
+1.93455759599E+006, +5.19144362803E-001, +2.44986896898E+001
+2.10133555927E+006, +5.35986584486E-001, +2.66049925480E+001
+2.26811352254E+006, +5.69773137199E-001, +2.87206417344E+001
+2.43489148581E+006, +5.49221485411E-001, +3.08496166775E+001
+2.60166944908E+006, +5.97745994084E-001, +3.28764832823E+001
+2.76844741235E+006, +5.40249028439E-001, +3.50289100159E+001
+2.93522537563E+006, +5.65355900470E-001, +3.70806191354E+001
+3.10200333890E+006, +6.57100442086E-001, +3.91606044846E+001
+3.26878130217E+006, +5.35756626470E-001, +4.12998243738E+001
+3.43555926544E+006, +6.06614219571E-001, +4.33883909486E+001
+3.60233722871E+006, +6.55782975290E-001, +4.55319474742E+001
+3.76911519199E+006, +6.02999761060E-001, +4.76542276077E+001
+3.93589315526E+006, +5.47690015947E-001, +4.96517317217E+001
+4.10267111853E+006, +5.88041597970E-001, +5.19052311136E+001
+4.26944908180E+006, +5.91722447833E-001, +5.39849917303E+001
+4.43622704508E+006, +6.17569766503E-001, +5.60074763451E+001
+4.60300500835E+006, +6.51155311192E-001, +5.82043631072E+001
+4.76978297162E+006, +6.22858496160E-001, +6.02194943245E+001
+4.93656093489E+006, +7.23970198041E-001, +6.24362434732E+001
+5.10333889816E+006, +6.92424013416E-001, +6.44646445269E+001
+5.27011686144E+006, +7.78590497192E-001, +6.67830602886E+001
+5.43689482471E+006, +6.25778528119E-001, +6.87667740409E+001
+5.60367278798E+006, +6.75480200030E-001, +7.10392558404E+001
+5.77045075125E+006, +6.18861103845E-001, +7.29522867751E+001
+5.93722871452E+006, +7.64241046360E-001, +7.51596915041E+001
+6.10400667780E+006, +6.61901969487E-001, +7.73505118531E+001
+6.27078464107E+006, +8.03098186086E-001, +7.94700661484E+001
+6.43756260434E+006, +7.95614809138E-001, +8.16044706540E+001
+6.60434056761E+006, +8.20420293870E-001, +8.37581837568E+001
+6.77111853088E+006, +9.04768785136E-001, +8.58449049125E+001
+6.93789649416E+006, +8.46636278969E-001, +8.80193118783E+001
+7.10467445743E+006, +8.57468401572E-001, +9.01184075670E+001
+7.27145242070E+006, +9.66608281881E-001, +9.22233811925E+001
+7.43823038397E+006, +9.37819377663E-001, +9.43524621270E+001
+7.60500834725E+006, +9.25961003657E-001, +9.65429448073E+001
+7.77178631052E+006, +9.20686917033E-001, +9.87584174113E+001
+7.93856427379E+006, +9.74206217653E-001, +1.00775015172E+002
+8.10534223706E+006, +1.00606742205E+000, +1.02924468281E+002
+8.27212020033E+006, +9.35046166612E-001, +1.05127537072E+002
+8.43889816361E+006, +8.66475216093E-001, +1.07311030643E+002
+8.60567612688E+006, +7.82608291373E-001, +1.09431147794E+002
+8.77245409015E+006, +8.45760700370E-001, +1.11537410275E+002
+8.93923205342E+006, +8.96296228623E-001, +1.13753010588E+002
+9.10601001669E+006, +8.86735976996E-001, +1.15987186984E+002
+9.27278797997E+006, +8.94902764779E-001, +1.18107377079E+002
+9.43956594324E+006, +9.25175884361E-001, +1.20261320578E+002
+9.60634390651E+006, +9.17219515503E-001, +1.22481690298E+002
+9.77312186978E+006, +9.33305020419E-001, +1.24680596220E+002
+9.93989983306E+006, +9.65876425716E-001, +1.26901936639E+002
+1.01066777963E+007, +8.69772795465E-001, +1.29032043057E+002
+1.02734557596E+007, +8.06532506609E-001, +1.31222825439E+002
+1.04402337229E+007, +8.03508380226E-001, +1.33441053811E+002
+1.06070116861E+007, +7.74474874327E-001, +1.35641545245E+002
+1.07737896494E+007, +7.42805576173E-001, +1.37918385893E+002
+1.09405676127E+007, +8.62235115141E-001, +1.40103316003E+002
+1.11073455760E+007, +9.39132327608E-001, +1.42366547523E+002
+1.12741235392E+007, +8.12975725816E-001, +1.44549800886E+002
+1.14409015025E+007, +8.86960786355E-001, +1.46795458082E+002
+1.16076794658E+007, +9.50047363044E-001, +1.48976587963E+002
+1.17744574290E+007, +1.02215922114E+000, +1.51301174461E+002
+1.19412353923E+007, +8.10279772514E-001, +1.53469688706E+002
+1.21080133556E+007, +5.86811570611E-001, +1.55857835134E+002
+1.22747913189E+007, +8.22597827196E-001, +1.58101372535E+002
+1.24415692821E+007, +6.58117191843E-001, +1.60242719923E+002
+1.26083472454E+007, +6.90330715582E-001, +1.62542788082E+002
+1.27751252087E+007, +7.65359367555E-001, +1.64724124439E+002
+1.29419031720E+007, +6.36829050509E-001, +1.66947285526E+002
+1.31086811352E+007, +7.67002606353E-001, +1.69373507803E+002
+1.32754590985E+007, +7.13344206636E-001, +1.71576519702E+002
+1.34422370618E+007, +6.49754703661E-001, +1.73842663171E+002
+1.36090150250E+007, +9.18358409300E-001, +1.76157940576E+002
+1.37757929883E+007, +6.83447445514E-001, +1.78493040984E+002
+1.39425709516E+007, +7.47678204504E-001, +1.80674162164E+002
+1.41093489149E+007, +6.42198299888E-001, +1.83190578261E+002
+1.42761268781E+007, +9.64357366672E-001, +1.85304337094E+002
+1.44429048414E+007, +8.17013710707E-001, +1.87734895205E+002
+1.46096828047E+007, +7.15881231284E-001, +1.89955070416E+002
+1.47764607679E+007, +8.76576528101E-001, +1.92116183388E+002
+1.49432387312E+007, +7.33500403017E-001, +1.94868440666E+002
+1.51100166945E+007, +7.57725767572E-001, +1.97169345560E+002
+1.52767946578E+007, +7.53471117661E-001, +1.99495500732E+002
+1.54435726210E+007, +8.04100262960E-001, +2.01598406319E+002
+1.56103505843E+007, +1.17791948185E+000, +2.04040689887E+002
+1.57771285476E+007, +8.68455244212E-001, +2.06325680743E+002
+1.59439065109E+007, +6.80397200832E-001, +2.08777736344E+002
+1.61106844741E+007, +7.38200374171E-001, +2.11191683042E+002
+1.62774624374E+007, +9.63999908764E-001, +2.13607593185E+002
+1.64442404007E+007, +7.59301850143E-001, +2.15943420190E+002
+1.66110183639E+007, +9.97488998794E-001, +2.18317910927E+002
+1.67777963272E+007, +8.55019655898E-001, +2.21010519360E+002
+1.69445742905E+007, +1.16365935219E+000, +2.23040138462E+002
+1.71113522538E+007, +3.13827810460E-001, +2.25046957181E+002
+1.72781302170E+007, +4.94279406277E-001, +2.27997267097E+002
+1.74449081803E+007, +4.71406467492E-001, +2.30252524591E+002
+1.76116861436E+007, +1.09006729585E+000, +2.32886859942E+002
+1.77784641068E+007, +7.18638567131E-001, +2.34915732607E+002
+1.79452420701E+007, +7.13409795090E-001, +2.37589157769E+002
+1.81120200334E+007, +7.85832639891E-001, +2.39833616737E+002
+1.82787979967E+007, +1.09508671329E+000, +2.42597581597E+002
+1.84455759599E+007, +1.08102299694E+000, +2.45239457087E+002
+1.86123539232E+007, +9.65758168834E-001, +2.47405009754E+002
+1.87791318865E+007, +5.96007856012E-001, +2.50049176587E+002
+1.89459098497E+007, +8.84419118079E-001, +2.52314508295E+002
+1.91126878130E+007, +1.18513753749E+000, +2.55066150387E+002
+1.92794657763E+007, +8.01511741033E-001, +2.57515873370E+002
+1.94462437396E+007, +1.09150905087E+000, +2.60068651700E+002
+1.96130217028E+007, +1.15359753301E+000, +2.62690056113E+002
+1.97797996661E+007, +1.13319069390E+000, +2.64910402670E+002
+1.99465776294E+007, +6.49033432190E-001, +2.67504288517E+002
+2.01133555927E+007, +8.03691923252E-001, +2.70176749575E+002
+2.02801335559E+007, +1.06404433741E+000, +2.72818362418E+002
+2.04469115192E+007, +1.38392942544E+000, +2.75317189313E+002
+2.06136894825E+007, +6.91500667748E-001, +2.77943955511E+002
+2.07804674457E+007, +1.31014293397E+000, +2.80520525121E+002
+2.09472454090E+007, +9.48529349733E-001, +2.83388088342E+002
+2.11140233723E+007, +9.63071076301E-001, +2.85488451630E+002
+2.12808013356E+007, +1.24551020045E+000, +2.88223599083E+002
+2.14475792988E+007, +1.30812676240E+000, +2.91263603649E+002
+2.16143572621E+007, +1.50150968162E+000, +2.93628359495E+002
+2.17811352254E+007, +1.09897143550E+000, +2.96329538034E+002
+2.19479131886E+007, +1.77595106732E+000, +2.98496837708E+002
+2.21146911519E+007, +1.96622025938E+000, +3.01389127099E+002
+2.22814691152E+007, +1.36985746764E+000, +3.04124520510E+002
+2.24482470785E+007, +1.83016701315E+000, +3.06946646185E+002
+2.26150250417E+007, +2.34736913506E+000, +3.09405992713E+002
+2.27818030050E+007, +1.74687922317E+000, +3.12378775886E+002
+2.29485809683E+007, +2.21005903392E+000, +3.15074253796E+002
+2.31153589316E+007, +1.68164127921E+000, +3.17933514434E+002
+2.32821368948E+007, +1.86506745576E+000, +3.20613518801E+002
+2.34489148581E+007, +2.11216964522E+000, +3.22606880975E+002
+2.36156928214E+007, +2.07832257022E+000, +3.26102858836E+002
+2.37824707846E+007, +1.92977961081E+000, +3.29077376210E+002
+2.39492487479E+007, +2.14413337797E+000, +3.30868636184E+002
+2.41160267112E+007, +1.91055619485E+000, +3.34120025850E+002
+2.42828046745E+007, +1.88138892844E+000, +3.37125660824E+002
+2.44495826377E+007, +2.52765345809E+000, +3.40053515149E+002
+2.46163606010E+007, +2.89139651405E+000, +3.42578904724E+002
+2.47831385643E+007, +2.66973562611E+000, +3.45457734109E+002
+2.49499165275E+007, +2.96316025319E+000, +3.48261514176E+002
+2.51166944908E+007, +3.23533353040E+000, +3.50421796926E+002
+2.52834724541E+007, +3.21887725192E+000, +3.54222193980E+002
+2.54502504174E+007, +2.90754606814E+000, +3.56669434437E+002
+2.56170283806E+007, +3.03648293784E+000, +3.59235784211E+002
+2.57838063439E+007, +3.25999982765E+000, +3.63075857355E+002
+2.59505843072E+007, +2.65113907790E+000, +3.65763222817E+002
+2.61173622705E+007, +3.69695148067E+000, +3.67930456699E+002
+2.62841402337E+007, +3.74450964597E+000, +3.71692920645E+002
+2.64509181970E+007, +2.97867154363E+000, +3.74055237091E+002
+2.66176961603E+007, +3.32539842549E+000, +3.77749092552E+002
+2.67844741235E+007, +3.38249039149E+000, +3.80095139993E+002
+2.69512520868E+007, +3.95608227186E+000, +3.83081683804E+002
+2.71180300501E+007, +4.46388409576E+000, +3.85649727066E+002
+2.72848080134E+007, +3.90370623746E+000, +3.89152946840E+002
+2.74515859766E+007, +4.12320768403E+000, +3.92052246503E+002
+2.76183639399E+007, +3.87344051394E+000, +3.94343227155E+002
+2.77851419032E+007, +3.54977647709E+000, +3.97520672945E+002
+2.79519198664E+007, +4.00606989488E+000, +4.00832687522E+002
+2.81186978297E+007, +4.32265214131E+000, +4.03339829800E+002
+2.82854757930E+007, +4.36018782215E+000, +4.06601828038E+002
+2.84522537563E+007, +3.56043174091E+000, +4.09489727908E+002
+2.86190317195E+007, +4.07333626557E+000, +4.12651448963E+002
+2.87858096828E+007, +4.73266252825E+000, +4.16066408412E+002
+2.89525876461E+007, +4.45357898909E+000, +4.18342654198E+002
+2.91193656093E+007, +4.41012163091E+000, +4.21874995211E+002
+2.92861435726E+007, +4.26820682280E+000, +4.25193871952E+002
+2.94529215359E+007, +4.92490957106E+000, +4.28785963461E+002
+2.96196994992E+007, +4.86619124941E+000, +4.31577605113E+002
+2.97864774624E+007, +5.74558024483E+000, +4.34758923436E+002
+2.99532554257E+007, +5.10693154752E+000, +4.38153681540E+002
+3.01200333890E+007, +5.66566891235E+000, +4.41460740234E+002
+3.02868113523E+007, +5.08916269809E+000, +4.45296320029E+002
+3.04535893155E+007, +4.76933807881E+000, +4.48616242523E+002
+3.06203672788E+007, +4.93442744959E+000, +4.50572546632E+002
+3.07871452421E+007, +4.30041847072E+000, +4.54690058633E+002
+3.09539232053E+007, +5.39813868163E+000, +4.57515709254E+002
+3.11207011686E+007, +4.13836354422E+000, +4.61390316921E+002
+3.12874791319E+007, +5.42645251692E+000, +4.63038979507E+002
+3.14542570952E+007, +5.14187076755E+000, +4.67725926248E+002
+3.16210350584E+007, +4.57029371179E+000, +4.70342196804E+002
+3.17878130217E+007, +4.74036083332E+000, +4.75095933425E+002
+3.19545909850E+007, +4.77579343958E+000, +4.79141072719E+002
+3.21213689482E+007, +3.98295306494E+000, +4.81766956924E+002
+3.22881469115E+007, +4.30983403685E+000, +4.83842507687E+002
+3.24549248748E+007, +4.15630373254E+000, +4.88988797365E+002
+3.26217028381E+007, +4.16979943355E+000, +4.92672782047E+002
+3.27884808013E+007, +4.53961615312E+000, +4.94801709496E+002
+3.29552587646E+007, +5.55014590297E+000, +4.98287062935E+002
+3.31220367279E+007, +5.51964841784E+000, +5.01390956565E+002
+3.32888146912E+007, +5.35829659638E+000, +5.06825218373E+002
+3.34555926544E+007, +4.07300070374E+000, +5.09852522082E+002
+3.36223706177E+007, +5.56197983104E+000, +5.12863656239E+002
+3.37891485810E+007, +4.37897831260E+000, +5.17554827600E+002
+3.39559265442E+007, +5.06716996357E+000, +5.21670897048E+002
+3.41227045075E+007, +4.52680288010E+000, +5.24298529634E+002
+3.42894824708E+007, +4.51852067558E+000, +5.28902480470E+002
+3.44562604341E+007, +5.79023796820E+000, +5.33515293512E+002
+3.46230383973E+007, +5.28244930978E+000, +5.36588686312E+002
+3.47898163606E+007, +4.84877111647E+000, +5.39502962327E+002
+3.49565943239E+007, +5.95925477227E+000, +5.45062198784E+002
+3.51233722871E+007, +5.43866452729E+000, +5.47970159702E+002
+3.52901502504E+007, +5.56238864037E+000, +5.51129229460E+002
+3.54569282137E+007, +4.72166719590E+000, +5.56828924905E+002
+3.56237061770E+007, +3.85225783264E+000, +5.61173395005E+002
+3.57904841402E+007, +4.63318771610E+000, +5.62882192767E+002
+3.59572621035E+007, +4.56593572109E+000, +5.68129658627E+002
+3.61240400668E+007, +4.79012238632E+000, +5.72028940104E+002
+3.62908180301E+007, +6.19316759241E+000, +5.77497883563E+002
+3.64575959933E+007, +4.81009577525E+000, +5.80943656535E+002
+3.66243739566E+007, +6.67004408641E+000, +5.84962572503E+002
+3.67911519199E+007, +6.38819162446E+000, +5.91184097768E+002
+3.69579298831E+007, +4.62266016133E+000, +5.93716986319E+002
+3.71247078464E+007, +5.02199336290E+000, +5.98432603329E+002
+3.72914858097E+007, +5.79141740835E+000, +6.02032844349E+002
+3.74582637730E+007, +6.91340925716E+000, +6.08416625835E+002
+3.76250417362E+007, +6.88599903806E+000, +6.11014776115E+002
+3.77918196995E+007, +5.36238747068E+000, +6.16193962833E+002
+3.79585976628E+007, +4.74378930902E+000, +6.19595849453E+002
+3.81253756260E+007, +7.52874033822E+000, +6.24972111127E+002
+3.82921535893E+007, +5.86212426742E+000, +6.28836486263E+002
+3.84589315526E+007, +7.32581319111E+000, +6.34548230661E+002
+3.86257095159E+007, +6.59019790341E+000, +6.39037507858E+002
+3.87924874791E+007, +6.06521492531E+000, +6.43649036471E+002
+3.89592654424E+007, +7.51036448098E+000, +6.47796240158E+002
+3.91260434057E+007, +6.36214513199E+000, +6.54517084911E+002
+3.92928213689E+007, +6.95691271720E+000, +6.58255058758E+002
+3.94595993322E+007, +6.50854417372E+000, +6.65454910496E+002
+3.96263772955E+007, +5.33926772016E+000, +6.69825276414E+002
+3.97931552588E+007, +5.05619966165E+000, +6.72519426551E+002
+3.99599332220E+007, +6.94997843655E+000, +6.79426206098E+002
+4.01267111853E+007, +7.71426156078E+000, +6.83001574001E+002
+4.02934891486E+007, +7.27431030352E+000, +6.87561167212E+002
+4.04602671119E+007, +7.59872380871E+000, +6.93271062576E+002
+4.06270450751E+007, +9.01639076280E+000, +6.99614595023E+002
+4.07938230384E+007, +7.69075292334E+000, +7.04927644986E+002
+4.09606010017E+007, +7.83031039067E+000, +7.08563688068E+002
+4.11273789649E+007, +6.09663671267E+000, +7.13169167928E+002
+4.12941569282E+007, +5.72384632163E+000, +7.20196596541E+002
+4.14609348915E+007, +7.19482561501E+000, +7.28273412365E+002
+4.16277128548E+007, +9.63029266562E+000, +7.30379373123E+002
+4.17944908180E+007, +8.16162757208E+000, +7.35996490350E+002
+4.19612687813E+007, +7.36882861010E+000, +7.42074492252E+002
+4.21280467446E+007, +6.65446909362E+000, +7.48057884619E+002
+4.22948247078E+007, +9.44612687400E+000, +7.54898703470E+002
+4.24616026711E+007, +8.81919482595E+000, +7.57853803731E+002
+4.26283806344E+007, +7.76870166233E+000, +7.66099564272E+002
+4.27951585977E+007, +2.81349025593E+000, +7.72403704941E+002
+4.29619365609E+007, +1.04647715791E+001, +7.79229710271E+002
+4.31287145242E+007, +9.76971147987E+000, +7.86286767052E+002
+4.32954924875E+007, +9.66088431160E+000, +7.91283868073E+002
+4.34622704508E+007, +9.24172183345E+000, +7.96445187261E+002
+4.36290484140E+007, +1.23333709386E+001, +8.04799543733E+002
+4.37958263773E+007, +8.08201143158E+000, +8.10026141969E+002
+4.39626043406E+007, +9.94619570224E+000, +8.16102999889E+002
+4.41293823038E+007, +1.02373955622E+001, +8.26104745301E+002
+4.42961602671E+007, +8.68475781995E+000, +8.30656118337E+002
+4.44629382304E+007, +9.43721594597E+000, +8.39217749288E+002
+4.46297161937E+007, +1.20738041611E+001, +8.47613401243E+002
+4.47964941569E+007, +1.05229562786E+001, +8.51989830597E+002
+4.49632721202E+007, +7.60292126305E+000, +8.59378702082E+002
+4.51300500835E+007, +1.08582569458E+001, +8.64796654556E+002
+4.52968280467E+007, +1.33934959117E+001, +8.73274267257E+002
+4.54636060100E+007, +1.24936028799E+001, +8.85024968257E+002
+4.56303839733E+007, +9.59950566291E+000, +8.89260276956E+002
+4.57971619366E+007, +1.16749620773E+001, +8.96874403958E+002
+4.59639398998E+007, +1.28476858752E+001, +9.08693170744E+002
+4.61307178631E+007, +1.33206348843E+001, +9.15097652551E+002
+4.62974958264E+007, +1.62506776088E+001, +9.23056747317E+002
+4.64642737896E+007, +1.33943723035E+001, +9.27396541633E+002
+4.66310517529E+007, +1.00530436579E+001, +9.38332719676E+002
+4.67978297162E+007, +1.99499829888E+001, +9.44536827588E+002
+4.69646076795E+007, +1.61174687309E+001, +9.53943018353E+002
+4.71313856427E+007, +1.96024621892E+001, +9.66669215487E+002
+4.72981636060E+007, +1.71804983825E+001, +9.77442446235E+002
+4.74649415693E+007, +1.71618846058E+001, +9.79025246391E+002
+4.76317195326E+007, +2.54871866312E+001, +9.90338285237E+002
+4.77984974958E+007, +2.62975864630E+001, +1.00269673533E+003
+4.79652754591E+007, +2.26030715225E+001, +1.00795754049E+003
+4.81320534224E+007, +2.39150264255E+001, +1.02223153071E+003
+4.82988313856E+007, +2.70338190116E+001, +1.02862235231E+003
+4.84656093489E+007, +2.75746817637E+001, +1.03545014229E+003
+4.86323873122E+007, +3.17003503892E+001, +1.03655452264E+003
+4.87991652755E+007, +3.46053983464E+001, +1.05649973193E+003
+4.89659432387E+007, +3.26292360032E+001, +1.06044015388E+003
+4.91327212020E+007, +3.49803586343E+001, +1.08285520245E+003
+4.92994991653E+007, +4.26989622252E+001, +1.08512007290E+003
+4.94662771285E+007, +4.23781571497E+001, +1.09843097698E+003
+4.96330550918E+007, +4.52623654997E+001, +1.10959109467E+003
+4.97998330551E+007, +4.85592557299E+001, +1.11382762308E+003
+4.99666110184E+007, +5.40234041730E+001, +1.12615970767E+003
+5.01333889816E+007, +4.98442355988E+001, +1.13243361458E+003
+5.03001669449E+007, +4.71243566262E+001, +1.14401404455E+003
+5.04669449082E+007, +5.49942012508E+001, +1.15899094293E+003
+5.06337228715E+007, +5.85708046970E+001, +1.16207544145E+003
+5.08005008347E+007, +5.62070786483E+001, +1.17293379927E+003
+5.09672787980E+007, +5.94864230491E+001, +1.17972244611E+003
+5.11340567613E+007, +6.02185573829E+001, +1.19843709134E+003
+5.13008347245E+007, +5.36762409025E+001, +1.20920675405E+003
+5.14676126878E+007, +5.64456349150E+001, +1.21403619618E+003
+5.16343906511E+007, +6.65823349393E+001, +1.22260502742E+003
+5.18011686144E+007, +5.92457616401E+001, +1.23926287037E+003
+5.19679465776E+007, +5.67131869622E+001, +1.24918534695E+003
+5.21347245409E+007, +6.26629373648E+001, +1.26060933918E+003
+5.23015025042E+007, +6.32123104297E+001, +1.28041223144E+003
+5.24682804674E+007, +5.12889990303E+001, +1.29563092252E+003
+5.26350584307E+007, +6.01694862270E+001, +1.30262502561E+003
+5.28018363940E+007, +5.54482691679E+001, +1.32181640464E+003
+5.29686143573E+007, +5.19418515532E+001, +1.32879430672E+003
+5.31353923205E+007, +5.44124175368E+001, +1.34261881009E+003
+5.33021702838E+007, +5.11338326928E+001, +1.36271164312E+003
+5.34689482471E+007, +5.51614046451E+001, +1.38331352966E+003
