"# Channel 1"
"# Trace 1"
Frequency, Formatted Data, Formatted Data
+1.00000000000E+005, +4.52159910869E+000, +1.55083464569E+000
+2.25031289111E+005, +4.63872733883E+000, +3.29490197760E+000
+3.50062578223E+005, +4.73190419094E+000, +5.10195962442E+000
+4.75093867334E+005, +4.78215043197E+000, +6.77453513069E+000
+6.00125156446E+005, +4.86799493621E+000, +8.49095473480E+000
+7.25156445557E+005, +4.91400419600E+000, +1.02011743342E+001
+8.50187734668E+005, +5.01611773533E+000, +1.18556871490E+001
+9.75219023780E+005, +5.02893091594E+000, +1.35519688471E+001
+1.10025031289E+006, +5.11461370330E+000, +1.52006395074E+001
+1.22528160200E+006, +5.21054620333E+000, +1.69180716515E+001
+1.35031289111E+006, +5.23734677582E+000, +1.85729058510E+001
+1.47534418023E+006, +5.25684841639E+000, +2.02558797932E+001
+1.60037546934E+006, +5.30897271136E+000, +2.19465671652E+001
+1.72540675845E+006, +5.38266331009E+000, +2.35618584892E+001
+1.85043804756E+006, +5.39715237444E+000, +2.51985358444E+001
+1.97546933667E+006, +5.42066178105E+000, +2.68851525223E+001
+2.10050062578E+006, +5.48123320512E+000, +2.85687520393E+001
+2.22553191489E+006, +5.47962239431E+000, +3.02223551226E+001
+2.35056320401E+006, +5.51453330529E+000, +3.18882301762E+001
+2.47559449312E+006, +5.57117706521E+000, +3.35899633884E+001
+2.60062578223E+006, +5.63975606385E+000, +3.51574219300E+001
+2.72565707134E+006, +5.61223704540E+000, +3.68853582801E+001
+2.85068836045E+006, +5.66707020645E+000, +3.85899593298E+001
+2.97571964956E+006, +5.64677592037E+000, +4.01723228485E+001
+3.10075093867E+006, +5.69544453208E+000, +4.18651495192E+001
+3.22578222778E+006, +5.82185583600E+000, +4.35070231737E+001
+3.35081351690E+006, +5.75455432096E+000, +4.51737340618E+001
+3.47584480601E+006, +5.81446597865E+000, +4.69039706149E+001
+3.60087609512E+006, +5.85301721264E+000, +4.85267006779E+001
+3.72590738423E+006, +5.92503616139E+000, +5.00979202886E+001
+3.85093867334E+006, +5.87245816637E+000, +5.18521787985E+001
+3.97596996245E+006, +5.96352243384E+000, +5.35522496592E+001
+4.10100125156E+006, +5.94474904129E+000, +5.50932307270E+001
+4.22603254068E+006, +5.98695743960E+000, +5.69242181940E+001
+4.35106382979E+006, +6.12418962995E+000, +5.85203747534E+001
+4.47609511890E+006, +6.09560498535E+000, +6.01706559406E+001
+4.60112640801E+006, +6.07301270919E+000, +6.18918127931E+001
+4.72615769712E+006, +6.14508010506E+000, +6.35497114371E+001
+4.85118898623E+006, +6.26433002112E+000, +6.52101669540E+001
+4.97622027534E+006, +6.30106455274E+000, +6.68053132111E+001
+5.10125156446E+006, +6.27607776099E+000, +6.84762560097E+001
+5.22628285357E+006, +6.33385322284E+000, +7.01928075478E+001
+5.35131414268E+006, +6.32847606316E+000, +7.18995832589E+001
+5.47634543179E+006, +6.39505456395E+000, +7.36364969254E+001
+5.60137672090E+006, +6.33024550731E+000, +7.53570641485E+001
+5.72640801001E+006, +6.47391864125E+000, +7.69729739503E+001
+5.85143929912E+006, +6.43946337919E+000, +7.86448435045E+001
+5.97647058824E+006, +6.54340467613E+000, +8.04068337543E+001
+6.10150187735E+006, +6.47292615689E+000, +8.20788701128E+001
+6.22653316646E+006, +6.53418872387E+000, +8.35715562435E+001
+6.35156445557E+006, +6.69041174078E+000, +8.53782815322E+001
+6.47659574468E+006, +6.72636018866E+000, +8.69381668323E+001
+6.60162703379E+006, +6.77891289464E+000, +8.86458361345E+001
+6.72665832290E+006, +6.82858864447E+000, +9.03647184448E+001
+6.85168961202E+006, +6.84812083575E+000, +9.19965978926E+001
+6.97672090113E+006, +6.83062560909E+000, +9.36619742957E+001
+7.10175219024E+006, +6.88695510225E+000, +9.52971441558E+001
+7.22678347935E+006, +7.06707329424E+000, +9.70546639899E+001
+7.35181476846E+006, +7.03288615986E+000, +9.87605735842E+001
+7.47684605757E+006, +7.01138542702E+000, +1.00431783515E+002
+7.60187734668E+006, +7.03822504441E+000, +1.02105926846E+002
+7.72690863579E+006, +7.12231498103E+000, +1.03797391247E+002
+7.85193992491E+006, +7.07653777946E+000, +1.05442936466E+002
+7.97697121402E+006, +7.09559863311E+000, +1.07197994438E+002
+8.10200250313E+006, +7.14850127529E+000, +1.08880562780E+002
+8.22703379224E+006, +7.14969439353E+000, +1.10595243236E+002
+8.35206508135E+006, +7.21798690716E+000, +1.12306228396E+002
+8.47709637046E+006, +7.37706888727E+000, +1.13985725530E+002
+8.60212765957E+006, +7.28849287420E+000, +1.15581130604E+002
+8.72715894869E+006, +7.28565947504E+000, +1.17368954526E+002
+8.85219023780E+006, +7.51557091127E+000, +1.19048301059E+002
+8.97722152691E+006, +7.38827250115E+000, +1.20828938877E+002
+9.10225281602E+006, +7.31416807663E+000, +1.22446107798E+002
+9.22728410513E+006, +7.45224505467E+000, +1.24048340008E+002
+9.35231539424E+006, +7.46451901931E+000, +1.25859730824E+002
+9.47734668335E+006, +7.56647357948E+000, +1.27449727206E+002
+9.60237797247E+006, +7.51204603347E+000, +1.29249716005E+002
+9.72740926158E+006, +7.59518689879E+000, +1.30912320224E+002
+9.85244055069E+006, +7.70081087562E+000, +1.32859189194E+002
+9.97747183980E+006, +7.57172421341E+000, +1.34297056334E+002
+1.01025031289E+007, +7.63846761739E+000, +1.36060812305E+002
+1.02275344180E+007, +7.65747124255E+000, +1.37857900129E+002
+1.03525657071E+007, +7.65977977845E+000, +1.39390924619E+002
+1.04775969962E+007, +7.67568089427E+000, +1.41171377570E+002
+1.06026282854E+007, +7.55120205489E+000, +1.42972452750E+002
+1.07276595745E+007, +7.73217220609E+000, +1.44720624226E+002
+1.08526908636E+007, +7.83538710563E+000, +1.46364176700E+002
+1.09777221527E+007, +7.83537220044E+000, +1.48074464500E+002
+1.11027534418E+007, +7.90431332705E+000, +1.49965405962E+002
+1.12277847309E+007, +7.92521603341E+000, +1.51586703432E+002
+1.13528160200E+007, +8.00445634231E+000, +1.53328646145E+002
+1.14778473091E+007, +7.88218509499E+000, +1.55049087484E+002
+1.16028785982E+007, +7.97605268659E+000, +1.56816954488E+002
+1.17279098874E+007, +8.21416650135E+000, +1.58679528959E+002
+1.18529411765E+007, +7.93716392301E+000, +1.60320375095E+002
+1.19779724656E+007, +8.04204484251E+000, +1.61928365077E+002
+1.21030037547E+007, +8.13628448781E+000, +1.63861011406E+002
+1.22280350438E+007, +7.97009336261E+000, +1.65526342200E+002
+1.23530663329E+007, +8.22702902902E+000, +1.67284963680E+002
+1.24780976220E+007, +7.94060353889E+000, +1.69190774698E+002
+1.26031289111E+007, +8.28460207637E+000, +1.70790851668E+002
+1.27281602003E+007, +8.13467930893E+000, +1.72532916120E+002
+1.28531914894E+007, +8.23798412132E+000, +1.74234065794E+002
+1.29782227785E+007, +8.21052141951E+000, +1.76187463864E+002
+1.31032540676E+007, +8.46776914715E+000, +1.77756462681E+002
+1.32282853567E+007, +8.29831652433E+000, +1.79479405168E+002
+1.33533166458E+007, +8.57109517922E+000, +1.81460683195E+002
+1.34783479349E+007, +8.70453083971E+000, +1.82910249693E+002
+1.36033792240E+007, +8.59711188278E+000, +1.84843812274E+002
+1.37284105131E+007, +8.57233774072E+000, +1.86572072354E+002
+1.38534418023E+007, +8.48151117274E+000, +1.88313713917E+002
+1.39784730914E+007, +8.38371927098E+000, +1.90138971107E+002
+1.41035043805E+007, +8.18299479366E+000, +1.92046197639E+002
+1.42285356696E+007, +8.74030952911E+000, +1.93865880793E+002
+1.43535669587E+007, +8.50043536843E+000, +1.95427046052E+002
+1.44785982478E+007, +8.58534675853E+000, +1.97388787618E+002
+1.46036295369E+007, +8.55310044491E+000, +1.99268052015E+002
+1.47286608260E+007, +8.61060224613E+000, +2.00983865500E+002
+1.48536921151E+007, +8.64499202056E+000, +2.02900799787E+002
+1.49787234043E+007, +8.64933365835E+000, +2.04728754654E+002
+1.51037546934E+007, +8.82636731264E+000, +2.06179604365E+002
+1.52287859825E+007, +8.61821308608E+000, +2.07961695398E+002
+1.53538172716E+007, +8.77116337071E+000, +2.10286677900E+002
+1.54788485607E+007, +9.00626430085E+000, +2.11930029348E+002
+1.56038798498E+007, +8.81757329374E+000, +2.13658615393E+002
+1.57289111389E+007, +8.81812588878E+000, +2.15713878385E+002
+1.58539424280E+007, +9.05965033078E+000, +2.17189559512E+002
+1.59789737171E+007, +8.83561129133E+000, +2.19298207906E+002
+1.61040050063E+007, +9.18222709187E+000, +2.21017621425E+002
+1.62290362954E+007, +9.21468594128E+000, +2.22813578853E+002
+1.63540675845E+007, +9.24530164372E+000, +2.24965417260E+002
+1.64790988736E+007, +9.23329000249E+000, +2.26481485670E+002
+1.66041301627E+007, +9.05717187797E+000, +2.28013318289E+002
+1.67291614518E+007, +9.02077654561E+000, +2.29846692612E+002
+1.68541927409E+007, +9.18221347246E+000, +2.32164659364E+002
+1.69792240300E+007, +9.39969297624E+000, +2.33929551270E+002
+1.71042553191E+007, +8.91658885602E+000, +2.36029013955E+002
+1.72292866083E+007, +8.91610809174E+000, +2.37639291299E+002
+1.73543178974E+007, +9.32620017673E+000, +2.39458859982E+002
+1.74793491865E+007, +9.16222734741E+000, +2.41639999887E+002
+1.76043804756E+007, +9.39979400644E+000, +2.43184437590E+002
+1.77294117647E+007, +9.10056804388E+000, +2.45277172529E+002
+1.78544430538E+007, +9.43209434308E+000, +2.47053941378E+002
+1.79794743429E+007, +9.20325634772E+000, +2.48999914625E+002
+1.81045056320E+007, +9.49213175561E+000, +2.50698139716E+002
+1.82295369212E+007, +9.51622700426E+000, +2.52689778451E+002
+1.83545682103E+007, +9.64800050433E+000, +2.54430079244E+002
+1.84795994994E+007, +9.73380293281E+000, +2.56488073420E+002
+1.86046307885E+007, +1.00913547771E+001, +2.58384699570E+002
+1.87296620776E+007, +9.69333445935E+000, +2.60564968666E+002
+1.88546933667E+007, +9.72202049433E+000, +2.62424796057E+002
+1.89797246558E+007, +1.00197055040E+001, +2.63953259814E+002
+1.91047559449E+007, +9.80647680098E+000, +2.65926525505E+002
+1.92297872340E+007, +1.00255920049E+001, +2.67795029390E+002
+1.93548185232E+007, +1.04146044382E+001, +2.69970800265E+002
+1.94798498123E+007, +9.90661262788E+000, +2.71713472899E+002
+1.96048811014E+007, +9.96114405867E+000, +2.73848378061E+002
+1.97299123905E+007, +1.02581915667E+001, +2.75539874229E+002
+1.98549436796E+007, +1.01901624438E+001, +2.77754195677E+002
+1.99799749687E+007, +1.02076744879E+001, +2.79410156538E+002
+2.01050062578E+007, +9.68411067781E+000, +2.81614943884E+002
+2.02300375469E+007, +1.02981383019E+001, +2.83560413000E+002
+2.03550688360E+007, +1.01872387021E+001, +2.86026845868E+002
+2.04801001252E+007, +1.04619430946E+001, +2.87205702202E+002
+2.06051314143E+007, +1.05010353179E+001, +2.89721048053E+002
+2.07301627034E+007, +1.05694405613E+001, +2.91679644378E+002
+2.08551939925E+007, +1.07720500343E+001, +2.93596866884E+002
+2.09802252816E+007, +1.08477496108E+001, +2.95703301271E+002
+2.11052565707E+007, +1.12962870218E+001, +2.97286694034E+002
+2.12302878598E+007, +1.05828172803E+001, +2.99387602513E+002
+2.13553191489E+007, +1.10720170322E+001, +3.01110479650E+002
+2.14803504380E+007, +1.10632038083E+001, +3.03266144170E+002
+2.16053817272E+007, +1.08123772857E+001, +3.05517545603E+002
+2.17304130163E+007, +1.10770876966E+001, +3.08037915872E+002
+2.18554443054E+007, +1.15455120695E+001, +3.09701692967E+002
+2.19804755945E+007, +1.10400004292E+001, +3.10768871621E+002
+2.21055068836E+007, +1.12651886001E+001, +3.13384012351E+002
+2.22305381727E+007, +1.16975617647E+001, +3.15472659919E+002
+2.23555694618E+007, +1.12548402536E+001, +3.17715931278E+002
+2.24806007509E+007, +1.19506234896E+001, +3.19616969674E+002
+2.26056320401E+007, +1.05258260575E+001, +3.21771293639E+002
+2.27306633292E+007, +1.15481152117E+001, +3.23378405599E+002
+2.28556946183E+007, +1.22156446517E+001, +3.25839048042E+002
+2.29807259074E+007, +1.20177313114E+001, +3.27869868928E+002
+2.31057571965E+007, +1.21558511555E+001, +3.29708894116E+002
+2.32307884856E+007, +1.24943491870E+001, +3.31255413505E+002
+2.33558197747E+007, +1.24114904800E+001, +3.33418142732E+002
+2.34808510638E+007, +1.29537029697E+001, +3.35417556818E+002
+2.36058823529E+007, +1.21415763775E+001, +3.38335167904E+002
+2.37309136421E+007, +1.21952879747E+001, +3.39151966493E+002
+2.38559449312E+007, +1.23515826235E+001, +3.42331389193E+002
+2.39809762203E+007, +1.31698278394E+001, +3.43410658403E+002
+2.41060075094E+007, +1.29884306997E+001, +3.46082076132E+002
+2.42310387985E+007, +1.29194067401E+001, +3.47904457794E+002
+2.43560700876E+007, +1.22716208383E+001, +3.50160246300E+002
+2.44811013767E+007, +1.33301535937E+001, +3.52091223570E+002
+2.46061326658E+007, +1.29967669198E+001, +3.53622669841E+002
+2.47311639549E+007, +1.18088429044E+001, +3.57102389284E+002
+2.48561952441E+007, +1.29837289665E+001, +3.58103490352E+002
+2.49812265332E+007, +1.29138085681E+001, +3.61085915896E+002
+2.51062578223E+007, +1.33832937712E+001, +3.63683329737E+002
+2.52312891114E+007, +1.24843109337E+001, +3.64481202120E+002
+2.53563204005E+007, +1.25644487791E+001, +3.67149229632E+002
+2.54813516896E+007, +1.28386668020E+001, +3.68741688892E+002
+2.56063829787E+007, +1.29402373518E+001, +3.69937483639E+002
+2.57314142678E+007, +1.28865765995E+001, +3.72719693769E+002
+2.58564455569E+007, +1.23293122379E+001, +3.75177483103E+002
+2.59814768461E+007, +1.39108898597E+001, +3.77534960487E+002
+2.61065081352E+007, +1.27358353183E+001, +3.79936705658E+002
+2.62315394243E+007, +1.33644842068E+001, +3.81988604387E+002
+2.63565707134E+007, +1.34537930611E+001, +3.84526423796E+002
+2.64816020025E+007, +1.27671554532E+001, +3.86808231368E+002
+2.66066332916E+007, +1.35860839212E+001, +3.89041584413E+002
+2.67316645807E+007, +1.36564196599E+001, +3.91524197584E+002
+2.68566958698E+007, +1.31110526649E+001, +3.94267727687E+002
+2.69817271589E+007, +1.30946653138E+001, +3.96140637950E+002
+2.71067584481E+007, +1.42005595028E+001, +3.98094390253E+002
+2.72317897372E+007, +1.39119656934E+001, +4.00310415319E+002
+2.73568210263E+007, +1.46378921974E+001, +4.02205274621E+002
+2.74818523154E+007, +1.33819565464E+001, +4.04833875230E+002
+2.76068836045E+007, +1.39791747193E+001, +4.06903497471E+002
+2.77319148936E+007, +1.34090778245E+001, +4.09408965814E+002
+2.78569461827E+007, +1.45274289243E+001, +4.11722841186E+002
+2.79819774718E+007, +1.33201475174E+001, +4.13589736280E+002
+2.81070087610E+007, +1.39846041568E+001, +4.16890666322E+002
+2.82320400501E+007, +1.51466458183E+001, +4.18867937946E+002
+2.83570713392E+007, +1.54250219478E+001, +4.21149986160E+002
+2.84821026283E+007, +1.45080899978E+001, +4.22641483100E+002
+2.86071339174E+007, +1.26796297228E+001, +4.26170047811E+002
+2.87321652065E+007, +1.33621965238E+001, +4.27743787862E+002
+2.88571964956E+007, +1.37587709801E+001, +4.30758344795E+002
+2.89822277847E+007, +1.45577590579E+001, +4.33889994585E+002
+2.91072590738E+007, +1.51090834109E+001, +4.35813632532E+002
+2.92322903630E+007, +1.51949318564E+001, +4.36393315838E+002
+2.93573216521E+007, +1.48325653923E+001, +4.40689513329E+002
+2.94823529412E+007, +1.59614089784E+001, +4.43930277806E+002
+2.96073842303E+007, +1.48410057357E+001, +4.44872434135E+002
+2.97324155194E+007, +1.43105521888E+001, +4.47845144800E+002
+2.98574468085E+007, +1.56661126473E+001, +4.50338584993E+002
+2.99824780976E+007, +1.49645063737E+001, +4.52548037195E+002
+3.01075093867E+007, +1.46614771535E+001, +4.54115044357E+002
+3.02325406758E+007, +1.47260967746E+001, +4.57341545755E+002
+3.03575719650E+007, +1.42992303425E+001, +4.60171248425E+002
+3.04826032541E+007, +1.45662837297E+001, +4.62703607039E+002
+3.06076345432E+007, +1.56536906764E+001, +4.63667666082E+002
+3.07326658323E+007, +1.57509687115E+001, +4.67529728382E+002
+3.08576971214E+007, +1.58151909730E+001, +4.70527563278E+002
+3.09827284105E+007, +1.64714138640E+001, +4.73028944015E+002
+3.11077596996E+007, +1.45153977216E+001, +4.76123450471E+002
+3.12327909887E+007, +1.47367902165E+001, +4.76933616641E+002
+3.13578222778E+007, +1.56227962028E+001, +4.80598939504E+002
+3.14828535670E+007, +1.56948994995E+001, +4.82993335197E+002
+3.16078848561E+007, +1.45348620444E+001, +4.84080449477E+002
+3.17329161452E+007, +1.56376369715E+001, +4.87721704195E+002
+3.18579474343E+007, +1.47755283892E+001, +4.89434994336E+002
+3.19829787234E+007, +1.49951442934E+001, +4.93386697730E+002
+3.21080100125E+007, +1.67911351872E+001, +4.94636640409E+002
+3.22330413016E+007, +1.56087805817E+001, +4.98029115845E+002
+3.23580725907E+007, +1.62469574137E+001, +5.01418501684E+002
+3.24831038798E+007, +1.55570699456E+001, +5.03123196330E+002
+3.26081351690E+007, +1.54219612110E+001, +5.05667814267E+002
+3.27331664581E+007, +1.60172497864E+001, +5.06559515475E+002
+3.28581977472E+007, +1.66301444452E+001, +5.11183034891E+002
+3.29832290363E+007, +1.60722029301E+001, +5.13143433774E+002
+3.31082603254E+007, +1.57527125408E+001, +5.17280061512E+002
+3.32332916145E+007, +1.54471163597E+001, +5.19475187675E+002
+3.33583229036E+007, +1.64179104654E+001, +5.22613797784E+002
+3.34833541927E+007, +1.71502104035E+001, +5.24314831096E+002
+3.36083854819E+007, +1.67550475787E+001, +5.27435910058E+002
+3.37334167710E+007, +1.60771054275E+001, +5.29993412705E+002
+3.38584480601E+007, +1.49605298687E+001, +5.33930134485E+002
+3.39834793492E+007, +1.59525158998E+001, +5.35407769121E+002
+3.41085106383E+007, +1.62635928188E+001, +5.39661435178E+002
+3.42335419274E+007, +1.57870796113E+001, +5.40773347954E+002
+3.43585732165E+007, +1.77992334705E+001, +5.44655519767E+002
+3.44836045056E+007, +1.64655217077E+001, +5.46965725983E+002
+3.46086357947E+007, +1.63872830149E+001, +5.48851057425E+002
+3.47336670839E+007, +1.69657333321E+001, +5.53203984442E+002
+3.48586983730E+007, +1.63328130960E+001, +5.57274292574E+002
+3.49837296621E+007, +1.48905700985E+001, +5.58324934406E+002
+3.51087609512E+007, +1.67812149484E+001, +5.60433509483E+002
+3.52337922403E+007, +1.71259432716E+001, +5.65313067180E+002
+3.53588235294E+007, +1.85601670782E+001, +5.68142419490E+002
+3.54838548185E+007, +1.63099941958E+001, +5.70834368235E+002
+3.56088861076E+007, +1.69003444581E+001, +5.73842394512E+002
+3.57339173967E+007, +1.74677966615E+001, +5.77664525140E+002
+3.58589486859E+007, +1.72559491937E+001, +5.78305421201E+002
+3.59839799750E+007, +1.81492937487E+001, +5.82536017471E+002
+3.61090112641E+007, +1.84466482787E+001, +5.87229757307E+002
+3.62340425532E+007, +1.68642302425E+001, +5.88584497366E+002
+3.63590738423E+007, +1.93972645250E+001, +5.91399308886E+002
+3.64841051314E+007, +1.75746777868E+001, +5.93977284992E+002
+3.66091364205E+007, +1.74952906447E+001, +5.95751728648E+002
+3.67341677096E+007, +1.87895008097E+001, +6.01418846761E+002
+3.68591989987E+007, +1.87249837266E+001, +6.02958793109E+002
+3.69842302879E+007, +1.89374420387E+001, +6.08564323567E+002
+3.71092615770E+007, +2.00348352847E+001, +6.10480592682E+002
+3.72342928661E+007, +1.94843598577E+001, +6.13781750107E+002
+3.73593241552E+007, +1.95372019673E+001, +6.18283959804E+002
+3.74843554443E+007, +1.90717734494E+001, +6.18954776661E+002
+3.76093867334E+007, +1.81281909834E+001, +6.22744692958E+002
+3.77344180225E+007, +1.97657576952E+001, +6.29607482496E+002
+3.78594493116E+007, +2.04664933810E+001, +6.28700706743E+002
+3.79844806008E+007, +2.03314192272E+001, +6.30983553234E+002
+3.81095118899E+007, +2.01407149062E+001, +6.37207138239E+002
+3.82345431790E+007, +2.19334263834E+001, +6.40909049925E+002
+3.83595744681E+007, +2.01627042025E+001, +6.41735465949E+002
+3.84846057572E+007, +2.01050592483E+001, +6.44920031462E+002
+3.86096370463E+007, +1.95218726796E+001, +6.49028658834E+002
+3.87346683354E+007, +2.05003911886E+001, +6.52177929476E+002
+3.88596996245E+007, +2.25915826995E+001, +6.55291274032E+002
+3.89847309136E+007, +2.19890148700E+001, +6.57146219218E+002
+3.91097622028E+007, +2.25588433990E+001, +6.63248645213E+002
+3.92347934919E+007, +2.10804852072E+001, +6.64314310431E+002
+3.93598247810E+007, +2.25487978870E+001, +6.69799099730E+002
+3.94848560701E+007, +2.14253865307E+001, +6.69948444841E+002
+3.96098873592E+007, +2.33108448940E+001, +6.77646324593E+002
+3.97349186483E+007, +2.15805845506E+001, +6.77795778470E+002
+3.98599499374E+007, +2.14999695157E+001, +6.82263695232E+002
+3.99849812265E+007, +2.36642955758E+001, +6.85387305783E+002
+4.01100125156E+007, +2.28540582648E+001, +6.88407286230E+002
