"# Channel 1"
"# Trace 1"
Frequency, Formatted Data, Formatted Data
+1.00000000000E+005, +1.49855363612E+001, +1.29146751898E+000
+2.25031289111E+005, +1.49451398141E+001, +2.94693379128E+000
+3.50062578223E+005, +1.49883131229E+001, +4.54983011212E+000
+4.75093867334E+005, +1.49999102208E+001, +6.13099585180E+000
+6.00125156446E+005, +1.50163354212E+001, +7.73587903216E+000
+7.25156445557E+005, +1.50203162878E+001, +9.35981049052E+000
+8.50187734668E+005, +1.50260624090E+001, +1.09398071022E+001
+9.75219023780E+005, +1.50423511166E+001, +1.25416994886E+001
+1.10025031289E+006, +1.50425211685E+001, +1.41190092110E+001
+1.22528160200E+006, +1.50486046468E+001, +1.57228014091E+001
+1.35031289111E+006, +1.50536413878E+001, +1.73112693464E+001
+1.47534418023E+006, +1.50667307362E+001, +1.88861458721E+001
+1.60037546934E+006, +1.50719965185E+001, +2.04986546752E+001
+1.72540675845E+006, +1.50941605406E+001, +2.20943584321E+001
+1.85043804756E+006, +1.50637604551E+001, +2.36668039229E+001
+1.97546933667E+006, +1.51066844964E+001, +2.52770526869E+001
+2.10050062578E+006, +1.50518029071E+001, +2.68540209569E+001
+2.22553191489E+006, +1.51022474380E+001, +2.84475201058E+001
+2.35056320401E+006, +1.50357738163E+001, +3.00520205221E+001
+2.47559449312E+006, +1.51016474034E+001, +3.16640445758E+001
+2.60062578223E+006, +1.51150626075E+001, +3.32604719391E+001
+2.72565707134E+006, +1.51239758752E+001, +3.48522133207E+001
+2.85068836045E+006, +1.51467174799E+001, +3.64885985758E+001
+2.97571964956E+006, +1.50678740241E+001, +3.80355280519E+001
+3.10075093867E+006, +1.51519700852E+001, +3.97123589544E+001
+3.22578222778E+006, +1.51328762263E+001, +4.12043011168E+001
+3.35081351690E+006, +1.51343261344E+001, +4.28564250533E+001
+3.47584480601E+006, +1.51113963965E+001, +4.44103379527E+001
+3.60087609512E+006, +1.51174100655E+001, +4.61038529400E+001
+3.72590738423E+006, +1.51294361621E+001, +4.77248049577E+001
+3.85093867334E+006, +1.51232282802E+001, +4.92388843236E+001
+3.97596996245E+006, +1.51505866592E+001, +5.07930617798E+001
+4.10100125156E+006, +1.51886121969E+001, +5.24814580889E+001
+4.22603254068E+006, +1.51231176815E+001, +5.39823553630E+001
+4.35106382979E+006, +1.52053698895E+001, +5.56561668042E+001
+4.47609511890E+006, +1.51719616461E+001, +5.73292787808E+001
+4.60112640801E+006, +1.51632442677E+001, +5.88359974421E+001
+4.72615769712E+006, +1.52434178760E+001, +6.05139588623E+001
+4.85118898623E+006, +1.52101118570E+001, +6.20676209080E+001
+4.97622027534E+006, +1.51694461476E+001, +6.36515612209E+001
+5.10125156446E+006, +1.52503662197E+001, +6.52710391846E+001
+5.22628285357E+006, +1.52023575071E+001, +6.67900476577E+001
+5.35131414268E+006, +1.52859893203E+001, +6.85577885638E+001
+5.47634543179E+006, +1.52179131366E+001, +7.00435901571E+001
+5.60137672090E+006, +1.53128806433E+001, +7.17150800302E+001
+5.72640801001E+006, +1.52177294166E+001, +7.33607523240E+001
+5.85143929912E+006, +1.52166295002E+001, +7.48443778709E+001
+5.97647058824E+006, +1.52334205449E+001, +7.65929214347E+001
+6.10150187735E+006, +1.53531592256E+001, +7.81815550799E+001
+6.22653316646E+006, +1.53803515065E+001, +7.98361767102E+001
+6.35156445557E+006, +1.53775550642E+001, +8.14973260875E+001
+6.47659574468E+006, +1.53945112795E+001, +8.31083687359E+001
+6.60162703379E+006, +1.54238381745E+001, +8.47124202606E+001
+6.72665832290E+006, +1.53491558026E+001, +8.63155246746E+001
+6.85168961202E+006, +1.54760558907E+001, +8.79156859111E+001
+6.97672090113E+006, +1.54367131637E+001, +8.96418507673E+001
+7.10175219024E+006, +1.54137255485E+001, +9.12624437164E+001
+7.22678347935E+006, +1.54771753227E+001, +9.28079448669E+001
+7.35181476846E+006, +1.54388455884E+001, +9.44867319358E+001
+7.47684605757E+006, +1.55559572366E+001, +9.60415530145E+001
+7.60187734668E+006, +1.54905777409E+001, +9.76617959767E+001
+7.72690863579E+006, +1.55404407067E+001, +9.93767479673E+001
+7.85193992491E+006, +1.54501774351E+001, +1.00985844681E+002
+7.97697121402E+006, +1.55784996486E+001, +1.02644522395E+002
+8.10200250313E+006, +1.56261111138E+001, +1.04386978183E+002
+8.22703379224E+006, +1.54498901830E+001, +1.05934609116E+002
+8.35206508135E+006, +1.55237043999E+001, +1.07701568722E+002
+8.47709637046E+006, +1.55372383021E+001, +1.09176167895E+002
+8.60212765957E+006, +1.56297824498E+001, +1.10789537398E+002
+8.72715894869E+006, +1.55021567200E+001, +1.12476800836E+002
+8.85219023780E+006, +1.56110675802E+001, +1.14191027107E+002
+8.97722152691E+006, +1.58054616672E+001, +1.15808033144E+002
+9.10225281602E+006, +1.55373862615E+001, +1.17418896458E+002
+9.22728410513E+006, +1.56129688869E+001, +1.19032803496E+002
+9.35231539424E+006, +1.57168554899E+001, +1.20643477556E+002
+9.47734668335E+006, +1.57550989183E+001, +1.22344434126E+002
+9.60237797247E+006, +1.55627168373E+001, +1.24058194257E+002
+9.72740926158E+006, +1.57578576636E+001, +1.25529011564E+002
+9.85244055069E+006, +1.56090364629E+001, +1.27242374187E+002
+9.97747183980E+006, +1.57248217137E+001, +1.28986977005E+002
+1.01025031289E+007, +1.56887116798E+001, +1.30692347784E+002
+1.02275344180E+007, +1.57183877865E+001, +1.32262449970E+002
+1.03525657071E+007, +1.57340320080E+001, +1.33914916180E+002
+1.04775969962E+007, +1.57708733321E+001, +1.35668756303E+002
+1.06026282854E+007, +1.58181832553E+001, +1.37181412565E+002
+1.07276595745E+007, +1.57435707847E+001, +1.38862638351E+002
+1.08526908636E+007, +1.58298096721E+001, +1.40535633563E+002
+1.09777221527E+007, +1.57808902961E+001, +1.42168357009E+002
+1.11027534418E+007, +1.58061726687E+001, +1.43979384744E+002
+1.12277847309E+007, +1.57769126079E+001, +1.45516693361E+002
+1.13528160200E+007, +1.59437202007E+001, +1.47235091555E+002
+1.14778473091E+007, +1.58359065395E+001, +1.48858499272E+002
+1.16028785982E+007, +1.59260610354E+001, +1.50717128006E+002
+1.17279098874E+007, +1.58344522588E+001, +1.52420719311E+002
+1.18529411765E+007, +1.58979460684E+001, +1.54016835673E+002
+1.19779724656E+007, +1.60069667137E+001, +1.55631541344E+002
+1.21030037547E+007, +1.59051507866E+001, +1.57362005829E+002
+1.22280350438E+007, +1.59768700439E+001, +1.59159006580E+002
+1.23530663329E+007, +1.59399159227E+001, +1.60655535817E+002
+1.24780976220E+007, +1.59714829552E+001, +1.62275948434E+002
+1.26031289111E+007, +1.58993205193E+001, +1.64045389137E+002
+1.27281602003E+007, +1.61086809929E+001, +1.65808668490E+002
+1.28531914894E+007, +1.61282991184E+001, +1.67471892481E+002
+1.29782227785E+007, +1.59888054210E+001, +1.69334100036E+002
+1.31032540676E+007, +1.57910652403E+001, +1.70939155942E+002
+1.32282853567E+007, +1.60227645971E+001, +1.72492119926E+002
+1.33533166458E+007, +1.59301844522E+001, +1.74288785641E+002
+1.34783479349E+007, +1.58888873774E+001, +1.76055886228E+002
+1.36033792240E+007, +1.58977307904E+001, +1.77834538118E+002
+1.37284105131E+007, +1.59504572433E+001, +1.79385448076E+002
+1.38534418023E+007, +1.61599588633E+001, +1.81216239583E+002
+1.39784730914E+007, +1.59343729975E+001, +1.83038437127E+002
+1.41035043805E+007, +1.60790331005E+001, +1.84499670920E+002
+1.42285356696E+007, +1.61655074851E+001, +1.86403981225E+002
+1.43535669587E+007, +1.60378193779E+001, +1.88104459498E+002
+1.44785982478E+007, +1.60402824544E+001, +1.89762865507E+002
+1.46036295369E+007, +1.62397033840E+001, +1.91597447096E+002
+1.47286608260E+007, +1.58004757269E+001, +1.93414856528E+002
+1.48536921151E+007, +1.61923445826E+001, +1.94992053059E+002
+1.49787234043E+007, +1.60065233715E+001, +1.96637774726E+002
+1.51037546934E+007, +1.63299155487E+001, +1.98510365920E+002
+1.52287859825E+007, +1.59597853979E+001, +2.00094771025E+002
+1.53538172716E+007, +1.62211426233E+001, +2.01978632040E+002
+1.54788485607E+007, +1.61974377196E+001, +2.03640440214E+002
+1.56038798498E+007, +1.64881128621E+001, +2.05563231221E+002
+1.57289111389E+007, +1.65814441977E+001, +2.07146474686E+002
+1.58539424280E+007, +1.61989726168E+001, +2.09119739402E+002
+1.59789737171E+007, +1.65124184655E+001, +2.10633586480E+002
+1.61040050063E+007, +1.62038185478E+001, +2.12639011100E+002
+1.62290362954E+007, +1.61330980993E+001, +2.14501082668E+002
+1.63540675845E+007, +1.64312710606E+001, +2.16103671020E+002
+1.64790988736E+007, +1.65146464906E+001, +2.17738154492E+002
+1.66041301627E+007, +1.65270694483E+001, +2.19283894258E+002
+1.67291614518E+007, +1.64242920010E+001, +2.21493203540E+002
+1.68541927409E+007, +1.64098985855E+001, +2.23217669381E+002
+1.69792240300E+007, +1.64610953152E+001, +2.24890206490E+002
+1.71042553191E+007, +1.61765187665E+001, +2.26855569887E+002
+1.72292866083E+007, +1.60581096070E+001, +2.28527578595E+002
+1.73543178974E+007, +1.62681587054E+001, +2.30490094414E+002
+1.74793491865E+007, +1.63203737249E+001, +2.32024450528E+002
+1.76043804756E+007, +1.60959110177E+001, +2.33985090176E+002
+1.77294117647E+007, +1.62688603084E+001, +2.36123548654E+002
+1.78544430538E+007, +1.60092458571E+001, +2.37481527862E+002
+1.79794743429E+007, +1.67135989567E+001, +2.39731271579E+002
+1.81045056320E+007, +1.65623619768E+001, +2.41445166767E+002
+1.82295369212E+007, +1.66654931835E+001, +2.43287492347E+002
+1.83545682103E+007, +1.68778813544E+001, +2.45227269205E+002
+1.84795994994E+007, +1.68401008131E+001, +2.46735824865E+002
+1.86046307885E+007, +1.68443758500E+001, +2.48201672363E+002
+1.87296620776E+007, +1.65664854538E+001, +2.50258850233E+002
+1.88546933667E+007, +1.67022112279E+001, +2.52475051881E+002
+1.89797246558E+007, +1.65356698433E+001, +2.54230108063E+002
+1.91047559449E+007, +1.69352044875E+001, +2.56147994857E+002
+1.92297872340E+007, +1.66334135288E+001, +2.57312049581E+002
+1.93548185232E+007, +1.71961674475E+001, +2.60023284079E+002
+1.94798498123E+007, +1.69277617236E+001, +2.61583049645E+002
+1.96048811014E+007, +1.71933501275E+001, +2.63325949316E+002
+1.97299123905E+007, +1.70173459954E+001, +2.65266072568E+002
+1.98549436796E+007, +1.68788830616E+001, +2.67088571241E+002
+1.99799749687E+007, +1.71067180163E+001, +2.69070938834E+002
+2.01050062578E+007, +1.66077309931E+001, +2.70984775042E+002
+2.02300375469E+007, +1.72826537618E+001, +2.72513787478E+002
+2.03550688360E+007, +1.69310889855E+001, +2.74586612847E+002
+2.04801001252E+007, +1.71110584682E+001, +2.76480003230E+002
+2.06051314143E+007, +1.75521165692E+001, +2.77984290252E+002
+2.07301627034E+007, +1.76116560704E+001, +2.80165794218E+002
+2.08551939925E+007, +1.75212626169E+001, +2.82377966827E+002
+2.09802252816E+007, +1.73178544543E+001, +2.83907547894E+002
+2.11052565707E+007, +1.75500149796E+001, +2.86730815056E+002
+2.12302878598E+007, +1.78084543533E+001, +2.87682697479E+002
+2.13553191489E+007, +1.73641835787E+001, +2.89984225366E+002
+2.14803504380E+007, +1.77961990647E+001, +2.92016205932E+002
+2.16053817272E+007, +1.73162848525E+001, +2.93698755413E+002
+2.17304130163E+007, +1.76072959815E+001, +2.95418219147E+002
+2.18554443054E+007, +1.74266409460E+001, +2.97807589013E+002
+2.19804755945E+007, +1.76460999179E+001, +2.99562017913E+002
+2.21055068836E+007, +1.74296693722E+001, +3.01667383194E+002
+2.22305381727E+007, +1.79307380118E+001, +3.03351750767E+002
+2.23555694618E+007, +1.75204909113E+001, +3.05884632698E+002
+2.24806007509E+007, +1.75632939488E+001, +3.06952402177E+002
+2.26056320401E+007, +1.75335415521E+001, +3.08826190663E+002
+2.27306633292E+007, +1.80410599987E+001, +3.11227917155E+002
+2.28556946183E+007, +1.80890944972E+001, +3.13072986605E+002
+2.29807259074E+007, +1.82116580440E+001, +3.15580663889E+002
+2.31057571965E+007, +1.80416786652E+001, +3.17341842494E+002
+2.32307884856E+007, +1.85821442130E+001, +3.18862419484E+002
+2.33558197747E+007, +1.84591130549E+001, +3.21127022159E+002
+2.34808510638E+007, +1.89259958775E+001, +3.22262600170E+002
+2.36058823529E+007, +1.81513378266E+001, +3.24418807669E+002
+2.37309136421E+007, +1.84601888388E+001, +3.27587372547E+002
+2.38559449312E+007, +1.88401342101E+001, +3.28790117885E+002
+2.39809762203E+007, +1.95089151815E+001, +3.30620021823E+002
+2.41060075094E+007, +1.94489940585E+001, +3.33026635772E+002
+2.42310387985E+007, +1.88356005366E+001, +3.34813550570E+002
+2.43560700876E+007, +1.91614754119E+001, +3.36627907643E+002
+2.44811013767E+007, +1.88302856667E+001, +3.38877629904E+002
+2.46061326658E+007, +1.90947603656E+001, +3.41183570320E+002
+2.47311639549E+007, +1.93858413756E+001, +3.42654581482E+002
+2.48561952441E+007, +1.92484404050E+001, +3.44303148715E+002
+2.49812265332E+007, +1.92916567762E+001, +3.46246377463E+002
+2.51062578223E+007, +1.92485220526E+001, +3.47948569867E+002
+2.52312891114E+007, +1.91888033169E+001, +3.50089161878E+002
+2.53563204005E+007, +1.90212349120E+001, +3.53124061683E+002
+2.54813516896E+007, +1.91148380691E+001, +3.55166873111E+002
+2.56063829787E+007, +1.91115258772E+001, +3.56750154486E+002
+2.57314142678E+007, +1.92330538486E+001, +3.59040075470E+002
+2.58564455569E+007, +1.91058206648E+001, +3.61069275538E+002
+2.59814768461E+007, +1.92001039241E+001, +3.62331263262E+002
+2.61065081352E+007, +1.93759766024E+001, +3.65750153922E+002
+2.62315394243E+007, +1.91532030671E+001, +3.67718517155E+002
+2.63565707134E+007, +1.93250227143E+001, +3.69144255103E+002
+2.64816020025E+007, +1.86818305647E+001, +3.71455836017E+002
+2.66066332916E+007, +1.98168918637E+001, +3.73025639203E+002
+2.67316645807E+007, +1.99072581963E+001, +3.76143322021E+002
+2.68566958698E+007, +1.85133721022E+001, +3.77786714517E+002
+2.69817271589E+007, +1.96591060042E+001, +3.80618580205E+002
+2.71067584481E+007, +1.96499352534E+001, +3.82495331261E+002
+2.72317897372E+007, +1.96234821557E+001, +3.84356706233E+002
+2.73568210263E+007, +2.00513518061E+001, +3.86392189225E+002
+2.74818523154E+007, +1.97341563591E+001, +3.88297408627E+002
+2.76068836045E+007, +1.99603886458E+001, +3.89966713024E+002
+2.77319148936E+007, +2.00651933915E+001, +3.91912896132E+002
+2.78569461827E+007, +2.00824666612E+001, +3.94609258894E+002
+2.79819774718E+007, +2.04236642629E+001, +3.96860152843E+002
+2.81070087610E+007, +1.92840568411E+001, +3.99190820139E+002
+2.82320400501E+007, +1.91635373794E+001, +4.01072893167E+002
+2.83570713392E+007, +2.03795396345E+001, +4.03571585236E+002
+2.84821026283E+007, +1.96148899492E+001, +4.06069032605E+002
+2.86071339174E+007, +1.93767803845E+001, +4.08746224995E+002
+2.87321652065E+007, +1.99608203598E+001, +4.11367453147E+002
+2.88571964956E+007, +2.00658850445E+001, +4.12613738744E+002
+2.89822277847E+007, +2.05977869580E+001, +4.15189041919E+002
+2.91072590738E+007, +2.09380502133E+001, +4.17799552730E+002
+2.92322903630E+007, +2.04304709214E+001, +4.18730150187E+002
+2.93573216521E+007, +1.99761205740E+001, +4.22065661158E+002
+2.94823529412E+007, +1.96902880406E+001, +4.24074731595E+002
+2.96073842303E+007, +2.06386849390E+001, +4.26572808610E+002
+2.97324155194E+007, +2.01494226712E+001, +4.27805289440E+002
+2.98574468085E+007, +1.97887570953E+001, +4.31010012132E+002
+2.99824780976E+007, +1.96286821807E+001, +4.32925871877E+002
+3.01075093867E+007, +1.94422425329E+001, +4.35327862070E+002
+3.02325406758E+007, +2.04098192616E+001, +4.38587644979E+002
+3.03575719650E+007, +2.05006023405E+001, +4.41215805727E+002
+3.04826032541E+007, +1.97546606256E+001, +4.41927986129E+002
+3.06076345432E+007, +2.07310340942E+001, +4.44941607904E+002
+3.07326658323E+007, +2.10177771275E+001, +4.47459051544E+002
+3.08576971214E+007, +2.02944653624E+001, +4.50944487917E+002
+3.09827284105E+007, +2.01760608181E+001, +4.51979147171E+002
+3.11077596996E+007, +2.12478098113E+001, +4.54119959590E+002
+3.12327909887E+007, +2.06855933348E+001, +4.56860637629E+002
+3.13578222778E+007, +2.13067899900E+001, +4.58577935635E+002
+3.14828535670E+007, +2.05718518929E+001, +4.62723009759E+002
+3.16078848561E+007, +2.01344955388E+001, +4.62903398733E+002
+3.17329161452E+007, +2.12546560635E+001, +4.65634981441E+002
+3.18579474343E+007, +1.94592418835E+001, +4.71358253880E+002
+3.19829787234E+007, +2.09678212760E+001, +4.71214019226E+002
+3.21080100125E+007, +2.08527849778E+001, +4.73105842571E+002
+3.22330413016E+007, +2.13980726869E+001, +4.76609772476E+002
+3.23580725907E+007, +2.16440193932E+001, +4.79109443146E+002
+3.24831038798E+007, +2.15698900161E+001, +4.81004653408E+002
+3.26081351690E+007, +2.31219160569E+001, +4.83200622869E+002
+3.27331664581E+007, +2.06214392078E+001, +4.85815958666E+002
+3.28581977472E+007, +2.20757358358E+001, +4.88902329611E+002
+3.29832290363E+007, +2.12650136223E+001, +4.90402474161E+002
+3.31082603254E+007, +2.23129611541E+001, +4.93340016493E+002
+3.32332916145E+007, +2.26229114832E+001, +4.95894686823E+002
+3.33583229036E+007, +2.22464904244E+001, +4.99223278911E+002
+3.34833541927E+007, +2.17916466460E+001, +5.02626840211E+002
+3.36083854819E+007, +2.34110415940E+001, +5.03847266628E+002
+3.37334167710E+007, +2.40327034312E+001, +5.06320843872E+002
+3.38584480601E+007, +2.22843493450E+001, +5.09110730008E+002
+3.39834793492E+007, +2.23607022372E+001, +5.11395085223E+002
+3.41085106383E+007, +2.24707455145E+001, +5.13042866854E+002
+3.42335419274E+007, +2.32711859883E+001, +5.16903028873E+002
+3.43585732165E+007, +2.33466343201E+001, +5.18907127825E+002
+3.44836045056E+007, +2.28635853946E+001, +5.21054035139E+002
+3.46086357947E+007, +2.30548663994E+001, +5.24146181819E+002
+3.47336670839E+007, +2.37290436039E+001, +5.26781379890E+002
+3.48586983730E+007, +2.26852835433E+001, +5.30610802216E+002
+3.49837296621E+007, +2.29869007029E+001, +5.31486163641E+002
+3.51087609512E+007, +2.30986930826E+001, +5.36193924141E+002
+3.52337922403E+007, +2.28709210455E+001, +5.38531895805E+002
+3.53588235294E+007, +2.47882399802E+001, +5.40774208047E+002
+3.54838548185E+007, +2.38451259057E+001, +5.42993068045E+002
+3.56088861076E+007, +2.28891163641E+001, +5.46688750506E+002
+3.57339173967E+007, +2.34084035327E+001, +5.48303337192E+002
+3.58589486859E+007, +2.25308200746E+001, +5.50928907958E+002
+3.59839799750E+007, +2.37857694498E+001, +5.54011184727E+002
+3.61090112641E+007, +2.24848953171E+001, +5.55724015475E+002
+3.62340425532E+007, +2.37536245791E+001, +5.58623341398E+002
+3.63590738423E+007, +2.38955074004E+001, +5.61625684527E+002
+3.64841051314E+007, +2.32668090709E+001, +5.63884071664E+002
+3.66091364205E+007, +2.33805694550E+001, +5.68706621641E+002
+3.67341677096E+007, +2.38625163722E+001, +5.70649242029E+002
+3.68591989987E+007, +2.27221890654E+001, +5.73994338585E+002
+3.69842302879E+007, +2.39450101518E+001, +5.75941228053E+002
+3.71092615770E+007, +2.39807635919E+001, +5.78352507719E+002
+3.72342928661E+007, +2.21273959664E+001, +5.82448686019E+002
+3.73593241552E+007, +2.38417224847E+001, +5.84066536345E+002
+3.74843554443E+007, +2.44123493805E+001, +5.86659766504E+002
+3.76093867334E+007, +2.33736812487E+001, +5.90265596719E+002
+3.77344180225E+007, +2.50077958435E+001, +5.93463168339E+002
+3.78594493116E+007, +2.40266623258E+001, +5.97546070943E+002
+3.79844806008E+007, +2.48654270720E+001, +5.99658189208E+002
+3.81095118899E+007, +2.41236931865E+001, +6.02321329062E+002
+3.82345431790E+007, +2.38939625310E+001, +6.04570916760E+002
+3.83595744681E+007, +2.30405236528E+001, +6.08492499678E+002
+3.84846057572E+007, +2.64271340392E+001, +6.09641952601E+002
+3.86096370463E+007, +2.68184234897E+001, +6.14839730282E+002
+3.87346683354E+007, +2.47440393865E+001, +6.16770716498E+002
+3.88596996245E+007, +2.54911616865E+001, +6.20394695869E+002
+3.89847309136E+007, +2.56389336527E+001, +6.24827501791E+002
+3.91097622028E+007, +2.52889493153E+001, +6.29476999191E+002
+3.92347934919E+007, +2.71402912712E+001, +6.30369728927E+002
+3.93598247810E+007, +2.63770642429E+001, +6.32056698621E+002
+3.94848560701E+007, +2.57540148655E+001, +6.35101116052E+002
+3.96098873592E+007, +2.55208259481E+001, +6.41343786332E+002
+3.97349186483E+007, +2.61527803586E+001, +6.43091444378E+002
+3.98599499374E+007, +2.50173797227E+001, +6.47963048415E+002
+3.99849812265E+007, +2.51259405361E+001, +6.50415463561E+002
+4.01100125156E+007, +2.72359311461E+001, +6.54605102676E+002
