"# Channel 1"
"# Trace 1"
Frequency, Formatted Data, Formatted Data
+1.00000000000E+005, +1.75782063031E+001, +1.30794602999E+000
+2.66777963272E+005, +1.75864152893E+001, +3.53782710878E+000
+4.33555926544E+005, +1.75841293407E+001, +5.74147824609E+000
+6.00333889816E+005, +1.76099884117E+001, +7.91636461173E+000
+7.67111853088E+005, +1.76168792043E+001, +1.01321455389E+001
+9.33889816361E+005, +1.75988491719E+001, +1.22828417599E+001
+1.10066777963E+006, +1.75909839400E+001, +1.45364297443E+001
+1.26744574290E+006, +1.76230729016E+001, +1.66694224471E+001
+1.43422370618E+006, +1.75839025272E+001, +1.89065310353E+001
+1.60100166945E+006, +1.76512983477E+001, +2.10194266489E+001
+1.76777963272E+006, +1.76391875735E+001, +2.32540266849E+001
+1.93455759599E+006, +1.76198449516E+001, +2.53790689948E+001
+2.10133555927E+006, +1.76379926229E+001, +2.75728200448E+001
+2.26811352254E+006, +1.76673435188E+001, +2.97414467794E+001
+2.43489148581E+006, +1.76709590217E+001, +3.19695096081E+001
+2.60166944908E+006, +1.76700717102E+001, +3.40518000463E+001
+2.76844741235E+006, +1.76600340440E+001, +3.63321724266E+001
+2.93522537563E+006, +1.76287453651E+001, +3.84780517160E+001
+3.10200333890E+006, +1.77127462336E+001, +4.06350437155E+001
+3.26878130217E+006, +1.75893719957E+001, +4.28944575972E+001
+3.43555926544E+006, +1.76497960011E+001, +4.50215413618E+001
+3.60233722871E+006, +1.77160262350E+001, +4.72163257077E+001
+3.76911519199E+006, +1.76808789238E+001, +4.94870031454E+001
+3.93589315526E+006, +1.75762677181E+001, +5.15304235361E+001
+4.10267111853E+006, +1.76192616473E+001, +5.38323526556E+001
+4.26944908180E+006, +1.76794968931E+001, +5.60290437902E+001
+4.43622704508E+006, +1.76200297626E+001, +5.81518586208E+001
+4.60300500835E+006, +1.76914295399E+001, +6.04080154725E+001
+4.76978297162E+006, +1.76162387651E+001, +6.24803174711E+001
+4.93656093489E+006, +1.77622835110E+001, +6.47950330205E+001
+5.10333889816E+006, +1.76665572508E+001, +6.68479551907E+001
+5.27011686144E+006, +1.78505960642E+001, +6.92486742738E+001
+5.43689482471E+006, +1.77271522947E+001, +7.12872743032E+001
+5.60367278798E+006, +1.77519079032E+001, +7.36355145579E+001
+5.77045075125E+006, +1.76861407360E+001, +7.57298008799E+001
+5.93722871452E+006, +1.78486732181E+001, +7.79502654286E+001
+6.10400667780E+006, +1.77859520870E+001, +8.01244521273E+001
+6.27078464107E+006, +1.78391990547E+001, +8.22845883957E+001
+6.43756260434E+006, +1.78704534836E+001, +8.45306473289E+001
+6.60434056761E+006, +1.78380223906E+001, +8.66435460244E+001
+6.77111853088E+006, +1.79890675601E+001, +8.88528411165E+001
+6.93789649416E+006, +1.79287599713E+001, +9.10833994887E+001
+7.10467445743E+006, +1.78852589838E+001, +9.32703835648E+001
+7.27145242070E+006, +1.79538075056E+001, +9.54406139606E+001
+7.43823038397E+006, +1.79743904933E+001, +9.75811772999E+001
+7.60500834725E+006, +1.78770403368E+001, +9.97903920420E+001
+7.77178631052E+006, +1.79415269071E+001, +1.02077829687E+002
+7.93856427379E+006, +1.79672299791E+001, +1.04166202174E+002
+8.10534223706E+006, +1.80245610384E+001, +1.06423193599E+002
+8.27212020033E+006, +1.79918810986E+001, +1.08554447021E+002
+8.43889816361E+006, +1.79516964600E+001, +1.10807258489E+002
+8.60567612688E+006, +1.79037511335E+001, +1.13038808252E+002
+8.77245409015E+006, +1.79398537419E+001, +1.15202431778E+002
+8.93923205342E+006, +1.79680644886E+001, +1.17453680984E+002
+9.10601001669E+006, +1.79725069262E+001, +1.19637240738E+002
+9.27278797997E+006, +1.79403420184E+001, +1.21850954708E+002
+9.43956594324E+006, +1.79378055885E+001, +1.24038326556E+002
+9.60634390651E+006, +1.79282696760E+001, +1.26264462308E+002
+9.77312186978E+006, +1.78930771130E+001, +1.28462472346E+002
+9.93989983306E+006, +1.80799926398E+001, +1.30773478583E+002
+1.01066777963E+007, +1.78713462123E+001, +1.32857968729E+002
+1.02734557596E+007, +1.80149030730E+001, +1.35207724518E+002
+1.04402337229E+007, +1.79788211534E+001, +1.37319648993E+002
+1.06070116861E+007, +1.79225523632E+001, +1.39607227586E+002
+1.07737896494E+007, +1.79238540285E+001, +1.41798643551E+002
+1.09405676127E+007, +1.80456141716E+001, +1.43961601717E+002
+1.11073455760E+007, +1.79572454947E+001, +1.46347451557E+002
+1.12741235392E+007, +1.80268599644E+001, +1.48445095947E+002
+1.14409015025E+007, +1.81919339249E+001, +1.50597009448E+002
+1.16076794658E+007, +1.80599108428E+001, +1.52818161936E+002
+1.17744574290E+007, +1.80795247341E+001, +1.55328732281E+002
+1.19412353923E+007, +1.80189832548E+001, +1.57351842765E+002
+1.21080133556E+007, +1.78607346582E+001, +1.59763964145E+002
+1.22747913189E+007, +1.80511215892E+001, +1.61957576240E+002
+1.24415692821E+007, +1.79882306188E+001, +1.64095708809E+002
+1.26083472454E+007, +1.79786017296E+001, +1.66400204193E+002
+1.27751252087E+007, +1.80538665857E+001, +1.68508537400E+002
+1.29419031720E+007, +1.80334997206E+001, +1.70715936004E+002
+1.31086811352E+007, +1.81087977478E+001, +1.73078864424E+002
+1.32754590985E+007, +1.81542706735E+001, +1.75344018905E+002
+1.34422370618E+007, +1.81420714958E+001, +1.77607161176E+002
+1.36090150250E+007, +1.82104554850E+001, +1.79692217008E+002
+1.37757929883E+007, +1.81637852774E+001, +1.81975734451E+002
+1.39425709516E+007, +1.82653119198E+001, +1.84200063200E+002
+1.41093489149E+007, +1.82303199170E+001, +1.86470921516E+002
+1.42761268781E+007, +1.84019896955E+001, +1.88699347291E+002
+1.44429048414E+007, +1.82471986850E+001, +1.91023359660E+002
+1.46096828047E+007, +1.82215599945E+001, +1.93362490898E+002
+1.47764607679E+007, +1.84815102853E+001, +1.95355728430E+002
+1.49432387312E+007, +1.82138083274E+001, +1.97842674438E+002
+1.51100166945E+007, +1.81317436994E+001, +2.00169712933E+002
+1.52767946578E+007, +1.83994221712E+001, +2.02078622704E+002
+1.54435726210E+007, +1.82412213004E+001, +2.04300260817E+002
+1.56103505843E+007, +1.85715080108E+001, +2.06563714975E+002
+1.57771285476E+007, +1.82964873455E+001, +2.08958469183E+002
+1.59439065109E+007, +1.83768405819E+001, +2.11091842740E+002
+1.61106844741E+007, +1.82272490743E+001, +2.13559181975E+002
+1.62774624374E+007, +1.83540420186E+001, +2.15725877657E+002
+1.64442404007E+007, +1.82875830644E+001, +2.18123066177E+002
+1.66110183639E+007, +1.85373837135E+001, +2.20332961654E+002
+1.67777963272E+007, +1.83602704295E+001, +2.22784840322E+002
+1.69445742905E+007, +1.83048963690E+001, +2.24991313097E+002
+1.71113522538E+007, +1.79942478648E+001, +2.26933813177E+002
+1.72781302170E+007, +1.85311384897E+001, +2.29573290074E+002
+1.74449081803E+007, +1.81756864190E+001, +2.31652492020E+002
+1.76116861436E+007, +1.86238052084E+001, +2.34139399588E+002
+1.77784641068E+007, +1.83814950013E+001, +2.36072851699E+002
+1.79452420701E+007, +1.85143745074E+001, +2.38491025555E+002
+1.81120200334E+007, +1.84919497477E+001, +2.41016473253E+002
+1.82787979967E+007, +1.87224456915E+001, +2.43140560923E+002
+1.84455759599E+007, +1.88182157920E+001, +2.45492080157E+002
+1.86123539232E+007, +1.89070220649E+001, +2.47633543012E+002
+1.87791318865E+007, +1.85315685295E+001, +2.50119142898E+002
+1.89459098497E+007, +1.86362559635E+001, +2.52281427756E+002
+1.91126878130E+007, +1.89582166185E+001, +2.54600940768E+002
+1.92794657763E+007, +1.88781039188E+001, +2.56914398060E+002
+1.94462437396E+007, +1.89296702043E+001, +2.59540356119E+002
+1.96130217028E+007, +1.89463626876E+001, +2.61856577912E+002
+1.97797996661E+007, +1.89666726868E+001, +2.63761104036E+002
+1.99465776294E+007, +1.86232528825E+001, +2.66366921194E+002
+2.01133555927E+007, +1.87173436404E+001, +2.68762936452E+002
+2.02801335559E+007, +1.88129996206E+001, +2.71014126837E+002
+2.04469115192E+007, +1.93070420479E+001, +2.73376165074E+002
+2.06136894825E+007, +1.93890324644E+001, +2.75528733155E+002
+2.07804674457E+007, +1.92975487696E+001, +2.77696415772E+002
+2.09472454090E+007, +1.93070755181E+001, +2.80524447104E+002
+2.11140233723E+007, +1.94715480961E+001, +2.82293676642E+002
+2.12808013356E+007, +1.93291144610E+001, +2.84691562380E+002
+2.14475792988E+007, +1.94685999714E+001, +2.87213769758E+002
+2.16143572621E+007, +1.95637617073E+001, +2.89500466336E+002
+2.17811352254E+007, +1.97610269655E+001, +2.91720098462E+002
+2.19479131886E+007, +2.04360153851E+001, +2.94363554880E+002
+2.21146911519E+007, +1.98466981365E+001, +2.96147239332E+002
+2.22814691152E+007, +1.95999750679E+001, +2.98725165423E+002
+2.24482470785E+007, +1.99597151375E+001, +3.01012456757E+002
+2.26150250417E+007, +2.05990174970E+001, +3.03265427715E+002
+2.27818030050E+007, +2.04115809457E+001, +3.06002781864E+002
+2.29485809683E+007, +2.08427568203E+001, +3.08499355065E+002
+2.31153589316E+007, +2.02734756415E+001, +3.10625501249E+002
+2.32821368948E+007, +2.10139065035E+001, +3.13245241356E+002
+2.34489148581E+007, +2.07158519863E+001, +3.14975756292E+002
+2.36156928214E+007, +2.12409693452E+001, +3.17440501168E+002
+2.37824707846E+007, +2.09399751902E+001, +3.20164635205E+002
+2.39492487479E+007, +2.05791812174E+001, +3.22173536935E+002
+2.41160267112E+007, +2.09265395878E+001, +3.24006687731E+002
+2.42828046745E+007, +2.06183872621E+001, +3.27362771845E+002
+2.44495826377E+007, +2.13708327636E+001, +3.29485034535E+002
+2.46163606010E+007, +2.11354817045E+001, +3.31824975558E+002
+2.47831385643E+007, +2.11538991632E+001, +3.33710603746E+002
+2.49499165275E+007, +2.18557148805E+001, +3.36553028714E+002
+2.51166944908E+007, +2.20658522164E+001, +3.38119164433E+002
+2.52834724541E+007, +2.18753443839E+001, +3.40957204383E+002
+2.54502504174E+007, +2.20751890792E+001, +3.43577601446E+002
+2.56170283806E+007, +2.19162953524E+001, +3.45788256405E+002
+2.57838063439E+007, +2.17970161698E+001, +3.48512539615E+002
+2.59505843072E+007, +2.21374905051E+001, +3.50751850137E+002
+2.61173622705E+007, +2.18183044395E+001, +3.52873088136E+002
+2.62841402337E+007, +2.23207515688E+001, +3.55958061427E+002
+2.64509181970E+007, +2.20530433070E+001, +3.57961680443E+002
+2.66176961603E+007, +2.18197004710E+001, +3.60981272265E+002
+2.67844741235E+007, +2.19160972912E+001, +3.63510081360E+002
+2.69512520868E+007, +2.24125973822E+001, +3.65039350502E+002
+2.71180300501E+007, +2.27408559553E+001, +3.66171022743E+002
+2.72848080134E+007, +2.27968702209E+001, +3.69757162690E+002
+2.74515859766E+007, +2.32854766551E+001, +3.72230690350E+002
+2.76183639399E+007, +2.24522453080E+001, +3.73992546459E+002
+2.77851419032E+007, +2.26753972730E+001, +3.76338605004E+002
+2.79519198664E+007, +2.28143628863E+001, +3.79226725061E+002
+2.81186978297E+007, +2.29983664487E+001, +3.80175878484E+002
+2.82854757930E+007, +2.33116313181E+001, +3.82990237247E+002
+2.84522537563E+007, +2.19589186178E+001, +3.85711652861E+002
+2.86190317195E+007, +2.23691456246E+001, +3.88742772034E+002
+2.87858096828E+007, +2.34622230744E+001, +3.90979392716E+002
+2.89525876461E+007, +2.30587057955E+001, +3.93960976550E+002
+2.91193656093E+007, +2.27305487116E+001, +3.94739631298E+002
+2.92861435726E+007, +2.27008933600E+001, +3.97599544887E+002
+2.94529215359E+007, +2.32372645101E+001, +4.01054143943E+002
+2.96196994992E+007, +2.39520483234E+001, +4.03245178863E+002
+2.97864774624E+007, +2.38909329326E+001, +4.05894963747E+002
+2.99532554257E+007, +2.39889553627E+001, +4.08432566690E+002
+3.01200333890E+007, +2.38696760681E+001, +4.10979933654E+002
+3.02868113523E+007, +2.31933840501E+001, +4.13392828637E+002
+3.04535893155E+007, +2.33213683395E+001, +4.16619324961E+002
+3.06203672788E+007, +2.40830506571E+001, +4.17700988107E+002
+3.07871452421E+007, +2.40395519344E+001, +4.20286394963E+002
+3.09539232053E+007, +2.40077744887E+001, +4.22045955530E+002
+3.11207011686E+007, +2.34485484490E+001, +4.26114834254E+002
+3.12874791319E+007, +2.39017717142E+001, +4.27827431297E+002
+3.14542570952E+007, +2.29846690520E+001, +4.30183064578E+002
+3.16210350584E+007, +2.34167897432E+001, +4.32792945763E+002
+3.17878130217E+007, +2.36966765399E+001, +4.35297862682E+002
+3.19545909850E+007, +2.35878475145E+001, +4.38804854268E+002
+3.21213689482E+007, +2.38220152443E+001, +4.40804614313E+002
+3.22881469115E+007, +2.38381514965E+001, +4.42921816779E+002
+3.24549248748E+007, +2.42812647157E+001, +4.46075771446E+002
+3.26217028381E+007, +2.42480399963E+001, +4.47557595860E+002
+3.27884808013E+007, +2.47371380785E+001, +4.50419714783E+002
+3.29552587646E+007, +2.40803328216E+001, +4.53267033503E+002
+3.31220367279E+007, +2.45460422154E+001, +4.55285304309E+002
+3.32888146912E+007, +2.41454942910E+001, +4.59313509781E+002
+3.34555926544E+007, +2.24207246203E+001, +4.60653128002E+002
+3.36223706177E+007, +2.39879361597E+001, +4.63326651915E+002
+3.37891485810E+007, +2.42444557715E+001, +4.65026345334E+002
+3.39559265442E+007, +2.46391962913E+001, +4.70236577844E+002
+3.41227045075E+007, +2.37990777044E+001, +4.71167803363E+002
+3.42894824708E+007, +2.46148434232E+001, +4.73688191145E+002
+3.44562604341E+007, +2.48977428161E+001, +4.76651888223E+002
+3.46230383973E+007, +2.52026616675E+001, +4.79703204876E+002
+3.47898163606E+007, +2.44791067922E+001, +4.80465311350E+002
+3.49565943239E+007, +2.58441269078E+001, +4.85080338597E+002
+3.51233722871E+007, +2.48208102702E+001, +4.87385056402E+002
+3.52901502504E+007, +2.54288670459E+001, +4.88898045741E+002
+3.54569282137E+007, +2.46541064944E+001, +4.93168642502E+002
+3.56237061770E+007, +2.42907896885E+001, +4.94333755275E+002
+3.57904841402E+007, +2.48573422809E+001, +4.97943840997E+002
+3.59572621035E+007, +2.66246021693E+001, +5.00748756457E+002
+3.61240400668E+007, +2.52362630159E+001, +5.02918632938E+002
+3.62908180301E+007, +2.59962454286E+001, +5.07467530052E+002
+3.64575959933E+007, +2.51067608813E+001, +5.07700565190E+002
+3.66243739566E+007, +2.59783943056E+001, +5.10739818706E+002
+3.67911519199E+007, +2.55506349681E+001, +5.15683062816E+002
+3.69579298831E+007, +2.45688472329E+001, +5.16177608289E+002
+3.71247078464E+007, +2.59655306055E+001, +5.19897973012E+002
+3.72914858097E+007, +2.55584899180E+001, +5.24467756700E+002
+3.74582637730E+007, +2.70922683550E+001, +5.27279829670E+002
+3.76250417362E+007, +2.61010901295E+001, +5.29266511186E+002
+3.77918196995E+007, +2.60108442213E+001, +5.29970793642E+002
+3.79585976628E+007, +2.69005999042E+001, +5.34350693510E+002
+3.81253756260E+007, +2.65365099320E+001, +5.37211397871E+002
+3.82921535893E+007, +2.71684712294E+001, +5.39860569883E+002
+3.84589315526E+007, +2.83353675677E+001, +5.43466964212E+002
+3.86257095159E+007, +2.59446578851E+001, +5.46076573447E+002
+3.87924874791E+007, +2.62484725658E+001, +5.49497548654E+002
+3.89592654424E+007, +2.66501314577E+001, +5.51586330510E+002
+3.91260434057E+007, +2.74666588035E+001, +5.54781745298E+002
+3.92928213689E+007, +2.75405577803E+001, +5.56977130695E+002
+3.94595993322E+007, +2.75354288870E+001, +5.60017520868E+002
+3.96263772955E+007, +2.69258171068E+001, +5.62763858993E+002
+3.97931552588E+007, +2.75115605172E+001, +5.65798128717E+002
+3.99599332220E+007, +2.74291945003E+001, +5.69007534881E+002
+4.01267111853E+007, +2.71064276987E+001, +5.71498855122E+002
+4.02934891486E+007, +2.64359551381E+001, +5.74421024991E+002
+4.04602671119E+007, +2.96522792641E+001, +5.77725894396E+002
+4.06270450751E+007, +2.84586397245E+001, +5.82098419680E+002
+4.07938230384E+007, +2.93162977010E+001, +5.84320938811E+002
+4.09606010017E+007, +2.76780922723E+001, +5.87298212768E+002
+4.11273789649E+007, +2.95013258283E+001, +5.88747959291E+002
+4.12941569282E+007, +2.77362685672E+001, +5.92665144350E+002
+4.14609348915E+007, +2.84119449865E+001, +5.96889517279E+002
+4.16277128548E+007, +2.92254529643E+001, +5.99538887370E+002
+4.17944908180E+007, +2.91005660998E+001, +6.01816642163E+002
+4.19612687813E+007, +2.85385574958E+001, +6.06014429440E+002
+4.21280467446E+007, +2.78649673899E+001, +6.08045676358E+002
+4.22948247078E+007, +2.96560695659E+001, +6.10890432182E+002
+4.24616026711E+007, +3.04536121004E+001, +6.14625536883E+002
+4.26283806344E+007, +2.95346183242E+001, +6.18326805377E+002
+4.27951585977E+007, +2.77756443758E+001, +6.23147823038E+002
+4.29619365609E+007, +3.17914905460E+001, +6.24897456535E+002
+4.31287145242E+007, +3.00590163324E+001, +6.28364452512E+002
+4.32954924875E+007, +3.30785887966E+001, +6.30071210078E+002
+4.34622704508E+007, +2.90160484304E+001, +6.35816483710E+002
+4.36290484140E+007, +3.17306257727E+001, +6.37757113316E+002
+4.37958263773E+007, +2.93766236391E+001, +6.43620110143E+002
+4.39626043406E+007, +3.14177354391E+001, +6.44421676325E+002
+4.41293823038E+007, +3.25275263422E+001, +6.49627593327E+002
+4.42961602671E+007, +3.14341997273E+001, +6.51801588325E+002
+4.44629382304E+007, +3.17315441016E+001, +6.55452930732E+002
+4.46297161937E+007, +3.14585033563E+001, +6.57946929736E+002
+4.47964941569E+007, +3.28330184791E+001, +6.61405076395E+002
+4.49632721202E+007, +3.17350666464E+001, +6.66005061385E+002
+4.51300500835E+007, +3.09301933988E+001, +6.67628598362E+002
+4.52968280467E+007, +3.38467066330E+001, +6.74359918769E+002
+4.54636060100E+007, +3.36365859050E+001, +6.77969218186E+002
+4.56303839733E+007, +3.29042999073E+001, +6.81613541993E+002
+4.57971619366E+007, +3.28386845543E+001, +6.86276218613E+002
+4.59639398998E+007, +3.36980877815E+001, +6.90102442637E+002
+4.61307178631E+007, +3.50116799817E+001, +6.90352234308E+002
+4.62974958264E+007, +3.42804090006E+001, +6.96542799013E+002
+4.64642737896E+007, +3.33727652606E+001, +6.99479474898E+002
+4.66310517529E+007, +3.38681834458E+001, +7.04668532812E+002
+4.67978297162E+007, +3.78804874666E+001, +7.06731663540E+002
+4.69646076795E+007, +3.60548145689E+001, +7.12172528476E+002
+4.71313856427E+007, +3.53272056935E+001, +7.13897337494E+002
+4.72981636060E+007, +3.53799086299E+001, +7.21337821981E+002
+4.74649415693E+007, +3.42984646780E+001, +7.25263498399E+002
+4.76317195326E+007, +3.92670107680E+001, +7.25753427186E+002
+4.77984974958E+007, +3.99292285677E+001, +7.32742925139E+002
+4.79652754591E+007, +4.06416926885E+001, +7.35352621322E+002
+4.81320534224E+007, +4.24177317426E+001, +7.37961699811E+002
+4.82988313856E+007, +4.25370325995E+001, +7.42899004821E+002
+4.84656093489E+007, +4.29688505762E+001, +7.44474225448E+002
+4.86323873122E+007, +4.44486827002E+001, +7.47865295897E+002
+4.87991652755E+007, +4.29581203867E+001, +7.54996805159E+002
+4.89659432387E+007, +4.32186020128E+001, +7.57418198741E+002
+4.91327212020E+007, +4.62308090344E+001, +7.61004987085E+002
+4.92994991653E+007, +4.80917282757E+001, +7.66043589017E+002
+4.94662771285E+007, +5.09283651264E+001, +7.69708163839E+002
+4.96330550918E+007, +5.00222616090E+001, +7.72045756340E+002
+4.97998330551E+007, +5.26982001978E+001, +7.75254193155E+002
+4.99666110184E+007, +5.33994020182E+001, +7.79317210676E+002
+5.01333889816E+007, +5.43703568581E+001, +7.84313998930E+002
+5.03001669449E+007, +5.09755171486E+001, +7.86949640238E+002
+5.04669449082E+007, +5.55693509739E+001, +7.93106731804E+002
+5.06337228715E+007, +5.48980961918E+001, +7.95812334330E+002
+5.08005008347E+007, +5.16164461028E+001, +7.96662740556E+002
+5.09672787980E+007, +5.65604975810E+001, +8.01412919840E+002
+5.11340567613E+007, +5.59479286109E+001, +8.08110096195E+002
+5.13008347245E+007, +5.60575844502E+001, +8.11047387355E+002
+5.14676126878E+007, +5.70410871085E+001, +8.12271065740E+002
+5.16343906511E+007, +5.61635533261E+001, +8.18083428042E+002
+5.18011686144E+007, +5.61274606777E+001, +8.19174843697E+002
+5.19679465776E+007, +5.62453322455E+001, +8.23015134151E+002
+5.21347245409E+007, +5.41265241270E+001, +8.30053866397E+002
+5.23015025042E+007, +5.62418505359E+001, +8.37841247077E+002
+5.24682804674E+007, +5.41744758543E+001, +8.42902543107E+002
+5.26350584307E+007, +5.51188436674E+001, +8.43774345396E+002
+5.28018363940E+007, +5.53518254821E+001, +8.47218535636E+002
+5.29686143573E+007, +5.52342081326E+001, +8.53526781224E+002
+5.31353923205E+007, +5.24780179883E+001, +8.53936674301E+002
+5.33021702838E+007, +5.19751803714E+001, +8.61866046009E+002
+5.34689482471E+007, +5.45906464478E+001, +8.71437118430E+002
