"# Channel 1"
"# Trace 1"
Frequency, Formatted Data, Formatted Data
+1.00000000000E+005, +1.87377272433E+001, +1.34522676379E+000
+2.66777963272E+005, +1.86910598261E+001, +3.66953185882E+000
+4.33555926544E+005, +1.87198746098E+001, +5.94620234542E+000
+6.00333889816E+005, +1.87355586957E+001, +8.20038577861E+000
+7.67111853088E+005, +1.87646233140E+001, +1.04876073535E+001
+9.33889816361E+005, +1.87522554076E+001, +1.27599071249E+001
+1.10066777963E+006, +1.87367576336E+001, +1.51054579012E+001
+1.26744574290E+006, +1.87579345793E+001, +1.73312035196E+001
+1.43422370618E+006, +1.87169223882E+001, +1.96510548036E+001
+1.60100166945E+006, +1.87890242973E+001, +2.18529620111E+001
+1.76777963272E+006, +1.87495629597E+001, +2.41666459269E+001
+1.93455759599E+006, +1.87454001646E+001, +2.63864455008E+001
+2.10133555927E+006, +1.87390779346E+001, +2.86653583315E+001
+2.26811352254E+006, +1.87532647937E+001, +3.09834375647E+001
+2.43489148581E+006, +1.87692272272E+001, +3.32740081682E+001
+2.60166944908E+006, +1.87648423962E+001, +3.54476538394E+001
+2.76844741235E+006, +1.87864334577E+001, +3.78481966681E+001
+2.93522537563E+006, +1.87715425008E+001, +4.00849248596E+001
+3.10200333890E+006, +1.88389088112E+001, +4.22607357117E+001
+3.26878130217E+006, +1.87248870770E+001, +4.47195886901E+001
+3.43555926544E+006, +1.87690660132E+001, +4.68642730761E+001
+3.60233722871E+006, +1.88999582858E+001, +4.91999497068E+001
+3.76911519199E+006, +1.88059349227E+001, +5.14960842921E+001
+3.93589315526E+006, +1.87507573556E+001, +5.37242070517E+001
+4.10267111853E+006, +1.88645998485E+001, +5.61832322832E+001
+4.26944908180E+006, +1.88800946379E+001, +5.84553704346E+001
+4.43622704508E+006, +1.87535177222E+001, +6.06622970338E+001
+4.60300500835E+006, +1.89100614342E+001, +6.30137827460E+001
+4.76978297162E+006, +1.88491185208E+001, +6.51956748245E+001
+4.93656093489E+006, +1.89395610304E+001, +6.75956048361E+001
+5.10333889816E+006, +1.89097761679E+001, +6.98262004885E+001
+5.27011686144E+006, +1.90185865276E+001, +7.22707414346E+001
+5.43689482471E+006, +1.88988390684E+001, +7.45091364828E+001
+5.60367278798E+006, +1.90468275072E+001, +7.69458634599E+001
+5.77045075125E+006, +1.90191909962E+001, +7.90492808163E+001
+5.93722871452E+006, +1.90238312382E+001, +8.14522160767E+001
+6.10400667780E+006, +1.90810114646E+001, +8.37874662028E+001
+6.27078464107E+006, +1.91416976580E+001, +8.60589360080E+001
+6.43756260434E+006, +1.91768624341E+001, +8.84168498248E+001
+6.60434056761E+006, +1.91849353979E+001, +9.07074694908E+001
+6.77111853088E+006, +1.93311798703E+001, +9.30228277377E+001
+6.93789649416E+006, +1.92481624462E+001, +9.54171065032E+001
+7.10467445743E+006, +1.92301512452E+001, +9.76535276034E+001
+7.27145242070E+006, +1.93011274475E+001, +9.99883584133E+001
+7.43823038397E+006, +1.93539070570E+001, +1.02300129206E+002
+7.60500834725E+006, +1.92664602871E+001, +1.04682463477E+002
+7.77178631052E+006, +1.94365892819E+001, +1.07080081612E+002
+7.93856427379E+006, +1.94015579715E+001, +1.09248956530E+002
+8.10534223706E+006, +1.94019108054E+001, +1.11645724608E+002
+8.27212020033E+006, +1.95045515145E+001, +1.14062115666E+002
+8.43889816361E+006, +1.93894528890E+001, +1.16408760456E+002
+8.60567612688E+006, +1.94001976348E+001, +1.18773790529E+002
+8.77245409015E+006, +1.94297957753E+001, +1.21060623156E+002
+8.93923205342E+006, +1.94712145773E+001, +1.23516787158E+002
+9.10601001669E+006, +1.95017952652E+001, +1.25945748335E+002
+9.27278797997E+006, +1.94856698678E+001, +1.28267698646E+002
+9.43956594324E+006, +1.95887410492E+001, +1.30610825983E+002
+9.60634390651E+006, +1.95308850117E+001, +1.33020932966E+002
+9.77312186978E+006, +1.95419152252E+001, +1.35367811449E+002
+9.93989983306E+006, +1.96225276911E+001, +1.37858427133E+002
+1.01066777963E+007, +1.95426662862E+001, +1.40158238594E+002
+1.02734557596E+007, +1.96803143772E+001, +1.42690866954E+002
+1.04402337229E+007, +1.95835167942E+001, +1.45062574595E+002
+1.06070116861E+007, +1.95599971254E+001, +1.47440252013E+002
+1.07737896494E+007, +1.96943730244E+001, +1.49967565927E+002
+1.09405676127E+007, +1.97478440539E+001, +1.52372777138E+002
+1.11073455760E+007, +1.98492158147E+001, +1.54786413990E+002
+1.12741235392E+007, +1.98040498977E+001, +1.57131534100E+002
+1.14409015025E+007, +1.99580176169E+001, +1.59697040129E+002
+1.16076794658E+007, +1.99295276043E+001, +1.62120773348E+002
+1.17744574290E+007, +2.00653320014E+001, +1.64785059753E+002
+1.19412353923E+007, +1.99133831806E+001, +1.66971364338E+002
+1.21080133556E+007, +1.97235689767E+001, +1.69639294365E+002
+1.22747913189E+007, +2.00490275831E+001, +1.72147397343E+002
+1.24415692821E+007, +2.00604410767E+001, +1.74497016030E+002
+1.26083472454E+007, +1.98405369098E+001, +1.77015164607E+002
+1.27751252087E+007, +2.00488120013E+001, +1.79471952711E+002
+1.29419031720E+007, +2.00023390964E+001, +1.81753379365E+002
+1.31086811352E+007, +2.01788338649E+001, +1.84552260005E+002
+1.32754590985E+007, +2.02378881083E+001, +1.86873057084E+002
+1.34422370618E+007, +2.01260076204E+001, +1.89412382231E+002
+1.36090150250E+007, +2.04224261488E+001, +1.91895886814E+002
+1.37757929883E+007, +2.03103838283E+001, +1.94467957646E+002
+1.39425709516E+007, +2.03760404275E+001, +1.96919558821E+002
+1.41093489149E+007, +2.05859535879E+001, +1.99425997752E+002
+1.42761268781E+007, +2.04043110762E+001, +2.02195562920E+002
+1.44429048414E+007, +2.05937009618E+001, +2.04498884924E+002
+1.46096828047E+007, +2.06095512480E+001, +2.07258014263E+002
+1.47764607679E+007, +2.09025287125E+001, +2.09753336871E+002
+1.49432387312E+007, +2.06308379038E+001, +2.12242476099E+002
+1.51100166945E+007, +2.07090982708E+001, +2.15036413814E+002
+1.52767946578E+007, +2.09271047839E+001, +2.17386657116E+002
+1.54435726210E+007, +2.08906296021E+001, +2.19780358761E+002
+1.56103505843E+007, +2.11818712418E+001, +2.22547139372E+002
+1.57771285476E+007, +2.08034015467E+001, +2.24974644022E+002
+1.59439065109E+007, +2.10473211145E+001, +2.27965914407E+002
+1.61106844741E+007, +2.09222803484E+001, +2.30615396980E+002
+1.62774624374E+007, +2.11400193671E+001, +2.33101473494E+002
+1.64442404007E+007, +2.09359694476E+001, +2.35784530994E+002
+1.66110183639E+007, +2.13016522653E+001, +2.38601285115E+002
+1.67777963272E+007, +2.12786839058E+001, +2.41221814765E+002
+1.69445742905E+007, +2.14296005617E+001, +2.43791917952E+002
+1.71113522538E+007, +2.06751577816E+001, +2.46267817745E+002
+1.72781302170E+007, +2.11157704324E+001, +2.48994830637E+002
+1.74449081803E+007, +2.09072824672E+001, +2.51716868484E+002
+1.76116861436E+007, +2.14922504475E+001, +2.54464604511E+002
+1.77784641068E+007, +2.13549000648E+001, +2.56882674718E+002
+1.79452420701E+007, +2.16645274760E+001, +2.59829200707E+002
+1.81120200334E+007, +2.16271500075E+001, +2.62267956242E+002
+1.82787979967E+007, +2.18354893411E+001, +2.65262326890E+002
+1.84455759599E+007, +2.18079628276E+001, +2.68411127339E+002
+1.86123539232E+007, +2.18453237800E+001, +2.70858183528E+002
+1.87791318865E+007, +2.19157968120E+001, +2.73531801396E+002
+1.89459098497E+007, +2.24375953521E+001, +2.76727995881E+002
+1.91126878130E+007, +2.24731854345E+001, +2.79110956953E+002
+1.92794657763E+007, +2.22520586876E+001, +2.81581601246E+002
+1.94462437396E+007, +2.23926565949E+001, +2.85060526007E+002
+1.96130217028E+007, +2.23471752324E+001, +2.87563616520E+002
+1.97797996661E+007, +2.26037126147E+001, +2.90213777884E+002
+1.99465776294E+007, +2.23276363503E+001, +2.93141657432E+002
+2.01133555927E+007, +2.27796018390E+001, +2.96085981399E+002
+2.02801335559E+007, +2.30039239167E+001, +2.99430196995E+002
+2.04469115192E+007, +2.30462287426E+001, +3.02037530244E+002
+2.06136894825E+007, +2.33216009098E+001, +3.04979777767E+002
+2.07804674457E+007, +2.34875063470E+001, +3.08025943087E+002
+2.09472454090E+007, +2.32890182393E+001, +3.11244921152E+002
+2.11140233723E+007, +2.38017586037E+001, +3.12977348588E+002
+2.12808013356E+007, +2.36763538389E+001, +3.16768535294E+002
+2.14475792988E+007, +2.36757098272E+001, +3.19672916469E+002
+2.16143572621E+007, +2.44464613564E+001, +3.21939885888E+002
+2.17811352254E+007, +2.38729215945E+001, +3.25009848104E+002
+2.19479131886E+007, +2.46200264335E+001, +3.28163375531E+002
+2.21146911519E+007, +2.52476202219E+001, +3.30408655097E+002
+2.22814691152E+007, +2.48465040443E+001, +3.33858781874E+002
+2.24482470785E+007, +2.51690942468E+001, +3.37582458266E+002
+2.26150250417E+007, +2.57066697912E+001, +3.40059136400E+002
+2.27818030050E+007, +2.47954574338E+001, +3.43084569314E+002
+2.29485809683E+007, +2.65743043589E+001, +3.45938866955E+002
+2.31153589316E+007, +2.53433409313E+001, +3.49611348481E+002
+2.32821368948E+007, +2.65003129929E+001, +3.52434870077E+002
+2.34489148581E+007, +2.63820518529E+001, +3.54561074714E+002
+2.36156928214E+007, +2.62539352559E+001, +3.58580139593E+002
+2.37824707846E+007, +2.63133189859E+001, +3.61148981412E+002
+2.39492487479E+007, +2.64774437248E+001, +3.64060545065E+002
+2.41160267112E+007, +2.65185390979E+001, +3.67334042755E+002
+2.42828046745E+007, +2.69442820671E+001, +3.70877478628E+002
+2.44495826377E+007, +2.76130861233E+001, +3.74535281575E+002
+2.46163606010E+007, +2.75582469980E+001, +3.76971498104E+002
+2.47831385643E+007, +2.76027353283E+001, +3.80106511722E+002
+2.49499165275E+007, +2.81860558288E+001, +3.83894431463E+002
+2.51166944908E+007, +2.94302868524E+001, +3.86423225201E+002
+2.52834724541E+007, +2.86653617080E+001, +3.89371437443E+002
+2.54502504174E+007, +2.89307990587E+001, +3.92926764922E+002
+2.56170283806E+007, +2.85195820263E+001, +3.96033703251E+002
+2.57838063439E+007, +2.91968262524E+001, +3.99968813888E+002
+2.59505843072E+007, +2.94934492903E+001, +4.03768604094E+002
+2.61173622705E+007, +2.92158163157E+001, +4.06227719081E+002
+2.62841402337E+007, +2.93565990825E+001, +4.09603888952E+002
+2.64509181970E+007, +2.93903761911E+001, +4.12377124365E+002
+2.66176961603E+007, +2.99079918318E+001, +4.16874532089E+002
+2.67844741235E+007, +2.96738070966E+001, +4.19591333546E+002
+2.69512520868E+007, +3.07065135938E+001, +4.22842614482E+002
+2.71180300501E+007, +3.06280300926E+001, +4.25397969739E+002
+2.72848080134E+007, +3.08380584438E+001, +4.29579586480E+002
+2.74515859766E+007, +3.11237401878E+001, +4.33637306582E+002
+2.76183639399E+007, +3.01500260009E+001, +4.35754154925E+002
+2.77851419032E+007, +3.09943322942E+001, +4.39541071041E+002
+2.79519198664E+007, +3.20668188003E+001, +4.42534618697E+002
+2.81186978297E+007, +3.32563789611E+001, +4.45681430532E+002
+2.82854757930E+007, +3.23675352643E+001, +4.50051056327E+002
+2.84522537563E+007, +3.12430734934E+001, +4.53421876942E+002
+2.86190317195E+007, +3.27635459558E+001, +4.56989090562E+002
+2.87858096828E+007, +3.35959814711E+001, +4.60895367883E+002
+2.89525876461E+007, +3.33203830610E+001, +4.64276950594E+002
+2.91193656093E+007, +3.30230466814E+001, +4.67126301772E+002
+2.92861435726E+007, +3.19272576420E+001, +4.70984823064E+002
+2.94529215359E+007, +3.34352765161E+001, +4.74360032904E+002
+2.96196994992E+007, +3.37866501309E+001, +4.79041013275E+002
+2.97864774624E+007, +3.51162045788E+001, +4.82429520856E+002
+2.99532554257E+007, +3.48563046229E+001, +4.86357138415E+002
+3.01200333890E+007, +3.50449970788E+001, +4.89276337090E+002
+3.02868113523E+007, +3.50294987212E+001, +4.93545173472E+002
+3.04535893155E+007, +3.47629525519E+001, +4.98610397877E+002
+3.06203672788E+007, +3.59472587481E+001, +5.01190359852E+002
+3.07871452421E+007, +3.55569113281E+001, +5.05036157661E+002
+3.09539232053E+007, +3.60736391467E+001, +5.08455858044E+002
+3.11207011686E+007, +3.52054789844E+001, +5.13233217449E+002
+3.12874791319E+007, +3.62143248059E+001, +5.15902759769E+002
+3.14542570952E+007, +3.72254473202E+001, +5.21003198905E+002
+3.16210350584E+007, +3.67346436140E+001, +5.25914194357E+002
+3.17878130217E+007, +3.62800286667E+001, +5.28438935397E+002
+3.19545909850E+007, +3.69113680383E+001, +5.33130390946E+002
+3.21213689482E+007, +3.59540755135E+001, +5.37361602532E+002
+3.22881469115E+007, +3.63897739245E+001, +5.41063360034E+002
+3.24549248748E+007, +3.72754198713E+001, +5.45880738580E+002
+3.26217028381E+007, +3.70358230008E+001, +5.48816430340E+002
+3.27884808013E+007, +3.69129734204E+001, +5.51594165430E+002
+3.29552587646E+007, +3.84255319435E+001, +5.56557737737E+002
+3.31220367279E+007, +3.81377891895E+001, +5.60294981254E+002
+3.32888146912E+007, +3.83558407493E+001, +5.66985897381E+002
+3.34555926544E+007, +3.70981624438E+001, +5.69781232737E+002
+3.36223706177E+007, +3.93444714754E+001, +5.74621534325E+002
+3.37891485810E+007, +3.77751355892E+001, +5.77812421761E+002
+3.39559265442E+007, +3.96825992364E+001, +5.83087833416E+002
+3.41227045075E+007, +3.89706595653E+001, +5.88112744486E+002
+3.42894824708E+007, +3.90022446845E+001, +5.91866996454E+002
+3.44562604341E+007, +4.10114339380E+001, +5.96292656696E+002
+3.46230383973E+007, +4.07487519363E+001, +6.03513166029E+002
+3.47898163606E+007, +4.12650183184E+001, +6.05750701994E+002
+3.49565943239E+007, +4.25993339328E+001, +6.11997104892E+002
+3.51233722871E+007, +4.10023837862E+001, +6.15883570431E+002
+3.52901502504E+007, +4.16120430723E+001, +6.21173023865E+002
+3.54569282137E+007, +4.37916613825E+001, +6.26113574753E+002
+3.56237061770E+007, +4.18210042422E+001, +6.31255684701E+002
+3.57904841402E+007, +4.16427970724E+001, +6.36280195223E+002
+3.59572621035E+007, +4.36244074801E+001, +6.41841894752E+002
+3.61240400668E+007, +4.36765780528E+001, +6.45615537643E+002
+3.62908180301E+007, +4.29099458000E+001, +6.51404159041E+002
+3.64575959933E+007, +4.39270870159E+001, +6.56230544520E+002
+3.66243739566E+007, +4.54784516397E+001, +6.58858307884E+002
+3.67911519199E+007, +4.42057648118E+001, +6.66238879323E+002
+3.69579298831E+007, +4.47269556125E+001, +6.68796370146E+002
+3.71247078464E+007, +4.33113251227E+001, +6.75289390255E+002
+3.72914858097E+007, +4.55537551685E+001, +6.82438886253E+002
+3.74582637730E+007, +4.75359150777E+001, +6.90423153949E+002
+3.76250417362E+007, +4.82475742246E+001, +6.91404109850E+002
+3.77918196995E+007, +4.67401157425E+001, +6.97546551080E+002
+3.79585976628E+007, +4.77841542707E+001, +7.02512144886E+002
+3.81253756260E+007, +5.02559028982E+001, +7.09516930823E+002
+3.82921535893E+007, +5.06282947480E+001, +7.15873482622E+002
+3.84589315526E+007, +4.98210938763E+001, +7.20506231420E+002
+3.86257095159E+007, +4.92202585770E+001, +7.28232099939E+002
+3.87924874791E+007, +4.84193752844E+001, +7.33804175014E+002
+3.89592654424E+007, +5.27048892037E+001, +7.38679963716E+002
+3.91260434057E+007, +5.10273338823E+001, +7.46741405931E+002
+3.92928213689E+007, +5.44219777464E+001, +7.49024516546E+002
+3.94595993322E+007, +5.34642547405E+001, +7.59032790994E+002
+3.96263772955E+007, +5.28376080713E+001, +7.61092516280E+002
+3.97931552588E+007, +5.20759092410E+001, +7.67808266931E+002
+3.99599332220E+007, +5.30874332449E+001, +7.74764560116E+002
+4.01267111853E+007, +5.59470867146E+001, +7.81887103278E+002
+4.02934891486E+007, +5.52627585044E+001, +7.86241850872E+002
+4.04602671119E+007, +5.62569689119E+001, +7.92942176491E+002
+4.06270450751E+007, +5.77570055595E+001, +8.01003593281E+002
+4.07938230384E+007, +5.79923805718E+001, +8.09896554407E+002
+4.09606010017E+007, +5.79564305905E+001, +8.14804488279E+002
+4.11273789649E+007, +5.90694149341E+001, +8.21369066131E+002
+4.12941569282E+007, +5.79174456183E+001, +8.26463988180E+002
+4.14609348915E+007, +6.23417170247E+001, +8.39131528091E+002
+4.16277128548E+007, +6.41327689853E+001, +8.44190639507E+002
+4.17944908180E+007, +6.39025275077E+001, +8.50012573168E+002
+4.19612687813E+007, +6.31042580379E+001, +8.55864319161E+002
+4.21280467446E+007, +6.46738417784E+001, +8.64907856916E+002
+4.22948247078E+007, +6.24269231611E+001, +8.72256194259E+002
+4.24616026711E+007, +6.62262589279E+001, +8.77005048963E+002
+4.26283806344E+007, +6.69607540664E+001, +8.88742755505E+002
+4.27951585977E+007, +6.32517249040E+001, +8.95399974384E+002
+4.29619365609E+007, +7.02512785716E+001, +9.04078579661E+002
+4.31287145242E+007, +7.05952125871E+001, +9.13430808881E+002
+4.32954924875E+007, +7.14255423857E+001, +9.16079306990E+002
+4.34622704508E+007, +7.06022558655E+001, +9.29929944643E+002
+4.36290484140E+007, +7.53557899709E+001, +9.36099469199E+002
+4.37958263773E+007, +7.04393848320E+001, +9.44546593901E+002
+4.39626043406E+007, +7.75825709769E+001, +9.54677645981E+002
+4.41293823038E+007, +7.86139563432E+001, +9.66927312166E+002
+4.42961602671E+007, +7.52436157712E+001, +9.74318678253E+002
+4.44629382304E+007, +7.88315277912E+001, +9.83735000917E+002
+4.46297161937E+007, +7.99660881999E+001, +9.85050009396E+002
+4.47964941569E+007, +8.00653171383E+001, +1.00014373327E+003
+4.49632721202E+007, +7.60196269127E+001, +1.01400509751E+003
+4.51300500835E+007, +8.28398602110E+001, +1.01888292248E+003
+4.52968280467E+007, +8.48873944335E+001, +1.02753357261E+003
+4.54636060100E+007, +9.06714193823E+001, +1.04327524136E+003
+4.56303839733E+007, +9.08040193117E+001, +1.05029205075E+003
+4.57971619366E+007, +8.98414912317E+001, +1.06190522634E+003
+4.59639398998E+007, +9.14923808306E+001, +1.07608615315E+003
+4.61307178631E+007, +9.68989802359E+001, +1.08767438350E+003
+4.62974958264E+007, +1.01121473488E+002, +1.09663890978E+003
+4.64642737896E+007, +9.32952559189E+001, +1.10822696324E+003
+4.66310517529E+007, +1.00037322612E+002, +1.12284998674E+003
+4.67978297162E+007, +1.11336608806E+002, +1.12550099246E+003
+4.69646076795E+007, +1.04578141128E+002, +1.14140348413E+003
+4.71313856427E+007, +1.10466480362E+002, +1.15080164160E+003
+4.72981636060E+007, +1.08253959094E+002, +1.16858592361E+003
+4.74649415693E+007, +1.11720282113E+002, +1.18089984271E+003
+4.76317195326E+007, +1.25191424830E+002, +1.18884368142E+003
+4.77984974958E+007, +1.25197505652E+002, +1.19940711306E+003
+4.79652754591E+007, +1.22854272424E+002, +1.21183072025E+003
+4.81320534224E+007, +1.28453583134E+002, +1.23204425651E+003
+4.82988313856E+007, +1.32199076690E+002, +1.23559724617E+003
+4.84656093489E+007, +1.37610616785E+002, +1.25246935948E+003
+4.86323873122E+007, +1.44555122724E+002, +1.26218067744E+003
+4.87991652755E+007, +1.50590225421E+002, +1.28242665551E+003
+4.89659432387E+007, +1.51341744907E+002, +1.28828703096E+003
+4.91327212020E+007, +1.56079569784E+002, +1.31312288809E+003
+4.92994991653E+007, +1.65074248411E+002, +1.31352938334E+003
+4.94662771285E+007, +1.68659600618E+002, +1.32788894182E+003
+4.96330550918E+007, +1.76765578599E+002, +1.34495811283E+003
+4.97998330551E+007, +1.83741233334E+002, +1.35562758112E+003
+4.99666110184E+007, +1.92592764756E+002, +1.37521598259E+003
+5.01333889816E+007, +1.86824905113E+002, +1.38318729606E+003
+5.03001669449E+007, +1.87744292032E+002, +1.40427750272E+003
+5.04669449082E+007, +1.98664752245E+002, +1.41631440402E+003
+5.06337228715E+007, +2.12730362508E+002, +1.43262431927E+003
+5.08005008347E+007, +2.04522268285E+002, +1.43919714797E+003
+5.09672787980E+007, +2.21681336490E+002, +1.44929666081E+003
+5.11340567613E+007, +2.19012066371E+002, +1.47541553628E+003
+5.13008347245E+007, +2.20439085156E+002, +1.49322943306E+003
+5.14676126878E+007, +2.26490242143E+002, +1.50628374511E+003
+5.16343906511E+007, +2.36141589117E+002, +1.51974302076E+003
+5.18011686144E+007, +2.28049619944E+002, +1.53604295210E+003
+5.19679465776E+007, +2.35045653936E+002, +1.56552148464E+003
+5.21347245409E+007, +2.39940281592E+002, +1.57360692530E+003
+5.23015025042E+007, +2.50464275880E+002, +1.61244996191E+003
+5.24682804674E+007, +2.44017001004E+002, +1.63414870766E+003
+5.26350584307E+007, +2.51542630253E+002, +1.64713797916E+003
+5.28018363940E+007, +2.48462905186E+002, +1.66612478412E+003
+5.29686143573E+007, +2.57469057884E+002, +1.69833628920E+003
+5.31353923205E+007, +2.61888169259E+002, +1.71133370300E+003
+5.33021702838E+007, +2.60719057765E+002, +1.74110122128E+003
+5.34689482471E+007, +2.73276948986E+002, +1.77052002823E+003
