"# Channel 1"
"# Trace 1"
Frequency, Formatted Data, Formatted Data
+1.00000000000E+005, +5.06335888157E+000, +1.36618009178E+000
+2.66777963272E+005, +5.05467044082E+000, +3.63401308814E+000
+4.33555926544E+005, +5.05672783038E+000, +5.93719066984E+000
+6.00333889816E+005, +5.09058880561E+000, +8.15970253334E+000
+7.67111853088E+005, +5.10705514569E+000, +1.04552525258E+001
+9.33889816361E+005, +5.10209128792E+000, +1.27103417093E+001
+1.10066777963E+006, +5.08392203085E+000, +1.49718440300E+001
+1.26744574290E+006, +5.13499098498E+000, +1.72347330219E+001
+1.43422370618E+006, +5.07142708799E+000, +1.95290522617E+001
+1.60100166945E+006, +5.15045534641E+000, +2.17421208863E+001
+1.76777963272E+006, +5.14441259613E+000, +2.39862317598E+001
+1.93455759599E+006, +5.14921391793E+000, +2.61926708610E+001
+2.10133555927E+006, +5.18042992821E+000, +2.84556792601E+001
+2.26811352254E+006, +5.19667832847E+000, +3.07321374826E+001
+2.43489148581E+006, +5.18952618786E+000, +3.30211116149E+001
+2.60166944908E+006, +5.21113398646E+000, +3.52001683931E+001
+2.76844741235E+006, +5.19426702081E+000, +3.75380749890E+001
+2.93522537563E+006, +5.22625252012E+000, +3.97621920978E+001
+3.10200333890E+006, +5.32079531474E+000, +4.19803423971E+001
+3.26878130217E+006, +5.23249172171E+000, +4.43074991048E+001
+3.43555926544E+006, +5.31190357824E+000, +4.65203202302E+001
+3.60233722871E+006, +5.36875377493E+000, +4.88358850484E+001
+3.76911519199E+006, +5.32639603953E+000, +5.11799744377E+001
+3.93589315526E+006, +5.34936513448E+000, +5.32915901617E+001
+4.10267111853E+006, +5.08366290510E+000, +5.54529467641E+001
+4.26944908180E+006, +5.28092529261E+000, +5.81476631185E+001
+4.43622704508E+006, +5.39534766168E+000, +6.02211982342E+001
+4.60300500835E+006, +5.46931484401E+000, +6.25286859529E+001
+4.76978297162E+006, +5.46735318735E+000, +6.47090032397E+001
+4.93656093489E+006, +5.62239912233E+000, +6.70253611828E+001
+5.10333889816E+006, +5.59155323742E+000, +6.92131493384E+001
+5.27011686144E+006, +5.65250471398E+000, +7.16558575696E+001
+5.43689482471E+006, +5.61428370698E+000, +7.38840701947E+001
+5.60367278798E+006, +5.72923171529E+000, +7.62830645304E+001
+5.77045075125E+006, +5.65666898242E+000, +7.84074821617E+001
+5.93722871452E+006, +5.79766984003E+000, +8.07047027177E+001
+6.10400667780E+006, +5.85698560952E+000, +8.30634058070E+001
+6.27078464107E+006, +5.89455265678E+000, +8.52580109948E+001
+6.43756260434E+006, +5.94547312731E+000, +8.75670731032E+001
+6.60434056761E+006, +6.02938601704E+000, +8.98546421616E+001
+6.77111853088E+006, +6.13434717955E+000, +9.21188505226E+001
+6.93789649416E+006, +6.10167052149E+000, +9.43678532438E+001
+7.10467445743E+006, +6.14104718239E+000, +9.66406554214E+001
+7.27145242070E+006, +6.17071107491E+000, +9.89178076736E+001
+7.43823038397E+006, +6.26761765139E+000, +1.01188403382E+002
+7.60500834725E+006, +6.25289462337E+000, +1.03500937294E+002
+7.77178631052E+006, +6.29086596874E+000, +1.05879593031E+002
+7.93856427379E+006, +6.26862851493E+000, +1.08002780817E+002
+8.10534223706E+006, +6.33255622402E+000, +1.10341250571E+002
+8.27212020033E+006, +6.35446633570E+000, +1.12686334995E+002
+8.43889816361E+006, +6.29106524044E+000, +1.15004935385E+002
+8.60567612688E+006, +6.24754419185E+000, +1.17322221294E+002
+8.77245409015E+006, +6.35654632191E+000, +1.19599391286E+002
+8.93923205342E+006, +6.42210463177E+000, +1.22001167631E+002
+9.10601001669E+006, +6.38067212781E+000, +1.24392278456E+002
+9.27278797997E+006, +6.43935889802E+000, +1.26598943131E+002
+9.43956594324E+006, +6.37708793318E+000, +1.28921945526E+002
+9.60634390651E+006, +6.49078165208E+000, +1.31327027734E+002
+9.77312186978E+006, +6.43432887535E+000, +1.33611476867E+002
+9.93989983306E+006, +6.64159270600E+000, +1.36036436838E+002
+1.01066777963E+007, +6.45743959489E+000, +1.38320866101E+002
+1.02734557596E+007, +6.55488802595E+000, +1.40768281559E+002
+1.04402337229E+007, +6.53256443378E+000, +1.43000831169E+002
+1.06070116861E+007, +6.48429529882E+000, +1.45362270226E+002
+1.07737896494E+007, +6.52502380683E+000, +1.47852776416E+002
+1.09405676127E+007, +6.68011370107E+000, +1.50188147000E+002
+1.11073455760E+007, +6.72204713972E+000, +1.52712330552E+002
+1.12741235392E+007, +6.75333234003E+000, +1.54956156417E+002
+1.14409015025E+007, +6.92755892254E+000, +1.57451576609E+002
+1.16076794658E+007, +6.89809535014E+000, +1.59805662585E+002
+1.17744574290E+007, +6.92908500118E+000, +1.62290160703E+002
+1.19412353923E+007, +7.00616942257E+000, +1.64753434633E+002
+1.21080133556E+007, +6.85306282863E+000, +1.67014964636E+002
+1.22747913189E+007, +6.97227300952E+000, +1.69469526172E+002
+1.24415692821E+007, +6.91295805502E+000, +1.71674459658E+002
+1.26083472454E+007, +6.88171824150E+000, +1.74328405820E+002
+1.27751252087E+007, +7.23044612396E+000, +1.76564812981E+002
+1.29419031720E+007, +7.03405513836E+000, +1.78943609407E+002
+1.31086811352E+007, +7.20490122017E+000, +1.81481910371E+002
+1.32754590985E+007, +7.15433016014E+000, +1.83969565418E+002
+1.34422370618E+007, +7.30547206506E+000, +1.86377156081E+002
+1.36090150250E+007, +7.46608133810E+000, +1.88978272041E+002
+1.37757929883E+007, +7.19683335056E+000, +1.91280474787E+002
+1.39425709516E+007, +7.49638396296E+000, +1.93761537768E+002
+1.41093489149E+007, +7.57764624917E+000, +1.96223666056E+002
+1.42761268781E+007, +7.56788702611E+000, +1.98699341658E+002
+1.44429048414E+007, +7.59864289550E+000, +2.01316362089E+002
+1.46096828047E+007, +7.60717567266E+000, +2.03752886491E+002
+1.47764607679E+007, +7.71680104528E+000, +2.06098818879E+002
+1.49432387312E+007, +7.52350076670E+000, +2.08599727783E+002
+1.51100166945E+007, +7.59559430007E+000, +2.11245174707E+002
+1.52767946578E+007, +8.07360978183E+000, +2.13672924805E+002
+1.54435726210E+007, +7.85375342543E+000, +2.15947652530E+002
+1.56103505843E+007, +8.17849579009E+000, +2.18676098985E+002
+1.57771285476E+007, +8.06479046438E+000, +2.21058754048E+002
+1.59439065109E+007, +8.23788301493E+000, +2.23614615232E+002
+1.61106844741E+007, +8.14688604924E+000, +2.26319376262E+002
+1.62774624374E+007, +8.38445493422E+000, +2.28683980410E+002
+1.64442404007E+007, +8.11381985709E+000, +2.31190901640E+002
+1.66110183639E+007, +8.46847626280E+000, +2.33820025559E+002
+1.67777963272E+007, +8.41388221039E+000, +2.36518546524E+002
+1.69445742905E+007, +8.51056410221E+000, +2.38986718155E+002
+1.71113522538E+007, +8.09581313807E+000, +2.41194263662E+002
+1.72781302170E+007, +8.28162598048E+000, +2.44228904043E+002
+1.74449081803E+007, +8.08709229376E+000, +2.46605085660E+002
+1.76116861436E+007, +8.50392339258E+000, +2.49537724136E+002
+1.77784641068E+007, +8.19507484640E+000, +2.51742367255E+002
+1.79452420701E+007, +8.74729229682E+000, +2.54341013934E+002
+1.81120200334E+007, +8.97211115145E+000, +2.56660547198E+002
+1.82787979967E+007, +8.91473591951E+000, +2.59822620771E+002
+1.84455759599E+007, +9.28673184088E+000, +2.62410869572E+002
+1.86123539232E+007, +9.55169332112E+000, +2.65100771035E+002
+1.87791318865E+007, +8.85007613037E+000, +2.67942214585E+002
+1.89459098497E+007, +9.20190271552E+000, +2.70240589578E+002
+1.91126878130E+007, +9.57910418741E+000, +2.72920120543E+002
+1.92794657763E+007, +9.22920467731E+000, +2.75791912570E+002
+1.94462437396E+007, +9.52962818930E+000, +2.78587150879E+002
+1.96130217028E+007, +9.43794554831E+000, +2.81290415011E+002
+1.97797996661E+007, +9.67158391112E+000, +2.83697802971E+002
+1.99465776294E+007, +9.28485078883E+000, +2.86482748413E+002
+2.01133555927E+007, +9.70264705709E+000, +2.89081559183E+002
+2.02801335559E+007, +9.41095583860E+000, +2.92526139192E+002
+2.04469115192E+007, +1.00067313811E+001, +2.94708905675E+002
+2.06136894825E+007, +1.01440880113E+001, +2.97639387585E+002
+2.07804674457E+007, +9.96827767202E+000, +3.00575748106E+002
+2.09472454090E+007, +9.77913230228E+000, +3.03319612941E+002
+2.11140233723E+007, +1.05969769942E+001, +3.05754522821E+002
+2.12808013356E+007, +1.06243035265E+001, +3.08322019288E+002
+2.14475792988E+007, +1.07046045003E+001, +3.11673852265E+002
+2.16143572621E+007, +1.12833165270E+001, +3.13990311212E+002
+2.17811352254E+007, +1.03609571632E+001, +3.16996812401E+002
+2.19479131886E+007, +1.13757611028E+001, +3.19371043693E+002
+2.21146911519E+007, +1.14357707235E+001, +3.22337023244E+002
+2.22814691152E+007, +1.12558755557E+001, +3.25583910322E+002
+2.24482470785E+007, +1.13902726452E+001, +3.28653232528E+002
+2.26150250417E+007, +1.19715946608E+001, +3.31457832763E+002
+2.27818030050E+007, +1.15301417155E+001, +3.34353757071E+002
+2.29485809683E+007, +1.21176145382E+001, +3.36974766990E+002
+2.31153589316E+007, +1.14585087466E+001, +3.40159537809E+002
+2.32821368948E+007, +1.19898275074E+001, +3.43200360498E+002
+2.34489148581E+007, +1.22705080863E+001, +3.45342563714E+002
+2.36156928214E+007, +1.26582246804E+001, +3.49120434279E+002
+2.37824707846E+007, +1.24707896969E+001, +3.51807886355E+002
+2.39492487479E+007, +1.23934699719E+001, +3.53947435068E+002
+2.41160267112E+007, +1.26779925339E+001, +3.57571829288E+002
+2.42828046745E+007, +1.28584175657E+001, +3.60651178615E+002
+2.44495826377E+007, +1.30235373154E+001, +3.64260707149E+002
+2.46163606010E+007, +1.34279560939E+001, +3.66259253553E+002
+2.47831385643E+007, +1.37234801918E+001, +3.69772360704E+002
+2.49499165275E+007, +1.41575824118E+001, +3.72710103320E+002
+2.51166944908E+007, +1.45730891753E+001, +3.75095543883E+002
+2.52834724541E+007, +1.43518731705E+001, +3.78957825537E+002
+2.54502504174E+007, +1.43773530622E+001, +3.82156101433E+002
+2.56170283806E+007, +1.42933967788E+001, +3.84561699516E+002
+2.57838063439E+007, +1.47318208552E+001, +3.88103129957E+002
+2.59505843072E+007, +1.52908260420E+001, +3.91218350706E+002
+2.61173622705E+007, +1.52243218757E+001, +3.94149214012E+002
+2.62841402337E+007, +1.53927832908E+001, +3.96958332281E+002
+2.64509181970E+007, +1.50799008565E+001, +4.00359277170E+002
+2.66176961603E+007, +1.57848828693E+001, +4.04217121099E+002
+2.67844741235E+007, +1.57606720357E+001, +4.05447115385E+002
+2.69512520868E+007, +1.62933362574E+001, +4.09243577195E+002
+2.71180300501E+007, +1.62531804436E+001, +4.11501662771E+002
+2.72848080134E+007, +1.66584582021E+001, +4.15756585051E+002
+2.74515859766E+007, +1.67533636847E+001, +4.18814324270E+002
+2.76183639399E+007, +1.63286475704E+001, +4.21352722672E+002
+2.77851419032E+007, +1.62675445604E+001, +4.24761530682E+002
+2.79519198664E+007, +1.66411161228E+001, +4.28145038365E+002
+2.81186978297E+007, +1.62956974557E+001, +4.29863375591E+002
+2.82854757930E+007, +1.66614774395E+001, +4.33712789027E+002
+2.84522537563E+007, +1.56121637689E+001, +4.38044834295E+002
+2.86190317195E+007, +1.65078286794E+001, +4.40157565071E+002
+2.87858096828E+007, +1.73112062464E+001, +4.43951495463E+002
+2.89525876461E+007, +1.78922913610E+001, +4.47005924563E+002
+2.91193656093E+007, +1.59187687061E+001, +4.48863842285E+002
+2.92861435726E+007, +1.64626467619E+001, +4.53752299157E+002
+2.94529215359E+007, +1.63154094983E+001, +4.56789467619E+002
+2.96196994992E+007, +1.78445920100E+001, +4.60909998970E+002
+2.97864774624E+007, +1.77075300645E+001, +4.65250718638E+002
+2.99532554257E+007, +1.83258485255E+001, +4.67489014600E+002
+3.01200333890E+007, +1.75169758469E+001, +4.71206299936E+002
+3.02868113523E+007, +1.76862516597E+001, +4.76082210784E+002
+3.04535893155E+007, +1.73088134284E+001, +4.79476463393E+002
+3.06203672788E+007, +1.85268502968E+001, +4.82580695573E+002
+3.07871452421E+007, +1.62900131659E+001, +4.85448439441E+002
+3.09539232053E+007, +1.73621463531E+001, +4.89793030488E+002
+3.11207011686E+007, +1.75336807459E+001, +4.93979962383E+002
+3.12874791319E+007, +1.80824754792E+001, +4.96765145743E+002
+3.14542570952E+007, +1.83200768631E+001, +5.00701980674E+002
+3.16210350584E+007, +1.76917007039E+001, +5.05547076357E+002
+3.17878130217E+007, +1.81564160398E+001, +5.07713350952E+002
+3.19545909850E+007, +1.81934452222E+001, +5.12670897654E+002
+3.21213689482E+007, +1.69938941859E+001, +5.16621392407E+002
+3.22881469115E+007, +1.72094498409E+001, +5.18861051881E+002
+3.24549248748E+007, +1.82392953034E+001, +5.23901669264E+002
+3.26217028381E+007, +1.80416252107E+001, +5.27312529405E+002
+3.27884808013E+007, +1.84271923975E+001, +5.31156729572E+002
+3.29552587646E+007, +1.82595395223E+001, +5.34697742850E+002
+3.31220367279E+007, +2.01114206349E+001, +5.39102368198E+002
+3.32888146912E+007, +1.83865008586E+001, +5.43876600498E+002
+3.34555926544E+007, +1.83045645098E+001, +5.46750331931E+002
+3.36223706177E+007, +1.98979117080E+001, +5.50461944709E+002
+3.37891485810E+007, +1.78618957483E+001, +5.55584969033E+002
+3.39559265442E+007, +1.97915124419E+001, +5.59740944160E+002
+3.41227045075E+007, +1.82443056764E+001, +5.63755036652E+002
+3.42894824708E+007, +1.85570539587E+001, +5.68243863276E+002
+3.44562604341E+007, +1.92323552469E+001, +5.71861711948E+002
+3.46230383973E+007, +2.08767127396E+001, +5.76469549036E+002
+3.47898163606E+007, +2.04910802580E+001, +5.79787424752E+002
+3.49565943239E+007, +2.08956155621E+001, +5.85320121525E+002
+3.51233722871E+007, +1.98931717547E+001, +5.89546584713E+002
+3.52901502504E+007, +2.12923865776E+001, +5.91036790306E+002
+3.54569282137E+007, +2.03527933351E+001, +5.97790268799E+002
+3.56237061770E+007, +1.94644147974E+001, +6.01795293980E+002
+3.57904841402E+007, +2.06994996529E+001, +6.07133705262E+002
+3.59572621035E+007, +2.19680241090E+001, +6.11954500738E+002
+3.61240400668E+007, +2.01151434088E+001, +6.15553458503E+002
+3.62908180301E+007, +2.25351545612E+001, +6.22423188927E+002
+3.64575959933E+007, +2.09995102979E+001, +6.25783934497E+002
+3.66243739566E+007, +2.24160779303E+001, +6.28212986588E+002
+3.67911519199E+007, +2.37039079839E+001, +6.35191991671E+002
+3.69579298831E+007, +2.04255318776E+001, +6.37715382604E+002
+3.71247078464E+007, +2.14542691258E+001, +6.44982902997E+002
+3.72914858097E+007, +2.26035695165E+001, +6.47897745945E+002
+3.74582637730E+007, +2.16588113216E+001, +6.54822380859E+002
+3.76250417362E+007, +2.42345281361E+001, +6.59414375988E+002
+3.77918196995E+007, +2.25708819221E+001, +6.63396304369E+002
+3.79585976628E+007, +2.22916438894E+001, +6.66928873490E+002
+3.81253756260E+007, +2.41441724600E+001, +6.75496431531E+002
+3.82921535893E+007, +2.52425823229E+001, +6.79021064026E+002
+3.84589315526E+007, +2.38209809610E+001, +6.84213676323E+002
+3.86257095159E+007, +2.48201088710E+001, +6.91729596580E+002
+3.87924874791E+007, +2.31344035877E+001, +6.95177883262E+002
+3.89592654424E+007, +2.51648163441E+001, +6.99927293006E+002
+3.91260434057E+007, +2.49692024690E+001, +7.07265220075E+002
+3.92928213689E+007, +2.72587966889E+001, +7.11493732982E+002
+3.94595993322E+007, +2.53833685460E+001, +7.16486201847E+002
+3.96263772955E+007, +2.44608818920E+001, +7.24291430666E+002
+3.97931552588E+007, +2.26424538300E+001, +7.28493329228E+002
+3.99599332220E+007, +2.59447898301E+001, +7.33784592236E+002
+4.01267111853E+007, +2.65473579481E+001, +7.40525708299E+002
+4.02934891486E+007, +2.48341659514E+001, +7.45222133960E+002
+4.04602671119E+007, +2.94199927642E+001, +7.51675123518E+002
+4.06270450751E+007, +3.08607380165E+001, +7.56381098976E+002
+4.07938230384E+007, +2.65641814239E+001, +7.63242546748E+002
+4.09606010017E+007, +2.79282217778E+001, +7.69498517355E+002
+4.11273789649E+007, +2.90557512942E+001, +7.74509871155E+002
+4.12941569282E+007, +2.98205971588E+001, +7.84472712160E+002
+4.14609348915E+007, +2.79133546149E+001, +7.91424345912E+002
+4.16277128548E+007, +3.05156802371E+001, +7.95704003062E+002
+4.17944908180E+007, +3.20232005221E+001, +7.99820372348E+002
+4.19612687813E+007, +3.16340385902E+001, +8.07542028584E+002
+4.21280467446E+007, +2.89839692534E+001, +8.13743517302E+002
+4.22948247078E+007, +3.20916292191E+001, +8.19996659235E+002
+4.24616026711E+007, +3.43232183290E+001, +8.27137027641E+002
+4.26283806344E+007, +3.48747181891E+001, +8.33850714867E+002
+4.27951585977E+007, +2.82845428811E+001, +8.41229588238E+002
+4.29619365609E+007, +3.72574644240E+001, +8.45398297801E+002
+4.31287145242E+007, +3.54207645698E+001, +8.56032599193E+002
+4.32954924875E+007, +3.52135832253E+001, +8.60048775597E+002
+4.34622704508E+007, +3.21091871164E+001, +8.69529145974E+002
+4.36290484140E+007, +4.16308989016E+001, +8.75792791552E+002
+4.37958263773E+007, +3.67852276813E+001, +8.85829763929E+002
+4.39626043406E+007, +3.77094240529E+001, +8.90612435772E+002
+4.41293823038E+007, +3.84162902975E+001, +8.99994799569E+002
+4.42961602671E+007, +3.75133607483E+001, +9.08385480545E+002
+4.44629382304E+007, +3.64736797123E+001, +9.18154392253E+002
+4.46297161937E+007, +4.03213891154E+001, +9.23424967611E+002
+4.47964941569E+007, +4.07566311272E+001, +9.31050317314E+002
+4.49632721202E+007, +3.99457111682E+001, +9.39976357534E+002
+4.51300500835E+007, +4.00029068099E+001, +9.46141893061E+002
+4.52968280467E+007, +4.69899547669E+001, +9.53889250657E+002
+4.54636060100E+007, +4.53121169520E+001, +9.67157032518E+002
+4.56303839733E+007, +4.05763735964E+001, +9.78850231174E+002
+4.57971619366E+007, +4.16229376919E+001, +9.81292430133E+002
+4.59639398998E+007, +4.21634542205E+001, +9.98896905772E+002
+4.61307178631E+007, +4.74104366638E+001, +1.00151259605E+003
+4.62974958264E+007, +4.54365794670E+001, +1.01452695497E+003
+4.64642737896E+007, +4.45282357822E+001, +1.02377279800E+003
+4.66310517529E+007, +4.61084144759E+001, +1.03345027209E+003
+4.67978297162E+007, +5.26034747005E+001, +1.03867460007E+003
+4.69646076795E+007, +4.80555126061E+001, +1.05592027004E+003
+4.71313856427E+007, +5.08210373441E+001, +1.06202374079E+003
+4.72981636060E+007, +5.40618073826E+001, +1.07469237595E+003
+4.74649415693E+007, +5.39803433786E+001, +1.08093097347E+003
+4.76317195326E+007, +6.36751777896E+001, +1.09065943460E+003
+4.77984974958E+007, +6.14228372506E+001, +1.10548079575E+003
+4.79652754591E+007, +6.01713140134E+001, +1.11595667827E+003
+4.81320534224E+007, +6.08509381595E+001, +1.12602756327E+003
+4.82988313856E+007, +6.80056575522E+001, +1.13673196235E+003
+4.84656093489E+007, +6.75541350815E+001, +1.14544326807E+003
+4.86323873122E+007, +7.06101774028E+001, +1.15812552179E+003
+4.87991652755E+007, +7.17250517454E+001, +1.17276170981E+003
+4.89659432387E+007, +7.66012198610E+001, +1.18214670762E+003
+4.91327212020E+007, +7.39494691058E+001, +1.19949515381E+003
+4.92994991653E+007, +7.86140578494E+001, +1.20406405327E+003
+4.94662771285E+007, +8.39923225878E+001, +1.22164792988E+003
+4.96330550918E+007, +8.84596922680E+001, +1.23236176909E+003
+4.97998330551E+007, +9.67126194748E+001, +1.24393824722E+003
+4.99666110184E+007, +9.62707905223E+001, +1.26259115484E+003
+5.01333889816E+007, +9.23515892978E+001, +1.26636229487E+003
+5.03001669449E+007, +8.84175584403E+001, +1.28235267880E+003
+5.04669449082E+007, +9.85121266436E+001, +1.30145484385E+003
+5.06337228715E+007, +1.09318189011E+002, +1.31607927741E+003
+5.08005008347E+007, +9.78739069845E+001, +1.31920380868E+003
+5.09672787980E+007, +1.08774546436E+002, +1.33059128169E+003
+5.11340567613E+007, +1.08077933516E+002, +1.34464326102E+003
+5.13008347245E+007, +1.02991082657E+002, +1.36626910184E+003
+5.14676126878E+007, +1.09034630613E+002, +1.38081714028E+003
+5.16343906511E+007, +1.20319425101E+002, +1.40647682478E+003
+5.18011686144E+007, +1.18414936586E+002, +1.41643838893E+003
+5.19679465776E+007, +1.15674391292E+002, +1.43211651012E+003
+5.21347245409E+007, +1.22266278770E+002, +1.45481036567E+003
+5.23015025042E+007, +1.39319830025E+002, +1.47925603782E+003
+5.24682804674E+007, +1.33732760252E+002, +1.49604025514E+003
+5.26350584307E+007, +1.41728911786E+002, +1.51468236976E+003
+5.28018363940E+007, +1.39322247453E+002, +1.53582089314E+003
+5.29686143573E+007, +1.38772521229E+002, +1.55109560973E+003
+5.31353923205E+007, +1.42446814052E+002, +1.56119940833E+003
+5.33021702838E+007, +1.48516913022E+002, +1.59239380411E+003
+5.34689482471E+007, +1.57032483291E+002, +1.61828145098E+003
