"# Channel 1"
"# Trace 1"
Frequency, Formatted Data, Formatted Data
+1.00000000000E+005, +1.33588699090E-001, +1.23248426581E+000
+2.66777963272E+005, +1.55102820406E-001, +3.22969349354E+000
+4.33555926544E+005, +1.69707946956E-001, +5.25163335323E+000
+6.00333889816E+005, +2.23089863466E-001, +7.20397124446E+000
+7.67111853088E+005, +2.46857086049E-001, +9.24031045098E+000
+9.33889816361E+005, +2.57872911382E-001, +1.11795402519E+001
+1.10066777963E+006, +2.20186893076E-001, +1.31638866047E+001
+1.26744574290E+006, +2.72438525682E-001, +1.51423850302E+001
+1.43422370618E+006, +2.06429090134E-001, +1.71380939732E+001
+1.60100166945E+006, +3.02442403073E-001, +1.90550099702E+001
+1.76777963272E+006, +2.93139095590E-001, +2.10389856338E+001
+1.93455759599E+006, +3.26804607979E-001, +2.29828883705E+001
+2.10133555927E+006, +3.41836410767E-001, +2.49562539622E+001
+2.26811352254E+006, +3.76596901618E-001, +2.69400306994E+001
+2.43489148581E+006, +3.17782091927E-001, +2.89543132729E+001
+2.60166944908E+006, +3.72519777425E-001, +3.08768689472E+001
+2.76844741235E+006, +3.35016203750E-001, +3.28814632608E+001
+2.93522537563E+006, +3.42228670939E-001, +3.48209952009E+001
+3.10200333890E+006, +4.44159024300E-001, +3.67872449120E+001
+3.26878130217E+006, +3.00391874677E-001, +3.87565043902E+001
+3.43555926544E+006, +3.76803183093E-001, +4.07619031646E+001
+3.60233722871E+006, +3.85816524416E-001, +4.27404927380E+001
+3.76911519199E+006, +3.58476059232E-001, +4.47772356631E+001
+3.93589315526E+006, +3.56189648426E-001, +4.66548756001E+001
+4.10267111853E+006, +2.01203694621E-001, +4.85815110400E+001
+4.26944908180E+006, +2.87235651120E-001, +5.08419992544E+001
+4.43622704508E+006, +3.60832061540E-001, +5.26874978190E+001
+4.60300500835E+006, +3.75299842692E-001, +5.47466953908E+001
+4.76978297162E+006, +3.75481656697E-001, +5.66459533766E+001
+4.93656093489E+006, +4.48836966284E-001, +5.87058896860E+001
+5.10333889816E+006, +4.55934444445E-001, +6.06070069061E+001
+5.27011686144E+006, +5.13824906160E-001, +6.27891481308E+001
+5.43689482471E+006, +4.15768219439E-001, +6.46589971455E+001
+5.60367278798E+006, +4.16090035637E-001, +6.67935507723E+001
+5.77045075125E+006, +3.63282685230E-001, +6.86910858968E+001
+5.93722871452E+006, +5.19400161145E-001, +7.07238712347E+001
+6.10400667780E+006, +4.51884216059E-001, +7.27363369620E+001
+6.27078464107E+006, +5.44470737685E-001, +7.47450065601E+001
+6.43756260434E+006, +5.52532069601E-001, +7.67834499808E+001
+6.60434056761E+006, +5.42347715957E-001, +7.87411622755E+001
+6.77111853088E+006, +6.73315870519E-001, +8.07658373607E+001
+6.93789649416E+006, +5.83204497170E-001, +8.27681039426E+001
+7.10467445743E+006, +5.87900511882E-001, +8.47509856659E+001
+7.27145242070E+006, +6.35789965061E-001, +8.67284592821E+001
+7.43823038397E+006, +6.39261968264E-001, +8.87507847845E+001
+7.60500834725E+006, +6.03140767251E-001, +9.07647697670E+001
+7.77178631052E+006, +6.13693145095E-001, +9.29064412185E+001
+7.93856427379E+006, +6.51476559461E-001, +9.48024117249E+001
+8.10534223706E+006, +6.14868923884E-001, +9.68103460279E+001
+8.27212020033E+006, +6.44295681483E-001, +9.88204323763E+001
+8.43889816361E+006, +5.58972622644E-001, +1.00894135663E+002
+8.60567612688E+006, +4.93731092344E-001, +1.02965700608E+002
+8.77245409015E+006, +5.16769652162E-001, +1.04907765612E+002
+8.93923205342E+006, +5.04376775827E-001, +1.07062602523E+002
+9.10601001669E+006, +5.21824462022E-001, +1.09107899956E+002
+9.27278797997E+006, +5.96037382004E-001, +1.11126302977E+002
+9.43956594324E+006, +5.44535036570E-001, +1.13179646441E+002
+9.60634390651E+006, +4.86813567380E-001, +1.15276052492E+002
+9.77312186978E+006, +5.13974894565E-001, +1.17336206828E+002
+9.93989983306E+006, +5.63521953333E-001, +1.19413103028E+002
+1.01066777963E+007, +4.53618991849E-001, +1.21433502823E+002
+1.02734557596E+007, +4.36982210482E-001, +1.23569405629E+002
+1.04402337229E+007, +4.39007773852E-001, +1.25623710928E+002
+1.06070116861E+007, +4.12312616974E-001, +1.27695215293E+002
+1.07737896494E+007, +4.11295019027E-001, +1.29878971271E+002
+1.09405676127E+007, +4.60858973859E-001, +1.31898127568E+002
+1.11073455760E+007, +4.25864780573E-001, +1.34067448842E+002
+1.12741235392E+007, +4.23565973534E-001, +1.36140879263E+002
+1.14409015025E+007, +4.41244085524E-001, +1.38348589674E+002
+1.16076794658E+007, +5.18940115750E-001, +1.40307978626E+002
+1.17744574290E+007, +5.10904212465E-001, +1.42525725929E+002
+1.19412353923E+007, +4.48638205903E-001, +1.44586927632E+002
+1.21080133556E+007, +3.98947841393E-001, +1.46811947296E+002
+1.22747913189E+007, +4.81888766159E-001, +1.48935324211E+002
+1.24415692821E+007, +3.34284369359E-001, +1.50933364896E+002
+1.26083472454E+007, +3.73769548364E-001, +1.53177794451E+002
+1.27751252087E+007, +4.44873179876E-001, +1.55338413486E+002
+1.29419031720E+007, +3.09093216312E-001, +1.57409864925E+002
+1.31086811352E+007, +4.74325842901E-001, +1.59657514543E+002
+1.32754590985E+007, +3.26236983780E-001, +1.61716486417E+002
+1.34422370618E+007, +3.45506106157E-001, +1.63973095383E+002
+1.36090150250E+007, +4.00027933817E-001, +1.66047504014E+002
+1.37757929883E+007, +3.33564075480E-001, +1.68221508999E+002
+1.39425709516E+007, +4.02159352361E-001, +1.70452618383E+002
+1.41093489149E+007, +4.50783704398E-001, +1.72600100197E+002
+1.42761268781E+007, +5.17463142323E-001, +1.74826859603E+002
+1.44429048414E+007, +4.83393147022E-001, +1.77004178688E+002
+1.46096828047E+007, +4.53470654230E-001, +1.79302048221E+002
+1.47764607679E+007, +5.36838940332E-001, +1.81503399627E+002
+1.49432387312E+007, +3.71973636753E-001, +1.83588705110E+002
+1.51100166945E+007, +3.66387175160E-001, +1.85827790367E+002
+1.52767946578E+007, +6.73935966436E-001, +1.88120181182E+002
+1.54435726210E+007, +5.22284838115E-001, +1.90245048980E+002
+1.56103505843E+007, +7.31358805653E-001, +1.92322770271E+002
+1.57771285476E+007, +5.53739966137E-001, +1.94729348059E+002
+1.59439065109E+007, +6.31376471807E-001, +1.96849144110E+002
+1.61106844741E+007, +4.90090658226E-001, +1.99208591536E+002
+1.62774624374E+007, +4.87065053268E-001, +2.01633487513E+002
+1.64442404007E+007, +6.06718656000E-001, +2.03669385337E+002
+1.66110183639E+007, +5.15770658060E-001, +2.05700417697E+002
+1.67777963272E+007, +6.35708076815E-001, +2.08444985886E+002
+1.69445742905E+007, +7.33735297002E-001, +2.10556276025E+002
+1.71113522538E+007, -3.72984456088E-002, +2.12458003525E+002
+1.72781302170E+007, +4.03740716969E-001, +2.15288739800E+002
+1.74449081803E+007, +4.62023607247E-001, +2.17353738060E+002
+1.76116861436E+007, +4.72675850314E-001, +2.19934525657E+002
+1.77784641068E+007, +3.39496163563E-001, +2.21963500052E+002
+1.79452420701E+007, +5.47280161889E-001, +2.24434127885E+002
+1.81120200334E+007, +6.72916149935E-001, +2.26732406297E+002
+1.82787979967E+007, +7.60200974552E-001, +2.29014113204E+002
+1.84455759599E+007, +7.49671479222E-001, +2.31356156296E+002
+1.86123539232E+007, +8.41514123105E-001, +2.33591449171E+002
+1.87791318865E+007, +7.68195464622E-001, +2.36018926204E+002
+1.89459098497E+007, +8.89301731768E-001, +2.38463474621E+002
+1.91126878130E+007, +9.63532856386E-001, +2.40805133021E+002
+1.92794657763E+007, +9.16646374274E-001, +2.43192356419E+002
+1.94462437396E+007, +7.48699396203E-001, +2.45783012269E+002
+1.96130217028E+007, +7.57527081675E-001, +2.48003491248E+002
+1.97797996661E+007, +9.77692561685E-001, +2.50406884623E+002
+1.99465776294E+007, +5.19972544679E-001, +2.52667416861E+002
+2.01133555927E+007, +6.88831142164E-001, +2.55370239147E+002
+2.02801335559E+007, +7.19701247893E-001, +2.57684099698E+002
+2.04469115192E+007, +1.04193713407E+000, +2.60416066851E+002
+2.06136894825E+007, +7.50661484604E-001, +2.62687385443E+002
+2.07804674457E+007, +8.08701973747E-001, +2.65333203446E+002
+2.09472454090E+007, +8.54294071555E-001, +2.67946584488E+002
+2.11140233723E+007, +1.00198504086E+000, +2.70077103775E+002
+2.12808013356E+007, +1.16393523120E+000, +2.72555737068E+002
+2.14475792988E+007, +9.05065175934E-001, +2.75318198015E+002
+2.16143572621E+007, +1.31602990282E+000, +2.77574944621E+002
+2.17811352254E+007, +1.24992082179E+000, +2.80119246175E+002
+2.19479131886E+007, +1.73423604083E+000, +2.82730870593E+002
+2.21146911519E+007, +1.64348062358E+000, +2.84820209670E+002
+2.22814691152E+007, +1.30404322351E+000, +2.87682194167E+002
+2.24482470785E+007, +1.61617079309E+000, +2.90237826786E+002
+2.26150250417E+007, +2.20039807694E+000, +2.92696162182E+002
+2.27818030050E+007, +1.76277782752E+000, +2.95416310664E+002
+2.29485809683E+007, +2.39092552290E+000, +2.98087428618E+002
+2.31153589316E+007, +1.38856682295E+000, +3.01005272977E+002
+2.32821368948E+007, +1.93686545517E+000, +3.03606519335E+002
+2.34489148581E+007, +1.84457780214E+000, +3.05871460837E+002
+2.36156928214E+007, +2.67010594048E+000, +3.08777666016E+002
+2.37824707846E+007, +2.05424721968E+000, +3.10675347711E+002
+2.39492487479E+007, +2.16549454152E+000, +3.13184495333E+002
+2.41160267112E+007, +2.67105787933E+000, +3.15738790574E+002
+2.42828046745E+007, +2.76339011250E+000, +3.18495739069E+002
+2.44495826377E+007, +2.74246323651E+000, +3.22355486587E+002
+2.46163606010E+007, +2.53130671205E+000, +3.24089321279E+002
+2.47831385643E+007, +2.55709317594E+000, +3.27060094654E+002
+2.49499165275E+007, +3.13710187936E+000, +3.29409861854E+002
+2.51166944908E+007, +3.14663860446E+000, +3.32380862219E+002
+2.52834724541E+007, +3.20138750721E+000, +3.34831949200E+002
+2.54502504174E+007, +3.33495217255E+000, +3.38236813857E+002
+2.56170283806E+007, +2.87499999968E+000, +3.40375260612E+002
+2.57838063439E+007, +3.10919954892E+000, +3.43503097350E+002
+2.59505843072E+007, +3.52149314239E+000, +3.46733759869E+002
+2.61173622705E+007, +3.44399577461E+000, +3.48951900762E+002
+2.62841402337E+007, +3.69692161537E+000, +3.51862845866E+002
+2.64509181970E+007, +3.17824110870E+000, +3.54575893759E+002
+2.66176961603E+007, +3.05627336373E+000, +3.57730095058E+002
+2.67844741235E+007, +3.80982547803E+000, +3.59973843804E+002
+2.69512520868E+007, +3.65216103366E+000, +3.62972889225E+002
+2.71180300501E+007, +3.76417332617E+000, +3.65180887849E+002
+2.72848080134E+007, +4.33499945551E+000, +3.68938564748E+002
+2.74515859766E+007, +4.50874129462E+000, +3.71337314391E+002
+2.76183639399E+007, +4.23517212512E+000, +3.73975835745E+002
+2.77851419032E+007, +4.08973900607E+000, +3.77206472699E+002
+2.79519198664E+007, +4.34822296697E+000, +3.79652194414E+002
+2.81186978297E+007, +4.87631807148E+000, +3.82454597894E+002
+2.82854757930E+007, +5.08873413646E+000, +3.85607025081E+002
+2.84522537563E+007, +3.85798812069E+000, +3.88709876112E+002
+2.86190317195E+007, +3.85511764532E+000, +3.91332628672E+002
+2.87858096828E+007, +5.33807448771E+000, +3.95238418092E+002
+2.89525876461E+007, +5.57298929270E+000, +3.97857657743E+002
+2.91193656093E+007, +4.26578039584E+000, +4.00222484860E+002
+2.92861435726E+007, +4.24868380717E+000, +4.02929784637E+002
+2.94529215359E+007, +4.61187829085E+000, +4.06577609006E+002
+2.96196994992E+007, +5.43922189545E+000, +4.09816528526E+002
+2.97864774624E+007, +5.54785293664E+000, +4.12831256502E+002
+2.99532554257E+007, +5.99099865547E+000, +4.16711469575E+002
+3.01200333890E+007, +5.33973647147E+000, +4.19129987972E+002
+3.02868113523E+007, +5.63589903305E+000, +4.22504282437E+002
+3.04535893155E+007, +4.98614656677E+000, +4.26238007332E+002
+3.06203672788E+007, +5.82381871476E+000, +4.28460719590E+002
+3.07871452421E+007, +5.65724902043E+000, +4.31831649522E+002
+3.09539232053E+007, +5.34114199795E+000, +4.34904839723E+002
+3.11207011686E+007, +5.08304795332E+000, +4.39138281908E+002
+3.12874791319E+007, +5.57450850558E+000, +4.41443475403E+002
+3.14542570952E+007, +5.74146558071E+000, +4.44948904759E+002
+3.16210350584E+007, +4.74799834650E+000, +4.48698618962E+002
+3.17878130217E+007, +4.72254943898E+000, +4.51689291811E+002
+3.19545909850E+007, +5.07967120955E+000, +4.54898361430E+002
+3.21213689482E+007, +3.74369722593E+000, +4.58685943776E+002
+3.22881469115E+007, +4.76757056818E+000, +4.61673688541E+002
+3.24549248748E+007, +4.77955773680E+000, +4.64474499532E+002
+3.26217028381E+007, +4.85013799711E+000, +4.69074737756E+002
+3.27884808013E+007, +4.93414487496E+000, +4.71234282067E+002
+3.29552587646E+007, +5.88472846876E+000, +4.74767952940E+002
+3.31220367279E+007, +6.95286071722E+000, +4.78111236745E+002
+3.32888146912E+007, +4.67430862370E+000, +4.82493478524E+002
+3.34555926544E+007, +5.02481185886E+000, +4.86061757994E+002
+3.36223706177E+007, +5.69914858368E+000, +4.88911443795E+002
+3.37891485810E+007, +5.57026422969E+000, +4.91887259535E+002
+3.39559265442E+007, +6.31652728384E+000, +4.97099151045E+002
+3.41227045075E+007, +5.57151461005E+000, +4.99666507825E+002
+3.42894824708E+007, +4.89108055527E+000, +5.03830030786E+002
+3.44562604341E+007, +5.38742143126E+000, +5.08237603846E+002
+3.46230383973E+007, +5.95746576304E+000, +5.12250182141E+002
+3.47898163606E+007, +6.17938980086E+000, +5.14650954749E+002
+3.49565943239E+007, +7.09264657905E+000, +5.19573374274E+002
+3.51233722871E+007, +5.30664226874E+000, +5.22777284109E+002
+3.52901502504E+007, +7.58310774243E+000, +5.26736390609E+002
+3.54569282137E+007, +5.61768167203E+000, +5.30398073460E+002
+3.56237061770E+007, +4.82097132861E+000, +5.35345330497E+002
+3.57904841402E+007, +6.20019865235E+000, +5.38367306102E+002
+3.59572621035E+007, +6.11180919103E+000, +5.43152149621E+002
+3.61240400668E+007, +6.73798274054E+000, +5.45590407224E+002
+3.62908180301E+007, +6.85497038434E+000, +5.51944402853E+002
+3.64575959933E+007, +5.44554952481E+000, +5.54559823907E+002
+3.66243739566E+007, +6.64552950224E+000, +5.57792897147E+002
+3.67911519199E+007, +6.76701517378E+000, +5.63039874799E+002
+3.69579298831E+007, +6.20265609579E+000, +5.67197343058E+002
+3.71247078464E+007, +7.47058603836E+000, +5.72351211926E+002
+3.72914858097E+007, +6.31329931146E+000, +5.77528192838E+002
+3.74582637730E+007, +7.49471608027E+000, +5.81982875877E+002
+3.76250417362E+007, +8.14158580624E+000, +5.83719049406E+002
+3.77918196995E+007, +6.74205698571E+000, +5.88725851502E+002
+3.79585976628E+007, +6.31861913502E+000, +5.94477531144E+002
+3.81253756260E+007, +7.30825256143E+000, +5.98798267885E+002
+3.82921535893E+007, +8.33537268402E+000, +6.02501595114E+002
+3.84589315526E+007, +8.51247525137E+000, +6.07280995462E+002
+3.86257095159E+007, +7.07842487001E+000, +6.12242124938E+002
+3.87924874791E+007, +6.44459133314E+000, +6.16412040788E+002
+3.89592654424E+007, +7.56690968072E+000, +6.21910479107E+002
+3.91260434057E+007, +7.65538270858E+000, +6.27954516887E+002
+3.92928213689E+007, +8.33707330379E+000, +6.31533290792E+002
+3.94595993322E+007, +6.75139221999E+000, +6.36970427648E+002
+3.96263772955E+007, +6.97125954834E+000, +6.41196820439E+002
+3.97931552588E+007, +7.09217721849E+000, +6.46728329330E+002
+3.99599332220E+007, +6.74371160838E+000, +6.50876066536E+002
+4.01267111853E+007, +6.12093762885E+000, +6.58949966275E+002
+4.02934891486E+007, +6.15245913474E+000, +6.60519698785E+002
+4.04602671119E+007, +8.08315869524E+000, +6.64621095479E+002
+4.06270450751E+007, +8.28700170245E+000, +6.71916528971E+002
+4.07938230384E+007, +1.02118845274E+001, +6.77478599298E+002
+4.09606010017E+007, +6.61776404448E+000, +6.82424139219E+002
+4.11273789649E+007, +1.01087151303E+001, +6.86546133000E+002
+4.12941569282E+007, +7.95472543796E+000, +6.93262607729E+002
+4.14609348915E+007, +9.26059380302E+000, +7.01932149921E+002
+4.16277128548E+007, +1.27284359128E+001, +7.05084469880E+002
+4.17944908180E+007, +8.82607815980E+000, +7.10070054468E+002
+4.19612687813E+007, +1.04394985675E+001, +7.13220138712E+002
+4.21280467446E+007, +1.00640095594E+001, +7.21364502739E+002
+4.22948247078E+007, +9.00407665360E+000, +7.29653281555E+002
+4.24616026711E+007, +1.25966810683E+001, +7.31669280386E+002
+4.26283806344E+007, +1.24050257607E+001, +7.40971883844E+002
+4.27951585977E+007, +8.36985180778E+000, +7.47807790129E+002
+4.29619365609E+007, +1.24778886103E+001, +7.54382336689E+002
+4.31287145242E+007, +1.33462376976E+001, +7.60176231584E+002
+4.32954924875E+007, +1.24743355885E+001, +7.63701057393E+002
+4.34622704508E+007, +1.13842230161E+001, +7.74289537091E+002
+4.36290484140E+007, +1.43681565591E+001, +7.78478403887E+002
+4.37958263773E+007, +1.08162598761E+001, +7.85900401900E+002
+4.39626043406E+007, +1.43355367453E+001, +7.90174613344E+002
+4.41293823038E+007, +1.27388263238E+001, +8.00306678564E+002
+4.42961602671E+007, +1.30361065602E+001, +8.06926500455E+002
+4.44629382304E+007, +1.35780940567E+001, +8.13711088247E+002
+4.46297161937E+007, +1.55404710927E+001, +8.18962412308E+002
+4.47964941569E+007, +1.09052974580E+001, +8.26013817899E+002
+4.49632721202E+007, +1.39994868104E+001, +8.35023599144E+002
+4.51300500835E+007, +1.55233505503E+001, +8.39539088767E+002
+4.52968280467E+007, +1.72908565654E+001, +8.46647211744E+002
+4.54636060100E+007, +1.61025322500E+001, +8.59740428257E+002
+4.56303839733E+007, +1.58336313307E+001, +8.67072468166E+002
+4.57971619366E+007, +1.73403462131E+001, +8.69273563850E+002
+4.59639398998E+007, +1.54991578374E+001, +8.83148854547E+002
+4.61307178631E+007, +1.70259108812E+001, +8.89482491095E+002
+4.62974958264E+007, +1.91220967262E+001, +8.98423190178E+002
+4.64642737896E+007, +1.41728752206E+001, +9.06279411827E+002
+4.66310517529E+007, +1.71307256984E+001, +9.15587343101E+002
+4.67978297162E+007, +2.38702473373E+001, +9.22190381879E+002
+4.69646076795E+007, +1.78899243914E+001, +9.35123914454E+002
+4.71313856427E+007, +2.25755685221E+001, +9.40086787011E+002
+4.72981636060E+007, +2.19876329788E+001, +9.51540430308E+002
+4.74649415693E+007, +2.26060270887E+001, +9.61279096934E+002
+4.76317195326E+007, +2.78427786718E+001, +9.69228994418E+002
+4.77984974958E+007, +2.91042743382E+001, +9.80650659101E+002
+4.79652754591E+007, +2.78529855582E+001, +9.88485688042E+002
+4.81320534224E+007, +3.12805987521E+001, +9.97599455050E+002
+4.82988313856E+007, +2.79441292183E+001, +1.00728048814E+003
+4.84656093489E+007, +3.01029819163E+001, +1.01938011279E+003
+4.86323873122E+007, +3.58901464022E+001, +1.02476046798E+003
+4.87991652755E+007, +3.64226064415E+001, +1.04381597766E+003
+4.89659432387E+007, +3.62557465183E+001, +1.04707890764E+003
+4.91327212020E+007, +3.55981924593E+001, +1.06225495125E+003
+4.92994991653E+007, +4.09493617503E+001, +1.06993879601E+003
+4.94662771285E+007, +4.53023868204E+001, +1.08532126300E+003
+4.96330550918E+007, +4.45873556860E+001, +1.09357544417E+003
+4.97998330551E+007, +4.86328987621E+001, +1.10145917142E+003
+4.99666110184E+007, +5.08179196817E+001, +1.11436780418E+003
+5.01333889816E+007, +4.80819473560E+001, +1.12756535485E+003
+5.03001669449E+007, +4.88088004037E+001, +1.13919975285E+003
+5.04669449082E+007, +5.30809741349E+001, +1.14709130775E+003
+5.06337228715E+007, +5.75910638980E+001, +1.16385649399E+003
+5.08005008347E+007, +5.83794055154E+001, +1.17462150038E+003
+5.09672787980E+007, +6.19486138573E+001, +1.18750743634E+003
+5.11340567613E+007, +5.80784184778E+001, +1.20085897407E+003
+5.13008347245E+007, +5.79714506606E+001, +1.21645214117E+003
+5.14676126878E+007, +6.07413431409E+001, +1.22605159017E+003
+5.16343906511E+007, +6.78801300504E+001, +1.24292889559E+003
+5.18011686144E+007, +6.30030503045E+001, +1.25731362375E+003
+5.19679465776E+007, +6.43919364708E+001, +1.27218272777E+003
+5.21347245409E+007, +6.80351299395E+001, +1.28913085621E+003
+5.23015025042E+007, +7.24659899002E+001, +1.31532412109E+003
+5.24682804674E+007, +7.03851377140E+001, +1.32049318875E+003
+5.26350584307E+007, +7.08371809737E+001, +1.33515849494E+003
+5.28018363940E+007, +7.18972379105E+001, +1.36431979947E+003
+5.29686143573E+007, +7.65399349847E+001, +1.37977218644E+003
+5.31353923205E+007, +7.73795385431E+001, +1.38948550072E+003
+5.33021702838E+007, +7.65803108050E+001, +1.41158081627E+003
+5.34689482471E+007, +9.06099784421E+001, +1.42845092299E+003
