"# Channel 1"
"# Trace 1"
Frequency, Formatted Data, Formatted Data
+1.00000000000E+005, +7.63737549645E+001, +1.65742043475E+000
+3.18898623279E+005, +7.64967938577E+001, +4.74471578880E+000
+5.37797246558E+005, +7.64807334400E+001, +7.89655029715E+000
+7.56695869837E+005, +7.64830751889E+001, +1.09776564694E+001
+9.75594493116E+005, +7.65769294920E+001, +1.43534185278E+001
+1.19449311640E+006, +7.65168459958E+001, +1.73850450277E+001
+1.41339173967E+006, +7.65226842534E+001, +2.07039801960E+001
+1.63229036295E+006, +7.65736622892E+001, +2.38819379726E+001
+1.85118898623E+006, +7.65376714050E+001, +2.71773428350E+001
+2.07008760951E+006, +7.65076022523E+001, +3.02683651642E+001
+2.28898623279E+006, +7.66221803240E+001, +3.36287464284E+001
+2.50788485607E+006, +7.67275997795E+001, +3.66195313245E+001
+2.72678347935E+006, +7.65094705037E+001, +3.99280089372E+001
+2.94568210263E+006, +7.65857743002E+001, +4.31341616542E+001
+3.16458072591E+006, +7.64602254158E+001, +4.65830329807E+001
+3.38347934919E+006, +7.67168066013E+001, +4.95247883482E+001
+3.60237797247E+006, +7.66582337401E+001, +5.26620456196E+001
+3.82127659574E+006, +7.67383934561E+001, +5.57797324476E+001
+4.04017521902E+006, +7.70070128864E+001, +5.90670047449E+001
+4.25907384230E+006, +7.66927200557E+001, +6.23348196841E+001
+4.47797246558E+006, +7.68899397830E+001, +6.55560379606E+001
+4.69687108886E+006, +7.66799212907E+001, +6.87365894286E+001
+4.91576971214E+006, +7.66976107016E+001, +7.19510153200E+001
+5.13466833542E+006, +7.69537244297E+001, +7.51223647548E+001
+5.35356695870E+006, +7.71004619021E+001, +7.83693372378E+001
+5.57246558198E+006, +7.69755026260E+001, +8.14593663548E+001
+5.79136420526E+006, +7.71936786592E+001, +8.50059770926E+001
+6.01026282854E+006, +7.71379717939E+001, +8.77619907460E+001
+6.22916145181E+006, +7.72603422581E+001, +9.12213179505E+001
+6.44806007509E+006, +7.72681898458E+001, +9.43614464682E+001
+6.66695869837E+006, +7.75046310285E+001, +9.76097077606E+001
+6.88585732165E+006, +7.73992005703E+001, +1.01002409886E+002
+7.10475594493E+006, +7.75428584528E+001, +1.04134681873E+002
+7.32365456821E+006, +7.75647592963E+001, +1.07399174570E+002
+7.54255319149E+006, +7.76178875833E+001, +1.10502388575E+002
+7.76145181477E+006, +7.79194634593E+001, +1.13756451996E+002
+7.98035043805E+006, +7.79508639626E+001, +1.17220034694E+002
+8.19924906133E+006, +7.78725344435E+001, +1.20300658552E+002
+8.41814768461E+006, +7.81428672279E+001, +1.23393018981E+002
+8.63704630788E+006, +7.80836826924E+001, +1.26721991638E+002
+8.85594493116E+006, +7.82172728056E+001, +1.29995164953E+002
+9.07484355444E+006, +7.81695099064E+001, +1.33350783677E+002
+9.29374217772E+006, +7.83820776405E+001, +1.36693312209E+002
+9.51264080100E+006, +7.84421026782E+001, +1.39796252408E+002
+9.73153942428E+006, +7.87155830419E+001, +1.43375926086E+002
+9.95043804756E+006, +7.85182921777E+001, +1.46466577942E+002
+1.01693366708E+007, +7.88459565075E+001, +1.49518720165E+002
+1.03882352941E+007, +7.87634935441E+001, +1.52921314426E+002
+1.06071339174E+007, +7.88376983087E+001, +1.56302037622E+002
+1.08260325407E+007, +7.89169064399E+001, +1.59575984949E+002
+1.10449311640E+007, +7.92258912284E+001, +1.62881946434E+002
+1.12638297872E+007, +7.90888814346E+001, +1.66488908117E+002
+1.14827284105E+007, +7.92270453156E+001, +1.69422283137E+002
+1.17016270338E+007, +7.93703333025E+001, +1.72944487116E+002
+1.19205256571E+007, +7.94680951106E+001, +1.75997645834E+002
+1.21394242804E+007, +7.96470868627E+001, +1.79370058678E+002
+1.23583229036E+007, +7.99038396962E+001, +1.82996456376E+002
+1.25772215269E+007, +7.97404288579E+001, +1.86028714876E+002
+1.27961201502E+007, +7.99697030783E+001, +1.89440543691E+002
+1.30150187735E+007, +8.01001801823E+001, +1.92864753279E+002
+1.32339173967E+007, +8.02648619903E+001, +1.96304609697E+002
+1.34528160200E+007, +7.98345267369E+001, +1.99661900208E+002
+1.36717146433E+007, +8.04288553830E+001, +2.03073130395E+002
+1.38906132666E+007, +8.05350449676E+001, +2.06768705000E+002
+1.41095118899E+007, +8.07077583826E+001, +2.09992444886E+002
+1.43284105131E+007, +8.06421837941E+001, +2.13356212532E+002
+1.45473091364E+007, +8.10116292535E+001, +2.16793049234E+002
+1.47662077597E+007, +8.11235382438E+001, +2.19893777890E+002
+1.49851063830E+007, +8.13338643156E+001, +2.23654893768E+002
+1.52040050063E+007, +8.14918998141E+001, +2.27150157856E+002
+1.54229036295E+007, +8.16289485979E+001, +2.30605186996E+002
+1.56418022528E+007, +8.13502784497E+001, +2.34166937431E+002
+1.58607008761E+007, +8.15624247632E+001, +2.37319054326E+002
+1.60795994994E+007, +8.18404167456E+001, +2.41176395635E+002
+1.62984981227E+007, +8.20669891254E+001, +2.44369991373E+002
+1.65173967459E+007, +8.22219192868E+001, +2.47924310547E+002
+1.67362953692E+007, +8.21694282530E+001, +2.51696125742E+002
+1.69551939925E+007, +8.24269011669E+001, +2.54174980172E+002
+1.71740926158E+007, +8.18575760722E+001, +2.58732019308E+002
+1.73929912390E+007, +8.20709464838E+001, +2.62106744732E+002
+1.76118898623E+007, +8.27019582681E+001, +2.65449640803E+002
+1.78307884856E+007, +8.34228696128E+001, +2.69032478128E+002
+1.80496871089E+007, +8.32475733763E+001, +2.72525534893E+002
+1.82685857322E+007, +8.33562309356E+001, +2.76225466087E+002
+1.84874843554E+007, +8.36253654846E+001, +2.79809210226E+002
+1.87063829787E+007, +8.35616128337E+001, +2.83149992852E+002
+1.89252816020E+007, +8.41463187411E+001, +2.86932946086E+002
+1.91441802253E+007, +8.42354986619E+001, +2.89868965183E+002
+1.93630788486E+007, +8.42816015732E+001, +2.93867103425E+002
+1.95819774718E+007, +8.47964829100E+001, +2.97735994470E+002
+1.98008760951E+007, +8.44890143357E+001, +3.01715841419E+002
+2.00197747184E+007, +8.50741537425E+001, +3.05275218114E+002
+2.02386733417E+007, +8.47418665563E+001, +3.08753940188E+002
+2.04575719650E+007, +8.53594126665E+001, +3.12025991734E+002
+2.06764705882E+007, +8.58207437921E+001, +3.16081531945E+002
+2.08953692115E+007, +8.61811236865E+001, +3.20270548937E+002
+2.11142678348E+007, +8.62054066700E+001, +3.22849215932E+002
+2.13331664581E+007, +8.69848308406E+001, +3.27138917917E+002
+2.15520650814E+007, +8.69858963783E+001, +3.30130070201E+002
+2.17709637046E+007, +8.73447355081E+001, +3.35027769302E+002
+2.19898623279E+007, +8.78328941405E+001, +3.38196331772E+002
+2.22087609512E+007, +8.63652504842E+001, +3.41910682847E+002
+2.24276595745E+007, +8.88940310208E+001, +3.46420334838E+002
+2.26465581977E+007, +8.84086851547E+001, +3.49143488945E+002
+2.28654568210E+007, +8.93414475084E+001, +3.53284906980E+002
+2.30843554443E+007, +8.90383466218E+001, +3.56569286356E+002
+2.33032540676E+007, +8.85938505186E+001, +3.60961745778E+002
+2.35221526909E+007, +8.95591165614E+001, +3.65084040258E+002
+2.37410513141E+007, +8.94091209771E+001, +3.67910716008E+002
+2.39599499374E+007, +9.00934456394E+001, +3.72442022791E+002
+2.41788485607E+007, +9.03329124632E+001, +3.76149284377E+002
+2.43977471840E+007, +9.03632473165E+001, +3.79832703244E+002
+2.46166458073E+007, +9.06689100222E+001, +3.84746421481E+002
+2.48355444305E+007, +9.09737583865E+001, +3.87641720501E+002
+2.50544430538E+007, +9.31271521375E+001, +3.91730610694E+002
+2.52733416771E+007, +9.33554201304E+001, +3.94974444347E+002
+2.54922403004E+007, +9.24225388769E+001, +3.99389915307E+002
+2.57111389237E+007, +9.32794228512E+001, +4.03894755171E+002
+2.59300375469E+007, +9.28241851617E+001, +4.07313201629E+002
+2.61489361702E+007, +9.26234530069E+001, +4.11266281175E+002
+2.63678347935E+007, +9.27554220632E+001, +4.15966419260E+002
+2.65867334168E+007, +9.47997047417E+001, +4.18838895438E+002
+2.68056320401E+007, +9.46043188869E+001, +4.23724229282E+002
+2.70245306633E+007, +9.39432620309E+001, +4.27801447982E+002
+2.72434292866E+007, +9.46209933103E+001, +4.30507101370E+002
+2.74623279099E+007, +9.45065299009E+001, +4.36339528146E+002
+2.76812265332E+007, +9.49099133494E+001, +4.40454056641E+002
+2.79001251564E+007, +9.56313308462E+001, +4.45050959689E+002
+2.81190237797E+007, +9.67337320270E+001, +4.47972759017E+002
+2.83379224030E+007, +9.62384898647E+001, +4.51415758512E+002
+2.85568210263E+007, +9.54555644159E+001, +4.56947290586E+002
+2.87757196496E+007, +9.59357258555E+001, +4.61931025512E+002
+2.89946182728E+007, +9.62560264801E+001, +4.66438503850E+002
+2.92135168961E+007, +9.69402623786E+001, +4.71146259650E+002
+2.94324155194E+007, +9.73444678338E+001, +4.75223043046E+002
+2.96513141427E+007, +9.83201006092E+001, +4.79602850444E+002
+2.98702127660E+007, +9.77347516297E+001, +4.83305169408E+002
+3.00891113892E+007, +9.79485553505E+001, +4.87045384644E+002
+3.03080100125E+007, +9.86988996322E+001, +4.91204045338E+002
+3.05269086358E+007, +1.00703974594E+002, +4.97115605581E+002
+3.07458072591E+007, +1.00374809292E+002, +4.99100130770E+002
+3.09647058824E+007, +1.01386799333E+002, +5.05381850929E+002
+3.11836045056E+007, +1.00238538494E+002, +5.09301267031E+002
+3.14025031289E+007, +1.00625568343E+002, +5.14135373790E+002
+3.16214017522E+007, +1.03219898931E+002, +5.18219404412E+002
+3.18403003755E+007, +1.00731998326E+002, +5.25262859210E+002
+3.20591989987E+007, +1.02464126265E+002, +5.28332108430E+002
+3.22780976220E+007, +1.02028299464E+002, +5.31923256944E+002
+3.24969962453E+007, +1.02388566359E+002, +5.36318595160E+002
+3.27158948686E+007, +1.02380683850E+002, +5.40991247910E+002
+3.29347934919E+007, +1.01650730231E+002, +5.46963781144E+002
+3.31536921151E+007, +1.03347530803E+002, +5.50390812271E+002
+3.33725907384E+007, +1.05089645444E+002, +5.56342411631E+002
+3.35914893617E+007, +1.05973478520E+002, +5.61339365470E+002
+3.38103879850E+007, +1.04655171840E+002, +5.65898983896E+002
+3.40292866083E+007, +1.06554967633E+002, +5.70710259935E+002
+3.42481852315E+007, +1.06908409566E+002, +5.74804822948E+002
+3.44670838548E+007, +1.06093377862E+002, +5.80603383422E+002
+3.46859824781E+007, +1.08612615845E+002, +5.85276430066E+002
+3.49048811014E+007, +1.09377708842E+002, +5.91540582235E+002
+3.51237797247E+007, +1.09458919101E+002, +5.95275840988E+002
+3.53426783479E+007, +1.09751227780E+002, +6.00161889258E+002
+3.55615769712E+007, +1.11147771821E+002, +6.06799459306E+002
+3.57804755945E+007, +1.11222097936E+002, +6.08765626478E+002
+3.59993742178E+007, +1.11706925445E+002, +6.18219985459E+002
+3.62182728411E+007, +1.11311533044E+002, +6.20487803020E+002
+3.64371714643E+007, +1.12140693723E+002, +6.24575808126E+002
+3.66560700876E+007, +1.12046847134E+002, +6.31912043085E+002
+3.68749687109E+007, +1.13275579737E+002, +6.39099516584E+002
+3.70938673342E+007, +1.15566873183E+002, +6.43399499433E+002
+3.73127659574E+007, +1.15188418469E+002, +6.47770278247E+002
+3.75316645807E+007, +1.13813811229E+002, +6.52665424484E+002
+3.77505632040E+007, +1.16317038637E+002, +6.57905886312E+002
+3.79694618273E+007, +1.17655529854E+002, +6.63229134189E+002
+3.81883604506E+007, +1.15885148888E+002, +6.68785478728E+002
+3.84072590738E+007, +1.16202765416E+002, +6.74685106070E+002
+3.86261576971E+007, +1.17778366562E+002, +6.79073707471E+002
+3.88450563204E+007, +1.21181692533E+002, +6.85819747930E+002
+3.90639549437E+007, +1.20750182849E+002, +6.90669141115E+002
+3.92828535670E+007, +1.21114387156E+002, +6.98733963018E+002
+3.95017521902E+007, +1.22233331536E+002, +7.01422801043E+002
+3.97206508135E+007, +1.23486387843E+002, +7.10010781834E+002
+3.99395494368E+007, +1.21340896438E+002, +7.14851965990E+002
+4.01584480601E+007, +1.24399788994E+002, +7.21187087797E+002
+4.03773466834E+007, +1.26605964351E+002, +7.27835955838E+002
+4.05962453066E+007, +1.23259709547E+002, +7.32636953438E+002
+4.08151439299E+007, +1.27500178849E+002, +7.36149147584E+002
+4.10340425532E+007, +1.25955765300E+002, +7.45155965314E+002
+4.12529411765E+007, +1.27080763131E+002, +7.48309789259E+002
+4.14718397997E+007, +1.27335164839E+002, +7.57273340250E+002
+4.16907384230E+007, +1.29422798360E+002, +7.63811326576E+002
+4.19096370463E+007, +1.28888705184E+002, +7.69857270185E+002
+4.21285356696E+007, +1.31243495284E+002, +7.75794982784E+002
+4.23474342929E+007, +1.29721700175E+002, +7.85115192257E+002
+4.25663329161E+007, +1.35955365196E+002, +7.89069106912E+002
+4.27852315394E+007, +1.34761657698E+002, +7.95831863571E+002
+4.30041301627E+007, +1.36444966740E+002, +8.05410600648E+002
+4.32230287860E+007, +1.36512905741E+002, +8.11143605012E+002
+4.34419274093E+007, +1.39040449670E+002, +8.18174106370E+002
+4.36608260325E+007, +1.37633687767E+002, +8.19106724314E+002
+4.38797246558E+007, +1.39637253427E+002, +8.29765390842E+002
+4.40986232791E+007, +1.41506337089E+002, +8.33008376829E+002
+4.43175219024E+007, +1.42230116736E+002, +8.41410985793E+002
+4.45364205257E+007, +1.42910932120E+002, +8.54003436882E+002
+4.47553191489E+007, +1.45280419688E+002, +8.56875041806E+002
+4.49742177722E+007, +1.46592602623E+002, +8.64983743428E+002
+4.51931163955E+007, +1.45354411761E+002, +8.68303157761E+002
+4.54120150188E+007, +1.47305667247E+002, +8.75064923092E+002
+4.56309136421E+007, +1.48911438855E+002, +8.84554541200E+002
+4.58498122653E+007, +1.47993534168E+002, +8.87591660627E+002
+4.60687108886E+007, +1.50864145161E+002, +9.00343079837E+002
+4.62876095119E+007, +1.53077155534E+002, +9.06081024342E+002
+4.65065081352E+007, +1.55483638241E+002, +9.12941782074E+002
+4.67254067584E+007, +1.52183942928E+002, +9.20996689103E+002
+4.69443053817E+007, +1.55278660234E+002, +9.25908382623E+002
+4.71632040050E+007, +1.53568093265E+002, +9.41921718150E+002
+4.73821026283E+007, +1.57492799653E+002, +9.45532889911E+002
+4.76010012516E+007, +1.60357155125E+002, +9.54076834180E+002
+4.78198998748E+007, +1.62733780260E+002, +9.59083332674E+002
+4.80387984981E+007, +1.63166180164E+002, +9.67540491318E+002
+4.82576971214E+007, +1.65259161405E+002, +9.78204160653E+002
+4.84765957447E+007, +1.67187801970E+002, +9.84427334015E+002
+4.86954943680E+007, +1.60189843099E+002, +9.94658529742E+002
+4.89143929912E+007, +1.67469785085E+002, +1.00386402337E+003
+4.91332916145E+007, +1.71987110408E+002, +1.00969590957E+003
+4.93521902378E+007, +1.72966188820E+002, +1.02043481932E+003
+4.95710888611E+007, +1.76951560873E+002, +1.02582534705E+003
+4.97899874844E+007, +1.80196050386E+002, +1.03346778822E+003
+5.00088861076E+007, +1.73202063421E+002, +1.04419508760E+003
+5.02277847309E+007, +1.83961083003E+002, +1.05565137516E+003
+5.04466833542E+007, +1.88067600238E+002, +1.06064716619E+003
+5.06655819775E+007, +1.88810264355E+002, +1.07043635059E+003
+5.08844806008E+007, +1.85688131253E+002, +1.08627933106E+003
+5.11033792240E+007, +1.89618310356E+002, +1.08777044363E+003
+5.13222778473E+007, +1.93562104226E+002, +1.10058601005E+003
+5.15411764706E+007, +1.98664183785E+002, +1.11268486120E+003
+5.17600750939E+007, +1.92688513618E+002, +1.12198181984E+003
+5.19789737171E+007, +1.99038700305E+002, +1.13376994430E+003
+5.21978723404E+007, +1.95310613098E+002, +1.14108095394E+003
+5.24167709637E+007, +1.95980005690E+002, +1.15008273416E+003
+5.26356695870E+007, +2.06610254798E+002, +1.15961326484E+003
+5.28545682103E+007, +2.09846618692E+002, +1.17521166211E+003
+5.30734668335E+007, +2.07560920936E+002, +1.18605170186E+003
+5.32923654568E+007, +2.07610969823E+002, +1.19614673684E+003
+5.35112640801E+007, +2.23031078073E+002, +1.20546963730E+003
+5.37301627034E+007, +2.13737667469E+002, +1.21763044042E+003
+5.39490613267E+007, +2.23600607510E+002, +1.22860256294E+003
+5.41679599499E+007, +2.26610197781E+002, +1.23758005580E+003
+5.43868585732E+007, +2.27121826790E+002, +1.24845755890E+003
+5.46057571965E+007, +2.30426588124E+002, +1.25803941256E+003
+5.48246558198E+007, +2.30331154896E+002, +1.27801173208E+003
+5.50435544431E+007, +2.38479709606E+002, +1.29471884588E+003
+5.52624530663E+007, +2.41775485846E+002, +1.30294096676E+003
+5.54813516896E+007, +2.43061205649E+002, +1.30880644400E+003
+5.57002503129E+007, +2.49200797981E+002, +1.32120806211E+003
+5.59191489362E+007, +2.47776618576E+002, +1.33137645163E+003
+5.61380475594E+007, +2.53145218933E+002, +1.34327229103E+003
+5.63569461827E+007, +2.58129499103E+002, +1.35728689301E+003
+5.65758448060E+007, +2.55993886250E+002, +1.37128667159E+003
+5.67947434293E+007, +2.65464249060E+002, +1.38649574538E+003
+5.70136420526E+007, +2.71318338038E+002, +1.39466346059E+003
+5.72325406758E+007, +2.71874563259E+002, +1.42237192511E+003
+5.74514392991E+007, +2.78552820328E+002, +1.43047989694E+003
+5.76703379224E+007, +2.87141424718E+002, +1.44655546279E+003
+5.78892365457E+007, +2.80826485274E+002, +1.45614899226E+003
+5.81081351690E+007, +2.98708417935E+002, +1.47797356254E+003
+5.83270337922E+007, +2.92940999927E+002, +1.49164769114E+003
+5.85459324155E+007, +3.09816454760E+002, +1.50230163742E+003
+5.87648310388E+007, +3.09136535308E+002, +1.52397133687E+003
+5.89837296621E+007, +3.10012939815E+002, +1.52711156750E+003
+5.92026282854E+007, +3.38373731485E+002, +1.55034435338E+003
+5.94215269086E+007, +3.28201140969E+002, +1.57079045122E+003
+5.96404255319E+007, +3.36029659611E+002, +1.59476440060E+003
+5.98593241552E+007, +3.49683874772E+002, +1.60052840698E+003
+6.00782227785E+007, +3.46452460959E+002, +1.61802625946E+003
+6.02971214018E+007, +3.64941748944E+002, +1.63529355680E+003
+6.05160200250E+007, +3.62445433566E+002, +1.65135882210E+003
+6.07349186483E+007, +3.68373021431E+002, +1.66309026385E+003
+6.09538172716E+007, +3.74099720114E+002, +1.70241198191E+003
+6.11727158949E+007, +3.99173108385E+002, +1.70918838050E+003
+6.13916145181E+007, +3.85652496955E+002, +1.73469994597E+003
+6.16105131414E+007, +3.95647813164E+002, +1.74836788299E+003
+6.18294117647E+007, +4.07719809049E+002, +1.75882462316E+003
+6.20483103880E+007, +4.14049935764E+002, +1.78561618759E+003
+6.22672090113E+007, +4.25045616694E+002, +1.81477931477E+003
+6.24861076345E+007, +4.46243449106E+002, +1.82220416889E+003
+6.27050062578E+007, +4.52697670314E+002, +1.84806547405E+003
+6.29239048811E+007, +4.41328832350E+002, +1.87876904398E+003
+6.31428035044E+007, +4.69965048250E+002, +1.90987296811E+003
+6.33617021277E+007, +4.75685082108E+002, +1.91531050922E+003
+6.35806007509E+007, +4.85331237597E+002, +1.95451554567E+003
+6.37994993742E+007, +4.79670147739E+002, +1.96657398550E+003
+6.40183979975E+007, +5.14649398101E+002, +1.97641828716E+003
+6.42372966208E+007, +5.27286337268E+002, +2.01578483031E+003
+6.44561952441E+007, +5.41658600786E+002, +2.03790699636E+003
+6.46750938673E+007, +5.58262913868E+002, +2.08985851972E+003
+6.48939924906E+007, +5.81605271838E+002, +2.09268634216E+003
+6.51128911139E+007, +5.82909608764E+002, +2.13451950346E+003
+6.53317897372E+007, +6.15991552068E+002, +2.14527299192E+003
+6.55506883605E+007, +6.33853465543E+002, +2.19927717543E+003
+6.57695869837E+007, +6.20867315726E+002, +2.21032262441E+003
+6.59884856070E+007, +6.69937534193E+002, +2.22999973099E+003
+6.62073842303E+007, +6.49218990341E+002, +2.27785213873E+003
+6.64262828536E+007, +6.79478243851E+002, +2.28315053279E+003
+6.66451814768E+007, +6.93893326685E+002, +2.32344780115E+003
+6.68640801001E+007, +7.31516923003E+002, +2.35815382574E+003
+6.70829787234E+007, +7.46103700524E+002, +2.39523621570E+003
+6.73018773467E+007, +7.91398395254E+002, +2.38506104205E+003
+6.75207759700E+007, +8.10481203737E+002, +2.44568346775E+003
+6.77396745932E+007, +8.04171854463E+002, +2.47410434852E+003
+6.79585732165E+007, +8.84297584253E+002, +2.51160151374E+003
+6.81774718398E+007, +8.62915585693E+002, +2.55180755569E+003
+6.83963704631E+007, +8.83065260152E+002, +2.59560409663E+003
+6.86152690864E+007, +9.65692436048E+002, +2.60335006644E+003
+6.88341677096E+007, +9.59599195217E+002, +2.65440296822E+003
+6.90530663329E+007, +9.97335089854E+002, +2.67773228798E+003
+6.92719649562E+007, +1.06445463715E+003, +2.73023181752E+003
+6.94908635795E+007, +1.08734898560E+003, +2.75589889179E+003
+6.97097622028E+007, +1.09607635123E+003, +2.77230520803E+003
+6.99286608260E+007, +1.18256768906E+003, +2.86846813768E+003
+7.01475594493E+007, +1.20295342441E+003, +2.86684399232E+003
