"# Channel 1"
"# Trace 1"
Frequency, Formatted Data, Formatted Data
+1.00000000000E+005, +2.68248477936E+001, +1.24875326328E+000
+2.25031289111E+005, +2.68262836733E+001, +2.96880675360E+000
+3.50062578223E+005, +2.68253953843E+001, +4.59576182298E+000
+4.75093867334E+005, +2.68936078020E+001, +6.18317708846E+000
+6.00125156446E+005, +2.68742903503E+001, +7.78007210669E+000
+7.25156445557E+005, +2.69018448820E+001, +9.40740637567E+000
+8.50187734668E+005, +2.69116992365E+001, +1.10266975133E+001
+9.75219023780E+005, +2.68867737930E+001, +1.26302957193E+001
+1.10025031289E+006, +2.69183568274E+001, +1.42424557943E+001
+1.22528160200E+006, +2.68916049151E+001, +1.58746655677E+001
+1.35031289111E+006, +2.69463270309E+001, +1.74769278745E+001
+1.47534418023E+006, +2.69059620563E+001, +1.90562720353E+001
+1.60037546934E+006, +2.69078998147E+001, +2.06938672625E+001
+1.72540675845E+006, +2.69867656218E+001, +2.22283819815E+001
+1.85043804756E+006, +2.69568918180E+001, +2.39240641995E+001
+1.97546933667E+006, +2.69651563473E+001, +2.55297134137E+001
+2.10050062578E+006, +2.69876332254E+001, +2.70751200450E+001
+2.22553191489E+006, +2.69773499659E+001, +2.87151172957E+001
+2.35056320401E+006, +2.69440981872E+001, +3.03510683758E+001
+2.47559449312E+006, +2.70004964140E+001, +3.19591787315E+001
+2.60062578223E+006, +2.69313673342E+001, +3.35255086201E+001
+2.72565707134E+006, +2.69710331692E+001, +3.50857006693E+001
+2.85068836045E+006, +2.70199293977E+001, +3.67943237785E+001
+2.97571964956E+006, +2.69749773905E+001, +3.83538603065E+001
+3.10075093867E+006, +2.70270343138E+001, +3.99572773895E+001
+3.22578222778E+006, +2.69718401202E+001, +4.15718560271E+001
+3.35081351690E+006, +2.70698971316E+001, +4.32065254318E+001
+3.47584480601E+006, +2.70218236466E+001, +4.47392867579E+001
+3.60087609512E+006, +2.70429204056E+001, +4.64873872573E+001
+3.72590738423E+006, +2.70146966639E+001, +4.80874102908E+001
+3.85093867334E+006, +2.71002395349E+001, +4.96518449762E+001
+3.97596996245E+006, +2.70386191012E+001, +5.13739447345E+001
+4.10100125156E+006, +2.70442492763E+001, +5.29152216746E+001
+4.22603254068E+006, +2.70998350376E+001, +5.44977730825E+001
+4.35106382979E+006, +2.70929220090E+001, +5.61464570244E+001
+4.47609511890E+006, +2.70982779754E+001, +5.76484105940E+001
+4.60112640801E+006, +2.71007587870E+001, +5.92769219531E+001
+4.72615769712E+006, +2.71407790422E+001, +6.09415130761E+001
+4.85118898623E+006, +2.71289468795E+001, +6.25355202731E+001
+4.97622027534E+006, +2.71189247785E+001, +6.41720491376E+001
+5.10125156446E+006, +2.71698392594E+001, +6.58008291153E+001
+5.22628285357E+006, +2.72567624882E+001, +6.74525036971E+001
+5.35131414268E+006, +2.72160521307E+001, +6.90221401831E+001
+5.47634543179E+006, +2.71415888455E+001, +7.07245761652E+001
+5.60137672090E+006, +2.71622679774E+001, +7.22706352049E+001
+5.72640801001E+006, +2.70976582308E+001, +7.39841080480E+001
+5.85143929912E+006, +2.72996978082E+001, +7.55653310799E+001
+5.97647058824E+006, +2.73783239988E+001, +7.72826757593E+001
+6.10150187735E+006, +2.72482446122E+001, +7.88695183287E+001
+6.22653316646E+006, +2.72238432999E+001, +8.04799491862E+001
+6.35156445557E+006, +2.73744919774E+001, +8.20866421877E+001
+6.47659574468E+006, +2.73754325232E+001, +8.37029853847E+001
+6.60162703379E+006, +2.73996469886E+001, +8.54315665144E+001
+6.72665832290E+006, +2.75083793059E+001, +8.69790964869E+001
+6.85168961202E+006, +2.74488567204E+001, +8.86645847102E+001
+6.97672090113E+006, +2.73840247961E+001, +9.03349635102E+001
+7.10175219024E+006, +2.74970949901E+001, +9.18772586744E+001
+7.22678347935E+006, +2.74434174337E+001, +9.36197158186E+001
+7.35181476846E+006, +2.74590668268E+001, +9.52883413994E+001
+7.47684605757E+006, +2.74926438965E+001, +9.68917139383E+001
+7.60187734668E+006, +2.74842294244E+001, +9.85133647167E+001
+7.72690863579E+006, +2.74687361304E+001, +1.00152685626E+002
+7.85193992491E+006, +2.75227605098E+001, +1.01846637046E+002
+7.97697121402E+006, +2.76558022594E+001, +1.03422522585E+002
+8.10200250313E+006, +2.75995834403E+001, +1.05047141941E+002
+8.22703379224E+006, +2.75726563877E+001, +1.06686367935E+002
+8.35206508135E+006, +2.76659116194E+001, +1.08384654953E+002
+8.47709637046E+006, +2.76216600777E+001, +1.10042987396E+002
+8.60212765957E+006, +2.76168644337E+001, +1.11756303578E+002
+8.72715894869E+006, +2.77397158036E+001, +1.13424673922E+002
+8.85219023780E+006, +2.78246010826E+001, +1.14927786824E+002
+8.97722152691E+006, +2.76160081942E+001, +1.16646055008E+002
+9.10225281602E+006, +2.77305149685E+001, +1.18350940677E+002
+9.22728410513E+006, +2.76802984747E+001, +1.19992144011E+002
+9.35231539424E+006, +2.78352272676E+001, +1.21700856978E+002
+9.47734668335E+006, +2.78160793299E+001, +1.23415162970E+002
+9.60237797247E+006, +2.78627401291E+001, +1.25139137560E+002
+9.72740926158E+006, +2.77859150338E+001, +1.26717797798E+002
+9.85244055069E+006, +2.78041692855E+001, +1.28283458747E+002
+9.97747183980E+006, +2.77852690138E+001, +1.30036219559E+002
+1.01025031289E+007, +2.78921447126E+001, +1.31748943553E+002
+1.02275344180E+007, +2.77288066982E+001, +1.33473375634E+002
+1.03525657071E+007, +2.78235152191E+001, +1.34963925396E+002
+1.04775969962E+007, +2.78186814509E+001, +1.36696121602E+002
+1.06026282854E+007, +2.79307567523E+001, +1.38300980468E+002
+1.07276595745E+007, +2.79661478372E+001, +1.39961679592E+002
+1.08526908636E+007, +2.80159460080E+001, +1.41698858829E+002
+1.09777221527E+007, +2.79553504437E+001, +1.43351504699E+002
+1.11027534418E+007, +2.80409569813E+001, +1.45288664591E+002
+1.12277847309E+007, +2.79981973602E+001, +1.46917407107E+002
+1.13528160200E+007, +2.79885506203E+001, +1.48606241272E+002
+1.14778473091E+007, +2.79980584505E+001, +1.50250512309E+002
+1.16028785982E+007, +2.82143660199E+001, +1.51951849885E+002
+1.17279098874E+007, +2.79941042080E+001, +1.53708585828E+002
+1.18529411765E+007, +2.82110275136E+001, +1.55151663088E+002
+1.19779724656E+007, +2.78852659180E+001, +1.57226586468E+002
+1.21030037547E+007, +2.82357726517E+001, +1.58883490542E+002
+1.22280350438E+007, +2.82151617714E+001, +1.60574513956E+002
+1.23530663329E+007, +2.81709304385E+001, +1.62166377935E+002
+1.24780976220E+007, +2.81811464567E+001, +1.63712300441E+002
+1.26031289111E+007, +2.82976623591E+001, +1.65716017379E+002
+1.27281602003E+007, +2.82600148136E+001, +1.67202429285E+002
+1.28531914894E+007, +2.81742554494E+001, +1.69038370034E+002
+1.29782227785E+007, +2.80930884303E+001, +1.70728364736E+002
+1.31032540676E+007, +2.82858716055E+001, +1.72312621341E+002
+1.32282853567E+007, +2.82904037854E+001, +1.74351938750E+002
+1.33533166458E+007, +2.82134648538E+001, +1.75990746689E+002
+1.34783479349E+007, +2.83148429876E+001, +1.77424537184E+002
+1.36033792240E+007, +2.82523475467E+001, +1.79566352203E+002
+1.37284105131E+007, +2.83065461624E+001, +1.81186603691E+002
+1.38534418023E+007, +2.84533115701E+001, +1.82844021386E+002
+1.39784730914E+007, +2.84310274556E+001, +1.84750145320E+002
+1.41035043805E+007, +2.82352523531E+001, +1.86408197292E+002
+1.42285356696E+007, +2.83678164934E+001, +1.88190614980E+002
+1.43535669587E+007, +2.81154653231E+001, +1.89958490086E+002
+1.44785982478E+007, +2.87779805328E+001, +1.91675594273E+002
+1.46036295369E+007, +2.84601660448E+001, +1.93605358016E+002
+1.47286608260E+007, +2.86069045511E+001, +1.95248596030E+002
+1.48536921151E+007, +2.85805387859E+001, +1.96906840408E+002
+1.49787234043E+007, +2.86847675179E+001, +1.98883345119E+002
+1.51037546934E+007, +2.86558670370E+001, +2.00418366775E+002
+1.52287859825E+007, +2.85621048825E+001, +2.02135965210E+002
+1.53538172716E+007, +2.85234387583E+001, +2.04105365526E+002
+1.54788485607E+007, +2.89663418733E+001, +2.05610009946E+002
+1.56038798498E+007, +2.86987732354E+001, +2.07785056690E+002
+1.57289111389E+007, +2.86549148133E+001, +2.09362507964E+002
+1.58539424280E+007, +2.89551965175E+001, +2.11233038391E+002
+1.59789737171E+007, +2.90462300101E+001, +2.13190738618E+002
+1.61040050063E+007, +2.89929732577E+001, +2.14387747348E+002
+1.62290362954E+007, +2.91119835961E+001, +2.16546211143E+002
+1.63540675845E+007, +2.90755179077E+001, +2.18579226746E+002
+1.64790988736E+007, +2.86955315108E+001, +2.20016600732E+002
+1.66041301627E+007, +2.91471710605E+001, +2.22107807414E+002
+1.67291614518E+007, +2.89998069732E+001, +2.23701624081E+002
+1.68541927409E+007, +2.89534333377E+001, +2.25637397632E+002
+1.69792240300E+007, +2.94068990335E+001, +2.27344602555E+002
+1.71042553191E+007, +2.87387014537E+001, +2.29350697509E+002
+1.72292866083E+007, +2.92437988981E+001, +2.30800743508E+002
+1.73543178974E+007, +2.89137226015E+001, +2.33068955598E+002
+1.74793491865E+007, +2.92428930512E+001, +2.34769776726E+002
+1.76043804756E+007, +2.93115687533E+001, +2.36562580571E+002
+1.77294117647E+007, +2.90993234625E+001, +2.38935495722E+002
+1.78544430538E+007, +2.92583987741E+001, +2.40169907168E+002
+1.79794743429E+007, +2.91121296773E+001, +2.41868955294E+002
+1.81045056320E+007, +2.92242084965E+001, +2.43797729850E+002
+1.82295369212E+007, +2.96062939110E+001, +2.45570244059E+002
+1.83545682103E+007, +2.93140910758E+001, +2.47386209928E+002
+1.84795994994E+007, +2.91276387421E+001, +2.49652259811E+002
+1.86046307885E+007, +2.93555597837E+001, +2.51030115854E+002
+1.87296620776E+007, +2.97719015685E+001, +2.53102055782E+002
+1.88546933667E+007, +2.95596007609E+001, +2.54798921450E+002
+1.89797246558E+007, +2.98906789609E+001, +2.56825569322E+002
+1.91047559449E+007, +2.98154423149E+001, +2.58667449398E+002
+1.92297872340E+007, +2.99482628487E+001, +2.60838213993E+002
+1.93548185232E+007, +2.97933256473E+001, +2.62390101308E+002
+1.94798498123E+007, +2.95014444728E+001, +2.64450286318E+002
+1.96048811014E+007, +2.94600448451E+001, +2.66338968217E+002
+1.97299123905E+007, +3.01298716961E+001, +2.68443444984E+002
+1.98549436796E+007, +2.99538576088E+001, +2.70303806704E+002
+1.99799749687E+007, +2.98538668603E+001, +2.71949531841E+002
+2.01050062578E+007, +3.00065448096E+001, +2.74319019064E+002
+2.02300375469E+007, +3.00876027801E+001, +2.75687907470E+002
+2.03550688360E+007, +3.02371085876E+001, +2.77560239006E+002
+2.04801001252E+007, +3.02457453543E+001, +2.79738801850E+002
+2.06051314143E+007, +3.00249961060E+001, +2.81628595690E+002
+2.07301627034E+007, +3.04144427092E+001, +2.83458130972E+002
+2.08551939925E+007, +3.04014039417E+001, +2.85426750415E+002
+2.09802252816E+007, +3.01890017746E+001, +2.87690247421E+002
+2.11052565707E+007, +3.04025612645E+001, +2.89458788893E+002
+2.12302878598E+007, +3.02814382544E+001, +2.91349971451E+002
+2.13553191489E+007, +3.03512892991E+001, +2.93272238036E+002
+2.14803504380E+007, +3.08278508852E+001, +2.95015830183E+002
+2.16053817272E+007, +3.03845318254E+001, +2.97530578451E+002
+2.17304130163E+007, +3.05420578482E+001, +2.99444400255E+002
+2.18554443054E+007, +3.06593252236E+001, +3.00935826139E+002
+2.19804755945E+007, +3.07330338544E+001, +3.03432870986E+002
+2.21055068836E+007, +3.06722603502E+001, +3.05201984459E+002
+2.22305381727E+007, +3.10399844273E+001, +3.07121938330E+002
+2.23555694618E+007, +3.08689761296E+001, +3.09179367678E+002
+2.24806007509E+007, +3.11725504099E+001, +3.11650582525E+002
+2.26056320401E+007, +3.11243265557E+001, +3.13079166149E+002
+2.27306633292E+007, +3.11056979294E+001, +3.14934888662E+002
+2.28556946183E+007, +3.10564753706E+001, +3.16936096495E+002
+2.29807259074E+007, +3.17970617312E+001, +3.19028647601E+002
+2.31057571965E+007, +3.08647125812E+001, +3.21113876591E+002
+2.32307884856E+007, +3.14344963377E+001, +3.23969317334E+002
+2.33558197747E+007, +3.19283244055E+001, +3.25097855535E+002
+2.34808510638E+007, +3.18243707568E+001, +3.26845198910E+002
+2.36058823529E+007, +3.15971703292E+001, +3.29406707339E+002
+2.37309136421E+007, +3.24782849798E+001, +3.31385099446E+002
+2.38559449312E+007, +3.19139787905E+001, +3.33011273353E+002
+2.39809762203E+007, +3.17980882852E+001, +3.35671396285E+002
+2.41060075094E+007, +3.20196026467E+001, +3.37536560643E+002
+2.42310387985E+007, +3.22499995601E+001, +3.38899381443E+002
+2.43560700876E+007, +3.26249405508E+001, +3.41039986311E+002
+2.44811013767E+007, +3.27127283278E+001, +3.42680989446E+002
+2.46061326658E+007, +3.18529622614E+001, +3.45148285421E+002
+2.47311639549E+007, +3.33028601287E+001, +3.47113890497E+002
+2.48561952441E+007, +3.26429132673E+001, +3.49188907372E+002
+2.49812265332E+007, +3.24087410804E+001, +3.51736741856E+002
+2.51062578223E+007, +3.28747084360E+001, +3.53186891654E+002
+2.52312891114E+007, +3.23881625598E+001, +3.55784159680E+002
+2.53563204005E+007, +3.16465532160E+001, +3.57411757999E+002
+2.54813516896E+007, +3.26291940892E+001, +3.60396858189E+002
+2.56063829787E+007, +3.28709697470E+001, +3.62560423786E+002
+2.57314142678E+007, +3.33823316858E+001, +3.64284889304E+002
+2.58564455569E+007, +3.24447960858E+001, +3.66444835723E+002
+2.59814768461E+007, +3.31029313609E+001, +3.68039721519E+002
+2.61065081352E+007, +3.23473308430E+001, +3.70717626950E+002
+2.62315394243E+007, +3.34102870573E+001, +3.72800778190E+002
+2.63565707134E+007, +3.28829448392E+001, +3.75390192463E+002
+2.64816020025E+007, +3.26868461710E+001, +3.76588069438E+002
+2.66066332916E+007, +3.37376957738E+001, +3.79179163417E+002
+2.67316645807E+007, +3.31181174595E+001, +3.81367125249E+002
+2.68566958698E+007, +3.38998078386E+001, +3.83765157678E+002
+2.69817271589E+007, +3.28968606282E+001, +3.86068059369E+002
+2.71067584481E+007, +3.41881032427E+001, +3.88847620173E+002
+2.72317897372E+007, +3.39938276893E+001, +3.90361358928E+002
+2.73568210263E+007, +3.41446068253E+001, +3.92226110290E+002
+2.74818523154E+007, +3.34788253337E+001, +3.93887278588E+002
+2.76068836045E+007, +3.43819734458E+001, +3.96647331833E+002
+2.77319148936E+007, +3.41585746775E+001, +3.98903443072E+002
+2.78569461827E+007, +3.40614179134E+001, +4.00650506827E+002
+2.79819774718E+007, +3.36371263988E+001, +4.03611398133E+002
+2.81070087610E+007, +3.45890435705E+001, +4.05633467079E+002
+2.82320400501E+007, +3.27689935505E+001, +4.07300855737E+002
+2.83570713392E+007, +3.33010464026E+001, +4.10673884080E+002
+2.84821026283E+007, +3.43309402918E+001, +4.12307698250E+002
+2.86071339174E+007, +3.33051090550E+001, +4.15092328160E+002
+2.87321652065E+007, +3.40825827644E+001, +4.16498859691E+002
+2.88571964956E+007, +3.41417500868E+001, +4.20025132403E+002
+2.89822277847E+007, +3.36511172572E+001, +4.21378416923E+002
+2.91072590738E+007, +3.43435106273E+001, +4.24130469581E+002
+2.92322903630E+007, +3.40049741132E+001, +4.26754049103E+002
+2.93573216521E+007, +3.44782709690E+001, +4.29339130641E+002
+2.94823529412E+007, +3.33824352356E+001, +4.31595374742E+002
+2.96073842303E+007, +3.42036407058E+001, +4.33239779473E+002
+2.97324155194E+007, +3.48058757105E+001, +4.36553165322E+002
+2.98574468085E+007, +3.47860590528E+001, +4.37411438951E+002
+2.99824780976E+007, +3.42160136457E+001, +4.39814878904E+002
+3.01075093867E+007, +3.49671584024E+001, +4.43461710974E+002
+3.02325406758E+007, +3.50973173289E+001, +4.45583339488E+002
+3.03575719650E+007, +3.55788622210E+001, +4.49119737718E+002
+3.04826032541E+007, +3.52700817448E+001, +4.49552166320E+002
+3.06076345432E+007, +3.42730699787E+001, +4.52210242249E+002
+3.07326658323E+007, +3.53779719694E+001, +4.55656163340E+002
+3.08576971214E+007, +3.49113224308E+001, +4.58067630285E+002
+3.09827284105E+007, +3.67086312450E+001, +4.59484509440E+002
+3.11077596996E+007, +3.49571853345E+001, +4.63528845254E+002
+3.12327909887E+007, +3.53074967798E+001, +4.65033227106E+002
+3.13578222778E+007, +3.51242508667E+001, +4.67287941447E+002
+3.14828535670E+007, +3.59289100604E+001, +4.69899269407E+002
+3.16078848561E+007, +3.53927273890E+001, +4.73598495282E+002
+3.17329161452E+007, +3.63503104192E+001, +4.75174926494E+002
+3.18579474343E+007, +3.69405716640E+001, +4.77658460119E+002
+3.19829787234E+007, +3.58317686601E+001, +4.79387762286E+002
+3.21080100125E+007, +3.58160431277E+001, +4.82615865982E+002
+3.22330413016E+007, +3.60227337452E+001, +4.84705317160E+002
+3.23580725907E+007, +3.72738929809E+001, +4.88791135746E+002
+3.24831038798E+007, +3.46126587287E+001, +4.90812441367E+002
+3.26081351690E+007, +3.48471056894E+001, +4.93504542001E+002
+3.27331664581E+007, +3.61648637949E+001, +4.95803146780E+002
+3.28581977472E+007, +3.77461109085E+001, +4.97472369393E+002
+3.29832290363E+007, +3.64612934840E+001, +5.00109205789E+002
+3.31082603254E+007, +3.74511004740E+001, +5.03871420037E+002
+3.32332916145E+007, +3.72703156234E+001, +5.05793315136E+002
+3.33583229036E+007, +3.69310230367E+001, +5.08393101091E+002
+3.34833541927E+007, +3.72390525240E+001, +5.11360232035E+002
+3.36083854819E+007, +3.71322502466E+001, +5.14824302584E+002
+3.37334167710E+007, +3.68181122180E+001, +5.17977730542E+002
+3.38584480601E+007, +3.78924699957E+001, +5.19644294566E+002
+3.39834793492E+007, +3.72157658102E+001, +5.22199545688E+002
+3.41085106383E+007, +3.83840542832E+001, +5.24325545062E+002
+3.42335419274E+007, +3.79940741343E+001, +5.27387642762E+002
+3.43585732165E+007, +3.69379286781E+001, +5.29941540204E+002
+3.44836045056E+007, +3.73308023172E+001, +5.33209184814E+002
+3.46086357947E+007, +3.83306230321E+001, +5.35893832182E+002
+3.47336670839E+007, +3.90655040457E+001, +5.39833727153E+002
+3.48586983730E+007, +3.82828041286E+001, +5.42245133708E+002
+3.49837296621E+007, +3.80582687919E+001, +5.45287914853E+002
+3.51087609512E+007, +3.82790867057E+001, +5.46742076451E+002
+3.52337922403E+007, +3.87393451227E+001, +5.49233144446E+002
+3.53588235294E+007, +3.94403922252E+001, +5.52572374828E+002
+3.54838548185E+007, +4.01302870354E+001, +5.56250166551E+002
+3.56088861076E+007, +3.89282504144E+001, +5.57880597550E+002
+3.57339173967E+007, +3.91274633885E+001, +5.60794568020E+002
+3.58589486859E+007, +4.07291496678E+001, +5.64614547504E+002
+3.59839799750E+007, +3.81430289247E+001, +5.65841778237E+002
+3.61090112641E+007, +4.03087333465E+001, +5.70281575902E+002
+3.62340425532E+007, +4.10903051166E+001, +5.73990647092E+002
+3.63590738423E+007, +4.04308403508E+001, +5.75279138173E+002
+3.64841051314E+007, +4.03484147532E+001, +5.78773386023E+002
+3.66091364205E+007, +4.04321044200E+001, +5.81929113015E+002
+3.67341677096E+007, +4.13454123566E+001, +5.83887715632E+002
+3.68591989987E+007, +4.04471051627E+001, +5.88351022275E+002
+3.69842302879E+007, +4.02797102887E+001, +5.90981913507E+002
+3.71092615770E+007, +4.04922551263E+001, +5.91739902152E+002
+3.72342928661E+007, +4.00542244826E+001, +5.95492331045E+002
+3.73593241552E+007, +3.96064268177E+001, +5.99705176085E+002
+3.74843554443E+007, +4.10074149304E+001, +6.03192456871E+002
+3.76093867334E+007, +4.26691435287E+001, +6.05963709229E+002
+3.77344180225E+007, +4.18715396383E+001, +6.07008561749E+002
+3.78594493116E+007, +4.14117956158E+001, +6.09234609594E+002
+3.79844806008E+007, +4.29576517496E+001, +6.14312967552E+002
+3.81095118899E+007, +4.02577451914E+001, +6.20886965023E+002
+3.82345431790E+007, +4.17516879978E+001, +6.21887751358E+002
+3.83595744681E+007, +4.32356533350E+001, +6.25667873862E+002
+3.84846057572E+007, +4.12111195412E+001, +6.27698390401E+002
+3.86096370463E+007, +4.21568472707E+001, +6.32226678447E+002
+3.87346683354E+007, +4.29292195257E+001, +6.35052749752E+002
+3.88596996245E+007, +4.21596473154E+001, +6.38170856557E+002
+3.89847309136E+007, +4.42264656273E+001, +6.39913061066E+002
+3.91097622028E+007, +4.39804884912E+001, +6.44213956369E+002
+3.92347934919E+007, +4.41147205087E+001, +6.48674743245E+002
+3.93598247810E+007, +4.29418949606E+001, +6.52799347644E+002
+3.94848560701E+007, +4.33265337893E+001, +6.55944358182E+002
+3.96098873592E+007, +4.46235868466E+001, +6.57822045473E+002
+3.97349186483E+007, +4.38584288396E+001, +6.60400872766E+002
+3.98599499374E+007, +4.48981501768E+001, +6.67402143200E+002
+3.99849812265E+007, +4.47033390741E+001, +6.67998390148E+002
+4.01100125156E+007, +4.71835825079E+001, +6.70865094639E+002
