"# Channel 1"
"# Trace 1"
Frequency, Formatted Data, Formatted Data
+1.00000000000E+005, +7.64266849603E+001, +1.67064176066E+000
+3.18898623279E+005, +7.64043460944E+001, +4.67779264392E+000
+5.37797246558E+005, +7.64623816117E+001, +8.06372771322E+000
+7.56695869837E+005, +7.65303931579E+001, +1.12137635273E+001
+9.75594493116E+005, +7.65510045310E+001, +1.44405046444E+001
+1.19449311640E+006, +7.64844221644E+001, +1.76181602362E+001
+1.41339173967E+006, +7.63411108141E+001, +2.08717793549E+001
+1.63229036295E+006, +7.65501608639E+001, +2.41619250800E+001
+1.85118898623E+006, +7.64372874133E+001, +2.74899797555E+001
+2.07008760951E+006, +7.65054425781E+001, +3.06019117469E+001
+2.28898623279E+006, +7.65607490541E+001, +3.41393540424E+001
+2.50788485607E+006, +7.66008275146E+001, +3.71617949864E+001
+2.72678347935E+006, +7.65603202926E+001, +4.05425128570E+001
+2.94568210263E+006, +7.65772176899E+001, +4.36960681813E+001
+3.16458072591E+006, +7.64115486147E+001, +4.71360101207E+001
+3.38347934919E+006, +7.67335436313E+001, +5.02876640425E+001
+3.60237797247E+006, +7.66765622662E+001, +5.34332803084E+001
+3.82127659574E+006, +7.66948372084E+001, +5.65513756347E+001
+4.04017521902E+006, +7.68165288716E+001, +5.99609632252E+001
+4.25907384230E+006, +7.66828979622E+001, +6.31365153280E+001
+4.47797246558E+006, +7.70595315283E+001, +6.65153493643E+001
+4.69687108886E+006, +7.66679748359E+001, +6.96982422563E+001
+4.91576971214E+006, +7.69055911265E+001, +7.30282033150E+001
+5.13466833542E+006, +7.69547472632E+001, +7.63031738359E+001
+5.35356695870E+006, +7.69827157058E+001, +7.95546440447E+001
+5.57246558198E+006, +7.69199806019E+001, +8.26159092433E+001
+5.79136420526E+006, +7.72972673622E+001, +8.61290583183E+001
+6.01026282854E+006, +7.72639162629E+001, +8.90727012811E+001
+6.22916145181E+006, +7.72003003604E+001, +9.25287093839E+001
+6.44806007509E+006, +7.72222902972E+001, +9.57560479029E+001
+6.66695869837E+006, +7.74463904454E+001, +9.90426528051E+001
+6.88585732165E+006, +7.73898404559E+001, +1.02438387715E+002
+7.10475594493E+006, +7.75414507631E+001, +1.05610431398E+002
+7.32365456821E+006, +7.75440080128E+001, +1.08873413097E+002
+7.54255319149E+006, +7.76625962838E+001, +1.11966132331E+002
+7.76145181477E+006, +7.79101993127E+001, +1.15359786732E+002
+7.98035043805E+006, +7.79575504140E+001, +1.18649590366E+002
+8.19924906133E+006, +7.78675669602E+001, +1.21919218716E+002
+8.41814768461E+006, +7.80411120015E+001, +1.25196164661E+002
+8.63704630788E+006, +7.81441369397E+001, +1.28539401670E+002
+8.85594493116E+006, +7.81876146894E+001, +1.31686983329E+002
+9.07484355444E+006, +7.81427255865E+001, +1.35338894147E+002
+9.29374217772E+006, +7.83660861130E+001, +1.38623573597E+002
+9.51264080100E+006, +7.84515957480E+001, +1.41841429247E+002
+9.73153942428E+006, +7.87020524420E+001, +1.45292932112E+002
+9.95043804756E+006, +7.83873645861E+001, +1.48380728904E+002
+1.01693366708E+007, +7.85567249818E+001, +1.51729687293E+002
+1.03882352941E+007, +7.87121083839E+001, +1.55104248063E+002
+1.06071339174E+007, +7.87443518524E+001, +1.58366919197E+002
+1.08260325407E+007, +7.87945577461E+001, +1.61718908107E+002
+1.10449311640E+007, +7.89826553822E+001, +1.65046223111E+002
+1.12638297872E+007, +7.90789593165E+001, +1.68765643979E+002
+1.14827284105E+007, +7.92616221744E+001, +1.71827027055E+002
+1.17016270338E+007, +7.91974702683E+001, +1.75364764088E+002
+1.19205256571E+007, +7.95556937285E+001, +1.78362688255E+002
+1.21394242804E+007, +7.97072700041E+001, +1.81921602196E+002
+1.23583229036E+007, +7.99268865449E+001, +1.85430436851E+002
+1.25772215269E+007, +7.99387444950E+001, +1.88897086411E+002
+1.27961201502E+007, +7.98879560203E+001, +1.92184416050E+002
+1.30150187735E+007, +8.00101489463E+001, +1.95681928493E+002
+1.32339173967E+007, +8.01609361094E+001, +1.99198502009E+002
+1.34528160200E+007, +7.97653072508E+001, +2.02479636693E+002
+1.36717146433E+007, +8.03941059842E+001, +2.05895391033E+002
+1.38906132666E+007, +8.04491872367E+001, +2.09573756870E+002
+1.41095118899E+007, +8.08368886665E+001, +2.12901155760E+002
+1.43284105131E+007, +8.04072241192E+001, +2.16327977412E+002
+1.45473091364E+007, +8.08295215433E+001, +2.19980976009E+002
+1.47662077597E+007, +8.10334127127E+001, +2.22893791202E+002
+1.49851063830E+007, +8.16536733229E+001, +2.26683910774E+002
+1.52040050063E+007, +8.14261397801E+001, +2.30407834616E+002
+1.54229036295E+007, +8.15972960673E+001, +2.33884288289E+002
+1.56418022528E+007, +8.12974741111E+001, +2.37215414130E+002
+1.58607008761E+007, +8.15663217672E+001, +2.40614463247E+002
+1.60795994994E+007, +8.21507254904E+001, +2.44427447050E+002
+1.62984981227E+007, +8.21515898737E+001, +2.47465178767E+002
+1.65173967459E+007, +8.20936014479E+001, +2.51429226431E+002
+1.67362953692E+007, +8.21890632851E+001, +2.55126574473E+002
+1.69551939925E+007, +8.25200733688E+001, +2.58201846462E+002
+1.71740926158E+007, +8.18036295954E+001, +2.62480864402E+002
+1.73929912390E+007, +8.22365098938E+001, +2.65518795678E+002
+1.76118898623E+007, +8.26659059206E+001, +2.68934804001E+002
+1.78307884856E+007, +8.32728144836E+001, +2.72650520095E+002
+1.80496871089E+007, +8.31778007113E+001, +2.76350827388E+002
+1.82685857322E+007, +8.35633082071E+001, +2.80393775040E+002
+1.84874843554E+007, +8.36996119163E+001, +2.83567291940E+002
+1.87063829787E+007, +8.36288516950E+001, +2.86955703086E+002
+1.89252816020E+007, +8.43626227624E+001, +2.91425571509E+002
+1.91441802253E+007, +8.42524267465E+001, +2.93905792855E+002
+1.93630788486E+007, +8.43589397755E+001, +2.98206977611E+002
+1.95819774718E+007, +8.49973141574E+001, +3.01585523705E+002
+1.98008760951E+007, +8.50589887063E+001, +3.05666685939E+002
+2.00197747184E+007, +8.51158179661E+001, +3.09110124087E+002
+2.02386733417E+007, +8.50403719870E+001, +3.12968115636E+002
+2.04575719650E+007, +8.55575716385E+001, +3.16595454616E+002
+2.06764705882E+007, +8.57217396214E+001, +3.20384324288E+002
+2.08953692115E+007, +8.58606305740E+001, +3.24777242753E+002
+2.11142678348E+007, +8.62927285770E+001, +3.27967487123E+002
+2.13331664581E+007, +8.64010274949E+001, +3.31708549632E+002
+2.15520650814E+007, +8.67597224717E+001, +3.34573360017E+002
+2.17709637046E+007, +8.72743176791E+001, +3.39156680765E+002
+2.19898623279E+007, +8.73504463744E+001, +3.43557648565E+002
+2.22087609512E+007, +8.67293012245E+001, +3.46401439302E+002
+2.24276595745E+007, +8.81112884639E+001, +3.51247370801E+002
+2.26465581977E+007, +8.84875949884E+001, +3.54647908265E+002
+2.28654568210E+007, +8.93130821737E+001, +3.58428861713E+002
+2.30843554443E+007, +8.84840053412E+001, +3.62197453495E+002
+2.33032540676E+007, +8.96101267346E+001, +3.66155625143E+002
+2.35221526909E+007, +8.90000679423E+001, +3.70198267648E+002
+2.37410513141E+007, +8.96809753145E+001, +3.73417757811E+002
+2.39599499374E+007, +8.95680473244E+001, +3.77665420754E+002
+2.41788485607E+007, +9.00358347643E+001, +3.81386869645E+002
+2.43977471840E+007, +9.01150428653E+001, +3.85463892151E+002
+2.46166458073E+007, +9.08403562020E+001, +3.89215469073E+002
+2.48355444305E+007, +9.06756981914E+001, +3.93032048449E+002
+2.50544430538E+007, +9.14125177496E+001, +3.97044313781E+002
+2.52733416771E+007, +9.20934599769E+001, +4.01051962602E+002
+2.54922403004E+007, +9.25645743533E+001, +4.05991484180E+002
+2.57111389237E+007, +9.32695322814E+001, +4.09847377753E+002
+2.59300375469E+007, +9.27746680001E+001, +4.13537123819E+002
+2.61489361702E+007, +9.24819403393E+001, +4.16766408468E+002
+2.63678347935E+007, +9.27894374890E+001, +4.21846704202E+002
+2.65867334168E+007, +9.37993919198E+001, +4.25818414477E+002
+2.68056320401E+007, +9.37474769576E+001, +4.29717380171E+002
+2.70245306633E+007, +9.49013178862E+001, +4.34197678747E+002
+2.72434292866E+007, +9.43800230744E+001, +4.37117636501E+002
+2.74623279099E+007, +9.46651245197E+001, +4.41501077925E+002
+2.76812265332E+007, +9.46119906380E+001, +4.45853104113E+002
+2.79001251564E+007, +9.48189824102E+001, +4.51132935504E+002
+2.81190237797E+007, +9.65062373886E+001, +4.53629964561E+002
+2.83379224030E+007, +9.66851854565E+001, +4.58114752380E+002
+2.85568210263E+007, +9.57743075923E+001, +4.62885541194E+002
+2.87757196496E+007, +9.55663282562E+001, +4.67774824305E+002
+2.89946182728E+007, +9.66023720838E+001, +4.72364979785E+002
+2.92135168961E+007, +9.59488155690E+001, +4.77810440200E+002
+2.94324155194E+007, +9.76556654427E+001, +4.80658282781E+002
+2.96513141427E+007, +9.68485415224E+001, +4.86024913560E+002
+2.98702127660E+007, +9.65232509708E+001, +4.88880302305E+002
+3.00891113892E+007, +9.71819023512E+001, +4.94404987199E+002
+3.03080100125E+007, +9.95370507800E+001, +4.97677811222E+002
+3.05269086358E+007, +1.00224858824E+002, +5.03031068502E+002
+3.07458072591E+007, +1.00289218628E+002, +5.07239065760E+002
+3.09647058824E+007, +1.00237297161E+002, +5.11816710407E+002
+3.11836045056E+007, +1.00489538705E+002, +5.16899536841E+002
+3.14025031289E+007, +9.99721994541E+001, +5.20974414616E+002
+3.16214017522E+007, +1.01493625428E+002, +5.25196926056E+002
+3.18403003755E+007, +1.01495560722E+002, +5.31926437164E+002
+3.20591989987E+007, +1.00866883261E+002, +5.34982178020E+002
+3.22780976220E+007, +1.01396066170E+002, +5.38694176832E+002
+3.24969962453E+007, +1.03444105140E+002, +5.44952170196E+002
+3.27158948686E+007, +1.02832476850E+002, +5.48748009981E+002
+3.29347934919E+007, +1.02836589187E+002, +5.53315255050E+002
+3.31536921151E+007, +1.03516200498E+002, +5.58016239669E+002
+3.33725907384E+007, +1.03419979423E+002, +5.65218769872E+002
+3.35914893617E+007, +1.05766352988E+002, +5.68847428140E+002
+3.38103879850E+007, +1.04534162890E+002, +5.73659699602E+002
+3.40292866083E+007, +1.04547332741E+002, +5.79567999902E+002
+3.42481852315E+007, +1.07773876844E+002, +5.83665750452E+002
+3.44670838548E+007, +1.07485412544E+002, +5.89341252890E+002
+3.46859824781E+007, +1.06390016098E+002, +5.94638534127E+002
+3.49048811014E+007, +1.09840370318E+002, +5.98166604402E+002
+3.51237797247E+007, +1.08376561983E+002, +6.03457835565E+002
+3.53426783479E+007, +1.09408819217E+002, +6.10799401383E+002
+3.55615769712E+007, +1.08769215186E+002, +6.14662986605E+002
+3.57804755945E+007, +1.10505094286E+002, +6.16528009720E+002
+3.59993742178E+007, +1.09788940947E+002, +6.26360759951E+002
+3.62182728411E+007, +1.10797884034E+002, +6.27491814218E+002
+3.64371714643E+007, +1.11242347523E+002, +6.31695079605E+002
+3.66560700876E+007, +1.11622365913E+002, +6.39650924623E+002
+3.68749687109E+007, +1.12362256926E+002, +6.46082585137E+002
+3.70938673342E+007, +1.13919841767E+002, +6.51092594850E+002
+3.73127659574E+007, +1.14238330598E+002, +6.55503312557E+002
+3.75316645807E+007, +1.14316237774E+002, +6.60007661418E+002
+3.77505632040E+007, +1.14557553714E+002, +6.67905179793E+002
+3.79694618273E+007, +1.15612393318E+002, +6.71101837839E+002
+3.81883604506E+007, +1.14820016654E+002, +6.77820344321E+002
+3.84072590738E+007, +1.15789431276E+002, +6.84625901143E+002
+3.86261576971E+007, +1.17360517429E+002, +6.90082918277E+002
+3.88450563204E+007, +1.19105631423E+002, +6.94597227901E+002
+3.90639549437E+007, +1.21733350744E+002, +6.99151959450E+002
+3.92828535670E+007, +1.20272300847E+002, +7.05469255481E+002
+3.95017521902E+007, +1.22010026707E+002, +7.12483045439E+002
+3.97206508135E+007, +1.21663776556E+002, +7.19592201774E+002
+3.99395494368E+007, +1.22388910664E+002, +7.23321084519E+002
+4.01584480601E+007, +1.23561921993E+002, +7.29619816163E+002
+4.03773466834E+007, +1.25613821532E+002, +7.37312768019E+002
+4.05962453066E+007, +1.23083317483E+002, +7.44235408160E+002
+4.08151439299E+007, +1.24603783196E+002, +7.47136189929E+002
+4.10340425532E+007, +1.23370636052E+002, +7.52956854839E+002
+4.12529411765E+007, +1.24436180388E+002, +7.57388011187E+002
+4.14718397997E+007, +1.26869815048E+002, +7.67002475052E+002
+4.16907384230E+007, +1.28601500684E+002, +7.72949518700E+002
+4.19096370463E+007, +1.27929480980E+002, +7.76884581107E+002
+4.21285356696E+007, +1.27178782565E+002, +7.84682601723E+002
+4.23474342929E+007, +1.28877669582E+002, +7.93160747888E+002
+4.25663329161E+007, +1.34726378912E+002, +7.98064693736E+002
+4.27852315394E+007, +1.31432051115E+002, +8.07569261955E+002
+4.30041301627E+007, +1.35205255212E+002, +8.13533019843E+002
+4.32230287860E+007, +1.36296520876E+002, +8.16970586896E+002
+4.34419274093E+007, +1.36885495503E+002, +8.27050850229E+002
+4.36608260325E+007, +1.34479174259E+002, +8.29973556544E+002
+4.38797246558E+007, +1.35567484701E+002, +8.39609556558E+002
+4.40986232791E+007, +1.36340544189E+002, +8.44830420045E+002
+4.43175219024E+007, +1.39220028362E+002, +8.53637511113E+002
+4.45364205257E+007, +1.41771467907E+002, +8.63064240453E+002
+4.47553191489E+007, +1.41948910648E+002, +8.68994526424E+002
+4.49742177722E+007, +1.41604228650E+002, +8.74660058786E+002
+4.51931163955E+007, +1.45546905816E+002, +8.80262058160E+002
+4.54120150188E+007, +1.45822588854E+002, +8.87039129201E+002
+4.56309136421E+007, +1.43469728951E+002, +8.94136048823E+002
+4.58498122653E+007, +1.47981742649E+002, +8.99928483608E+002
+4.60687108886E+007, +1.46513997827E+002, +9.11343635923E+002
+4.62876095119E+007, +1.49455243388E+002, +9.21289370481E+002
+4.65065081352E+007, +1.52998240177E+002, +9.22014252036E+002
+4.67254067584E+007, +1.49926442715E+002, +9.27689655046E+002
+4.69443053817E+007, +1.49379773926E+002, +9.36316920916E+002
+4.71632040050E+007, +1.53450728150E+002, +9.46211222767E+002
+4.73821026283E+007, +1.57384108875E+002, +9.58116821405E+002
+4.76010012516E+007, +1.59309422599E+002, +9.66564341387E+002
+4.78198998748E+007, +1.56250605339E+002, +9.72891310704E+002
+4.80387984981E+007, +1.62250745971E+002, +9.78814003934E+002
+4.82576971214E+007, +1.60057128714E+002, +9.88106889544E+002
+4.84765957447E+007, +1.65277529616E+002, +9.94434016963E+002
+4.86954943680E+007, +1.60013878981E+002, +1.00279321955E+003
+4.89143929912E+007, +1.63633266764E+002, +1.01133787047E+003
+4.91332916145E+007, +1.66667328197E+002, +1.01971849239E+003
+4.93521902378E+007, +1.68243330951E+002, +1.03004938970E+003
+4.95710888611E+007, +1.75870700871E+002, +1.03649484947E+003
+4.97899874844E+007, +1.74951198009E+002, +1.04241997372E+003
+5.00088861076E+007, +1.74181633432E+002, +1.05163601743E+003
+5.02277847309E+007, +1.80104664599E+002, +1.06517374951E+003
+5.04466833542E+007, +1.80265794192E+002, +1.07062277846E+003
+5.06655819775E+007, +1.80184385477E+002, +1.08264583818E+003
+5.08844806008E+007, +1.76453875968E+002, +1.09443912073E+003
+5.11033792240E+007, +1.83147312933E+002, +1.10015681806E+003
+5.13222778473E+007, +1.85845667102E+002, +1.11499386598E+003
+5.15411764706E+007, +1.89976385493E+002, +1.12134557186E+003
+5.17600750939E+007, +1.91396474994E+002, +1.13169754638E+003
+5.19789737171E+007, +1.90864993005E+002, +1.14176306558E+003
+5.21978723404E+007, +1.99051545351E+002, +1.14624747877E+003
+5.24167709637E+007, +1.89012145371E+002, +1.16047931809E+003
+5.26356695870E+007, +2.01839675859E+002, +1.16673162424E+003
+5.28545682103E+007, +2.06822263750E+002, +1.18130044897E+003
+5.30734668335E+007, +2.10229127228E+002, +1.19648748057E+003
+5.32923654568E+007, +2.02304111377E+002, +1.20797427332E+003
+5.35112640801E+007, +2.17157416941E+002, +1.21624814231E+003
+5.37301627034E+007, +2.12151146550E+002, +1.22919750689E+003
+5.39490613267E+007, +2.15043054567E+002, +1.23880346245E+003
+5.41679599499E+007, +2.18447369161E+002, +1.25477467112E+003
+5.43868585732E+007, +2.19448386598E+002, +1.26167630086E+003
+5.46057571965E+007, +2.17287931316E+002, +1.27142341589E+003
+5.48246558198E+007, +2.22408226641E+002, +1.27868502450E+003
+5.50435544431E+007, +2.31892374035E+002, +1.30081356205E+003
+5.52624530663E+007, +2.34858546060E+002, +1.31162598217E+003
+5.54813516896E+007, +2.36720374037E+002, +1.31545300690E+003
+5.57002503129E+007, +2.51461192063E+002, +1.32375149893E+003
+5.59191489362E+007, +2.43176117998E+002, +1.34393615914E+003
+5.61380475594E+007, +2.46404007482E+002, +1.35500828340E+003
+5.63569461827E+007, +2.50778480299E+002, +1.38317190606E+003
+5.65758448060E+007, +2.61618064428E+002, +1.37875357101E+003
+5.67947434293E+007, +2.57162665835E+002, +1.38535646806E+003
+5.70136420526E+007, +2.58009708005E+002, +1.40510348993E+003
+5.72325406758E+007, +2.61794719943E+002, +1.41641925229E+003
+5.74514392991E+007, +2.68154463709E+002, +1.43766940446E+003
+5.76703379224E+007, +2.78310169837E+002, +1.45490079445E+003
+5.78892365457E+007, +2.65121491329E+002, +1.46476840001E+003
+5.81081351690E+007, +2.95006169506E+002, +1.47580628704E+003
+5.83270337922E+007, +2.83380798700E+002, +1.50391360483E+003
+5.85459324155E+007, +3.03226972684E+002, +1.50574180472E+003
+5.87648310388E+007, +2.89380130596E+002, +1.52597999695E+003
+5.89837296621E+007, +3.07578808591E+002, +1.54375074872E+003
+5.92026282854E+007, +3.16539737224E+002, +1.55798323409E+003
+5.94215269086E+007, +3.20572900432E+002, +1.57300712651E+003
+5.96404255319E+007, +3.07656021654E+002, +1.59592668254E+003
+5.98593241552E+007, +3.28562514885E+002, +1.60742419017E+003
+6.00782227785E+007, +3.34781847602E+002, +1.62931983586E+003
+6.02971214018E+007, +3.38700564143E+002, +1.63674212272E+003
+6.05160200250E+007, +3.29858863115E+002, +1.66164091412E+003
+6.07349186483E+007, +3.47031916296E+002, +1.66776473080E+003
+6.09538172716E+007, +3.46385084024E+002, +1.69945762097E+003
+6.11727158949E+007, +3.77536378270E+002, +1.70753475509E+003
+6.13916145181E+007, +3.53838309698E+002, +1.73293338497E+003
+6.16105131414E+007, +3.72425156310E+002, +1.74910638544E+003
+6.18294117647E+007, +3.75912687977E+002, +1.74926124266E+003
+6.20483103880E+007, +3.79834229386E+002, +1.79414626749E+003
+6.22672090113E+007, +4.01885933765E+002, +1.80937045318E+003
+6.24861076345E+007, +4.27436787175E+002, +1.82408885542E+003
+6.27050062578E+007, +4.20804347352E+002, +1.83904007112E+003
+6.29239048811E+007, +4.00900217860E+002, +1.88221012000E+003
+6.31428035044E+007, +4.26578508156E+002, +1.89933688722E+003
+6.33617021277E+007, +4.51056246287E+002, +1.91700363070E+003
+6.35806007509E+007, +4.42720251739E+002, +1.94697525853E+003
+6.37994993742E+007, +4.52302493769E+002, +1.96546870781E+003
+6.40183979975E+007, +4.72385121064E+002, +1.96864088166E+003
+6.42372966208E+007, +4.80216094180E+002, +2.00901475870E+003
+6.44561952441E+007, +4.98212978603E+002, +2.02893712390E+003
+6.46750938673E+007, +5.04255232200E+002, +2.07182595383E+003
+6.48939924906E+007, +5.26024601598E+002, +2.08073709112E+003
+6.51128911139E+007, +5.36154032194E+002, +2.13163870583E+003
+6.53317897372E+007, +5.66371851552E+002, +2.13413397612E+003
+6.55506883605E+007, +5.83997982862E+002, +2.15472163107E+003
+6.57695869837E+007, +5.64779452680E+002, +2.18969737067E+003
+6.59884856070E+007, +6.09815196986E+002, +2.19148443835E+003
+6.62073842303E+007, +6.23971998220E+002, +2.27329799463E+003
+6.64262828536E+007, +6.06981711854E+002, +2.27027346427E+003
+6.66451814768E+007, +6.25509111828E+002, +2.31596287041E+003
+6.68640801001E+007, +6.36326938637E+002, +2.33462197776E+003
+6.70829787234E+007, +6.80623257803E+002, +2.35447876007E+003
+6.73018773467E+007, +6.85719135165E+002, +2.38858897764E+003
+6.75207759700E+007, +7.20969169343E+002, +2.42200488006E+003
+6.77396745932E+007, +7.34678999781E+002, +2.45681288231E+003
+6.79585732165E+007, +7.81900081892E+002, +2.49077620390E+003
+6.81774718398E+007, +7.79848093971E+002, +2.54989655131E+003
+6.83963704631E+007, +8.14910528798E+002, +2.57157373512E+003
+6.86152690864E+007, +8.66696525186E+002, +2.58668603467E+003
+6.88341677096E+007, +8.50609105408E+002, +2.62436575412E+003
+6.90530663329E+007, +9.18160152109E+002, +2.69408929401E+003
+6.92719649562E+007, +9.41982491453E+002, +2.67764100584E+003
+6.94908635795E+007, +9.61685914955E+002, +2.72864325676E+003
+6.97097622028E+007, +9.70285771154E+002, +2.78994399259E+003
+6.99286608260E+007, +1.02836818359E+003, +2.82545728743E+003
+7.01475594493E+007, +1.04626718677E+003, +2.88147182098E+003
