"# Channel 1"
"# Trace 1"
Frequency, Formatted Data, Formatted Data
+1.00000000000E+005, +6.31021326328E+000, +1.25961175317E+000
+2.66777963272E+005, +6.31074455815E+000, +3.36072287136E+000
+4.33555926544E+005, +6.31480934337E+000, +5.47842127205E+000
+6.00333889816E+005, +6.33591125351E+000, +7.53542027278E+000
+7.67111853088E+005, +6.34530261757E+000, +9.66968894111E+000
+9.33889816361E+005, +6.34391470293E+000, +1.17368498049E+001
+1.10066777963E+006, +6.33078148316E+000, +1.38416059423E+001
+1.26744574290E+006, +6.36866433290E+000, +1.59302391996E+001
+1.43422370618E+006, +6.31297868590E+000, +1.80666875492E+001
+1.60100166945E+006, +6.38667772437E+000, +2.00962497198E+001
+1.76777963272E+006, +6.36291634091E+000, +2.21839351734E+001
+1.93455759599E+006, +6.39325393287E+000, +2.42496824432E+001
+2.10133555927E+006, +6.40349370001E+000, +2.63221006568E+001
+2.26811352254E+006, +6.42409604782E+000, +2.84320853774E+001
+2.43489148581E+006, +6.44295807040E+000, +3.05357017215E+001
+2.60166944908E+006, +6.44082113566E+000, +3.25996013289E+001
+2.76844741235E+006, +6.41266811975E+000, +3.47378822099E+001
+2.93522537563E+006, +6.39850478728E+000, +3.67983426347E+001
+3.10200333890E+006, +6.52302108562E+000, +3.88571436781E+001
+3.26878130217E+006, +6.39687068929E+000, +4.09708964091E+001
+3.43555926544E+006, +6.48930382631E+000, +4.30532471051E+001
+3.60233722871E+006, +6.53210624521E+000, +4.51592141136E+001
+3.76911519199E+006, +6.47323472788E+000, +4.73168005141E+001
+3.93589315526E+006, +6.52431381964E+000, +4.93059257173E+001
+4.10267111853E+006, +6.35740104043E+000, +5.14011668364E+001
+4.26944908180E+006, +6.44781170870E+000, +5.37535111507E+001
+4.43622704508E+006, +6.53439424833E+000, +5.56689799411E+001
+4.60300500835E+006, +6.60354240640E+000, +5.78886642828E+001
+4.76978297162E+006, +6.58630792879E+000, +5.98374231394E+001
+4.93656093489E+006, +6.64811557327E+000, +6.20672779946E+001
+5.10333889816E+006, +6.68420378998E+000, +6.41025335244E+001
+5.27011686144E+006, +6.80139936444E+000, +6.63552088837E+001
+5.43689482471E+006, +6.69450491173E+000, +6.84290253762E+001
+5.60367278798E+006, +6.75265237734E+000, +7.05714246093E+001
+5.77045075125E+006, +6.70836499171E+000, +7.25768002813E+001
+5.93722871452E+006, +6.85482875536E+000, +7.47410854694E+001
+6.10400667780E+006, +6.80222890765E+000, +7.68741052764E+001
+6.27078464107E+006, +6.90489947276E+000, +7.89713350211E+001
+6.43756260434E+006, +6.98324379846E+000, +8.11470821994E+001
+6.60434056761E+006, +7.01765925545E+000, +8.32435294034E+001
+6.77111853088E+006, +7.11485019644E+000, +8.53562035839E+001
+6.93789649416E+006, +7.04544772451E+000, +8.75096638771E+001
+7.10467445743E+006, +7.07994188898E+000, +8.95773741892E+001
+7.27145242070E+006, +7.16411970449E+000, +9.16959836639E+001
+7.43823038397E+006, +7.20757109072E+000, +9.37850359390E+001
+7.60500834725E+006, +7.18022983514E+000, +9.59573691333E+001
+7.77178631052E+006, +7.22100037576E+000, +9.81666492807E+001
+7.93856427379E+006, +7.28399181667E+000, +1.00171880944E+002
+8.10534223706E+006, +7.28021327136E+000, +1.02309086647E+002
+8.27212020033E+006, +7.28265605519E+000, +1.04481209461E+002
+8.43889816361E+006, +7.26160059360E+000, +1.06596746131E+002
+8.60567612688E+006, +7.28537993382E+000, +1.08815842598E+002
+8.77245409015E+006, +7.27332935580E+000, +1.10875568299E+002
+8.93923205342E+006, +7.34929701771E+000, +1.13084306642E+002
+9.10601001669E+006, +7.37757771178E+000, +1.15324773218E+002
+9.27278797997E+006, +7.41023599901E+000, +1.17512553101E+002
+9.43956594324E+006, +7.44193172691E+000, +1.19663211514E+002
+9.60634390651E+006, +7.42725230465E+000, +1.21856209041E+002
+9.77312186978E+006, +7.44578019454E+000, +1.23966404171E+002
+9.93989983306E+006, +7.57324879167E+000, +1.26197831645E+002
+1.01066777963E+007, +7.38638092231E+000, +1.28414273102E+002
+1.02734557596E+007, +7.55429601795E+000, +1.30655253852E+002
+1.04402337229E+007, +7.46428065352E+000, +1.32761881884E+002
+1.06070116861E+007, +7.42126730224E+000, +1.34902024443E+002
+1.07737896494E+007, +7.56221547541E+000, +1.37155599207E+002
+1.09405676127E+007, +7.73345298249E+000, +1.39358909321E+002
+1.11073455760E+007, +7.65351614696E+000, +1.41664024469E+002
+1.12741235392E+007, +7.68958564411E+000, +1.43721166220E+002
+1.14409015025E+007, +7.86741755173E+000, +1.46055722527E+002
+1.16076794658E+007, +7.79070075228E+000, +1.48265675881E+002
+1.17744574290E+007, +7.80031489173E+000, +1.50556675764E+002
+1.19412353923E+007, +7.87330366968E+000, +1.52897082768E+002
+1.21080133556E+007, +7.77598895046E+000, +1.55048911662E+002
+1.22747913189E+007, +7.89364583617E+000, +1.57374756292E+002
+1.24415692821E+007, +7.81387264740E+000, +1.59551840429E+002
+1.26083472454E+007, +7.98323520297E+000, +1.61756076552E+002
+1.27751252087E+007, +8.14215321512E+000, +1.63983567739E+002
+1.29419031720E+007, +7.99549635074E+000, +1.66186869785E+002
+1.31086811352E+007, +8.03985787108E+000, +1.68611898223E+002
+1.32754590985E+007, +8.05354916854E+000, +1.70897984627E+002
+1.34422370618E+007, +8.06384187159E+000, +1.73086198887E+002
+1.36090150250E+007, +8.34947986800E+000, +1.75391555620E+002
+1.37757929883E+007, +8.13800637814E+000, +1.77706308681E+002
+1.39425709516E+007, +8.34033105053E+000, +1.79910337777E+002
+1.41093489149E+007, +8.37222385597E+000, +1.82298403152E+002
+1.42761268781E+007, +8.44867719635E+000, +1.84509831448E+002
+1.44429048414E+007, +8.49815278329E+000, +1.86753466792E+002
+1.46096828047E+007, +8.46690504163E+000, +1.89328199633E+002
+1.47764607679E+007, +8.57852854521E+000, +1.91395774944E+002
+1.49432387312E+007, +8.34875421969E+000, +1.93870728691E+002
+1.51100166945E+007, +8.45442781768E+000, +1.96359519966E+002
+1.52767946578E+007, +8.86026923888E+000, +1.98700076532E+002
+1.54435726210E+007, +8.74983568745E+000, +2.00896187934E+002
+1.56103505843E+007, +8.99846643118E+000, +2.03154338121E+002
+1.57771285476E+007, +8.66616446973E+000, +2.05331908505E+002
+1.59439065109E+007, +8.82123925686E+000, +2.08129847878E+002
+1.61106844741E+007, +8.90464870953E+000, +2.10206093332E+002
+1.62774624374E+007, +9.04586799161E+000, +2.12503512611E+002
+1.64442404007E+007, +8.87215826838E+000, +2.14900827415E+002
+1.66110183639E+007, +9.21065877158E+000, +2.17538869581E+002
+1.67777963272E+007, +9.17160483564E+000, +2.19908999168E+002
+1.69445742905E+007, +9.42610726892E+000, +2.22240213975E+002
+1.71113522538E+007, +8.63494219702E+000, +2.24327309394E+002
+1.72781302170E+007, +9.16732100621E+000, +2.27242884452E+002
+1.74449081803E+007, +9.11940582004E+000, +2.29300977636E+002
+1.76116861436E+007, +9.42869788338E+000, +2.32044369679E+002
+1.77784641068E+007, +9.23554502809E+000, +2.34066952873E+002
+1.79452420701E+007, +9.51278761024E+000, +2.36840313163E+002
+1.81120200334E+007, +9.79246406918E+000, +2.39022263136E+002
+1.82787979967E+007, +9.56296087472E+000, +2.41872974717E+002
+1.84455759599E+007, +1.00918316741E+001, +2.44156044535E+002
+1.86123539232E+007, +1.00295226176E+001, +2.46539607557E+002
+1.87791318865E+007, +9.65512116665E+000, +2.49149588008E+002
+1.89459098497E+007, +1.00213824298E+001, +2.51790020970E+002
+1.91126878130E+007, +1.00625270497E+001, +2.53820710648E+002
+1.92794657763E+007, +1.00234392412E+001, +2.56227835725E+002
+1.94462437396E+007, +1.02296225497E+001, +2.59337731477E+002
+1.96130217028E+007, +1.00790012971E+001, +2.62070528558E+002
+1.97797996661E+007, +1.02870584207E+001, +2.63953412868E+002
+1.99465776294E+007, +9.90969590531E+000, +2.66693553892E+002
+2.01133555927E+007, +1.03828322196E+001, +2.69371188667E+002
+2.02801335559E+007, +1.04546898164E+001, +2.72159677984E+002
+2.04469115192E+007, +1.06804640946E+001, +2.74927633717E+002
+2.06136894825E+007, +1.05192864030E+001, +2.77183335356E+002
+2.07804674457E+007, +1.07510848920E+001, +2.79799930900E+002
+2.09472454090E+007, +1.05429472748E+001, +2.82729088633E+002
+2.11140233723E+007, +1.10793129597E+001, +2.84858184378E+002
+2.12808013356E+007, +1.13147577776E+001, +2.87974733330E+002
+2.14475792988E+007, +1.11775530001E+001, +2.90570978384E+002
+2.16143572621E+007, +1.18100507151E+001, +2.92924430923E+002
+2.17811352254E+007, +1.11537999705E+001, +2.95255124600E+002
+2.19479131886E+007, +1.18108117451E+001, +2.98325158989E+002
+2.21146911519E+007, +1.21434904077E+001, +3.00457525938E+002
+2.22814691152E+007, +1.16378150844E+001, +3.03582645940E+002
+2.24482470785E+007, +1.17287727014E+001, +3.06227964596E+002
+2.26150250417E+007, +1.25801791743E+001, +3.09015932294E+002
+2.27818030050E+007, +1.22004368939E+001, +3.12038536557E+002
+2.29485809683E+007, +1.31934803376E+001, +3.13987754313E+002
+2.31153589316E+007, +1.17715670169E+001, +3.17584835248E+002
+2.32821368948E+007, +1.30443565225E+001, +3.20386787611E+002
+2.34489148581E+007, +1.30521435863E+001, +3.22779258603E+002
+2.36156928214E+007, +1.36546621981E+001, +3.25847327080E+002
+2.37824707846E+007, +1.35571072991E+001, +3.28510188493E+002
+2.39492487479E+007, +1.32721299809E+001, +3.30857209688E+002
+2.41160267112E+007, +1.34183764408E+001, +3.33932490101E+002
+2.42828046745E+007, +1.39111144230E+001, +3.36786928085E+002
+2.44495826377E+007, +1.42239863202E+001, +3.39747342908E+002
+2.46163606010E+007, +1.43998796490E+001, +3.41998503811E+002
+2.47831385643E+007, +1.41207798676E+001, +3.45073057920E+002
+2.49499165275E+007, +1.48418187896E+001, +3.48026851169E+002
+2.51166944908E+007, +1.53299923218E+001, +3.50560433996E+002
+2.52834724541E+007, +1.51908577031E+001, +3.53868414392E+002
+2.54502504174E+007, +1.53647562869E+001, +3.56514431883E+002
+2.56170283806E+007, +1.55602904154E+001, +3.58922427343E+002
+2.57838063439E+007, +1.55566365703E+001, +3.62654492829E+002
+2.59505843072E+007, +1.59096279872E+001, +3.65501890390E+002
+2.61173622705E+007, +1.61897143981E+001, +3.68756953177E+002
+2.62841402337E+007, +1.57606715166E+001, +3.71373780007E+002
+2.64509181970E+007, +1.54454905382E+001, +3.74159110762E+002
+2.66176961603E+007, +1.58886027682E+001, +3.77524833758E+002
+2.67844741235E+007, +1.64334765156E+001, +3.79782816279E+002
+2.69512520868E+007, +1.62277031875E+001, +3.83422942658E+002
+2.71180300501E+007, +1.69255242994E+001, +3.85666442021E+002
+2.72848080134E+007, +1.72367356082E+001, +3.88952547868E+002
+2.74515859766E+007, +1.75652643629E+001, +3.91467716479E+002
+2.76183639399E+007, +1.67969637160E+001, +3.93966945379E+002
+2.77851419032E+007, +1.75679471373E+001, +3.97931066773E+002
+2.79519198664E+007, +1.82820058521E+001, +4.00896639716E+002
+2.81186978297E+007, +1.85052506143E+001, +4.03419945346E+002
+2.82854757930E+007, +1.79034586166E+001, +4.06701556129E+002
+2.84522537563E+007, +1.69062618206E+001, +4.10091152306E+002
+2.86190317195E+007, +1.79154124592E+001, +4.13312325964E+002
+2.87858096828E+007, +1.90082621247E+001, +4.16983152193E+002
+2.89525876461E+007, +1.92725730105E+001, +4.19060666442E+002
+2.91193656093E+007, +1.81493098121E+001, +4.21826067569E+002
+2.92861435726E+007, +1.79324461240E+001, +4.25261682724E+002
+2.94529215359E+007, +1.80848112679E+001, +4.29153910686E+002
+2.96196994992E+007, +1.87172336926E+001, +4.32080140083E+002
+2.97864774624E+007, +1.97097619634E+001, +4.35671012165E+002
+2.99532554257E+007, +1.98582030521E+001, +4.39207189267E+002
+3.01200333890E+007, +1.92163840338E+001, +4.42372248356E+002
+3.02868113523E+007, +1.90138334303E+001, +4.46109070607E+002
+3.04535893155E+007, +1.94968359204E+001, +4.49078183240E+002
+3.06203672788E+007, +1.93487113413E+001, +4.52492832590E+002
+3.07871452421E+007, +1.87910585148E+001, +4.55178314352E+002
+3.09539232053E+007, +1.95098108296E+001, +4.59048184820E+002
+3.11207011686E+007, +1.88637934048E+001, +4.62590790644E+002
+3.12874791319E+007, +1.96621026329E+001, +4.66349022973E+002
+3.14542570952E+007, +1.98539246251E+001, +4.69635346964E+002
+3.16210350584E+007, +1.91194984489E+001, +4.73688978058E+002
+3.17878130217E+007, +1.93776264010E+001, +4.77450431916E+002
+3.19545909850E+007, +1.97690488121E+001, +4.80371918869E+002
+3.21213689482E+007, +1.86965563587E+001, +4.85565421575E+002
+3.22881469115E+007, +2.01091942276E+001, +4.86857214608E+002
+3.24549248748E+007, +2.04528862211E+001, +4.92392841308E+002
+3.26217028381E+007, +1.96831635453E+001, +4.95496223728E+002
+3.27884808013E+007, +2.11828063131E+001, +4.97870011702E+002
+3.29552587646E+007, +2.11126815137E+001, +5.02754142891E+002
+3.31220367279E+007, +2.22428654692E+001, +5.05625142977E+002
+3.32888146912E+007, +2.08752771862E+001, +5.10036676297E+002
+3.34555926544E+007, +1.99478311378E+001, +5.14005256135E+002
+3.36223706177E+007, +2.15273067812E+001, +5.17017553261E+002
+3.37891485810E+007, +2.10188305109E+001, +5.21060335558E+002
+3.39559265442E+007, +2.11356151997E+001, +5.26301683754E+002
+3.41227045075E+007, +2.23955767648E+001, +5.29470084097E+002
+3.42894824708E+007, +2.13556063466E+001, +5.32520337115E+002
+3.44562604341E+007, +2.12809328528E+001, +5.38143806323E+002
+3.46230383973E+007, +2.14723070093E+001, +5.42033474355E+002
+3.47898163606E+007, +2.26098182608E+001, +5.44924876522E+002
+3.49565943239E+007, +2.36595183746E+001, +5.51465756628E+002
+3.51233722871E+007, +2.31698097120E+001, +5.53684159235E+002
+3.52901502504E+007, +2.25872357480E+001, +5.58225251253E+002
+3.54569282137E+007, +2.18598370833E+001, +5.61795095777E+002
+3.56237061770E+007, +2.18983140093E+001, +5.66572946446E+002
+3.57904841402E+007, +2.37762761649E+001, +5.71276659390E+002
+3.59572621035E+007, +2.35829246157E+001, +5.74423520009E+002
+3.61240400668E+007, +2.36467572637E+001, +5.79567036204E+002
+3.62908180301E+007, +2.38687624550E+001, +5.86083480439E+002
+3.64575959933E+007, +2.28658675814E+001, +5.89646492920E+002
+3.66243739566E+007, +2.45257579608E+001, +5.93014237043E+002
+3.67911519199E+007, +2.48429719446E+001, +5.99834246223E+002
+3.69579298831E+007, +2.48226389331E+001, +6.01325805362E+002
+3.71247078464E+007, +2.50942174421E+001, +6.06922907386E+002
+3.72914858097E+007, +2.39476276655E+001, +6.12742200496E+002
+3.74582637730E+007, +2.61287554615E+001, +6.19957932368E+002
+3.76250417362E+007, +2.61163752696E+001, +6.21664926964E+002
+3.77918196995E+007, +2.60890507805E+001, +6.26713301108E+002
+3.79585976628E+007, +2.51095875265E+001, +6.31121914378E+002
+3.81253756260E+007, +2.73504601406E+001, +6.36887956823E+002
+3.82921535893E+007, +2.86684466910E+001, +6.42016443136E+002
+3.84589315526E+007, +2.88187961544E+001, +6.48472525323E+002
+3.86257095159E+007, +2.77526256920E+001, +6.53275137603E+002
+3.87924874791E+007, +2.64391836502E+001, +6.57609559731E+002
+3.89592654424E+007, +2.86731388189E+001, +6.62855924209E+002
+3.91260434057E+007, +2.83955787815E+001, +6.69804922089E+002
+3.92928213689E+007, +3.04230919437E+001, +6.74308372918E+002
+3.94595993322E+007, +2.82716526149E+001, +6.81219912580E+002
+3.96263772955E+007, +2.84375575010E+001, +6.82930180126E+002
+3.97931552588E+007, +2.87955000219E+001, +6.91517839842E+002
+3.99599332220E+007, +3.02410725986E+001, +6.96893285052E+002
+4.01267111853E+007, +2.95188892012E+001, +7.02387676713E+002
+4.02934891486E+007, +2.80920139914E+001, +7.07470862018E+002
+4.04602671119E+007, +3.04717170025E+001, +7.13697900594E+002
+4.06270450751E+007, +3.19477339554E+001, +7.19299039655E+002
+4.07938230384E+007, +3.16627831385E+001, +7.24140547706E+002
+4.09606010017E+007, +3.27344262334E+001, +7.29913104227E+002
+4.11273789649E+007, +3.41754258671E+001, +7.37275071087E+002
+4.12941569282E+007, +3.42506839554E+001, +7.42797564005E+002
+4.14609348915E+007, +3.43971586758E+001, +7.52294203221E+002
+4.16277128548E+007, +3.78861746612E+001, +7.57335902821E+002
+4.17944908180E+007, +3.60821135472E+001, +7.61412212167E+002
+4.19612687813E+007, +3.74816186385E+001, +7.68819100716E+002
+4.21280467446E+007, +3.77182402436E+001, +7.75643735674E+002
+4.22948247078E+007, +4.05558875939E+001, +7.81655507581E+002
+4.24616026711E+007, +4.15501402209E+001, +7.89915954895E+002
+4.26283806344E+007, +4.08872924013E+001, +7.96683836713E+002
+4.27951585977E+007, +3.75945299974E+001, +8.05627332877E+002
+4.29619365609E+007, +4.22147229117E+001, +8.10258610289E+002
+4.31287145242E+007, +4.56426068352E+001, +8.17634099647E+002
+4.32954924875E+007, +4.56804634192E+001, +8.23750952037E+002
+4.34622704508E+007, +4.25942811033E+001, +8.33932246309E+002
+4.36290484140E+007, +4.57376373767E+001, +8.39017895781E+002
+4.37958263773E+007, +4.57100643531E+001, +8.48397239807E+002
+4.39626043406E+007, +4.77101583301E+001, +8.53769243260E+002
+4.41293823038E+007, +4.97247545440E+001, +8.67713265059E+002
+4.42961602671E+007, +4.78024614722E+001, +8.71417380740E+002
+4.44629382304E+007, +4.90550974862E+001, +8.78972900254E+002
+4.46297161937E+007, +5.22613281439E+001, +8.86447115297E+002
+4.47964941569E+007, +4.87280093120E+001, +8.95741991028E+002
+4.49632721202E+007, +5.46959989447E+001, +9.05651987301E+002
+4.51300500835E+007, +5.55846452515E+001, +9.13286468494E+002
+4.52968280467E+007, +5.78537888291E+001, +9.21238018925E+002
+4.54636060100E+007, +5.93483618491E+001, +9.36013391333E+002
+4.56303839733E+007, +6.26548187530E+001, +9.43776939363E+002
+4.57971619366E+007, +6.41111646489E+001, +9.49161041874E+002
+4.59639398998E+007, +6.42668856099E+001, +9.65522126164E+002
+4.61307178631E+007, +6.86540978446E+001, +9.73269099065E+002
+4.62974958264E+007, +7.23232157379E+001, +9.79395228415E+002
+4.64642737896E+007, +7.33653967640E+001, +9.91399551251E+002
+4.66310517529E+007, +7.44414096645E+001, +1.00425031803E+003
+4.67978297162E+007, +8.27729525587E+001, +1.00696624297E+003
+4.69646076795E+007, +8.45537368032E+001, +1.02408218154E+003
+4.71313856427E+007, +8.97053361632E+001, +1.02636144677E+003
+4.72981636060E+007, +9.41932439346E+001, +1.04154505342E+003
+4.74649415693E+007, +9.55123687570E+001, +1.05264205226E+003
+4.76317195326E+007, +1.05603923255E+002, +1.05874931446E+003
+4.77984974958E+007, +1.08092956707E+002, +1.07070151290E+003
+4.79652754591E+007, +1.14330201719E+002, +1.08371653010E+003
+4.81320534224E+007, +1.18449265017E+002, +1.09255440865E+003
+4.82988313856E+007, +1.23368010886E+002, +1.10304051031E+003
+4.84656093489E+007, +1.33320852806E+002, +1.11293060714E+003
+4.86323873122E+007, +1.39458543376E+002, +1.11596670998E+003
+4.87991652755E+007, +1.47578029952E+002, +1.13383166276E+003
+4.89659432387E+007, +1.48916153800E+002, +1.13794844472E+003
+4.91327212020E+007, +1.59139483139E+002, +1.14887797810E+003
+4.92994991653E+007, +1.65349823798E+002, +1.15142563607E+003
+4.94662771285E+007, +1.73462063326E+002, +1.16202215375E+003
+4.96330550918E+007, +1.80628936327E+002, +1.17296322878E+003
+4.97998330551E+007, +1.89982077908E+002, +1.16998370503E+003
+4.99666110184E+007, +1.97526477780E+002, +1.17677191234E+003
+5.01333889816E+007, +1.94160338229E+002, +1.18133834791E+003
+5.03001669449E+007, +1.91853949422E+002, +1.18273907202E+003
+5.04669449082E+007, +1.96318204783E+002, +1.18828294617E+003
+5.06337228715E+007, +2.06623384253E+002, +1.19539851588E+003
+5.08005008347E+007, +1.96490452179E+002, +1.19746050088E+003
+5.09672787980E+007, +2.04083667331E+002, +1.20709483179E+003
+5.11340567613E+007, +1.97109582539E+002, +1.21390045365E+003
+5.13008347245E+007, +1.90080284750E+002, +1.23104748431E+003
+5.14676126878E+007, +1.89641484108E+002, +1.24062886096E+003
+5.16343906511E+007, +1.89718422751E+002, +1.24584943444E+003
+5.18011686144E+007, +1.81005724907E+002, +1.25765316175E+003
+5.19679465776E+007, +1.75871552181E+002, +1.27298248428E+003
+5.21347245409E+007, +1.79999724284E+002, +1.29871518102E+003
+5.23015025042E+007, +1.82529627782E+002, +1.32244084361E+003
+5.24682804674E+007, +1.73993017823E+002, +1.33666440967E+003
+5.26350584307E+007, +1.78929120340E+002, +1.35255545723E+003
+5.28018363940E+007, +1.76303744589E+002, +1.36940414582E+003
+5.29686143573E+007, +1.81247235540E+002, +1.39138552913E+003
+5.31353923205E+007, +1.81513059817E+002, +1.40386211308E+003
+5.33021702838E+007, +1.74264161207E+002, +1.42909133019E+003
+5.34689482471E+007, +1.89378459211E+002, +1.45756551624E+003
