"# Channel 1"
"# Trace 1"
Frequency, Formatted Data, Formatted Data
+1.00000000000E+005, +5.40615280488E-001, +1.28127784346E+000
+2.25031289111E+005, +5.56165608673E-001, +2.88310679340E+000
+3.50062578223E+005, +5.67961592231E-001, +4.49034504353E+000
+4.75093867334E+005, +5.57994713624E-001, +6.10566451550E+000
+6.00125156446E+005, +5.73883142772E-001, +7.71818468957E+000
+7.25156445557E+005, +6.09534414096E-001, +9.27952292430E+000
+8.50187734668E+005, +6.67681566856E-001, +1.08806746065E+001
+9.75219023780E+005, +6.69058018967E-001, +1.24291534463E+001
+1.10025031289E+006, +7.08760283786E-001, +1.40282951602E+001
+1.22528160200E+006, +7.46966268067E-001, +1.56210996183E+001
+1.35031289111E+006, +7.25131445067E-001, +1.72195473256E+001
+1.47534418023E+006, +7.77306254680E-001, +1.87585979744E+001
+1.60037546934E+006, +7.85804841491E-001, +2.02887056160E+001
+1.72540675845E+006, +8.34874257689E-001, +2.18951621444E+001
+1.85043804756E+006, +8.64132780064E-001, +2.34334528362E+001
+1.97546933667E+006, +8.46831434651E-001, +2.50016799922E+001
+2.10050062578E+006, +8.75958176435E-001, +2.65841140945E+001
+2.22553191489E+006, +8.41141586607E-001, +2.81587081356E+001
+2.35056320401E+006, +8.73151709826E-001, +2.96985326049E+001
+2.47559449312E+006, +9.02232212554E-001, +3.12324672391E+001
+2.60062578223E+006, +9.35859918311E-001, +3.27949218397E+001
+2.72565707134E+006, +9.71754281002E-001, +3.43782442174E+001
+2.85068836045E+006, +9.33893778078E-001, +3.59413414012E+001
+2.97571964956E+006, +9.56830981100E-001, +3.74804311601E+001
+3.10075093867E+006, +9.57027384939E-001, +3.91021687217E+001
+3.22578222778E+006, +9.77836516437E-001, +4.06178142215E+001
+3.35081351690E+006, +1.08033786867E+000, +4.22379075973E+001
+3.47584480601E+006, +1.08160588119E+000, +4.37237286151E+001
+3.60087609512E+006, +1.12098953834E+000, +4.53383364673E+001
+3.72590738423E+006, +1.08603472073E+000, +4.69534822569E+001
+3.85093867334E+006, +1.11525360308E+000, +4.84706658490E+001
+3.97596996245E+006, +1.10029316979E+000, +4.99919016345E+001
+4.10100125156E+006, +1.06275673203E+000, +5.16818211844E+001
+4.22603254068E+006, +1.15617941093E+000, +5.30785650263E+001
+4.35106382979E+006, +1.16615418165E+000, +5.47338280852E+001
+4.47609511890E+006, +1.16132247717E+000, +5.63128858433E+001
+4.60112640801E+006, +1.09856216660E+000, +5.78673957461E+001
+4.72615769712E+006, +1.10286598468E+000, +5.93941821483E+001
+4.85118898623E+006, +1.15800707316E+000, +6.09519393966E+001
+4.97622027534E+006, +1.16438984871E+000, +6.25737836929E+001
+5.10125156446E+006, +1.17892878635E+000, +6.40343095195E+001
+5.22628285357E+006, +1.21354212208E+000, +6.56710775467E+001
+5.35131414268E+006, +1.21884164520E+000, +6.72318097985E+001
+5.47634543179E+006, +1.19877852023E+000, +6.88312921355E+001
+5.60137672090E+006, +1.28251389328E+000, +7.05091239149E+001
+5.72640801001E+006, +1.24603271806E+000, +7.19674904671E+001
+5.85143929912E+006, +1.33403138556E+000, +7.36556558450E+001
+5.97647058824E+006, +1.27370552160E+000, +7.50734665433E+001
+6.10150187735E+006, +1.19178421173E+000, +7.67331282531E+001
+6.22653316646E+006, +1.48885698165E+000, +7.83819767538E+001
+6.35156445557E+006, +1.36626076302E+000, +7.99605002744E+001
+6.47659574468E+006, +1.43614605243E+000, +8.15708702813E+001
+6.60162703379E+006, +1.35180163973E+000, +8.31651961624E+001
+6.72665832290E+006, +1.40562485597E+000, +8.46809188590E+001
+6.85168961202E+006, +1.37935858632E+000, +8.63472648284E+001
+6.97672090113E+006, +1.43116446026E+000, +8.78453003375E+001
+7.10175219024E+006, +1.42906693523E+000, +8.95154881107E+001
+7.22678347935E+006, +1.37837455010E+000, +9.10162885736E+001
+7.35181476846E+006, +1.40303405284E+000, +9.25578359837E+001
+7.47684605757E+006, +1.46543743748E+000, +9.42256928308E+001
+7.60187734668E+006, +1.47754482394E+000, +9.57754802010E+001
+7.72690863579E+006, +1.49520650603E+000, +9.72981491369E+001
+7.85193992491E+006, +1.56959878124E+000, +9.90864997408E+001
+7.97697121402E+006, +1.61745023308E+000, +1.00603763539E+002
+8.10200250313E+006, +1.58004780119E+000, +1.02236495850E+002
+8.22703379224E+006, +1.55651671096E+000, +1.03789389290E+002
+8.35206508135E+006, +1.54200945736E+000, +1.05325188836E+002
+8.47709637046E+006, +1.58753689520E+000, +1.06957720209E+002
+8.60212765957E+006, +1.54936151967E+000, +1.08548861951E+002
+8.72715894869E+006, +1.57226000597E+000, +1.10194440118E+002
+8.85219023780E+006, +1.60101821939E+000, +1.11841443034E+002
+8.97722152691E+006, +1.63716890248E+000, +1.13316602860E+002
+9.10225281602E+006, +1.63327488327E+000, +1.15051089241E+002
+9.22728410513E+006, +1.68048590817E+000, +1.16576227238E+002
+9.35231539424E+006, +1.65799537355E+000, +1.18297503156E+002
+9.47734668335E+006, +1.67521386101E+000, +1.19739624842E+002
+9.60237797247E+006, +1.62454672222E+000, +1.21337019505E+002
+9.72740926158E+006, +1.60389506290E+000, +1.23008598718E+002
+9.85244055069E+006, +1.74622640850E+000, +1.24554315381E+002
+9.97747183980E+006, +1.64053841836E+000, +1.26220772585E+002
+1.01025031289E+007, +1.64723164177E+000, +1.27723409597E+002
+1.02275344180E+007, +1.78060216821E+000, +1.29502444998E+002
+1.03525657071E+007, +1.69517853575E+000, +1.31002899609E+002
+1.04775969962E+007, +1.73820749060E+000, +1.32626238860E+002
+1.06026282854E+007, +1.66049489264E+000, +1.34216563415E+002
+1.07276595745E+007, +1.77356134591E+000, +1.36034896996E+002
+1.08526908636E+007, +1.86185640406E+000, +1.37596866364E+002
+1.09777221527E+007, +1.66675585294E+000, +1.39237414173E+002
+1.11027534418E+007, +1.68262185471E+000, +1.40865267168E+002
+1.12277847309E+007, +1.74050588279E+000, +1.42439955078E+002
+1.13528160200E+007, +1.65596686640E+000, +1.44163364079E+002
+1.14778473091E+007, +1.78045521476E+000, +1.45616162296E+002
+1.16028785982E+007, +1.70443235843E+000, +1.47286275807E+002
+1.17279098874E+007, +1.73425285798E+000, +1.48969698547E+002
+1.18529411765E+007, +1.64215948717E+000, +1.50610184951E+002
+1.19779724656E+007, +1.74780004681E+000, +1.52213556895E+002
+1.21030037547E+007, +1.78876888268E+000, +1.53973183365E+002
+1.22280350438E+007, +1.64551769087E+000, +1.55565321491E+002
+1.23530663329E+007, +1.87886833832E+000, +1.57486324144E+002
+1.24780976220E+007, +1.66893416782E+000, +1.58870346926E+002
+1.26031289111E+007, +1.71929838984E+000, +1.60453283086E+002
+1.27281602003E+007, +1.71045479097E+000, +1.61953716466E+002
+1.28531914894E+007, +1.89451609974E+000, +1.63846331838E+002
+1.29782227785E+007, +1.71962521166E+000, +1.65323902311E+002
+1.31032540676E+007, +1.82808114550E+000, +1.67089815983E+002
+1.32282853567E+007, +1.80687545972E+000, +1.68816082698E+002
+1.33533166458E+007, +1.91425340073E+000, +1.70497980712E+002
+1.34783479349E+007, +1.53403695723E+000, +1.71990690981E+002
+1.36033792240E+007, +1.90721726111E+000, +1.73804179583E+002
+1.37284105131E+007, +1.78350464724E+000, +1.75465010444E+002
+1.38534418023E+007, +1.90611328523E+000, +1.76949258449E+002
+1.39784730914E+007, +1.90266871636E+000, +1.78468969032E+002
+1.41035043805E+007, +1.72694690093E+000, +1.80442077701E+002
+1.42285356696E+007, +1.80754899833E+000, +1.82181782160E+002
+1.43535669587E+007, +1.80922612625E+000, +1.83878054596E+002
+1.44785982478E+007, +1.72397718670E+000, +1.85345691212E+002
+1.46036295369E+007, +1.68650763292E+000, +1.86994482791E+002
+1.47286608260E+007, +1.70569553999E+000, +1.89144617438E+002
+1.48536921151E+007, +1.81298200443E+000, +1.90686444373E+002
+1.49787234043E+007, +1.86182664876E+000, +1.92373041501E+002
+1.51037546934E+007, +1.88802016338E+000, +1.93855950841E+002
+1.52287859825E+007, +1.98563843884E+000, +1.95611615616E+002
+1.53538172716E+007, +1.86579879510E+000, +1.97369920334E+002
+1.54788485607E+007, +1.87929594512E+000, +1.99104345272E+002
+1.56038798498E+007, +2.05407947233E+000, +2.00750011037E+002
+1.57289111389E+007, +1.86584610010E+000, +2.02586310348E+002
+1.58539424280E+007, +1.86863075761E+000, +2.04121281084E+002
+1.59789737171E+007, +1.83309176617E+000, +2.05728052211E+002
+1.61040050063E+007, +2.12918406041E+000, +2.07528735804E+002
+1.62290362954E+007, +1.78177548284E+000, +2.09235542462E+002
+1.63540675845E+007, +1.80171512343E+000, +2.11054492439E+002
+1.64790988736E+007, +1.81404678216E+000, +2.12829376987E+002
+1.66041301627E+007, +1.83749040399E+000, +2.14578793923E+002
+1.67291614518E+007, +1.68042208214E+000, +2.16571399033E+002
+1.68541927409E+007, +1.86234227958E+000, +2.18292745045E+002
+1.69792240300E+007, +1.68784309716E+000, +2.19648923988E+002
+1.71042553191E+007, +1.44620122524E+000, +2.21691668147E+002
+1.72292866083E+007, +1.70040368035E+000, +2.23114038369E+002
+1.73543178974E+007, +1.85392095854E+000, +2.25288755335E+002
+1.74793491865E+007, +1.56232785429E+000, +2.26717903086E+002
+1.76043804756E+007, +1.56828937605E+000, +2.28407371393E+002
+1.77294117647E+007, +1.74436968642E+000, +2.30153178745E+002
+1.78544430538E+007, +1.85330220604E+000, +2.31885205416E+002
+1.79794743429E+007, +2.02552566485E+000, +2.33675216895E+002
+1.81045056320E+007, +1.58379346302E+000, +2.35803274280E+002
+1.82295369212E+007, +2.02677901317E+000, +2.36972122005E+002
+1.83545682103E+007, +1.84440741453E+000, +2.39247638996E+002
+1.84795994994E+007, +2.17483908014E+000, +2.40996522721E+002
+1.86046307885E+007, +1.98323646541E+000, +2.42524137269E+002
+1.87296620776E+007, +1.81325404736E+000, +2.44648292064E+002
+1.88546933667E+007, +2.00000301176E+000, +2.45834917462E+002
+1.89797246558E+007, +1.87991257489E+000, +2.47846419941E+002
+1.91047559449E+007, +2.00467244646E+000, +2.49675677747E+002
+1.92297872340E+007, +1.97377395893E+000, +2.51837370667E+002
+1.93548185232E+007, +2.06750808157E+000, +2.53639522285E+002
+1.94798498123E+007, +2.03514254796E+000, +2.55398292599E+002
+1.96048811014E+007, +2.24224949310E+000, +2.56824073523E+002
+1.97299123905E+007, +1.95186031777E+000, +2.58519506244E+002
+1.98549436796E+007, +1.61629653324E+000, +2.60694841506E+002
+1.99799749687E+007, +2.13668728427E+000, +2.62440081327E+002
+2.01050062578E+007, +2.10529018484E+000, +2.64276193894E+002
+2.02300375469E+007, +2.24519376060E+000, +2.65850308544E+002
+2.03550688360E+007, +1.74407595108E+000, +2.68155781910E+002
+2.04801001252E+007, +2.16625018102E+000, +2.69492863899E+002
+2.06051314143E+007, +1.98386657359E+000, +2.72005783875E+002
+2.07301627034E+007, +2.23860818669E+000, +2.73616430725E+002
+2.08551939925E+007, +2.33979792789E+000, +2.75579162722E+002
+2.09802252816E+007, +2.17296837001E+000, +2.77056409493E+002
+2.11052565707E+007, +2.22349543625E+000, +2.79128059552E+002
+2.12302878598E+007, +2.28927058554E+000, +2.81043335624E+002
+2.13553191489E+007, +1.96518671577E+000, +2.82354646210E+002
+2.14803504380E+007, +2.05175595789E+000, +2.84206538218E+002
+2.16053817272E+007, +1.81781813330E+000, +2.86697672268E+002
+2.17304130163E+007, +2.11351502774E+000, +2.88893444975E+002
+2.18554443054E+007, +2.52906685812E+000, +2.90466403505E+002
+2.19804755945E+007, +2.20219440993E+000, +2.92521919280E+002
+2.21055068836E+007, +2.15464948050E+000, +2.94211699367E+002
+2.22305381727E+007, +2.26356523900E+000, +2.96244425606E+002
+2.23555694618E+007, +2.51483126443E+000, +2.98359523856E+002
+2.24806007509E+007, +2.17089775752E+000, +3.00021313954E+002
+2.26056320401E+007, +2.63615863269E+000, +3.01909760671E+002
+2.27306633292E+007, +2.79885423712E+000, +3.03594902613E+002
+2.28556946183E+007, +2.80388806175E+000, +3.05352038946E+002
+2.29807259074E+007, +2.52256071128E+000, +3.07981546298E+002
+2.31057571965E+007, +2.28980181544E+000, +3.09215890981E+002
+2.32307884856E+007, +2.39188110256E+000, +3.11463772342E+002
+2.33558197747E+007, +2.94897402588E+000, +3.12822363441E+002
+2.34808510638E+007, +2.53869125391E+000, +3.15079387070E+002
+2.36058823529E+007, +2.64870229005E+000, +3.17266420519E+002
+2.37309136421E+007, +3.19769777526E+000, +3.18914118423E+002
+2.38559449312E+007, +3.02688867762E+000, +3.21587177362E+002
+2.39809762203E+007, +2.97234953222E+000, +3.22433149937E+002
+2.41060075094E+007, +2.37875464417E+000, +3.24971982137E+002
+2.42310387985E+007, +3.25485444662E+000, +3.27368852889E+002
+2.43560700876E+007, +3.39731998939E+000, +3.28717312806E+002
+2.44811013767E+007, +2.47828503111E+000, +3.30626949453E+002
+2.46061326658E+007, +2.77471822955E+000, +3.32573809412E+002
+2.47311639549E+007, +3.00565020065E+000, +3.34449182884E+002
+2.48561952441E+007, +3.20380523787E+000, +3.36554042247E+002
+2.49812265332E+007, +3.13727460062E+000, +3.38993703039E+002
+2.51062578223E+007, +3.68651720601E+000, +3.39900544083E+002
+2.52312891114E+007, +3.24521411570E+000, +3.41729290432E+002
+2.53563204005E+007, +2.92123073673E+000, +3.44961329351E+002
+2.54813516896E+007, +2.76595670749E+000, +3.46407973467E+002
+2.56063829787E+007, +3.01717727172E+000, +3.47984987099E+002
+2.57314142678E+007, +2.97643386146E+000, +3.51144866223E+002
+2.58564455569E+007, +2.55736792485E+000, +3.52187871941E+002
+2.59814768461E+007, +3.50353640019E+000, +3.54128998565E+002
+2.61065081352E+007, +2.66699521294E+000, +3.56129369606E+002
+2.62315394243E+007, +2.41098168932E+000, +3.58912196243E+002
+2.63565707134E+007, +2.76744734262E+000, +3.60799082355E+002
+2.64816020025E+007, +2.82207450684E+000, +3.62884628935E+002
+2.66066332916E+007, +3.18762095269E+000, +3.65179600049E+002
+2.67316645807E+007, +2.97920678364E+000, +3.66646720713E+002
+2.68566958698E+007, +3.45037247911E+000, +3.68588908698E+002
+2.69817271589E+007, +2.59147919925E+000, +3.70775272764E+002
+2.71067584481E+007, +3.39579383271E+000, +3.73686567625E+002
+2.72317897372E+007, +2.97167841733E+000, +3.75154688303E+002
+2.73568210263E+007, +3.51864483798E+000, +3.77364524940E+002
+2.74818523154E+007, +3.14653425144E+000, +3.79116878644E+002
+2.76068836045E+007, +2.97011159390E+000, +3.80994276734E+002
+2.77319148936E+007, +3.29367179681E+000, +3.83191574671E+002
+2.78569461827E+007, +3.01163836693E+000, +3.85416454213E+002
+2.79819774718E+007, +3.08013927849E+000, +3.88275695236E+002
+2.81070087610E+007, +3.66755518089E+000, +3.89744762104E+002
+2.82320400501E+007, +2.38331686698E+000, +3.92934758113E+002
+2.83570713392E+007, +2.25130850741E+000, +3.94031110697E+002
+2.84821026283E+007, +3.48994086757E+000, +3.96515835669E+002
+2.86071339174E+007, +2.13502311622E+000, +3.98773664920E+002
+2.87321652065E+007, +3.49529408748E+000, +4.00698562749E+002
+2.88571964956E+007, +3.23588909306E+000, +4.03175642213E+002
+2.89822277847E+007, +2.64895209629E+000, +4.05440840558E+002
+2.91072590738E+007, +2.84913528475E+000, +4.07870951591E+002
+2.92322903630E+007, +2.25748470245E+000, +4.09742963088E+002
+2.93573216521E+007, +3.20490490311E+000, +4.11891815086E+002
+2.94823529412E+007, +3.47130019454E+000, +4.14110663202E+002
+2.96073842303E+007, +2.52986941377E+000, +4.16583101685E+002
+2.97324155194E+007, +2.63077993171E+000, +4.19497112789E+002
+2.98574468085E+007, +1.93417353649E+000, +4.20880736156E+002
+2.99824780976E+007, +2.38535001168E+000, +4.23926971795E+002
+3.01075093867E+007, +3.06821040914E+000, +4.24747200437E+002
+3.02325406758E+007, +2.39778465221E+000, +4.27795737136E+002
+3.03575719650E+007, +2.77017323720E+000, +4.29434997021E+002
+3.04826032541E+007, +2.12149322614E+000, +4.32443042928E+002
+3.06076345432E+007, +2.37582119800E+000, +4.33441957807E+002
+3.07326658323E+007, +2.56688904108E+000, +4.36226586130E+002
+3.08576971214E+007, +2.14300892626E+000, +4.39399112607E+002
+3.09827284105E+007, +2.65121074544E+000, +4.40959033244E+002
+3.11077596996E+007, +1.50424358440E+000, +4.43379963314E+002
+3.12327909887E+007, +2.84138191995E+000, +4.46535067466E+002
+3.13578222778E+007, +3.18559152646E+000, +4.47519137862E+002
+3.14828535670E+007, +3.87869875979E+000, +4.50570238872E+002
+3.16078848561E+007, +2.93635773105E+000, +4.52471776027E+002
+3.17329161452E+007, +3.26814483839E+000, +4.56329041531E+002
+3.18579474343E+007, +1.17822492644E+000, +4.59815809168E+002
+3.19829787234E+007, +1.71699442624E+000, +4.60460496953E+002
+3.21080100125E+007, +3.17023103460E+000, +4.62917448434E+002
+3.22330413016E+007, +2.59050960181E+000, +4.65252407234E+002
+3.23580725907E+007, +2.33027111066E+000, +4.66504564258E+002
+3.24831038798E+007, +2.76218722635E+000, +4.69668038792E+002
+3.26081351690E+007, +1.95083915205E+000, +4.71865499383E+002
+3.27331664581E+007, +2.24393047742E+000, +4.73859426595E+002
+3.28581977472E+007, +1.81385669196E+000, +4.78590906708E+002
+3.29832290363E+007, +2.08304832606E+000, +4.79665847097E+002
+3.31082603254E+007, +1.54385254426E+000, +4.80833299554E+002
+3.32332916145E+007, +3.19816433967E+000, +4.85027189864E+002
+3.33583229036E+007, +1.30127463891E+000, +4.87079761571E+002
+3.34833541927E+007, +2.80638069598E+000, +4.88993867036E+002
+3.36083854819E+007, +2.87977157184E+000, +4.91309351668E+002
+3.37334167710E+007, +1.84910614395E+000, +4.94351082146E+002
+3.38584480601E+007, +2.56190822531E+000, +4.96118349129E+002
+3.39834793492E+007, +2.45473548886E+000, +4.99881736500E+002
+3.41085106383E+007, +3.05392809168E+000, +5.02927501487E+002
+3.42335419274E+007, +2.29219419628E+000, +5.04861078279E+002
+3.43585732165E+007, +1.97997740319E+000, +5.07911790476E+002
+3.44836045056E+007, +3.22219223473E+000, +5.11642911960E+002
+3.46086357947E+007, +1.52632234058E+000, +5.12532433387E+002
+3.47336670839E+007, +3.34338347785E+000, +5.15417274503E+002
+3.48586983730E+007, +2.21289723499E+000, +5.18288105290E+002
+3.49837296621E+007, +2.96948602043E+000, +5.20197974379E+002
+3.51087609512E+007, +2.52154736118E+000, +5.24374616462E+002
+3.52337922403E+007, +3.65060109597E+000, +5.24770019299E+002
+3.53588235294E+007, +2.07171714996E+000, +5.28503228198E+002
+3.54838548185E+007, +2.80868840968E+000, +5.30491153028E+002
+3.56088861076E+007, +2.84284806491E+000, +5.33810341502E+002
+3.57339173967E+007, +2.53323282857E+000, +5.36814159409E+002
+3.58589486859E+007, +1.26671252235E+000, +5.38195556010E+002
+3.59839799750E+007, +2.96880574854E+000, +5.42627645926E+002
+3.61090112641E+007, +3.18864457265E+000, +5.44410379249E+002
+3.62340425532E+007, +2.30123166581E+000, +5.45970126773E+002
+3.63590738423E+007, +1.99059521748E+000, +5.50006606783E+002
+3.64841051314E+007, +3.51465221688E+000, +5.51710703261E+002
+3.66091364205E+007, +1.49375402822E+000, +5.55558852949E+002
+3.67341677096E+007, +2.58378300950E+000, +5.58345430521E+002
+3.68591989987E+007, +2.18716435032E+000, +5.60878798105E+002
+3.69842302879E+007, +3.83844121048E+000, +5.63619395478E+002
+3.71092615770E+007, +3.16861198783E+000, +5.67646846854E+002
+3.72342928661E+007, +2.92473846779E+000, +5.68781467336E+002
+3.73593241552E+007, +1.92507541167E-001, +5.72999250286E+002
+3.74843554443E+007, +2.31450772207E+000, +5.73507358841E+002
+3.76093867334E+007, +2.77787578054E+000, +5.76028201724E+002
+3.77344180225E+007, +3.90775604970E+000, +5.81887275214E+002
+3.78594493116E+007, +2.06456833202E+000, +5.83272444240E+002
+3.79844806008E+007, +3.29069238476E+000, +5.86382871016E+002
+3.81095118899E+007, +2.46202060544E+000, +5.90409425066E+002
+3.82345431790E+007, +3.54672819146E+000, +5.92234764605E+002
+3.83595744681E+007, +3.61726550443E+000, +5.93796985107E+002
+3.84846057572E+007, +2.45916938837E+000, +5.96711251680E+002
+3.86096370463E+007, +1.97733270402E+000, +6.00456179472E+002
+3.87346683354E+007, +4.45946675235E+000, +6.04537542943E+002
+3.88596996245E+007, +1.03193411129E+000, +6.06336631168E+002
+3.89847309136E+007, +3.01050373611E+000, +6.10342318416E+002
+3.91097622028E+007, +3.92648594680E+000, +6.15089324382E+002
+3.92347934919E+007, +2.93301137398E+000, +6.16825789760E+002
+3.93598247810E+007, +5.00464772980E+000, +6.18918901228E+002
+3.94848560701E+007, +2.71781624780E+000, +6.22699891210E+002
+3.96098873592E+007, +3.40185446824E+000, +6.24766650655E+002
+3.97349186483E+007, +3.78744353455E+000, +6.30011563924E+002
+3.98599499374E+007, +3.94127432042E+000, +6.32555012242E+002
+3.99849812265E+007, +2.73485003700E+000, +6.36784400350E+002
+4.01100125156E+007, +3.68788326823E+000, +6.39047363782E+002
