"# Channel 1"
"# Trace 1"
Frequency, Formatted Data, Formatted Data
+1.00000000000E+005, +1.37431916785E-001, +1.23224874290E+000
+2.66777963272E+005, +1.49251892528E-001, +3.23261921329E+000
+4.33555926544E+005, +1.71923441255E-001, +5.24918176068E+000
+6.00333889816E+005, +2.14874736912E-001, +7.21324299608E+000
+7.67111853088E+005, +2.36546814233E-001, +9.23700175609E+000
+9.33889816361E+005, +2.52703316518E-001, +1.11786100277E+001
+1.10066777963E+006, +2.21170914223E-001, +1.31784334463E+001
+1.26744574290E+006, +2.82587309785E-001, +1.51305706429E+001
+1.43422370618E+006, +2.15184629366E-001, +1.71496901538E+001
+1.60100166945E+006, +2.98140296647E-001, +1.90699722361E+001
+1.76777963272E+006, +3.05948771502E-001, +2.10604168127E+001
+1.93455759599E+006, +3.22915787578E-001, +2.29704182241E+001
+2.10133555927E+006, +3.24452940865E-001, +2.49566248114E+001
+2.26811352254E+006, +3.59125182137E-001, +2.69413222165E+001
+2.43489148581E+006, +3.25888051414E-001, +2.89349179545E+001
+2.60166944908E+006, +3.63554606279E-001, +3.08604655927E+001
+2.76844741235E+006, +3.12230740237E-001, +3.28758749733E+001
+2.93522537563E+006, +3.36291027167E-001, +3.48242624273E+001
+3.10200333890E+006, +4.03951239547E-001, +3.67688247353E+001
+3.26878130217E+006, +2.99315543771E-001, +3.87879703703E+001
+3.43555926544E+006, +3.69013424082E-001, +4.07337809894E+001
+3.60233722871E+006, +3.89393917899E-001, +4.27754165414E+001
+3.76911519199E+006, +3.49311167471E-001, +4.48055276533E+001
+3.93589315526E+006, +3.58668736191E-001, +4.66629865150E+001
+4.10267111853E+006, +2.05075718620E-001, +4.85527098958E+001
+4.26944908180E+006, +2.87532501932E-001, +5.08618128189E+001
+4.43622704508E+006, +3.38595322940E-001, +5.26778336507E+001
+4.60300500835E+006, +3.89446778879E-001, +5.47757235893E+001
+4.76978297162E+006, +3.32252956753E-001, +5.66230633799E+001
+4.93656093489E+006, +4.48627711095E-001, +5.87099397253E+001
+5.10333889816E+006, +4.27683881980E-001, +6.06215530773E+001
+5.27011686144E+006, +5.27676434990E-001, +6.27739168015E+001
+5.43689482471E+006, +3.89975291160E-001, +6.46838986355E+001
+5.60367278798E+006, +4.18598499094E-001, +6.68019927615E+001
+5.77045075125E+006, +3.84229037353E-001, +6.86871509634E+001
+5.93722871452E+006, +4.98849725003E-001, +7.06904798696E+001
+6.10400667780E+006, +3.94792162474E-001, +7.27858527675E+001
+6.27078464107E+006, +5.36827498072E-001, +7.47394585888E+001
+6.43756260434E+006, +5.39877556643E-001, +7.67565956690E+001
+6.60434056761E+006, +5.42613270752E-001, +7.87516438293E+001
+6.77111853088E+006, +6.60363373354E-001, +8.07593674263E+001
+6.93789649416E+006, +6.08531357231E-001, +8.27859414433E+001
+7.10467445743E+006, +5.63885305248E-001, +8.47258608654E+001
+7.27145242070E+006, +6.22348173206E-001, +8.67889378884E+001
+7.43823038397E+006, +6.45899200132E-001, +8.87771577065E+001
+7.60500834725E+006, +5.94419899510E-001, +9.07933902147E+001
+7.77178631052E+006, +6.12839028189E-001, +9.29084444252E+001
+7.93856427379E+006, +6.61199387108E-001, +9.47828147324E+001
+8.10534223706E+006, +6.77231906766E-001, +9.68383285733E+001
+8.27212020033E+006, +6.23474291976E-001, +9.88892596050E+001
+8.43889816361E+006, +5.73665347928E-001, +1.00890640169E+002
+8.60567612688E+006, +4.85790464997E-001, +1.02986833614E+002
+8.77245409015E+006, +5.48879071553E-001, +1.04934991767E+002
+8.93923205342E+006, +5.47995151567E-001, +1.07032567512E+002
+9.10601001669E+006, +5.70674458982E-001, +1.09105173161E+002
+9.27278797997E+006, +5.77428924731E-001, +1.11184351182E+002
+9.43956594324E+006, +4.84953505918E-001, +1.13191414647E+002
+9.60634390651E+006, +5.12538379194E-001, +1.15262439620E+002
+9.77312186978E+006, +4.96423811987E-001, +1.17348378603E+002
+9.93989983306E+006, +5.88540584432E-001, +1.19465537822E+002
+1.01066777963E+007, +4.27319543375E-001, +1.21453689351E+002
+1.02734557596E+007, +4.38351632137E-001, +1.23628467450E+002
+1.04402337229E+007, +4.23241535495E-001, +1.25609490425E+002
+1.06070116861E+007, +4.07859115865E-001, +1.27729235721E+002
+1.07737896494E+007, +4.99565964273E-001, +1.29938997812E+002
+1.09405676127E+007, +5.45311469590E-001, +1.31996285017E+002
+1.11073455760E+007, +4.60003580272E-001, +1.34130549026E+002
+1.12741235392E+007, +3.81413472965E-001, +1.36129374922E+002
+1.14409015025E+007, +4.55482855733E-001, +1.38257859204E+002
+1.16076794658E+007, +5.15149241788E-001, +1.40359233554E+002
+1.17744574290E+007, +4.64475677066E-001, +1.42683140891E+002
+1.19412353923E+007, +5.30514202159E-001, +1.44668973476E+002
+1.21080133556E+007, +1.99315038290E-001, +1.46852163843E+002
+1.22747913189E+007, +4.74236960347E-001, +1.48961757551E+002
+1.24415692821E+007, +2.68028440213E-001, +1.50951344241E+002
+1.26083472454E+007, +2.71425132861E-001, +1.53108024575E+002
+1.27751252087E+007, +4.03183729821E-001, +1.55211161316E+002
+1.29419031720E+007, +3.77396025588E-001, +1.57465493668E+002
+1.31086811352E+007, +3.69275837672E-001, +1.59718880243E+002
+1.32754590985E+007, +5.13664578712E-001, +1.61699448477E+002
+1.34422370618E+007, +3.76408715252E-001, +1.63934475984E+002
+1.36090150250E+007, +5.57093166507E-001, +1.66200834766E+002
+1.37757929883E+007, +3.55159837380E-001, +1.68348855515E+002
+1.39425709516E+007, +4.57386843560E-001, +1.70465852695E+002
+1.41093489149E+007, +4.24882035065E-001, +1.72603855052E+002
+1.42761268781E+007, +5.51483837926E-001, +1.74890113532E+002
+1.44429048414E+007, +5.74676335856E-001, +1.77165277672E+002
+1.46096828047E+007, +4.86816430366E-001, +1.79328716991E+002
+1.47764607679E+007, +5.17538056843E-001, +1.81472455767E+002
+1.49432387312E+007, +2.30074821815E-001, +1.83628816219E+002
+1.51100166945E+007, +3.51687957427E-001, +1.85913652409E+002
+1.52767946578E+007, +5.86689650341E-001, +1.87877530853E+002
+1.54435726210E+007, +4.30170181981E-001, +1.90208570716E+002
+1.56103505843E+007, +6.88128752904E-001, +1.92440305933E+002
+1.57771285476E+007, +4.49904967499E-001, +1.94616575160E+002
+1.59439065109E+007, +5.48526414580E-001, +1.97022921366E+002
+1.61106844741E+007, +5.60163257432E-001, +1.99380404570E+002
+1.62774624374E+007, +7.08193588865E-001, +2.01446562507E+002
+1.64442404007E+007, +4.80014004029E-001, +2.03759747576E+002
+1.66110183639E+007, +7.94262015621E-001, +2.05920356916E+002
+1.67777963272E+007, +7.36275634700E-001, +2.08501627033E+002
+1.69445742905E+007, +7.18686792484E-001, +2.10579926059E+002
+1.71113522538E+007, +2.73949121033E-001, +2.12608317406E+002
+1.72781302170E+007, +4.31038343757E-001, +2.15037296800E+002
+1.74449081803E+007, +2.97599777324E-001, +2.17305455381E+002
+1.76116861436E+007, +6.65467219047E-001, +2.19919205158E+002
+1.77784641068E+007, +4.75383232552E-001, +2.21851729504E+002
+1.79452420701E+007, +5.60438232512E-001, +2.24209676082E+002
+1.81120200334E+007, +5.91576639850E-001, +2.26473449614E+002
+1.82787979967E+007, +9.05726767963E-001, +2.28995023215E+002
+1.84455759599E+007, +8.47684368245E-001, +2.31436065605E+002
+1.86123539232E+007, +1.09798055309E+000, +2.33631409226E+002
+1.87791318865E+007, +8.20416617879E-001, +2.35998369112E+002
+1.89459098497E+007, +7.14733290916E-001, +2.38531910563E+002
+1.91126878130E+007, +9.91417135084E-001, +2.40717976823E+002
+1.92794657763E+007, +8.83412921418E-001, +2.43297545418E+002
+1.94462437396E+007, +8.40438610681E-001, +2.45922024102E+002
+1.96130217028E+007, +7.02186385916E-001, +2.48340374835E+002
+1.97797996661E+007, +8.83159552493E-001, +2.50264636802E+002
+1.99465776294E+007, +7.15932911867E-001, +2.52752426944E+002
+2.01133555927E+007, +7.63086589997E-001, +2.55137342088E+002
+2.02801335559E+007, +8.48128908279E-001, +2.57931594340E+002
+2.04469115192E+007, +1.19810811890E+000, +2.60187418629E+002
+2.06136894825E+007, +1.09640979036E+000, +2.63078963110E+002
+2.07804674457E+007, +1.14480266778E+000, +2.65443451316E+002
+2.09472454090E+007, +9.19725020907E-001, +2.67745442839E+002
+2.11140233723E+007, +1.12256860827E+000, +2.69703979810E+002
+2.12808013356E+007, +1.26958805643E+000, +2.72647134441E+002
+2.14475792988E+007, +1.32579138829E+000, +2.74974783036E+002
+2.16143572621E+007, +1.36976130349E+000, +2.77545401269E+002
+2.17811352254E+007, +1.17700000433E+000, +2.80144074560E+002
+2.19479131886E+007, +1.53628325580E+000, +2.83198730324E+002
+2.21146911519E+007, +1.86208204252E+000, +2.84780514207E+002
+2.22814691152E+007, +1.47498531842E+000, +2.87580587808E+002
+2.24482470785E+007, +1.53961198728E+000, +2.90689371911E+002
+2.26150250417E+007, +2.01985496104E+000, +2.92616805267E+002
+2.27818030050E+007, +1.93905157611E+000, +2.95506434191E+002
+2.29485809683E+007, +2.44491291405E+000, +2.98002392314E+002
+2.31153589316E+007, +1.82244014219E+000, +3.00775540948E+002
+2.32821368948E+007, +2.23684819608E+000, +3.03435318712E+002
+2.34489148581E+007, +2.04312315806E+000, +3.05440785526E+002
+2.36156928214E+007, +2.50900985040E+000, +3.08489818620E+002
+2.37824707846E+007, +2.35015536179E+000, +3.11096050624E+002
+2.39492487479E+007, +2.36071766623E+000, +3.13483937858E+002
+2.41160267112E+007, +2.15347971116E+000, +3.16271118810E+002
+2.42828046745E+007, +2.23127683821E+000, +3.18535413450E+002
+2.44495826377E+007, +2.93042996416E+000, +3.21898426327E+002
+2.46163606010E+007, +2.92986857779E+000, +3.23894979749E+002
+2.47831385643E+007, +2.44508647824E+000, +3.26969471647E+002
+2.49499165275E+007, +3.10435006035E+000, +3.29814061900E+002
+2.51166944908E+007, +3.51772192300E+000, +3.32436298056E+002
+2.52834724541E+007, +2.99953227353E+000, +3.35223971510E+002
+2.54502504174E+007, +3.46993726281E+000, +3.38075279508E+002
+2.56170283806E+007, +3.31967685809E+000, +3.40937808365E+002
+2.57838063439E+007, +3.26770124468E+000, +3.44091235775E+002
+2.59505843072E+007, +3.27510963148E+000, +3.46448864798E+002
+2.61173622705E+007, +4.10614837717E+000, +3.48771434653E+002
+2.62841402337E+007, +3.44739129275E+000, +3.51785199767E+002
+2.64509181970E+007, +3.20071324184E+000, +3.54513278876E+002
+2.66176961603E+007, +3.69418448107E+000, +3.58109291651E+002
+2.67844741235E+007, +4.18295170082E+000, +3.60459176591E+002
+2.69512520868E+007, +4.31208450651E+000, +3.63346576186E+002
+2.71180300501E+007, +4.60679213941E+000, +3.65432126995E+002
+2.72848080134E+007, +4.25848563274E+000, +3.68874774569E+002
+2.74515859766E+007, +4.06597303128E+000, +3.71719509533E+002
+2.76183639399E+007, +4.43762267259E+000, +3.74058329068E+002
+2.77851419032E+007, +4.27067623473E+000, +3.77091823302E+002
+2.79519198664E+007, +5.05883925819E+000, +3.79859035311E+002
+2.81186978297E+007, +5.28591946289E+000, +3.82562499426E+002
+2.82854757930E+007, +5.14658888678E+000, +3.85633552995E+002
+2.84522537563E+007, +3.93709343954E+000, +3.88635691161E+002
+2.86190317195E+007, +4.26523715367E+000, +3.91518341366E+002
+2.87858096828E+007, +5.40510119427E+000, +3.94657942788E+002
+2.89525876461E+007, +5.12468419641E+000, +3.97202920538E+002
+2.91193656093E+007, +5.03524468000E+000, +4.00284714977E+002
+2.92861435726E+007, +4.23674087978E+000, +4.02941566127E+002
+2.94529215359E+007, +5.30350493025E+000, +4.07025323524E+002
+2.96196994992E+007, +5.43803542578E+000, +4.10138157543E+002
+2.97864774624E+007, +5.87257595311E+000, +4.12942147059E+002
+2.99532554257E+007, +5.78368535831E+000, +4.16002387707E+002
+3.01200333890E+007, +5.23530031423E+000, +4.19205223858E+002
+3.02868113523E+007, +5.38636315693E+000, +4.22144664809E+002
+3.04535893155E+007, +5.31158999599E+000, +4.26202456603E+002
+3.06203672788E+007, +6.30670745357E+000, +4.28473907403E+002
+3.07871452421E+007, +5.17549285767E+000, +4.31745938851E+002
+3.09539232053E+007, +6.13786364327E+000, +4.34289690196E+002
+3.11207011686E+007, +5.01253020416E+000, +4.38928120978E+002
+3.12874791319E+007, +5.28727333533E+000, +4.41223445376E+002
+3.14542570952E+007, +5.77966923812E+000, +4.44148222709E+002
+3.16210350584E+007, +5.13951588883E+000, +4.47968799255E+002
+3.17878130217E+007, +5.02384340743E+000, +4.51517067339E+002
+3.19545909850E+007, +6.06055640349E+000, +4.55417588297E+002
+3.21213689482E+007, +4.20659233256E+000, +4.58245953845E+002
+3.22881469115E+007, +5.27263546971E+000, +4.60733949125E+002
+3.24549248748E+007, +5.95931295542E+000, +4.64788590206E+002
+3.26217028381E+007, +4.17120350297E+000, +4.69108144123E+002
+3.27884808013E+007, +5.57371404812E+000, +4.71345216758E+002
+3.29552587646E+007, +5.67923569005E+000, +4.75601676018E+002
+3.31220367279E+007, +5.67265982773E+000, +4.79201231267E+002
+3.32888146912E+007, +5.07985952271E+000, +4.82798727151E+002
+3.34555926544E+007, +4.82616451974E+000, +4.86079795517E+002
+3.36223706177E+007, +6.83911922481E+000, +4.89297065099E+002
+3.37891485810E+007, +5.76023459884E+000, +4.92275223748E+002
+3.39559265442E+007, +5.65943704887E+000, +4.96884678758E+002
+3.41227045075E+007, +5.44305910029E+000, +5.00595618993E+002
+3.42894824708E+007, +5.93260509440E+000, +5.04926755672E+002
+3.44562604341E+007, +6.10155826952E+000, +5.08381485792E+002
+3.46230383973E+007, +6.14017752242E+000, +5.12831709553E+002
+3.47898163606E+007, +6.37893816334E+000, +5.15851787321E+002
+3.49565943239E+007, +6.66283147051E+000, +5.19845982757E+002
+3.51233722871E+007, +6.78634893289E+000, +5.22783920045E+002
+3.52901502504E+007, +7.28140964186E+000, +5.25181704104E+002
+3.54569282137E+007, +6.51838475288E+000, +5.30219120864E+002
+3.56237061770E+007, +5.37836889207E+000, +5.34374296205E+002
+3.57904841402E+007, +5.79742851164E+000, +5.38585882002E+002
+3.59572621035E+007, +6.42334842512E+000, +5.41933424641E+002
+3.61240400668E+007, +6.51833352001E+000, +5.45821696284E+002
+3.62908180301E+007, +7.00853194622E+000, +5.51365738695E+002
+3.64575959933E+007, +6.72423881836E+000, +5.55564918971E+002
+3.66243739566E+007, +6.47317392197E+000, +5.59018393186E+002
+3.67911519199E+007, +7.05167091333E+000, +5.64254006292E+002
+3.69579298831E+007, +7.35547570123E+000, +5.66497970204E+002
+3.71247078464E+007, +7.60484829807E+000, +5.72527747737E+002
+3.72914858097E+007, +5.74434692173E+000, +5.77643642221E+002
+3.74582637730E+007, +7.64766295460E+000, +5.82049983612E+002
+3.76250417362E+007, +6.98436040882E+000, +5.84135697173E+002
+3.77918196995E+007, +7.10492059978E+000, +5.88736147227E+002
+3.79585976628E+007, +7.10589961098E+000, +5.95176353453E+002
+3.81253756260E+007, +7.95954188567E+000, +5.99356682089E+002
+3.82921535893E+007, +7.39440174350E+000, +6.01484850192E+002
+3.84589315526E+007, +8.99627601470E+000, +6.08447111908E+002
+3.86257095159E+007, +7.04762033292E+000, +6.13144090207E+002
+3.87924874791E+007, +6.47053140551E+000, +6.17878549769E+002
+3.89592654424E+007, +9.26959739038E+000, +6.19920197828E+002
+3.91260434057E+007, +8.09800992774E+000, +6.27624120102E+002
+3.92928213689E+007, +8.21813455504E+000, +6.31684953630E+002
+3.94595993322E+007, +8.16165209845E+000, +6.36258021041E+002
+3.96263772955E+007, +6.14199092267E+000, +6.41516395894E+002
+3.97931552588E+007, +6.74431656456E+000, +6.46940103599E+002
+3.99599332220E+007, +7.23508313465E+000, +6.51314781047E+002
+4.01267111853E+007, +6.07959919612E+000, +6.56925896718E+002
+4.02934891486E+007, +7.92469695074E+000, +6.62600621374E+002
+4.04602671119E+007, +7.61860362128E+000, +6.66803927846E+002
+4.06270450751E+007, +8.80770341836E+000, +6.71529374523E+002
+4.07938230384E+007, +9.89934198809E+000, +6.77112199007E+002
+4.09606010017E+007, +9.43721634948E+000, +6.83767492558E+002
+4.11273789649E+007, +8.72828652927E+000, +6.86518916219E+002
+4.12941569282E+007, +8.17334058272E+000, +6.94376828938E+002
+4.14609348915E+007, +7.53651881061E+000, +7.00673459633E+002
+4.16277128548E+007, +1.02529703800E+001, +7.04280689399E+002
+4.17944908180E+007, +9.67351404109E+000, +7.11022967037E+002
+4.19612687813E+007, +8.23094333691E+000, +7.14848852153E+002
+4.21280467446E+007, +8.69562609453E+000, +7.20768824422E+002
+4.22948247078E+007, +9.82247579836E+000, +7.27683005724E+002
+4.24616026711E+007, +1.18638160072E+001, +7.33728406290E+002
+4.26283806344E+007, +1.37574821413E+001, +7.41072801244E+002
+4.27951585977E+007, +7.46122796399E+000, +7.47236124607E+002
+4.29619365609E+007, +1.30698547853E+001, +7.54077086233E+002
+4.31287145242E+007, +1.28728976992E+001, +7.57727764687E+002
+4.32954924875E+007, +1.11763501717E+001, +7.63809047144E+002
+4.34622704508E+007, +1.34205063168E+001, +7.75027677219E+002
+4.36290484140E+007, +1.34852922632E+001, +7.79202687208E+002
+4.37958263773E+007, +1.30893851104E+001, +7.85852161876E+002
+4.39626043406E+007, +1.37299937152E+001, +7.92062640079E+002
+4.41293823038E+007, +1.40006113944E+001, +8.01866061013E+002
+4.42961602671E+007, +1.27163030323E+001, +8.04684567105E+002
+4.44629382304E+007, +1.44270161415E+001, +8.13671175450E+002
+4.46297161937E+007, +1.53074007850E+001, +8.19781952428E+002
+4.47964941569E+007, +1.38948114130E+001, +8.28314779586E+002
+4.49632721202E+007, +1.40571954041E+001, +8.37060232377E+002
+4.51300500835E+007, +1.47103248860E+001, +8.40838224308E+002
+4.52968280467E+007, +1.76048144157E+001, +8.49812716004E+002
+4.54636060100E+007, +1.65142025284E+001, +8.60921223477E+002
+4.56303839733E+007, +1.55663342460E+001, +8.68165807490E+002
+4.57971619366E+007, +1.67993950081E+001, +8.74139117551E+002
+4.59639398998E+007, +1.50434642166E+001, +8.89526498482E+002
+4.61307178631E+007, +1.66094412257E+001, +8.92369051787E+002
+4.62974958264E+007, +2.19995786459E+001, +8.98935023470E+002
+4.64642737896E+007, +1.55981547883E+001, +9.05569625807E+002
+4.66310517529E+007, +1.68001770047E+001, +9.15144628731E+002
+4.67978297162E+007, +2.26051457311E+001, +9.22263043464E+002
+4.69646076795E+007, +1.71628670398E+001, +9.38682851114E+002
+4.71313856427E+007, +1.97548735401E+001, +9.47308981077E+002
+4.72981636060E+007, +2.03031994204E+001, +9.56894528245E+002
+4.74649415693E+007, +1.97523562282E+001, +9.61491775562E+002
+4.76317195326E+007, +2.60912653683E+001, +9.73714670696E+002
+4.77984974958E+007, +2.97755654773E+001, +9.83738390760E+002
+4.79652754591E+007, +2.76646477327E+001, +9.94055210928E+002
+4.81320534224E+007, +2.99579086366E+001, +9.98361259265E+002
+4.82988313856E+007, +2.78876795290E+001, +1.01025995946E+003
+4.84656093489E+007, +3.37764753774E+001, +1.01643305481E+003
+4.86323873122E+007, +3.45888328060E+001, +1.03021934768E+003
+4.87991652755E+007, +3.77360561827E+001, +1.04268547133E+003
+4.89659432387E+007, +3.31429602140E+001, +1.05370170373E+003
+4.91327212020E+007, +3.68984232940E+001, +1.06749123480E+003
+4.92994991653E+007, +4.32303972271E+001, +1.07130822719E+003
+4.94662771285E+007, +4.52903276904E+001, +1.08711214630E+003
+4.96330550918E+007, +4.99115762975E+001, +1.09525620278E+003
+4.97998330551E+007, +4.71861270978E+001, +1.10494398757E+003
+4.99666110184E+007, +5.18227259702E+001, +1.12080286444E+003
+5.01333889816E+007, +5.05117254357E+001, +1.13344483607E+003
+5.03001669449E+007, +4.98469005650E+001, +1.14723529651E+003
+5.04669449082E+007, +5.28074536137E+001, +1.15731936415E+003
+5.06337228715E+007, +5.66645607359E+001, +1.16917343529E+003
+5.08005008347E+007, +5.43994992323E+001, +1.17339064680E+003
+5.09672787980E+007, +6.36240313901E+001, +1.18497372248E+003
+5.11340567613E+007, +6.63533903161E+001, +1.20412498813E+003
+5.13008347245E+007, +5.63778714804E+001, +1.21949267837E+003
+5.14676126878E+007, +6.18854326426E+001, +1.23375909411E+003
+5.16343906511E+007, +7.24917584155E+001, +1.24660639032E+003
+5.18011686144E+007, +6.88431726297E+001, +1.25987491896E+003
+5.19679465776E+007, +6.51827425562E+001, +1.27180546336E+003
+5.21347245409E+007, +7.51246204991E+001, +1.28748077987E+003
+5.23015025042E+007, +7.46604509672E+001, +1.31358631740E+003
+5.24682804674E+007, +7.09481240391E+001, +1.33028341227E+003
+5.26350584307E+007, +7.19357949288E+001, +1.34068986946E+003
+5.28018363940E+007, +7.06335482966E+001, +1.35934677919E+003
+5.29686143573E+007, +7.65330529239E+001, +1.38521131453E+003
+5.31353923205E+007, +8.00590811012E+001, +1.39853887263E+003
+5.33021702838E+007, +8.40802839998E+001, +1.41491115595E+003
+5.34689482471E+007, +9.31066828064E+001, +1.43871674606E+003
