"# Channel 1"
"# Trace 1"
Frequency, Formatted Data, Formatted Data
+1.00000000000E+005, +3.77304263851E+002, -1.00965809736E+001
+2.25031289111E+005, +3.74527921349E+002, +2.74831287316E+000
+3.50062578223E+005, +3.72221171388E+002, +3.60808676298E+000
+4.75093867334E+005, +3.73764550514E+002, +8.38843053658E+000
+6.00125156446E+005, +3.74759785268E+002, +7.66365986675E+000
+7.25156445557E+005, +3.72433981311E+002, +1.02540660790E+001
+8.50187734668E+005, +3.74087535021E+002, +1.32497016146E+001
+9.75219023780E+005, +3.74680712715E+002, +1.49882479063E+001
+1.10025031289E+006, +3.73307265908E+002, +1.47584358978E+001
+1.22528160200E+006, +3.74632942153E+002, +1.72158955122E+001
+1.35031289111E+006, +3.74631091275E+002, +1.87419906418E+001
+1.47534418023E+006, +3.74029452353E+002, +2.00270626254E+001
+1.60037546934E+006, +3.75377277235E+002, +2.13904564494E+001
+1.72540675845E+006, +3.77288665787E+002, +2.31800961438E+001
+1.85043804756E+006, +3.74286095268E+002, +2.54544674796E+001
+1.97546933667E+006, +3.76672441226E+002, +2.65739592942E+001
+2.10050062578E+006, +3.76784036922E+002, +2.85438274421E+001
+2.22553191489E+006, +3.75488674488E+002, +3.06539777128E+001
+2.35056320401E+006, +3.76035097168E+002, +3.32917787384E+001
+2.47559449312E+006, +3.78376648222E+002, +3.45805361668E+001
+2.60062578223E+006, +3.76090021837E+002, +3.74578396092E+001
+2.72565707134E+006, +3.76990069829E+002, +3.71275052797E+001
+2.85068836045E+006, +3.76324814120E+002, +3.98022737435E+001
+2.97571964956E+006, +3.75835235020E+002, +4.02444118424E+001
+3.10075093867E+006, +3.76883041257E+002, +4.18810521234E+001
+3.22578222778E+006, +3.75192269619E+002, +4.34895495350E+001
+3.35081351690E+006, +3.75596931239E+002, +4.57614842474E+001
+3.47584480601E+006, +3.75599606595E+002, +4.68901732104E+001
+3.60087609512E+006, +3.76189900795E+002, +4.78109389685E+001
+3.72590738423E+006, +3.75161938354E+002, +5.20260490599E+001
+3.85093867334E+006, +3.73409727094E+002, +5.17486388145E+001
+3.97596996245E+006, +3.73972154554E+002, +5.43892511331E+001
+4.10100125156E+006, +3.76793946950E+002, +5.82994877751E+001
+4.22603254068E+006, +3.77292888567E+002, +5.60666886546E+001
+4.35106382979E+006, +3.74870179031E+002, +5.69956773945E+001
+4.47609511890E+006, +3.76140197622E+002, +5.93564673912E+001
+4.60112640801E+006, +3.75688387997E+002, +6.01666170309E+001
+4.72615769712E+006, +3.76218446867E+002, +6.35595227582E+001
+4.85118898623E+006, +3.75821932957E+002, +6.39351415006E+001
+4.97622027534E+006, +3.76707107677E+002, +6.68205033960E+001
+5.10125156446E+006, +3.77385207289E+002, +6.68173331186E+001
+5.22628285357E+006, +3.76358465504E+002, +6.97962628178E+001
+5.35131414268E+006, +3.75787217461E+002, +7.15146411449E+001
+5.47634543179E+006, +3.76006936450E+002, +7.25972350151E+001
+5.60137672090E+006, +3.75203922975E+002, +7.48948080533E+001
+5.72640801001E+006, +3.75796662061E+002, +7.61172034361E+001
+5.85143929912E+006, +3.76004255392E+002, +7.76677340462E+001
+5.97647058824E+006, +3.74545221054E+002, +7.93396306200E+001
+6.10150187735E+006, +3.75941927249E+002, +7.99844357948E+001
+6.22653316646E+006, +3.74858863406E+002, +8.18141315364E+001
+6.35156445557E+006, +3.75553601714E+002, +8.44987244108E+001
+6.47659574468E+006, +3.74972533219E+002, +8.61473018063E+001
+6.60162703379E+006, +3.75402543060E+002, +8.79937037812E+001
+6.72665832290E+006, +3.74852852565E+002, +8.87343910451E+001
+6.85168961202E+006, +3.75086632229E+002, +9.08133530837E+001
+6.97672090113E+006, +3.75450689396E+002, +9.30995737326E+001
+7.10175219024E+006, +3.76167466342E+002, +9.39408301479E+001
+7.22678347935E+006, +3.75743893752E+002, +9.55172062656E+001
+7.35181476846E+006, +3.74906774523E+002, +9.74534545079E+001
+7.47684605757E+006, +3.75994211509E+002, +9.93021130235E+001
+7.60187734668E+006, +3.76328370127E+002, +1.01279574823E+002
+7.72690863579E+006, +3.76181759124E+002, +1.03028356246E+002
+7.85193992491E+006, +3.75899584650E+002, +1.03615727614E+002
+7.97697121402E+006, +3.76068230859E+002, +1.05001600233E+002
+8.10200250313E+006, +3.76117226105E+002, +1.06728651954E+002
+8.22703379224E+006, +3.76548643988E+002, +1.08927381276E+002
+8.35206508135E+006, +3.76868823223E+002, +1.10515685827E+002
+8.47709637046E+006, +3.77636859985E+002, +1.12999948648E+002
+8.60212765957E+006, +3.77083590991E+002, +1.14217232278E+002
+8.72715894869E+006, +3.77639671230E+002, +1.16351363403E+002
+8.85219023780E+006, +3.77267329146E+002, +1.18012379782E+002
+8.97722152691E+006, +3.77644177243E+002, +1.19183273144E+002
+9.10225281602E+006, +3.78503185066E+002, +1.21003913849E+002
+9.22728410513E+006, +3.77829755440E+002, +1.22787736818E+002
+9.35231539424E+006, +3.79004243340E+002, +1.23779505614E+002
+9.47734668335E+006, +3.77621132976E+002, +1.27301617914E+002
+9.60237797247E+006, +3.78978479166E+002, +1.28091267674E+002
+9.72740926158E+006, +3.78545494005E+002, +1.29619769716E+002
+9.85244055069E+006, +3.78711184102E+002, +1.31826519555E+002
+9.97747183980E+006, +3.79593673630E+002, +1.32308185423E+002
+1.01025031289E+007, +3.80170427137E+002, +1.35833711189E+002
+1.02275344180E+007, +3.79761649926E+002, +1.35802071837E+002
+1.03525657071E+007, +3.79381645629E+002, +1.37680973679E+002
+1.04775969962E+007, +3.80469616371E+002, +1.39758921597E+002
+1.06026282854E+007, +3.79828779083E+002, +1.41373384450E+002
+1.07276595745E+007, +3.80970896782E+002, +1.43604781547E+002
+1.08526908636E+007, +3.81598551950E+002, +1.45078952402E+002
+1.09777221527E+007, +3.80643908475E+002, +1.45941160332E+002
+1.11027534418E+007, +3.81048978546E+002, +1.48206088086E+002
+1.12277847309E+007, +3.82303492884E+002, +1.50388693286E+002
+1.13528160200E+007, +3.82048634993E+002, +1.51083645215E+002
+1.14778473091E+007, +3.81994407118E+002, +1.53607185387E+002
+1.16028785982E+007, +3.82214178846E+002, +1.55626901057E+002
+1.17279098874E+007, +3.82127307874E+002, +1.56813056432E+002
+1.18529411765E+007, +3.82751776018E+002, +1.58479216585E+002
+1.19779724656E+007, +3.83496709771E+002, +1.60589200140E+002
+1.21030037547E+007, +3.83630276562E+002, +1.61816033149E+002
+1.22280350438E+007, +3.84232168319E+002, +1.63074079117E+002
+1.23530663329E+007, +3.84032975922E+002, +1.65549051658E+002
+1.24780976220E+007, +3.84127002952E+002, +1.66924400800E+002
+1.26031289111E+007, +3.84567728509E+002, +1.69822849595E+002
+1.27281602003E+007, +3.84364539888E+002, +1.70919472860E+002
+1.28531914894E+007, +3.84734219165E+002, +1.72125436941E+002
+1.29782227785E+007, +3.84959299869E+002, +1.73929623821E+002
+1.31032540676E+007, +3.84228194507E+002, +1.75708661397E+002
+1.32282853567E+007, +3.86736789090E+002, +1.77265741846E+002
+1.33533166458E+007, +3.85957116154E+002, +1.79441367696E+002
+1.34783479349E+007, +3.86281183225E+002, +1.81425452296E+002
+1.36033792240E+007, +3.86454057530E+002, +1.82381885072E+002
+1.37284105131E+007, +3.87342747059E+002, +1.85411558897E+002
+1.38534418023E+007, +3.86798991799E+002, +1.86385088022E+002
+1.39784730914E+007, +3.87688898161E+002, +1.87954047198E+002
+1.41035043805E+007, +3.87254119088E+002, +1.89408949095E+002
+1.42285356696E+007, +3.87378238171E+002, +1.90871091081E+002
+1.43535669587E+007, +3.87969529012E+002, +1.93023955333E+002
+1.44785982478E+007, +3.87779790866E+002, +1.95020988429E+002
+1.46036295369E+007, +3.88957524019E+002, +1.94924417395E+002
+1.47286608260E+007, +3.88981813719E+002, +1.97388257083E+002
+1.48536921151E+007, +3.89055234228E+002, +1.99876661616E+002
+1.49787234043E+007, +3.89020511753E+002, +2.01913298269E+002
+1.51037546934E+007, +3.89722514676E+002, +2.04596499189E+002
+1.52287859825E+007, +3.90274705206E+002, +2.07120801745E+002
+1.53538172716E+007, +3.90479502467E+002, +2.07681375527E+002
+1.54788485607E+007, +3.90674137771E+002, +2.09284520480E+002
+1.56038798498E+007, +3.91974991547E+002, +2.10160886911E+002
+1.57289111389E+007, +3.90741197159E+002, +2.12602923820E+002
+1.58539424280E+007, +3.91801970678E+002, +2.15351970239E+002
+1.59789737171E+007, +3.91531329297E+002, +2.16827502697E+002
+1.61040050063E+007, +3.92861650872E+002, +2.18484063680E+002
+1.62290362954E+007, +3.92287717066E+002, +2.20147557318E+002
+1.63540675845E+007, +3.93175718819E+002, +2.22583986518E+002
+1.64790988736E+007, +3.93442758380E+002, +2.23601763123E+002
+1.66041301627E+007, +3.94394600539E+002, +2.25760972778E+002
+1.67291614518E+007, +3.94702454553E+002, +2.27095522108E+002
+1.68541927409E+007, +3.93560383401E+002, +2.28834142024E+002
+1.69792240300E+007, +3.94531877132E+002, +2.31312270478E+002
+1.71042553191E+007, +3.95144895441E+002, +2.35070724433E+002
+1.72292866083E+007, +3.96399598711E+002, +2.35884507547E+002
+1.73543178974E+007, +3.97480817290E+002, +2.36487988433E+002
+1.74793491865E+007, +3.96585993640E+002, +2.39047267186E+002
+1.76043804756E+007, +3.97250807029E+002, +2.39280449910E+002
+1.77294117647E+007, +3.97929253039E+002, +2.42660151244E+002
+1.78544430538E+007, +3.97969399145E+002, +2.44800244711E+002
+1.79794743429E+007, +3.97560547968E+002, +2.46208166020E+002
+1.81045056320E+007, +3.98227446560E+002, +2.47654684044E+002
+1.82295369212E+007, +3.98592024638E+002, +2.50236447245E+002
+1.83545682103E+007, +4.00336573232E+002, +2.52510209004E+002
+1.84795994994E+007, +3.99399477642E+002, +2.53157823583E+002
+1.86046307885E+007, +3.98977035142E+002, +2.54116383512E+002
+1.87296620776E+007, +3.99779691120E+002, +2.57354483266E+002
+1.88546933667E+007, +4.00834227658E+002, +2.58600012326E+002
+1.89797246558E+007, +4.00823973682E+002, +2.60959975244E+002
+1.91047559449E+007, +4.02100426297E+002, +2.61923228111E+002
+1.92297872340E+007, +4.00969978815E+002, +2.64414927082E+002
+1.93548185232E+007, +4.02817895358E+002, +2.66821799322E+002
+1.94798498123E+007, +4.02503286547E+002, +2.68094237822E+002
+1.96048811014E+007, +4.02508454350E+002, +2.70604201160E+002
+1.97299123905E+007, +4.03235827391E+002, +2.71968922556E+002
+1.98549436796E+007, +4.04326522967E+002, +2.74200626123E+002
+1.99799749687E+007, +4.04213958899E+002, +2.76095813509E+002
+2.01050062578E+007, +4.04361638036E+002, +2.78212357758E+002
+2.02300375469E+007, +4.04855445973E+002, +2.79283006312E+002
+2.03550688360E+007, +4.05584209719E+002, +2.82612478570E+002
+2.04801001252E+007, +4.06149884923E+002, +2.82325142543E+002
+2.06051314143E+007, +4.07028226946E+002, +2.86821775110E+002
+2.07301627034E+007, +4.07852225719E+002, +2.87847999830E+002
+2.08551939925E+007, +4.08232042274E+002, +2.88517882451E+002
+2.09802252816E+007, +4.07073523537E+002, +2.90558008074E+002
+2.11052565707E+007, +4.07582732026E+002, +2.92680184351E+002
+2.12302878598E+007, +4.09391488737E+002, +2.94846476952E+002
+2.13553191489E+007, +4.09217721669E+002, +2.96762364619E+002
+2.14803504380E+007, +4.10486968282E+002, +2.97788653901E+002
+2.16053817272E+007, +4.09294009590E+002, +3.00602034943E+002
+2.17304130163E+007, +4.10954842710E+002, +3.01902536963E+002
+2.18554443054E+007, +4.10672725335E+002, +3.04929322529E+002
+2.19804755945E+007, +4.12547386853E+002, +3.09379575636E+002
+2.21055068836E+007, +4.12161652224E+002, +3.08704635983E+002
+2.22305381727E+007, +4.12854220511E+002, +3.10351654022E+002
+2.23555694618E+007, +4.13336827181E+002, +3.13207770830E+002
+2.24806007509E+007, +4.10425794113E+002, +3.14774006532E+002
+2.26056320401E+007, +4.13214814556E+002, +3.16234721735E+002
+2.27306633292E+007, +4.13709583602E+002, +3.18893912308E+002
+2.28556946183E+007, +4.13859525922E+002, +3.22380839987E+002
+2.29807259074E+007, +4.16586080253E+002, +3.23722249293E+002
+2.31057571965E+007, +4.16126176127E+002, +3.25161623442E+002
+2.32307884856E+007, +4.16565855447E+002, +3.25604027405E+002
+2.33558197747E+007, +4.15686768994E+002, +3.27760139300E+002
+2.34808510638E+007, +4.17764688638E+002, +3.30329385501E+002
+2.36058823529E+007, +4.17856957167E+002, +3.32385172243E+002
+2.37309136421E+007, +4.19744518944E+002, +3.35968458973E+002
+2.38559449312E+007, +4.20618735449E+002, +3.37206541585E+002
+2.39809762203E+007, +4.21047138528E+002, +3.37606393022E+002
+2.41060075094E+007, +4.20409879484E+002, +3.41412427026E+002
+2.42310387985E+007, +4.20463059229E+002, +3.42777697290E+002
+2.43560700876E+007, +4.23540525562E+002, +3.45432758522E+002
+2.44811013767E+007, +4.21648706252E+002, +3.47161491062E+002
+2.46061326658E+007, +4.23978602217E+002, +3.49113726220E+002
+2.47311639549E+007, +4.24522325836E+002, +3.51247163099E+002
+2.48561952441E+007, +4.24067212977E+002, +3.52965066691E+002
+2.49812265332E+007, +4.25151986391E+002, +3.56504829662E+002
+2.51062578223E+007, +4.26301697596E+002, +3.58267308208E+002
+2.52312891114E+007, +4.26901827999E+002, +3.58783296457E+002
+2.53563204005E+007, +4.26631356023E+002, +3.61505633039E+002
+2.54813516896E+007, +4.28300869362E+002, +3.63859569388E+002
+2.56063829787E+007, +4.29936601015E+002, +3.67278051709E+002
+2.57314142678E+007, +4.30222454893E+002, +3.69802816511E+002
+2.58564455569E+007, +4.28044772635E+002, +3.70158055506E+002
+2.59814768461E+007, +4.28925830014E+002, +3.72591238287E+002
+2.61065081352E+007, +4.31056742225E+002, +3.74621962762E+002
+2.62315394243E+007, +4.32651328557E+002, +3.76946231631E+002
+2.63565707134E+007, +4.31455754647E+002, +3.80441303078E+002
+2.64816020025E+007, +4.32408579723E+002, +3.82357890945E+002
+2.66066332916E+007, +4.31845877933E+002, +3.82698634520E+002
+2.67316645807E+007, +4.33847417818E+002, +3.82714307973E+002
+2.68566958698E+007, +4.34917142792E+002, +3.88575927307E+002
+2.69817271589E+007, +4.35053817454E+002, +3.90964565440E+002
+2.71067584481E+007, +4.37487897172E+002, +3.91167735518E+002
+2.72317897372E+007, +4.37275229196E+002, +3.94774473493E+002
+2.73568210263E+007, +4.36459300039E+002, +3.97770461145E+002
+2.74818523154E+007, +4.39297636483E+002, +3.99644580135E+002
+2.76068836045E+007, +4.38114332904E+002, +4.01337167351E+002
+2.77319148936E+007, +4.40477552893E+002, +4.04302018589E+002
+2.78569461827E+007, +4.40072762019E+002, +4.06195379770E+002
+2.79819774718E+007, +4.39052626730E+002, +4.07660963821E+002
+2.81070087610E+007, +4.42521429465E+002, +4.09572078396E+002
+2.82320400501E+007, +4.42937029241E+002, +4.13074662762E+002
+2.83570713392E+007, +4.41866993936E+002, +4.14890801963E+002
+2.84821026283E+007, +4.44098625961E+002, +4.16120741702E+002
+2.86071339174E+007, +4.43944574941E+002, +4.19604861209E+002
+2.87321652065E+007, +4.45242573265E+002, +4.19479171632E+002
+2.88571964956E+007, +4.46549582801E+002, +4.25014438330E+002
+2.89822277847E+007, +4.47484575976E+002, +4.25782526965E+002
+2.91072590738E+007, +4.50194597534E+002, +4.29050045369E+002
+2.92322903630E+007, +4.48907782814E+002, +4.32833635899E+002
+2.93573216521E+007, +4.51790384995E+002, +4.35162298232E+002
+2.94823529412E+007, +4.49441201454E+002, +4.36395729314E+002
+2.96073842303E+007, +4.50298296513E+002, +4.39037051200E+002
+2.97324155194E+007, +4.51362411357E+002, +4.40435129215E+002
+2.98574468085E+007, +4.52513650417E+002, +4.43532943149E+002
+2.99824780976E+007, +4.52955106382E+002, +4.47151042529E+002
+3.01075093867E+007, +4.56566019320E+002, +4.47884731820E+002
+3.02325406758E+007, +4.55783999081E+002, +4.48560592083E+002
+3.03575719650E+007, +4.57585324640E+002, +4.53247325865E+002
+3.04826032541E+007, +4.57255962433E+002, +4.55326939656E+002
+3.06076345432E+007, +4.58460242162E+002, +4.58872216734E+002
+3.07326658323E+007, +4.60653155768E+002, +4.61823060748E+002
+3.08576971214E+007, +4.61844545029E+002, +4.61788518459E+002
+3.09827284105E+007, +4.60500495941E+002, +4.64579970199E+002
+3.11077596996E+007, +4.64566262977E+002, +4.69090563273E+002
+3.12327909887E+007, +4.62647669233E+002, +4.71483629157E+002
+3.13578222778E+007, +4.64585676335E+002, +4.72041033068E+002
+3.14828535670E+007, +4.64746114461E+002, +4.72805218577E+002
+3.16078848561E+007, +4.65158059953E+002, +4.78655146981E+002
+3.17329161452E+007, +4.66307247815E+002, +4.80604252490E+002
+3.18579474343E+007, +4.67359123599E+002, +4.80286626937E+002
+3.19829787234E+007, +4.68342002525E+002, +4.85797611382E+002
+3.21080100125E+007, +4.70188570879E+002, +4.86028496592E+002
+3.22330413016E+007, +4.72000990252E+002, +4.92974758361E+002
+3.23580725907E+007, +4.73516900194E+002, +4.91653089940E+002
+3.24831038798E+007, +4.74242414953E+002, +4.97400849784E+002
+3.26081351690E+007, +4.75389068363E+002, +4.97787898385E+002
+3.27331664581E+007, +4.74197465460E+002, +5.01759395901E+002
+3.28581977472E+007, +4.75497744371E+002, +5.03094234848E+002
+3.29832290363E+007, +4.81641883686E+002, +5.07877642423E+002
+3.31082603254E+007, +4.76726343585E+002, +5.10038897306E+002
+3.32332916145E+007, +4.79288077275E+002, +5.11344957441E+002
+3.33583229036E+007, +4.78974260752E+002, +5.13800562453E+002
+3.34833541927E+007, +4.81314627281E+002, +5.16536202475E+002
+3.36083854819E+007, +4.82168781723E+002, +5.16436209864E+002
+3.37334167710E+007, +4.83684452004E+002, +5.22705594391E+002
+3.38584480601E+007, +4.85149062897E+002, +5.25376490026E+002
+3.39834793492E+007, +4.84579806119E+002, +5.26459291000E+002
+3.41085106383E+007, +4.86297804295E+002, +5.30204739731E+002
+3.42335419274E+007, +4.89821498351E+002, +5.33655457096E+002
+3.43585732165E+007, +4.89239058320E+002, +5.33868544020E+002
+3.44836045056E+007, +4.88778397291E+002, +5.38937646210E+002
+3.46086357947E+007, +4.93076006262E+002, +5.41837558865E+002
+3.47336670839E+007, +4.94726491024E+002, +5.44475486908E+002
+3.48586983730E+007, +4.91782174496E+002, +5.47662174242E+002
+3.49837296621E+007, +4.96364718311E+002, +5.49546227092E+002
+3.51087609512E+007, +4.96959435978E+002, +5.55650050656E+002
+3.52337922403E+007, +4.99378966016E+002, +5.54002287063E+002
+3.53588235294E+007, +4.98915106472E+002, +5.57541791835E+002
+3.54838548185E+007, +5.01967237863E+002, +5.58188601189E+002
+3.56088861076E+007, +5.02345250803E+002, +5.62506852354E+002
+3.57339173967E+007, +5.03718859444E+002, +5.64996533624E+002
+3.58589486859E+007, +5.05349674148E+002, +5.69744006549E+002
+3.59839799750E+007, +5.05995685944E+002, +5.75956825746E+002
+3.61090112641E+007, +5.07827865007E+002, +5.73919828798E+002
+3.62340425532E+007, +5.07270599515E+002, +5.75618895683E+002
+3.63590738423E+007, +5.09027436322E+002, +5.82373862804E+002
+3.64841051314E+007, +5.10746481913E+002, +5.83389458588E+002
+3.66091364205E+007, +5.13310741576E+002, +5.88431538381E+002
+3.67341677096E+007, +5.16443830777E+002, +5.89365782815E+002
+3.68591989987E+007, +5.19330516573E+002, +5.92987587182E+002
+3.69842302879E+007, +5.17551743949E+002, +5.97395371624E+002
+3.71092615770E+007, +5.22652025813E+002, +5.99150855194E+002
+3.72342928661E+007, +5.22106991355E+002, +6.02578137307E+002
+3.73593241552E+007, +5.22388601985E+002, +6.05191364738E+002
+3.74843554443E+007, +5.23130468075E+002, +6.08711423075E+002
+3.76093867334E+007, +5.24837868363E+002, +6.11317392737E+002
+3.77344180225E+007, +5.28767579548E+002, +6.13866111465E+002
+3.78594493116E+007, +5.27991549516E+002, +6.15116986309E+002
+3.79844806008E+007, +5.28695560064E+002, +6.22688599024E+002
+3.81095118899E+007, +5.33434449943E+002, +6.20963170285E+002
+3.82345431790E+007, +5.33224100866E+002, +6.22238252977E+002
+3.83595744681E+007, +5.30839407217E+002, +6.28210160670E+002
+3.84846057572E+007, +5.34082616805E+002, +6.32223426372E+002
+3.86096370463E+007, +5.35885469680E+002, +6.37641768833E+002
+3.87346683354E+007, +5.40662051917E+002, +6.34563017278E+002
+3.88596996245E+007, +5.43831529363E+002, +6.40797940351E+002
+3.89847309136E+007, +5.47986939320E+002, +6.41733261797E+002
+3.91097622028E+007, +5.43294995721E+002, +6.46316365011E+002
+3.92347934919E+007, +5.45924829824E+002, +6.49570038248E+002
+3.93598247810E+007, +5.49888926291E+002, +6.52622121311E+002
+3.94848560701E+007, +5.50721528594E+002, +6.57880720160E+002
+3.96098873592E+007, +5.54792824298E+002, +6.58136660488E+002
+3.97349186483E+007, +5.51985271529E+002, +6.63468640726E+002
+3.98599499374E+007, +5.55901155946E+002, +6.66092172097E+002
+3.99849812265E+007, +5.57418001568E+002, +6.69035490768E+002
+4.01100125156E+007, +5.58143372507E+002, +6.74733259334E+002
