"# Channel 1"
"# Trace 1"
Frequency, Formatted Data, Formatted Data
+1.00000000000E+006, +2.69384098143E+001, +1.41355383666E+001
+1.16527545910E+006, +2.69755946542E+001, +1.64414115911E+001
+1.33055091820E+006, +2.69533437685E+001, +1.87296211746E+001
+1.49582637730E+006, +2.69353216759E+001, +2.11072853365E+001
+1.66110183639E+006, +2.69938603958E+001, +2.33777375420E+001
+1.82637729549E+006, +2.69551724641E+001, +2.57000093858E+001
+1.99165275459E+006, +2.69765103710E+001, +2.79822428900E+001
+2.15692821369E+006, +2.69554742290E+001, +3.03031300030E+001
+2.32220367279E+006, +2.69220938935E+001, +3.26897566451E+001
+2.48747913189E+006, +2.69347278717E+001, +3.49890934155E+001
+2.65275459098E+006, +2.69244916963E+001, +3.73544614243E+001
+2.81803005008E+006, +2.69148016531E+001, +3.97316660683E+001
+2.98330550918E+006, +2.68746233472E+001, +4.19292751603E+001
+3.14858096828E+006, +2.69029690529E+001, +4.42344178517E+001
+3.31385642738E+006, +2.70018853448E+001, +4.65405926619E+001
+3.47913188648E+006, +2.69254097557E+001, +4.89671763916E+001
+3.64440734558E+006, +2.69139205179E+001, +5.11834712787E+001
+3.80968280467E+006, +2.69913250576E+001, +5.34696884438E+001
+3.97495826377E+006, +2.70150531836E+001, +5.58173217577E+001
+4.14023372287E+006, +2.70331815914E+001, +5.82665317846E+001
+4.30550918197E+006, +2.69850884809E+001, +6.03568471371E+001
+4.47078464107E+006, +2.69506243233E+001, +6.27506200106E+001
+4.63606010017E+006, +2.69180176313E+001, +6.51241789374E+001
+4.80133555927E+006, +2.68784572234E+001, +6.74873018790E+001
+4.96661101836E+006, +2.70330919097E+001, +6.97681998507E+001
+5.13188647746E+006, +2.69375515238E+001, +7.21246144681E+001
+5.29716193656E+006, +2.69669945385E+001, +7.43976303264E+001
+5.46243739566E+006, +2.70136924909E+001, +7.67643435825E+001
+5.62771285476E+006, +2.70218946387E+001, +7.91278293183E+001
+5.79298831386E+006, +2.70806815140E+001, +8.14132198867E+001
+5.95826377295E+006, +2.70767329173E+001, +8.37546341913E+001
+6.12353923205E+006, +2.73310217991E+001, +8.59628569802E+001
+6.28881469115E+006, +2.71686260588E+001, +8.83713911717E+001
+6.45409015025E+006, +2.72343911454E+001, +9.06083429292E+001
+6.61936560935E+006, +2.71449743075E+001, +9.29933544447E+001
+6.78464106845E+006, +2.72661510160E+001, +9.53610235727E+001
+6.94991652755E+006, +2.72439124102E+001, +9.76597891376E+001
+7.11519198664E+006, +2.73140248959E+001, +9.99459340670E+001
+7.28046744574E+006, +2.72841396330E+001, +1.02331367313E+002
+7.44574290484E+006, +2.73050674642E+001, +1.04612795068E+002
+7.61101836394E+006, +2.72854733016E+001, +1.06949091078E+002
+7.77629382304E+006, +2.73796776041E+001, +1.09283270869E+002
+7.94156928214E+006, +2.72640922002E+001, +1.11570890659E+002
+8.10684474124E+006, +2.72721347526E+001, +1.13838593315E+002
+8.27212020033E+006, +2.73932921996E+001, +1.16238658883E+002
+8.43739565943E+006, +2.73701995953E+001, +1.18684221331E+002
+8.60267111853E+006, +2.71958135146E+001, +1.20975070777E+002
+8.76794657763E+006, +2.73396345882E+001, +1.23225371057E+002
+8.93322203673E+006, +2.73373910237E+001, +1.25747205618E+002
+9.09849749583E+006, +2.74354480787E+001, +1.27884583011E+002
+9.26377295492E+006, +2.73935976901E+001, +1.30464862499E+002
+9.42904841402E+006, +2.74369893961E+001, +1.32629159400E+002
+9.59432387312E+006, +2.74012739161E+001, +1.34925531002E+002
+9.75959933222E+006, +2.73376638285E+001, +1.37389912458E+002
+9.92487479132E+006, +2.73533002954E+001, +1.39643562998E+002
+1.00901502504E+007, +2.73357955307E+001, +1.42026843372E+002
+1.02554257095E+007, +2.72641834135E+001, +1.44359699420E+002
+1.04207011686E+007, +2.73872126126E+001, +1.46601387103E+002
+1.05859766277E+007, +2.72984108554E+001, +1.49188905395E+002
+1.07512520868E+007, +2.74329864717E+001, +1.51419289667E+002
+1.09165275459E+007, +2.72853977089E+001, +1.53950642707E+002
+1.10818030050E+007, +2.73754031069E+001, +1.56272543268E+002
+1.12470784641E+007, +2.73777140315E+001, +1.58389759629E+002
+1.14123539232E+007, +2.72840814580E+001, +1.60688918273E+002
+1.15776293823E+007, +2.75303788354E+001, +1.63311101511E+002
+1.17429048414E+007, +2.75902330141E+001, +1.65763915515E+002
+1.19081803005E+007, +2.74647160044E+001, +1.68219824061E+002
+1.20734557596E+007, +2.74284338922E+001, +1.70656123443E+002
+1.22387312187E+007, +2.73600026496E+001, +1.72834244270E+002
+1.24040066778E+007, +2.75384071539E+001, +1.75105863308E+002
+1.25692821369E+007, +2.73339470808E+001, +1.77422096994E+002
+1.27345575960E+007, +2.75666154923E+001, +1.79832136781E+002
+1.28998330551E+007, +2.75665126166E+001, +1.82261841909E+002
+1.30651085142E+007, +2.72544644392E+001, +1.84628713868E+002
+1.32303839733E+007, +2.78136965960E+001, +1.87078882290E+002
+1.33956594324E+007, +2.74480482725E+001, +1.89557897782E+002
+1.35609348915E+007, +2.76918105579E+001, +1.91773419612E+002
+1.37262103506E+007, +2.73559525467E+001, +1.93969427846E+002
+1.38914858097E+007, +2.77821800185E+001, +1.96279328051E+002
+1.40567612688E+007, +2.76897716275E+001, +1.98770149458E+002
+1.42220367279E+007, +2.76064634706E+001, +2.01375920712E+002
+1.43873121870E+007, +2.74615674782E+001, +2.04043667623E+002
+1.45525876461E+007, +2.75710870833E+001, +2.05931756906E+002
+1.47178631052E+007, +2.77435071948E+001, +2.08598831505E+002
+1.48831385643E+007, +2.77715209543E+001, +2.10477611239E+002
+1.50484140234E+007, +2.77547385016E+001, +2.13412682524E+002
+1.52136894825E+007, +2.77154738243E+001, +2.15726199843E+002
+1.53789649416E+007, +2.79375565253E+001, +2.18118905107E+002
+1.55442404007E+007, +2.76525201958E+001, +2.20411024290E+002
+1.57095158598E+007, +2.78000448886E+001, +2.22888179117E+002
+1.58747913189E+007, +2.80476344141E+001, +2.25265905518E+002
+1.60400667780E+007, +2.79601737121E+001, +2.27564938244E+002
+1.62053422371E+007, +2.77967038208E+001, +2.30062344232E+002
+1.63706176962E+007, +2.80587166185E+001, +2.32560048153E+002
+1.65358931553E+007, +2.81011398464E+001, +2.34736164291E+002
+1.67011686144E+007, +2.81158182167E+001, +2.37232525843E+002
+1.68664440735E+007, +2.78784601919E+001, +2.39481796477E+002
+1.70317195326E+007, +2.74041900828E+001, +2.42375760357E+002
+1.71969949917E+007, +2.75954367471E+001, +2.44814266007E+002
+1.73622704508E+007, +2.78045238892E+001, +2.47240694434E+002
+1.75275459098E+007, +2.75513192853E+001, +2.49427373847E+002
+1.76928213689E+007, +2.77543674479E+001, +2.52319924172E+002
+1.78580968280E+007, +2.79803751199E+001, +2.54330260405E+002
+1.80233722871E+007, +2.80129362064E+001, +2.56786042350E+002
+1.81886477462E+007, +2.82148370268E+001, +2.59616017052E+002
+1.83539232053E+007, +2.85080345706E+001, +2.61795834603E+002
+1.85191986644E+007, +2.83910442090E+001, +2.64390729389E+002
+1.86844741235E+007, +2.83286317279E+001, +2.66237327063E+002
+1.88497495826E+007, +2.84132947485E+001, +2.68765076444E+002
+1.90150250417E+007, +2.80597731576E+001, +2.71641232671E+002
+1.91803005008E+007, +2.83543717323E+001, +2.73636483507E+002
+1.93455759599E+007, +2.85867433313E+001, +2.75917822583E+002
+1.95108514190E+007, +2.88555452387E+001, +2.79053418572E+002
+1.96761268781E+007, +2.85088677952E+001, +2.81417079909E+002
+1.98414023372E+007, +2.88454064544E+001, +2.84189377371E+002
+2.00066777963E+007, +2.84329231828E+001, +2.86214136176E+002
+2.01719532554E+007, +2.87695182148E+001, +2.88477977521E+002
+2.03372287145E+007, +2.87078667752E+001, +2.91089921705E+002
+2.05025041736E+007, +2.88769207624E+001, +2.94129421017E+002
+2.06677796327E+007, +2.88979612124E+001, +2.96358170030E+002
+2.08330550918E+007, +2.87272742236E+001, +2.98467994190E+002
+2.09983305509E+007, +2.92476214675E+001, +3.01448713972E+002
+2.11636060100E+007, +2.87772162825E+001, +3.03346334189E+002
+2.13288814691E+007, +2.91042412133E+001, +3.06189031563E+002
+2.14941569282E+007, +2.89753583583E+001, +3.08327859091E+002
+2.16594323873E+007, +2.92003665496E+001, +3.10871519122E+002
+2.18247078464E+007, +2.96178215120E+001, +3.13802773135E+002
+2.19899833055E+007, +2.92672795794E+001, +3.16394852093E+002
+2.21552587646E+007, +2.90236907112E+001, +3.17908236621E+002
+2.23205342237E+007, +2.95303952262E+001, +3.21238736673E+002
+2.24858096828E+007, +2.94771450161E+001, +3.23495999528E+002
+2.26510851419E+007, +2.99948630948E+001, +3.25901463089E+002
+2.28163606010E+007, +2.98456102658E+001, +3.28555379854E+002
+2.29816360601E+007, +2.96517066590E+001, +3.30632633722E+002
+2.31469115192E+007, +3.03980913396E+001, +3.33823910034E+002
+2.33121869783E+007, +3.00762240051E+001, +3.36706758260E+002
+2.34774624374E+007, +3.07188605969E+001, +3.39036936619E+002
+2.36427378965E+007, +3.04362515302E+001, +3.41670786491E+002
+2.38080133556E+007, +3.06016444661E+001, +3.43788464156E+002
+2.39732888147E+007, +3.08968518880E+001, +3.46703526490E+002
+2.41385642738E+007, +3.09675957852E+001, +3.49176780475E+002
+2.43038397329E+007, +3.06768105785E+001, +3.51521286999E+002
+2.44691151920E+007, +3.05722278174E+001, +3.54370202855E+002
+2.46343906511E+007, +3.10421714199E+001, +3.57297266658E+002
+2.47996661102E+007, +3.07712832305E+001, +3.58920575787E+002
+2.49649415693E+007, +3.08585033054E+001, +3.61739687538E+002
+2.51302170284E+007, +3.13544307763E+001, +3.63762280335E+002
+2.52954924875E+007, +3.14561139575E+001, +3.66662595141E+002
+2.54607679466E+007, +3.16173659418E+001, +3.69600289732E+002
+2.56260434057E+007, +3.20247516849E+001, +3.71766340643E+002
+2.57913188648E+007, +3.12464520160E+001, +3.74234622069E+002
+2.59565943239E+007, +3.18075888655E+001, +3.77198061751E+002
+2.61218697830E+007, +3.16704651399E+001, +3.79827910676E+002
+2.62871452421E+007, +3.20217933406E+001, +3.81607494176E+002
+2.64524207012E+007, +3.21109487113E+001, +3.84293189837E+002
+2.66176961603E+007, +3.25643797078E+001, +3.87367255540E+002
+2.67829716194E+007, +3.18075935417E+001, +3.89785077585E+002
+2.69482470785E+007, +3.23810756245E+001, +3.92809816187E+002
+2.71135225376E+007, +3.30946383709E+001, +3.95724356595E+002
+2.72787979967E+007, +3.34346132751E+001, +3.98613814803E+002
+2.74440734558E+007, +3.24621967134E+001, +4.00859399189E+002
+2.76093489149E+007, +3.34373534390E+001, +4.02654594027E+002
+2.77746243740E+007, +3.29469228644E+001, +4.04846312414E+002
+2.79398998331E+007, +3.29920469267E+001, +4.08004039041E+002
+2.81051752922E+007, +3.42086541784E+001, +4.10463936147E+002
+2.82704507513E+007, +3.36407652822E+001, +4.13119920127E+002
+2.84357262104E+007, +3.36310904939E+001, +4.16068563639E+002
+2.86010016694E+007, +3.32020110997E+001, +4.18729496180E+002
+2.87662771285E+007, +3.35654132127E+001, +4.21011930221E+002
+2.89315525876E+007, +3.38312187029E+001, +4.24027138528E+002
+2.90968280467E+007, +3.39130865021E+001, +4.26047920110E+002
+2.92621035058E+007, +3.36933430535E+001, +4.28504183967E+002
+2.94273789649E+007, +3.43517091602E+001, +4.30843313127E+002
+2.95926544240E+007, +3.35925806843E+001, +4.34926200059E+002
+2.97579298831E+007, +3.42576665890E+001, +4.36181981498E+002
+2.99232053422E+007, +3.44232985511E+001, +4.39578229216E+002
+3.00884808013E+007, +3.51314183524E+001, +4.41844564773E+002
+3.02537562604E+007, +3.43487182559E+001, +4.44070811031E+002
+3.04190317195E+007, +3.43025412044E+001, +4.47766182694E+002
+3.05843071786E+007, +3.41856145140E+001, +4.49995146878E+002
+3.07495826377E+007, +3.33405470909E+001, +4.52898408046E+002
+3.09148580968E+007, +3.41860843920E+001, +4.54825894320E+002
+3.10801335559E+007, +3.49038607314E+001, +4.59083923218E+002
+3.12454090150E+007, +3.43072322304E+001, +4.61466318959E+002
+3.14106844741E+007, +3.51475823598E+001, +4.62893682511E+002
+3.15759599332E+007, +3.51114156982E+001, +4.67177010979E+002
+3.17412353923E+007, +3.44884327057E+001, +4.69098735593E+002
+3.19065108514E+007, +3.62705544996E+001, +4.72935884882E+002
+3.20717863105E+007, +3.40829943453E+001, +4.74969483994E+002
+3.22370617696E+007, +3.48752551636E+001, +4.77483124658E+002
+3.24023372287E+007, +3.38117772611E+001, +4.79872538539E+002
+3.25676126878E+007, +3.62384732024E+001, +4.83555672438E+002
+3.27328881469E+007, +3.63112587544E+001, +4.84862633841E+002
+3.28981636060E+007, +3.39910273425E+001, +4.87946074597E+002
+3.30634390651E+007, +3.56949686635E+001, +4.91450341752E+002
+3.32287145242E+007, +3.41549505667E+001, +4.95916409718E+002
+3.33939899833E+007, +3.54461087955E+001, +4.97139812141E+002
+3.35592654424E+007, +3.58638059308E+001, +5.00889877081E+002
+3.37245409015E+007, +3.54806985904E+001, +5.02627957503E+002
+3.38898163606E+007, +3.53735036108E+001, +5.06652580428E+002
+3.40550918197E+007, +3.57933197439E+001, +5.09712270484E+002
+3.42203672788E+007, +3.55579286988E+001, +5.11529895431E+002
+3.43856427379E+007, +3.70836588531E+001, +5.13740199378E+002
+3.45509181970E+007, +3.54475540551E+001, +5.16738805796E+002
+3.47161936561E+007, +3.57948386906E+001, +5.19971768525E+002
+3.48814691152E+007, +3.62630278219E+001, +5.21438953402E+002
+3.50467445743E+007, +3.63560363736E+001, +5.25803976029E+002
+3.52120200334E+007, +3.70946578435E+001, +5.28369690334E+002
+3.53772954925E+007, +3.71405448043E+001, +5.32334253998E+002
+3.55425709516E+007, +3.71718980803E+001, +5.35274617114E+002
+3.57078464107E+007, +3.73179235113E+001, +5.37283464843E+002
+3.58731218698E+007, +3.79223894271E+001, +5.39812983659E+002
+3.60383973289E+007, +3.73323162993E+001, +5.43922462515E+002
+3.62036727880E+007, +3.63176549008E+001, +5.46338536059E+002
+3.63689482471E+007, +3.96675688037E+001, +5.49026931525E+002
+3.65342237062E+007, +3.74793359954E+001, +5.52314249101E+002
+3.66994991653E+007, +3.59698902131E+001, +5.57384529789E+002
+3.68647746244E+007, +3.90770634087E+001, +5.57760060326E+002
+3.70300500835E+007, +3.66985996291E+001, +5.61059586659E+002
+3.71953255426E+007, +3.86601505582E+001, +5.64771434608E+002
+3.73606010017E+007, +3.87952905879E+001, +5.68577450649E+002
+3.75258764608E+007, +3.84292313124E+001, +5.72025587827E+002
+3.76911519199E+007, +3.70053389679E+001, +5.74528256622E+002
+3.78564273790E+007, +3.73781243890E+001, +5.78245247815E+002
+3.80217028381E+007, +3.81429078682E+001, +5.79638549074E+002
+3.81869782972E+007, +3.70481044545E+001, +5.83700203069E+002
+3.83522537563E+007, +3.75010138800E+001, +5.87563335566E+002
+3.85175292154E+007, +3.77406150433E+001, +5.89850372996E+002
+3.86828046745E+007, +3.85761506590E+001, +5.93623188112E+002
+3.88480801336E+007, +3.95064969989E+001, +5.97662293656E+002
+3.90133555927E+007, +4.00697145201E+001, +5.98954863331E+002
+3.91786310518E+007, +3.73076251751E+001, +6.05599742628E+002
+3.93439065109E+007, +3.80737608107E+001, +6.08696400872E+002
+3.95091819699E+007, +4.03653245695E+001, +6.10679806815E+002
+3.96744574290E+007, +4.05728154968E+001, +6.13288886293E+002
+3.98397328881E+007, +3.80933764266E+001, +6.17013536493E+002
+4.00050083472E+007, +3.96457917184E+001, +6.20677829252E+002
+4.01702838063E+007, +3.75817438829E+001, +6.23736622310E+002
+4.03355592654E+007, +4.06326574963E+001, +6.25793834829E+002
+4.05008347245E+007, +3.95956794916E+001, +6.31283863248E+002
+4.06661101836E+007, +3.96503107913E+001, +6.33792653437E+002
+4.08313856427E+007, +3.97133998757E+001, +6.39655340338E+002
+4.09966611018E+007, +4.03390391254E+001, +6.38794225042E+002
+4.11619365609E+007, +4.21897729206E+001, +6.44723308063E+002
+4.13272120200E+007, +4.23616919545E+001, +6.46913685262E+002
+4.14924874791E+007, +4.16629288616E+001, +6.49451289265E+002
+4.16577629382E+007, +4.09176580294E+001, +6.55479913922E+002
+4.18230383973E+007, +4.09345116477E+001, +6.58003477442E+002
+4.19883138564E+007, +4.00232163938E+001, +6.61812233329E+002
+4.21535893155E+007, +4.15337620673E+001, +6.64308635297E+002
+4.23188647746E+007, +4.27202328015E+001, +6.69214120114E+002
+4.24841402337E+007, +4.17607335718E+001, +6.74963773682E+002
+4.26494156928E+007, +4.00622382760E+001, +6.77157671821E+002
+4.28146911519E+007, +4.38787901482E+001, +6.80456667594E+002
+4.29799666110E+007, +4.38097705038E+001, +6.84745587018E+002
+4.31452420701E+007, +4.27361687045E+001, +6.89117066922E+002
+4.33105175292E+007, +4.35245257663E+001, +6.92856948855E+002
+4.34757929883E+007, +4.21175972430E+001, +6.95339087370E+002
+4.36410684474E+007, +4.14710886103E+001, +6.99717985953E+002
+4.38063439065E+007, +4.27523128754E+001, +7.03616377151E+002
+4.39716193656E+007, +4.58169435989E+001, +7.06332313170E+002
+4.41368948247E+007, +4.23874888320E+001, +7.11842743784E+002
+4.43021702838E+007, +4.45895316581E+001, +7.14379349510E+002
+4.44674457429E+007, +4.35181780199E+001, +7.19573806724E+002
+4.46327212020E+007, +4.58536311705E+001, +7.22006369342E+002
+4.47979966611E+007, +4.45227756506E+001, +7.27997022803E+002
+4.49632721202E+007, +4.66142364079E+001, +7.32596206983E+002
+4.51285475793E+007, +4.55796517866E+001, +7.36108313041E+002
+4.52938230384E+007, +4.79473105044E+001, +7.42068257892E+002
+4.54590984975E+007, +4.41075400560E+001, +7.43062996538E+002
+4.56243739566E+007, +4.86693684356E+001, +7.49005765345E+002
+4.57896494157E+007, +4.74443604246E+001, +7.50494119362E+002
+4.59549248748E+007, +4.73456901529E+001, +7.59284842032E+002
+4.61202003339E+007, +4.37719865274E+001, +7.62877768350E+002
+4.62854757930E+007, +4.75172617774E+001, +7.67339682154E+002
+4.64507512521E+007, +5.03710963196E+001, +7.70320039085E+002
+4.66160267112E+007, +4.92980165187E+001, +7.76870233039E+002
+4.67813021703E+007, +5.19115089037E+001, +7.79667127820E+002
+4.69465776294E+007, +5.01975028088E+001, +7.82919565354E+002
+4.71118530885E+007, +5.29246465525E+001, +7.89522009167E+002
+4.72771285476E+007, +5.30464950283E+001, +7.93381200064E+002
+4.74424040067E+007, +5.51994182734E+001, +7.96726797822E+002
+4.76076794658E+007, +5.39101215250E+001, +8.00698816025E+002
+4.77729549249E+007, +5.40780396420E+001, +8.06490636152E+002
+4.79382303840E+007, +5.78908168513E+001, +8.09421979332E+002
+4.81035058431E+007, +5.64323788065E+001, +8.16792695912E+002
+4.82687813022E+007, +5.91502589838E+001, +8.17182817868E+002
+4.84340567613E+007, +5.83471436681E+001, +8.24968860114E+002
+4.85993322204E+007, +5.94812696134E+001, +8.30034951220E+002
+4.87646076795E+007, +6.20913533888E+001, +8.33733727428E+002
+4.89298831386E+007, +5.99621476357E+001, +8.37899355156E+002
+4.90951585977E+007, +6.22026680621E+001, +8.43761992241E+002
+4.92604340568E+007, +6.25023803835E+001, +8.44787918583E+002
+4.94257095159E+007, +6.64569059677E+001, +8.50660136924E+002
+4.95909849750E+007, +6.40025792865E+001, +8.57489739379E+002
+4.97562604341E+007, +6.47119171668E+001, +8.59679170849E+002
+4.99215358932E+007, +6.57875373244E+001, +8.68216830257E+002
+5.00868113523E+007, +6.10119825802E+001, +8.71213590789E+002
+5.02520868114E+007, +6.63663231412E+001, +8.77776940020E+002
+5.04173622705E+007, +6.49299219304E+001, +8.84466159958E+002
+5.05826377295E+007, +6.62978533557E+001, +8.85350283547E+002
+5.07479131886E+007, +6.77340884748E+001, +8.89622857997E+002
+5.09131886477E+007, +6.50099157222E+001, +8.95398555325E+002
+5.10784641068E+007, +7.25435367185E+001, +9.03083040228E+002
+5.12437395659E+007, +6.76796885488E+001, +9.09434712763E+002
+5.14090150250E+007, +6.87992563879E+001, +9.15664109200E+002
+5.15742904841E+007, +7.01071278232E+001, +9.19614266319E+002
+5.17395659432E+007, +7.31118709735E+001, +9.22307259060E+002
+5.19048414023E+007, +7.56916173641E+001, +9.32065386050E+002
+5.20701168614E+007, +7.49253721055E+001, +9.39196127171E+002
+5.22353923205E+007, +7.36763260780E+001, +9.44063012887E+002
+5.24006677796E+007, +7.64758680499E+001, +9.45203008415E+002
+5.25659432387E+007, +7.83470323082E+001, +9.55066790196E+002
+5.27312186978E+007, +8.12142770617E+001, +9.59194373944E+002
+5.28964941569E+007, +8.34633775628E+001, +9.67405920035E+002
+5.30617696160E+007, +8.31941027295E+001, +9.72588642986E+002
+5.32270450751E+007, +8.13706518208E+001, +9.76518670361E+002
+5.33923205342E+007, +8.07218573225E+001, +9.89354209501E+002
+5.35575959933E+007, +8.41815760758E+001, +9.91469172010E+002
+5.37228714524E+007, +8.57833090718E+001, +1.00208426326E+003
+5.38881469115E+007, +8.71858422946E+001, +9.96956876117E+002
