"# Channel 1"
"# Trace 1"
Frequency, Formatted Data, Formatted Data
+1.00000000000E+005, +6.44359325452E+001, +1.20205923973E+000
+2.25031289111E+005, +6.44345484238E+001, +3.20181827629E+000
+3.50062578223E+005, +6.43930043699E+001, +5.07903413321E+000
+4.75093867334E+005, +6.44439422156E+001, +6.90764534995E+000
+6.00125156446E+005, +6.44719104320E+001, +8.67029216982E+000
+7.25156445557E+005, +6.44507921440E+001, +1.05004333002E+001
+8.50187734668E+005, +6.44963897443E+001, +1.21999082183E+001
+9.75219023780E+005, +6.45426801243E+001, +1.40126369238E+001
+1.10025031289E+006, +6.47269794713E+001, +1.57970620273E+001
+1.22528160200E+006, +6.45652433381E+001, +1.73938166409E+001
+1.35031289111E+006, +6.46485764188E+001, +1.92656046190E+001
+1.47534418023E+006, +6.46741958680E+001, +2.10510854297E+001
+1.60037546934E+006, +6.46242089905E+001, +2.27434243322E+001
+1.72540675845E+006, +6.46631988199E+001, +2.47153390936E+001
+1.85043804756E+006, +6.44923967121E+001, +2.65425143763E+001
+1.97546933667E+006, +6.46310789150E+001, +2.82130170409E+001
+2.10050062578E+006, +6.45369690511E+001, +3.01884841395E+001
+2.22553191489E+006, +6.45965263672E+001, +3.18202225032E+001
+2.35056320401E+006, +6.45610885482E+001, +3.34684103413E+001
+2.47559449312E+006, +6.45391081553E+001, +3.54174587858E+001
+2.60062578223E+006, +6.48504474932E+001, +3.73045489932E+001
+2.72565707134E+006, +6.46631916481E+001, +3.90092156936E+001
+2.85068836045E+006, +6.48636219487E+001, +4.05619327314E+001
+2.97571964956E+006, +6.48072284907E+001, +4.26214966716E+001
+3.10075093867E+006, +6.48459351814E+001, +4.43337083954E+001
+3.22578222778E+006, +6.48610010354E+001, +4.61712330645E+001
+3.35081351690E+006, +6.47996964321E+001, +4.79440658129E+001
+3.47584480601E+006, +6.47817227714E+001, +4.97011975611E+001
+3.60087609512E+006, +6.49407966583E+001, +5.15970936231E+001
+3.72590738423E+006, +6.53364909661E+001, +5.34588449921E+001
+3.85093867334E+006, +6.49298447767E+001, +5.50905492342E+001
+3.97596996245E+006, +6.49079285917E+001, +5.71214072746E+001
+4.10100125156E+006, +6.49936226449E+001, +5.86508722229E+001
+4.22603254068E+006, +6.49137112521E+001, +6.04991335745E+001
+4.35106382979E+006, +6.51646335676E+001, +6.22296345132E+001
+4.47609511890E+006, +6.52116549241E+001, +6.41958646356E+001
+4.60112640801E+006, +6.51633485534E+001, +6.60024171389E+001
+4.72615769712E+006, +6.53196394061E+001, +6.75857698794E+001
+4.85118898623E+006, +6.53925375623E+001, +6.94720927950E+001
+4.97622027534E+006, +6.54098535884E+001, +7.12421833031E+001
+5.10125156446E+006, +6.53925510417E+001, +7.29346002686E+001
+5.22628285357E+006, +6.55995048467E+001, +7.50261270272E+001
+5.35131414268E+006, +6.55661182020E+001, +7.69216924427E+001
+5.47634543179E+006, +6.56495154672E+001, +7.87161872875E+001
+5.60137672090E+006, +6.57738736677E+001, +8.02759662639E+001
+5.72640801001E+006, +6.56444991561E+001, +8.20054355610E+001
+5.85143929912E+006, +6.56858317181E+001, +8.38726566627E+001
+5.97647058824E+006, +6.58281931246E+001, +8.56456930649E+001
+6.10150187735E+006, +6.58732133194E+001, +8.76750842045E+001
+6.22653316646E+006, +6.57925558504E+001, +8.96531519446E+001
+6.35156445557E+006, +6.59307143525E+001, +9.11611104040E+001
+6.47659574468E+006, +6.60061037416E+001, +9.30359065290E+001
+6.60162703379E+006, +6.60628411096E+001, +9.47191360322E+001
+6.72665832290E+006, +6.61861739309E+001, +9.65569860018E+001
+6.85168961202E+006, +6.62299352675E+001, +9.83599200748E+001
+6.97672090113E+006, +6.62368028765E+001, +1.00134640879E+002
+7.10175219024E+006, +6.64376017518E+001, +1.02015238056E+002
+7.22678347935E+006, +6.64432947974E+001, +1.03860725313E+002
+7.35181476846E+006, +6.64267126113E+001, +1.05652304073E+002
+7.47684605757E+006, +6.65957629068E+001, +1.07420993285E+002
+7.60187734668E+006, +6.65522318076E+001, +1.09196273622E+002
+7.72690863579E+006, +6.66389926284E+001, +1.11061718215E+002
+7.85193992491E+006, +6.68425725539E+001, +1.12845005289E+002
+7.97697121402E+006, +6.66988230472E+001, +1.14652420058E+002
+8.10200250313E+006, +6.68654388225E+001, +1.16576133301E+002
+8.22703379224E+006, +6.69114270723E+001, +1.18419442525E+002
+8.35206508135E+006, +6.70704937948E+001, +1.20106894485E+002
+8.47709637046E+006, +6.70328521716E+001, +1.21984779882E+002
+8.60212765957E+006, +6.72049374401E+001, +1.23848144560E+002
+8.72715894869E+006, +6.72231036326E+001, +1.25660744493E+002
+8.85219023780E+006, +6.73174220005E+001, +1.27331491112E+002
+8.97722152691E+006, +6.73955302484E+001, +1.29263570752E+002
+9.10225281602E+006, +6.75661811270E+001, +1.31251703472E+002
+9.22728410513E+006, +6.76429331006E+001, +1.33013504591E+002
+9.35231539424E+006, +6.73948000123E+001, +1.34998680078E+002
+9.47734668335E+006, +6.75611677654E+001, +1.36693917426E+002
+9.60237797247E+006, +6.76702943359E+001, +1.38531465077E+002
+9.72740926158E+006, +6.76693472733E+001, +1.40294116034E+002
+9.85244055069E+006, +6.78253864100E+001, +1.42332581090E+002
+9.97747183980E+006, +6.77295897076E+001, +1.44100526173E+002
+1.01025031289E+007, +6.78937413606E+001, +1.45969637052E+002
+1.02275344180E+007, +6.79164538583E+001, +1.47666371019E+002
+1.03525657071E+007, +6.80861745208E+001, +1.49807324343E+002
+1.04775969962E+007, +6.80687001859E+001, +1.51607600117E+002
+1.06026282854E+007, +6.81823247721E+001, +1.53605534267E+002
+1.07276595745E+007, +6.83311418545E+001, +1.55231465787E+002
+1.08526908636E+007, +6.86348316086E+001, +1.57109780922E+002
+1.09777221527E+007, +6.85066711307E+001, +1.58880265776E+002
+1.11027534418E+007, +6.85321941413E+001, +1.60970750385E+002
+1.12277847309E+007, +6.88993749515E+001, +1.62716536373E+002
+1.13528160200E+007, +6.85943329752E+001, +1.64437997911E+002
+1.14778473091E+007, +6.88339350056E+001, +1.66428936164E+002
+1.16028785982E+007, +6.89305599106E+001, +1.68490455322E+002
+1.17279098874E+007, +6.89622202160E+001, +1.70002645432E+002
+1.18529411765E+007, +6.91605990930E+001, +1.71988709953E+002
+1.19779724656E+007, +6.93522292990E+001, +1.73926364364E+002
+1.21030037547E+007, +6.93206588675E+001, +1.75494798866E+002
+1.22280350438E+007, +6.92351755950E+001, +1.77664932634E+002
+1.23530663329E+007, +6.93744006751E+001, +1.79705810719E+002
+1.24780976220E+007, +6.97457003983E+001, +1.81428643521E+002
+1.26031289111E+007, +6.95028028044E+001, +1.83230700900E+002
+1.27281602003E+007, +6.97109688839E+001, +1.85082315494E+002
+1.28531914894E+007, +6.98774879413E+001, +1.86915636651E+002
+1.29782227785E+007, +6.98264231651E+001, +1.88869799065E+002
+1.31032540676E+007, +7.01019066654E+001, +1.90764571986E+002
+1.32282853567E+007, +6.99938679964E+001, +1.92847622115E+002
+1.33533166458E+007, +7.03467855126E+001, +1.94796212529E+002
+1.34783479349E+007, +7.04164944132E+001, +1.96328353862E+002
+1.36033792240E+007, +7.03222278238E+001, +1.98401471514E+002
+1.37284105131E+007, +7.06367276463E+001, +2.00273618826E+002
+1.38534418023E+007, +7.06663557260E+001, +2.02303028970E+002
+1.39784730914E+007, +7.06274049685E+001, +2.04321558643E+002
+1.41035043805E+007, +7.08635554554E+001, +2.06160455888E+002
+1.42285356696E+007, +7.10801049916E+001, +2.07925567145E+002
+1.43535669587E+007, +7.09787329176E+001, +2.10031948207E+002
+1.44785982478E+007, +7.11840461864E+001, +2.11986531470E+002
+1.46036295369E+007, +7.11800746338E+001, +2.14122071683E+002
+1.47286608260E+007, +7.13975559341E+001, +2.15754626096E+002
+1.48536921151E+007, +7.15937286788E+001, +2.17577276397E+002
+1.49787234043E+007, +7.14296005615E+001, +2.19500258370E+002
+1.51037546934E+007, +7.21824269174E+001, +2.21386550714E+002
+1.52287859825E+007, +7.19021713634E+001, +2.23434608563E+002
+1.53538172716E+007, +7.19969542287E+001, +2.25181351154E+002
+1.54788485607E+007, +7.23476948278E+001, +2.27038576532E+002
+1.56038798498E+007, +7.24354419054E+001, +2.29408281590E+002
+1.57289111389E+007, +7.19913046584E+001, +2.31024552071E+002
+1.58539424280E+007, +7.23876198822E+001, +2.33427700624E+002
+1.59789737171E+007, +7.28095644102E+001, +2.35342667908E+002
+1.61040050063E+007, +7.29867641541E+001, +2.37049100291E+002
+1.62290362954E+007, +7.29365776794E+001, +2.39072660079E+002
+1.63540675845E+007, +7.26737978922E+001, +2.40561766873E+002
+1.64790988736E+007, +7.27480277312E+001, +2.42534978422E+002
+1.66041301627E+007, +7.33074783318E+001, +2.44837688983E+002
+1.67291614518E+007, +7.32815800692E+001, +2.47006044425E+002
+1.68541927409E+007, +7.31999345362E+001, +2.48464208333E+002
+1.69792240300E+007, +7.33520402047E+001, +2.50575917151E+002
+1.71042553191E+007, +7.32887161351E+001, +2.52878799513E+002
+1.72292866083E+007, +7.38433372333E+001, +2.54761076226E+002
+1.73543178974E+007, +7.37576155404E+001, +2.57048345436E+002
+1.74793491865E+007, +7.40955874120E+001, +2.58891180250E+002
+1.76043804756E+007, +7.37379582586E+001, +2.60996714848E+002
+1.77294117647E+007, +7.43087367060E+001, +2.62802821252E+002
+1.78544430538E+007, +7.44505812960E+001, +2.64552548767E+002
+1.79794743429E+007, +7.45139441637E+001, +2.66620339994E+002
+1.81045056320E+007, +7.49203301461E+001, +2.68528890352E+002
+1.82295369212E+007, +7.50644361868E+001, +2.70854369924E+002
+1.83545682103E+007, +7.52789806616E+001, +2.72978079581E+002
+1.84795994994E+007, +7.51525473593E+001, +2.74660648349E+002
+1.86046307885E+007, +7.54866612541E+001, +2.77300624702E+002
+1.87296620776E+007, +7.51462915974E+001, +2.79074613828E+002
+1.88546933667E+007, +7.53108554166E+001, +2.80522080031E+002
+1.89797246558E+007, +7.58840074807E+001, +2.82947801754E+002
+1.91047559449E+007, +7.62580286669E+001, +2.85204511765E+002
+1.92297872340E+007, +7.55986653241E+001, +2.87422163201E+002
+1.93548185232E+007, +7.63798106699E+001, +2.89667157427E+002
+1.94798498123E+007, +7.64706165117E+001, +2.90915885360E+002
+1.96048811014E+007, +7.68494889023E+001, +2.92978459744E+002
+1.97299123905E+007, +7.70489367868E+001, +2.95368901886E+002
+1.98549436796E+007, +7.69788020113E+001, +2.96807236904E+002
+1.99799749687E+007, +7.73056372036E+001, +2.98943914070E+002
+2.01050062578E+007, +7.72734878336E+001, +3.01787998813E+002
+2.02300375469E+007, +7.75225572526E+001, +3.03218099904E+002
+2.03550688360E+007, +7.74457485405E+001, +3.05416506692E+002
+2.04801001252E+007, +7.78628810561E+001, +3.07045019267E+002
+2.06051314143E+007, +7.79439133903E+001, +3.08866376836E+002
+2.07301627034E+007, +7.82049121021E+001, +3.10679346262E+002
+2.08551939925E+007, +7.80471717557E+001, +3.13612457802E+002
+2.09802252816E+007, +7.83086251776E+001, +3.15910088464E+002
+2.11052565707E+007, +7.89351660088E+001, +3.18020538870E+002
+2.12302878598E+007, +7.95468141290E+001, +3.20314488060E+002
+2.13553191489E+007, +7.84539872693E+001, +3.21828488217E+002
+2.14803504380E+007, +7.89430527179E+001, +3.23765243695E+002
+2.16053817272E+007, +7.93398581681E+001, +3.26746109248E+002
+2.17304130163E+007, +7.98525652729E+001, +3.27837587232E+002
+2.18554443054E+007, +8.02734457088E+001, +3.30554631358E+002
+2.19804755945E+007, +7.98973163108E+001, +3.32596420471E+002
+2.21055068836E+007, +8.04090885395E+001, +3.34473977266E+002
+2.22305381727E+007, +8.06938247385E+001, +3.36362910084E+002
+2.23555694618E+007, +8.02577790185E+001, +3.38387531960E+002
+2.24806007509E+007, +8.13248404476E+001, +3.40520983957E+002
+2.26056320401E+007, +8.17136181920E+001, +3.42467410960E+002
+2.27306633292E+007, +8.14333563858E+001, +3.45355526523E+002
+2.28556946183E+007, +8.21845282455E+001, +3.47005871818E+002
+2.29807259074E+007, +8.18232861635E+001, +3.49493348043E+002
+2.31057571965E+007, +8.19240495974E+001, +3.50803658156E+002
+2.32307884856E+007, +8.21213564929E+001, +3.53461359096E+002
+2.33558197747E+007, +8.21979350139E+001, +3.55858210846E+002
+2.34808510638E+007, +8.28326999166E+001, +3.57259852064E+002
+2.36058823529E+007, +8.33667637672E+001, +3.59847446121E+002
+2.37309136421E+007, +8.29479883110E+001, +3.61989133154E+002
+2.38559449312E+007, +8.36742672523E+001, +3.64256672809E+002
+2.39809762203E+007, +8.40987648299E+001, +3.66032153925E+002
+2.41060075094E+007, +8.38216284354E+001, +3.69087720552E+002
+2.42310387985E+007, +8.40946045412E+001, +3.70381373101E+002
+2.43560700876E+007, +8.40933452279E+001, +3.72640982148E+002
+2.44811013767E+007, +8.51110556778E+001, +3.75243674036E+002
+2.46061326658E+007, +8.52475153648E+001, +3.77058148785E+002
+2.47311639549E+007, +8.54122829871E+001, +3.79378723905E+002
+2.48561952441E+007, +8.54612846095E+001, +3.81015218815E+002
+2.49812265332E+007, +8.51201350561E+001, +3.84221805427E+002
+2.51062578223E+007, +8.51005199122E+001, +3.86552429351E+002
+2.52312891114E+007, +8.61558013066E+001, +3.89464436926E+002
+2.53563204005E+007, +8.62063241885E+001, +3.90157337881E+002
+2.54813516896E+007, +8.66375134190E+001, +3.92307693467E+002
+2.56063829787E+007, +8.61370155137E+001, +3.93985381892E+002
+2.57314142678E+007, +8.58640709530E+001, +3.98305934278E+002
+2.58564455569E+007, +8.76498191908E+001, +3.99752083825E+002
+2.59814768461E+007, +8.72515032135E+001, +4.01512471073E+002
+2.61065081352E+007, +8.77999880839E+001, +4.04328322841E+002
+2.62315394243E+007, +8.75258185103E+001, +4.06515347937E+002
+2.63565707134E+007, +8.74370505740E+001, +4.07757585751E+002
+2.64816020025E+007, +8.82940203106E+001, +4.10402747078E+002
+2.66066332916E+007, +8.90208346421E+001, +4.12735668621E+002
+2.67316645807E+007, +8.84006927526E+001, +4.14591384020E+002
+2.68566958698E+007, +8.96404631876E+001, +4.16780798434E+002
+2.69817271589E+007, +9.01448156583E+001, +4.20130753154E+002
+2.71067584481E+007, +8.90210606130E+001, +4.23309088927E+002
+2.72317897372E+007, +9.00611256833E+001, +4.24197401190E+002
+2.73568210263E+007, +9.05467240038E+001, +4.24982088899E+002
+2.74818523154E+007, +9.05797188961E+001, +4.28991238297E+002
+2.76068836045E+007, +9.06559356342E+001, +4.31394105222E+002
+2.77319148936E+007, +8.99542858945E+001, +4.33702111618E+002
+2.78569461827E+007, +9.08359716071E+001, +4.36248234157E+002
+2.79819774718E+007, +9.06433914386E+001, +4.38118365474E+002
+2.81070087610E+007, +9.13480477879E+001, +4.40916283058E+002
+2.82320400501E+007, +9.17922555530E+001, +4.41721873919E+002
+2.83570713392E+007, +9.21060607220E+001, +4.46003685053E+002
+2.84821026283E+007, +9.40569543827E+001, +4.49083518549E+002
+2.86071339174E+007, +9.18441667626E+001, +4.48535421583E+002
+2.87321652065E+007, +9.32563005986E+001, +4.53379178952E+002
+2.88571964956E+007, +9.32375163626E+001, +4.54380538406E+002
+2.89822277847E+007, +9.30311663508E+001, +4.57161524379E+002
+2.91072590738E+007, +9.38771659412E+001, +4.59747255193E+002
+2.92322903630E+007, +9.37559828075E+001, +4.62974414651E+002
+2.93573216521E+007, +9.56006981470E+001, +4.63893802131E+002
+2.94823529412E+007, +9.43177502756E+001, +4.67760496841E+002
+2.96073842303E+007, +9.49241810391E+001, +4.69626641053E+002
+2.97324155194E+007, +9.51397122283E+001, +4.71939953826E+002
+2.98574468085E+007, +9.56640491307E+001, +4.74586795040E+002
+2.99824780976E+007, +9.45931371021E+001, +4.77187029431E+002
+3.01075093867E+007, +9.59626953351E+001, +4.80209762415E+002
+3.02325406758E+007, +9.64847223323E+001, +4.83215479909E+002
+3.03575719650E+007, +9.67329681892E+001, +4.84695677793E+002
+3.04826032541E+007, +9.63589862048E+001, +4.87796535160E+002
+3.06076345432E+007, +9.57110304186E+001, +4.89718115247E+002
+3.07326658323E+007, +9.57439433017E+001, +4.92857586599E+002
+3.08576971214E+007, +9.67314257731E+001, +4.96150179247E+002
+3.09827284105E+007, +9.78245507717E+001, +4.95972997419E+002
+3.11077596996E+007, +9.85804128929E+001, +5.00504662013E+002
+3.12327909887E+007, +9.68798214163E+001, +5.02058403219E+002
+3.13578222778E+007, +9.89800684072E+001, +5.05121221359E+002
+3.14828535670E+007, +9.97605285145E+001, +5.06482259739E+002
+3.16078848561E+007, +1.00047283090E+002, +5.09992056327E+002
+3.17329161452E+007, +9.93575408736E+001, +5.11247632122E+002
+3.18579474343E+007, +9.88193059955E+001, +5.14954019111E+002
+3.19829787234E+007, +1.00775317914E+002, +5.15819343156E+002
+3.21080100125E+007, +9.98708864539E+001, +5.20251301600E+002
+3.22330413016E+007, +1.00513581286E+002, +5.21862831335E+002
+3.23580725907E+007, +1.00452440061E+002, +5.24386068658E+002
+3.24831038798E+007, +1.02351066234E+002, +5.27157135892E+002
+3.26081351690E+007, +1.02336652434E+002, +5.32677572521E+002
+3.27331664581E+007, +1.02555429769E+002, +5.31868638277E+002
+3.28581977472E+007, +1.02065509716E+002, +5.35824640854E+002
+3.29832290363E+007, +1.04272232537E+002, +5.39775944437E+002
+3.31082603254E+007, +1.02969481797E+002, +5.40327620736E+002
+3.32332916145E+007, +1.03493325588E+002, +5.43859412951E+002
+3.33583229036E+007, +1.04402905879E+002, +5.46031595070E+002
+3.34833541927E+007, +1.04986675864E+002, +5.49024472919E+002
+3.36083854819E+007, +1.03982974077E+002, +5.50523083994E+002
+3.37334167710E+007, +1.05316790782E+002, +5.54986297737E+002
+3.38584480601E+007, +1.05245291662E+002, +5.57726705296E+002
+3.39834793492E+007, +1.05985037321E+002, +5.58621345448E+002
+3.41085106383E+007, +1.04878970052E+002, +5.63687463779E+002
+3.42335419274E+007, +1.07367976498E+002, +5.65187288097E+002
+3.43585732165E+007, +1.06281225716E+002, +5.68166479805E+002
+3.44836045056E+007, +1.06259168593E+002, +5.70085386209E+002
+3.46086357947E+007, +1.07160172961E+002, +5.72604838928E+002
+3.47336670839E+007, +1.08844094917E+002, +5.77260787882E+002
+3.48586983730E+007, +1.07807194347E+002, +5.80547141807E+002
+3.49837296621E+007, +1.08299025818E+002, +5.84690130753E+002
+3.51087609512E+007, +1.09806618385E+002, +5.84388963622E+002
+3.52337922403E+007, +1.09178642052E+002, +5.88337406875E+002
+3.53588235294E+007, +1.09878263130E+002, +5.91363869808E+002
+3.54838548185E+007, +1.10774085896E+002, +5.93626628017E+002
+3.56088861076E+007, +1.10627809860E+002, +5.96603496158E+002
+3.57339173967E+007, +1.10826565261E+002, +5.97970930157E+002
+3.58589486859E+007, +1.12464864653E+002, +6.00932033175E+002
+3.59839799750E+007, +1.13545953753E+002, +6.02570840736E+002
+3.61090112641E+007, +1.12887312907E+002, +6.06115589402E+002
+3.62340425532E+007, +1.12581914841E+002, +6.07587373082E+002
+3.63590738423E+007, +1.14689396776E+002, +6.11393595771E+002
+3.64841051314E+007, +1.13084875102E+002, +6.15259518865E+002
+3.66091364205E+007, +1.13550068015E+002, +6.17364608259E+002
+3.67341677096E+007, +1.15742404534E+002, +6.20720994420E+002
+3.68591989987E+007, +1.13574339969E+002, +6.24779437798E+002
+3.69842302879E+007, +1.15181427224E+002, +6.28788380617E+002
+3.71092615770E+007, +1.17009978284E+002, +6.31275774856E+002
+3.72342928661E+007, +1.17868532607E+002, +6.33427729980E+002
+3.73593241552E+007, +1.16223031034E+002, +6.36703368272E+002
+3.74843554443E+007, +1.18142083324E+002, +6.38200240161E+002
+3.76093867334E+007, +1.19506787335E+002, +6.43489768174E+002
+3.77344180225E+007, +1.19225945348E+002, +6.44717188115E+002
+3.78594493116E+007, +1.19822928026E+002, +6.49229074833E+002
+3.79844806008E+007, +1.20495854723E+002, +6.50359954513E+002
+3.81095118899E+007, +1.18409662127E+002, +6.54064931825E+002
+3.82345431790E+007, +1.21063968761E+002, +6.59077170266E+002
+3.83595744681E+007, +1.21696770903E+002, +6.58411562173E+002
+3.84846057572E+007, +1.22246199549E+002, +6.62473969397E+002
+3.86096370463E+007, +1.23446050731E+002, +6.68375725325E+002
+3.87346683354E+007, +1.24425531559E+002, +6.70826268697E+002
+3.88596996245E+007, +1.24578231248E+002, +6.74219667972E+002
+3.89847309136E+007, +1.24056755417E+002, +6.78013763610E+002
+3.91097622028E+007, +1.28876445256E+002, +6.79970559360E+002
+3.92347934919E+007, +1.25793562524E+002, +6.81967948184E+002
+3.93598247810E+007, +1.27826933270E+002, +6.84182299538E+002
+3.94848560701E+007, +1.25232671687E+002, +6.87426332706E+002
+3.96098873592E+007, +1.26921662288E+002, +6.89063972822E+002
+3.97349186483E+007, +1.26977096119E+002, +6.95120580210E+002
+3.98599499374E+007, +1.27348004357E+002, +6.96074276221E+002
+3.99849812265E+007, +1.27020777440E+002, +7.03226679565E+002
+4.01100125156E+007, +1.30934644149E+002, +7.05168751855E+002
