"# Channel 1"
"# Trace 1"
Frequency, Formatted Data, Formatted Data
+1.00000000000E+005, +3.94446337447E-001, +1.28877590604E+000
+2.25031289111E+005, +3.91443166553E-001, +2.81345391867E+000
+3.50062578223E+005, +4.35049374412E-001, +4.34584225249E+000
+4.75093867334E+005, +4.49123968105E-001, +5.90155138536E+000
+6.00125156446E+005, +5.14265143605E-001, +7.38894788317E+000
+7.25156445557E+005, +5.19346647512E-001, +8.93401438055E+000
+8.50187734668E+005, +5.13926890666E-001, +1.03630005086E+001
+9.75219023780E+005, +5.00747764579E-001, +1.18939873455E+001
+1.10025031289E+006, +6.01513040962E-001, +1.34268848269E+001
+1.22528160200E+006, +5.90716818006E-001, +1.49080927889E+001
+1.35031289111E+006, +6.04583157995E-001, +1.63749434050E+001
+1.47534418023E+006, +6.35410444496E-001, +1.78998156882E+001
+1.60037546934E+006, +6.43103714612E-001, +1.94042521104E+001
+1.72540675845E+006, +6.83172044856E-001, +2.08455181057E+001
+1.85043804756E+006, +7.00020465886E-001, +2.23855090314E+001
+1.97546933667E+006, +7.30181508568E-001, +2.38786096763E+001
+2.10050062578E+006, +7.18193764689E-001, +2.53627555722E+001
+2.22553191489E+006, +6.79367656261E-001, +2.68501669329E+001
+2.35056320401E+006, +7.28461714616E-001, +2.83240714309E+001
+2.47559449312E+006, +7.42800137838E-001, +2.98467133046E+001
+2.60062578223E+006, +7.32983252796E-001, +3.13677284564E+001
+2.72565707134E+006, +7.52204181054E-001, +3.28484533358E+001
+2.85068836045E+006, +7.93392818741E-001, +3.43868107019E+001
+2.97571964956E+006, +7.60513127644E-001, +3.58129064027E+001
+3.10075093867E+006, +8.05536369046E-001, +3.73634658911E+001
+3.22578222778E+006, +7.73763815456E-001, +3.87998199598E+001
+3.35081351690E+006, +7.33901068652E-001, +4.03760924935E+001
+3.47584480601E+006, +8.26234642246E-001, +4.18232788843E+001
+3.60087609512E+006, +7.71370922083E-001, +4.34146508701E+001
+3.72590738423E+006, +8.90885913160E-001, +4.48489400829E+001
+3.85093867334E+006, +9.04540028553E-001, +4.62597535830E+001
+3.97596996245E+006, +8.09106703249E-001, +4.78904139277E+001
+4.10100125156E+006, +8.87217088975E-001, +4.93968589616E+001
+4.22603254068E+006, +8.67239342183E-001, +5.08076446219E+001
+4.35106382979E+006, +8.51609435428E-001, +5.23236476824E+001
+4.47609511890E+006, +8.62070883794E-001, +5.39444208115E+001
+4.60112640801E+006, +8.89048888183E-001, +5.53350811501E+001
+4.72615769712E+006, +8.23025881154E-001, +5.68480332232E+001
+4.85118898623E+006, +9.01532895944E-001, +5.83065620001E+001
+4.97622027534E+006, +9.32774481039E-001, +5.98519793076E+001
+5.10125156446E+006, +8.52113176173E-001, +6.13650637542E+001
+5.22628285357E+006, +9.29595908832E-001, +6.28414532784E+001
+5.35131414268E+006, +8.28770112691E-001, +6.42819848642E+001
+5.47634543179E+006, +8.97099297584E-001, +6.58830299878E+001
+5.60137672090E+006, +9.89064667844E-001, +6.73624131205E+001
+5.72640801001E+006, +9.38555571166E-001, +6.89905920142E+001
+5.85143929912E+006, +9.86824726333E-001, +7.04274041720E+001
+5.97647058824E+006, +1.01684981681E+000, +7.20347220363E+001
+6.10150187735E+006, +9.45818359021E-001, +7.34500732872E+001
+6.22653316646E+006, +1.01244918843E+000, +7.50436396855E+001
+6.35156445557E+006, +9.88218086352E-001, +7.65274581217E+001
+6.47659574468E+006, +1.03122871603E+000, +7.80349348403E+001
+6.60162703379E+006, +1.03706333318E+000, +7.95706537924E+001
+6.72665832290E+006, +1.06397695737E+000, +8.11588813481E+001
+6.85168961202E+006, +1.04621773177E+000, +8.25746316556E+001
+6.97672090113E+006, +1.05672878917E+000, +8.41372029113E+001
+7.10175219024E+006, +1.04467173154E+000, +8.56659119984E+001
+7.22678347935E+006, +1.10568154404E+000, +8.72532629189E+001
+7.35181476846E+006, +1.07034727950E+000, +8.87357938957E+001
+7.47684605757E+006, +1.02561609038E+000, +9.03687796161E+001
+7.60187734668E+006, +1.09508323251E+000, +9.17559589441E+001
+7.72690863579E+006, +1.04536181636E+000, +9.32783656168E+001
+7.85193992491E+006, +1.08830832114E+000, +9.48181988986E+001
+7.97697121402E+006, +1.17864873071E+000, +9.63540993334E+001
+8.10200250313E+006, +1.05241628334E+000, +9.78295917205E+001
+8.22703379224E+006, +1.12301767579E+000, +9.93956260184E+001
+8.35206508135E+006, +1.10970427924E+000, +1.00959823197E+002
+8.47709637046E+006, +1.19580578508E+000, +1.02513540912E+002
+8.60212765957E+006, +1.11498510264E+000, +1.04121182264E+002
+8.72715894869E+006, +1.16479575727E+000, +1.05626487910E+002
+8.85219023780E+006, +1.09397864095E+000, +1.07056610312E+002
+8.97722152691E+006, +1.18664596017E+000, +1.08656140092E+002
+9.10225281602E+006, +1.09715838153E+000, +1.10150087838E+002
+9.22728410513E+006, +1.12908395390E+000, +1.11706832827E+002
+9.35231539424E+006, +1.24293387343E+000, +1.13355023695E+002
+9.47734668335E+006, +1.20192517740E+000, +1.14764696028E+002
+9.60237797247E+006, +1.17878288411E+000, +1.16397396668E+002
+9.72740926158E+006, +1.05811397411E+000, +1.17918973190E+002
+9.85244055069E+006, +1.12363001247E+000, +1.19412968908E+002
+9.97747183980E+006, +1.08293287757E+000, +1.21021239319E+002
+1.01025031289E+007, +1.20091492263E+000, +1.22638256750E+002
+1.02275344180E+007, +1.16414849512E+000, +1.24098799467E+002
+1.03525657071E+007, +1.16368831335E+000, +1.25619581925E+002
+1.04775969962E+007, +1.10362577965E+000, +1.27220086586E+002
+1.06026282854E+007, +1.12791245042E+000, +1.28811583149E+002
+1.07276595745E+007, +1.16612080080E+000, +1.30247787238E+002
+1.08526908636E+007, +1.12906747699E+000, +1.31722941454E+002
+1.09777221527E+007, +1.09839538929E+000, +1.33435130952E+002
+1.11027534418E+007, +1.04781115587E+000, +1.34945272887E+002
+1.12277847309E+007, +1.13302673349E+000, +1.36551735823E+002
+1.13528160200E+007, +1.04636413874E+000, +1.38104417204E+002
+1.14778473091E+007, +1.26292460679E+000, +1.39574579441E+002
+1.16028785982E+007, +1.02098475261E+000, +1.41122651932E+002
+1.17279098874E+007, +1.24096086607E+000, +1.42795015033E+002
+1.18529411765E+007, +1.02035281410E+000, +1.44389815667E+002
+1.19779724656E+007, +1.21131315584E+000, +1.46117180199E+002
+1.21030037547E+007, +1.25565171352E+000, +1.47461067311E+002
+1.22280350438E+007, +1.15858618380E+000, +1.49101696035E+002
+1.23530663329E+007, +1.07258072056E+000, +1.50645041959E+002
+1.24780976220E+007, +1.07001046970E+000, +1.52426138245E+002
+1.26031289111E+007, +1.06853596327E+000, +1.53746078029E+002
+1.27281602003E+007, +1.05066044372E+000, +1.55344228155E+002
+1.28531914894E+007, +1.26973243401E+000, +1.57100615022E+002
+1.29782227785E+007, +1.10734162852E+000, +1.58600998166E+002
+1.31032540676E+007, +1.22714091273E+000, +1.60233787087E+002
+1.32282853567E+007, +1.16955191782E+000, +1.61815935287E+002
+1.33533166458E+007, +1.10292398138E+000, +1.63241777022E+002
+1.34783479349E+007, +1.02920005595E+000, +1.64974212402E+002
+1.36033792240E+007, +1.25494335499E+000, +1.66537152359E+002
+1.37284105131E+007, +1.14102788623E+000, +1.68333947717E+002
+1.38534418023E+007, +1.24007923147E+000, +1.69781776709E+002
+1.39784730914E+007, +1.17320873588E+000, +1.71363892103E+002
+1.41035043805E+007, +1.29284631597E+000, +1.72944404268E+002
+1.42285356696E+007, +1.07307401961E+000, +1.74721095822E+002
+1.43535669587E+007, +1.12055183616E+000, +1.76192058152E+002
+1.44785982478E+007, +1.38578213127E+000, +1.77770101424E+002
+1.46036295369E+007, +1.13478657503E+000, +1.79478787972E+002
+1.47286608260E+007, +1.06349092654E+000, +1.81010766248E+002
+1.48536921151E+007, +1.18673712730E+000, +1.82740017244E+002
+1.49787234043E+007, +9.31763487323E-001, +1.84439211349E+002
+1.51037546934E+007, +1.27652653153E+000, +1.85962005676E+002
+1.52287859825E+007, +1.11246423004E+000, +1.87550779057E+002
+1.53538172716E+007, +1.27378276258E+000, +1.89175891629E+002
+1.54788485607E+007, +1.21321092734E+000, +1.90734150895E+002
+1.56038798498E+007, +8.80266784758E-001, +1.92468271160E+002
+1.57289111389E+007, +1.23488254683E+000, +1.94127780640E+002
+1.58539424280E+007, +1.04709094267E+000, +1.95686422350E+002
+1.59789737171E+007, +1.21990703488E+000, +1.97504751235E+002
+1.61040050063E+007, +1.07662615190E+000, +1.99133908504E+002
+1.62290362954E+007, +1.15354846278E+000, +2.00745264426E+002
+1.63540675845E+007, +1.16706599648E+000, +2.02165382378E+002
+1.64790988736E+007, +1.13134957116E+000, +2.03950208936E+002
+1.66041301627E+007, +1.29823758687E+000, +2.05884147380E+002
+1.67291614518E+007, +1.13740091548E+000, +2.07367916112E+002
+1.68541927409E+007, +1.29714696028E+000, +2.08953242802E+002
+1.69792240300E+007, +1.02406038038E+000, +2.10562091579E+002
+1.71042553191E+007, +9.08603325408E-001, +2.11945572430E+002
+1.72292866083E+007, +8.73226570831E-001, +2.13928428869E+002
+1.73543178974E+007, +7.81046566863E-001, +2.15726845450E+002
+1.74793491865E+007, +7.92229357014E-001, +2.17253166021E+002
+1.76043804756E+007, +1.00488849644E+000, +2.19457545106E+002
+1.77294117647E+007, +1.01703001874E+000, +2.20873058209E+002
+1.78544430538E+007, +9.84747116642E-001, +2.22489050723E+002
+1.79794743429E+007, +1.10471873273E+000, +2.24014764019E+002
+1.81045056320E+007, +1.15711773758E+000, +2.25728061982E+002
+1.82295369212E+007, +1.00200400683E+000, +2.27669169110E+002
+1.83545682103E+007, +1.42549357591E+000, +2.29347212416E+002
+1.84795994994E+007, +1.17643955830E+000, +2.30834925849E+002
+1.86046307885E+007, +1.26813303971E+000, +2.32775297588E+002
+1.87296620776E+007, +9.68390584298E-001, +2.34403226794E+002
+1.88546933667E+007, +8.71731976824E-001, +2.36122673893E+002
+1.89797246558E+007, +1.11145960559E+000, +2.38065262214E+002
+1.91047559449E+007, +8.31138309209E-001, +2.39411943812E+002
+1.92297872340E+007, +1.02843323928E+000, +2.41067604658E+002
+1.93548185232E+007, +9.07128302097E-001, +2.43353431414E+002
+1.94798498123E+007, +1.21293031044E+000, +2.44673259730E+002
+1.96048811014E+007, +8.87193077949E-001, +2.46500459853E+002
+1.97299123905E+007, +1.00525872686E+000, +2.48402576230E+002
+1.98549436796E+007, +1.36409901817E+000, +2.49931280524E+002
+1.99799749687E+007, +1.23125145802E+000, +2.51535219725E+002
+2.01050062578E+007, +1.08192751332E+000, +2.53495700723E+002
+2.02300375469E+007, +1.14239833287E+000, +2.55186536195E+002
+2.03550688360E+007, +1.22405231208E+000, +2.57140482749E+002
+2.04801001252E+007, +1.03934516620E+000, +2.58632125957E+002
+2.06051314143E+007, +1.33960192200E+000, +2.60691988754E+002
+2.07301627034E+007, +1.15373640116E+000, +2.62266944540E+002
+2.08551939925E+007, +1.13119608646E+000, +2.63700822070E+002
+2.09802252816E+007, +8.11899945945E-001, +2.66607762466E+002
+2.11052565707E+007, +1.09255362349E+000, +2.68024921075E+002
+2.12302878598E+007, +1.16993348488E+000, +2.69637513987E+002
+2.13553191489E+007, +6.10451715279E-001, +2.71112320557E+002
+2.14803504380E+007, +1.42832936535E+000, +2.73187453747E+002
+2.16053817272E+007, +5.82109181961E-001, +2.74878145438E+002
+2.17304130163E+007, +1.50843337764E+000, +2.76493549082E+002
+2.18554443054E+007, +1.37089123856E+000, +2.77956679935E+002
+2.19804755945E+007, +1.15839123923E+000, +2.80429882611E+002
+2.21055068836E+007, +9.12284245287E-001, +2.82278828055E+002
+2.22305381727E+007, +1.11173375592E+000, +2.83555174266E+002
+2.23555694618E+007, +1.06118907467E+000, +2.85257716082E+002
+2.24806007509E+007, +1.18230478932E+000, +2.87017603415E+002
+2.26056320401E+007, +1.46112097974E+000, +2.88635603912E+002
+2.27306633292E+007, +1.58784958632E+000, +2.91186861566E+002
+2.28556946183E+007, +1.53321641841E+000, +2.92527428946E+002
+2.29807259074E+007, +1.53673408912E+000, +2.94749041123E+002
+2.31057571965E+007, +1.61734387247E+000, +2.96567354454E+002
+2.32307884856E+007, +1.67239684434E+000, +2.98652367306E+002
+2.33558197747E+007, +1.24730887055E+000, +3.00324884970E+002
+2.34808510638E+007, +1.63125330797E+000, +3.02515205638E+002
+2.36058823529E+007, +1.38900613439E+000, +3.03997623881E+002
+2.37309136421E+007, +1.68677626959E+000, +3.05620383207E+002
+2.38559449312E+007, +1.42530254679E+000, +3.07583907341E+002
+2.39809762203E+007, +1.60819688019E+000, +3.09591580437E+002
+2.41060075094E+007, +1.45525323740E+000, +3.11263058802E+002
+2.42310387985E+007, +1.63163581602E+000, +3.12551951833E+002
+2.43560700876E+007, +1.32717014807E+000, +3.15162856334E+002
+2.44811013767E+007, +1.68458263900E+000, +3.16628293932E+002
+2.46061326658E+007, +1.57816336836E+000, +3.18890027733E+002
+2.47311639549E+007, +1.29835716731E+000, +3.20211124671E+002
+2.48561952441E+007, +2.05218792098E+000, +3.22013555266E+002
+2.49812265332E+007, +1.09733780270E+000, +3.24370868430E+002
+2.51062578223E+007, +2.04799165255E+000, +3.26189639510E+002
+2.52312891114E+007, +1.35789114987E+000, +3.27809956207E+002
+2.53563204005E+007, +1.85400408816E+000, +3.30483128603E+002
+2.54813516896E+007, +1.26179780171E+000, +3.31738120091E+002
+2.56063829787E+007, +2.07165345165E+000, +3.33695985300E+002
+2.57314142678E+007, +1.92133501946E+000, +3.35961682335E+002
+2.58564455569E+007, +1.42054553099E+000, +3.37709794684E+002
+2.59814768461E+007, +2.02941121404E+000, +3.39297562263E+002
+2.61065081352E+007, +1.56231289110E+000, +3.41397593922E+002
+2.62315394243E+007, +1.90597043500E+000, +3.43294346518E+002
+2.63565707134E+007, +1.59226530352E+000, +3.45052092515E+002
+2.64816020025E+007, +1.62080308371E+000, +3.47072699719E+002
+2.66066332916E+007, +1.79532827771E+000, +3.49211081365E+002
+2.67316645807E+007, +1.48451945768E+000, +3.52205188530E+002
+2.68566958698E+007, +1.68123950028E+000, +3.54064602853E+002
+2.69817271589E+007, +1.89509606832E+000, +3.54791892410E+002
+2.71067584481E+007, +1.75523698841E+000, +3.57949142899E+002
+2.72317897372E+007, +1.51975021199E+000, +3.59535088570E+002
+2.73568210263E+007, +1.26379752465E+000, +3.60598362400E+002
+2.74818523154E+007, +1.20143668586E+000, +3.63073368035E+002
+2.76068836045E+007, +1.56050403662E+000, +3.64822409972E+002
+2.77319148936E+007, +1.22487243127E+000, +3.67189041707E+002
+2.78569461827E+007, +1.79086426349E+000, +3.68882418155E+002
+2.79819774718E+007, +1.60147099456E+000, +3.71089684425E+002
+2.81070087610E+007, +1.43431654243E+000, +3.72557945448E+002
+2.82320400501E+007, +1.52302013754E+000, +3.75189030038E+002
+2.83570713392E+007, +1.34768827381E+000, +3.77317643662E+002
+2.84821026283E+007, +1.65423281520E+000, +3.79089915587E+002
+2.86071339174E+007, +1.73907057907E+000, +3.80929164070E+002
+2.87321652065E+007, +2.04728746725E+000, +3.83640329740E+002
+2.88571964956E+007, +1.31337724704E+000, +3.86286257558E+002
+2.89822277847E+007, +1.64904868016E+000, +3.87941572072E+002
+2.91072590738E+007, +1.27588088441E+000, +3.89679264868E+002
+2.92322903630E+007, +1.14599892645E+000, +3.92480890429E+002
+2.93573216521E+007, +1.08944677758E+000, +3.94431122615E+002
+2.94823529412E+007, +1.19765001714E+000, +3.95924814585E+002
+2.96073842303E+007, +1.14181500837E+000, +3.98823960526E+002
+2.97324155194E+007, +6.37911207598E-001, +3.99974948983E+002
+2.98574468085E+007, +1.96997453166E-001, +4.02818418688E+002
+2.99824780976E+007, +1.21445745830E+000, +4.05010539613E+002
+3.01075093867E+007, +1.90373409695E+000, +4.06701927340E+002
+3.02325406758E+007, +1.29383129754E+000, +4.08999554883E+002
+3.03575719650E+007, -1.29902070028E-001, +4.11341559899E+002
+3.04826032541E+007, +3.22884281964E-001, +4.12424244088E+002
+3.06076345432E+007, +1.49075745013E+000, +4.15435003218E+002
+3.07326658323E+007, -2.03017914158E-002, +4.18266616634E+002
+3.08576971214E+007, +6.58652733225E-001, +4.20292086443E+002
+3.09827284105E+007, +7.51913384363E-001, +4.21512829196E+002
+3.11077596996E+007, -1.90062490952E-001, +4.24337793303E+002
+3.12327909887E+007, +1.17033639255E+000, +4.26468120028E+002
+3.13578222778E+007, +1.81318572054E-001, +4.29245700896E+002
+3.14828535670E+007, +1.40558587855E+000, +4.30278691282E+002
+3.16078848561E+007, +1.07170476345E+000, +4.32620568515E+002
+3.17329161452E+007, +1.54756082100E+000, +4.35063431229E+002
+3.18579474343E+007, +5.49553778830E-001, +4.37899825357E+002
+3.19829787234E+007, +9.09005957099E-001, +4.39183477073E+002
+3.21080100125E+007, +8.21943023428E-001, +4.42298511112E+002
+3.22330413016E+007, +1.15113859667E+000, +4.44234706032E+002
+3.23580725907E+007, +6.75565725965E-001, +4.46418686150E+002
+3.24831038798E+007, +1.10032649051E+000, +4.48951557984E+002
+3.26081351690E+007, +1.26539988253E+000, +4.50807791135E+002
+3.27331664581E+007, +1.07273153151E+000, +4.53143144820E+002
+3.28581977472E+007, -2.17528748763E-001, +4.56258378312E+002
+3.29832290363E+007, +3.60542788956E-001, +4.58538977037E+002
+3.31082603254E+007, +9.99975035096E-001, +4.60908280485E+002
+3.32332916145E+007, +9.47111557716E-001, +4.63009375691E+002
+3.33583229036E+007, +7.70624229510E-001, +4.65437295628E+002
+3.34833541927E+007, +8.33062540435E-001, +4.67180768523E+002
+3.36083854819E+007, +5.66806435838E-001, +4.69833190735E+002
+3.37334167710E+007, +9.89072002412E-001, +4.71393984520E+002
+3.38584480601E+007, +4.39356490306E-001, +4.74872038318E+002
+3.39834793492E+007, +1.30267186570E+000, +4.76887693117E+002
+3.41085106383E+007, +1.40911710354E-001, +4.79909930592E+002
+3.42335419274E+007, +1.33997104936E+000, +4.82953155632E+002
+3.43585732165E+007, +3.60721009370E-001, +4.85442688594E+002
+3.44836045056E+007, +4.93386197169E-001, +4.86420237226E+002
+3.46086357947E+007, +9.22202297552E-001, +4.89538925658E+002
+3.47336670839E+007, +1.52203466901E+000, +4.92063390120E+002
+3.48586983730E+007, +1.10521807272E+000, +4.94802110866E+002
+3.49837296621E+007, +3.77147019043E-001, +4.96170748185E+002
+3.51087609512E+007, +1.46534796532E+000, +4.99531412853E+002
+3.52337922403E+007, +1.03756875186E+000, +5.01090720982E+002
+3.53588235294E+007, +1.29632997843E+000, +5.04786544858E+002
+3.54838548185E+007, +1.98847409947E+000, +5.06745556642E+002
+3.56088861076E+007, +1.21383032012E+000, +5.08634384544E+002
+3.57339173967E+007, +3.64397476457E-001, +5.11139004860E+002
+3.58589486859E+007, +1.18363676232E+000, +5.12562782587E+002
+3.59839799750E+007, -5.48610065574E-001, +5.15990869354E+002
+3.61090112641E+007, +2.83755890079E+000, +5.17299592214E+002
+3.62340425532E+007, +3.37169771626E-001, +5.21500624630E+002
+3.63590738423E+007, +6.89453458688E-001, +5.23631309058E+002
+3.64841051314E+007, +5.57257972963E-002, +5.26593553766E+002
+3.66091364205E+007, +1.78080659539E+000, +5.28537000840E+002
+3.67341677096E+007, +1.76587714652E+000, +5.32004804207E+002
+3.68591989987E+007, +1.86516490910E+000, +5.34406320186E+002
+3.69842302879E+007, +8.92237112242E-001, +5.36479482331E+002
+3.71092615770E+007, +1.66305767653E+000, +5.40583494082E+002
+3.72342928661E+007, +2.92941737680E-001, +5.42842759150E+002
+3.73593241552E+007, +2.49338774972E-001, +5.45988809030E+002
+3.74843554443E+007, -7.64243134760E-001, +5.48196813761E+002
+3.76093867334E+007, +9.18239629841E-001, +5.48893425910E+002
+3.77344180225E+007, +1.29283378450E+000, +5.53619988989E+002
+3.78594493116E+007, +1.65168340918E+000, +5.55178912605E+002
+3.79844806008E+007, +5.96503533281E-001, +5.58008030251E+002
+3.81095118899E+007, +6.99675920856E-001, +5.59129374993E+002
+3.82345431790E+007, -6.45477898354E-003, +5.62406690388E+002
+3.83595744681E+007, +9.67933502828E-001, +5.66934596480E+002
+3.84846057572E+007, +2.48574443462E+000, +5.70279600206E+002
+3.86096370463E+007, +7.19951628219E-001, +5.73097115188E+002
+3.87346683354E+007, +2.26475840042E+000, +5.74240592590E+002
+3.88596996245E+007, +2.35164833433E+000, +5.77971205622E+002
+3.89847309136E+007, +5.40901626162E-001, +5.81116935392E+002
+3.91097622028E+007, +1.45874579832E+000, +5.83195700258E+002
+3.92347934919E+007, +1.40960394186E+000, +5.87954775925E+002
+3.93598247810E+007, +1.26873634454E+000, +5.89172423188E+002
+3.94848560701E+007, +2.02530898056E+000, +5.92721075477E+002
+3.96098873592E+007, +2.40660376423E+000, +5.96143707185E+002
+3.97349186483E+007, +1.20242034500E-001, +5.98548630371E+002
+3.98599499374E+007, +5.63609933482E-001, +6.03653819057E+002
+3.99849812265E+007, +1.66869102856E+000, +6.04980553809E+002
+4.01100125156E+007, +1.11789858535E+000, +6.07167788782E+002
