"# Channel 1"
"# Trace 1"
Frequency, Formatted Data, Formatted Data
+1.00000000000E+005, +2.08847402452E-001, +1.22850916584E+000
+2.66777963272E+005, +2.26491849883E-001, +3.22564049473E+000
+4.33555926544E+005, +2.45502879355E-001, +5.24161724360E+000
+6.00333889816E+005, +2.88417262867E-001, +7.19408593518E+000
+7.67111853088E+005, +3.21292248300E-001, +9.19738873205E+000
+9.33889816361E+005, +3.36358662373E-001, +1.11632338987E+001
+1.10066777963E+006, +2.84724026880E-001, +1.31407115375E+001
+1.26744574290E+006, +3.52418064739E-001, +1.50849278104E+001
+1.43422370618E+006, +2.79969665115E-001, +1.70872948548E+001
+1.60100166945E+006, +3.74215419964E-001, +1.90365241096E+001
+1.76777963272E+006, +3.74340318119E-001, +2.09871021490E+001
+1.93455759599E+006, +4.04042586705E-001, +2.29164692823E+001
+2.10133555927E+006, +4.16503743083E-001, +2.48824053068E+001
+2.26811352254E+006, +4.47133037895E-001, +2.68663102831E+001
+2.43489148581E+006, +4.26441745285E-001, +2.88623101968E+001
+2.60166944908E+006, +4.14438419891E-001, +3.08086038238E+001
+2.76844741235E+006, +4.01536981813E-001, +3.27756675975E+001
+2.93522537563E+006, +4.08881675560E-001, +3.47287386248E+001
+3.10200333890E+006, +5.11827071050E-001, +3.66903797649E+001
+3.26878130217E+006, +3.96862722553E-001, +3.86774621815E+001
+3.43555926544E+006, +4.48319035731E-001, +4.06594716744E+001
+3.60233722871E+006, +4.82475184772E-001, +4.26316928304E+001
+3.76911519199E+006, +4.30579462903E-001, +4.46628916119E+001
+3.93589315526E+006, +4.20830454121E-001, +4.65061726742E+001
+4.10267111853E+006, +3.28929417838E-001, +4.84569985186E+001
+4.26944908180E+006, +3.74623159714E-001, +5.07038828476E+001
+4.43622704508E+006, +4.54588418823E-001, +5.25256702668E+001
+4.60300500835E+006, +4.74753308540E-001, +5.45706066074E+001
+4.76978297162E+006, +4.24350251160E-001, +5.64375077924E+001
+4.93656093489E+006, +5.37719727345E-001, +5.85038083682E+001
+5.10333889816E+006, +5.48235296417E-001, +6.04272414891E+001
+5.27011686144E+006, +6.16380267457E-001, +6.25926849434E+001
+5.43689482471E+006, +4.84463704152E-001, +6.45155301007E+001
+5.60367278798E+006, +5.14340835912E-001, +6.65852724841E+001
+5.77045075125E+006, +4.75109006478E-001, +6.84565628448E+001
+5.93722871452E+006, +5.83735662451E-001, +7.04926142699E+001
+6.10400667780E+006, +5.73023918379E-001, +7.25395540831E+001
+6.27078464107E+006, +6.78668243834E-001, +7.45000287119E+001
+6.43756260434E+006, +6.77461138348E-001, +7.65174474026E+001
+6.60434056761E+006, +6.80586362559E-001, +7.85291284507E+001
+6.77111853088E+006, +7.34171204628E-001, +8.04862956907E+001
+6.93789649416E+006, +6.85392100683E-001, +8.25050109856E+001
+7.10467445743E+006, +6.76010337468E-001, +8.44355995541E+001
+7.27145242070E+006, +7.50490577128E-001, +8.64275315865E+001
+7.43823038397E+006, +7.75028379164E-001, +8.84664043562E+001
+7.60500834725E+006, +6.93680322089E-001, +9.04835501209E+001
+7.77178631052E+006, +7.40469781683E-001, +9.25854463927E+001
+7.93856427379E+006, +7.08485961853E-001, +9.44941388173E+001
+8.10534223706E+006, +7.39193194199E-001, +9.65108645106E+001
+8.27212020033E+006, +7.45889128018E-001, +9.85143637430E+001
+8.43889816361E+006, +6.97827253617E-001, +1.00586943981E+002
+8.60567612688E+006, +5.89844382106E-001, +1.02607624809E+002
+8.77245409015E+006, +6.35778357435E-001, +1.04583279592E+002
+8.93923205342E+006, +6.52338979172E-001, +1.06678532592E+002
+9.10601001669E+006, +6.78899834785E-001, +1.08730903008E+002
+9.27278797997E+006, +6.40005976639E-001, +1.10769363889E+002
+9.43956594324E+006, +5.79670142228E-001, +1.12796323830E+002
+9.60634390651E+006, +6.13243618566E-001, +1.14882382982E+002
+9.77312186978E+006, +5.87792810116E-001, +1.16935696779E+002
+9.93989983306E+006, +6.41424830284E-001, +1.19033105941E+002
+1.01066777963E+007, +5.39974146300E-001, +1.21026925013E+002
+1.02734557596E+007, +5.04636990772E-001, +1.23191778865E+002
+1.04402337229E+007, +5.52186391932E-001, +1.25247530664E+002
+1.06070116861E+007, +4.69410580040E-001, +1.27297340949E+002
+1.07737896494E+007, +5.65490742006E-001, +1.29442082254E+002
+1.09405676127E+007, +6.22590479540E-001, +1.31451864102E+002
+1.11073455760E+007, +5.11161910617E-001, +1.33633758592E+002
+1.12741235392E+007, +5.60913250305E-001, +1.35650416043E+002
+1.14409015025E+007, +6.55560323853E-001, +1.37728360827E+002
+1.16076794658E+007, +6.49191492812E-001, +1.39880965083E+002
+1.17744574290E+007, +5.79627879197E-001, +1.42070780088E+002
+1.19412353923E+007, +4.94452633614E-001, +1.44029538986E+002
+1.21080133556E+007, +3.98397024065E-001, +1.46361496421E+002
+1.22747913189E+007, +5.30369023739E-001, +1.48438577282E+002
+1.24415692821E+007, +5.07578858867E-001, +1.50523124655E+002
+1.26083472454E+007, +3.71598039668E-001, +1.52711227758E+002
+1.27751252087E+007, +4.62930594560E-001, +1.54764342185E+002
+1.29419031720E+007, +3.77979583225E-001, +1.56806605912E+002
+1.31086811352E+007, +4.98473437261E-001, +1.59085078760E+002
+1.32754590985E+007, +5.96988063804E-001, +1.61217067668E+002
+1.34422370618E+007, +5.67135086371E-001, +1.63295307214E+002
+1.36090150250E+007, +6.42259997533E-001, +1.65434112563E+002
+1.37757929883E+007, +3.60553792054E-001, +1.67605127804E+002
+1.39425709516E+007, +6.73882808824E-001, +1.69764634391E+002
+1.41093489149E+007, +6.66243364391E-001, +1.71966865152E+002
+1.42761268781E+007, +6.45417387515E-001, +1.74078720380E+002
+1.44429048414E+007, +7.20821814994E-001, +1.76199182979E+002
+1.46096828047E+007, +6.70597119514E-001, +1.78380296328E+002
+1.47764607679E+007, +7.84040844656E-001, +1.80677908224E+002
+1.49432387312E+007, +4.93362085436E-001, +1.82906361672E+002
+1.51100166945E+007, +5.34108701802E-001, +1.85244884801E+002
+1.52767946578E+007, +7.47059849543E-001, +1.87402679055E+002
+1.54435726210E+007, +7.36111503784E-001, +1.89490130522E+002
+1.56103505843E+007, +7.27712966472E-001, +1.91701049791E+002
+1.57771285476E+007, +7.27357369458E-001, +1.93875269388E+002
+1.59439065109E+007, +5.36634143319E-001, +1.96069522244E+002
+1.61106844741E+007, +6.68736217429E-001, +1.98517403349E+002
+1.62774624374E+007, +9.02482044747E-001, +2.00571807584E+002
+1.64442404007E+007, +6.62707268615E-001, +2.02813209766E+002
+1.66110183639E+007, +6.96309316598E-001, +2.05120902454E+002
+1.67777963272E+007, +8.24502805977E-001, +2.07517076186E+002
+1.69445742905E+007, +1.00706085168E+000, +2.09467465951E+002
+1.71113522538E+007, +2.50100901495E-001, +2.11793265303E+002
+1.72781302170E+007, +6.17867003203E-001, +2.14192484956E+002
+1.74449081803E+007, +5.19264240819E-001, +2.16279694118E+002
+1.76116861436E+007, +9.15229764407E-001, +2.18848316325E+002
+1.77784641068E+007, +5.86025656485E-001, +2.20922278620E+002
+1.79452420701E+007, +9.30402850582E-001, +2.23284495740E+002
+1.81120200334E+007, +1.02652941681E+000, +2.25430293724E+002
+1.82787979967E+007, +1.19191371213E+000, +2.27976998781E+002
+1.84455759599E+007, +9.78045908373E-001, +2.30265325868E+002
+1.86123539232E+007, +1.45301935072E+000, +2.32496212177E+002
+1.87791318865E+007, +8.60231692308E-001, +2.34981592392E+002
+1.89459098497E+007, +1.01207058971E+000, +2.37483272573E+002
+1.91126878130E+007, +1.00406894389E+000, +2.39639780098E+002
+1.92794657763E+007, +1.08921985904E+000, +2.41933715632E+002
+1.94462437396E+007, +1.10266411645E+000, +2.44715695545E+002
+1.96130217028E+007, +1.01974398436E+000, +2.47067779957E+002
+1.97797996661E+007, +1.17015679764E+000, +2.49233487718E+002
+1.99465776294E+007, +5.53934231553E-001, +2.51508716113E+002
+2.01133555927E+007, +8.15311659495E-001, +2.53941392938E+002
+2.02801335559E+007, +8.88489485145E-001, +2.56648183317E+002
+2.04469115192E+007, +1.26981246677E+000, +2.58884123861E+002
+2.06136894825E+007, +1.12971022255E+000, +2.61572753000E+002
+2.07804674457E+007, +1.10837177926E+000, +2.64286444371E+002
+2.09472454090E+007, +1.11966144772E+000, +2.66544740097E+002
+2.11140233723E+007, +1.55025344770E+000, +2.68666624909E+002
+2.12808013356E+007, +1.66701700291E+000, +2.71094024627E+002
+2.14475792988E+007, +1.65011171685E+000, +2.73853967496E+002
+2.16143572621E+007, +1.69183613237E+000, +2.76172145185E+002
+2.17811352254E+007, +1.36793576740E+000, +2.78335527002E+002
+2.19479131886E+007, +1.83366487864E+000, +2.81087032698E+002
+2.21146911519E+007, +2.23251621784E+000, +2.83288285477E+002
+2.22814691152E+007, +1.92937373509E+000, +2.85959028786E+002
+2.24482470785E+007, +1.91613547584E+000, +2.88916912618E+002
+2.26150250417E+007, +2.28666411828E+000, +2.91334111813E+002
+2.27818030050E+007, +1.77169516005E+000, +2.93894852085E+002
+2.29485809683E+007, +2.40663163318E+000, +2.96010089545E+002
+2.31153589316E+007, +2.01725792727E+000, +2.99042844312E+002
+2.32821368948E+007, +2.39191241426E+000, +3.01956181660E+002
+2.34489148581E+007, +2.43278412886E+000, +3.03578742734E+002
+2.36156928214E+007, +2.47991596549E+000, +3.07035088570E+002
+2.37824707846E+007, +2.74001808479E+000, +3.09117012306E+002
+2.39492487479E+007, +2.77655357242E+000, +3.11626942671E+002
+2.41160267112E+007, +2.43595131338E+000, +3.14609889937E+002
+2.42828046745E+007, +2.40904774177E+000, +3.16787289649E+002
+2.44495826377E+007, +2.94947678919E+000, +3.19750900908E+002
+2.46163606010E+007, +2.71605335007E+000, +3.22122903531E+002
+2.47831385643E+007, +2.46103970866E+000, +3.25027125247E+002
+2.49499165275E+007, +2.88275878693E+000, +3.27576304084E+002
+2.51166944908E+007, +3.43006434717E+000, +3.29554239472E+002
+2.52834724541E+007, +3.65470961698E+000, +3.32786313921E+002
+2.54502504174E+007, +3.99325965288E+000, +3.35875095442E+002
+2.56170283806E+007, +3.67056697560E+000, +3.38058049885E+002
+2.57838063439E+007, +4.06759837702E+000, +3.41185781447E+002
+2.59505843072E+007, +4.17108931854E+000, +3.43802339518E+002
+2.61173622705E+007, +4.04411653863E+000, +3.46563480342E+002
+2.62841402337E+007, +3.53684525470E+000, +3.49285911293E+002
+2.64509181970E+007, +4.17179643552E+000, +3.52363418507E+002
+2.66176961603E+007, +3.78373245013E+000, +3.55234153622E+002
+2.67844741235E+007, +4.11475351771E+000, +3.57805941904E+002
+2.69512520868E+007, +4.37205397182E+000, +3.60042814453E+002
+2.71180300501E+007, +4.27203693471E+000, +3.62108713437E+002
+2.72848080134E+007, +4.48061935824E+000, +3.65692066610E+002
+2.74515859766E+007, +4.45271139698E+000, +3.68587890357E+002
+2.76183639399E+007, +5.30351364998E+000, +3.70700614355E+002
+2.77851419032E+007, +4.76154908113E+000, +3.73881643239E+002
+2.79519198664E+007, +5.04514278454E+000, +3.76182750178E+002
+2.81186978297E+007, +4.64128063063E+000, +3.79047789135E+002
+2.82854757930E+007, +5.04899832238E+000, +3.81869955296E+002
+2.84522537563E+007, +4.01906457031E+000, +3.84766838375E+002
+2.86190317195E+007, +4.53344780556E+000, +3.87702139299E+002
+2.87858096828E+007, +5.19107950623E+000, +3.91931746868E+002
+2.89525876461E+007, +4.90746709623E+000, +3.93849493542E+002
+2.91193656093E+007, +4.87340640295E+000, +3.96621571226E+002
+2.92861435726E+007, +4.56660094187E+000, +3.99858490690E+002
+2.94529215359E+007, +4.82122134077E+000, +4.02616248691E+002
+2.96196994992E+007, +4.86805289540E+000, +4.05249454694E+002
+2.97864774624E+007, +5.65549335182E+000, +4.09586586332E+002
+2.99532554257E+007, +5.76170359898E+000, +4.12429176975E+002
+3.01200333890E+007, +5.11688449759E+000, +4.15751124685E+002
+3.02868113523E+007, +4.86365937062E+000, +4.18774586708E+002
+3.04535893155E+007, +5.53885545257E+000, +4.22206637072E+002
+3.06203672788E+007, +5.04571412706E+000, +4.24268132024E+002
+3.07871452421E+007, +4.90528298010E+000, +4.28727813599E+002
+3.09539232053E+007, +5.18301958629E+000, +4.31099032297E+002
+3.11207011686E+007, +4.56769930651E+000, +4.34488474548E+002
+3.12874791319E+007, +5.05881158364E+000, +4.36841610781E+002
+3.14542570952E+007, +4.81533772614E+000, +4.40398591880E+002
+3.16210350584E+007, +4.75206208112E+000, +4.44391071026E+002
+3.17878130217E+007, +5.34777385150E+000, +4.46148630930E+002
+3.19545909850E+007, +4.03237783855E+000, +4.50854821820E+002
+3.21213689482E+007, +4.09798540825E+000, +4.54374211535E+002
+3.22881469115E+007, +4.46906376907E+000, +4.56040709747E+002
+3.24549248748E+007, +5.00549880841E+000, +4.60403710287E+002
+3.26217028381E+007, +4.37610393012E+000, +4.64323416973E+002
+3.27884808013E+007, +5.28335339899E+000, +4.67567662715E+002
+3.29552587646E+007, +5.38225999351E+000, +4.70772555447E+002
+3.31220367279E+007, +5.18951205034E+000, +4.73925530150E+002
+3.32888146912E+007, +5.12352389234E+000, +4.78549354819E+002
+3.34555926544E+007, +3.88776285988E+000, +4.81760745250E+002
+3.36223706177E+007, +4.59964640792E+000, +4.85314333960E+002
+3.37891485810E+007, +4.71519888961E+000, +4.88194578113E+002
+3.39559265442E+007, +4.66158489145E+000, +4.92972447801E+002
+3.41227045075E+007, +3.78578961649E+000, +4.95468690015E+002
+3.42894824708E+007, +4.37102371777E+000, +4.99164880331E+002
+3.44562604341E+007, +5.33117040215E+000, +5.02449129634E+002
+3.46230383973E+007, +4.40376843710E+000, +5.07164678997E+002
+3.47898163606E+007, +5.05296901900E+000, +5.10595186612E+002
+3.49565943239E+007, +6.84638749967E+000, +5.15149821290E+002
+3.51233722871E+007, +4.89256477797E+000, +5.17935573869E+002
+3.52901502504E+007, +5.11678409164E+000, +5.21883577419E+002
+3.54569282137E+007, +5.27305487746E+000, +5.26567137865E+002
+3.56237061770E+007, +4.63696999965E+000, +5.29258623171E+002
+3.57904841402E+007, +5.35213185492E+000, +5.33655861517E+002
+3.59572621035E+007, +6.09885618738E+000, +5.37558036383E+002
+3.61240400668E+007, +5.80741572186E+000, +5.41152004352E+002
+3.62908180301E+007, +6.29243473463E+000, +5.46441900183E+002
+3.64575959933E+007, +4.78684033838E+000, +5.49964022736E+002
+3.66243739566E+007, +6.38342371232E+000, +5.54135141349E+002
+3.67911519199E+007, +5.72795138715E+000, +5.58645076088E+002
+3.69579298831E+007, +5.49056482921E+000, +5.61791070554E+002
+3.71247078464E+007, +6.80978978706E+000, +5.65673866630E+002
+3.72914858097E+007, +5.52138715959E+000, +5.71129053226E+002
+3.74582637730E+007, +4.67285135791E+000, +5.76989924664E+002
+3.76250417362E+007, +6.75438828614E+000, +5.78981537024E+002
+3.77918196995E+007, +5.57436795193E+000, +5.83153771252E+002
+3.79585976628E+007, +6.25438867429E+000, +5.87827853823E+002
+3.81253756260E+007, +7.40713463261E+000, +5.91864685386E+002
+3.82921535893E+007, +7.69344795410E+000, +5.96183910648E+002
+3.84589315526E+007, +7.44477158213E+000, +6.02097362308E+002
+3.86257095159E+007, +5.83371089639E+000, +6.06629779386E+002
+3.87924874791E+007, +7.45728354197E+000, +6.10028434670E+002
+3.89592654424E+007, +6.60224548679E+000, +6.15111993406E+002
+3.91260434057E+007, +6.94688275689E+000, +6.21324510437E+002
+3.92928213689E+007, +7.28016498398E+000, +6.26136530749E+002
+3.94595993322E+007, +5.88870038683E+000, +6.30304317249E+002
+3.96263772955E+007, +6.98514089907E+000, +6.35139777868E+002
+3.97931552588E+007, +6.05965045880E+000, +6.39716924302E+002
+3.99599332220E+007, +7.25187734301E+000, +6.45456964759E+002
+4.01267111853E+007, +7.90599884255E+000, +6.49900972894E+002
+4.02934891486E+007, +6.98989145980E+000, +6.54872761676E+002
+4.04602671119E+007, +8.34236820163E+000, +6.59825166659E+002
+4.06270450751E+007, +8.66376780249E+000, +6.67517284360E+002
+4.07938230384E+007, +9.98277736985E+000, +6.70967212047E+002
+4.09606010017E+007, +8.32675016510E+000, +6.75589428796E+002
+4.11273789649E+007, +8.29082347045E+000, +6.80007555787E+002
+4.12941569282E+007, +7.72439692236E+000, +6.86748754846E+002
+4.14609348915E+007, +7.20992800615E+000, +6.94839093528E+002
+4.16277128548E+007, +8.81010813327E+000, +6.98514143989E+002
+4.17944908180E+007, +9.36127114050E+000, +7.02932901349E+002
+4.19612687813E+007, +9.09069999953E+000, +7.09242084540E+002
+4.21280467446E+007, +7.98393672330E+000, +7.15546875481E+002
+4.22948247078E+007, +9.64997461029E+000, +7.20209821549E+002
+4.24616026711E+007, +1.10842552521E+001, +7.26246721579E+002
+4.26283806344E+007, +1.06136262010E+001, +7.32524369106E+002
+4.27951585977E+007, +7.60053550885E+000, +7.38927958552E+002
+4.29619365609E+007, +1.27554554817E+001, +7.45201067197E+002
+4.31287145242E+007, +1.15472235351E+001, +7.51029386705E+002
+4.32954924875E+007, +1.25576170921E+001, +7.57730365578E+002
+4.34622704508E+007, +1.26757049670E+001, +7.63664281634E+002
+4.36290484140E+007, +1.31051763594E+001, +7.68795875414E+002
+4.37958263773E+007, +9.70276170067E+000, +7.77583542983E+002
+4.39626043406E+007, +1.52328495859E+001, +7.83456017357E+002
+4.41293823038E+007, +1.14855214009E+001, +7.91952394560E+002
+4.42961602671E+007, +9.83835200742E+000, +7.95579994658E+002
+4.44629382304E+007, +1.18433534190E+001, +8.01972167639E+002
+4.46297161937E+007, +1.36288073427E+001, +8.07243184301E+002
+4.47964941569E+007, +1.08406672626E+001, +8.16919352066E+002
+4.49632721202E+007, +1.17758499196E+001, +8.26770020663E+002
+4.51300500835E+007, +1.18219886492E+001, +8.27190870729E+002
+4.52968280467E+007, +1.55594252054E+001, +8.38355150610E+002
+4.54636060100E+007, +1.63554337524E+001, +8.49120884297E+002
+4.56303839733E+007, +1.53215182224E+001, +8.57351190605E+002
+4.57971619366E+007, +1.46294736769E+001, +8.62788554258E+002
+4.59639398998E+007, +1.33167655012E+001, +8.74994103636E+002
+4.61307178631E+007, +1.77174360826E+001, +8.79346149156E+002
+4.62974958264E+007, +1.96711923851E+001, +8.87014381699E+002
+4.64642737896E+007, +1.75504243136E+001, +8.95139469428E+002
+4.66310517529E+007, +1.64755712931E+001, +9.03701166004E+002
+4.67978297162E+007, +2.26393629517E+001, +9.06926269963E+002
+4.69646076795E+007, +1.71666140096E+001, +9.26250147415E+002
+4.71313856427E+007, +2.08340576884E+001, +9.30900173453E+002
+4.72981636060E+007, +1.88293401206E+001, +9.41872127231E+002
+4.74649415693E+007, +1.80767956074E+001, +9.47824461748E+002
+4.76317195326E+007, +2.38269719044E+001, +9.56654709815E+002
+4.77984974958E+007, +2.65188949332E+001, +9.69903370273E+002
+4.79652754591E+007, +2.42799746584E+001, +9.75347032764E+002
+4.81320534224E+007, +2.82868231258E+001, +9.87191060430E+002
+4.82988313856E+007, +2.55479467258E+001, +9.93440341879E+002
+4.84656093489E+007, +2.81790899083E+001, +1.00380859690E+003
+4.86323873122E+007, +3.17967051471E+001, +1.01445190873E+003
+4.87991652755E+007, +3.55228666958E+001, +1.02420213066E+003
+4.89659432387E+007, +3.18727531547E+001, +1.03432223234E+003
+4.91327212020E+007, +3.49490983769E+001, +1.04562740715E+003
+4.92994991653E+007, +3.81550982408E+001, +1.05460640046E+003
+4.94662771285E+007, +4.14114468343E+001, +1.06665228907E+003
+4.96330550918E+007, +3.99822758632E+001, +1.07439900018E+003
+4.97998330551E+007, +4.56171251119E+001, +1.08814528082E+003
+4.99666110184E+007, +4.54527804500E+001, +1.10060018532E+003
+5.01333889816E+007, +4.34790246193E+001, +1.10672398149E+003
+5.03001669449E+007, +4.76321735501E+001, +1.12222816023E+003
+5.04669449082E+007, +5.10956571962E+001, +1.13426807440E+003
+5.06337228715E+007, +5.11721297591E+001, +1.14972009060E+003
+5.08005008347E+007, +4.77869080564E+001, +1.15299874414E+003
+5.09672787980E+007, +5.72532857499E+001, +1.16834634586E+003
+5.11340567613E+007, +5.54100024570E+001, +1.18925350478E+003
+5.13008347245E+007, +5.48206734456E+001, +1.20046999294E+003
+5.14676126878E+007, +5.03607741040E+001, +1.20974567305E+003
+5.16343906511E+007, +6.39386866482E+001, +1.23033676011E+003
+5.18011686144E+007, +5.69143812676E+001, +1.24369621364E+003
+5.19679465776E+007, +6.50685272401E+001, +1.25572647126E+003
+5.21347245409E+007, +6.61117583640E+001, +1.26917702361E+003
+5.23015025042E+007, +7.05993663047E+001, +1.29758669872E+003
+5.24682804674E+007, +7.22923641223E+001, +1.31141546407E+003
+5.26350584307E+007, +7.47497701013E+001, +1.32188994788E+003
+5.28018363940E+007, +7.31710386581E+001, +1.34480653409E+003
+5.29686143573E+007, +7.30320471753E+001, +1.35793028504E+003
+5.31353923205E+007, +8.40711557226E+001, +1.36760619050E+003
+5.33021702838E+007, +8.41133489771E+001, +1.38830460825E+003
+5.34689482471E+007, +9.42309048304E+001, +1.41543423474E+003
