"# Channel 1"
"# Trace 1"
Frequency, Formatted Data, Formatted Data
+1.00000000000E+005, +2.41456513601E-001, +1.32841273478E+000
+2.66777963272E+005, +2.51055262296E-001, +3.50154203940E+000
+4.33555926544E+005, +2.82727005127E-001, +5.68633318884E+000
+6.00333889816E+005, +3.38737406739E-001, +7.81018793247E+000
+7.67111853088E+005, +3.73338408825E-001, +9.97416628969E+000
+9.33889816361E+005, +3.97572603073E-001, +1.20919979744E+001
+1.10066777963E+006, +3.72865816296E-001, +1.42237222370E+001
+1.26744574290E+006, +4.47946803690E-001, +1.63485876108E+001
+1.43422370618E+006, +3.80827212210E-001, +1.84954559868E+001
+1.60100166945E+006, +4.93794117103E-001, +2.05832482599E+001
+1.76777963272E+006, +4.81176419612E-001, +2.27158124645E+001
+1.93455759599E+006, +5.09989837258E-001, +2.47736213130E+001
+2.10133555927E+006, +5.39881754719E-001, +2.68920979545E+001
+2.26811352254E+006, +5.78663111674E-001, +2.90309871991E+001
+2.43489148581E+006, +5.58197491590E-001, +3.11820203725E+001
+2.60166944908E+006, +5.49689904695E-001, +3.32609200689E+001
+2.76844741235E+006, +5.58043106027E-001, +3.54129284572E+001
+2.93522537563E+006, +5.42514683434E-001, +3.74858723408E+001
+3.10200333890E+006, +6.32652796399E-001, +3.95845091714E+001
+3.26878130217E+006, +5.06199439471E-001, +4.17243553384E+001
+3.43555926544E+006, +5.99325403127E-001, +4.38390380157E+001
+3.60233722871E+006, +6.12200854451E-001, +4.60078992740E+001
+3.76911519199E+006, +5.63960611459E-001, +4.81365393223E+001
+3.93589315526E+006, +5.52921474350E-001, +5.01308006569E+001
+4.10267111853E+006, +5.42032529246E-001, +5.23832419562E+001
+4.26944908180E+006, +5.56977187125E-001, +5.45455479431E+001
+4.43622704508E+006, +6.14929830000E-001, +5.65778064169E+001
+4.60300500835E+006, +6.26318371060E-001, +5.87817042930E+001
+4.76978297162E+006, +6.39139133538E-001, +6.07792986196E+001
+4.93656093489E+006, +6.60843960319E-001, +6.29949012402E+001
+5.10333889816E+006, +6.86533352223E-001, +6.50431461808E+001
+5.27011686144E+006, +7.17805963168E-001, +6.73091339402E+001
+5.43689482471E+006, +6.43111786830E-001, +6.93768551237E+001
+5.60367278798E+006, +6.15279262003E-001, +7.15892724951E+001
+5.77045075125E+006, +5.96132818274E-001, +7.35741254656E+001
+5.93722871452E+006, +7.23869719150E-001, +7.57618360070E+001
+6.10400667780E+006, +6.47711801236E-001, +7.79356913295E+001
+6.27078464107E+006, +8.04960685879E-001, +8.00020346980E+001
+6.43756260434E+006, +7.78280962868E-001, +8.22085699961E+001
+6.60434056761E+006, +8.21225383060E-001, +8.43281342200E+001
+6.77111853088E+006, +9.06548834576E-001, +8.64292645435E+001
+6.93789649416E+006, +8.46291565774E-001, +8.85617767303E+001
+7.10467445743E+006, +8.31769342684E-001, +9.06482109843E+001
+7.27145242070E+006, +8.62557675776E-001, +9.27853761114E+001
+7.43823038397E+006, +9.21102921559E-001, +9.48702100479E+001
+7.60500834725E+006, +8.71814898417E-001, +9.70326996343E+001
+7.77178631052E+006, +8.86229915533E-001, +9.92341750821E+001
+7.93856427379E+006, +8.89599083159E-001, +1.01264927554E+002
+8.10534223706E+006, +9.18780275914E-001, +1.03377189752E+002
+8.27212020033E+006, +9.37047402431E-001, +1.05519129359E+002
+8.43889816361E+006, +8.55025235917E-001, +1.07677774729E+002
+8.60567612688E+006, +8.16305729719E-001, +1.09808991535E+002
+8.77245409015E+006, +8.42431538554E-001, +1.11849847070E+002
+8.93923205342E+006, +8.97589642047E-001, +1.14034384823E+002
+9.10601001669E+006, +9.15511963450E-001, +1.16257543315E+002
+9.27278797997E+006, +9.17678573822E-001, +1.18347455660E+002
+9.43956594324E+006, +8.49143337369E-001, +1.20492982728E+002
+9.60634390651E+006, +8.11924176152E-001, +1.22606839360E+002
+9.77312186978E+006, +7.93063501972E-001, +1.24697110878E+002
+9.93989983306E+006, +8.80771515643E-001, +1.26949512465E+002
+1.01066777963E+007, +8.11925574594E-001, +1.28936959207E+002
+1.02734557596E+007, +8.15989123934E-001, +1.31232977112E+002
+1.04402337229E+007, +7.66797757926E-001, +1.33381507929E+002
+1.06070116861E+007, +7.38642956389E-001, +1.35464437325E+002
+1.07737896494E+007, +8.11616023591E-001, +1.37704065473E+002
+1.09405676127E+007, +8.65340629528E-001, +1.39845725616E+002
+1.11073455760E+007, +8.59656414388E-001, +1.41959840151E+002
+1.12741235392E+007, +8.42126397196E-001, +1.44049774464E+002
+1.14409015025E+007, +8.86339632846E-001, +1.46252812628E+002
+1.16076794658E+007, +8.71805596804E-001, +1.48423508086E+002
+1.17744574290E+007, +8.86509462586E-001, +1.50687320134E+002
+1.19412353923E+007, +7.14582390766E-001, +1.52737368968E+002
+1.21080133556E+007, +6.10452927150E-001, +1.54966920808E+002
+1.22747913189E+007, +8.21059348472E-001, +1.57232172728E+002
+1.24415692821E+007, +7.11594301819E-001, +1.59222316613E+002
+1.26083472454E+007, +7.39135870614E-001, +1.61453905268E+002
+1.27751252087E+007, +7.60111571715E-001, +1.63503402709E+002
+1.29419031720E+007, +7.74598654245E-001, +1.65693764897E+002
+1.31086811352E+007, +7.93056003162E-001, +1.67980275947E+002
+1.32754590985E+007, +7.49934583965E-001, +1.70055692218E+002
+1.34422370618E+007, +6.74338422758E-001, +1.72339311351E+002
+1.36090150250E+007, +9.16249475191E-001, +1.74344692652E+002
+1.37757929883E+007, +6.83225336734E-001, +1.76460293631E+002
+1.39425709516E+007, +7.99110448106E-001, +1.78749540549E+002
+1.41093489149E+007, +7.60678941456E-001, +1.80768200200E+002
+1.42761268781E+007, +7.56938821923E-001, +1.83175887509E+002
+1.44429048414E+007, +9.72463516799E-001, +1.85276027447E+002
+1.46096828047E+007, +9.17874879995E-001, +1.87620936849E+002
+1.47764607679E+007, +8.35969154440E-001, +1.89536484426E+002
+1.49432387312E+007, +7.47784043742E-001, +1.91684167502E+002
+1.51100166945E+007, +6.83264188778E-001, +1.94079636431E+002
+1.52767946578E+007, +8.89880773950E-001, +1.95989504025E+002
+1.54435726210E+007, +8.42071494562E-001, +1.98261654454E+002
+1.56103505843E+007, +8.99017341110E-001, +2.00657389571E+002
+1.57771285476E+007, +7.80718414538E-001, +2.02758441301E+002
+1.59439065109E+007, +7.22771689309E-001, +2.04737115095E+002
+1.61106844741E+007, +5.44949073856E-001, +2.07045882885E+002
+1.62774624374E+007, +7.07289626212E-001, +2.09259359691E+002
+1.64442404007E+007, +7.60806866494E-001, +2.11399114898E+002
+1.66110183639E+007, +7.87977931058E-001, +2.13510132816E+002
+1.67777963272E+007, +9.26440329328E-001, +2.15898988168E+002
+1.69445742905E+007, +9.49589643666E-001, +2.17910234358E+002
+1.71113522538E+007, +2.51384573333E-001, +2.19929158101E+002
+1.72781302170E+007, +6.43024841676E-001, +2.22426534226E+002
+1.74449081803E+007, +2.88735853928E-001, +2.24332462940E+002
+1.76116861436E+007, +8.91877895165E-001, +2.26971173982E+002
+1.77784641068E+007, +6.97873102329E-001, +2.28752166144E+002
+1.79452420701E+007, +8.52456438008E-001, +2.31220974097E+002
+1.81120200334E+007, +8.73990916470E-001, +2.33208291126E+002
+1.82787979967E+007, +9.46476840961E-001, +2.35754348546E+002
+1.84455759599E+007, +1.06902683274E+000, +2.37788208532E+002
+1.86123539232E+007, +1.06596115880E+000, +2.40081618144E+002
+1.87791318865E+007, +1.01839984069E+000, +2.42436816972E+002
+1.89459098497E+007, +9.42841477508E-001, +2.44552128018E+002
+1.91126878130E+007, +9.97586539579E-001, +2.46646374787E+002
+1.92794657763E+007, +8.68915832410E-001, +2.48984118799E+002
+1.94462437396E+007, +1.05250652355E+000, +2.51378484528E+002
+1.96130217028E+007, +1.08615410996E+000, +2.53475782389E+002
+1.97797996661E+007, +1.03331599807E+000, +2.55550322426E+002
+1.99465776294E+007, +5.88860421183E-001, +2.57878530636E+002
+2.01133555927E+007, +7.12778082606E-001, +2.59794464486E+002
+2.02801335559E+007, +1.13392438949E+000, +2.62484764967E+002
+2.04469115192E+007, +9.85474240171E-001, +2.65081362602E+002
+2.06136894825E+007, +9.62969920956E-001, +2.67037725374E+002
+2.07804674457E+007, +1.22265890424E+000, +2.69550459931E+002
+2.09472454090E+007, +8.58445810952E-001, +2.71866566287E+002
+2.11140233723E+007, +9.55887295319E-001, +2.73346139357E+002
+2.12808013356E+007, +1.34773572217E+000, +2.75963094271E+002
+2.14475792988E+007, +1.24810343902E+000, +2.78069730698E+002
+2.16143572621E+007, +1.18224529319E+000, +2.80486269968E+002
+2.17811352254E+007, +1.24251237068E+000, +2.82629853047E+002
+2.19479131886E+007, +1.67730725986E+000, +2.85054329591E+002
+2.21146911519E+007, +1.85693100031E+000, +2.86804412656E+002
+2.22814691152E+007, +1.71113721722E+000, +2.89246230869E+002
+2.24482470785E+007, +1.35650109691E+000, +2.91846379602E+002
+2.26150250417E+007, +1.97626474885E+000, +2.94091498282E+002
+2.27818030050E+007, +1.69686893864E+000, +2.96121850452E+002
+2.29485809683E+007, +2.42615549446E+000, +2.98680905727E+002
+2.31153589316E+007, +1.56358964793E+000, +3.00769178805E+002
+2.32821368948E+007, +2.26199988197E+000, +3.03024825058E+002
+2.34489148581E+007, +2.30803598432E+000, +3.04919019477E+002
+2.36156928214E+007, +2.51753042005E+000, +3.07666743551E+002
+2.37824707846E+007, +2.23133360553E+000, +3.09718448495E+002
+2.39492487479E+007, +1.84375413724E+000, +3.11978467206E+002
+2.41160267112E+007, +2.34736085394E+000, +3.14516692293E+002
+2.42828046745E+007, +2.16356268784E+000, +3.16515654190E+002
+2.44495826377E+007, +2.60954132573E+000, +3.19021682776E+002
+2.46163606010E+007, +2.32523218152E+000, +3.21079032905E+002
+2.47831385643E+007, +2.39918971650E+000, +3.23533498068E+002
+2.49499165275E+007, +2.61267503955E+000, +3.25482894377E+002
+2.51166944908E+007, +3.27096851617E+000, +3.27864668770E+002
+2.52834724541E+007, +2.63188585822E+000, +3.30224664389E+002
+2.54502504174E+007, +3.33353543851E+000, +3.32589400173E+002
+2.56170283806E+007, +2.56926876751E+000, +3.34774923215E+002
+2.57838063439E+007, +2.90579126203E+000, +3.37295962469E+002
+2.59505843072E+007, +3.56523334042E+000, +3.39682436056E+002
+2.61173622705E+007, +2.78308263403E+000, +3.41824874412E+002
+2.62841402337E+007, +2.95381700681E+000, +3.44161791084E+002
+2.64509181970E+007, +2.83203233216E+000, +3.46094428036E+002
+2.66176961603E+007, +3.10306321704E+000, +3.49856529058E+002
+2.67844741235E+007, +3.22097324803E+000, +3.51070050022E+002
+2.69512520868E+007, +2.61022018921E+000, +3.53279275084E+002
+2.71180300501E+007, +3.37451688713E+000, +3.54914169471E+002
+2.72848080134E+007, +3.53645406443E+000, +3.57794476782E+002
+2.74515859766E+007, +3.56548144143E+000, +3.59955692112E+002
+2.76183639399E+007, +3.11463156122E+000, +3.62117965082E+002
+2.77851419032E+007, +3.36032494039E+000, +3.64735441704E+002
+2.79519198664E+007, +3.65465655429E+000, +3.66853489661E+002
+2.81186978297E+007, +3.46569153415E+000, +3.69173990419E+002
+2.82854757930E+007, +3.75111302387E+000, +3.71025818773E+002
+2.84522537563E+007, +2.73318213342E+000, +3.73893131872E+002
+2.86190317195E+007, +3.21192209727E+000, +3.76035673833E+002
+2.87858096828E+007, +4.12113397514E+000, +3.78890321758E+002
+2.89525876461E+007, +3.78722514118E+000, +3.80304998399E+002
+2.91193656093E+007, +3.89481240997E+000, +3.82818946870E+002
+2.92861435726E+007, +3.10327963843E+000, +3.84561490886E+002
+2.94529215359E+007, +3.85980817786E+000, +3.87555814694E+002
+2.96196994992E+007, +4.40449782887E+000, +3.90573049710E+002
+2.97864774624E+007, +3.95440033023E+000, +3.92668746411E+002
+2.99532554257E+007, +4.65232328325E+000, +3.94918338567E+002
+3.01200333890E+007, +3.88227454647E+000, +3.96751657386E+002
+3.02868113523E+007, +3.96255178533E+000, +3.99521739846E+002
+3.04535893155E+007, +3.95020519725E+000, +4.02706395112E+002
+3.06203672788E+007, +4.03836110214E+000, +4.03711884012E+002
+3.07871452421E+007, +3.98604386435E+000, +4.06850126355E+002
+3.09539232053E+007, +4.60575671177E+000, +4.08250921261E+002
+3.11207011686E+007, +3.38623841488E+000, +4.12067110548E+002
+3.12874791319E+007, +4.04603157042E+000, +4.12820460349E+002
+3.14542570952E+007, +3.93502587265E+000, +4.15543624868E+002
+3.16210350584E+007, +3.10978925839E+000, +4.18921573715E+002
+3.17878130217E+007, +3.27159699612E+000, +4.19927034820E+002
+3.19545909850E+007, +4.36607985047E+000, +4.23397163690E+002
+3.21213689482E+007, +3.46226603140E+000, +4.25978745865E+002
+3.22881469115E+007, +3.30613536706E+000, +4.27566253198E+002
+3.24549248748E+007, +4.38024040962E+000, +4.30493640597E+002
+3.26217028381E+007, +3.57284240501E+000, +4.32913659838E+002
+3.27884808013E+007, +3.57619910071E+000, +4.35405501057E+002
+3.29552587646E+007, +3.92269954635E+000, +4.37821941453E+002
+3.31220367279E+007, +4.09304192136E+000, +4.40054951962E+002
+3.32888146912E+007, +2.79629139660E+000, +4.42799664039E+002
+3.34555926544E+007, +2.63287746303E+000, +4.44766815056E+002
+3.36223706177E+007, +3.64494229230E+000, +4.46787946807E+002
+3.37891485810E+007, +3.17133322213E+000, +4.49588377465E+002
+3.39559265442E+007, +3.28455733773E+000, +4.53270274101E+002
+3.41227045075E+007, +3.58948013488E+000, +4.54975993317E+002
+3.42894824708E+007, +2.66918812789E+000, +4.57402802240E+002
+3.44562604341E+007, +3.61048187119E+000, +4.59379909762E+002
+3.46230383973E+007, +3.83909244738E+000, +4.62968805538E+002
+3.47898163606E+007, +4.03020041559E+000, +4.65111905405E+002
+3.49565943239E+007, +4.36133920576E+000, +4.67847096190E+002
+3.51233722871E+007, +3.15712703821E+000, +4.69466043983E+002
+3.52901502504E+007, +3.73810994498E+000, +4.71471199022E+002
+3.54569282137E+007, +3.92503308474E+000, +4.75489103658E+002
+3.56237061770E+007, +1.90944147847E+000, +4.77908356791E+002
+3.57904841402E+007, +3.52148923823E+000, +4.80283014876E+002
+3.59572621035E+007, +3.94669545355E+000, +4.83241541613E+002
+3.61240400668E+007, +3.34895951693E+000, +4.85865158494E+002
+3.62908180301E+007, +3.09701377505E+000, +4.88177334102E+002
+3.64575959933E+007, +3.39657302248E+000, +4.91432303015E+002
+3.66243739566E+007, +3.99884119963E+000, +4.92742241627E+002
+3.67911519199E+007, +4.49639582969E+000, +4.96693530733E+002
+3.69579298831E+007, +3.59243264309E+000, +4.97772139719E+002
+3.71247078464E+007, +3.34562898728E+000, +5.01160167061E+002
+3.72914858097E+007, +3.46746490747E+000, +5.04623703388E+002
+3.74582637730E+007, +4.23994078112E+000, +5.07207417115E+002
+3.76250417362E+007, +4.23424385330E+000, +5.10233727489E+002
+3.77918196995E+007, +3.49537843031E+000, +5.12036704822E+002
+3.79585976628E+007, +3.73858904388E+000, +5.15688784220E+002
+3.81253756260E+007, +4.42014584632E+000, +5.17576463753E+002
+3.82921535893E+007, +4.32926722527E+000, +5.19874947391E+002
+3.84589315526E+007, +4.98405417815E+000, +5.22480516791E+002
+3.86257095159E+007, +3.01223497910E+000, +5.25332004236E+002
+3.87924874791E+007, +3.76280915540E+000, +5.27805307148E+002
+3.89592654424E+007, +4.34780060286E+000, +5.31048338177E+002
+3.91260434057E+007, +3.98289062909E+000, +5.33934673798E+002
+3.92928213689E+007, +3.95850062213E+000, +5.36370308083E+002
+3.94595993322E+007, +3.93647481949E+000, +5.40224393745E+002
+3.96263772955E+007, +4.35111330649E+000, +5.42626916700E+002
+3.97931552588E+007, +2.68810523149E+000, +5.44855753559E+002
+3.99599332220E+007, +4.34221902649E+000, +5.47551737392E+002
+4.01267111853E+007, +4.74134084278E+000, +5.51412533430E+002
+4.02934891486E+007, +3.30866748874E+000, +5.52680722344E+002
+4.04602671119E+007, +3.84471290710E+000, +5.55623838322E+002
+4.06270450751E+007, +4.05394382672E+000, +5.59454785278E+002
+4.07938230384E+007, +4.46184581993E+000, +5.61790958672E+002
+4.09606010017E+007, +4.81325006782E+000, +5.64136775618E+002
+4.11273789649E+007, +3.68098759378E+000, +5.67648544588E+002
+4.12941569282E+007, +3.45595814779E+000, +5.71073381662E+002
+4.14609348915E+007, +4.58687105853E+000, +5.76582000377E+002
+4.16277128548E+007, +5.47133809077E+000, +5.77262651358E+002
+4.17944908180E+007, +5.77841891684E+000, +5.78941354144E+002
+4.19612687813E+007, +3.43802830107E+000, +5.81607714011E+002
+4.21280467446E+007, +3.71344265509E+000, +5.85823072381E+002
+4.22948247078E+007, +4.54723359728E+000, +5.89287088497E+002
+4.24616026711E+007, +4.66696184563E+000, +5.91476127895E+002
+4.26283806344E+007, +6.39239406444E+000, +5.94610892056E+002
+4.27951585977E+007, +3.12094982352E+000, +5.98256449222E+002
+4.29619365609E+007, +7.05370856896E+000, +6.00541881054E+002
+4.31287145242E+007, +5.15611701341E+000, +6.04640037933E+002
+4.32954924875E+007, +5.81198031102E+000, +6.06929241568E+002
+4.34622704508E+007, +4.29727470227E+000, +6.10558480579E+002
+4.36290484140E+007, +6.10117047826E+000, +6.13407264536E+002
+4.37958263773E+007, +4.92356525541E+000, +6.16278803490E+002
+4.39626043406E+007, +6.02279970638E+000, +6.19135291229E+002
+4.41293823038E+007, +6.97559185157E+000, +6.24202776311E+002
+4.42961602671E+007, +4.75449764403E+000, +6.25963324446E+002
+4.44629382304E+007, +5.14996737021E+000, +6.30990907831E+002
+4.46297161937E+007, +6.37614186528E+000, +6.33060477721E+002
+4.47964941569E+007, +5.34447067387E+000, +6.35638370621E+002
+4.49632721202E+007, +6.76162346251E+000, +6.39813797228E+002
+4.51300500835E+007, +6.18295854869E+000, +6.41364951344E+002
+4.52968280467E+007, +7.74676106026E+000, +6.45524403755E+002
+4.54636060100E+007, +7.11167770840E+000, +6.51878687627E+002
+4.56303839733E+007, +5.65593414708E+000, +6.53666095124E+002
+4.57971619366E+007, +6.34343747996E+000, +6.55988428119E+002
+4.59639398998E+007, +5.89661346752E+000, +6.61753719323E+002
+4.61307178631E+007, +7.33996442924E+000, +6.63717402629E+002
+4.62974958264E+007, +8.45289052169E+000, +6.68180526957E+002
+4.64642737896E+007, +6.46718087901E+000, +6.70661365972E+002
+4.66310517529E+007, +7.57735084056E+000, +6.73249803128E+002
+4.67978297162E+007, +1.04691532168E+001, +6.76309944473E+002
+4.69646076795E+007, +6.99788369466E+000, +6.82482264179E+002
+4.71313856427E+007, +8.70807225874E+000, +6.85945825087E+002
+4.72981636060E+007, +6.51210263584E+000, +6.90010493184E+002
+4.74649415693E+007, +6.48737780879E+000, +6.93001245801E+002
+4.76317195326E+007, +1.10632750921E+001, +6.96902899345E+002
+4.77984974958E+007, +1.18948053637E+001, +7.01850329103E+002
+4.79652754591E+007, +9.71385972265E+000, +7.05945380292E+002
+4.81320534224E+007, +1.03220349743E+001, +7.07906566058E+002
+4.82988313856E+007, +1.05941471299E+001, +7.11639389139E+002
+4.84656093489E+007, +1.37341796212E+001, +7.16290705430E+002
+4.86323873122E+007, +1.45663308134E+001, +7.18408689802E+002
+4.87991652755E+007, +1.34863688119E+001, +7.21384306307E+002
+4.89659432387E+007, +1.41781081251E+001, +7.26997790461E+002
+4.91327212020E+007, +1.46684605938E+001, +7.29282525696E+002
+4.92994991653E+007, +1.79824262515E+001, +7.31994802425E+002
+4.94662771285E+007, +1.78431136837E+001, +7.38242399043E+002
+4.96330550918E+007, +1.99044344280E+001, +7.41274222695E+002
+4.97998330551E+007, +1.91228750930E+001, +7.43264443994E+002
+4.99666110184E+007, +2.07729753837E+001, +7.46778097884E+002
+5.01333889816E+007, +1.78506978844E+001, +7.51350118389E+002
+5.03001669449E+007, +2.05983308992E+001, +7.53695059675E+002
+5.04669449082E+007, +2.11697773981E+001, +7.58366667989E+002
+5.06337228715E+007, +2.29476735351E+001, +7.62124625672E+002
+5.08005008347E+007, +2.05839632736E+001, +7.66251688156E+002
+5.09672787980E+007, +2.43908760605E+001, +7.65446920431E+002
+5.11340567613E+007, +2.42373349215E+001, +7.73010252018E+002
+5.13008347245E+007, +1.99723109903E+001, +7.75459174751E+002
+5.14676126878E+007, +2.30044869874E+001, +7.78860792314E+002
+5.16343906511E+007, +2.44036883487E+001, +7.81880396584E+002
+5.18011686144E+007, +2.16678794614E+001, +7.85209807886E+002
+5.19679465776E+007, +2.09458429295E+001, +7.91102818729E+002
+5.21347245409E+007, +2.31586204269E+001, +7.93831392462E+002
+5.23015025042E+007, +2.38235037991E+001, +8.02532527422E+002
+5.24682804674E+007, +2.10186005091E+001, +8.02803454107E+002
+5.26350584307E+007, +2.17673989272E+001, +8.05388033108E+002
+5.28018363940E+007, +1.83667585812E+001, +8.12362927928E+002
+5.29686143573E+007, +2.26592738374E+001, +8.14902077778E+002
+5.31353923205E+007, +2.01090898046E+001, +8.18647014487E+002
+5.33021702838E+007, +1.80265653145E+001, +8.24447706597E+002
+5.34689482471E+007, +2.25667147383E+001, +8.29065255511E+002
