"# Channel 1"
"# Trace 1"
Frequency, Formatted Data, Formatted Data
+1.00000000000E+005, +6.31262336216E+000, +1.26882600356E+000
+2.66777963272E+005, +6.31077337327E+000, +3.35582393627E+000
+4.33555926544E+005, +6.32014306829E+000, +5.47356357901E+000
+6.00333889816E+005, +6.33436289460E+000, +7.54278543776E+000
+7.67111853088E+005, +6.34713133490E+000, +9.66487284179E+000
+9.33889816361E+005, +6.36016771258E+000, +1.17109373000E+001
+1.10066777963E+006, +6.31033507179E+000, +1.38248477216E+001
+1.26744574290E+006, +6.36487878613E+000, +1.59111977061E+001
+1.43422370618E+006, +6.30199486458E+000, +1.80262306792E+001
+1.60100166945E+006, +6.37512381576E+000, +2.00744831892E+001
+1.76777963272E+006, +6.37050163626E+000, +2.21709610714E+001
+1.93455759599E+006, +6.39071198083E+000, +2.42171263514E+001
+2.10133555927E+006, +6.39962863156E+000, +2.63096314243E+001
+2.26811352254E+006, +6.43687591383E+000, +2.83967002013E+001
+2.43489148581E+006, +6.41154607771E+000, +3.05489780878E+001
+2.60166944908E+006, +6.44133053519E+000, +3.25382926273E+001
+2.76844741235E+006, +6.40545506528E+000, +3.47070474404E+001
+2.93522537563E+006, +6.41766911257E+000, +3.67720233503E+001
+3.10200333890E+006, +6.51037799394E+000, +3.87942023816E+001
+3.26878130217E+006, +6.41489746330E+000, +4.09546132735E+001
+3.43555926544E+006, +6.47721021475E+000, +4.30377918528E+001
+3.60233722871E+006, +6.51828420914E+000, +4.51270187167E+001
+3.76911519199E+006, +6.47236740179E+000, +4.73137253309E+001
+3.93589315526E+006, +6.48566800931E+000, +4.92805907927E+001
+4.10267111853E+006, +6.33949930023E+000, +5.13698241540E+001
+4.26944908180E+006, +6.51945291821E+000, +5.36743161908E+001
+4.43622704508E+006, +6.55409473192E+000, +5.56392405741E+001
+4.60300500835E+006, +6.57005224763E+000, +5.78356516099E+001
+4.76978297162E+006, +6.58310960932E+000, +5.98239187391E+001
+4.93656093489E+006, +6.68191103426E+000, +6.19956229927E+001
+5.10333889816E+006, +6.68367777466E+000, +6.40733869557E+001
+5.27011686144E+006, +6.77604241736E+000, +6.62886000778E+001
+5.43689482471E+006, +6.67621754269E+000, +6.83139307293E+001
+5.60367278798E+006, +6.77872505681E+000, +7.05738403330E+001
+5.77045075125E+006, +6.73345380280E+000, +7.25251705810E+001
+5.93722871452E+006, +6.86869619668E+000, +7.46574963347E+001
+6.10400667780E+006, +6.86000909095E+000, +7.68122414508E+001
+6.27078464107E+006, +6.92404210095E+000, +7.89134486590E+001
+6.43756260434E+006, +6.98711179118E+000, +8.10811600627E+001
+6.60434056761E+006, +6.99245215295E+000, +8.31871712840E+001
+6.77111853088E+006, +7.11461016155E+000, +8.52966033564E+001
+6.93789649416E+006, +7.09797618463E+000, +8.74116283672E+001
+7.10467445743E+006, +7.11368961097E+000, +8.95419450662E+001
+7.27145242070E+006, +7.13196815032E+000, +9.15969207719E+001
+7.43823038397E+006, +7.21894706487E+000, +9.36969649137E+001
+7.60500834725E+006, +7.17777956576E+000, +9.58425666362E+001
+7.77178631052E+006, +7.28152367256E+000, +9.80874235293E+001
+7.93856427379E+006, +7.25945985294E+000, +1.00123942020E+002
+8.10534223706E+006, +7.32365866123E+000, +1.02211544890E+002
+8.27212020033E+006, +7.27217644690E+000, +1.04359295146E+002
+8.43889816361E+006, +7.36738448450E+000, +1.06601066497E+002
+8.60567612688E+006, +7.24704905392E+000, +1.08738200337E+002
+8.77245409015E+006, +7.31198211188E+000, +1.10829312994E+002
+8.93923205342E+006, +7.36936029843E+000, +1.13009502377E+002
+9.10601001669E+006, +7.45829642554E+000, +1.15253474857E+002
+9.27278797997E+006, +7.46018689478E+000, +1.17425036937E+002
+9.43956594324E+006, +7.45815823658E+000, +1.19549503049E+002
+9.60634390651E+006, +7.43151967750E+000, +1.21679764635E+002
+9.77312186978E+006, +7.46243832894E+000, +1.23842063290E+002
+9.93989983306E+006, +7.56477588422E+000, +1.26170777281E+002
+1.01066777963E+007, +7.44238884884E+000, +1.28185313148E+002
+1.02734557596E+007, +7.49318853796E+000, +1.30451963440E+002
+1.04402337229E+007, +7.59796617722E+000, +1.32628796208E+002
+1.06070116861E+007, +7.47427652069E+000, +1.34848196133E+002
+1.07737896494E+007, +7.55286890677E+000, +1.37125462593E+002
+1.09405676127E+007, +7.80096218422E+000, +1.39274658018E+002
+1.11073455760E+007, +7.69675174507E+000, +1.41502322368E+002
+1.12741235392E+007, +7.82541286996E+000, +1.43657607056E+002
+1.14409015025E+007, +7.83546259135E+000, +1.45855489070E+002
+1.16076794658E+007, +7.84790855815E+000, +1.48085990116E+002
+1.17744574290E+007, +7.92047384890E+000, +1.50429790609E+002
+1.19412353923E+007, +7.91143200678E+000, +1.52565802006E+002
+1.21080133556E+007, +7.70811387915E+000, +1.54872280368E+002
+1.22747913189E+007, +7.96935689136E+000, +1.57191207503E+002
+1.24415692821E+007, +7.90743830083E+000, +1.59247225050E+002
+1.26083472454E+007, +7.83944213057E+000, +1.61634458829E+002
+1.27751252087E+007, +8.02315381423E+000, +1.63832798794E+002
+1.29419031720E+007, +7.86853839363E+000, +1.66009005209E+002
+1.31086811352E+007, +8.25550229811E+000, +1.68383772420E+002
+1.32754590985E+007, +8.09838064076E+000, +1.70664261915E+002
+1.34422370618E+007, +7.98552554913E+000, +1.72938604957E+002
+1.36090150250E+007, +8.33612662807E+000, +1.75253109161E+002
+1.37757929883E+007, +8.28223186879E+000, +1.77492193099E+002
+1.39425709516E+007, +8.35778152489E+000, +1.79809309992E+002
+1.41093489149E+007, +8.37019222918E+000, +1.82008679336E+002
+1.42761268781E+007, +8.57568544990E+000, +1.84517766847E+002
+1.44429048414E+007, +8.52193159473E+000, +1.86723104181E+002
+1.46096828047E+007, +8.51086481907E+000, +1.89047626810E+002
+1.47764607679E+007, +8.57506072782E+000, +1.91254236408E+002
+1.49432387312E+007, +8.55624776639E+000, +1.93588356369E+002
+1.51100166945E+007, +8.52871934898E+000, +1.96027371577E+002
+1.52767946578E+007, +8.88560734459E+000, +1.98282766068E+002
+1.54435726210E+007, +8.83688773087E+000, +2.00655887322E+002
+1.56103505843E+007, +8.92475839376E+000, +2.02897126132E+002
+1.57771285476E+007, +8.80301013176E+000, +2.05380363693E+002
+1.59439065109E+007, +9.10412298034E+000, +2.07555904073E+002
+1.61106844741E+007, +8.98611041497E+000, +2.10087450924E+002
+1.62774624374E+007, +9.06775939207E+000, +2.12451482570E+002
+1.64442404007E+007, +8.99332657097E+000, +2.14642582644E+002
+1.66110183639E+007, +9.01722262213E+000, +2.17165816645E+002
+1.67777963272E+007, +9.18760066908E+000, +2.19828407570E+002
+1.69445742905E+007, +9.29796302775E+000, +2.21849539422E+002
+1.71113522538E+007, +8.91104436067E+000, +2.24408905755E+002
+1.72781302170E+007, +9.24350705115E+000, +2.27061254696E+002
+1.74449081803E+007, +9.06390981320E+000, +2.29095049105E+002
+1.76116861436E+007, +9.30872248930E+000, +2.31720694179E+002
+1.77784641068E+007, +9.32153104627E+000, +2.34280299544E+002
+1.79452420701E+007, +9.67877439521E+000, +2.36507189518E+002
+1.81120200334E+007, +9.78748467490E+000, +2.38645990211E+002
+1.82787979967E+007, +9.98278889517E+000, +2.41573480767E+002
+1.84455759599E+007, +9.98942865170E+000, +2.43896774228E+002
+1.86123539232E+007, +1.00591278890E+001, +2.46125564492E+002
+1.87791318865E+007, +9.85347241236E+000, +2.49172907621E+002
+1.89459098497E+007, +9.99392310236E+000, +2.51412833365E+002
+1.91126878130E+007, +1.00926302481E+001, +2.53664288005E+002
+1.92794657763E+007, +1.00614268511E+001, +2.56254702467E+002
+1.94462437396E+007, +1.03756698432E+001, +2.58936565617E+002
+1.96130217028E+007, +1.03676343747E+001, +2.61849665199E+002
+1.97797996661E+007, +1.01789093174E+001, +2.63831840869E+002
+1.99465776294E+007, +9.98593350273E+000, +2.66241419780E+002
+2.01133555927E+007, +1.03289180038E+001, +2.69055889451E+002
+2.02801335559E+007, +1.03176829452E+001, +2.71755754562E+002
+2.04469115192E+007, +1.09197188392E+001, +2.74205780722E+002
+2.06136894825E+007, +1.05734131171E+001, +2.77151490088E+002
+2.07804674457E+007, +1.08641772641E+001, +2.79616864755E+002
+2.09472454090E+007, +1.09056641971E+001, +2.82519366814E+002
+2.11140233723E+007, +1.09459071826E+001, +2.84987122242E+002
+2.12808013356E+007, +1.09347427582E+001, +2.87623113569E+002
+2.14475792988E+007, +1.09104311593E+001, +2.90306283893E+002
+2.16143572621E+007, +1.14958944899E+001, +2.92827579836E+002
+2.17811352254E+007, +1.12640090409E+001, +2.95162678716E+002
+2.19479131886E+007, +1.21201312849E+001, +2.98232387434E+002
+2.21146911519E+007, +1.23067482163E+001, +3.00226002413E+002
+2.22814691152E+007, +1.18075901532E+001, +3.03393927234E+002
+2.24482470785E+007, +1.17689274409E+001, +3.06442800427E+002
+2.26150250417E+007, +1.29480126439E+001, +3.08970722467E+002
+2.27818030050E+007, +1.22062967606E+001, +3.11523342347E+002
+2.29485809683E+007, +1.30994194121E+001, +3.14505771041E+002
+2.31153589316E+007, +1.22077022309E+001, +3.17464355827E+002
+2.32821368948E+007, +1.29885167111E+001, +3.19928292484E+002
+2.34489148581E+007, +1.30444677596E+001, +3.22499033820E+002
+2.36156928214E+007, +1.33006251190E+001, +3.25864459046E+002
+2.37824707846E+007, +1.34460782663E+001, +3.27932341592E+002
+2.39492487479E+007, +1.31096995100E+001, +3.30345761510E+002
+2.41160267112E+007, +1.41350452349E+001, +3.33593558480E+002
+2.42828046745E+007, +1.41524019982E+001, +3.36472219102E+002
+2.44495826377E+007, +1.40525480999E+001, +3.39986094215E+002
+2.46163606010E+007, +1.48122846166E+001, +3.41560062523E+002
+2.47831385643E+007, +1.48200199608E+001, +3.44906551193E+002
+2.49499165275E+007, +1.51809463403E+001, +3.47862633374E+002
+2.51166944908E+007, +1.55625961190E+001, +3.50570894442E+002
+2.52834724541E+007, +1.57025454579E+001, +3.53511323467E+002
+2.54502504174E+007, +1.61265096318E+001, +3.56966712438E+002
+2.56170283806E+007, +1.53773347403E+001, +3.58965270453E+002
+2.57838063439E+007, +1.54378261765E+001, +3.62398817541E+002
+2.59505843072E+007, +1.56120066516E+001, +3.64930296556E+002
+2.61173622705E+007, +1.61831480890E+001, +3.68203465440E+002
+2.62841402337E+007, +1.65484616111E+001, +3.70950879814E+002
+2.64509181970E+007, +1.57168864585E+001, +3.74053962804E+002
+2.66176961603E+007, +1.67541733073E+001, +3.76916707469E+002
+2.67844741235E+007, +1.64842654865E+001, +3.79459887923E+002
+2.69512520868E+007, +1.71261051086E+001, +3.82190070584E+002
+2.71180300501E+007, +1.68995086530E+001, +3.84771017172E+002
+2.72848080134E+007, +1.75917062286E+001, +3.88082099666E+002
+2.74515859766E+007, +1.69959979324E+001, +3.91165775999E+002
+2.76183639399E+007, +1.69007351554E+001, +3.93826557391E+002
+2.77851419032E+007, +1.70419299329E+001, +3.97298318793E+002
+2.79519198664E+007, +1.78025143704E+001, +4.00040025810E+002
+2.81186978297E+007, +1.76500169840E+001, +4.02900567226E+002
+2.82854757930E+007, +1.82577862118E+001, +4.06186662382E+002
+2.84522537563E+007, +1.72232200426E+001, +4.09786824033E+002
+2.86190317195E+007, +1.81230879815E+001, +4.11982373018E+002
+2.87858096828E+007, +1.90154364838E+001, +4.15559646806E+002
+2.89525876461E+007, +1.86892421337E+001, +4.18948506029E+002
+2.91193656093E+007, +1.79897361865E+001, +4.21591687066E+002
+2.92861435726E+007, +1.75809623936E+001, +4.25465614523E+002
+2.94529215359E+007, +1.81269835078E+001, +4.28489616386E+002
+2.96196994992E+007, +1.99024137351E+001, +4.31555320061E+002
+2.97864774624E+007, +2.02296770744E+001, +4.35636009240E+002
+2.99532554257E+007, +1.99739801064E+001, +4.39439355777E+002
+3.01200333890E+007, +1.84869774425E+001, +4.41997956395E+002
+3.02868113523E+007, +1.92919396971E+001, +4.45815736035E+002
+3.04535893155E+007, +1.86072602204E+001, +4.47936618437E+002
+3.06203672788E+007, +1.98287526396E+001, +4.52272893598E+002
+3.07871452421E+007, +1.92847016720E+001, +4.55871213469E+002
+3.09539232053E+007, +1.93773490391E+001, +4.58843231911E+002
+3.11207011686E+007, +1.94395270857E+001, +4.62920807223E+002
+3.12874791319E+007, +2.02832934902E+001, +4.65778769957E+002
+3.14542570952E+007, +2.04191702719E+001, +4.70098890361E+002
+3.16210350584E+007, +2.04446823051E+001, +4.73185546404E+002
+3.17878130217E+007, +1.94972082727E+001, +4.76342870427E+002
+3.19545909850E+007, +2.03862610054E+001, +4.80564118830E+002
+3.21213689482E+007, +1.89252283341E+001, +4.83645829731E+002
+3.22881469115E+007, +2.04145199121E+001, +4.86395572102E+002
+3.24549248748E+007, +2.02940167189E+001, +4.92041553280E+002
+3.26217028381E+007, +2.01871539107E+001, +4.95415684975E+002
+3.27884808013E+007, +1.98425570287E+001, +4.99265224407E+002
+3.29552587646E+007, +2.12245876378E+001, +5.01992906742E+002
+3.31220367279E+007, +2.19121095620E+001, +5.05008177280E+002
+3.32888146912E+007, +2.18895423591E+001, +5.11733703310E+002
+3.34555926544E+007, +2.04786876887E+001, +5.14511893526E+002
+3.36223706177E+007, +2.17527901193E+001, +5.17333256423E+002
+3.37891485810E+007, +2.16236108997E+001, +5.20530871043E+002
+3.39559265442E+007, +2.11733376711E+001, +5.26423964025E+002
+3.41227045075E+007, +1.99841869362E+001, +5.29242253154E+002
+3.42894824708E+007, +2.18652437074E+001, +5.33890542796E+002
+3.44562604341E+007, +2.20708249308E+001, +5.38104630609E+002
+3.46230383973E+007, +2.30112177622E+001, +5.42757495115E+002
+3.47898163606E+007, +2.34183258715E+001, +5.45169358114E+002
+3.49565943239E+007, +2.33813883150E+001, +5.50410792468E+002
+3.51233722871E+007, +2.35685536385E+001, +5.54127693283E+002
+3.52901502504E+007, +2.31728964118E+001, +5.57186304082E+002
+3.54569282137E+007, +2.19319011749E+001, +5.62943129701E+002
+3.56237061770E+007, +2.37487339572E+001, +5.66419260858E+002
+3.57904841402E+007, +2.22825770128E+001, +5.71163014291E+002
+3.59572621035E+007, +2.47404250630E+001, +5.74782659484E+002
+3.61240400668E+007, +2.35956117947E+001, +5.80570971351E+002
+3.62908180301E+007, +2.42039736936E+001, +5.86153276355E+002
+3.64575959933E+007, +2.38381405766E+001, +5.89898167705E+002
+3.66243739566E+007, +2.43904600724E+001, +5.92350495073E+002
+3.67911519199E+007, +2.55843481696E+001, +5.98746812472E+002
+3.69579298831E+007, +2.46756527094E+001, +6.02126510703E+002
+3.71247078464E+007, +2.51913934733E+001, +6.09342937598E+002
+3.72914858097E+007, +2.49828529941E+001, +6.14178708800E+002
+3.74582637730E+007, +2.49872405727E+001, +6.20281514310E+002
+3.76250417362E+007, +2.61832942566E+001, +6.22253225704E+002
+3.77918196995E+007, +2.66175589828E+001, +6.27455945942E+002
+3.79585976628E+007, +2.66657356814E+001, +6.32918265395E+002
+3.81253756260E+007, +2.70260025563E+001, +6.38323630943E+002
+3.82921535893E+007, +2.72388878750E+001, +6.42161146373E+002
+3.84589315526E+007, +2.83770419455E+001, +6.49016632887E+002
+3.86257095159E+007, +2.69440184375E+001, +6.54400963203E+002
+3.87924874791E+007, +2.65198397524E+001, +6.59498897847E+002
+3.89592654424E+007, +2.83036894263E+001, +6.64050194861E+002
+3.91260434057E+007, +2.84648727076E+001, +6.71314653049E+002
+3.92928213689E+007, +2.85163767734E+001, +6.75410637523E+002
+3.94595993322E+007, +2.94850583534E+001, +6.81958769044E+002
+3.96263772955E+007, +2.86582430934E+001, +6.85045259389E+002
+3.97931552588E+007, +2.81312428496E+001, +6.93358405103E+002
+3.99599332220E+007, +3.03007181414E+001, +6.96231245221E+002
+4.01267111853E+007, +3.08449785115E+001, +7.02378996987E+002
+4.02934891486E+007, +3.09082584273E+001, +7.08442294507E+002
+4.04602671119E+007, +3.41742872116E+001, +7.14959616114E+002
+4.06270450751E+007, +3.35520723017E+001, +7.22078623178E+002
+4.07938230384E+007, +3.33901701168E+001, +7.28236950465E+002
+4.09606010017E+007, +3.43277025328E+001, +7.34462880090E+002
+4.11273789649E+007, +3.54837415697E+001, +7.36889292073E+002
+4.12941569282E+007, +3.49417748170E+001, +7.46272043039E+002
+4.14609348915E+007, +3.56355702704E+001, +7.56017867939E+002
+4.16277128548E+007, +3.60717303605E+001, +7.58735328777E+002
+4.17944908180E+007, +3.72360336768E+001, +7.62081940232E+002
+4.19612687813E+007, +3.81448657489E+001, +7.69773117686E+002
+4.21280467446E+007, +3.89429858969E+001, +7.78913102851E+002
+4.22948247078E+007, +4.16589135545E+001, +7.86331553990E+002
+4.24616026711E+007, +4.14671577285E+001, +7.88554881562E+002
+4.26283806344E+007, +4.34014631985E+001, +7.99388560448E+002
+4.27951585977E+007, +3.93840305804E+001, +8.07015752962E+002
+4.29619365609E+007, +4.26884505162E+001, +8.13659219129E+002
+4.31287145242E+007, +4.57582885997E+001, +8.20780834582E+002
+4.32954924875E+007, +4.40185977754E+001, +8.25324806456E+002
+4.34622704508E+007, +4.22749837615E+001, +8.33847832082E+002
+4.36290484140E+007, +4.69832667515E+001, +8.43664218078E+002
+4.37958263773E+007, +4.63516072953E+001, +8.51550828641E+002
+4.39626043406E+007, +5.07844236872E+001, +8.58206467880E+002
+4.41293823038E+007, +5.09604892747E+001, +8.70112098267E+002
+4.42961602671E+007, +5.03667258955E+001, +8.74724114078E+002
+4.44629382304E+007, +5.10998863870E+001, +8.82736852871E+002
+4.46297161937E+007, +5.61500897678E+001, +8.91095976829E+002
+4.47964941569E+007, +5.44402657150E+001, +8.97957744724E+002
+4.49632721202E+007, +5.37975654233E+001, +9.09877739724E+002
+4.51300500835E+007, +5.67477331773E+001, +9.12868935586E+002
+4.52968280467E+007, +6.28765434666E+001, +9.28226688650E+002
+4.54636060100E+007, +6.38010980856E+001, +9.38660574792E+002
+4.56303839733E+007, +6.23363493727E+001, +9.47304614678E+002
+4.57971619366E+007, +6.46460023624E+001, +9.57268378845E+002
+4.59639398998E+007, +6.69396738282E+001, +9.70139949711E+002
+4.61307178631E+007, +7.26027247089E+001, +9.76843201560E+002
+4.62974958264E+007, +7.88150924747E+001, +9.87792715149E+002
+4.64642737896E+007, +7.47717367446E+001, +9.97341863445E+002
+4.66310517529E+007, +7.64090693181E+001, +1.00735576659E+003
+4.67978297162E+007, +8.49066406612E+001, +1.01525408418E+003
+4.69646076795E+007, +8.95064101908E+001, +1.03052058100E+003
+4.71313856427E+007, +9.28813697436E+001, +1.03771471529E+003
+4.72981636060E+007, +9.44962891389E+001, +1.05136290123E+003
+4.74649415693E+007, +9.89603167478E+001, +1.06042264519E+003
+4.76317195326E+007, +1.04392281296E+002, +1.07015584295E+003
+4.77984974958E+007, +1.15449355463E+002, +1.07750807755E+003
+4.79652754591E+007, +1.15225577969E+002, +1.08612700671E+003
+4.81320534224E+007, +1.24354074566E+002, +1.09787767589E+003
+4.82988313856E+007, +1.27142945206E+002, +1.11090934114E+003
+4.84656093489E+007, +1.40854510031E+002, +1.11678883915E+003
+4.86323873122E+007, +1.42451550322E+002, +1.12185581072E+003
+4.87991652755E+007, +1.49944348320E+002, +1.13732188388E+003
+4.89659432387E+007, +1.53712524040E+002, +1.14706424734E+003
+4.91327212020E+007, +1.64096546391E+002, +1.15426743750E+003
+4.92994991653E+007, +1.71910779161E+002, +1.15828698019E+003
+4.94662771285E+007, +1.77553425639E+002, +1.17136190613E+003
+4.96330550918E+007, +1.88539750435E+002, +1.17408368857E+003
+4.97998330551E+007, +1.97228476706E+002, +1.18408196224E+003
+4.99666110184E+007, +1.95530655754E+002, +1.18558161458E+003
+5.01333889816E+007, +2.00157817229E+002, +1.18609403202E+003
+5.03001669449E+007, +2.03894951739E+002, +1.19332367195E+003
+5.04669449082E+007, +2.10888781983E+002, +1.20006723910E+003
+5.06337228715E+007, +2.09446643686E+002, +1.20170892106E+003
+5.08005008347E+007, +1.98216963247E+002, +1.20833836652E+003
+5.09672787980E+007, +2.07214822003E+002, +1.21698534131E+003
+5.11340567613E+007, +2.01634333853E+002, +1.23043549288E+003
+5.13008347245E+007, +1.95900935797E+002, +1.24277971709E+003
+5.14676126878E+007, +1.90647329056E+002, +1.25012500322E+003
+5.16343906511E+007, +1.95825084207E+002, +1.26263373780E+003
+5.18011686144E+007, +1.88052711969E+002, +1.28409984840E+003
+5.19679465776E+007, +1.90918216921E+002, +1.29545489345E+003
+5.21347245409E+007, +1.85236295261E+002, +1.32142552897E+003
+5.23015025042E+007, +1.91818163927E+002, +1.33709181455E+003
+5.24682804674E+007, +1.84797174292E+002, +1.35608655397E+003
+5.26350584307E+007, +1.95237002421E+002, +1.37172806934E+003
+5.28018363940E+007, +1.85023616863E+002, +1.39074550514E+003
+5.29686143573E+007, +1.90860624479E+002, +1.41072085321E+003
+5.31353923205E+007, +2.01527812748E+002, +1.42039259997E+003
+5.33021702838E+007, +1.94488644035E+002, +1.45451534755E+003
+5.34689482471E+007, +2.06951223383E+002, +1.47376870408E+003
