"# Channel 1"
"# Trace 1"
Frequency, Formatted Data, Formatted Data
+1.00000000000E+006, +6.92994028944E-001, +2.91711389544E+001
+1.74500000000E+006, +7.20513906678E-001, +5.06236326106E+001
+2.49000000000E+006, +6.10694165650E-001, +7.22533255454E+001
+3.23500000000E+006, +4.72590844929E-001, +9.41882681217E+001
+3.98000000000E+006, +4.20576450727E-001, +1.16184145140E+002
+4.72500000000E+006, +4.77720789398E-001, +1.37854405202E+002
+5.47000000000E+006, +4.95256773200E-001, +1.59926098486E+002
+6.21500000000E+006, +7.53315853265E-001, +1.82316342916E+002
+6.96000000000E+006, +9.00610187308E-001, +2.05272740415E+002
+7.70500000000E+006, +7.74045391607E-001, +2.27980076442E+002
+8.45000000000E+006, +6.47485276057E-001, +2.50739063166E+002
+9.19500000000E+006, +2.93545618772E-001, +2.74307498252E+002
+9.94000000000E+006, +4.72428630074E-001, +2.98060723050E+002
+1.06850000000E+007, +5.28721200798E-001, +3.21448428511E+002
+1.14300000000E+007, +2.14886523316E-001, +3.45375414809E+002
+1.21750000000E+007, -6.64606144632E-001, +3.70947845331E+002
+1.29200000000E+007, -9.74253956190E-001, +3.95530518102E+002
+1.36650000000E+007, -2.82865176902E-001, +4.21518601206E+002
+1.44100000000E+007, -1.98374124077E+000, +4.48471330443E+002
+1.51550000000E+007, -8.75751616516E-001, +4.75028493362E+002
+1.59000000000E+007, -1.20433460720E+000, +5.01846246664E+002
+1.66450000000E+007, -2.73934327811E+000, +5.31657353463E+002
+1.73900000000E+007, -4.03054573080E+000, +5.60172021434E+002
+1.81350000000E+007, -3.27433461658E+000, +5.89904741377E+002
+1.88800000000E+007, -2.81355748025E+000, +6.18444528342E+002
+1.96250000000E+007, -2.21584610609E+000, +6.47502950117E+002
+2.03700000000E+007, -2.54801119746E+000, +6.82331708877E+002
+2.11150000000E+007, -3.54975910134E+000, +7.17834945563E+002
+2.18600000000E+007, -6.31164240631E+000, +7.53416460309E+002
+2.26050000000E+007, -3.56480818623E+000, +7.88670248373E+002
+2.33500000000E+007, -2.67896847365E+000, +8.28081189811E+002
+2.40950000000E+007, -4.48011117826E+000, +8.69250700212E+002
+2.48400000000E+007, -4.76142801634E+000, +9.14018260734E+002
+2.55850000000E+007, -1.09605643502E+000, +9.60929612117E+002
+2.63300000000E+007, +6.75116189089E-001, +1.01036984354E+003
+2.70750000000E+007, +4.80436644694E+000, +1.05262940378E+003
+2.78200000000E+007, +1.08106239592E+001, +1.09980062916E+003
+2.85650000000E+007, +2.92171583621E+000, +1.16195407612E+003
+2.93100000000E+007, +7.33651720656E+000, +1.22530943478E+003
+3.00550000000E+007, -4.68297510759E-001, +1.28315427892E+003
+3.08000000000E+007, -1.51751913524E+000, +1.34941890001E+003
+3.15450000000E+007, +9.75783945384E+000, +1.42909379879E+003
+3.22900000000E+007, +5.86696628704E+000, +1.51524889348E+003
+3.30350000000E+007, -6.15382344460E+000, +1.59158996919E+003
+3.37800000000E+007, +2.00549687433E+001, +1.69461473322E+003
+3.45250000000E+007, +1.94671614457E+001, +1.80600680013E+003
+3.52700000000E+007, +3.66665753286E+001, +1.94833251654E+003
+3.60150000000E+007, +1.35039339659E+001, +2.08906121034E+003
+3.67600000000E+007, +3.96170672418E+001, +2.22739919238E+003
+3.75050000000E+007, +3.43223929881E+001, +2.43408294541E+003
+3.82500000000E+007, +6.24417624697E+001, +2.63758922532E+003
+3.89950000000E+007, +2.51008493447E+001, +2.91360447787E+003
+3.97400000000E+007, +1.35328189698E+002, +3.21972095074E+003
+4.04850000000E+007, +1.80632414264E+002, +3.59441813409E+003
+4.12300000000E+007, +2.47960506087E+002, +4.15102470254E+003
+4.19750000000E+007, +3.63660892842E+002, +4.77695660914E+003
+4.27200000000E+007, +7.04473773226E+002, +5.89616435104E+003
+4.34650000000E+007, +1.04660536135E+003, +7.38146346257E+003
+4.42100000000E+007, +2.30442921940E+003, +9.88735438541E+003
+4.49550000000E+007, +6.75573263964E+003, +1.26440813363E+004
+4.57000000000E+007, +1.94977350193E+004, +1.95470823923E+004
+4.64450000000E+007, +2.68080045117E+004, -1.55950441577E+004
+4.71900000000E+007, +7.89506715304E+003, -1.41722912806E+004
+4.79350000000E+007, +3.26014316204E+003, -9.17181764936E+003
+4.86800000000E+007, +1.93080061586E+003, -6.65798430623E+003
+4.94250000000E+007, +1.32634361010E+003, -5.40574948830E+003
+5.01700000000E+007, +9.51220834125E+002, -4.27862346403E+003
+5.09150000000E+007, +6.88999067161E+002, -3.61800602176E+003
+5.16600000000E+007, +5.42918260610E+002, -3.05153789313E+003
+5.24050000000E+007, +4.96856359377E+002, -2.64894402771E+003
+5.31500000000E+007, +3.89258662135E+002, -2.31381033673E+003
+5.38950000000E+007, +3.65148691589E+002, -2.08326756251E+003
+5.46400000000E+007, +3.05641146553E+002, -1.87806948342E+003
+5.53850000000E+007, +2.42305917864E+002, -1.68055028645E+003
+5.61300000000E+007, +2.02470360366E+002, -1.49394592858E+003
+5.68750000000E+007, +1.90770924623E+002, -1.35145494795E+003
+5.76200000000E+007, +1.58589041979E+002, -1.22163421511E+003
+5.83650000000E+007, +1.40262207002E+002, -1.10049335779E+003
+5.91100000000E+007, +1.25792972880E+002, -9.87219261981E+002
+5.98550000000E+007, +1.17246050682E+002, -8.82522664188E+002
+6.06000000000E+007, +1.14155690840E+002, -7.92437174316E+002
+6.13450000000E+007, +1.14847668353E+002, -7.14540013218E+002
+6.20900000000E+007, +1.05781733693E+002, -6.45691001566E+002
+6.28350000000E+007, +1.02358109180E+002, -5.74789670711E+002
+6.35800000000E+007, +1.01810380063E+002, -5.09044412804E+002
+6.43250000000E+007, +1.01353730543E+002, -4.52007222961E+002
+6.50700000000E+007, +9.77960532943E+001, -3.97988977677E+002
+6.58150000000E+007, +9.37696290301E+001, -3.43371471403E+002
+6.65600000000E+007, +9.43962418308E+001, -2.89594234072E+002
+6.73050000000E+007, +9.80967639646E+001, -2.40484111476E+002
+6.80500000000E+007, +1.02293807951E+002, -1.96596117590E+002
+6.87950000000E+007, +1.05574925650E+002, -1.56967919245E+002
+6.95400000000E+007, +1.07033523983E+002, -1.19508356296E+002
+7.02850000000E+007, +1.07204786281E+002, -8.35219896228E+001
+7.10300000000E+007, +1.06154322740E+002, -4.78846912039E+001
+7.17750000000E+007, +1.05756213118E+002, -1.22402028216E+001
+7.25200000000E+007, +1.05865762530E+002, +2.22656654811E+001
+7.32650000000E+007, +1.05962646169E+002, +5.58511914789E+001
+7.40100000000E+007, +1.06513816468E+002, +8.85068107115E+001
+7.47550000000E+007, +1.06987081656E+002, +1.20183554278E+002
+7.55000000000E+007, +1.06981537162E+002, +1.50161854877E+002
+7.62450000000E+007, +1.05150166670E+002, +1.79949178845E+002
+7.69900000000E+007, +1.02792536227E+002, +2.10119035459E+002
+7.77350000000E+007, +9.89447348607E+001, +2.40633310856E+002
+7.84800000000E+007, +9.39616558942E+001, +2.72712359819E+002
+7.92250000000E+007, +8.96025615554E+001, +3.07103760544E+002
+7.99700000000E+007, +8.57864081384E+001, +3.43410221444E+002
+8.07150000000E+007, +8.40454505913E+001, +3.81590028460E+002
+8.14600000000E+007, +8.36839570838E+001, +4.20468870168E+002
+8.22050000000E+007, +8.44609065512E+001, +4.57631500799E+002
+8.29500000000E+007, +8.52005314500E+001, +4.95332411493E+002
+8.36950000000E+007, +8.61628273639E+001, +5.35648231186E+002
+8.44400000000E+007, +8.72494560969E+001, +5.74299108944E+002
+8.51850000000E+007, +8.69964671327E+001, +6.16090899209E+002
+8.59300000000E+007, +8.90279556005E+001, +6.61862237399E+002
+8.66750000000E+007, +9.37108988828E+001, +7.08632421578E+002
+8.74200000000E+007, +9.87641649224E+001, +7.58707739453E+002
+8.81650000000E+007, +1.01695047870E+002, +8.06266448396E+002
+8.89100000000E+007, +1.07976866395E+002, +8.62547625516E+002
+8.96550000000E+007, +1.12797835933E+002, +9.17081402333E+002
+9.04000000000E+007, +1.16045211740E+002, +9.81612748507E+002
+9.11450000000E+007, +1.26003219408E+002, +1.04808050286E+003
+9.18900000000E+007, +1.38515048020E+002, +1.11730680407E+003
+9.26350000000E+007, +1.41902053072E+002, +1.19586500563E+003
+9.33800000000E+007, +1.51189702356E+002, +1.28107638668E+003
+9.41250000000E+007, +1.55288940772E+002, +1.38514605687E+003
+9.48700000000E+007, +1.64706245941E+002, +1.50382639924E+003
+9.56150000000E+007, +1.79152346564E+002, +1.64347175364E+003
+9.63600000000E+007, +2.01835546623E+002, +1.80681792679E+003
+9.71050000000E+007, +2.29975395116E+002, +1.99265945814E+003
+9.78500000000E+007, +3.01335159942E+002, +2.21074509306E+003
+9.85950000000E+007, +3.57348170009E+002, +2.49448518919E+003
+9.93400000000E+007, +4.52289865279E+002, +2.85347997542E+003
+1.00085000000E+008, +6.16704098822E+002, +3.29268533227E+003
+1.00830000000E+008, +7.92268788705E+002, +3.84967546080E+003
+1.01575000000E+008, +1.10482957976E+003, +4.76772136195E+003
+1.02320000000E+008, +1.76946329730E+003, +6.56220117068E+003
+1.03065000000E+008, +4.22977534973E+003, +1.02905845541E+004
+1.03810000000E+008, +2.26646651619E+004, +1.39285884663E+004
+1.04555000000E+008, +1.22864140331E+004, -1.43159206736E+004
+1.05300000000E+008, +2.87611867078E+003, -8.48753271892E+003
+1.06045000000E+008, +1.14126250499E+003, -5.55740822032E+003
+1.06790000000E+008, +7.21104447956E+002, -3.99538719037E+003
+1.07535000000E+008, +5.07373434829E+002, -3.09063018812E+003
+1.08280000000E+008, +3.97731792432E+002, -2.49909337198E+003
+1.09025000000E+008, +3.31926825543E+002, -2.07543634319E+003
+1.09770000000E+008, +2.78886625864E+002, -1.74897207610E+003
+1.10515000000E+008, +2.73576729343E+002, -1.50304574733E+003
+1.11260000000E+008, +2.56071095319E+002, -1.29496358166E+003
+1.12005000000E+008, +2.54919528280E+002, -1.13441159500E+003
+1.12750000000E+008, +2.55716772596E+002, -9.99968498180E+002
+1.13495000000E+008, +2.64070731398E+002, -8.85895542817E+002
+1.14240000000E+008, +2.68079886945E+002, -7.94029975781E+002
+1.14985000000E+008, +2.71621465033E+002, -7.14099827000E+002
+1.15730000000E+008, +2.76149385044E+002, -6.43999849047E+002
+1.16475000000E+008, +2.80956095864E+002, -5.82224587244E+002
+1.17220000000E+008, +2.84840053737E+002, -5.29400003923E+002
+1.17965000000E+008, +2.84113866946E+002, -4.81169467982E+002
+1.18710000000E+008, +2.85658391138E+002, -4.28884911046E+002
+1.19455000000E+008, +3.02950267888E+002, -3.79196640014E+002
+1.20200000000E+008, +3.21821938241E+002, -3.48627127432E+002
+1.20945000000E+008, +3.35350179150E+002, -3.24860030116E+002
+1.21690000000E+008, +3.46415594803E+002, -3.09902763766E+002
+1.22435000000E+008, +3.53779237278E+002, -2.98935396242E+002
+1.23180000000E+008, +3.53361451141E+002, -2.91708275146E+002
+1.23925000000E+008, +3.47126954303E+002, -2.82772170199E+002
+1.24670000000E+008, +3.38892948387E+002, -2.70932435651E+002
+1.25415000000E+008, +3.30331911882E+002, -2.57233273519E+002
+1.26160000000E+008, +3.22719519989E+002, -2.43994265972E+002
+1.26905000000E+008, +3.15661086007E+002, -2.30799305995E+002
+1.27650000000E+008, +3.07433603087E+002, -2.15825315929E+002
+1.28395000000E+008, +3.00497074061E+002, -1.98936878649E+002
+1.29140000000E+008, +2.99583883801E+002, -1.79783456765E+002
+1.29885000000E+008, +3.07284603288E+002, -1.62756916525E+002
+1.30630000000E+008, +3.25253828907E+002, -1.57612022625E+002
+1.31375000000E+008, +3.41825501690E+002, -1.74875926136E+002
+1.32120000000E+008, +3.35937758895E+002, -2.11861671339E+002
+1.32865000000E+008, +2.96347050815E+002, -2.44596743135E+002
+1.33610000000E+008, +2.40330620189E+002, -2.50252195549E+002
+1.34355000000E+008, +1.88944408170E+002, -2.33422323302E+002
+1.35100000000E+008, +1.49620538194E+002, -2.06196817656E+002
+1.35845000000E+008, +1.17745418655E+002, -1.74407734899E+002
+1.36590000000E+008, +9.20078999614E+001, -1.39866553298E+002
+1.37335000000E+008, +7.32854288110E+001, -1.03538415572E+002
+1.38080000000E+008, +6.06382499166E+001, -6.76106378168E+001
+1.38825000000E+008, +5.31026808203E+001, -3.36256672345E+001
+1.39570000000E+008, +4.88538496662E+001, -2.14976960341E+000
+1.40315000000E+008, +4.67885724600E+001, +2.68890495295E+001
+1.41060000000E+008, +4.62268568267E+001, +5.37835408389E+001
+1.41805000000E+008, +4.65472392564E+001, +7.88670672501E+001
+1.42550000000E+008, +4.74549567095E+001, +1.02354132303E+002
+1.43295000000E+008, +4.87959389162E+001, +1.24616010823E+002
+1.44040000000E+008, +5.00470821246E+001, +1.45936720695E+002
+1.44785000000E+008, +5.15372333683E+001, +1.66498073485E+002
+1.45530000000E+008, +5.29846051539E+001, +1.86683008244E+002
+1.46275000000E+008, +5.51119388804E+001, +2.06865969021E+002
+1.47020000000E+008, +5.69327278552E+001, +2.26635368172E+002
+1.47765000000E+008, +5.94059019585E+001, +2.46302758128E+002
+1.48510000000E+008, +6.24757172675E+001, +2.65897686066E+002
+1.49255000000E+008, +6.61097084636E+001, +2.85160513505E+002
+1.50000000000E+008, +7.05927245191E+001, +3.04535598776E+002
