"# Channel 1"
"# Trace 1"
Frequency, Formatted Data, Formatted Data
+1.00000000000E+006, +2.03540207807E+001, +1.72859213858E+001
+1.34500000000E+006, +2.03333837932E+001, +2.32035395273E+001
+1.69000000000E+006, +2.03033562106E+001, +2.91345135572E+001
+2.03500000000E+006, +2.03142913762E+001, +3.50373475480E+001
+2.38000000000E+006, +2.02885204031E+001, +4.09547730171E+001
+2.72500000000E+006, +2.03040241587E+001, +4.69429010242E+001
+3.07000000000E+006, +2.03022742278E+001, +5.27937772621E+001
+3.41500000000E+006, +2.03546950187E+001, +5.87886985528E+001
+3.76000000000E+006, +2.03587292675E+001, +6.47502047193E+001
+4.10500000000E+006, +2.01950195647E+001, +7.07188603857E+001
+4.45000000000E+006, +2.03103044323E+001, +7.65117678402E+001
+4.79500000000E+006, +2.04105030589E+001, +8.26776997050E+001
+5.14000000000E+006, +2.05420801064E+001, +8.84915988216E+001
+5.48500000000E+006, +2.05133825800E+001, +9.45846220738E+001
+5.83000000000E+006, +2.04808123149E+001, +1.00306601971E+002
+6.17500000000E+006, +2.04945740586E+001, +1.06628279741E+002
+6.52000000000E+006, +2.07431652017E+001, +1.12489622059E+002
+6.86500000000E+006, +2.08352335042E+001, +1.18527975228E+002
+7.21000000000E+006, +2.09129560927E+001, +1.24589333881E+002
+7.55500000000E+006, +2.07801015265E+001, +1.30632890636E+002
+7.90000000000E+006, +2.09237614885E+001, +1.36673940947E+002
+8.24500000000E+006, +2.08605808612E+001, +1.42778896608E+002
+8.59000000000E+006, +2.08668200306E+001, +1.48723168368E+002
+8.93500000000E+006, +2.11189894986E+001, +1.54876966067E+002
+9.28000000000E+006, +2.09231408096E+001, +1.60853973263E+002
+9.62500000000E+006, +2.08613798134E+001, +1.67131314296E+002
+9.97000000000E+006, +2.10230633803E+001, +1.73169295919E+002
+1.03150000000E+007, +2.09358496246E+001, +1.79510055003E+002
+1.06600000000E+007, +2.08290701202E+001, +1.85825877308E+002
+1.10050000000E+007, +2.14226171889E+001, +1.91770636798E+002
+1.13500000000E+007, +2.10544369882E+001, +1.98196197957E+002
+1.16950000000E+007, +2.11321848903E+001, +2.04406605848E+002
+1.20400000000E+007, +2.11707077156E+001, +2.10522470250E+002
+1.23850000000E+007, +2.13155915089E+001, +2.16572423612E+002
+1.27300000000E+007, +2.11199591297E+001, +2.22768826757E+002
+1.30750000000E+007, +2.11476585350E+001, +2.29459352202E+002
+1.34200000000E+007, +2.11971010576E+001, +2.35863509395E+002
+1.37650000000E+007, +2.15083909167E+001, +2.41850135636E+002
+1.41100000000E+007, +2.14172951445E+001, +2.48360007131E+002
+1.44550000000E+007, +2.16196537310E+001, +2.54302249609E+002
+1.48000000000E+007, +2.13340516631E+001, +2.60902572813E+002
+1.51450000000E+007, +2.18115673778E+001, +2.67582474332E+002
+1.54900000000E+007, +2.19513942590E+001, +2.74439647103E+002
+1.58350000000E+007, +2.19200004510E+001, +2.80341816834E+002
+1.61800000000E+007, +2.19296558412E+001, +2.87347472926E+002
+1.65250000000E+007, +2.22594921325E+001, +2.93456720628E+002
+1.68700000000E+007, +2.20716050612E+001, +3.00295034738E+002
+1.72150000000E+007, +2.19922101844E+001, +3.07054827142E+002
+1.75600000000E+007, +2.17374566630E+001, +3.13715542499E+002
+1.79050000000E+007, +2.23424926198E+001, +3.20040004877E+002
+1.82500000000E+007, +2.25250095078E+001, +3.26643101478E+002
+1.85950000000E+007, +2.32917380215E+001, +3.33875510508E+002
+1.89400000000E+007, +2.33299423697E+001, +3.40617250332E+002
+1.92850000000E+007, +2.36330630055E+001, +3.47500637571E+002
+1.96300000000E+007, +2.30588017604E+001, +3.54148450486E+002
+1.99750000000E+007, +2.37495449914E+001, +3.60567665610E+002
+2.03200000000E+007, +2.32604570483E+001, +3.68608893808E+002
+2.06650000000E+007, +2.34437018054E+001, +3.74714755933E+002
+2.10100000000E+007, +2.36652751944E+001, +3.82722652838E+002
+2.13550000000E+007, +2.36360449969E+001, +3.88766072563E+002
+2.17000000000E+007, +2.43830638421E+001, +3.95623223947E+002
+2.20450000000E+007, +2.40570019615E+001, +4.03177459887E+002
+2.23900000000E+007, +2.36115682606E+001, +4.10363489654E+002
+2.27350000000E+007, +2.39791049846E+001, +4.18208338026E+002
+2.30800000000E+007, +2.41382154768E+001, +4.24206615999E+002
+2.34250000000E+007, +2.50950470067E+001, +4.31649992045E+002
+2.37700000000E+007, +2.59703567149E+001, +4.39435833828E+002
+2.41150000000E+007, +2.58154322323E+001, +4.47314439625E+002
+2.44600000000E+007, +2.48065582904E+001, +4.55110305982E+002
+2.48050000000E+007, +2.64577866418E+001, +4.61891837295E+002
+2.51500000000E+007, +2.65321399453E+001, +4.70457436168E+002
+2.54950000000E+007, +2.71817843133E+001, +4.79387994336E+002
+2.58400000000E+007, +2.82503282379E+001, +4.84698889456E+002
+2.61850000000E+007, +2.80939644406E+001, +4.91090761184E+002
+2.65300000000E+007, +2.84275703149E+001, +5.00071483386E+002
+2.68750000000E+007, +2.95667805428E+001, +5.09042865303E+002
+2.72200000000E+007, +2.88908941046E+001, +5.16919952845E+002
+2.75650000000E+007, +2.96389458971E+001, +5.22964860507E+002
+2.79100000000E+007, +2.82568789291E+001, +5.34056387782E+002
+2.82550000000E+007, +2.89040022247E+001, +5.40671647502E+002
+2.86000000000E+007, +2.84884290279E+001, +5.49619627853E+002
+2.89450000000E+007, +2.96480300001E+001, +5.57117348782E+002
+2.92900000000E+007, +2.99146855899E+001, +5.65613888834E+002
+2.96350000000E+007, +3.17386469661E+001, +5.75814651298E+002
+2.99800000000E+007, +3.15023046343E+001, +5.84346643355E+002
+3.03250000000E+007, +3.17653889469E+001, +5.92978731404E+002
+3.06700000000E+007, +3.01394866087E+001, +6.01720281490E+002
+3.10150000000E+007, +3.06660024976E+001, +6.11302219760E+002
+3.13600000000E+007, +3.31484870172E+001, +6.19934070336E+002
+3.17050000000E+007, +3.25821869903E+001, +6.28036138303E+002
+3.20500000000E+007, +3.24585424715E+001, +6.39121237507E+002
+3.23950000000E+007, +3.36887312597E+001, +6.48918312748E+002
+3.27400000000E+007, +3.26465067232E+001, +6.59628715676E+002
+3.30850000000E+007, +3.34449928282E+001, +6.68088784701E+002
+3.34300000000E+007, +3.25660186286E+001, +6.76069866551E+002
+3.37750000000E+007, +3.49857611066E+001, +6.87675439625E+002
+3.41200000000E+007, +3.43344199856E+001, +6.96857206090E+002
+3.44650000000E+007, +3.58418080617E+001, +7.08817604813E+002
+3.48100000000E+007, +3.73608021108E+001, +7.19831076409E+002
+3.51550000000E+007, +3.47198797374E+001, +7.29383525264E+002
+3.55000000000E+007, +3.86206360013E+001, +7.40812328702E+002
+3.58450000000E+007, +3.71118646820E+001, +7.49659440888E+002
+3.61900000000E+007, +3.76162897715E+001, +7.64828350688E+002
+3.65350000000E+007, +3.95478958026E+001, +7.75451799469E+002
+3.68800000000E+007, +3.74306610917E+001, +7.86771065339E+002
+3.72250000000E+007, +4.09894228466E+001, +7.95632867864E+002
+3.75700000000E+007, +3.79562156891E+001, +8.09975675464E+002
+3.79150000000E+007, +4.13325991393E+001, +8.24203154082E+002
+3.82600000000E+007, +4.47058006601E+001, +8.33747989148E+002
+3.86050000000E+007, +4.34740716136E+001, +8.45005053997E+002
+3.89500000000E+007, +4.34644015658E+001, +8.64868760918E+002
+3.92950000000E+007, +4.14826467875E+001, +8.72703269006E+002
+3.96400000000E+007, +4.62689825457E+001, +8.89269818938E+002
+3.99850000000E+007, +4.78725263190E+001, +9.01058768757E+002
+4.03300000000E+007, +4.87290137765E+001, +9.14380781148E+002
+4.06750000000E+007, +5.20522583944E+001, +9.35141568023E+002
+4.10200000000E+007, +4.56129831638E+001, +9.47616603536E+002
+4.13650000000E+007, +5.40364706608E+001, +9.63449024295E+002
+4.17100000000E+007, +5.33586226395E+001, +9.77840575941E+002
+4.20550000000E+007, +5.33601287026E+001, +9.90131739655E+002
+4.24000000000E+007, +5.26400763498E+001, +1.00330733776E+003
+4.27450000000E+007, +6.11948547846E+001, +1.02539633784E+003
+4.30900000000E+007, +5.95439396818E+001, +1.04822539054E+003
+4.34350000000E+007, +5.90624927805E+001, +1.06325497388E+003
+4.37800000000E+007, +6.06545237360E+001, +1.08199309304E+003
+4.41250000000E+007, +5.75247609168E+001, +1.10147654255E+003
+4.44700000000E+007, +6.75130358011E+001, +1.12216286150E+003
+4.48150000000E+007, +6.48385765009E+001, +1.14522523126E+003
+4.51600000000E+007, +6.86497375938E+001, +1.16664295954E+003
+4.55050000000E+007, +6.75133014348E+001, +1.18677481999E+003
+4.58500000000E+007, +7.12260411282E+001, +1.20740932855E+003
+4.61950000000E+007, +7.12530000579E+001, +1.23403866140E+003
+4.65400000000E+007, +8.10079535907E+001, +1.25597873601E+003
+4.68850000000E+007, +8.31447862899E+001, +1.28024826154E+003
+4.72300000000E+007, +8.73382738562E+001, +1.30927826984E+003
+4.75750000000E+007, +1.00649054084E+002, +1.33817828275E+003
+4.79200000000E+007, +1.05342446947E+002, +1.36192140007E+003
+4.82650000000E+007, +1.15469196683E+002, +1.38252397144E+003
+4.86100000000E+007, +1.23889626098E+002, +1.42032199489E+003
+4.89550000000E+007, +1.29849088994E+002, +1.43821272548E+003
+4.93000000000E+007, +1.24248299707E+002, +1.45794576004E+003
+4.96450000000E+007, +1.38574274322E+002, +1.49924490840E+003
+4.99900000000E+007, +1.34964962502E+002, +1.53615069075E+003
+5.03350000000E+007, +1.46505394837E+002, +1.57002020324E+003
+5.06800000000E+007, +1.50097312021E+002, +1.61825157681E+003
+5.10250000000E+007, +1.59242563441E+002, +1.64474568323E+003
+5.13700000000E+007, +1.66274341895E+002, +1.70427496645E+003
+5.17150000000E+007, +1.79953795295E+002, +1.74449839188E+003
+5.20600000000E+007, +1.73973433633E+002, +1.79683193307E+003
+5.24050000000E+007, +1.79702757738E+002, +1.85287226519E+003
+5.27500000000E+007, +2.01228654140E+002, +1.91283803160E+003
+5.30950000000E+007, +2.12724736940E+002, +1.96794441508E+003
+5.34400000000E+007, +2.16202917439E+002, +2.03744467804E+003
+5.37850000000E+007, +2.50363426184E+002, +2.09122750881E+003
+5.41300000000E+007, +2.58777198795E+002, +2.15598500826E+003
+5.44750000000E+007, +2.90327781723E+002, +2.24282792152E+003
+5.48200000000E+007, +3.16202656514E+002, +2.31919830820E+003
+5.51650000000E+007, +3.20481957414E+002, +2.40051083587E+003
+5.55100000000E+007, +3.73402855978E+002, +2.52528687708E+003
+5.58550000000E+007, +4.27293024492E+002, +2.62724040392E+003
+5.62000000000E+007, +4.47508316592E+002, +2.77921283036E+003
+5.65450000000E+007, +5.36430393499E+002, +2.89622824348E+003
+5.68900000000E+007, +5.99799018406E+002, +3.05691860203E+003
+5.72350000000E+007, +6.97168064778E+002, +3.17907121878E+003
+5.75800000000E+007, +8.02385227871E+002, +3.39372055028E+003
+5.79250000000E+007, +9.21288497858E+002, +3.63340034268E+003
+5.82700000000E+007, +1.09680708945E+003, +3.80022076626E+003
+5.86150000000E+007, +1.27264028338E+003, +4.08593379599E+003
+5.89600000000E+007, +1.49755983925E+003, +4.38609937024E+003
+5.93050000000E+007, +1.89597873032E+003, +4.60120614360E+003
+5.96500000000E+007, +2.40414637628E+003, +5.03969055461E+003
+5.99950000000E+007, +2.93060549233E+003, +5.27983302038E+003
+6.03400000000E+007, +3.74728424718E+003, +5.50849408804E+003
+6.06850000000E+007, +4.43244893020E+003, +5.60829061479E+003
+6.10300000000E+007, +5.59163518176E+003, +5.48665136747E+003
+6.13750000000E+007, +7.24680654785E+003, +5.37459483470E+003
+6.17200000000E+007, +8.95448910633E+003, +4.09594755206E+003
+6.20650000000E+007, +9.61515931198E+003, +2.14435142836E+003
+6.24100000000E+007, +1.02179787819E+004, -4.54963696831E+002
+6.27550000000E+007, +9.19001427422E+003, -2.46210720659E+003
+6.31000000000E+007, +7.47713993808E+003, -3.75241498404E+003
+6.34450000000E+007, +6.14064685731E+003, -4.29463978693E+003
+6.37900000000E+007, +4.70470827085E+003, -4.08507061771E+003
+6.41350000000E+007, +3.96305944415E+003, -3.81730045448E+003
+6.44800000000E+007, +3.43038553618E+003, -3.78518389591E+003
+6.48250000000E+007, +2.76000306946E+003, -3.59417956858E+003
+6.51700000000E+007, +2.35920210258E+003, -3.29868433763E+003
+6.55150000000E+007, +2.00910991185E+003, -3.02133926998E+003
+6.58600000000E+007, +1.73898510168E+003, -2.77701816302E+003
+6.62050000000E+007, +1.53059232113E+003, -2.54108915338E+003
+6.65500000000E+007, +1.38873765738E+003, -2.34968387683E+003
+6.68950000000E+007, +1.27746181147E+003, -2.17435874230E+003
+6.72400000000E+007, +1.19526536195E+003, -2.02654832440E+003
+6.75850000000E+007, +1.14061661418E+003, -1.91363128046E+003
+6.79300000000E+007, +1.08511055220E+003, -1.81028819564E+003
+6.82750000000E+007, +1.00033554455E+003, -1.77097388617E+003
+6.86200000000E+007, +9.56571424228E+002, -1.67878035111E+003
+6.89650000000E+007, +9.07540114023E+002, -1.60240775795E+003
+6.93100000000E+007, +8.41802720278E+002, -1.54779500311E+003
+6.96550000000E+007, +7.77800747148E+002, -1.49751269400E+003
+7.00000000000E+007, +7.29177568481E+002, -1.42508931484E+003
