"# Channel 1"
"# Trace 1"
Frequency, Formatted Data, Formatted Data
+1.00000000000E+006, +7.56560281963E-001, +2.89463506806E+001
+1.24874791319E+006, +7.73499434459E-001, +3.60423144386E+001
+1.49749582638E+006, +7.69422255972E-001, +4.31378520284E+001
+1.74624373957E+006, +7.29586580264E-001, +5.02384417134E+001
+1.99499165275E+006, +6.98822787024E-001, +5.73316264911E+001
+2.24373956594E+006, +7.31278944547E-001, +6.45541935892E+001
+2.49248747913E+006, +6.77532220135E-001, +7.17136327591E+001
+2.74123539232E+006, +7.16825684029E-001, +7.89275222207E+001
+2.98998330551E+006, +7.88032939128E-001, +8.60408608552E+001
+3.23873121870E+006, +6.65629752224E-001, +9.32762421279E+001
+3.48747913189E+006, +7.21373926587E-001, +1.00333966427E+002
+3.73622704508E+006, +5.82202907420E-001, +1.07656386531E+002
+3.98497495826E+006, +6.29808649868E-001, +1.14811097828E+002
+4.23372287145E+006, -1.13229761370E-001, +1.22286468627E+002
+4.48247078464E+006, +7.21312182424E-001, +1.29046091897E+002
+4.73121869783E+006, +8.64567441082E-001, +1.36479136295E+002
+4.97996661102E+006, +7.93054693253E-001, +1.43761315993E+002
+5.22871452421E+006, +7.37861407893E-001, +1.51156334241E+002
+5.47746243740E+006, +4.07091107877E-001, +1.58513530212E+002
+5.72621035058E+006, +6.86934690819E-001, +1.65834694859E+002
+5.97495826377E+006, +3.53762992300E-001, +1.73352201370E+002
+6.22370617696E+006, +3.14274301632E-001, +1.80583743397E+002
+6.47245409015E+006, +5.22455775387E-001, +1.88231984764E+002
+6.72120200334E+006, +8.52684942478E-001, +1.95706775172E+002
+6.96994991653E+006, +7.69770970468E-001, +2.02992280762E+002
+7.21869782972E+006, +8.72525649693E-001, +2.10571872995E+002
+7.46744574290E+006, +6.17585201161E-001, +2.17964133058E+002
+7.71619365609E+006, +7.18001993958E-001, +2.25325460660E+002
+7.96494156928E+006, +7.71918844820E-001, +2.32848478660E+002
+8.21368948247E+006, +1.22497448092E+000, +2.40359437233E+002
+8.46243739566E+006, +9.95960709511E-001, +2.47620666401E+002
+8.71118530885E+006, +1.22441870444E+000, +2.55370764663E+002
+8.95993322204E+006, +1.46721755607E+000, +2.62961849570E+002
+9.20868113523E+006, +7.21146024446E-001, +2.71218427939E+002
+9.45742904841E+006, +1.46280647090E-001, +2.79005366039E+002
+9.70617696160E+006, +4.14105617559E-001, +2.86272439188E+002
+9.95492487479E+006, +4.98703867336E-001, +2.93873176722E+002
+1.02036727880E+007, +8.44204885758E-001, +3.01337408066E+002
+1.04524207012E+007, +5.49318687028E-001, +3.09241957030E+002
+1.07011686144E+007, +4.70813382674E-001, +3.17455838366E+002
+1.09499165275E+007, -1.05901518527E-002, +3.25096849918E+002
+1.11986644407E+007, +2.41348080417E-001, +3.33016817173E+002
+1.14474123539E+007, -5.94076711050E-001, +3.41820984576E+002
+1.16961602671E+007, -6.33088527672E-001, +3.48741690877E+002
+1.19449081803E+007, -3.28517444145E-001, +3.56924973803E+002
+1.21936560935E+007, -2.76453846649E-001, +3.64471781155E+002
+1.24424040067E+007, -2.79547115470E-001, +3.73412510248E+002
+1.26911519199E+007, -5.17272022142E-001, +3.81828939626E+002
+1.29398998331E+007, +3.80552497758E-004, +3.89306032169E+002
+1.31886477462E+007, -1.40708918093E-001, +3.97249476863E+002
+1.34373956594E+007, -1.09390566051E-001, +4.05528763491E+002
+1.36861435726E+007, -5.24669278406E-001, +4.14435262098E+002
+1.39348914858E+007, -8.74408424812E-002, +4.23392913142E+002
+1.41836393990E+007, -1.60059015065E+000, +4.31022426162E+002
+1.44323873122E+007, -1.06761627397E+000, +4.40224935064E+002
+1.46811352254E+007, -1.19204219815E+000, +4.47284223437E+002
+1.49298831386E+007, -1.75203906739E+000, +4.56232547896E+002
+1.51786310518E+007, -2.88056266331E-001, +4.64074947341E+002
+1.54273789649E+007, -1.10805350330E+000, +4.73665893087E+002
+1.56761268781E+007, -1.04049947986E+000, +4.83364959520E+002
+1.59248747913E+007, -1.60759028500E+000, +4.91931753896E+002
+1.61736227045E+007, -1.34093502706E+000, +5.01618447276E+002
+1.64223706177E+007, -1.22871627339E+000, +5.11217016766E+002
+1.66711185309E+007, -1.15124371757E+000, +5.20242680203E+002
+1.69198664441E+007, -9.53670240439E-001, +5.29325611654E+002
+1.71686143573E+007, -2.04630442459E+000, +5.38011394499E+002
+1.74173622705E+007, -2.41513185484E+000, +5.48063805362E+002
+1.76661101836E+007, -3.59963635642E+000, +5.57274681944E+002
+1.79148580968E+007, -2.38032690873E+000, +5.65560800900E+002
+1.81636060100E+007, -2.10583362204E+000, +5.75332584840E+002
+1.84123539232E+007, -2.07822402784E+000, +5.84672826033E+002
+1.86611018364E+007, +4.11157499630E-001, +5.96032474724E+002
+1.89098497496E+007, -2.28692885164E-001, +6.03544059999E+002
+1.91585976628E+007, -7.52291701806E-001, +6.13818408926E+002
+1.94073455760E+007, -4.43986642122E-001, +6.23825001289E+002
+1.96560934891E+007, -3.06477972759E-001, +6.35790674437E+002
+1.99048414023E+007, -2.30366617099E+000, +6.44132753857E+002
+2.01535893155E+007, -2.56240887215E+000, +6.57192033967E+002
+2.04023372287E+007, -3.29364753323E+000, +6.64608949362E+002
+2.06510851419E+007, -2.53001562055E+000, +6.75798466247E+002
+2.08998330551E+007, -2.91026622591E+000, +6.87149103313E+002
+2.11485809683E+007, -1.06794738674E+000, +6.97403592555E+002
+2.13973288815E+007, -3.04735360985E+000, +7.08514883859E+002
+2.16460767947E+007, -5.45906839367E+000, +7.20030836288E+002
+2.18948247078E+007, -4.50540369188E+000, +7.30617533833E+002
+2.21435726210E+007, -2.79073704801E+000, +7.40505949337E+002
+2.23923205342E+007, -3.41348933387E+000, +7.50702933304E+002
+2.26410684474E+007, -3.33673500780E+000, +7.62962735690E+002
+2.28898163606E+007, -3.88517024932E+000, +7.78205521238E+002
+2.31385642738E+007, -1.89364812699E+000, +7.88213787333E+002
+2.33873121870E+007, -6.63854521974E-001, +8.01562472614E+002
+2.36360601002E+007, -1.69147498843E+000, +8.15298559125E+002
+2.38848080134E+007, +1.43969311766E+000, +8.22769621125E+002
+2.41335559265E+007, +2.46073359544E-001, +8.32977864427E+002
+2.43823038397E+007, +3.16288784686E+000, +8.46482000330E+002
+2.46310517529E+007, +1.30482240376E+000, +8.61767028608E+002
+2.48797996661E+007, -4.94822087439E+000, +8.77315547340E+002
+2.51285475793E+007, -2.47456435751E+000, +8.87096802919E+002
+2.53772954925E+007, +1.71537608273E+000, +9.03315320721E+002
+2.56260434057E+007, +1.59226891476E+000, +9.16578581281E+002
+2.58747913189E+007, +6.71377256548E-001, +9.25539482535E+002
+2.61235392321E+007, -9.86133639413E-001, +9.40297309146E+002
+2.63722871452E+007, +1.93690641011E+000, +9.52692451462E+002
+2.66210350584E+007, -9.53196008232E-001, +9.68079446590E+002
+2.68697829716E+007, +3.59484675446E+000, +9.83899827430E+002
+2.71185308848E+007, -1.63732515977E+000, +9.97222045042E+002
+2.73672787980E+007, -2.87545313995E-002, +1.01613683779E+003
+2.76160267112E+007, +1.65972239458E+000, +1.03023490071E+003
+2.78647746244E+007, +4.60613001215E-001, +1.04429117196E+003
+2.81135225376E+007, +5.11800589077E-001, +1.06387894140E+003
+2.83622704508E+007, -1.82062926265E+000, +1.08017836052E+003
+2.86110183639E+007, +1.43678521736E+000, +1.09432286318E+003
+2.88597662771E+007, +1.53783169778E+000, +1.10898373177E+003
+2.91085141903E+007, +5.81368428012E+000, +1.12564761989E+003
+2.93572621035E+007, +6.44702961224E+000, +1.14611280658E+003
+2.96060100167E+007, +7.56861668074E+000, +1.16059036483E+003
+2.98547579299E+007, +9.28408356953E+000, +1.17943369877E+003
+3.01035058431E+007, -1.13381729588E+000, +1.19417343377E+003
+3.03522537563E+007, +5.93248044784E+000, +1.22396298100E+003
+3.06010016694E+007, +7.79403294940E+000, +1.24069671596E+003
+3.08497495826E+007, +9.17409650011E+000, +1.26637442562E+003
+3.10984974958E+007, +5.51781055764E+000, +1.28435967197E+003
+3.13472454090E+007, +1.96307852700E+000, +1.30609663162E+003
+3.15959933222E+007, +3.83413324284E+000, +1.31626216867E+003
+3.18447412354E+007, +7.71168765051E+000, +1.34652743539E+003
+3.20934891486E+007, +4.43538398888E+000, +1.36092301047E+003
+3.23422370618E+007, +1.06355603531E+001, +1.38751086737E+003
+3.25909849750E+007, +1.26890766118E+001, +1.40835053774E+003
+3.28397328881E+007, +1.26238923283E+001, +1.44135877321E+003
+3.30884808013E+007, +1.09820388206E+001, +1.46183003908E+003
+3.33372287145E+007, +9.91062594470E-001, +1.48912143196E+003
+3.35859766277E+007, +1.36954574613E+001, +1.50721317520E+003
+3.38347245409E+007, +1.06523283160E+001, +1.53799625460E+003
+3.40834724541E+007, +4.54672405131E+000, +1.56916651021E+003
+3.43322203673E+007, +8.20335813354E+000, +1.59729132232E+003
+3.45809682805E+007, +1.72645180463E+001, +1.62852043084E+003
+3.48297161937E+007, +1.49735572430E+001, +1.65928229758E+003
+3.50784641068E+007, +9.12916703286E+000, +1.69675372856E+003
+3.53272120200E+007, +6.47380295613E+000, +1.73466674968E+003
+3.55759599332E+007, +1.51282178786E+001, +1.76242198074E+003
+3.58247078464E+007, +1.01233610956E+001, +1.79142822069E+003
+3.60734557596E+007, +2.29084912704E+001, +1.83140962939E+003
+3.63222036728E+007, +2.73502959544E+001, +1.86330680252E+003
+3.65709515860E+007, +3.06044866776E+001, +1.91204618318E+003
+3.68196994992E+007, +3.73929839218E+001, +1.94320116117E+003
+3.70684474124E+007, +2.57163673494E+001, +1.99666435174E+003
+3.73171953255E+007, +4.76662348699E+001, +2.04521283536E+003
+3.75659432387E+007, +3.55755276030E+001, +2.09868492584E+003
+3.78146911519E+007, +4.53059966306E+001, +2.15512235527E+003
+3.80634390651E+007, +4.09916882469E+001, +2.21044044007E+003
+3.83121869783E+007, +3.65382040438E+001, +2.26107871399E+003
+3.85609348915E+007, +4.89871778287E+001, +2.30376143171E+003
+3.88096828047E+007, +8.48844612731E+001, +2.35760518232E+003
+3.90584307179E+007, +7.36306448649E+001, +2.41557732467E+003
+3.93071786311E+007, +8.86425040188E+001, +2.46524979015E+003
+3.95559265442E+007, +9.98234149406E+001, +2.51368853126E+003
+3.98046744574E+007, +9.17805768772E+001, +2.61686047132E+003
+4.00534223706E+007, +1.22321381619E+002, +2.69291158387E+003
+4.03021702838E+007, +8.19895615650E+001, +2.79579999240E+003
+4.05509181970E+007, +1.20775017566E+002, +2.90002729872E+003
+4.07996661102E+007, +9.58829023817E+001, +2.95870204344E+003
+4.10484140234E+007, +1.48313988763E+002, +3.00486877150E+003
+4.12971619366E+007, +1.45642735038E+002, +3.16463933691E+003
+4.15459098497E+007, +1.96003162298E+002, +3.21472110512E+003
+4.17946577629E+007, +1.59463223837E+002, +3.42919830912E+003
+4.20434056761E+007, +2.38345098819E+002, +3.52942027528E+003
+4.22921535893E+007, +2.50134946001E+002, +3.68064174619E+003
+4.25409015025E+007, +2.66197790964E+002, +3.81415473749E+003
+4.27896494157E+007, +3.13112496060E+002, +3.96357619732E+003
+4.30383973289E+007, +3.30616741724E+002, +4.20576785307E+003
+4.32871452421E+007, +3.41124142294E+002, +4.35836528164E+003
+4.35358931553E+007, +3.68002374355E+002, +4.61597384495E+003
+4.37846410684E+007, +3.95016769500E+002, +4.81637475670E+003
+4.40333889816E+007, +5.92104877952E+002, +5.16403970070E+003
+4.42821368948E+007, +7.95622301621E+002, +5.45033440594E+003
+4.45308848080E+007, +8.13288677467E+002, +5.68149432618E+003
+4.47796327212E+007, +9.65431453450E+002, +5.96077286121E+003
+4.50283806344E+007, +1.08173757258E+003, +6.32870973476E+003
+4.52771285476E+007, +1.32305561140E+003, +7.06586969548E+003
+4.55258764608E+007, +1.54958134592E+003, +7.46379111968E+003
+4.57746243740E+007, +1.88975241459E+003, +8.16284639650E+003
+4.60233722871E+007, +2.30163364665E+003, +8.88804504385E+003
+4.62721202003E+007, +3.24407921736E+003, +1.03187474826E+004
+4.65208681135E+007, +4.50016823902E+003, +1.13986623262E+004
+4.67696160267E+007, +6.45254856714E+003, +1.32411594956E+004
+4.70183639399E+007, +7.75042291425E+003, +1.46862237941E+004
+4.72671118531E+007, +1.10308116913E+004, +1.60957448784E+004
+4.75158597663E+007, +1.69777766420E+004, +1.69973002121E+004
+4.77646076795E+007, +2.86954728795E+004, +1.72234039565E+004
+4.80133555927E+007, +3.47203372647E+004, +7.07691543299E+002
+4.82621035058E+007, +2.66633094916E+004, -1.04825118537E+004
+4.85108514190E+007, +1.65488357574E+004, -1.23392872819E+004
+4.87595993322E+007, +1.27243585224E+004, -1.30577701383E+004
+4.90083472454E+007, +9.26363497392E+003, -1.11137155727E+004
+4.92570951586E+007, +7.00539092011E+003, -1.02453911707E+004
+4.95058430718E+007, +5.80085708572E+003, -8.79855209689E+003
+4.97545909850E+007, +4.84597823609E+003, -8.43534851363E+003
+5.00033388982E+007, +3.68010532567E+003, -7.72311829716E+003
+5.02520868114E+007, +3.29673306183E+003, -7.19866727761E+003
+5.05008347245E+007, +2.54347619434E+003, -6.59457171816E+003
+5.07495826377E+007, +2.09205226707E+003, -6.14539411159E+003
+5.09983305509E+007, +1.95159759476E+003, -5.55211900875E+003
+5.12470784641E+007, +1.66277978736E+003, -5.09186026532E+003
+5.14958263773E+007, +1.46623803391E+003, -4.82282296498E+003
+5.17445742905E+007, +1.39745141488E+003, -4.64413918932E+003
+5.19933222037E+007, +1.30572832411E+003, -4.20190600378E+003
+5.22420701169E+007, +1.21062995214E+003, -3.93848611344E+003
+5.24908180301E+007, +1.16643443451E+003, -3.77067511139E+003
+5.27395659432E+007, +1.01349910942E+003, -3.54948077324E+003
+5.29883138564E+007, +9.94982663233E+002, -3.41349482439E+003
+5.32370617696E+007, +9.56421764170E+002, -3.28112402671E+003
+5.34858096828E+007, +8.51369269584E+002, -3.14951234375E+003
+5.37345575960E+007, +7.69895192958E+002, -3.00215029312E+003
+5.39833055092E+007, +6.77350039702E+002, -2.89537402527E+003
+5.42320534224E+007, +5.91782891988E+002, -2.73243558457E+003
+5.44808013356E+007, +5.65166224677E+002, -2.64392179279E+003
+5.47295492487E+007, +4.98513807912E+002, -2.51071159214E+003
+5.49782971619E+007, +4.65984471085E+002, -2.38996515701E+003
+5.52270450751E+007, +4.40677819807E+002, -2.28453882242E+003
+5.54757929883E+007, +4.15249807284E+002, -2.17394809102E+003
+5.57245409015E+007, +3.58444152927E+002, -2.08180834996E+003
+5.59732888147E+007, +3.55456793667E+002, -2.00202793608E+003
+5.62220367279E+007, +3.48295319447E+002, -1.91528307505E+003
+5.64707846411E+007, +3.28653178157E+002, -1.84857923566E+003
+5.67195325543E+007, +3.09428802026E+002, -1.78473332891E+003
+5.69682804674E+007, +2.90784189838E+002, -1.70903316960E+003
+5.72170283806E+007, +2.75988202317E+002, -1.64389508827E+003
+5.74657762938E+007, +2.60927126947E+002, -1.57002423326E+003
+5.77145242070E+007, +2.42788235305E+002, -1.51350172971E+003
+5.79632721202E+007, +2.32904254475E+002, -1.44929529573E+003
+5.82120200334E+007, +2.20138618669E+002, -1.39440588146E+003
+5.84607679466E+007, +2.13816170797E+002, -1.34053311681E+003
+5.87095158598E+007, +2.05832195024E+002, -1.29141279143E+003
+5.89582637730E+007, +2.00865635752E+002, -1.23758941269E+003
+5.92070116861E+007, +1.98448713391E+002, -1.19285020720E+003
+5.94557595993E+007, +1.97019638741E+002, -1.13939452602E+003
+5.97045075125E+007, +1.95925407480E+002, -1.09933502642E+003
+5.99532554257E+007, +1.92065043676E+002, -1.06204203579E+003
+6.02020033389E+007, +1.92329162367E+002, -1.02873237669E+003
+6.04507512521E+007, +1.89316839329E+002, -9.92414401424E+002
+6.06994991653E+007, +1.82546323299E+002, -9.55552296832E+002
+6.09482470785E+007, +1.81040559734E+002, -9.26383778819E+002
+6.11969949917E+007, +1.80838390331E+002, -8.91850010034E+002
+6.14457429048E+007, +1.75948004184E+002, -8.63860271928E+002
+6.16944908180E+007, +1.73686688071E+002, -8.37517080692E+002
+6.19432387312E+007, +1.68629586690E+002, -8.09567928130E+002
+6.21919866444E+007, +1.64071643397E+002, -7.81840258873E+002
+6.24407345576E+007, +1.60291797592E+002, -7.51203680678E+002
+6.26894824708E+007, +1.55725237768E+002, -7.23203557500E+002
+6.29382303840E+007, +1.54082201465E+002, -6.93439938772E+002
+6.31869782972E+007, +1.54748038688E+002, -6.68457470749E+002
+6.34357262104E+007, +1.52018902596E+002, -6.42122312366E+002
+6.36844741235E+007, +1.51844514279E+002, -6.18258549339E+002
+6.39332220367E+007, +1.51776062409E+002, -5.94275235185E+002
+6.41819699499E+007, +1.51058101836E+002, -5.71342967840E+002
+6.44307178631E+007, +1.49190856066E+002, -5.51264026221E+002
+6.46794657763E+007, +1.48140770139E+002, -5.29754386003E+002
+6.49282136895E+007, +1.45429485068E+002, -5.10146141772E+002
+6.51769616027E+007, +1.43230293713E+002, -4.90511409645E+002
+6.54257095159E+007, +1.41559218912E+002, -4.68972113643E+002
+6.56744574290E+007, +1.40124541390E+002, -4.48903668744E+002
+6.59232053422E+007, +1.39866615082E+002, -4.27242833583E+002
+6.61719532554E+007, +1.39339071834E+002, -4.08755228781E+002
+6.64207011686E+007, +1.40125546990E+002, -3.88857161999E+002
+6.66694490818E+007, +1.40384728648E+002, -3.70234775131E+002
+6.69181969950E+007, +1.41737183450E+002, -3.52786495379E+002
+6.71669449082E+007, +1.43037834118E+002, -3.35779474523E+002
+6.74156928214E+007, +1.43992029302E+002, -3.19368486159E+002
+6.76644407346E+007, +1.44801243247E+002, -3.04307118809E+002
+6.79131886477E+007, +1.45752276432E+002, -2.89116416260E+002
+6.81619365609E+007, +1.46152191970E+002, -2.74348181061E+002
+6.84106844741E+007, +1.46815400289E+002, -2.60892513941E+002
+6.86594323873E+007, +1.47161559170E+002, -2.47474672640E+002
+6.89081803005E+007, +1.47581731626E+002, -2.34743384343E+002
+6.91569282137E+007, +1.47322843659E+002, -2.21649626071E+002
+6.94056761269E+007, +1.46933780979E+002, -2.09328002496E+002
+6.96544240401E+007, +1.46371508755E+002, -1.96862273703E+002
+6.99031719533E+007, +1.45199576393E+002, -1.84426256983E+002
+7.01519198664E+007, +1.44119980418E+002, -1.71954835791E+002
+7.04006677796E+007, +1.43092563105E+002, -1.59967028228E+002
+7.06494156928E+007, +1.41787892390E+002, -1.47548606718E+002
+7.08981636060E+007, +1.40778406998E+002, -1.35246094798E+002
+7.11469115192E+007, +1.39901935081E+002, -1.22528856921E+002
+7.13956594324E+007, +1.39377727984E+002, -1.10097644236E+002
+7.16444073456E+007, +1.38953767279E+002, -9.83373304014E+001
+7.18931552588E+007, +1.38794651994E+002, -8.65479556218E+001
+7.21419031720E+007, +1.38294070692E+002, -7.51659896425E+001
+7.23906510851E+007, +1.37646578736E+002, -6.40110019546E+001
+7.26393989983E+007, +1.37430895466E+002, -5.30157247964E+001
+7.28881469115E+007, +1.37247517438E+002, -4.19289639041E+001
+7.31368948247E+007, +1.36855865616E+002, -3.09192220234E+001
+7.33856427379E+007, +1.36422213727E+002, -2.02173418936E+001
+7.36343906511E+007, +1.36116497501E+002, -9.64998247711E+000
+7.38831385643E+007, +1.36424445140E+002, +7.50930359767E-001
+7.41318864775E+007, +1.36406622307E+002, +1.07747543006E+001
+7.43806343907E+007, +1.36404045110E+002, +2.03187825679E+001
+7.46293823038E+007, +1.36601776402E+002, +2.95180011756E+001
+7.48781302170E+007, +1.36667212944E+002, +3.80485241083E+001
+7.51268781302E+007, +1.35796543071E+002, +4.62754016216E+001
+7.53756260434E+007, +1.34505142835E+002, +5.45122221296E+001
+7.56243739566E+007, +1.33089966321E+002, +6.29678145940E+001
+7.58731218698E+007, +1.31304897629E+002, +7.16286126982E+001
+7.61218697830E+007, +1.29068145935E+002, +8.02246824624E+001
+7.63706176962E+007, +1.26436919438E+002, +8.88529793975E+001
+7.66193656093E+007, +1.24048727784E+002, +9.80635365245E+001
+7.68681135225E+007, +1.21398830562E+002, +1.07851697771E+002
+7.71168614357E+007, +1.18839715208E+002, +1.17432808284E+002
+7.73656093489E+007, +1.16392908208E+002, +1.27663658387E+002
+7.76143572621E+007, +1.14418990549E+002, +1.37909596079E+002
+7.78631051753E+007, +1.12297707685E+002, +1.48586458697E+002
+7.81118530885E+007, +1.10675041152E+002, +1.58976912203E+002
+7.83606010017E+007, +1.09655085144E+002, +1.69481296889E+002
+7.86093489149E+007, +1.08597691449E+002, +1.80077502513E+002
+7.88580968280E+007, +1.07691163383E+002, +1.89892640316E+002
+7.91068447412E+007, +1.06528872543E+002, +1.99744225627E+002
+7.93555926544E+007, +1.05256167350E+002, +2.10147772949E+002
+7.96043405676E+007, +1.04113922849E+002, +2.20570189935E+002
+7.98530884808E+007, +1.03663592246E+002, +2.30429910186E+002
+8.01018363940E+007, +1.02577684681E+002, +2.40226301495E+002
+8.03505843072E+007, +1.02101276429E+002, +2.50296714640E+002
+8.05993322204E+007, +1.01178982967E+002, +2.60050544810E+002
