"# Channel 1"
"# Trace 1"
Frequency, Formatted Data, Formatted Data
+1.00000000000E+006, +3.46407311682E+001, +3.01395085167E+001
+1.24874791319E+006, +3.46465623770E+001, +3.76401684381E+001
+1.49749582638E+006, +3.45430864860E+001, +4.51175625051E+001
+1.74624373957E+006, +3.45491761325E+001, +5.26982307100E+001
+1.99499165275E+006, +3.44916678658E+001, +6.01714944988E+001
+2.24373956594E+006, +3.44642028628E+001, +6.77478884063E+001
+2.49248747913E+006, +3.43776353965E+001, +7.52811603905E+001
+2.74123539232E+006, +3.45646251631E+001, +8.28093560058E+001
+2.98998330551E+006, +3.45746473032E+001, +9.02430718441E+001
+3.23873121870E+006, +3.45604878619E+001, +9.78802180946E+001
+3.48747913189E+006, +3.45030521101E+001, +1.05452427686E+002
+3.73622704508E+006, +3.45770551927E+001, +1.13116162363E+002
+3.98497495826E+006, +3.45430870126E+001, +1.20658417192E+002
+4.23372287145E+006, +3.37433634162E+001, +1.28801332833E+002
+4.48247078464E+006, +3.45314378494E+001, +1.35878230926E+002
+4.73121869783E+006, +3.47194779318E+001, +1.43412806411E+002
+4.97996661102E+006, +3.48882712247E+001, +1.50943440732E+002
+5.22871452421E+006, +3.47676308151E+001, +1.58821274193E+002
+5.47746243740E+006, +3.49115217829E+001, +1.66303792867E+002
+5.72621035058E+006, +3.47924691545E+001, +1.74211509141E+002
+5.97495826377E+006, +3.48069649092E+001, +1.82491201167E+002
+6.22370617696E+006, +3.47364064091E+001, +1.90229543690E+002
+6.47245409015E+006, +3.49216940888E+001, +1.97966607733E+002
+6.72120200334E+006, +3.52986768146E+001, +2.06006228605E+002
+6.96994991653E+006, +3.53674096962E+001, +2.13503325610E+002
+7.21869782972E+006, +3.55624983397E+001, +2.21502921786E+002
+7.46744574290E+006, +3.55242438446E+001, +2.29020647226E+002
+7.71619365609E+006, +3.59038189340E+001, +2.37068575364E+002
+7.96494156928E+006, +3.57441297215E+001, +2.45118160540E+002
+8.21368948247E+006, +3.62506142968E+001, +2.52865600575E+002
+8.46243739566E+006, +3.62740457492E+001, +2.60857404596E+002
+8.71118530885E+006, +3.63960148717E+001, +2.68406986408E+002
+8.95993322204E+006, +3.65859217603E+001, +2.76546868810E+002
+9.20868113523E+006, +3.60435010533E+001, +2.84991569535E+002
+9.45742904841E+006, +3.58495501329E+001, +2.94201126095E+002
+9.70617696160E+006, +3.65894812137E+001, +3.01818088425E+002
+9.95492487479E+006, +3.68470299410E+001, +3.09731414157E+002
+1.02036727880E+007, +3.65645190641E+001, +3.17430753874E+002
+1.04524207012E+007, +3.64489507436E+001, +3.25755925108E+002
+1.07011686144E+007, +3.67769961412E+001, +3.34614766767E+002
+1.09499165275E+007, +3.65102983062E+001, +3.42556332029E+002
+1.11986644407E+007, +3.67779234884E+001, +3.51628463947E+002
+1.14474123539E+007, +3.66153794678E+001, +3.60564847581E+002
+1.16961602671E+007, +3.66369022049E+001, +3.68658534817E+002
+1.19449081803E+007, +3.64472573150E+001, +3.77342131795E+002
+1.21936560935E+007, +3.68340745720E+001, +3.84806429883E+002
+1.24424040067E+007, +3.75863512611E+001, +3.94398412250E+002
+1.26911519199E+007, +3.73440186221E+001, +4.03148880560E+002
+1.29398998331E+007, +3.74424616332E+001, +4.10306579632E+002
+1.31886477462E+007, +3.79757949623E+001, +4.19777517526E+002
+1.34373956594E+007, +3.74338018260E+001, +4.28407386500E+002
+1.36861435726E+007, +3.74480805441E+001, +4.38328325630E+002
+1.39348914858E+007, +3.84884081556E+001, +4.47701306637E+002
+1.41836393990E+007, +3.81724747183E+001, +4.57200640845E+002
+1.44323873122E+007, +3.83331605342E+001, +4.64769879890E+002
+1.46811352254E+007, +3.80921605905E+001, +4.73226420959E+002
+1.49298831386E+007, +3.77248225715E+001, +4.82951106096E+002
+1.51786310518E+007, +3.92443385631E+001, +4.92577367352E+002
+1.54273789649E+007, +3.85187375839E+001, +5.02600922544E+002
+1.56761268781E+007, +4.01356916713E+001, +5.11939335561E+002
+1.59248747913E+007, +4.01078279124E+001, +5.22656322252E+002
+1.61736227045E+007, +3.87085864342E+001, +5.30955867515E+002
+1.64223706177E+007, +3.91880557158E+001, +5.42200682462E+002
+1.66711185309E+007, +4.07754864845E+001, +5.52239078070E+002
+1.69198664441E+007, +4.14741411268E+001, +5.62804186550E+002
+1.71686143573E+007, +4.00334114657E+001, +5.71038284535E+002
+1.74173622705E+007, +3.84311502091E+001, +5.81975753935E+002
+1.76661101836E+007, +4.03694019318E+001, +5.92570355476E+002
+1.79148580968E+007, +3.92165968751E+001, +6.01065924506E+002
+1.81636060100E+007, +3.93270050457E+001, +6.11668485503E+002
+1.84123539232E+007, +4.15980936876E+001, +6.21900832508E+002
+1.86611018364E+007, +4.51693835024E+001, +6.30600416781E+002
+1.89098497496E+007, +4.48877786671E+001, +6.42997068687E+002
+1.91585976628E+007, +4.46215225496E+001, +6.54154572984E+002
+1.94073455760E+007, +4.37979247560E+001, +6.65345324857E+002
+1.96560934891E+007, +4.46661285501E+001, +6.75978393717E+002
+1.99048414023E+007, +4.48227925455E+001, +6.88385010403E+002
+2.01535893155E+007, +4.15729549081E+001, +6.99738774611E+002
+2.04023372287E+007, +4.49843593137E+001, +7.10163160501E+002
+2.06510851419E+007, +4.44579448498E+001, +7.22600508310E+002
+2.08998330551E+007, +4.62586439946E+001, +7.34373653316E+002
+2.11485809683E+007, +4.66959064053E+001, +7.43091104027E+002
+2.13973288815E+007, +4.47188632818E+001, +7.57081549496E+002
+2.16460767947E+007, +4.45333344077E+001, +7.69490477995E+002
+2.18948247078E+007, +4.23719743563E+001, +7.79856717184E+002
+2.21435726210E+007, +4.69072442181E+001, +7.90268311963E+002
+2.23923205342E+007, +4.67468719663E+001, +8.04486058373E+002
+2.26410684474E+007, +4.98137181494E+001, +8.19413053377E+002
+2.28898163606E+007, +4.78363033011E+001, +8.32674968030E+002
+2.31385642738E+007, +4.90296286222E+001, +8.46676673297E+002
+2.33873121870E+007, +5.28373643150E+001, +8.57884888598E+002
+2.36360601002E+007, +5.17396351217E+001, +8.72849912330E+002
+2.38848080134E+007, +5.53651154294E+001, +8.83431137986E+002
+2.41335559265E+007, +5.36883521521E+001, +8.99612826587E+002
+2.43823038397E+007, +5.90495081149E+001, +9.06888963278E+002
+2.46310517529E+007, +5.59700874655E+001, +9.24665054635E+002
+2.48797996661E+007, +5.66421925105E+001, +9.41084317006E+002
+2.51285475793E+007, +5.98705811973E+001, +9.54260396261E+002
+2.53772954925E+007, +6.01532986794E+001, +9.70918968567E+002
+2.56260434057E+007, +6.53812645358E+001, +9.81659527193E+002
+2.58747913189E+007, +6.30845750252E+001, +9.97212592985E+002
+2.61235392321E+007, +6.04865206199E+001, +1.01680164533E+003
+2.63722871452E+007, +6.15431820878E+001, +1.02936556305E+003
+2.66210350584E+007, +6.54235984549E+001, +1.04944252911E+003
+2.68697829716E+007, +6.42967439471E+001, +1.06274313794E+003
+2.71185308848E+007, +6.19655696023E+001, +1.08166769115E+003
+2.73672787980E+007, +6.68094395606E+001, +1.10173473614E+003
+2.76160267112E+007, +7.30044582580E+001, +1.11731623153E+003
+2.78647746244E+007, +6.83987401841E+001, +1.13789310563E+003
+2.81135225376E+007, +7.60684660748E+001, +1.15069102867E+003
+2.83622704508E+007, +7.05771774664E+001, +1.17528204839E+003
+2.86110183639E+007, +7.62237623901E+001, +1.19206697219E+003
+2.88597662771E+007, +7.73757184334E+001, +1.21671923955E+003
+2.91085141903E+007, +7.97016566461E+001, +1.23221629996E+003
+2.93572621035E+007, +8.86685074901E+001, +1.24784204106E+003
+2.96060100167E+007, +9.14904105918E+001, +1.26489956252E+003
+2.98547579299E+007, +8.34727097926E+001, +1.28173977943E+003
+3.01035058431E+007, +8.63843309573E+001, +1.30540249499E+003
+3.03522537563E+007, +9.26123333130E+001, +1.33263549576E+003
+3.06010016694E+007, +9.79508443614E+001, +1.35866489450E+003
+3.08497495826E+007, +1.01590174369E+002, +1.38325452066E+003
+3.10984974958E+007, +9.31925144228E+001, +1.39780355658E+003
+3.13472454090E+007, +9.55846604730E+001, +1.42910407939E+003
+3.15959933222E+007, +1.00585058765E+002, +1.45240583687E+003
+3.18447412354E+007, +1.03535388720E+002, +1.48079589518E+003
+3.20934891486E+007, +1.08469400778E+002, +1.50325567646E+003
+3.23422370618E+007, +1.19030424200E+002, +1.53423827844E+003
+3.25909849750E+007, +1.14567032315E+002, +1.56835848556E+003
+3.28397328881E+007, +1.23674958304E+002, +1.58769448986E+003
+3.30884808013E+007, +1.22169816696E+002, +1.61956362128E+003
+3.33372287145E+007, +1.21393340046E+002, +1.64303367128E+003
+3.35859766277E+007, +1.34017175020E+002, +1.67688195620E+003
+3.38347245409E+007, +1.37230290275E+002, +1.70348297263E+003
+3.40834724541E+007, +1.36432780517E+002, +1.73990760324E+003
+3.43322203673E+007, +1.36575910162E+002, +1.78674642696E+003
+3.45809682805E+007, +1.45024342377E+002, +1.81596243126E+003
+3.48297161937E+007, +1.45675110344E+002, +1.84744651336E+003
+3.50784641068E+007, +1.53502427150E+002, +1.89548418601E+003
+3.53272120200E+007, +1.54419513796E+002, +1.92391492310E+003
+3.55759599332E+007, +1.40253980097E+002, +1.98381324637E+003
+3.58247078464E+007, +1.68163509499E+002, +2.01285777220E+003
+3.60734557596E+007, +1.79044055053E+002, +2.07646981232E+003
+3.63222036728E+007, +1.90550581827E+002, +2.10809481966E+003
+3.65709515860E+007, +2.08267912213E+002, +2.14694086237E+003
+3.68196994992E+007, +2.16501284444E+002, +2.23661569539E+003
+3.70684474124E+007, +2.27184140145E+002, +2.27519050978E+003
+3.73171953255E+007, +2.42081119621E+002, +2.33260008767E+003
+3.75659432387E+007, +2.33986069099E+002, +2.41143969818E+003
+3.78146911519E+007, +2.63138161131E+002, +2.45583097942E+003
+3.80634390651E+007, +2.67481427385E+002, +2.55162064125E+003
+3.83121869783E+007, +2.95701185951E+002, +2.57413646400E+003
+3.85609348915E+007, +3.12633096112E+002, +2.64477356151E+003
+3.88096828047E+007, +3.11813712035E+002, +2.73835623347E+003
+3.90584307179E+007, +3.21762460783E+002, +2.82016086150E+003
+3.93071786311E+007, +3.72100783954E+002, +2.87741386187E+003
+3.95559265442E+007, +3.87972395346E+002, +3.01614860508E+003
+3.98046744574E+007, +4.51153269040E+002, +3.08497054664E+003
+4.00534223706E+007, +4.68755004464E+002, +3.18425202285E+003
+4.03021702838E+007, +4.67597928694E+002, +3.33037307130E+003
+4.05509181970E+007, +5.54905436808E+002, +3.46597463955E+003
+4.07996661102E+007, +5.41743778145E+002, +3.53500085095E+003
+4.10484140234E+007, +6.43294544625E+002, +3.68675658418E+003
+4.12971619366E+007, +7.01504136333E+002, +3.78399143817E+003
+4.15459098497E+007, +7.76533980213E+002, +3.95455513005E+003
+4.17946577629E+007, +7.78247430385E+002, +4.14293467256E+003
+4.20434056761E+007, +9.71493821007E+002, +4.37832013590E+003
+4.22921535893E+007, +9.35142207239E+002, +4.52761465324E+003
+4.25409015025E+007, +1.07946031372E+003, +4.69239395953E+003
+4.27896494157E+007, +1.19721620241E+003, +5.02967093106E+003
+4.30383973289E+007, +1.41066665743E+003, +5.33234574918E+003
+4.32871452421E+007, +1.52814134045E+003, +5.56557797374E+003
+4.35358931553E+007, +1.83790638792E+003, +5.98257474742E+003
+4.37846410684E+007, +2.10624784120E+003, +6.29863768769E+003
+4.40333889816E+007, +2.55167404261E+003, +6.74137143374E+003
+4.42821368948E+007, +2.92789171806E+003, +7.13301571582E+003
+4.45308848080E+007, +3.35468051011E+003, +7.87719950064E+003
+4.47796327212E+007, +3.76238200034E+003, +7.87552951159E+003
+4.50283806344E+007, +4.75297347068E+003, +8.30970957233E+003
+4.52771285476E+007, +5.66870445267E+003, +9.05132497309E+003
+4.55258764608E+007, +7.05866487833E+003, +9.53227997048E+003
+4.57746243740E+007, +9.01620539737E+003, +9.95810980653E+003
+4.60233722871E+007, +1.20181290130E+004, +9.37129927741E+003
+4.62721202003E+007, +1.43583430712E+004, +6.97635796033E+003
+4.65208681135E+007, +1.61282328271E+004, +4.42595169634E+003
+4.67696160267E+007, +1.67751758574E+004, +2.25029277058E+003
+4.70183639399E+007, +1.87429747422E+004, -2.10905288752E+003
+4.72671118531E+007, +1.61979894672E+004, -4.89309572300E+003
+4.75158597663E+007, +1.35502270158E+004, -7.54004127021E+003
+4.77646076795E+007, +1.16164138553E+004, -9.08396482733E+003
+4.80133555927E+007, +8.56853056500E+003, -9.22147832038E+003
+4.82621035058E+007, +6.59629367530E+003, -8.34291520548E+003
+4.85108514190E+007, +5.72681522770E+003, -7.99027087937E+003
+4.87595993322E+007, +4.67649480459E+003, -7.48688327403E+003
+4.90083472454E+007, +4.01982030769E+003, -6.80637271333E+003
+4.92570951586E+007, +3.42829700191E+003, -6.27232311975E+003
+4.95058430718E+007, +3.06791743225E+003, -5.71099147330E+003
+4.97545909850E+007, +2.68549927462E+003, -5.42245679357E+003
+5.00033388982E+007, +2.34339921763E+003, -5.24291023393E+003
+5.02520868114E+007, +2.08284155872E+003, -4.97581441041E+003
+5.05008347245E+007, +1.84171064683E+003, -4.61234997472E+003
+5.07495826377E+007, +1.63839280157E+003, -4.43356719897E+003
+5.09983305509E+007, +1.42917595037E+003, -4.15087167263E+003
+5.12470784641E+007, +1.39730805394E+003, -3.95615569918E+003
+5.14958263773E+007, +1.22280337279E+003, -3.70783400043E+003
+5.17445742905E+007, +1.14428594952E+003, -3.58976682810E+003
+5.19933222037E+007, +1.05251191113E+003, -3.33834368531E+003
+5.22420701169E+007, +9.79506930019E+002, -3.18396450632E+003
+5.24908180301E+007, +9.45828527282E+002, -3.05606788393E+003
+5.27395659432E+007, +8.65191437524E+002, -2.94055172471E+003
+5.29883138564E+007, +8.54537449031E+002, -2.82440559475E+003
+5.32370617696E+007, +7.95618182426E+002, -2.71467883446E+003
+5.34858096828E+007, +7.38165503752E+002, -2.61875774112E+003
+5.37345575960E+007, +6.74741001610E+002, -2.52647226456E+003
+5.39833055092E+007, +5.99531452229E+002, -2.44300858641E+003
+5.42320534224E+007, +5.48077395510E+002, -2.35978564870E+003
+5.44808013356E+007, +5.10557473862E+002, -2.26657343286E+003
+5.47295492487E+007, +4.78327414614E+002, -2.16692492352E+003
+5.49782971619E+007, +4.46615203371E+002, -2.07946739591E+003
+5.52270450751E+007, +4.19767951472E+002, -1.99497702868E+003
+5.54757929883E+007, +4.11274335636E+002, -1.91400473109E+003
+5.57245409015E+007, +3.76469165713E+002, -1.83604696666E+003
+5.59732888147E+007, +3.57500192363E+002, -1.77480330070E+003
+5.62220367279E+007, +3.41051853016E+002, -1.72011479230E+003
+5.64707846411E+007, +3.33324991652E+002, -1.65996414062E+003
+5.67195325543E+007, +3.23027282881E+002, -1.60713486849E+003
+5.69682804674E+007, +2.98378788617E+002, -1.56150747308E+003
+5.72170283806E+007, +2.91179310425E+002, -1.50180158645E+003
+5.74657762938E+007, +2.81550562143E+002, -1.45019547794E+003
+5.77145242070E+007, +2.67158242074E+002, -1.39796477688E+003
+5.79632721202E+007, +2.49349686528E+002, -1.34910990925E+003
+5.82120200334E+007, +2.40421714555E+002, -1.31282361825E+003
+5.84607679466E+007, +2.23877487420E+002, -1.26330088194E+003
+5.87095158598E+007, +2.19921069217E+002, -1.22249599593E+003
+5.89582637730E+007, +2.13151266727E+002, -1.18084209125E+003
+5.92070116861E+007, +2.07891322952E+002, -1.13905951332E+003
+5.94557595993E+007, +2.02483191025E+002, -1.09697037065E+003
+5.97045075125E+007, +1.97357493101E+002, -1.06241474167E+003
+5.99532554257E+007, +1.94949238497E+002, -1.02633721917E+003
+6.02020033389E+007, +1.89586341924E+002, -9.93410023786E+002
+6.04507512521E+007, +1.89694247836E+002, -9.62265371268E+002
+6.06994991653E+007, +1.84624963141E+002, -9.32257332172E+002
+6.09482470785E+007, +1.78181093407E+002, -9.00977129962E+002
+6.11969949917E+007, +1.72534144183E+002, -8.69182633849E+002
+6.14457429048E+007, +1.71711886788E+002, -8.46359108422E+002
+6.16944908180E+007, +1.70456634968E+002, -8.21063122978E+002
+6.19432387312E+007, +1.64328367741E+002, -7.94888566208E+002
+6.21919866444E+007, +1.60822356715E+002, -7.68141520206E+002
+6.24407345576E+007, +1.58695230775E+002, -7.43778647031E+002
+6.26894824708E+007, +1.56792311569E+002, -7.17197206358E+002
+6.29382303840E+007, +1.53574650086E+002, -6.91325963232E+002
+6.31869782972E+007, +1.52086674836E+002, -6.68575744819E+002
+6.34357262104E+007, +1.50081952465E+002, -6.45504433978E+002
+6.36844741235E+007, +1.48273983798E+002, -6.23010618555E+002
+6.39332220367E+007, +1.47451022652E+002, -6.02772429459E+002
+6.41819699499E+007, +1.45864594869E+002, -5.80898474093E+002
+6.44307178631E+007, +1.44185642963E+002, -5.61790338147E+002
+6.46794657763E+007, +1.41223730293E+002, -5.40955400972E+002
+6.49282136895E+007, +1.37297090656E+002, -5.22795655345E+002
+6.51769616027E+007, +1.34998432597E+002, -5.03337598789E+002
+6.54257095159E+007, +1.33513344983E+002, -4.83012508912E+002
+6.56744574290E+007, +1.31140354472E+002, -4.64410384771E+002
+6.59232053422E+007, +1.29458421407E+002, -4.44509255616E+002
+6.61719532554E+007, +1.29394323613E+002, -4.25598651747E+002
+6.64207011686E+007, +1.29396816619E+002, -4.06337065145E+002
+6.66694490818E+007, +1.30566581252E+002, -3.88484703208E+002
+6.69181969950E+007, +1.31735770896E+002, -3.71997601971E+002
+6.71669449082E+007, +1.33478895220E+002, -3.54855908270E+002
+6.74156928214E+007, +1.34876060338E+002, -3.39514497370E+002
+6.76644407346E+007, +1.35927589374E+002, -3.25230541188E+002
+6.79131886477E+007, +1.36314061562E+002, -3.11271421696E+002
+6.81619365609E+007, +1.36781823833E+002, -2.98410794316E+002
+6.84106844741E+007, +1.37052206704E+002, -2.85823141595E+002
+6.86594323873E+007, +1.37112198850E+002, -2.73644842010E+002
+6.89081803005E+007, +1.36348222985E+002, -2.61595482157E+002
+6.91569282137E+007, +1.35469190786E+002, -2.49730384918E+002
+6.94056761269E+007, +1.33755317923E+002, -2.37539839958E+002
+6.96544240401E+007, +1.32153009741E+002, -2.25479988699E+002
+6.99031719533E+007, +1.30638302450E+002, -2.13131399672E+002
+7.01519198664E+007, +1.28841307105E+002, -2.00696244852E+002
+7.04006677796E+007, +1.26943935063E+002, -1.88281490517E+002
+7.06494156928E+007, +1.25185659531E+002, -1.76013292764E+002
+7.08981636060E+007, +1.24077343298E+002, -1.63528099438E+002
+7.11469115192E+007, +1.22886328815E+002, -1.50670217259E+002
+7.13956594324E+007, +1.22095720030E+002, -1.38449869306E+002
+7.16444073456E+007, +1.21338021546E+002, -1.26522545234E+002
+7.18931552588E+007, +1.20514469926E+002, -1.14784225823E+002
+7.21419031720E+007, +1.19575437619E+002, -1.03170324659E+002
+7.23906510851E+007, +1.18673028196E+002, -9.18167132537E+001
+7.26393989983E+007, +1.17797770520E+002, -8.06189386910E+001
+7.28881469115E+007, +1.16878878671E+002, -6.93151519215E+001
+7.31368948247E+007, +1.16003738729E+002, -5.80214296713E+001
+7.33856427379E+007, +1.15120316831E+002, -4.68365292077E+001
+7.36343906511E+007, +1.14376841288E+002, -3.56697838163E+001
+7.38831385643E+007, +1.13818913990E+002, -2.46476190996E+001
+7.41318864775E+007, +1.13287170454E+002, -1.37727712194E+001
+7.43806343907E+007, +1.12691753017E+002, -3.17045762633E+000
+7.46293823038E+007, +1.12425025475E+002, +7.23216567599E+000
+7.48781302170E+007, +1.11952365528E+002, +1.74785481414E+001
+7.51268781302E+007, +1.11365552285E+002, +2.75946302227E+001
+7.53756260434E+007, +1.10555138015E+002, +3.75040162941E+001
+7.56243739566E+007, +1.09868322975E+002, +4.74459492826E+001
+7.58731218698E+007, +1.08988499002E+002, +5.72836839308E+001
+7.61218697830E+007, +1.07960873108E+002, +6.69984674455E+001
+7.63706176962E+007, +1.06538989201E+002, +7.67148368685E+001
+7.66193656093E+007, +1.05184267585E+002, +8.67190477947E+001
+7.68681135225E+007, +1.03899804939E+002, +9.67109160774E+001
+7.71168614357E+007, +1.02483491517E+002, +1.06963302574E+002
+7.73656093489E+007, +1.01211550813E+002, +1.17153187315E+002
+7.76143572621E+007, +1.00137039069E+002, +1.27671273166E+002
+7.78631051753E+007, +9.91923275251E+001, +1.38278223159E+002
+7.81118530885E+007, +9.84543846694E+001, +1.48812840327E+002
+7.83606010017E+007, +9.79851021787E+001, +1.59188441251E+002
+7.86093489149E+007, +9.74382482233E+001, +1.69619636451E+002
+7.88580968280E+007, +9.69003055975E+001, +1.79849947986E+002
+7.91068447412E+007, +9.62071755610E+001, +1.89812779261E+002
+7.93555926544E+007, +9.56899795685E+001, +2.00248304830E+002
+7.96043405676E+007, +9.50920334259E+001, +2.10484225106E+002
+7.98530884808E+007, +9.45306192981E+001, +2.20488344695E+002
+8.01018363940E+007, +9.38732789841E+001, +2.30972089958E+002
+8.03505843072E+007, +9.35797260177E+001, +2.41150948974E+002
+8.05993322204E+007, +9.29178357873E+001, +2.51466372786E+002
