"# Channel 1"
"# Trace 1"
Frequency, Formatted Data, Formatted Data
+1.00000000000E+005, +1.52746365655E+002, +7.13320265295E-001
+2.25031289111E+005, +1.52134663966E+002, +5.44173667228E+000
+3.50062578223E+005, +1.52199059343E+002, +9.19619718119E+000
+4.75093867334E+005, +1.52235429069E+002, +1.23307758561E+001
+6.00125156446E+005, +1.52230503794E+002, +1.56115509007E+001
+7.25156445557E+005, +1.52137808572E+002, +1.91616469331E+001
+8.50187734668E+005, +1.52321344890E+002, +2.23284654139E+001
+9.75219023780E+005, +1.52298139464E+002, +2.52646879948E+001
+1.10025031289E+006, +1.52137364878E+002, +2.89728708846E+001
+1.22528160200E+006, +1.52485528050E+002, +3.18935676788E+001
+1.35031289111E+006, +1.52668251105E+002, +3.48093498005E+001
+1.47534418023E+006, +1.52935263510E+002, +3.77768770985E+001
+1.60037546934E+006, +1.52719720249E+002, +4.10360606867E+001
+1.72540675845E+006, +1.52833510110E+002, +4.44810334329E+001
+1.85043804756E+006, +1.52520384886E+002, +4.78849252933E+001
+1.97546933667E+006, +1.52588347400E+002, +5.10852716872E+001
+2.10050062578E+006, +1.53382214173E+002, +5.44072794740E+001
+2.22553191489E+006, +1.53159064705E+002, +5.78924490640E+001
+2.35056320401E+006, +1.52499123188E+002, +6.08474410079E+001
+2.47559449312E+006, +1.52996811853E+002, +6.41218216901E+001
+2.60062578223E+006, +1.53068643399E+002, +6.73838258854E+001
+2.72565707134E+006, +1.52914894945E+002, +7.06632404179E+001
+2.85068836045E+006, +1.53032592705E+002, +7.38065856885E+001
+2.97571964956E+006, +1.53334686068E+002, +7.67761137948E+001
+3.10075093867E+006, +1.53530992109E+002, +7.99422299517E+001
+3.22578222778E+006, +1.53610886038E+002, +8.34002497178E+001
+3.35081351690E+006, +1.53369852009E+002, +8.66987009647E+001
+3.47584480601E+006, +1.53290032857E+002, +8.97458617164E+001
+3.60087609512E+006, +1.53745535885E+002, +9.28934117576E+001
+3.72590738423E+006, +1.53692530174E+002, +9.81612082311E+001
+3.85093867334E+006, +1.55434665263E+002, +1.04578148086E+002
+3.97596996245E+006, +1.56557593432E+002, +1.11256525291E+002
+4.10100125156E+006, +1.53816585298E+002, +1.05418642022E+002
+4.22603254068E+006, +1.50946861943E+002, +1.13574780808E+002
+4.35106382979E+006, +1.52873210872E+002, +1.16431124003E+002
+4.47609511890E+006, +1.53910248412E+002, +1.17405840870E+002
+4.60112640801E+006, +1.54114298181E+002, +1.18880792591E+002
+4.72615769712E+006, +1.54295069077E+002, +1.22545973882E+002
+4.85118898623E+006, +1.54195933339E+002, +1.25298840187E+002
+4.97622027534E+006, +1.54674441042E+002, +1.28563679848E+002
+5.10125156446E+006, +1.54481653552E+002, +1.31800586938E+002
+5.22628285357E+006, +1.54932840159E+002, +1.35097140836E+002
+5.35131414268E+006, +1.54836852143E+002, +1.38747148183E+002
+5.47634543179E+006, +1.55007339673E+002, +1.42327161825E+002
+5.60137672090E+006, +1.55072499017E+002, +1.45327087393E+002
+5.72640801001E+006, +1.55168587090E+002, +1.48714938894E+002
+5.85143929912E+006, +1.55528918302E+002, +1.51879142338E+002
+5.97647058824E+006, +1.55273688392E+002, +1.55110396617E+002
+6.10150187735E+006, +1.56118193251E+002, +1.58162748674E+002
+6.22653316646E+006, +1.55838573448E+002, +1.61523393179E+002
+6.35156445557E+006, +1.56218653049E+002, +1.64578172373E+002
+6.47659574468E+006, +1.56132347107E+002, +1.68117356887E+002
+6.60162703379E+006, +1.56727019563E+002, +1.71093068792E+002
+6.72665832290E+006, +1.57234570889E+002, +1.74651519688E+002
+6.85168961202E+006, +1.57242649740E+002, +1.77719002314E+002
+6.97672090113E+006, +1.57185889689E+002, +1.81426924257E+002
+7.10175219024E+006, +1.57851328913E+002, +1.84509252808E+002
+7.22678347935E+006, +1.57916097713E+002, +1.87606301944E+002
+7.35181476846E+006, +1.58152357024E+002, +1.91033317273E+002
+7.47684605757E+006, +1.58101702716E+002, +1.94712421480E+002
+7.60187734668E+006, +1.58274546186E+002, +1.97903726320E+002
+7.72690863579E+006, +1.58754012587E+002, +2.01145459613E+002
+7.85193992491E+006, +1.59163582630E+002, +2.04961451094E+002
+7.97697121402E+006, +1.58951830413E+002, +2.08251109356E+002
+8.10200250313E+006, +1.59277766704E+002, +2.11498791707E+002
+8.22703379224E+006, +1.59582343284E+002, +2.14636461718E+002
+8.35206508135E+006, +1.59982158769E+002, +2.18380716627E+002
+8.47709637046E+006, +1.60039853341E+002, +2.22377720758E+002
+8.60212765957E+006, +1.59610377191E+002, +2.25071660455E+002
+8.72715894869E+006, +1.60587222937E+002, +2.28384943104E+002
+8.85219023780E+006, +1.60773719218E+002, +2.31680108918E+002
+8.97722152691E+006, +1.60923512662E+002, +2.34951084073E+002
+9.10225281602E+006, +1.61388283003E+002, +2.39146461934E+002
+9.22728410513E+006, +1.61781187551E+002, +2.42870371929E+002
+9.35231539424E+006, +1.62047229344E+002, +2.46610904986E+002
+9.47734668335E+006, +1.62246258622E+002, +2.50105970963E+002
+9.60237797247E+006, +1.62183444973E+002, +2.52640603406E+002
+9.72740926158E+006, +1.62741672346E+002, +2.55901975972E+002
+9.85244055069E+006, +1.62801345734E+002, +2.59815782084E+002
+9.97747183980E+006, +1.62894395116E+002, +2.63270535665E+002
+1.01025031289E+007, +1.63296426834E+002, +2.66920187660E+002
+1.02275344180E+007, +1.63313235715E+002, +2.70040746719E+002
+1.03525657071E+007, +1.63801804201E+002, +2.73943452944E+002
+1.04775969962E+007, +1.64436492126E+002, +2.77546379056E+002
+1.06026282854E+007, +1.65371164737E+002, +2.81544738017E+002
+1.07276595745E+007, +1.65003489027E+002, +2.85101410062E+002
+1.08526908636E+007, +1.65374168528E+002, +2.88019075021E+002
+1.09777221527E+007, +1.65911604339E+002, +2.91979354587E+002
+1.11027534418E+007, +1.66158979115E+002, +2.95821424687E+002
+1.12277847309E+007, +1.65893181705E+002, +2.99160942340E+002
+1.13528160200E+007, +1.67140753203E+002, +3.03551101137E+002
+1.14778473091E+007, +1.66889297895E+002, +3.06888440325E+002
+1.16028785982E+007, +1.67297085914E+002, +3.10712102486E+002
+1.17279098874E+007, +1.67353274604E+002, +3.13975943216E+002
+1.18529411765E+007, +1.67696501051E+002, +3.17193905122E+002
+1.19779724656E+007, +1.68555088268E+002, +3.21763663591E+002
+1.21030037547E+007, +1.68603529303E+002, +3.25994945989E+002
+1.22280350438E+007, +1.68912424335E+002, +3.29194239329E+002
+1.23530663329E+007, +1.70125861175E+002, +3.33041603487E+002
+1.24780976220E+007, +1.69806636457E+002, +3.36840104946E+002
+1.26031289111E+007, +1.69784261355E+002, +3.40966516421E+002
+1.27281602003E+007, +1.70107527448E+002, +3.44607773054E+002
+1.28531914894E+007, +1.70401436003E+002, +3.48141077707E+002
+1.29782227785E+007, +1.71416446956E+002, +3.51979726517E+002
+1.31032540676E+007, +1.71368353264E+002, +3.56115062977E+002
+1.32282853567E+007, +1.71576584622E+002, +3.59947736103E+002
+1.33533166458E+007, +1.72029155505E+002, +3.64046145040E+002
+1.34783479349E+007, +1.72830636981E+002, +3.67634175946E+002
+1.36033792240E+007, +1.74068777944E+002, +3.72265369475E+002
+1.37284105131E+007, +1.74166461308E+002, +3.75694156354E+002
+1.38534418023E+007, +1.74835528425E+002, +3.79621362846E+002
+1.39784730914E+007, +1.74734488539E+002, +3.83136783414E+002
+1.41035043805E+007, +1.74401961008E+002, +3.87359360310E+002
+1.42285356696E+007, +1.75675627538E+002, +3.90900478317E+002
+1.43535669587E+007, +1.76265088793E+002, +3.95053830351E+002
+1.44785982478E+007, +1.75983220964E+002, +3.99229712935E+002
+1.46036295369E+007, +1.77757633881E+002, +4.03797526541E+002
+1.47286608260E+007, +1.77787554313E+002, +4.07254507117E+002
+1.48536921151E+007, +1.78065461401E+002, +4.11759669394E+002
+1.49787234043E+007, +1.77751944248E+002, +4.15655451406E+002
+1.51037546934E+007, +1.79154115345E+002, +4.19932119678E+002
+1.52287859825E+007, +1.79397608936E+002, +4.24195142441E+002
+1.53538172716E+007, +1.81212953669E+002, +4.28274582949E+002
+1.54788485607E+007, +1.81347701512E+002, +4.32311822070E+002
+1.56038798498E+007, +1.81163967760E+002, +4.36701103525E+002
+1.57289111389E+007, +1.82338974555E+002, +4.41253902097E+002
+1.58539424280E+007, +1.82803214297E+002, +4.45091424358E+002
+1.59789737171E+007, +1.84403090270E+002, +4.48815869680E+002
+1.61040050063E+007, +1.84277138354E+002, +4.53767270664E+002
+1.62290362954E+007, +1.84970316489E+002, +4.57355020753E+002
+1.63540675845E+007, +1.84899709751E+002, +4.62039067132E+002
+1.64790988736E+007, +1.85614834731E+002, +4.66093936814E+002
+1.66041301627E+007, +1.85908861354E+002, +4.70878397420E+002
+1.67291614518E+007, +1.87356445789E+002, +4.75526370515E+002
+1.68541927409E+007, +1.87770101598E+002, +4.80676898883E+002
+1.69792240300E+007, +1.87637907603E+002, +4.85848827168E+002
+1.71042553191E+007, +1.87490181041E+002, +4.92072847398E+002
+1.72292866083E+007, +1.89444484408E+002, +4.95676104506E+002
+1.73543178974E+007, +1.88988622162E+002, +4.99096531606E+002
+1.74793491865E+007, +1.90261072941E+002, +5.03199360759E+002
+1.76043804756E+007, +1.91310604878E+002, +5.08652427403E+002
+1.77294117647E+007, +1.92466619047E+002, +5.11379741430E+002
+1.78544430538E+007, +1.93457882186E+002, +5.17828173523E+002
+1.79794743429E+007, +1.93063836046E+002, +5.23057608744E+002
+1.81045056320E+007, +1.93332322735E+002, +5.27903437670E+002
+1.82295369212E+007, +1.95263772440E+002, +5.31306818576E+002
+1.83545682103E+007, +1.95771820055E+002, +5.36583806508E+002
+1.84795994994E+007, +1.97304079626E+002, +5.40709261675E+002
+1.86046307885E+007, +1.97645750551E+002, +5.45978704854E+002
+1.87296620776E+007, +1.98956069914E+002, +5.48688638057E+002
+1.88546933667E+007, +2.00116720549E+002, +5.55368702677E+002
+1.89797246558E+007, +2.00373832580E+002, +5.59194434533E+002
+1.91047559449E+007, +2.01556063373E+002, +5.65290030032E+002
+1.92297872340E+007, +2.01916311855E+002, +5.68084081039E+002
+1.93548185232E+007, +2.02486907726E+002, +5.71812518270E+002
+1.94798498123E+007, +2.02902191400E+002, +5.79383152792E+002
+1.96048811014E+007, +2.05751333760E+002, +5.82918258579E+002
+1.97299123905E+007, +2.06499432488E+002, +5.87209434221E+002
+1.98549436796E+007, +2.07542685329E+002, +5.93317147817E+002
+1.99799749687E+007, +2.07048656328E+002, +6.00391718828E+002
+2.01050062578E+007, +2.07953897528E+002, +6.03434381373E+002
+2.02300375469E+007, +2.09916302750E+002, +6.09925215882E+002
+2.03550688360E+007, +2.11699443019E+002, +6.17241936754E+002
+2.04801001252E+007, +2.11576013534E+002, +6.20733832337E+002
+2.06051314143E+007, +2.12011055571E+002, +6.26466767125E+002
+2.07301627034E+007, +2.14474396038E+002, +6.31191879580E+002
+2.08551939925E+007, +2.15072796511E+002, +6.35554387913E+002
+2.09802252816E+007, +2.15017439482E+002, +6.41305165923E+002
+2.11052565707E+007, +2.17021573739E+002, +6.47417129796E+002
+2.12302878598E+007, +2.19075252890E+002, +6.52229568167E+002
+2.13553191489E+007, +2.18931707305E+002, +6.57209659559E+002
+2.14803504380E+007, +2.19837617985E+002, +6.63238385939E+002
+2.16053817272E+007, +2.21744904709E+002, +6.69268838113E+002
+2.17304130163E+007, +2.24505364899E+002, +6.75420086759E+002
+2.18554443054E+007, +2.26132922213E+002, +6.79910527312E+002
+2.19804755945E+007, +2.29493753029E+002, +6.86246578870E+002
+2.21055068836E+007, +2.28643935047E+002, +6.91537433368E+002
+2.22305381727E+007, +2.32732987695E+002, +6.96936853375E+002
+2.23555694618E+007, +2.29647243989E+002, +7.02855931940E+002
+2.24806007509E+007, +2.32111782315E+002, +7.08110549196E+002
+2.26056320401E+007, +2.32874725033E+002, +7.13595600601E+002
+2.27306633292E+007, +2.35920124605E+002, +7.20500260186E+002
+2.28556946183E+007, +2.39074230010E+002, +7.26009779696E+002
+2.29807259074E+007, +2.41041385119E+002, +7.33109076843E+002
+2.31057571965E+007, +2.41015176275E+002, +7.38368745399E+002
+2.32307884856E+007, +2.45519309607E+002, +7.42947480654E+002
+2.33558197747E+007, +2.43832086861E+002, +7.46892700517E+002
+2.34808510638E+007, +2.46517043242E+002, +7.53151694091E+002
+2.36058823529E+007, +2.51564038163E+002, +7.56641547868E+002
+2.37309136421E+007, +2.52761254404E+002, +7.62513470296E+002
+2.38559449312E+007, +2.53542053960E+002, +7.71566799305E+002
+2.39809762203E+007, +2.55441830140E+002, +7.77893401492E+002
+2.41060075094E+007, +2.54750816947E+002, +7.87213288748E+002
+2.42310387985E+007, +2.58870677058E+002, +7.89062289243E+002
+2.43560700876E+007, +2.59923601550E+002, +7.94972239647E+002
+2.44811013767E+007, +2.62776151611E+002, +8.01622089515E+002
+2.46061326658E+007, +2.61898169843E+002, +8.04332041705E+002
+2.47311639549E+007, +2.64826365981E+002, +8.09464001747E+002
+2.48561952441E+007, +2.65658111258E+002, +8.19370682690E+002
+2.49812265332E+007, +2.63388544385E+002, +8.25436262392E+002
+2.51062578223E+007, +2.62840730417E+002, +8.33427797220E+002
+2.52312891114E+007, +2.65546908383E+002, +8.35453270163E+002
+2.53563204005E+007, +2.67420655204E+002, +8.43577987304E+002
+2.54813516896E+007, +2.73119451007E+002, +8.50216883273E+002
+2.56063829787E+007, +2.70288761157E+002, +8.61411036008E+002
+2.57314142678E+007, +2.77011694264E+002, +8.63668562277E+002
+2.58564455569E+007, +2.75247438724E+002, +8.75841350025E+002
+2.59814768461E+007, +2.81924261870E+002, +8.85211359003E+002
+2.61065081352E+007, +2.81835118588E+002, +8.93735324908E+002
+2.62315394243E+007, +2.84765653567E+002, +8.98967842708E+002
+2.63565707134E+007, +2.85106907005E+002, +9.08190550457E+002
+2.64816020025E+007, +2.86623765620E+002, +9.14210697827E+002
+2.66066332916E+007, +2.89854117414E+002, +9.25975106243E+002
+2.67316645807E+007, +2.87257289679E+002, +9.28137252094E+002
+2.68566958698E+007, +2.92795394760E+002, +9.35669241728E+002
+2.69817271589E+007, +2.97201824576E+002, +9.44634451594E+002
+2.71067584481E+007, +3.00230064418E+002, +9.50545803944E+002
+2.72317897372E+007, +2.97966554515E+002, +9.58312495233E+002
+2.73568210263E+007, +3.02191631353E+002, +9.65529251016E+002
+2.74818523154E+007, +3.03867203683E+002, +9.73266397499E+002
+2.76068836045E+007, +3.02131919531E+002, +9.82603597874E+002
+2.77319148936E+007, +3.05327244864E+002, +9.88824857360E+002
+2.78569461827E+007, +3.07363537795E+002, +9.97981631324E+002
+2.79819774718E+007, +3.12594630700E+002, +1.00993489343E+003
+2.81070087610E+007, +3.14322943959E+002, +1.01818124441E+003
+2.82320400501E+007, +3.20681618702E+002, +1.02697252424E+003
+2.83570713392E+007, +3.20667343042E+002, +1.03690023451E+003
+2.84821026283E+007, +3.27743082153E+002, +1.04313290199E+003
+2.86071339174E+007, +3.28181045997E+002, +1.05244032437E+003
+2.87321652065E+007, +3.30123459253E+002, +1.05878829880E+003
+2.88571964956E+007, +3.36092298323E+002, +1.07250063934E+003
+2.89822277847E+007, +3.32638048467E+002, +1.08173080197E+003
+2.91072590738E+007, +3.41061387349E+002, +1.08929155245E+003
+2.92322903630E+007, +3.42709775035E+002, +1.10126285283E+003
+2.93573216521E+007, +3.48674731277E+002, +1.11605967807E+003
+2.94823529412E+007, +3.42051013715E+002, +1.12627687222E+003
+2.96073842303E+007, +3.43142721826E+002, +1.13878344528E+003
+2.97324155194E+007, +3.50215825320E+002, +1.14390521600E+003
+2.98574468085E+007, +3.54914739211E+002, +1.15158684591E+003
+2.99824780976E+007, +3.56317635917E+002, +1.16120560635E+003
+3.01075093867E+007, +3.64915173977E+002, +1.16769038032E+003
+3.02325406758E+007, +3.63699350747E+002, +1.18263934195E+003
+3.03575719650E+007, +3.70954104185E+002, +1.19019502071E+003
+3.04826032541E+007, +3.77781712202E+002, +1.20605801542E+003
+3.06076345432E+007, +3.74511047129E+002, +1.21421861770E+003
+3.07326658323E+007, +3.86224540623E+002, +1.22932753502E+003
+3.08576971214E+007, +3.88238341264E+002, +1.24037251673E+003
+3.09827284105E+007, +3.96737577726E+002, +1.25076191737E+003
+3.11077596996E+007, +3.98504065418E+002, +1.26067326036E+003
+3.12327909887E+007, +4.00847964265E+002, +1.27228707417E+003
+3.13578222778E+007, +4.04075518331E+002, +1.29319278505E+003
+3.14828535670E+007, +4.07795870137E+002, +1.29758394431E+003
+3.16078848561E+007, +4.12611143603E+002, +1.31210882633E+003
+3.17329161452E+007, +4.17082927403E+002, +1.32953151555E+003
+3.18579474343E+007, +4.20110420874E+002, +1.34324826070E+003
+3.19829787234E+007, +4.32311059195E+002, +1.35329505541E+003
+3.21080100125E+007, +4.40229711016E+002, +1.36432216889E+003
+3.22330413016E+007, +4.38206955953E+002, +1.37539344460E+003
+3.23580725907E+007, +4.42747049113E+002, +1.38847162250E+003
+3.24831038798E+007, +4.50866794071E+002, +1.39772835304E+003
+3.26081351690E+007, +4.50090964755E+002, +1.42756798656E+003
+3.27331664581E+007, +4.61066386728E+002, +1.42630255347E+003
+3.28581977472E+007, +4.60795170612E+002, +1.44685331415E+003
+3.29832290363E+007, +4.63970260774E+002, +1.46184901498E+003
+3.31082603254E+007, +4.69012144797E+002, +1.47515093953E+003
+3.32332916145E+007, +4.74518407927E+002, +1.48288468996E+003
+3.33583229036E+007, +4.89282263472E+002, +1.50318476328E+003
+3.34833541927E+007, +4.87895387598E+002, +1.52968773910E+003
+3.36083854819E+007, +5.02059139082E+002, +1.53938021430E+003
+3.37334167710E+007, +5.12266236071E+002, +1.56299568198E+003
+3.38584480601E+007, +5.21968067718E+002, +1.56543111186E+003
+3.39834793492E+007, +5.32138934861E+002, +1.58913071007E+003
+3.41085106383E+007, +5.37937874019E+002, +1.60496941513E+003
+3.42335419274E+007, +5.50906448270E+002, +1.61455551779E+003
+3.43585732165E+007, +5.55960212839E+002, +1.63358262002E+003
+3.44836045056E+007, +5.50169124907E+002, +1.65608584623E+003
+3.46086357947E+007, +5.63236423257E+002, +1.65881904837E+003
+3.47336670839E+007, +5.77963947766E+002, +1.69391594515E+003
+3.48586983730E+007, +5.82115522377E+002, +1.70678065362E+003
+3.49837296621E+007, +5.86974606309E+002, +1.72720689242E+003
+3.51087609512E+007, +6.11191980405E+002, +1.74764248586E+003
+3.52337922403E+007, +6.17755935508E+002, +1.77775584609E+003
+3.53588235294E+007, +6.34864854785E+002, +1.78092903536E+003
+3.54838548185E+007, +6.52283125739E+002, +1.80461063530E+003
+3.56088861076E+007, +6.60994985238E+002, +1.82315639730E+003
+3.57339173967E+007, +6.67286360991E+002, +1.84872139449E+003
+3.58589486859E+007, +6.78013844712E+002, +1.88356476356E+003
+3.59839799750E+007, +6.71848273475E+002, +1.90209292801E+003
+3.61090112641E+007, +6.95445490417E+002, +1.92070371102E+003
+3.62340425532E+007, +7.14842689158E+002, +1.94190077796E+003
+3.63590738423E+007, +7.19623233215E+002, +1.97002293752E+003
+3.64841051314E+007, +7.45660833759E+002, +1.96991064215E+003
+3.66091364205E+007, +7.48123237864E+002, +1.98826518287E+003
+3.67341677096E+007, +7.87992122653E+002, +2.03686849209E+003
+3.68591989987E+007, +7.86096734083E+002, +2.05019692034E+003
+3.69842302879E+007, +7.98806516334E+002, +2.07913322754E+003
+3.71092615770E+007, +8.05187644137E+002, +2.09076001642E+003
+3.72342928661E+007, +8.21624522931E+002, +2.11976843837E+003
+3.73593241552E+007, +8.66740522932E+002, +2.14288705557E+003
+3.74843554443E+007, +8.66034790737E+002, +2.17521357806E+003
+3.76093867334E+007, +8.82383530292E+002, +2.20446043290E+003
+3.77344180225E+007, +9.03963588565E+002, +2.24835805746E+003
+3.78594493116E+007, +9.30951153959E+002, +2.27671374038E+003
+3.79844806008E+007, +9.62439826070E+002, +2.28739472741E+003
+3.81095118899E+007, +9.82720696865E+002, +2.33735095883E+003
+3.82345431790E+007, +1.03547714002E+003, +2.35795803436E+003
+3.83595744681E+007, +1.04471119964E+003, +2.39989801008E+003
+3.84846057572E+007, +1.04810535587E+003, +2.38425850403E+003
+3.86096370463E+007, +1.07887023297E+003, +2.40339247584E+003
+3.87346683354E+007, +1.10258613478E+003, +2.45382257902E+003
+3.88596996245E+007, +1.17970044953E+003, +2.52261091213E+003
+3.89847309136E+007, +1.17936612487E+003, +2.52237395953E+003
+3.91097622028E+007, +1.20868733210E+003, +2.57612189818E+003
+3.92347934919E+007, +1.22551535003E+003, +2.59676818870E+003
+3.93598247810E+007, +1.27193016637E+003, +2.64295555666E+003
+3.94848560701E+007, +1.32620928179E+003, +2.67382540753E+003
+3.96098873592E+007, +1.34320776934E+003, +2.68043978070E+003
+3.97349186483E+007, +1.37646272537E+003, +2.72343738317E+003
+3.98599499374E+007, +1.43784828952E+003, +2.78218936959E+003
+3.99849812265E+007, +1.47807666826E+003, +2.83910679077E+003
+4.01100125156E+007, +1.47774279691E+003, +2.88365916244E+003
