"# Channel 1"
"# Trace 1"
Frequency, Formatted Data, Formatted Data
+1.00000000000E+005, +4.01258355191E+002, -1.20935814811E+001
+2.25031289111E+005, +3.96135473277E+002, +7.78778266977E+000
+3.50062578223E+005, +3.96088392693E+002, +9.88446440304E+000
+4.75093867334E+005, +3.96037511949E+002, +1.37615600919E+001
+6.00125156446E+005, +3.95638803242E+002, +1.88752651346E+001
+7.25156445557E+005, +3.96927754307E+002, +2.31160135108E+001
+8.50187734668E+005, +3.97430942952E+002, +2.66153819786E+001
+9.75219023780E+005, +3.98324251052E+002, +3.04651915179E+001
+1.10025031289E+006, +3.97821552703E+002, +3.37455993011E+001
+1.22528160200E+006, +3.98511265677E+002, +3.88261125261E+001
+1.35031289111E+006, +3.99794066957E+002, +4.22865980368E+001
+1.47534418023E+006, +3.98803684295E+002, +4.59439931040E+001
+1.60037546934E+006, +3.98879489785E+002, +5.12289374578E+001
+1.72540675845E+006, +3.98783071012E+002, +5.32473300647E+001
+1.85043804756E+006, +4.00937267914E+002, +5.87901049235E+001
+1.97546933667E+006, +4.01559845084E+002, +6.36759070429E+001
+2.10050062578E+006, +4.00990380181E+002, +6.63003575615E+001
+2.22553191489E+006, +4.02373723802E+002, +7.19555316932E+001
+2.35056320401E+006, +4.03727926839E+002, +7.46327642388E+001
+2.47559449312E+006, +4.02323474412E+002, +7.90752468273E+001
+2.60062578223E+006, +4.01975282444E+002, +8.32911052299E+001
+2.72565707134E+006, +4.02749598379E+002, +8.78689437945E+001
+2.85068836045E+006, +4.01644243794E+002, +9.28328014638E+001
+2.97571964956E+006, +4.03005719649E+002, +9.56383944259E+001
+3.10075093867E+006, +4.03343941526E+002, +1.00919436718E+002
+3.22578222778E+006, +4.02719862123E+002, +1.03386535800E+002
+3.35081351690E+006, +4.01610770604E+002, +1.08795977785E+002
+3.47584480601E+006, +4.00594160176E+002, +1.11480894646E+002
+3.60087609512E+006, +4.01316771591E+002, +1.15173041207E+002
+3.72590738423E+006, +4.01882704687E+002, +1.18538231011E+002
+3.85093867334E+006, +4.02208036321E+002, +1.22879177807E+002
+3.97596996245E+006, +3.99261894260E+002, +1.26378442162E+002
+4.10100125156E+006, +3.98715425303E+002, +1.34802657681E+002
+4.22603254068E+006, +4.05002207274E+002, +1.36191825351E+002
+4.35106382979E+006, +4.06205952859E+002, +1.39057414292E+002
+4.47609511890E+006, +4.05062743349E+002, +1.43071162983E+002
+4.60112640801E+006, +4.05032655840E+002, +1.46756648712E+002
+4.72615769712E+006, +4.07389411201E+002, +1.52992894239E+002
+4.85118898623E+006, +4.06042195371E+002, +1.55826923899E+002
+4.97622027534E+006, +4.06247082154E+002, +1.58401491577E+002
+5.10125156446E+006, +4.03323685981E+002, +1.64579816859E+002
+5.22628285357E+006, +4.05012242738E+002, +1.69465894687E+002
+5.35131414268E+006, +4.03239366443E+002, +1.72855666377E+002
+5.47634543179E+006, +4.07790525001E+002, +1.76167224923E+002
+5.60137672090E+006, +4.04214580490E+002, +1.79749523878E+002
+5.72640801001E+006, +4.05795126522E+002, +1.83468861526E+002
+5.85143929912E+006, +4.08226813400E+002, +1.88045650834E+002
+5.97647058824E+006, +4.07992950898E+002, +1.92888770332E+002
+6.10150187735E+006, +4.06862506440E+002, +1.98866391639E+002
+6.22653316646E+006, +4.07193720672E+002, +1.98219695929E+002
+6.35156445557E+006, +4.08669381753E+002, +2.05215298722E+002
+6.47659574468E+006, +4.07660066905E+002, +2.09155254865E+002
+6.60162703379E+006, +4.06828775645E+002, +2.11841311539E+002
+6.72665832290E+006, +4.08464984429E+002, +2.18343893658E+002
+6.85168961202E+006, +4.07989956594E+002, +2.22509756270E+002
+6.97672090113E+006, +4.08625027622E+002, +2.24881337199E+002
+7.10175219024E+006, +4.09153583196E+002, +2.30883669513E+002
+7.22678347935E+006, +4.08941327247E+002, +2.34711174621E+002
+7.35181476846E+006, +4.09447062653E+002, +2.39305150746E+002
+7.47684605757E+006, +4.09365030031E+002, +2.43258417222E+002
+7.60187734668E+006, +4.10545182811E+002, +2.46271625358E+002
+7.72690863579E+006, +4.10853183678E+002, +2.52076039215E+002
+7.85193992491E+006, +4.11593230106E+002, +2.56297565006E+002
+7.97697121402E+006, +4.11649407645E+002, +2.59472342430E+002
+8.10200250313E+006, +4.12921214718E+002, +2.65604850445E+002
+8.22703379224E+006, +4.13826244379E+002, +2.70538524675E+002
+8.35206508135E+006, +4.14114882404E+002, +2.73153468065E+002
+8.47709637046E+006, +4.14812021357E+002, +2.78566842772E+002
+8.60212765957E+006, +4.13981771942E+002, +2.83037023344E+002
+8.72715894869E+006, +4.15496031389E+002, +2.87714456714E+002
+8.85219023780E+006, +4.15422069798E+002, +2.90801780563E+002
+8.97722152691E+006, +4.15851523544E+002, +2.97209622720E+002
+9.10225281602E+006, +4.17492206899E+002, +3.00441799681E+002
+9.22728410513E+006, +4.16853466608E+002, +3.06732703243E+002
+9.35231539424E+006, +4.18856163734E+002, +3.08884716769E+002
+9.47734668335E+006, +4.18921179885E+002, +3.17284986712E+002
+9.60237797247E+006, +4.20182765245E+002, +3.18185138019E+002
+9.72740926158E+006, +4.22087631508E+002, +3.24266869145E+002
+9.85244055069E+006, +4.20945395632E+002, +3.30403057701E+002
+9.97747183980E+006, +4.21894059453E+002, +3.33661934018E+002
+1.01025031289E+007, +4.21716987781E+002, +3.39255653683E+002
+1.02275344180E+007, +4.24848532289E+002, +3.42625146725E+002
+1.03525657071E+007, +4.23720142704E+002, +3.47668866793E+002
+1.04775969962E+007, +4.25610174479E+002, +3.54028786525E+002
+1.06026282854E+007, +4.25462596654E+002, +3.57122940522E+002
+1.07276595745E+007, +4.25887873381E+002, +3.63925191374E+002
+1.08526908636E+007, +4.26682299507E+002, +3.67614253625E+002
+1.09777221527E+007, +4.28393341474E+002, +3.72718378231E+002
+1.11027534418E+007, +4.29877248353E+002, +3.75822759653E+002
+1.12277847309E+007, +4.29090432155E+002, +3.82487232938E+002
+1.13528160200E+007, +4.30230914383E+002, +3.86891307494E+002
+1.14778473091E+007, +4.30731851591E+002, +3.92747270990E+002
+1.16028785982E+007, +4.31374677990E+002, +3.96591276157E+002
+1.17279098874E+007, +4.32696646380E+002, +4.00121179055E+002
+1.18529411765E+007, +4.33439550114E+002, +4.07259977143E+002
+1.19779724656E+007, +4.35006411967E+002, +4.12387995257E+002
+1.21030037547E+007, +4.36013801080E+002, +4.16111488118E+002
+1.22280350438E+007, +4.36389986915E+002, +4.23179578246E+002
+1.23530663329E+007, +4.36617197237E+002, +4.27808785466E+002
+1.24780976220E+007, +4.39307575580E+002, +4.32257423755E+002
+1.26031289111E+007, +4.38397709212E+002, +4.37000199055E+002
+1.27281602003E+007, +4.42078801807E+002, +4.43183185552E+002
+1.28531914894E+007, +4.42803973701E+002, +4.46803613984E+002
+1.29782227785E+007, +4.42439503374E+002, +4.53055254904E+002
+1.31032540676E+007, +4.43651289480E+002, +4.58808883646E+002
+1.32282853567E+007, +4.45687033968E+002, +4.63907566102E+002
+1.33533166458E+007, +4.45140202479E+002, +4.69183684820E+002
+1.34783479349E+007, +4.48458159891E+002, +4.74449643210E+002
+1.36033792240E+007, +4.48892829647E+002, +4.81369075849E+002
+1.37284105131E+007, +4.47282118989E+002, +4.83421609321E+002
+1.38534418023E+007, +4.50990147934E+002, +4.90061242518E+002
+1.39784730914E+007, +4.50984603643E+002, +4.97156729750E+002
+1.41035043805E+007, +4.51837611155E+002, +5.02455921193E+002
+1.42285356696E+007, +4.54303716592E+002, +5.08120688906E+002
+1.43535669587E+007, +4.54043991446E+002, +5.11284077266E+002
+1.44785982478E+007, +4.56096131059E+002, +5.18995193009E+002
+1.46036295369E+007, +4.57214423488E+002, +5.24815631957E+002
+1.47286608260E+007, +4.60827068477E+002, +5.29371573783E+002
+1.48536921151E+007, +4.59934405512E+002, +5.33495869010E+002
+1.49787234043E+007, +4.59580392734E+002, +5.43295124508E+002
+1.51037546934E+007, +4.64649189706E+002, +5.46319246548E+002
+1.52287859825E+007, +4.63288192693E+002, +5.56359750032E+002
+1.53538172716E+007, +4.63833109776E+002, +5.58877197113E+002
+1.54788485607E+007, +4.65514573581E+002, +5.66607371012E+002
+1.56038798498E+007, +4.68298162408E+002, +5.70618846885E+002
+1.57289111389E+007, +4.71166029200E+002, +5.76725202017E+002
+1.58539424280E+007, +4.71315167287E+002, +5.84724522161E+002
+1.59789737171E+007, +4.73308253107E+002, +5.88306117623E+002
+1.61040050063E+007, +4.73031088786E+002, +5.98011253630E+002
+1.62290362954E+007, +4.77676440329E+002, +6.00166418059E+002
+1.63540675845E+007, +4.75517287955E+002, +6.08044837549E+002
+1.64790988736E+007, +4.75608003149E+002, +6.14587654021E+002
+1.66041301627E+007, +4.79474096793E+002, +6.23724014234E+002
+1.67291614518E+007, +4.80661297510E+002, +6.27020290981E+002
+1.68541927409E+007, +4.81425239239E+002, +6.30036475009E+002
+1.69792240300E+007, +4.87181464592E+002, +6.42062206583E+002
+1.71042553191E+007, +4.88886809061E+002, +6.52210228841E+002
+1.72292866083E+007, +4.88689388046E+002, +6.58327865648E+002
+1.73543178974E+007, +4.89044825009E+002, +6.61605936887E+002
+1.74793491865E+007, +4.91372876405E+002, +6.69946346752E+002
+1.76043804756E+007, +4.95366614681E+002, +6.75035670845E+002
+1.77294117647E+007, +4.95667885283E+002, +6.81872179612E+002
+1.78544430538E+007, +4.95779354649E+002, +6.91442219677E+002
+1.79794743429E+007, +5.00133869494E+002, +6.98759538530E+002
+1.81045056320E+007, +5.04836351286E+002, +7.04081221635E+002
+1.82295369212E+007, +5.04713502579E+002, +7.08150783226E+002
+1.83545682103E+007, +5.08890541238E+002, +7.14952738819E+002
+1.84795994994E+007, +5.07294811133E+002, +7.22922269785E+002
+1.86046307885E+007, +5.12851930260E+002, +7.27382391512E+002
+1.87296620776E+007, +5.16051872477E+002, +7.37692549014E+002
+1.88546933667E+007, +5.16564353286E+002, +7.42006673969E+002
+1.89797246558E+007, +5.16932373094E+002, +7.48682881669E+002
+1.91047559449E+007, +5.20123654115E+002, +7.62033341685E+002
+1.92297872340E+007, +5.21670196887E+002, +7.70593211485E+002
+1.93548185232E+007, +5.26450030509E+002, +7.74218823793E+002
+1.94798498123E+007, +5.27294959972E+002, +7.81104103038E+002
+1.96048811014E+007, +5.28260385254E+002, +7.89001101348E+002
+1.97299123905E+007, +5.36101485609E+002, +8.02028227248E+002
+1.98549436796E+007, +5.32557774607E+002, +8.08046335478E+002
+1.99799749687E+007, +5.38439606407E+002, +8.13589759505E+002
+2.01050062578E+007, +5.43231745933E+002, +8.20923095679E+002
+2.02300375469E+007, +5.42244124077E+002, +8.24528934208E+002
+2.03550688360E+007, +5.51406236655E+002, +8.39592001221E+002
+2.04801001252E+007, +5.52193649000E+002, +8.47158710772E+002
+2.06051314143E+007, +5.52057099969E+002, +8.52099928048E+002
+2.07301627034E+007, +5.55751995179E+002, +8.67960276271E+002
+2.08551939925E+007, +5.56631292693E+002, +8.70049959887E+002
+2.09802252816E+007, +5.69363760961E+002, +8.82052294503E+002
+2.11052565707E+007, +5.61821638188E+002, +8.85016248748E+002
+2.12302878598E+007, +5.67443184940E+002, +8.94541359446E+002
+2.13553191489E+007, +5.74803708720E+002, +9.04945838164E+002
+2.14803504380E+007, +5.73969924405E+002, +9.12818537897E+002
+2.16053817272E+007, +5.79173386451E+002, +9.27522417930E+002
+2.17304130163E+007, +5.81599015165E+002, +9.29469708487E+002
+2.18554443054E+007, +5.90461165963E+002, +9.40999297211E+002
+2.19804755945E+007, +5.93606413666E+002, +9.56814055579E+002
+2.21055068836E+007, +5.98908196212E+002, +9.59292030251E+002
+2.22305381727E+007, +5.98736228859E+002, +9.67301803429E+002
+2.23555694618E+007, +6.09826481834E+002, +9.71207834553E+002
+2.24806007509E+007, +6.11265306798E+002, +9.83707919506E+002
+2.26056320401E+007, +6.12709163542E+002, +9.94515639264E+002
+2.27306633292E+007, +6.22654718769E+002, +9.98080388601E+002
+2.28556946183E+007, +6.24768694504E+002, +1.00846053512E+003
+2.29807259074E+007, +6.32847373903E+002, +1.01876127530E+003
+2.31057571965E+007, +6.40985463478E+002, +1.03077490047E+003
+2.32307884856E+007, +6.46027253784E+002, +1.03941827373E+003
+2.33558197747E+007, +6.50670831218E+002, +1.05160489916E+003
+2.34808510638E+007, +6.54520115356E+002, +1.05211102239E+003
+2.36058823529E+007, +6.61041212085E+002, +1.07481277399E+003
+2.37309136421E+007, +6.55249259403E+002, +1.07687573776E+003
+2.38559449312E+007, +6.62712135670E+002, +1.08648517598E+003
+2.39809762203E+007, +6.75948317791E+002, +1.08655645385E+003
+2.41060075094E+007, +6.70463929574E+002, +1.11014539279E+003
+2.42310387985E+007, +6.77327395068E+002, +1.10896965052E+003
+2.43560700876E+007, +6.70586575437E+002, +1.11264980569E+003
+2.44811013767E+007, +6.80376250593E+002, +1.13875619628E+003
+2.46061326658E+007, +6.83460795720E+002, +1.15065798176E+003
+2.47311639549E+007, +6.89137579664E+002, +1.15857561667E+003
+2.48561952441E+007, +6.97058703553E+002, +1.17580216013E+003
+2.49812265332E+007, +7.07077900036E+002, +1.17039133143E+003
+2.51062578223E+007, +7.05085805416E+002, +1.19902619700E+003
+2.52312891114E+007, +7.13692480160E+002, +1.20728506004E+003
+2.53563204005E+007, +7.31607768129E+002, +1.22884548565E+003
+2.54813516896E+007, +7.29339785795E+002, +1.22086986261E+003
+2.56063829787E+007, +7.36623814909E+002, +1.24419043331E+003
+2.57314142678E+007, +7.30698136810E+002, +1.24476332019E+003
+2.58564455569E+007, +7.48682864627E+002, +1.27332724150E+003
+2.59814768461E+007, +7.46858940217E+002, +1.28897778413E+003
+2.61065081352E+007, +7.53986037284E+002, +1.29091276784E+003
+2.62315394243E+007, +7.65757198379E+002, +1.30952875415E+003
+2.63565707134E+007, +7.69497261644E+002, +1.33254364842E+003
+2.64816020025E+007, +7.92214313415E+002, +1.33930600713E+003
+2.66066332916E+007, +7.85831400405E+002, +1.35197186967E+003
+2.67316645807E+007, +8.03688282351E+002, +1.36838102284E+003
+2.68566958698E+007, +8.12775465321E+002, +1.38181192199E+003
+2.69817271589E+007, +8.21823021179E+002, +1.39146233841E+003
+2.71067584481E+007, +8.21111055252E+002, +1.40755343326E+003
+2.72317897372E+007, +8.37702113909E+002, +1.41743913102E+003
+2.73568210263E+007, +8.38002738150E+002, +1.44175923837E+003
+2.74818523154E+007, +8.56527605555E+002, +1.46660501443E+003
+2.76068836045E+007, +8.50740900856E+002, +1.47417382990E+003
+2.77319148936E+007, +8.81390333373E+002, +1.50362991324E+003
+2.78569461827E+007, +8.85612811454E+002, +1.51016134732E+003
+2.79819774718E+007, +8.89331579782E+002, +1.52040461132E+003
+2.81070087610E+007, +9.00184089076E+002, +1.54510260449E+003
+2.82320400501E+007, +9.25157186884E+002, +1.58915655731E+003
+2.83570713392E+007, +9.21628863701E+002, +1.59521591859E+003
+2.84821026283E+007, +9.27070781303E+002, +1.61078565301E+003
+2.86071339174E+007, +9.62734315730E+002, +1.62169923142E+003
+2.87321652065E+007, +9.72788441539E+002, +1.64156889623E+003
+2.88571964956E+007, +9.64205714951E+002, +1.67626808884E+003
+2.89822277847E+007, +1.00423620453E+003, +1.66786383959E+003
+2.91072590738E+007, +1.01481830049E+003, +1.69514970564E+003
+2.92322903630E+007, +1.01841276291E+003, +1.71579242733E+003
+2.93573216521E+007, +1.03805290154E+003, +1.74094770068E+003
+2.94823529412E+007, +1.06819990614E+003, +1.76594754207E+003
+2.96073842303E+007, +1.06864391975E+003, +1.78309254030E+003
+2.97324155194E+007, +1.10078296539E+003, +1.82355339737E+003
+2.98574468085E+007, +1.10470618988E+003, +1.83576113043E+003
+2.99824780976E+007, +1.13390075034E+003, +1.84459332142E+003
+3.01075093867E+007, +1.15888096687E+003, +1.86838661781E+003
+3.02325406758E+007, +1.17673045383E+003, +1.88498354693E+003
+3.03575719650E+007, +1.19705043140E+003, +1.92264698001E+003
+3.04826032541E+007, +1.21467853686E+003, +1.94312264606E+003
+3.06076345432E+007, +1.23499419780E+003, +1.95443954644E+003
+3.07326658323E+007, +1.24012517154E+003, +2.01255541556E+003
+3.08576971214E+007, +1.30160751290E+003, +2.03515518855E+003
+3.09827284105E+007, +1.29552469113E+003, +2.02929058014E+003
+3.11077596996E+007, +1.32658247950E+003, +2.10575425916E+003
+3.12327909887E+007, +1.35285783865E+003, +2.11472317361E+003
+3.13578222778E+007, +1.41841967480E+003, +2.14972255224E+003
+3.14828535670E+007, +1.42769526605E+003, +2.17610445767E+003
+3.16078848561E+007, +1.43356767128E+003, +2.14365236190E+003
+3.17329161452E+007, +1.44071289272E+003, +2.23022404896E+003
+3.18579474343E+007, +1.52032039827E+003, +2.25311327680E+003
+3.19829787234E+007, +1.53490913486E+003, +2.25095849449E+003
+3.21080100125E+007, +1.57694275677E+003, +2.29813990805E+003
+3.22330413016E+007, +1.62773529647E+003, +2.36542495705E+003
+3.23580725907E+007, +1.66722949519E+003, +2.34057961750E+003
+3.24831038798E+007, +1.69017211076E+003, +2.37728674624E+003
+3.26081351690E+007, +1.73252101370E+003, +2.40481975176E+003
+3.27331664581E+007, +1.76261842623E+003, +2.44631319702E+003
+3.28581977472E+007, +1.83633851397E+003, +2.46217985678E+003
+3.29832290363E+007, +1.88993011994E+003, +2.54253449608E+003
+3.31082603254E+007, +1.97109911373E+003, +2.57550849718E+003
+3.32332916145E+007, +1.97080414456E+003, +2.64334424244E+003
+3.33583229036E+007, +2.05608528404E+003, +2.65390275642E+003
+3.34833541927E+007, +2.13366748282E+003, +2.70535862587E+003
+3.36083854819E+007, +2.14331388085E+003, +2.64728084886E+003
+3.37334167710E+007, +2.22496923057E+003, +2.74628666285E+003
+3.38584480601E+007, +2.28359957379E+003, +2.78430075834E+003
+3.39834793492E+007, +2.34158522325E+003, +2.84671346149E+003
+3.41085106383E+007, +2.32429817658E+003, +2.90853244507E+003
+3.42335419274E+007, +2.46504407042E+003, +2.84736771446E+003
+3.43585732165E+007, +2.59849562930E+003, +2.93069427772E+003
+3.44836045056E+007, +2.62995302297E+003, +2.85335475114E+003
+3.46086357947E+007, +2.75524473742E+003, +2.92750778269E+003
+3.47336670839E+007, +2.83748393194E+003, +2.88433865922E+003
+3.48586983730E+007, +2.90324841200E+003, +2.97064534183E+003
+3.49837296621E+007, +3.02768316775E+003, +2.95491711979E+003
+3.51087609512E+007, +3.11423415025E+003, +3.00298497874E+003
+3.52337922403E+007, +3.23639317207E+003, +2.96558140769E+003
+3.53588235294E+007, +3.39823771295E+003, +3.02841324135E+003
+3.54838548185E+007, +3.51746885150E+003, +3.07258770705E+003
+3.56088861076E+007, +3.57900924896E+003, +3.05812565387E+003
+3.57339173967E+007, +3.83932611606E+003, +3.10484850099E+003
+3.58589486859E+007, +3.91298363907E+003, +3.06844354374E+003
+3.59839799750E+007, +4.11112821323E+003, +2.87923822978E+003
+3.61090112641E+007, +4.20070676458E+003, +3.08488029230E+003
+3.62340425532E+007, +4.41355820865E+003, +2.94895871312E+003
+3.63590738423E+007, +4.49877198398E+003, +2.90342339830E+003
+3.64841051314E+007, +4.65765328040E+003, +3.06049614637E+003
+3.66091364205E+007, +4.87022933314E+003, +2.93007191378E+003
+3.67341677096E+007, +5.18204844826E+003, +2.69730119061E+003
+3.68591989987E+007, +5.36963857490E+003, +2.74836941722E+003
+3.69842302879E+007, +5.41070594848E+003, +2.66673464534E+003
+3.71092615770E+007, +5.57536819826E+003, +2.56795423249E+003
+3.72342928661E+007, +5.81644576908E+003, +2.49781796950E+003
+3.73593241552E+007, +6.24542748305E+003, +2.01925605759E+003
+3.74843554443E+007, +6.16451068761E+003, +2.03400175357E+003
+3.76093867334E+007, +6.16662050656E+003, +1.84958944812E+003
+3.77344180225E+007, +6.41008033752E+003, +1.50413030496E+003
+3.78594493116E+007, +6.47493541909E+003, +1.46398418323E+003
+3.79844806008E+007, +6.73465191621E+003, +1.34801598977E+003
+3.81095118899E+007, +6.84210530127E+003, +1.04518195042E+003
+3.82345431790E+007, +6.86288438744E+003, +5.85375214775E+002
+3.83595744681E+007, +6.91885306131E+003, +3.28477655500E+002
+3.84846057572E+007, +6.84471974667E+003, +1.08683167139E+002
+3.86096370463E+007, +7.26778883951E+003, -2.68240898829E+002
+3.87346683354E+007, +6.98621745792E+003, -5.57152185598E+002
+3.88596996245E+007, +6.97944155509E+003, -7.51971385668E+002
+3.89847309136E+007, +6.87891799727E+003, -1.12265418987E+003
+3.91097622028E+007, +6.73116909987E+003, -1.60521026222E+003
+3.92347934919E+007, +6.75738589146E+003, -1.69832298896E+003
+3.93598247810E+007, +6.50890820547E+003, -1.98994175712E+003
+3.94848560701E+007, +6.25376110238E+003, -2.13295629749E+003
+3.96098873592E+007, +6.31510741977E+003, -2.33073983354E+003
+3.97349186483E+007, +5.98810653747E+003, -2.46670936085E+003
+3.98599499374E+007, +5.85400504836E+003, -2.51870361060E+003
+3.99849812265E+007, +5.63894623129E+003, -3.15195022689E+003
+4.01100125156E+007, +5.42324246042E+003, -3.16625146629E+003
