"# Channel 1"
"# Trace 1"
Frequency, Formatted Data, Formatted Data
+1.00000000000E+005, +1.34785634097E+002, +6.80161696265E-001
+2.25031289111E+005, +1.34041622715E+002, +4.82849365095E+000
+3.50062578223E+005, +1.33885854320E+002, +7.79910869650E+000
+4.75093867334E+005, +1.33993717030E+002, +1.08471298705E+001
+6.00125156446E+005, +1.33922965773E+002, +1.35376780011E+001
+7.25156445557E+005, +1.33939574541E+002, +1.64728102523E+001
+8.50187734668E+005, +1.34136184216E+002, +1.92418805821E+001
+9.75219023780E+005, +1.33947820802E+002, +2.22109162197E+001
+1.10025031289E+006, +1.34028577352E+002, +2.51534577268E+001
+1.22528160200E+006, +1.34219899935E+002, +2.78525016733E+001
+1.35031289111E+006, +1.34594317020E+002, +3.04237537091E+001
+1.47534418023E+006, +1.34329769634E+002, +3.34323014067E+001
+1.60037546934E+006, +1.34217959940E+002, +3.60296583035E+001
+1.72540675845E+006, +1.34435608477E+002, +3.88630886217E+001
+1.85043804756E+006, +1.34489028036E+002, +4.20620360491E+001
+1.97546933667E+006, +1.34533914996E+002, +4.49478480077E+001
+2.10050062578E+006, +1.34322017117E+002, +4.74368925022E+001
+2.22553191489E+006, +1.34436608895E+002, +5.04790848315E+001
+2.35056320401E+006, +1.34377959792E+002, +5.32149697779E+001
+2.47559449312E+006, +1.34902882246E+002, +5.58122598881E+001
+2.60062578223E+006, +1.34661306666E+002, +5.89161891772E+001
+2.72565707134E+006, +1.34725946934E+002, +6.17268436111E+001
+2.85068836045E+006, +1.34991400295E+002, +6.42149127405E+001
+2.97571964956E+006, +1.34829475261E+002, +6.73649666815E+001
+3.10075093867E+006, +1.34859893111E+002, +7.01350603014E+001
+3.22578222778E+006, +1.35056277483E+002, +7.29828356693E+001
+3.35081351690E+006, +1.35121234721E+002, +7.57412238205E+001
+3.47584480601E+006, +1.34954063201E+002, +7.83764223791E+001
+3.60087609512E+006, +1.34843962136E+002, +8.13430401632E+001
+3.72590738423E+006, +1.35554654086E+002, +8.59941561537E+001
+3.85093867334E+006, +1.36330971975E+002, +9.10396118678E+001
+3.97596996245E+006, +1.36861192387E+002, +9.68063945570E+001
+4.10100125156E+006, +1.35003547730E+002, +9.19567202969E+001
+4.22603254068E+006, +1.32932521901E+002, +9.90819321068E+001
+4.35106382979E+006, +1.34468686977E+002, +1.01314827344E+002
+4.47609511890E+006, +1.35149392351E+002, +1.02595881419E+002
+4.60112640801E+006, +1.35323387883E+002, +1.03996961382E+002
+4.72615769712E+006, +1.35664258495E+002, +1.06425803349E+002
+4.85118898623E+006, +1.35571139265E+002, +1.09452619255E+002
+4.97622027534E+006, +1.35847251759E+002, +1.12454544134E+002
+5.10125156446E+006, +1.35649390183E+002, +1.15305905324E+002
+5.22628285357E+006, +1.35727818969E+002, +1.18226891992E+002
+5.35131414268E+006, +1.36243325965E+002, +1.21167280680E+002
+5.47634543179E+006, +1.36199115575E+002, +1.23878853766E+002
+5.60137672090E+006, +1.36320385051E+002, +1.26901258238E+002
+5.72640801001E+006, +1.36113594440E+002, +1.29451324303E+002
+5.85143929912E+006, +1.36213288319E+002, +1.32567435527E+002
+5.97647058824E+006, +1.36503959650E+002, +1.35173496140E+002
+6.10150187735E+006, +1.36695859947E+002, +1.38026191903E+002
+6.22653316646E+006, +1.36620306483E+002, +1.41204584628E+002
+6.35156445557E+006, +1.36864900668E+002, +1.43798092127E+002
+6.47659574468E+006, +1.36789164423E+002, +1.46652294691E+002
+6.60162703379E+006, +1.37174752620E+002, +1.49499121326E+002
+6.72665832290E+006, +1.37404393519E+002, +1.52399445401E+002
+6.85168961202E+006, +1.37599923607E+002, +1.55173952792E+002
+6.97672090113E+006, +1.37834136967E+002, +1.58020425196E+002
+7.10175219024E+006, +1.37874495000E+002, +1.61054124328E+002
+7.22678347935E+006, +1.38070395235E+002, +1.63780496956E+002
+7.35181476846E+006, +1.38315000803E+002, +1.66744700804E+002
+7.47684605757E+006, +1.38331757416E+002, +1.69787660925E+002
+7.60187734668E+006, +1.38481428006E+002, +1.72548646580E+002
+7.72690863579E+006, +1.38687436151E+002, +1.75426338290E+002
+7.85193992491E+006, +1.38686535003E+002, +1.78426856328E+002
+7.97697121402E+006, +1.38902273830E+002, +1.81512145047E+002
+8.10200250313E+006, +1.39068494124E+002, +1.84443269246E+002
+8.22703379224E+006, +1.39033989501E+002, +1.86994397488E+002
+8.35206508135E+006, +1.39261341895E+002, +1.90045330080E+002
+8.47709637046E+006, +1.39444079495E+002, +1.93419702732E+002
+8.60212765957E+006, +1.39497035090E+002, +1.96259290163E+002
+8.72715894869E+006, +1.39514141409E+002, +1.98764695869E+002
+8.85219023780E+006, +1.39860341475E+002, +2.01823678053E+002
+8.97722152691E+006, +1.40275738665E+002, +2.04531289725E+002
+9.10225281602E+006, +1.40385620352E+002, +2.07924249401E+002
+9.22728410513E+006, +1.40634290427E+002, +2.11092970329E+002
+9.35231539424E+006, +1.41276021109E+002, +2.14898746519E+002
+9.47734668335E+006, +1.41079500871E+002, +2.17567875524E+002
+9.60237797247E+006, +1.40947359675E+002, +2.19735712296E+002
+9.72740926158E+006, +1.41032021435E+002, +2.22764645843E+002
+9.85244055069E+006, +1.41480153559E+002, +2.25798456365E+002
+9.97747183980E+006, +1.41522419167E+002, +2.28687497625E+002
+1.01025031289E+007, +1.41719343807E+002, +2.32004463071E+002
+1.02275344180E+007, +1.41966579750E+002, +2.34678984317E+002
+1.03525657071E+007, +1.42128813177E+002, +2.37937237316E+002
+1.04775969962E+007, +1.42377204189E+002, +2.41148342113E+002
+1.06026282854E+007, +1.43075604878E+002, +2.44166985818E+002
+1.07276595745E+007, +1.43004341602E+002, +2.47321620520E+002
+1.08526908636E+007, +1.43032938186E+002, +2.50213236683E+002
+1.09777221527E+007, +1.42986059720E+002, +2.53712141059E+002
+1.11027534418E+007, +1.43379822675E+002, +2.56514665510E+002
+1.12277847309E+007, +1.43897257690E+002, +2.60232157940E+002
+1.13528160200E+007, +1.43900832399E+002, +2.62899678735E+002
+1.14778473091E+007, +1.44814709352E+002, +2.66285932243E+002
+1.16028785982E+007, +1.44726194551E+002, +2.69047541917E+002
+1.17279098874E+007, +1.44949455490E+002, +2.72411056871E+002
+1.18529411765E+007, +1.44834276717E+002, +2.75130150747E+002
+1.19779724656E+007, +1.45173657228E+002, +2.78263647047E+002
+1.21030037547E+007, +1.45501502927E+002, +2.81932018940E+002
+1.22280350438E+007, +1.45817264840E+002, +2.84705744533E+002
+1.23530663329E+007, +1.45985037982E+002, +2.88063749663E+002
+1.24780976220E+007, +1.46258633222E+002, +2.91156145574E+002
+1.26031289111E+007, +1.46165171243E+002, +2.94638900723E+002
+1.27281602003E+007, +1.46087027150E+002, +2.98018018630E+002
+1.28531914894E+007, +1.47018639273E+002, +3.01448466396E+002
+1.29782227785E+007, +1.47024424178E+002, +3.03987881925E+002
+1.31032540676E+007, +1.47465410234E+002, +3.07442202585E+002
+1.32282853567E+007, +1.47862644007E+002, +3.11259070747E+002
+1.33533166458E+007, +1.47606246682E+002, +3.14035942958E+002
+1.34783479349E+007, +1.48048981226E+002, +3.17832820712E+002
+1.36033792240E+007, +1.48816729321E+002, +3.20702499492E+002
+1.37284105131E+007, +1.48850347356E+002, +3.23748626538E+002
+1.38534418023E+007, +1.48626191972E+002, +3.27383672978E+002
+1.39784730914E+007, +1.49812135592E+002, +3.30801466299E+002
+1.41035043805E+007, +1.49669712383E+002, +3.34355839249E+002
+1.42285356696E+007, +1.49852084712E+002, +3.37631697154E+002
+1.43535669587E+007, +1.50055901905E+002, +3.40552758747E+002
+1.44785982478E+007, +1.50733217928E+002, +3.43710000494E+002
+1.46036295369E+007, +1.50800812494E+002, +3.47671796108E+002
+1.47286608260E+007, +1.51436019988E+002, +3.50820915591E+002
+1.48536921151E+007, +1.51626500844E+002, +3.54306466747E+002
+1.49787234043E+007, +1.51894961530E+002, +3.57530027509E+002
+1.51037546934E+007, +1.51743291429E+002, +3.61050036818E+002
+1.52287859825E+007, +1.52224992361E+002, +3.64445447552E+002
+1.53538172716E+007, +1.53031230015E+002, +3.67926207172E+002
+1.54788485607E+007, +1.53026265886E+002, +3.71386203575E+002
+1.56038798498E+007, +1.53991470770E+002, +3.75707113190E+002
+1.57289111389E+007, +1.53978466870E+002, +3.79433455359E+002
+1.58539424280E+007, +1.54827612330E+002, +3.81014431361E+002
+1.59789737171E+007, +1.55430916347E+002, +3.85253455649E+002
+1.61040050063E+007, +1.55625802518E+002, +3.88887048293E+002
+1.62290362954E+007, +1.55641694517E+002, +3.92599565975E+002
+1.63540675845E+007, +1.56541917012E+002, +3.94921932961E+002
+1.64790988736E+007, +1.56441974621E+002, +3.99489075593E+002
+1.66041301627E+007, +1.57471037390E+002, +4.02973921554E+002
+1.67291614518E+007, +1.57471016482E+002, +4.06204390204E+002
+1.68541927409E+007, +1.57891720072E+002, +4.10961988342E+002
+1.69792240300E+007, +1.58277400434E+002, +4.14913552739E+002
+1.71042553191E+007, +1.58191568635E+002, +4.19163975768E+002
+1.72292866083E+007, +1.59077814397E+002, +4.23537506674E+002
+1.73543178974E+007, +1.59709550455E+002, +4.25597554270E+002
+1.74793491865E+007, +1.58958316612E+002, +4.29336309687E+002
+1.76043804756E+007, +1.60409486823E+002, +4.32198011889E+002
+1.77294117647E+007, +1.60598823869E+002, +4.36406436006E+002
+1.78544430538E+007, +1.61006505481E+002, +4.41121011821E+002
+1.79794743429E+007, +1.61736046518E+002, +4.44148097719E+002
+1.81045056320E+007, +1.63428679264E+002, +4.48346359338E+002
+1.82295369212E+007, +1.62412117660E+002, +4.51883595440E+002
+1.83545682103E+007, +1.63315800086E+002, +4.55650021537E+002
+1.84795994994E+007, +1.62332727634E+002, +4.58872046178E+002
+1.86046307885E+007, +1.63426164518E+002, +4.62790667254E+002
+1.87296620776E+007, +1.65139405926E+002, +4.66793719814E+002
+1.88546933667E+007, +1.65691270662E+002, +4.71570597767E+002
+1.89797246558E+007, +1.66375943975E+002, +4.74403636341E+002
+1.91047559449E+007, +1.66671545605E+002, +4.77016626254E+002
+1.92297872340E+007, +1.67570764353E+002, +4.82387312077E+002
+1.93548185232E+007, +1.67643379313E+002, +4.85543768617E+002
+1.94798498123E+007, +1.67918567207E+002, +4.89959777338E+002
+1.96048811014E+007, +1.68756305069E+002, +4.94381646147E+002
+1.97299123905E+007, +1.70890018037E+002, +4.99945054994E+002
+1.98549436796E+007, +1.70552184471E+002, +5.00935176117E+002
+1.99799749687E+007, +1.71302462421E+002, +5.06247476134E+002
+2.01050062578E+007, +1.70579713709E+002, +5.10315737064E+002
+2.02300375469E+007, +1.71845701398E+002, +5.14920071502E+002
+2.03550688360E+007, +1.72683152532E+002, +5.18612820040E+002
+2.04801001252E+007, +1.72760275940E+002, +5.23198091906E+002
+2.06051314143E+007, +1.74884861257E+002, +5.26925862345E+002
+2.07301627034E+007, +1.74281963294E+002, +5.30871784579E+002
+2.08551939925E+007, +1.74773639954E+002, +5.36019384303E+002
+2.09802252816E+007, +1.76651940143E+002, +5.38447918477E+002
+2.11052565707E+007, +1.76401340585E+002, +5.43937431083E+002
+2.12302878598E+007, +1.77003871120E+002, +5.48491841211E+002
+2.13553191489E+007, +1.77605638987E+002, +5.51766196675E+002
+2.14803504380E+007, +1.78729333071E+002, +5.57989426559E+002
+2.16053817272E+007, +1.79801123312E+002, +5.61840698474E+002
+2.17304130163E+007, +1.81100908308E+002, +5.66879463857E+002
+2.18554443054E+007, +1.81931625678E+002, +5.70307599928E+002
+2.19804755945E+007, +1.82558454133E+002, +5.74249104466E+002
+2.21055068836E+007, +1.84207233241E+002, +5.77643868333E+002
+2.22305381727E+007, +1.85325088381E+002, +5.82689602994E+002
+2.23555694618E+007, +1.84939315870E+002, +5.86349609819E+002
+2.24806007509E+007, +1.85260422418E+002, +5.89728534345E+002
+2.26056320401E+007, +1.86324617740E+002, +5.94226159950E+002
+2.27306633292E+007, +1.86965661627E+002, +5.99539221252E+002
+2.28556946183E+007, +1.87679630128E+002, +6.04194787634E+002
+2.29807259074E+007, +1.89467147632E+002, +6.09065594262E+002
+2.31057571965E+007, +1.88908866312E+002, +6.15001492538E+002
+2.32307884856E+007, +1.93004501487E+002, +6.18458113870E+002
+2.33558197747E+007, +1.93352175311E+002, +6.22628556303E+002
+2.34808510638E+007, +1.94772907358E+002, +6.25913016892E+002
+2.36058823529E+007, +1.96079599325E+002, +6.28234173259E+002
+2.37309136421E+007, +1.96067450178E+002, +6.32889818569E+002
+2.38559449312E+007, +1.98442186455E+002, +6.40050519636E+002
+2.39809762203E+007, +2.00053120821E+002, +6.45761194114E+002
+2.41060075094E+007, +1.99770894285E+002, +6.49882983193E+002
+2.42310387985E+007, +2.00919948231E+002, +6.53151716315E+002
+2.43560700876E+007, +2.01745329070E+002, +6.57832067207E+002
+2.44811013767E+007, +2.02256048492E+002, +6.62065547175E+002
+2.46061326658E+007, +2.02833529948E+002, +6.67863839831E+002
+2.47311639549E+007, +2.02950153264E+002, +6.70815303192E+002
+2.48561952441E+007, +2.04909640183E+002, +6.74753610011E+002
+2.49812265332E+007, +2.04928422064E+002, +6.81904555197E+002
+2.51062578223E+007, +2.06251906760E+002, +6.85181181273E+002
+2.52312891114E+007, +2.06796480491E+002, +6.91101540500E+002
+2.53563204005E+007, +2.09128810777E+002, +6.94687007311E+002
+2.54813516896E+007, +2.06662698571E+002, +7.00803863077E+002
+2.56063829787E+007, +2.09666278227E+002, +7.04898386748E+002
+2.57314142678E+007, +2.10842540254E+002, +7.10154818269E+002
+2.58564455569E+007, +2.12383560862E+002, +7.17574673838E+002
+2.59814768461E+007, +2.12105111724E+002, +7.22143418252E+002
+2.61065081352E+007, +2.14736149260E+002, +7.30323659725E+002
+2.62315394243E+007, +2.16022202410E+002, +7.35256466773E+002
+2.63565707134E+007, +2.17527360605E+002, +7.41665583872E+002
+2.64816020025E+007, +2.18019283758E+002, +7.47004011727E+002
+2.66066332916E+007, +2.19022777556E+002, +7.52874468541E+002
+2.67316645807E+007, +2.17103190642E+002, +7.56888181750E+002
+2.68566958698E+007, +2.22103630634E+002, +7.63118519665E+002
+2.69817271589E+007, +2.23418505238E+002, +7.68492162846E+002
+2.71067584481E+007, +2.25056064345E+002, +7.71924028230E+002
+2.72317897372E+007, +2.24511320131E+002, +7.79632024687E+002
+2.73568210263E+007, +2.22337448017E+002, +7.83720163721E+002
+2.74818523154E+007, +2.25467738664E+002, +7.89633215574E+002
+2.76068836045E+007, +2.23993184375E+002, +7.96578874926E+002
+2.77319148936E+007, +2.27141579775E+002, +8.00074935658E+002
+2.78569461827E+007, +2.29062683312E+002, +8.06065874523E+002
+2.79819774718E+007, +2.28295935748E+002, +8.16514052362E+002
+2.81070087610E+007, +2.34363375942E+002, +8.20974886446E+002
+2.82320400501E+007, +2.36096084868E+002, +8.25180735766E+002
+2.83570713392E+007, +2.33895701909E+002, +8.33600292246E+002
+2.84821026283E+007, +2.38601027474E+002, +8.40931907004E+002
+2.86071339174E+007, +2.41850472594E+002, +8.45041836086E+002
+2.87321652065E+007, +2.41136290022E+002, +8.52840496463E+002
+2.88571964956E+007, +2.40728767559E+002, +8.56001709772E+002
+2.89822277847E+007, +2.40758983853E+002, +8.65118154822E+002
+2.91072590738E+007, +2.43295783408E+002, +8.72683771761E+002
+2.92322903630E+007, +2.47651470586E+002, +8.81637015552E+002
+2.93573216521E+007, +2.44050071929E+002, +8.86595564742E+002
+2.94823529412E+007, +2.47682805334E+002, +8.94917692460E+002
+2.96073842303E+007, +2.47194291321E+002, +9.03587662828E+002
+2.97324155194E+007, +2.51398481309E+002, +9.07463988201E+002
+2.98574468085E+007, +2.49022931893E+002, +9.14050283238E+002
+2.99824780976E+007, +2.53849211461E+002, +9.18404982714E+002
+3.01075093867E+007, +2.52373471301E+002, +9.26322417216E+002
+3.02325406758E+007, +2.56637608938E+002, +9.30782852127E+002
+3.03575719650E+007, +2.58780386841E+002, +9.45272363248E+002
+3.04826032541E+007, +2.61344794165E+002, +9.48377074544E+002
+3.06076345432E+007, +2.67400603033E+002, +9.56763031531E+002
+3.07326658323E+007, +2.66293613917E+002, +9.65405152154E+002
+3.08576971214E+007, +2.67520596092E+002, +9.69779999296E+002
+3.09827284105E+007, +2.72635657167E+002, +9.81873249740E+002
+3.11077596996E+007, +2.74115669406E+002, +9.83163678612E+002
+3.12327909887E+007, +2.77692912265E+002, +9.90831527215E+002
+3.13578222778E+007, +2.74437927102E+002, +1.00207944626E+003
+3.14828535670E+007, +2.75813900904E+002, +1.01517545358E+003
+3.16078848561E+007, +2.75860296814E+002, +1.01937375714E+003
+3.17329161452E+007, +2.82021545599E+002, +1.02934041739E+003
+3.18579474343E+007, +2.84039505888E+002, +1.03066070224E+003
+3.19829787234E+007, +2.88858700088E+002, +1.04644896377E+003
+3.21080100125E+007, +2.93160999520E+002, +1.05119998361E+003
+3.22330413016E+007, +2.88232344925E+002, +1.05338143297E+003
+3.23580725907E+007, +2.94937493034E+002, +1.06325429796E+003
+3.24831038798E+007, +2.95874926207E+002, +1.07341442944E+003
+3.26081351690E+007, +2.99558974735E+002, +1.08197647795E+003
+3.27331664581E+007, +2.98007272231E+002, +1.09130496833E+003
+3.28581977472E+007, +3.00538769227E+002, +1.10323172221E+003
+3.29832290363E+007, +2.99087530562E+002, +1.11352704216E+003
+3.31082603254E+007, +3.04279851237E+002, +1.11999707431E+003
+3.32332916145E+007, +3.09532612396E+002, +1.12933243621E+003
+3.33583229036E+007, +3.15546310463E+002, +1.13941299439E+003
+3.34833541927E+007, +3.15062678487E+002, +1.14612377516E+003
+3.36083854819E+007, +3.17065177082E+002, +1.16008225740E+003
+3.37334167710E+007, +3.23790369525E+002, +1.16560326922E+003
+3.38584480601E+007, +3.26278443974E+002, +1.17494159615E+003
+3.39834793492E+007, +3.31843366481E+002, +1.18658407464E+003
+3.41085106383E+007, +3.31712650921E+002, +1.19427181328E+003
+3.42335419274E+007, +3.30793916833E+002, +1.21452055926E+003
+3.43585732165E+007, +3.35152757137E+002, +1.21490538032E+003
+3.44836045056E+007, +3.34135359588E+002, +1.22432171333E+003
+3.46086357947E+007, +3.39907598352E+002, +1.22984465771E+003
+3.47336670839E+007, +3.43160785091E+002, +1.24772006448E+003
+3.48586983730E+007, +3.50117759056E+002, +1.25819332961E+003
+3.49837296621E+007, +3.48896321017E+002, +1.26644931321E+003
+3.51087609512E+007, +3.53639671504E+002, +1.27413599293E+003
+3.52337922403E+007, +3.56396442570E+002, +1.29065673637E+003
+3.53588235294E+007, +3.65704249683E+002, +1.29359712944E+003
+3.54838548185E+007, +3.73520834073E+002, +1.32246258113E+003
+3.56088861076E+007, +3.75529509301E+002, +1.32987875028E+003
+3.57339173967E+007, +3.81056165058E+002, +1.34307789718E+003
+3.58589486859E+007, +3.77693165524E+002, +1.34591784549E+003
+3.59839799750E+007, +3.80252093845E+002, +1.37277582684E+003
+3.61090112641E+007, +3.95461411288E+002, +1.37833418439E+003
+3.62340425532E+007, +3.96489154578E+002, +1.39294110021E+003
+3.63590738423E+007, +3.98432408743E+002, +1.40564867206E+003
+3.64841051314E+007, +4.10503558143E+002, +1.40882220188E+003
+3.66091364205E+007, +4.11987176704E+002, +1.41729750513E+003
+3.67341677096E+007, +4.16807723168E+002, +1.44242197409E+003
+3.68591989987E+007, +4.18414398180E+002, +1.43974923886E+003
+3.69842302879E+007, +4.18802933296E+002, +1.45522785209E+003
+3.71092615770E+007, +4.31287242750E+002, +1.46962491728E+003
+3.72342928661E+007, +4.31249954197E+002, +1.48676472248E+003
+3.73593241552E+007, +4.41162546989E+002, +1.50057157738E+003
+3.74843554443E+007, +4.50022799601E+002, +1.51940143900E+003
+3.76093867334E+007, +4.64006744663E+002, +1.52705981840E+003
+3.77344180225E+007, +4.59193546061E+002, +1.54434755353E+003
+3.78594493116E+007, +4.69428747110E+002, +1.56949752929E+003
+3.79844806008E+007, +4.79200447787E+002, +1.59383596343E+003
+3.81095118899E+007, +4.80143770933E+002, +1.59482302110E+003
+3.82345431790E+007, +4.93968214545E+002, +1.61636392836E+003
+3.83595744681E+007, +4.92975388959E+002, +1.62530731954E+003
+3.84846057572E+007, +5.02841366466E+002, +1.63439839457E+003
+3.86096370463E+007, +4.96524600631E+002, +1.65581731743E+003
+3.87346683354E+007, +5.18639163060E+002, +1.66471198896E+003
+3.88596996245E+007, +5.22132933324E+002, +1.67824898446E+003
+3.89847309136E+007, +5.33438133464E+002, +1.70457777041E+003
+3.91097622028E+007, +5.47586252272E+002, +1.71526854425E+003
+3.92347934919E+007, +5.50637668136E+002, +1.72970520159E+003
+3.93598247810E+007, +5.69297760591E+002, +1.76118183025E+003
+3.94848560701E+007, +5.60124519278E+002, +1.77523074352E+003
+3.96098873592E+007, +5.70424765549E+002, +1.79257658581E+003
+3.97349186483E+007, +5.84092876749E+002, +1.80999934330E+003
+3.98599499374E+007, +6.02056264445E+002, +1.81479676388E+003
+3.99849812265E+007, +6.06224114203E+002, +1.84832518802E+003
+4.01100125156E+007, +6.12724960198E+002, +1.86437460870E+003
