"# Channel 1"
"# Trace 1"
Frequency, Formatted Data, Formatted Data
+1.00000000000E+005, +1.70543424397E+002, +1.45857139191E-002
+2.25031289111E+005, +1.69922208246E+002, +5.99795338827E+000
+3.50062578223E+005, +1.69995277145E+002, +9.83027173237E+000
+4.75093867334E+005, +1.70624149691E+002, +1.38674462786E+001
+6.00125156446E+005, +1.70057146670E+002, +1.75775084537E+001
+7.25156445557E+005, +1.70205888425E+002, +2.13067962322E+001
+8.50187734668E+005, +1.70141967753E+002, +2.51499140821E+001
+9.75219023780E+005, +1.70525898809E+002, +2.82735774909E+001
+1.10025031289E+006, +1.70419762089E+002, +3.23768466676E+001
+1.22528160200E+006, +1.70622157095E+002, +3.56621873727E+001
+1.35031289111E+006, +1.70616088645E+002, +3.87912441007E+001
+1.47534418023E+006, +1.70489765026E+002, +4.30804155390E+001
+1.60037546934E+006, +1.70453553783E+002, +4.62406614817E+001
+1.72540675845E+006, +1.70989995351E+002, +5.00591827633E+001
+1.85043804756E+006, +1.70897097303E+002, +5.36494553333E+001
+1.97546933667E+006, +1.71068632586E+002, +5.75057120456E+001
+2.10050062578E+006, +1.70961684571E+002, +6.14153857958E+001
+2.22553191489E+006, +1.70895661078E+002, +6.50880040337E+001
+2.35056320401E+006, +1.71245381587E+002, +6.86339806209E+001
+2.47559449312E+006, +1.71540548144E+002, +7.22433091041E+001
+2.60062578223E+006, +1.71128141791E+002, +7.57896503057E+001
+2.72565707134E+006, +1.71243542750E+002, +7.95349767608E+001
+2.85068836045E+006, +1.71919823508E+002, +8.33149248526E+001
+2.97571964956E+006, +1.71781014440E+002, +8.69687404551E+001
+3.10075093867E+006, +1.71718303563E+002, +9.04741381476E+001
+3.22578222778E+006, +1.72191367936E+002, +9.39855550215E+001
+3.35081351690E+006, +1.71542331026E+002, +9.73255999696E+001
+3.47584480601E+006, +1.71503303147E+002, +1.01222032491E+002
+3.60087609512E+006, +1.72141037015E+002, +1.04721154587E+002
+3.72590738423E+006, +1.72766174615E+002, +1.11385134751E+002
+3.85093867334E+006, +1.74005332894E+002, +1.18593452571E+002
+3.97596996245E+006, +1.75243303191E+002, +1.27069402717E+002
+4.10100125156E+006, +1.71812200375E+002, +1.18296931682E+002
+4.22603254068E+006, +1.68768474383E+002, +1.28942601632E+002
+4.35106382979E+006, +1.71273121775E+002, +1.31754923687E+002
+4.47609511890E+006, +1.72388010284E+002, +1.32887308742E+002
+4.60112640801E+006, +1.72973953510E+002, +1.33709160198E+002
+4.72615769712E+006, +1.72667436434E+002, +1.37531208487E+002
+4.85118898623E+006, +1.73445749845E+002, +1.41442694015E+002
+4.97622027534E+006, +1.73203266023E+002, +1.44901844955E+002
+5.10125156446E+006, +1.73127795063E+002, +1.48591657022E+002
+5.22628285357E+006, +1.73463013885E+002, +1.53009639556E+002
+5.35131414268E+006, +1.74645598245E+002, +1.56473147465E+002
+5.47634543179E+006, +1.74211995866E+002, +1.60223540240E+002
+5.60137672090E+006, +1.74341321594E+002, +1.63794863017E+002
+5.72640801001E+006, +1.74588859133E+002, +1.67545744134E+002
+5.85143929912E+006, +1.74850292208E+002, +1.71037164906E+002
+5.97647058824E+006, +1.75301008481E+002, +1.74814766104E+002
+6.10150187735E+006, +1.75152466602E+002, +1.78539771740E+002
+6.22653316646E+006, +1.75402191729E+002, +1.82134195803E+002
+6.35156445557E+006, +1.75723016032E+002, +1.85959359170E+002
+6.47659574468E+006, +1.75217289426E+002, +1.89353410965E+002
+6.60162703379E+006, +1.75988519185E+002, +1.93344491422E+002
+6.72665832290E+006, +1.76892522337E+002, +1.96716507722E+002
+6.85168961202E+006, +1.76929956517E+002, +2.00214755825E+002
+6.97672090113E+006, +1.77005489483E+002, +2.04409863980E+002
+7.10175219024E+006, +1.77608933593E+002, +2.08021318188E+002
+7.22678347935E+006, +1.77900047788E+002, +2.11925428790E+002
+7.35181476846E+006, +1.78406378848E+002, +2.16023733560E+002
+7.47684605757E+006, +1.78007266369E+002, +2.20039683411E+002
+7.60187734668E+006, +1.78721859763E+002, +2.23454174995E+002
+7.72690863579E+006, +1.79118716631E+002, +2.27029077837E+002
+7.85193992491E+006, +1.79189467098E+002, +2.31125926861E+002
+7.97697121402E+006, +1.80056616987E+002, +2.35482817794E+002
+8.10200250313E+006, +1.79670237200E+002, +2.38833951864E+002
+8.22703379224E+006, +1.80742525220E+002, +2.42651219637E+002
+8.35206508135E+006, +1.80332003036E+002, +2.46412694261E+002
+8.47709637046E+006, +1.81206818810E+002, +2.51142160012E+002
+8.60212765957E+006, +1.80433919017E+002, +2.54705944145E+002
+8.72715894869E+006, +1.81249573336E+002, +2.58008459210E+002
+8.85219023780E+006, +1.81541191592E+002, +2.61378161387E+002
+8.97722152691E+006, +1.82111467126E+002, +2.65721801907E+002
+9.10225281602E+006, +1.82743514798E+002, +2.70805271291E+002
+9.22728410513E+006, +1.83581569957E+002, +2.74170593356E+002
+9.35231539424E+006, +1.84246584770E+002, +2.79698705918E+002
+9.47734668335E+006, +1.83779443924E+002, +2.82699735308E+002
+9.60237797247E+006, +1.84544965678E+002, +2.86223538718E+002
+9.72740926158E+006, +1.84585406760E+002, +2.89965465458E+002
+9.85244055069E+006, +1.84477132217E+002, +2.93914795688E+002
+9.97747183980E+006, +1.85360293400E+002, +2.98379981191E+002
+1.01025031289E+007, +1.85877455392E+002, +3.02555101996E+002
+1.02275344180E+007, +1.86152538745E+002, +3.06953268629E+002
+1.03525657071E+007, +1.86622753736E+002, +3.11126478784E+002
+1.04775969962E+007, +1.86404294019E+002, +3.15140598706E+002
+1.06026282854E+007, +1.87490267262E+002, +3.19385930805E+002
+1.07276595745E+007, +1.87725327575E+002, +3.23153772223E+002
+1.08526908636E+007, +1.88224200564E+002, +3.27644758266E+002
+1.09777221527E+007, +1.88547157244E+002, +3.32107355879E+002
+1.11027534418E+007, +1.89810097577E+002, +3.35952903360E+002
+1.12277847309E+007, +1.90146106591E+002, +3.40170894193E+002
+1.13528160200E+007, +1.90852291565E+002, +3.44359800433E+002
+1.14778473091E+007, +1.91550443148E+002, +3.49518573216E+002
+1.16028785982E+007, +1.90508893284E+002, +3.52784983967E+002
+1.17279098874E+007, +1.91701450806E+002, +3.56671580712E+002
+1.18529411765E+007, +1.92127386609E+002, +3.61320508519E+002
+1.19779724656E+007, +1.92985063373E+002, +3.65908598210E+002
+1.21030037547E+007, +1.93316646744E+002, +3.70707679841E+002
+1.22280350438E+007, +1.93957790334E+002, +3.74667724540E+002
+1.23530663329E+007, +1.94014195308E+002, +3.79525829561E+002
+1.24780976220E+007, +1.95547353672E+002, +3.83617347646E+002
+1.26031289111E+007, +1.94984558180E+002, +3.88200025535E+002
+1.27281602003E+007, +1.95966353457E+002, +3.92174631739E+002
+1.28531914894E+007, +1.97181366122E+002, +3.96887006331E+002
+1.29782227785E+007, +1.96979288798E+002, +4.01607216926E+002
+1.31032540676E+007, +1.98187707311E+002, +4.05731589700E+002
+1.32282853567E+007, +1.97973987584E+002, +4.09913638329E+002
+1.33533166458E+007, +1.99201467124E+002, +4.15507848215E+002
+1.34783479349E+007, +1.99908626808E+002, +4.20157560224E+002
+1.36033792240E+007, +2.00692456383E+002, +4.24677198179E+002
+1.37284105131E+007, +2.01001175894E+002, +4.29196894357E+002
+1.38534418023E+007, +2.01939704451E+002, +4.33022367285E+002
+1.39784730914E+007, +2.03325451167E+002, +4.38992680628E+002
+1.41035043805E+007, +2.02139995219E+002, +4.43669969005E+002
+1.42285356696E+007, +2.04162309105E+002, +4.47745660969E+002
+1.43535669587E+007, +2.04375106176E+002, +4.51558435779E+002
+1.44785982478E+007, +2.04716589945E+002, +4.56918693478E+002
+1.46036295369E+007, +2.05642121628E+002, +4.62356374641E+002
+1.47286608260E+007, +2.06566104187E+002, +4.67396645594E+002
+1.48536921151E+007, +2.07259095923E+002, +4.72934618656E+002
+1.49787234043E+007, +2.07880466156E+002, +4.76371919240E+002
+1.51037546934E+007, +2.08228906298E+002, +4.81965785908E+002
+1.52287859825E+007, +2.09030287609E+002, +4.86445942243E+002
+1.53538172716E+007, +2.10153403462E+002, +4.91097194105E+002
+1.54788485607E+007, +2.10587577883E+002, +4.97395004560E+002
+1.56038798498E+007, +2.12951793869E+002, +5.02714132477E+002
+1.57289111389E+007, +2.13262221246E+002, +5.08136207103E+002
+1.58539424280E+007, +2.14086080178E+002, +5.10051714886E+002
+1.59789737171E+007, +2.14568226479E+002, +5.15712715420E+002
+1.61040050063E+007, +2.15386221091E+002, +5.22328470613E+002
+1.62290362954E+007, +2.16654827697E+002, +5.27044064954E+002
+1.63540675845E+007, +2.17141804828E+002, +5.33557171175E+002
+1.64790988736E+007, +2.18528522501E+002, +5.38031005015E+002
+1.66041301627E+007, +2.20129254250E+002, +5.42226090004E+002
+1.67291614518E+007, +2.21960100670E+002, +5.49140232499E+002
+1.68541927409E+007, +2.21100102195E+002, +5.55036523386E+002
+1.69792240300E+007, +2.22236957953E+002, +5.63334672768E+002
+1.71042553191E+007, +2.21800668048E+002, +5.68129750682E+002
+1.72292866083E+007, +2.24350607369E+002, +5.72155007772E+002
+1.73543178974E+007, +2.24897026173E+002, +5.77504490633E+002
+1.74793491865E+007, +2.26585334080E+002, +5.82511301378E+002
+1.76043804756E+007, +2.27922002174E+002, +5.87178373545E+002
+1.77294117647E+007, +2.28181575300E+002, +5.92285464660E+002
+1.78544430538E+007, +2.28439687098E+002, +5.99288297168E+002
+1.79794743429E+007, +2.30991144630E+002, +6.05365381997E+002
+1.81045056320E+007, +2.31402993846E+002, +6.09384799349E+002
+1.82295369212E+007, +2.31879186390E+002, +6.14839508674E+002
+1.83545682103E+007, +2.34855714759E+002, +6.25222296526E+002
+1.84795994994E+007, +2.35056834794E+002, +6.29049175851E+002
+1.86046307885E+007, +2.36899765415E+002, +6.34483128497E+002
+1.87296620776E+007, +2.39676743399E+002, +6.41438998357E+002
+1.88546933667E+007, +2.40089084848E+002, +6.44585340092E+002
+1.89797246558E+007, +2.42787168986E+002, +6.51192611041E+002
+1.91047559449E+007, +2.43166085420E+002, +6.56999279599E+002
+1.92297872340E+007, +2.44478424368E+002, +6.60950953158E+002
+1.93548185232E+007, +2.45640222814E+002, +6.68473712888E+002
+1.94798498123E+007, +2.45999550562E+002, +6.74412640515E+002
+1.96048811014E+007, +2.46736059575E+002, +6.80379260551E+002
+1.97299123905E+007, +2.48211413050E+002, +6.87386071327E+002
+1.98549436796E+007, +2.52166031625E+002, +6.93876400706E+002
+1.99799749687E+007, +2.55700075861E+002, +7.01256942776E+002
+2.01050062578E+007, +2.54085238733E+002, +7.06715776383E+002
+2.02300375469E+007, +2.56144497171E+002, +7.12610125075E+002
+2.03550688360E+007, +2.56800988903E+002, +7.20999444660E+002
+2.04801001252E+007, +2.60216130800E+002, +7.28772398560E+002
+2.06051314143E+007, +2.62563377260E+002, +7.34043907439E+002
+2.07301627034E+007, +2.65459999944E+002, +7.40524065809E+002
+2.08551939925E+007, +2.65247303988E+002, +7.47404180799E+002
+2.09802252816E+007, +2.68380145159E+002, +7.51974290788E+002
+2.11052565707E+007, +2.67367605891E+002, +7.60213634479E+002
+2.12302878598E+007, +2.69684827024E+002, +7.68505289374E+002
+2.13553191489E+007, +2.72920508998E+002, +7.75182982911E+002
+2.14803504380E+007, +2.71881273116E+002, +7.84939342524E+002
+2.16053817272E+007, +2.72849700536E+002, +7.88018167252E+002
+2.17304130163E+007, +2.78255866409E+002, +7.97498026925E+002
+2.18554443054E+007, +2.82715228182E+002, +8.01743669446E+002
+2.19804755945E+007, +2.85375046691E+002, +8.09041331682E+002
+2.21055068836E+007, +2.90048862940E+002, +8.20051897324E+002
+2.22305381727E+007, +2.90124569903E+002, +8.24872828065E+002
+2.23555694618E+007, +2.88451755786E+002, +8.32442296824E+002
+2.24806007509E+007, +2.95377607015E+002, +8.38199457191E+002
+2.26056320401E+007, +2.95769081755E+002, +8.47415952962E+002
+2.27306633292E+007, +2.97896657155E+002, +8.54505565077E+002
+2.28556946183E+007, +3.01275782920E+002, +8.63851799888E+002
+2.29807259074E+007, +3.02960127101E+002, +8.68772065885E+002
+2.31057571965E+007, +3.06587898787E+002, +8.79839992881E+002
+2.32307884856E+007, +3.10810460513E+002, +8.83005405604E+002
+2.33558197747E+007, +3.14857819469E+002, +8.91103935615E+002
+2.34808510638E+007, +3.15333129373E+002, +8.98984968234E+002
+2.36058823529E+007, +3.23902117143E+002, +9.01476740370E+002
+2.37309136421E+007, +3.24153149372E+002, +9.09156770642E+002
+2.38559449312E+007, +3.29534164390E+002, +9.19562037793E+002
+2.39809762203E+007, +3.32768402179E+002, +9.28219497744E+002
+2.41060075094E+007, +3.32028807620E+002, +9.40247029995E+002
+2.42310387985E+007, +3.37163293581E+002, +9.46508715115E+002
+2.43560700876E+007, +3.41775764339E+002, +9.51492196941E+002
+2.44811013767E+007, +3.42404155259E+002, +9.58886414326E+002
+2.46061326658E+007, +3.43843800940E+002, +9.63793892926E+002
+2.47311639549E+007, +3.44696988084E+002, +9.73288603901E+002
+2.48561952441E+007, +3.48814549206E+002, +9.78207553153E+002
+2.49812265332E+007, +3.47696303170E+002, +9.88121233494E+002
+2.51062578223E+007, +3.52727702077E+002, +9.98263513373E+002
+2.52312891114E+007, +3.54276694782E+002, +1.00305419893E+003
+2.53563204005E+007, +3.56164070432E+002, +1.01167357198E+003
+2.54813516896E+007, +3.57349741347E+002, +1.02072966758E+003
+2.56063829787E+007, +3.63098197901E+002, +1.03024938411E+003
+2.57314142678E+007, +3.69265479513E+002, +1.04425752317E+003
+2.58564455569E+007, +3.70154713977E+002, +1.05335135328E+003
+2.59814768461E+007, +3.72495622307E+002, +1.06881475188E+003
+2.61065081352E+007, +3.81961991749E+002, +1.07783336337E+003
+2.62315394243E+007, +3.75380783956E+002, +1.08919958337E+003
+2.63565707134E+007, +3.82720802289E+002, +1.10159088390E+003
+2.64816020025E+007, +3.85734796405E+002, +1.11160146131E+003
+2.66066332916E+007, +3.93576100480E+002, +1.12276048066E+003
+2.67316645807E+007, +3.96904603756E+002, +1.12861453350E+003
+2.68566958698E+007, +4.04579493350E+002, +1.14512667548E+003
+2.69817271589E+007, +4.08410509775E+002, +1.15050403698E+003
+2.71067584481E+007, +4.12973078932E+002, +1.14954148547E+003
+2.72317897372E+007, +4.20816238439E+002, +1.17153837847E+003
+2.73568210263E+007, +4.08618138049E+002, +1.17546334768E+003
+2.74818523154E+007, +4.12525567599E+002, +1.19702831098E+003
+2.76068836045E+007, +4.12568048666E+002, +1.19773473097E+003
+2.77319148936E+007, +4.21793152428E+002, +1.21712050937E+003
+2.78569461827E+007, +4.32762500551E+002, +1.22898705901E+003
+2.79819774718E+007, +4.34648476583E+002, +1.24235038237E+003
+2.81070087610E+007, +4.44702035112E+002, +1.25466211469E+003
+2.82320400501E+007, +4.43981825569E+002, +1.26108491036E+003
+2.83570713392E+007, +4.43116217849E+002, +1.27531427528E+003
+2.84821026283E+007, +4.59657534590E+002, +1.29449948410E+003
+2.86071339174E+007, +4.58398297429E+002, +1.31537861684E+003
+2.87321652065E+007, +4.67307810953E+002, +1.31451587381E+003
+2.88571964956E+007, +4.78147222047E+002, +1.33271092465E+003
+2.89822277847E+007, +4.79692765662E+002, +1.34543915059E+003
+2.91072590738E+007, +4.93107775115E+002, +1.36377556445E+003
+2.92322903630E+007, +4.92021330683E+002, +1.38099428132E+003
+2.93573216521E+007, +4.95296061389E+002, +1.39781616859E+003
+2.94823529412E+007, +5.02983117619E+002, +1.41489158562E+003
+2.96073842303E+007, +5.09049651909E+002, +1.44064844288E+003
+2.97324155194E+007, +5.19121066528E+002, +1.45429129292E+003
+2.98574468085E+007, +5.17640782659E+002, +1.44605665905E+003
+2.99824780976E+007, +5.17423995396E+002, +1.46087746178E+003
+3.01075093867E+007, +5.40971242324E+002, +1.48272095765E+003
+3.02325406758E+007, +5.48045059867E+002, +1.50073382481E+003
+3.03575719650E+007, +5.43670052249E+002, +1.50859079272E+003
+3.04826032541E+007, +5.70558741604E+002, +1.54241390935E+003
+3.06076345432E+007, +5.80390884955E+002, +1.54415074548E+003
+3.07326658323E+007, +5.85761771001E+002, +1.56776741911E+003
+3.08576971214E+007, +6.00900508451E+002, +1.58332614870E+003
+3.09827284105E+007, +6.22764067454E+002, +1.60904365023E+003
+3.11077596996E+007, +6.05828580088E+002, +1.61582185868E+003
+3.12327909887E+007, +6.20702571683E+002, +1.64051750692E+003
+3.13578222778E+007, +6.44740009145E+002, +1.66280865450E+003
+3.14828535670E+007, +6.40680457940E+002, +1.68418465265E+003
+3.16078848561E+007, +6.53384857769E+002, +1.70803637636E+003
+3.17329161452E+007, +6.64626493687E+002, +1.71863155892E+003
+3.18579474343E+007, +6.79199631376E+002, +1.73491438059E+003
+3.19829787234E+007, +6.86217785311E+002, +1.76549065313E+003
+3.21080100125E+007, +7.05941346597E+002, +1.78590593929E+003
+3.22330413016E+007, +7.21820913249E+002, +1.80246212879E+003
+3.23580725907E+007, +7.37661255954E+002, +1.82350696554E+003
+3.24831038798E+007, +7.29464586802E+002, +1.84174863223E+003
+3.26081351690E+007, +7.54679710913E+002, +1.86810135935E+003
+3.27331664581E+007, +7.68668565848E+002, +1.90008952132E+003
+3.28581977472E+007, +7.67567361447E+002, +1.94689841580E+003
+3.29832290363E+007, +8.02555824966E+002, +1.94037672275E+003
+3.31082603254E+007, +8.02596827874E+002, +1.97637606943E+003
+3.32332916145E+007, +8.17305163614E+002, +1.99966625637E+003
+3.33583229036E+007, +8.55932583335E+002, +2.03005496626E+003
+3.34833541927E+007, +8.82513498694E+002, +2.03297667595E+003
+3.36083854819E+007, +8.81293201257E+002, +2.07538226295E+003
+3.37334167710E+007, +9.09722981142E+002, +2.08300102936E+003
+3.38584480601E+007, +9.14606704782E+002, +2.11889365403E+003
+3.39834793492E+007, +9.54499092988E+002, +2.15900051943E+003
+3.41085106383E+007, +9.69953015166E+002, +2.18974486901E+003
+3.42335419274E+007, +9.96413363402E+002, +2.21787250052E+003
+3.43585732165E+007, +1.01732403879E+003, +2.25216570855E+003
+3.44836045056E+007, +1.02847562882E+003, +2.27076826089E+003
+3.46086357947E+007, +1.06187322623E+003, +2.31002519498E+003
+3.47336670839E+007, +1.08113094415E+003, +2.33459055383E+003
+3.48586983730E+007, +1.14256252270E+003, +2.37907788343E+003
+3.49837296621E+007, +1.15157034515E+003, +2.41295988254E+003
+3.51087609512E+007, +1.17367383153E+003, +2.45889048403E+003
+3.52337922403E+007, +1.21266217223E+003, +2.45648295722E+003
+3.53588235294E+007, +1.28130024657E+003, +2.49702058131E+003
+3.54838548185E+007, +1.32075026931E+003, +2.54717487321E+003
+3.56088861076E+007, +1.34584326665E+003, +2.60032559995E+003
+3.57339173967E+007, +1.39301199644E+003, +2.61758349514E+003
+3.58589486859E+007, +1.43781553594E+003, +2.68107192291E+003
+3.59839799750E+007, +1.42112297711E+003, +2.75332736983E+003
+3.61090112641E+007, +1.51252309440E+003, +2.80186435617E+003
+3.62340425532E+007, +1.54609784764E+003, +2.78810481815E+003
+3.63590738423E+007, +1.61478297379E+003, +2.79085941252E+003
+3.64841051314E+007, +1.66396344482E+003, +2.82822641288E+003
+3.66091364205E+007, +1.69040075347E+003, +2.87928709111E+003
+3.67341677096E+007, +1.79576414959E+003, +2.89076179030E+003
+3.68591989987E+007, +1.82582512382E+003, +2.93461191812E+003
+3.69842302879E+007, +1.86961672208E+003, +3.02225385863E+003
+3.71092615770E+007, +1.87414076650E+003, +3.04283618843E+003
+3.72342928661E+007, +2.01128208676E+003, +3.05790456686E+003
+3.73593241552E+007, +2.06422257172E+003, +3.18585464836E+003
+3.74843554443E+007, +2.18819751874E+003, +3.17542980850E+003
+3.76093867334E+007, +2.30060400783E+003, +3.26159289253E+003
+3.77344180225E+007, +2.35949232170E+003, +3.27262310031E+003
+3.78594493116E+007, +2.46393749079E+003, +3.28389983210E+003
+3.79844806008E+007, +2.48152257577E+003, +3.25075493182E+003
+3.81095118899E+007, +2.63178367463E+003, +3.31179987250E+003
+3.82345431790E+007, +2.80550972879E+003, +3.37919244550E+003
+3.83595744681E+007, +2.80744043763E+003, +3.39759618322E+003
+3.84846057572E+007, +2.92241000298E+003, +3.44053373141E+003
+3.86096370463E+007, +2.99143630242E+003, +3.43029042711E+003
+3.87346683354E+007, +3.19846348407E+003, +3.42010665888E+003
+3.88596996245E+007, +3.40298848315E+003, +3.41317717904E+003
+3.89847309136E+007, +3.46804508596E+003, +3.53327949317E+003
+3.91097622028E+007, +3.57876363058E+003, +3.60579254277E+003
+3.92347934919E+007, +3.75354655621E+003, +3.58668461759E+003
+3.93598247810E+007, +3.95171793179E+003, +3.45092817414E+003
+3.94848560701E+007, +4.07411493640E+003, +3.55647220521E+003
+3.96098873592E+007, +4.27270527349E+003, +3.54745906173E+003
+3.97349186483E+007, +4.45363883415E+003, +3.48718680222E+003
+3.98599499374E+007, +4.69469434769E+003, +3.47499501670E+003
+3.99849812265E+007, +4.92213966641E+003, +3.36390421863E+003
+4.01100125156E+007, +5.16470101540E+003, +3.28843501441E+003
