"# Channel 1"
"# Trace 1"
Frequency, Formatted Data, Formatted Data
+1.00000000000E+005, +1.97071672461E+002, -9.93067819133E-001
+2.25031289111E+005, +1.95711952030E+002, +6.15124202714E+000
+3.50062578223E+005, +1.95885744974E+002, +9.87479283770E+000
+4.75093867334E+005, +1.95928986381E+002, +1.36620906671E+001
+6.00125156446E+005, +1.95504183685E+002, +1.76433742518E+001
+7.25156445557E+005, +1.95519204743E+002, +2.10334798821E+001
+8.50187734668E+005, +1.96138089663E+002, +2.43152740107E+001
+9.75219023780E+005, +1.95883016983E+002, +2.84148754018E+001
+1.10025031289E+006, +1.95843503698E+002, +3.16451267247E+001
+1.22528160200E+006, +1.96363896416E+002, +3.51558109242E+001
+1.35031289111E+006, +1.96325761906E+002, +3.85029404753E+001
+1.47534418023E+006, +1.96477166651E+002, +4.22312307427E+001
+1.60037546934E+006, +1.96939296480E+002, +4.57832465586E+001
+1.72540675845E+006, +1.96522554560E+002, +4.89978337399E+001
+1.85043804756E+006, +1.96358017110E+002, +5.29659206841E+001
+1.97546933667E+006, +1.96829575461E+002, +5.66512479775E+001
+2.10050062578E+006, +1.97135750940E+002, +5.99776171329E+001
+2.22553191489E+006, +1.97184382547E+002, +6.43873216824E+001
+2.35056320401E+006, +1.97439865357E+002, +6.79841382292E+001
+2.47559449312E+006, +1.97502159630E+002, +7.13787872427E+001
+2.60062578223E+006, +1.97665826822E+002, +7.48676564330E+001
+2.72565707134E+006, +1.97656344860E+002, +7.84181794579E+001
+2.85068836045E+006, +1.97076151382E+002, +8.17131383692E+001
+2.97571964956E+006, +1.97722745570E+002, +8.58136911234E+001
+3.10075093867E+006, +1.97719407728E+002, +8.94633315244E+001
+3.22578222778E+006, +1.97885424477E+002, +9.30971235227E+001
+3.35081351690E+006, +1.97782723877E+002, +9.63228143700E+001
+3.47584480601E+006, +1.97465484432E+002, +9.99839671303E+001
+3.60087609512E+006, +1.98209162717E+002, +1.03827471182E+002
+3.72590738423E+006, +1.98462628030E+002, +1.06875578191E+002
+3.85093867334E+006, +1.98209592511E+002, +1.11100383841E+002
+3.97596996245E+006, +1.98579591074E+002, +1.13916047278E+002
+4.10100125156E+006, +1.97441962044E+002, +1.19087977742E+002
+4.22603254068E+006, +2.00375348158E+002, +1.22216539063E+002
+4.35106382979E+006, +1.99829044364E+002, +1.25570202003E+002
+4.47609511890E+006, +1.98954784343E+002, +1.28965172821E+002
+4.60112640801E+006, +1.99948378124E+002, +1.32769659947E+002
+4.72615769712E+006, +2.00135798123E+002, +1.36641473637E+002
+4.85118898623E+006, +1.99923961804E+002, +1.40633386495E+002
+4.97622027534E+006, +2.01009186833E+002, +1.44478860871E+002
+5.10125156446E+006, +1.99802066050E+002, +1.48024441186E+002
+5.22628285357E+006, +2.00753190521E+002, +1.50555473925E+002
+5.35131414268E+006, +2.01173305202E+002, +1.55204214875E+002
+5.47634543179E+006, +2.01965735105E+002, +1.58394787595E+002
+5.60137672090E+006, +2.01343337571E+002, +1.62222949171E+002
+5.72640801001E+006, +2.01478382258E+002, +1.66041191294E+002
+5.85143929912E+006, +2.01905316716E+002, +1.69124896421E+002
+5.97647058824E+006, +2.01449103802E+002, +1.73321519806E+002
+6.10150187735E+006, +2.02553220712E+002, +1.77115600223E+002
+6.22653316646E+006, +2.03153427772E+002, +1.80317102607E+002
+6.35156445557E+006, +2.02764089933E+002, +1.84497053209E+002
+6.47659574468E+006, +2.03095460788E+002, +1.87879204529E+002
+6.60162703379E+006, +2.02891737218E+002, +1.91468929861E+002
+6.72665832290E+006, +2.03298322246E+002, +1.96029434135E+002
+6.85168961202E+006, +2.03490784906E+002, +1.99009860558E+002
+6.97672090113E+006, +2.04367951826E+002, +2.03144326364E+002
+7.10175219024E+006, +2.04250050277E+002, +2.06919323937E+002
+7.22678347935E+006, +2.04288996047E+002, +2.10541244961E+002
+7.35181476846E+006, +2.04987691867E+002, +2.14284846832E+002
+7.47684605757E+006, +2.04784216113E+002, +2.17541028520E+002
+7.60187734668E+006, +2.05751105375E+002, +2.21957408762E+002
+7.72690863579E+006, +2.06487571081E+002, +2.26226654376E+002
+7.85193992491E+006, +2.06340494736E+002, +2.29411041990E+002
+7.97697121402E+006, +2.06385447106E+002, +2.33632301619E+002
+8.10200250313E+006, +2.07021370278E+002, +2.38274955035E+002
+8.22703379224E+006, +2.06975020329E+002, +2.41590965463E+002
+8.35206508135E+006, +2.07521368566E+002, +2.45248942910E+002
+8.47709637046E+006, +2.08515154599E+002, +2.49799105298E+002
+8.60212765957E+006, +2.08435867969E+002, +2.53499478504E+002
+8.72715894869E+006, +2.08323031325E+002, +2.57359572800E+002
+8.85219023780E+006, +2.09479723946E+002, +2.61251796771E+002
+8.97722152691E+006, +2.09138703529E+002, +2.65221169503E+002
+9.10225281602E+006, +2.09838650882E+002, +2.69597580175E+002
+9.22728410513E+006, +2.10069871312E+002, +2.74082036887E+002
+9.35231539424E+006, +2.10916116917E+002, +2.77514308244E+002
+9.47734668335E+006, +2.10540957146E+002, +2.82545755190E+002
+9.60237797247E+006, +2.11394431195E+002, +2.85296164630E+002
+9.72740926158E+006, +2.12582347323E+002, +2.89972262311E+002
+9.85244055069E+006, +2.11630523088E+002, +2.94469952392E+002
+9.97747183980E+006, +2.12871466478E+002, +2.98259105670E+002
+1.01025031289E+007, +2.12891910001E+002, +3.01777326879E+002
+1.02275344180E+007, +2.14005834815E+002, +3.06666960109E+002
+1.03525657071E+007, +2.13968911657E+002, +3.10763305056E+002
+1.04775969962E+007, +2.15457211688E+002, +3.15415012915E+002
+1.06026282854E+007, +2.15046804429E+002, +3.19085226666E+002
+1.07276595745E+007, +2.16376896637E+002, +3.23992542383E+002
+1.08526908636E+007, +2.16247937080E+002, +3.27415392818E+002
+1.09777221527E+007, +2.16636655190E+002, +3.31866048797E+002
+1.11027534418E+007, +2.17591358045E+002, +3.35398866350E+002
+1.12277847309E+007, +2.17743704102E+002, +3.40059124347E+002
+1.13528160200E+007, +2.18191397271E+002, +3.44833223305E+002
+1.14778473091E+007, +2.19005258671E+002, +3.47960377614E+002
+1.16028785982E+007, +2.19924199413E+002, +3.52588670501E+002
+1.17279098874E+007, +2.20637787451E+002, +3.57247761006E+002
+1.18529411765E+007, +2.20431613681E+002, +3.61630901926E+002
+1.19779724656E+007, +2.20970456093E+002, +3.66305366877E+002
+1.21030037547E+007, +2.22578914434E+002, +3.70954940734E+002
+1.22280350438E+007, +2.23030280526E+002, +3.74494164815E+002
+1.23530663329E+007, +2.23475739606E+002, +3.79578230128E+002
+1.24780976220E+007, +2.24500109278E+002, +3.84695400305E+002
+1.26031289111E+007, +2.24706008501E+002, +3.88566472028E+002
+1.27281602003E+007, +2.26074367131E+002, +3.93268357701E+002
+1.28531914894E+007, +2.26301602964E+002, +3.96582038568E+002
+1.29782227785E+007, +2.27540677098E+002, +4.01848930826E+002
+1.31032540676E+007, +2.27832331726E+002, +4.06053770703E+002
+1.32282853567E+007, +2.27788513896E+002, +4.11337414725E+002
+1.33533166458E+007, +2.30116632073E+002, +4.16572998354E+002
+1.34783479349E+007, +2.29458810971E+002, +4.20266887314E+002
+1.36033792240E+007, +2.30117224642E+002, +4.24647436910E+002
+1.37284105131E+007, +2.31016668638E+002, +4.29718691868E+002
+1.38534418023E+007, +2.32593525762E+002, +4.34271690526E+002
+1.39784730914E+007, +2.32573660756E+002, +4.39461753993E+002
+1.41035043805E+007, +2.32478342822E+002, +4.43460664691E+002
+1.42285356696E+007, +2.35121857543E+002, +4.50043246791E+002
+1.43535669587E+007, +2.35123492031E+002, +4.51785528422E+002
+1.44785982478E+007, +2.35467211159E+002, +4.58732985259E+002
+1.46036295369E+007, +2.37999345161E+002, +4.64208256683E+002
+1.47286608260E+007, +2.38327814464E+002, +4.68487158620E+002
+1.48536921151E+007, +2.38651920365E+002, +4.72382316457E+002
+1.49787234043E+007, +2.37787595541E+002, +4.77423324568E+002
+1.51037546934E+007, +2.41080079150E+002, +4.82900281308E+002
+1.52287859825E+007, +2.41022754838E+002, +4.88749398072E+002
+1.53538172716E+007, +2.40944527589E+002, +4.92325110065E+002
+1.54788485607E+007, +2.42869510561E+002, +4.98905544598E+002
+1.56038798498E+007, +2.44375692216E+002, +5.03095795678E+002
+1.57289111389E+007, +2.45897841950E+002, +5.08989047056E+002
+1.58539424280E+007, +2.46642919127E+002, +5.13891833997E+002
+1.59789737171E+007, +2.47536096282E+002, +5.18103677719E+002
+1.61040050063E+007, +2.46601143138E+002, +5.24927941879E+002
+1.62290362954E+007, +2.49469715058E+002, +5.27490279080E+002
+1.63540675845E+007, +2.49529107454E+002, +5.32581825497E+002
+1.64790988736E+007, +2.49681242627E+002, +5.40477350490E+002
+1.66041301627E+007, +2.50154753609E+002, +5.45209913281E+002
+1.67291614518E+007, +2.52645172917E+002, +5.49779245231E+002
+1.68541927409E+007, +2.53380560865E+002, +5.55178815701E+002
+1.69792240300E+007, +2.53609178851E+002, +5.59501307057E+002
+1.71042553191E+007, +2.53092449329E+002, +5.68363180431E+002
+1.72292866083E+007, +2.56447052116E+002, +5.75255466529E+002
+1.73543178974E+007, +2.55616064919E+002, +5.78048271785E+002
+1.74793491865E+007, +2.59124929578E+002, +5.83713463753E+002
+1.76043804756E+007, +2.60217529685E+002, +5.88737270638E+002
+1.77294117647E+007, +2.62196186165E+002, +5.94869878437E+002
+1.78544430538E+007, +2.62958737438E+002, +6.00246647482E+002
+1.79794743429E+007, +2.63215543943E+002, +6.06734225758E+002
+1.81045056320E+007, +2.66417253009E+002, +6.12831340258E+002
+1.82295369212E+007, +2.66685472702E+002, +6.18412679651E+002
+1.83545682103E+007, +2.70032386761E+002, +6.23969339127E+002
+1.84795994994E+007, +2.69769349997E+002, +6.30824144007E+002
+1.86046307885E+007, +2.74035501134E+002, +6.36001901077E+002
+1.87296620776E+007, +2.74012418476E+002, +6.41008069689E+002
+1.88546933667E+007, +2.76005560971E+002, +6.47830756682E+002
+1.89797246558E+007, +2.77359661324E+002, +6.54718846787E+002
+1.91047559449E+007, +2.79340900144E+002, +6.60091399246E+002
+1.92297872340E+007, +2.77015343315E+002, +6.66592475998E+002
+1.93548185232E+007, +2.81308647235E+002, +6.70606468046E+002
+1.94798498123E+007, +2.81908306083E+002, +6.78418302582E+002
+1.96048811014E+007, +2.84675167723E+002, +6.83537821936E+002
+1.97299123905E+007, +2.86290574901E+002, +6.90693138486E+002
+1.98549436796E+007, +2.85076529204E+002, +6.97712291436E+002
+1.99799749687E+007, +2.89428776199E+002, +7.03416996370E+002
+2.01050062578E+007, +2.90774656696E+002, +7.08818358644E+002
+2.02300375469E+007, +2.91447268248E+002, +7.16978486211E+002
+2.03550688360E+007, +2.96498078845E+002, +7.27262421442E+002
+2.04801001252E+007, +2.95087891066E+002, +7.28786748931E+002
+2.06051314143E+007, +2.96888888401E+002, +7.35690763613E+002
+2.07301627034E+007, +2.99879132716E+002, +7.44752246794E+002
+2.08551939925E+007, +3.00351612006E+002, +7.49612066294E+002
+2.09802252816E+007, +3.05839158220E+002, +7.58479130071E+002
+2.11052565707E+007, +3.03443774629E+002, +7.66188508153E+002
+2.12302878598E+007, +3.07809621204E+002, +7.73053391945E+002
+2.13553191489E+007, +3.11472651654E+002, +7.77639096701E+002
+2.14803504380E+007, +3.15167310084E+002, +7.85853875445E+002
+2.16053817272E+007, +3.15621004114E+002, +7.92971748923E+002
+2.17304130163E+007, +3.20360285467E+002, +7.98298686300E+002
+2.18554443054E+007, +3.22527448871E+002, +8.07634878955E+002
+2.19804755945E+007, +3.21581033196E+002, +8.15771642997E+002
+2.21055068836E+007, +3.22451869560E+002, +8.22603462571E+002
+2.22305381727E+007, +3.28424652862E+002, +8.28695499787E+002
+2.23555694618E+007, +3.33133011522E+002, +8.32074185962E+002
+2.24806007509E+007, +3.37207851210E+002, +8.40137966740E+002
+2.26056320401E+007, +3.35349685645E+002, +8.47947217115E+002
+2.27306633292E+007, +3.43388703452E+002, +8.55939456142E+002
+2.28556946183E+007, +3.43008575583E+002, +8.63562173763E+002
+2.29807259074E+007, +3.44190277208E+002, +8.67504324107E+002
+2.31057571965E+007, +3.50287474249E+002, +8.79738607829E+002
+2.32307884856E+007, +3.56510093228E+002, +8.84012783110E+002
+2.33558197747E+007, +3.56089350659E+002, +8.95638378395E+002
+2.34808510638E+007, +3.62060355305E+002, +9.00943149836E+002
+2.36058823529E+007, +3.64140836815E+002, +9.10579272563E+002
+2.37309136421E+007, +3.65459606067E+002, +9.12522355988E+002
+2.38559449312E+007, +3.68840117911E+002, +9.22642387470E+002
+2.39809762203E+007, +3.75145384590E+002, +9.32874034955E+002
+2.41060075094E+007, +3.75609572824E+002, +9.40321211682E+002
+2.42310387985E+007, +3.79074613522E+002, +9.41292272587E+002
+2.43560700876E+007, +3.74118660051E+002, +9.50670716936E+002
+2.44811013767E+007, +3.75729773273E+002, +9.65560446582E+002
+2.46061326658E+007, +3.80680553373E+002, +9.72385519699E+002
+2.47311639549E+007, +3.84750252527E+002, +9.77740715473E+002
+2.48561952441E+007, +3.91620565133E+002, +9.89339000147E+002
+2.49812265332E+007, +3.91683802499E+002, +9.93559294588E+002
+2.51062578223E+007, +3.88178608603E+002, +1.00179077694E+003
+2.52312891114E+007, +3.98151166902E+002, +1.01087462471E+003
+2.53563204005E+007, +4.00767659384E+002, +1.02320386898E+003
+2.54813516896E+007, +4.04992155419E+002, +1.03319917718E+003
+2.56063829787E+007, +4.08543358671E+002, +1.04071088759E+003
+2.57314142678E+007, +4.07404607549E+002, +1.05005958961E+003
+2.58564455569E+007, +4.12206811752E+002, +1.06358989770E+003
+2.59814768461E+007, +4.13601976809E+002, +1.07241513000E+003
+2.61065081352E+007, +4.24614524079E+002, +1.08268185448E+003
+2.62315394243E+007, +4.26201307519E+002, +1.09373093046E+003
+2.63565707134E+007, +4.31361769996E+002, +1.10938124550E+003
+2.64816020025E+007, +4.37798655757E+002, +1.11850641637E+003
+2.66066332916E+007, +4.31446280320E+002, +1.12458136308E+003
+2.67316645807E+007, +4.47360557630E+002, +1.13847480022E+003
+2.68566958698E+007, +4.52472023234E+002, +1.14664076913E+003
+2.69817271589E+007, +4.49957260574E+002, +1.15602918431E+003
+2.71067584481E+007, +4.63147687549E+002, +1.16493474556E+003
+2.72317897372E+007, +4.57636245445E+002, +1.18264610647E+003
+2.73568210263E+007, +4.68668091831E+002, +1.19597769272E+003
+2.74818523154E+007, +4.69330641416E+002, +1.20074971267E+003
+2.76068836045E+007, +4.73327598330E+002, +1.22433849222E+003
+2.77319148936E+007, +4.77423434249E+002, +1.23548225918E+003
+2.78569461827E+007, +4.94135347824E+002, +1.24528309883E+003
+2.79819774718E+007, +4.90401366865E+002, +1.26191724147E+003
+2.81070087610E+007, +4.92550538782E+002, +1.27016751162E+003
+2.82320400501E+007, +5.05671792344E+002, +1.29447995988E+003
+2.83570713392E+007, +5.04190552254E+002, +1.29289138674E+003
+2.84821026283E+007, +5.14005090779E+002, +1.30501512822E+003
+2.86071339174E+007, +5.19612982150E+002, +1.31551206487E+003
+2.87321652065E+007, +5.29437968256E+002, +1.33229117892E+003
+2.88571964956E+007, +5.26632543168E+002, +1.34309701912E+003
+2.89822277847E+007, +5.32470539715E+002, +1.36230488429E+003
+2.91072590738E+007, +5.56845469958E+002, +1.36468221297E+003
+2.92322903630E+007, +5.52621871536E+002, +1.38347417196E+003
+2.93573216521E+007, +5.53640556013E+002, +1.41040210843E+003
+2.94823529412E+007, +5.75519735540E+002, +1.43021535209E+003
+2.96073842303E+007, +5.77001093953E+002, +1.43637739264E+003
+2.97324155194E+007, +5.84441419085E+002, +1.46191097504E+003
+2.98574468085E+007, +5.86437797592E+002, +1.47100085550E+003
+2.99824780976E+007, +6.00455835015E+002, +1.47529727870E+003
+3.01075093867E+007, +6.15206721104E+002, +1.49964701660E+003
+3.02325406758E+007, +6.15193478985E+002, +1.50234487169E+003
+3.03575719650E+007, +6.42567442934E+002, +1.52341681343E+003
+3.04826032541E+007, +6.38226423912E+002, +1.54828676261E+003
+3.06076345432E+007, +6.43489969511E+002, +1.54973654514E+003
+3.07326658323E+007, +6.53135267584E+002, +1.57972103981E+003
+3.08576971214E+007, +6.64596570545E+002, +1.59282461943E+003
+3.09827284105E+007, +6.79708509209E+002, +1.61018003420E+003
+3.11077596996E+007, +6.74512592741E+002, +1.65166501215E+003
+3.12327909887E+007, +6.98064240983E+002, +1.66190745247E+003
+3.13578222778E+007, +7.11121001864E+002, +1.67850025299E+003
+3.14828535670E+007, +7.24562899870E+002, +1.70480778404E+003
+3.16078848561E+007, +7.30065788279E+002, +1.69411980732E+003
+3.17329161452E+007, +7.52057699865E+002, +1.73245829131E+003
+3.18579474343E+007, +7.72852053744E+002, +1.75599333232E+003
+3.19829787234E+007, +7.67297448404E+002, +1.76646270339E+003
+3.21080100125E+007, +7.86756108650E+002, +1.80418851413E+003
+3.22330413016E+007, +7.88894153877E+002, +1.83253593346E+003
+3.23580725907E+007, +8.21989825160E+002, +1.83357444982E+003
+3.24831038798E+007, +8.21419124801E+002, +1.85795333208E+003
+3.26081351690E+007, +8.64271128742E+002, +1.87971344576E+003
+3.27331664581E+007, +8.68998565499E+002, +1.89976659385E+003
+3.28581977472E+007, +8.87479957962E+002, +1.92086169068E+003
+3.29832290363E+007, +9.05451567435E+002, +1.95352087782E+003
+3.31082603254E+007, +9.22158569873E+002, +1.97616753728E+003
+3.32332916145E+007, +9.36915866605E+002, +1.99808722900E+003
+3.33583229036E+007, +9.59515608350E+002, +2.01630845927E+003
+3.34833541927E+007, +9.89282200313E+002, +2.04628340563E+003
+3.36083854819E+007, +9.93523443278E+002, +2.06509761444E+003
+3.37334167710E+007, +1.02776373610E+003, +2.08853932234E+003
+3.38584480601E+007, +1.04775794535E+003, +2.12916274428E+003
+3.39834793492E+007, +1.06032660897E+003, +2.14945933094E+003
+3.41085106383E+007, +1.06397387098E+003, +2.19967953103E+003
+3.42335419274E+007, +1.12098928858E+003, +2.21625875852E+003
+3.43585732165E+007, +1.12863083592E+003, +2.22580003445E+003
+3.44836045056E+007, +1.22183232365E+003, +2.24046584186E+003
+3.46086357947E+007, +1.21047801922E+003, +2.31766410797E+003
+3.47336670839E+007, +1.22989518345E+003, +2.30794645397E+003
+3.48586983730E+007, +1.25148690315E+003, +2.35028669997E+003
+3.49837296621E+007, +1.28560884755E+003, +2.34675871025E+003
+3.51087609512E+007, +1.33750403528E+003, +2.42722078086E+003
+3.52337922403E+007, +1.36019298014E+003, +2.42596473566E+003
+3.53588235294E+007, +1.38339745116E+003, +2.45418441120E+003
+3.54838548185E+007, +1.44526240657E+003, +2.50689795027E+003
+3.56088861076E+007, +1.48917498210E+003, +2.58496443115E+003
+3.57339173967E+007, +1.55954849215E+003, +2.59480365681E+003
+3.58589486859E+007, +1.55649680812E+003, +2.65938818262E+003
+3.59839799750E+007, +1.63475944574E+003, +2.60712568181E+003
+3.61090112641E+007, +1.66860865834E+003, +2.70192376705E+003
+3.62340425532E+007, +1.70045970563E+003, +2.73207282278E+003
+3.63590738423E+007, +1.79495050416E+003, +2.75481486554E+003
+3.64841051314E+007, +1.80969755167E+003, +2.80497142044E+003
+3.66091364205E+007, +1.86481376513E+003, +2.84480905810E+003
+3.67341677096E+007, +1.97136128862E+003, +2.92841323214E+003
+3.68591989987E+007, +1.98873471850E+003, +2.95727022572E+003
+3.69842302879E+007, +2.06309121010E+003, +2.91800731629E+003
+3.71092615770E+007, +2.14245797993E+003, +3.02916635701E+003
+3.72342928661E+007, +2.21578217173E+003, +2.99279301445E+003
+3.73593241552E+007, +2.38736749366E+003, +3.03238137552E+003
+3.74843554443E+007, +2.36752847640E+003, +3.08182730486E+003
+3.76093867334E+007, +2.44922960600E+003, +3.11918529594E+003
+3.77344180225E+007, +2.59817917829E+003, +3.17458851182E+003
+3.78594493116E+007, +2.73191188351E+003, +3.14894499305E+003
+3.79844806008E+007, +2.70267619993E+003, +3.17974078268E+003
+3.81095118899E+007, +2.85397407844E+003, +3.17163686127E+003
+3.82345431790E+007, +3.01831387397E+003, +3.24483497977E+003
+3.83595744681E+007, +3.22384288742E+003, +3.28310985175E+003
+3.84846057572E+007, +3.20573489081E+003, +3.20609018291E+003
+3.86096370463E+007, +3.44750667310E+003, +3.44237442943E+003
+3.87346683354E+007, +3.51569335368E+003, +3.29528337882E+003
+3.88596996245E+007, +3.64979611547E+003, +3.29455994459E+003
+3.89847309136E+007, +3.89232699455E+003, +3.24353310696E+003
+3.91097622028E+007, +4.00923084016E+003, +3.28759913304E+003
+3.92347934919E+007, +4.18946772550E+003, +3.28212829340E+003
+3.93598247810E+007, +4.37797882979E+003, +3.13924712071E+003
+3.94848560701E+007, +4.35842757023E+003, +3.09113210062E+003
+3.96098873592E+007, +4.54928850669E+003, +3.12016355410E+003
+3.97349186483E+007, +4.79586611872E+003, +3.06989713690E+003
+3.98599499374E+007, +4.95152267083E+003, +2.94718862116E+003
+3.99849812265E+007, +5.30840935065E+003, +2.84432163728E+003
+4.01100125156E+007, +5.29982831291E+003, +2.87341218045E+003
