"# Channel 1"
"# Trace 1"
Frequency, Formatted Data, Formatted Data
+1.00000000000E+005, +1.34434318920E+002, +4.68441667955E-001
+2.25031289111E+005, +1.34020569606E+002, +4.89860370170E+000
+3.50062578223E+005, +1.34090431439E+002, +7.67793895161E+000
+4.75093867334E+005, +1.33913072032E+002, +1.07408612287E+001
+6.00125156446E+005, +1.33927386246E+002, +1.36203280726E+001
+7.25156445557E+005, +1.33876649385E+002, +1.65118746083E+001
+8.50187734668E+005, +1.33958851527E+002, +1.94380822357E+001
+9.75219023780E+005, +1.34022564722E+002, +2.23857111724E+001
+1.10025031289E+006, +1.34057573461E+002, +2.49936137490E+001
+1.22528160200E+006, +1.34116814158E+002, +2.78591724846E+001
+1.35031289111E+006, +1.34141519977E+002, +3.05331543459E+001
+1.47534418023E+006, +1.34316900697E+002, +3.33551705872E+001
+1.60037546934E+006, +1.34335887068E+002, +3.63222846383E+001
+1.72540675845E+006, +1.34620181064E+002, +3.89793972188E+001
+1.85043804756E+006, +1.34201145898E+002, +4.18954481092E+001
+1.97546933667E+006, +1.34539257631E+002, +4.48650411214E+001
+2.10050062578E+006, +1.34282517576E+002, +4.77752770505E+001
+2.22553191489E+006, +1.34376257618E+002, +5.03808133445E+001
+2.35056320401E+006, +1.34300435675E+002, +5.32142001223E+001
+2.47559449312E+006, +1.34690105878E+002, +5.61487999487E+001
+2.60062578223E+006, +1.34621848733E+002, +5.87271218203E+001
+2.72565707134E+006, +1.34649514695E+002, +6.15707227893E+001
+2.85068836045E+006, +1.34623926580E+002, +6.47313058400E+001
+2.97571964956E+006, +1.34826418720E+002, +6.75272870450E+001
+3.10075093867E+006, +1.34645065012E+002, +7.01515586750E+001
+3.22578222778E+006, +1.34659145798E+002, +7.28442918684E+001
+3.35081351690E+006, +1.34708477196E+002, +7.56201328758E+001
+3.47584480601E+006, +1.34588401834E+002, +7.86066765902E+001
+3.60087609512E+006, +1.35070206533E+002, +8.11133209604E+001
+3.72590738423E+006, +1.35461551415E+002, +8.58262620727E+001
+3.85093867334E+006, +1.36221778587E+002, +9.09942696026E+001
+3.97596996245E+006, +1.36781302277E+002, +9.66871536281E+001
+4.10100125156E+006, +1.35066155176E+002, +9.18823781755E+001
+4.22603254068E+006, +1.33363087449E+002, +9.89272481599E+001
+4.35106382979E+006, +1.34426544747E+002, +1.01360291983E+002
+4.47609511890E+006, +1.35320672829E+002, +1.02633660672E+002
+4.60112640801E+006, +1.35224482761E+002, +1.03742761907E+002
+4.72615769712E+006, +1.35374690971E+002, +1.06822191988E+002
+4.85118898623E+006, +1.35560912317E+002, +1.09528361378E+002
+4.97622027534E+006, +1.35752647326E+002, +1.12590688257E+002
+5.10125156446E+006, +1.35619806716E+002, +1.15156231783E+002
+5.22628285357E+006, +1.35763080934E+002, +1.18256991960E+002
+5.35131414268E+006, +1.36026842048E+002, +1.20966821141E+002
+5.47634543179E+006, +1.35979059227E+002, +1.23899011776E+002
+5.60137672090E+006, +1.35860958508E+002, +1.26787561370E+002
+5.72640801001E+006, +1.36228127218E+002, +1.29616856425E+002
+5.85143929912E+006, +1.36328705398E+002, +1.32580746757E+002
+5.97647058824E+006, +1.36141326988E+002, +1.35153425085E+002
+6.10150187735E+006, +1.36718812426E+002, +1.38040047234E+002
+6.22653316646E+006, +1.36574708306E+002, +1.41238568277E+002
+6.35156445557E+006, +1.36913901454E+002, +1.43863031191E+002
+6.47659574468E+006, +1.36834935587E+002, +1.46643200715E+002
+6.60162703379E+006, +1.37238247377E+002, +1.49319960794E+002
+6.72665832290E+006, +1.37223262810E+002, +1.52334549742E+002
+6.85168961202E+006, +1.37596565504E+002, +1.55122892030E+002
+6.97672090113E+006, +1.37529170034E+002, +1.58165231834E+002
+7.10175219024E+006, +1.37737538901E+002, +1.60845768908E+002
+7.22678347935E+006, +1.38223030773E+002, +1.63867364602E+002
+7.35181476846E+006, +1.38277855314E+002, +1.66949577070E+002
+7.47684605757E+006, +1.37966665778E+002, +1.69956577380E+002
+7.60187734668E+006, +1.38281848039E+002, +1.72579470334E+002
+7.72690863579E+006, +1.38538626950E+002, +1.75322120082E+002
+7.85193992491E+006, +1.38642098679E+002, +1.78276322150E+002
+7.97697121402E+006, +1.38806542969E+002, +1.81547377337E+002
+8.10200250313E+006, +1.38911697510E+002, +1.84189184382E+002
+8.22703379224E+006, +1.39070133791E+002, +1.87203903656E+002
+8.35206508135E+006, +1.39237911491E+002, +1.90180691926E+002
+8.47709637046E+006, +1.39473464571E+002, +1.93404556002E+002
+8.60212765957E+006, +1.39336952280E+002, +1.96191720440E+002
+8.72715894869E+006, +1.39609677094E+002, +1.98616725918E+002
+8.85219023780E+006, +1.39943474408E+002, +2.01590768872E+002
+8.97722152691E+006, +1.40038084119E+002, +2.04564835210E+002
+9.10225281602E+006, +1.40472616472E+002, +2.07973838150E+002
+9.22728410513E+006, +1.40723262010E+002, +2.11282360155E+002
+9.35231539424E+006, +1.41316861325E+002, +2.14861870833E+002
+9.47734668335E+006, +1.41386096074E+002, +2.17384161581E+002
+9.60237797247E+006, +1.40988850451E+002, +2.20085814476E+002
+9.72740926158E+006, +1.41041993801E+002, +2.22792433874E+002
+9.85244055069E+006, +1.41299749427E+002, +2.25558041235E+002
+9.97747183980E+006, +1.41381545622E+002, +2.28924949000E+002
+1.01025031289E+007, +1.41467584619E+002, +2.31918525581E+002
+1.02275344180E+007, +1.42159351085E+002, +2.34974388554E+002
+1.03525657071E+007, +1.41970983486E+002, +2.37573331046E+002
+1.04775969962E+007, +1.42335964887E+002, +2.40884771214E+002
+1.06026282854E+007, +1.42618049110E+002, +2.43910460301E+002
+1.07276595745E+007, +1.42748331356E+002, +2.46764782632E+002
+1.08526908636E+007, +1.42945578918E+002, +2.50681395905E+002
+1.09777221527E+007, +1.43431820447E+002, +2.53864828553E+002
+1.11027534418E+007, +1.43145618868E+002, +2.56669633628E+002
+1.12277847309E+007, +1.43932771039E+002, +2.60009193873E+002
+1.13528160200E+007, +1.44602143048E+002, +2.63073636586E+002
+1.14778473091E+007, +1.44455497914E+002, +2.66367363418E+002
+1.16028785982E+007, +1.44225445343E+002, +2.69321423451E+002
+1.17279098874E+007, +1.44224285823E+002, +2.72378580221E+002
+1.18529411765E+007, +1.44887271824E+002, +2.75296431530E+002
+1.19779724656E+007, +1.44953701327E+002, +2.78475374866E+002
+1.21030037547E+007, +1.45466063926E+002, +2.81585173569E+002
+1.22280350438E+007, +1.45471645204E+002, +2.85220855910E+002
+1.23530663329E+007, +1.45832117048E+002, +2.87933712959E+002
+1.24780976220E+007, +1.45939434045E+002, +2.91905273406E+002
+1.26031289111E+007, +1.46480508595E+002, +2.94822163714E+002
+1.27281602003E+007, +1.46689562544E+002, +2.98144952994E+002
+1.28531914894E+007, +1.47282482304E+002, +3.01033261808E+002
+1.29782227785E+007, +1.47044575595E+002, +3.03902849842E+002
+1.31032540676E+007, +1.47882037681E+002, +3.06885391351E+002
+1.32282853567E+007, +1.47958384932E+002, +3.11015435226E+002
+1.33533166458E+007, +1.47684079817E+002, +3.14232307314E+002
+1.34783479349E+007, +1.47888231983E+002, +3.17873873372E+002
+1.36033792240E+007, +1.48582580885E+002, +3.21298753678E+002
+1.37284105131E+007, +1.49239373312E+002, +3.24299945288E+002
+1.38534418023E+007, +1.49249634790E+002, +3.27701561415E+002
+1.39784730914E+007, +1.49947612981E+002, +3.30594776943E+002
+1.41035043805E+007, +1.48911499603E+002, +3.33711733623E+002
+1.42285356696E+007, +1.50023391790E+002, +3.37067570285E+002
+1.43535669587E+007, +1.50188267308E+002, +3.40663638844E+002
+1.44785982478E+007, +1.50469759865E+002, +3.43881276040E+002
+1.46036295369E+007, +1.50994272985E+002, +3.46962364231E+002
+1.47286608260E+007, +1.51214583811E+002, +3.51386644242E+002
+1.48536921151E+007, +1.51701581624E+002, +3.53760004023E+002
+1.49787234043E+007, +1.51912657008E+002, +3.57547124566E+002
+1.51037546934E+007, +1.52522019397E+002, +3.61110638128E+002
+1.52287859825E+007, +1.53014920446E+002, +3.64423922306E+002
+1.53538172716E+007, +1.52962645100E+002, +3.68170465709E+002
+1.54788485607E+007, +1.52968552275E+002, +3.71205085546E+002
+1.56038798498E+007, +1.53517340644E+002, +3.75074706809E+002
+1.57289111389E+007, +1.54081123774E+002, +3.78815848082E+002
+1.58539424280E+007, +1.54544537238E+002, +3.81960052928E+002
+1.59789737171E+007, +1.54670397020E+002, +3.84657340246E+002
+1.61040050063E+007, +1.55943785187E+002, +3.88845290939E+002
+1.62290362954E+007, +1.56248898527E+002, +3.92600546491E+002
+1.63540675845E+007, +1.56173176863E+002, +3.94835480639E+002
+1.64790988736E+007, +1.56170831964E+002, +3.98882782206E+002
+1.66041301627E+007, +1.57083195033E+002, +4.03243180721E+002
+1.67291614518E+007, +1.57493172776E+002, +4.08070539906E+002
+1.68541927409E+007, +1.57904276953E+002, +4.11714953710E+002
+1.69792240300E+007, +1.57434994310E+002, +4.15008396051E+002
+1.71042553191E+007, +1.57507396305E+002, +4.19958415630E+002
+1.72292866083E+007, +1.58266337614E+002, +4.22541433960E+002
+1.73543178974E+007, +1.59360708073E+002, +4.26523976277E+002
+1.74793491865E+007, +1.60359189938E+002, +4.29897566548E+002
+1.76043804756E+007, +1.60412738857E+002, +4.32219464460E+002
+1.77294117647E+007, +1.60954343508E+002, +4.37360786607E+002
+1.78544430538E+007, +1.61536786555E+002, +4.40558130929E+002
+1.79794743429E+007, +1.62022319403E+002, +4.44835718543E+002
+1.81045056320E+007, +1.61857429607E+002, +4.49079129874E+002
+1.82295369212E+007, +1.62132828525E+002, +4.52424209363E+002
+1.83545682103E+007, +1.63564692120E+002, +4.55190921392E+002
+1.84795994994E+007, +1.63685196887E+002, +4.60366992722E+002
+1.86046307885E+007, +1.64117730061E+002, +4.63627564289E+002
+1.87296620776E+007, +1.64766153746E+002, +4.66954637770E+002
+1.88546933667E+007, +1.64852444273E+002, +4.71308097420E+002
+1.89797246558E+007, +1.65712915725E+002, +4.74697216352E+002
+1.91047559449E+007, +1.66200479443E+002, +4.78508208132E+002
+1.92297872340E+007, +1.67840982032E+002, +4.82462830236E+002
+1.93548185232E+007, +1.66898422662E+002, +4.86388431755E+002
+1.94798498123E+007, +1.69224271753E+002, +4.90280805826E+002
+1.96048811014E+007, +1.69021164785E+002, +4.93995952615E+002
+1.97299123905E+007, +1.70155639621E+002, +4.98541449057E+002
+1.98549436796E+007, +1.71095205046E+002, +5.02059389962E+002
+1.99799749687E+007, +1.70632164048E+002, +5.06524582554E+002
+2.01050062578E+007, +1.71619363171E+002, +5.11221752433E+002
+2.02300375469E+007, +1.71926960587E+002, +5.14561632197E+002
+2.03550688360E+007, +1.73392921427E+002, +5.19620562311E+002
+2.04801001252E+007, +1.71462871483E+002, +5.23364761048E+002
+2.06051314143E+007, +1.73185795765E+002, +5.26050578131E+002
+2.07301627034E+007, +1.74720371503E+002, +5.31684071692E+002
+2.08551939925E+007, +1.75024764978E+002, +5.35961671083E+002
+2.09802252816E+007, +1.75498078024E+002, +5.39000607660E+002
+2.11052565707E+007, +1.76814843820E+002, +5.42813719931E+002
+2.12302878598E+007, +1.76555062091E+002, +5.47839472750E+002
+2.13553191489E+007, +1.77928469191E+002, +5.52983581741E+002
+2.14803504380E+007, +1.78487744637E+002, +5.58163704027E+002
+2.16053817272E+007, +1.78878223475E+002, +5.61144124756E+002
+2.17304130163E+007, +1.80888727655E+002, +5.65387656779E+002
+2.18554443054E+007, +1.82191704309E+002, +5.69257321601E+002
+2.19804755945E+007, +1.81661653715E+002, +5.74817118514E+002
+2.21055068836E+007, +1.83574923112E+002, +5.78482637310E+002
+2.22305381727E+007, +1.85143892934E+002, +5.82940607308E+002
+2.23555694618E+007, +1.85298881892E+002, +5.87257451649E+002
+2.24806007509E+007, +1.84472536797E+002, +5.90501596165E+002
+2.26056320401E+007, +1.85702968255E+002, +5.96997003962E+002
+2.27306633292E+007, +1.87868138185E+002, +6.02320883143E+002
+2.28556946183E+007, +1.89209316953E+002, +6.07089765722E+002
+2.29807259074E+007, +1.88718497097E+002, +6.10047945087E+002
+2.31057571965E+007, +1.91637616412E+002, +6.14745965232E+002
+2.32307884856E+007, +1.92807104179E+002, +6.18121625869E+002
+2.33558197747E+007, +1.94541192718E+002, +6.21606351675E+002
+2.34808510638E+007, +1.96891865965E+002, +6.25949700852E+002
+2.36058823529E+007, +1.94763833227E+002, +6.28423295606E+002
+2.37309136421E+007, +1.97176387174E+002, +6.35704850856E+002
+2.38559449312E+007, +1.97368036378E+002, +6.40680848598E+002
+2.39809762203E+007, +2.00032304734E+002, +6.45627039361E+002
+2.41060075094E+007, +1.98957780436E+002, +6.49514658666E+002
+2.42310387985E+007, +1.99982100327E+002, +6.54779373332E+002
+2.43560700876E+007, +2.02905918359E+002, +6.58732345565E+002
+2.44811013767E+007, +2.03728129176E+002, +6.62501376496E+002
+2.46061326658E+007, +2.02601391704E+002, +6.65659991636E+002
+2.47311639549E+007, +2.04025472994E+002, +6.73308689295E+002
+2.48561952441E+007, +2.02128795029E+002, +6.74857378576E+002
+2.49812265332E+007, +2.03388052446E+002, +6.81307084546E+002
+2.51062578223E+007, +2.04221883432E+002, +6.85559732614E+002
+2.52312891114E+007, +2.06448331516E+002, +6.91288368338E+002
+2.53563204005E+007, +2.07981551661E+002, +6.96169580734E+002
+2.54813516896E+007, +2.09282188316E+002, +7.00598565075E+002
+2.56063829787E+007, +2.10972266533E+002, +7.06967644090E+002
+2.57314142678E+007, +2.09401491199E+002, +7.12193892016E+002
+2.58564455569E+007, +2.11295718725E+002, +7.19876205548E+002
+2.59814768461E+007, +2.13453400986E+002, +7.24236963685E+002
+2.61065081352E+007, +2.14865519032E+002, +7.30595952111E+002
+2.62315394243E+007, +2.16214919288E+002, +7.34428645237E+002
+2.63565707134E+007, +2.17303329741E+002, +7.41459957727E+002
+2.64816020025E+007, +2.16055684745E+002, +7.47165705411E+002
+2.66066332916E+007, +2.19977106530E+002, +7.52597751597E+002
+2.67316645807E+007, +2.20156404180E+002, +7.57511215534E+002
+2.68566958698E+007, +2.21926968987E+002, +7.62629694641E+002
+2.69817271589E+007, +2.23833576696E+002, +7.68306449384E+002
+2.71067584481E+007, +2.24875275106E+002, +7.73797641562E+002
+2.72317897372E+007, +2.25257508379E+002, +7.78800983403E+002
+2.73568210263E+007, +2.24955942551E+002, +7.83959912728E+002
+2.74818523154E+007, +2.23974940484E+002, +7.87856696270E+002
+2.76068836045E+007, +2.25054044916E+002, +7.97588680246E+002
+2.77319148936E+007, +2.26217144426E+002, +8.01568878389E+002
+2.78569461827E+007, +2.25691136155E+002, +8.09253530592E+002
+2.79819774718E+007, +2.30026157527E+002, +8.14748584835E+002
+2.81070087610E+007, +2.32378339386E+002, +8.20509267963E+002
+2.82320400501E+007, +2.32213250463E+002, +8.25009902167E+002
+2.83570713392E+007, +2.35610330774E+002, +8.31096636401E+002
+2.84821026283E+007, +2.38042116584E+002, +8.38370652648E+002
+2.86071339174E+007, +2.42542131955E+002, +8.43521068124E+002
+2.87321652065E+007, +2.42576321954E+002, +8.49916254772E+002
+2.88571964956E+007, +2.43167164575E+002, +8.60499011926E+002
+2.89822277847E+007, +2.44754284044E+002, +8.66924917370E+002
+2.91072590738E+007, +2.47512959273E+002, +8.72676948039E+002
+2.92322903630E+007, +2.44760044792E+002, +8.78346995331E+002
+2.93573216521E+007, +2.47729820858E+002, +8.85872095702E+002
+2.94823529412E+007, +2.46971351791E+002, +8.95842058063E+002
+2.96073842303E+007, +2.48263173456E+002, +9.03214107126E+002
+2.97324155194E+007, +2.47635323513E+002, +9.08081045615E+002
+2.98574468085E+007, +2.53492348064E+002, +9.15404866799E+002
+2.99824780976E+007, +2.53621958824E+002, +9.21338969658E+002
+3.01075093867E+007, +2.55558297799E+002, +9.23647682440E+002
+3.02325406758E+007, +2.61023554802E+002, +9.35442938676E+002
+3.03575719650E+007, +2.62857326206E+002, +9.38628416073E+002
+3.04826032541E+007, +2.63418223828E+002, +9.48070447813E+002
+3.06076345432E+007, +2.63377208156E+002, +9.59147676383E+002
+3.07326658323E+007, +2.71273316919E+002, +9.67673583284E+002
+3.08576971214E+007, +2.72688883099E+002, +9.73524316772E+002
+3.09827284105E+007, +2.74737110318E+002, +9.79938501254E+002
+3.11077596996E+007, +2.73238590931E+002, +9.87885968713E+002
+3.12327909887E+007, +2.73440575865E+002, +9.98279741309E+002
+3.13578222778E+007, +2.76812069083E+002, +1.00232727937E+003
+3.14828535670E+007, +2.74401995753E+002, +1.00994353721E+003
+3.16078848561E+007, +2.79372528221E+002, +1.02046895368E+003
+3.17329161452E+007, +2.81424940969E+002, +1.02676294902E+003
+3.18579474343E+007, +2.86607639497E+002, +1.03267502410E+003
+3.19829787234E+007, +2.90574940844E+002, +1.04046724679E+003
+3.21080100125E+007, +2.92312303497E+002, +1.04972582314E+003
+3.22330413016E+007, +2.96428283280E+002, +1.06196317429E+003
+3.23580725907E+007, +2.91327466167E+002, +1.07035832080E+003
+3.24831038798E+007, +2.97275367045E+002, +1.07724425764E+003
+3.26081351690E+007, +2.99567471127E+002, +1.08353524452E+003
+3.27331664581E+007, +2.98077516531E+002, +1.09774502282E+003
+3.28581977472E+007, +3.03027993291E+002, +1.10536203367E+003
+3.29832290363E+007, +3.02485897119E+002, +1.10992563663E+003
+3.31082603254E+007, +3.02161130189E+002, +1.12250974374E+003
+3.32332916145E+007, +3.02659689360E+002, +1.12994513449E+003
+3.33583229036E+007, +3.16637443079E+002, +1.13810086561E+003
+3.34833541927E+007, +3.11532664798E+002, +1.15223756111E+003
+3.36083854819E+007, +3.14444312740E+002, +1.15982479980E+003
+3.37334167710E+007, +3.21897789758E+002, +1.16856620795E+003
+3.38584480601E+007, +3.24132732284E+002, +1.17709868174E+003
+3.39834793492E+007, +3.30187987967E+002, +1.18569571818E+003
+3.41085106383E+007, +3.31353241947E+002, +1.20032324807E+003
+3.42335419274E+007, +3.32857159670E+002, +1.20144234878E+003
+3.43585732165E+007, +3.39118921016E+002, +1.21372785562E+003
+3.44836045056E+007, +3.41618003169E+002, +1.22841145629E+003
+3.46086357947E+007, +3.40972602352E+002, +1.23723074945E+003
+3.47336670839E+007, +3.40464729748E+002, +1.25362011740E+003
+3.48586983730E+007, +3.46617578459E+002, +1.26106150119E+003
+3.49837296621E+007, +3.52853529872E+002, +1.26954978840E+003
+3.51087609512E+007, +3.54125013344E+002, +1.27481178565E+003
+3.52337922403E+007, +3.66449268849E+002, +1.29121711359E+003
+3.53588235294E+007, +3.65851799853E+002, +1.30458944144E+003
+3.54838548185E+007, +3.74707128076E+002, +1.31370067002E+003
+3.56088861076E+007, +3.79872910343E+002, +1.33012304771E+003
+3.57339173967E+007, +3.87469199307E+002, +1.34328935381E+003
+3.58589486859E+007, +3.81995749723E+002, +1.35913766572E+003
+3.59839799750E+007, +3.84828897977E+002, +1.36827275158E+003
+3.61090112641E+007, +3.95622557999E+002, +1.37553151017E+003
+3.62340425532E+007, +3.94700720730E+002, +1.39596224642E+003
+3.63590738423E+007, +4.06996616183E+002, +1.40439183607E+003
+3.64841051314E+007, +4.13039943371E+002, +1.41320386029E+003
+3.66091364205E+007, +4.14880147906E+002, +1.41536234267E+003
+3.67341677096E+007, +4.19468912698E+002, +1.43266872191E+003
+3.68591989987E+007, +4.14511424383E+002, +1.44784380977E+003
+3.69842302879E+007, +4.29386944733E+002, +1.46443028835E+003
+3.71092615770E+007, +4.26216648499E+002, +1.47040274800E+003
+3.72342928661E+007, +4.29303178667E+002, +1.48634311975E+003
+3.73593241552E+007, +4.39419942282E+002, +1.50788006468E+003
+3.74843554443E+007, +4.50416996429E+002, +1.52075284491E+003
+3.76093867334E+007, +4.56276136292E+002, +1.53786955202E+003
+3.77344180225E+007, +4.70733113104E+002, +1.55714027569E+003
+3.78594493116E+007, +4.76619646608E+002, +1.56988811027E+003
+3.79844806008E+007, +4.78603976898E+002, +1.57674668181E+003
+3.81095118899E+007, +4.87141126702E+002, +1.59787889078E+003
+3.82345431790E+007, +4.95445078243E+002, +1.60886076944E+003
+3.83595744681E+007, +4.99427488771E+002, +1.62538450523E+003
+3.84846057572E+007, +5.02526031254E+002, +1.63932638641E+003
+3.86096370463E+007, +5.18619974429E+002, +1.65610600520E+003
+3.87346683354E+007, +5.29653370681E+002, +1.67389209714E+003
+3.88596996245E+007, +5.41428594128E+002, +1.69055159367E+003
+3.89847309136E+007, +5.41255725876E+002, +1.70523709463E+003
+3.91097622028E+007, +5.51401282198E+002, +1.73072512575E+003
+3.92347934919E+007, +5.57531779181E+002, +1.74191515080E+003
+3.93598247810E+007, +5.79890964533E+002, +1.75508368127E+003
+3.94848560701E+007, +5.88098427032E+002, +1.76201701701E+003
+3.96098873592E+007, +5.83709486182E+002, +1.79194015687E+003
+3.97349186483E+007, +5.88906245016E+002, +1.79682002382E+003
+3.98599499374E+007, +5.94594459387E+002, +1.83868380222E+003
+3.99849812265E+007, +6.14988611182E+002, +1.85352690284E+003
+4.01100125156E+007, +6.25926648191E+002, +1.86874447557E+003
