"# Channel 1"
"# Trace 1"
Frequency, Formatted Data, Formatted Data
+1.00000000000E+005, +7.87343657074E+001, +7.72287047937E-001
+2.25031289111E+005, +7.84862312131E+001, +2.77753768372E+000
+3.50062578223E+005, +7.86999426648E+001, +4.31214488798E+000
+4.75093867334E+005, +7.86055776167E+001, +6.05121105951E+000
+6.00125156446E+005, +7.85856321356E+001, +7.61694198754E+000
+7.25156445557E+005, +7.86265946579E+001, +9.28413874819E+000
+8.50187734668E+005, +7.87679845764E+001, +1.07615313607E+001
+9.75219023780E+005, +7.86674528890E+001, +1.23611318293E+001
+1.10025031289E+006, +7.87227962479E+001, +1.39640428906E+001
+1.22528160200E+006, +7.86146861356E+001, +1.56013958209E+001
+1.35031289111E+006, +7.87440414146E+001, +1.71733184219E+001
+1.47534418023E+006, +7.87852700520E+001, +1.86930223063E+001
+1.60037546934E+006, +7.87374763346E+001, +2.01603815372E+001
+1.72540675845E+006, +7.86682158655E+001, +2.18809634220E+001
+1.85043804756E+006, +7.88119719348E+001, +2.34508593013E+001
+1.97546933667E+006, +7.88322746071E+001, +2.50588895465E+001
+2.10050062578E+006, +7.86933787598E+001, +2.65031327537E+001
+2.22553191489E+006, +7.87922829097E+001, +2.82617776392E+001
+2.35056320401E+006, +7.88324594233E+001, +2.97416844389E+001
+2.47559449312E+006, +7.88689362677E+001, +3.13875046024E+001
+2.60062578223E+006, +7.87609288741E+001, +3.28775377243E+001
+2.72565707134E+006, +7.88772148600E+001, +3.44955201059E+001
+2.85068836045E+006, +7.88254880658E+001, +3.60706921420E+001
+2.97571964956E+006, +7.89264597335E+001, +3.77499520371E+001
+3.10075093867E+006, +7.88148472927E+001, +3.91737880974E+001
+3.22578222778E+006, +7.89353696557E+001, +4.07805538969E+001
+3.35081351690E+006, +7.89247442909E+001, +4.23250644461E+001
+3.47584480601E+006, +7.89160237892E+001, +4.38287224911E+001
+3.60087609512E+006, +7.91035241197E+001, +4.54835402337E+001
+3.72590738423E+006, +7.91169077627E+001, +4.70559313776E+001
+3.85093867334E+006, +7.90330434715E+001, +4.86452546304E+001
+3.97596996245E+006, +7.90506301896E+001, +5.00952037567E+001
+4.10100125156E+006, +7.88371168833E+001, +5.19810389498E+001
+4.22603254068E+006, +7.93183370461E+001, +5.35487331421E+001
+4.35106382979E+006, +7.92012253747E+001, +5.49967500199E+001
+4.47609511890E+006, +7.92906148014E+001, +5.67896672478E+001
+4.60112640801E+006, +7.94149360957E+001, +5.81118660983E+001
+4.72615769712E+006, +7.92975843958E+001, +5.97277368322E+001
+4.85118898623E+006, +7.92876265698E+001, +6.14212591089E+001
+4.97622027534E+006, +7.94539548087E+001, +6.29716663673E+001
+5.10125156446E+006, +7.94411941794E+001, +6.44108713712E+001
+5.22628285357E+006, +7.92386844015E+001, +6.59962460772E+001
+5.35131414268E+006, +7.94238779520E+001, +6.75866836877E+001
+5.47634543179E+006, +7.95626767719E+001, +6.93541005870E+001
+5.60137672090E+006, +7.94971704444E+001, +7.09421325292E+001
+5.72640801001E+006, +7.94609390306E+001, +7.24457312350E+001
+5.85143929912E+006, +7.97137919171E+001, +7.38333912189E+001
+5.97647058824E+006, +7.96544566189E+001, +7.54324663338E+001
+6.10150187735E+006, +7.95101331465E+001, +7.70743846541E+001
+6.22653316646E+006, +7.96891538172E+001, +7.85623144701E+001
+6.35156445557E+006, +7.97719691863E+001, +8.03007900382E+001
+6.47659574468E+006, +7.97130396952E+001, +8.18117604551E+001
+6.60162703379E+006, +7.96971173073E+001, +8.33754517812E+001
+6.72665832290E+006, +7.98469993761E+001, +8.50796411401E+001
+6.85168961202E+006, +7.98182816510E+001, +8.66309775276E+001
+6.97672090113E+006, +7.99107216738E+001, +8.81798199766E+001
+7.10175219024E+006, +7.98303841040E+001, +8.98451777535E+001
+7.22678347935E+006, +7.99009927424E+001, +9.13911335041E+001
+7.35181476846E+006, +8.00452614620E+001, +9.30479185162E+001
+7.47684605757E+006, +7.99951286006E+001, +9.45111650852E+001
+7.60187734668E+006, +8.01195282352E+001, +9.62162174412E+001
+7.72690863579E+006, +8.01280951175E+001, +9.78557932889E+001
+7.85193992491E+006, +8.01598491671E+001, +9.94204628274E+001
+7.97697121402E+006, +8.02023168723E+001, +1.00916966949E+002
+8.10200250313E+006, +8.02651788524E+001, +1.02675619660E+002
+8.22703379224E+006, +8.04214772745E+001, +1.04300187687E+002
+8.35206508135E+006, +8.04158582690E+001, +1.05900330740E+002
+8.47709637046E+006, +8.04893594756E+001, +1.07583929443E+002
+8.60212765957E+006, +8.03922969391E+001, +1.09095907308E+002
+8.72715894869E+006, +8.04279788532E+001, +1.10736915690E+002
+8.85219023780E+006, +8.05288745147E+001, +1.12419933083E+002
+8.97722152691E+006, +8.04554207015E+001, +1.14024656376E+002
+9.10225281602E+006, +8.06830648081E+001, +1.15705618018E+002
+9.22728410513E+006, +8.06352590409E+001, +1.17243275627E+002
+9.35231539424E+006, +8.07484622405E+001, +1.18705914614E+002
+9.47734668335E+006, +8.05220406244E+001, +1.20649600488E+002
+9.60237797247E+006, +8.06611281047E+001, +1.22028256546E+002
+9.72740926158E+006, +8.08544647564E+001, +1.23784389211E+002
+9.85244055069E+006, +8.08161473692E+001, +1.25428407162E+002
+9.97747183980E+006, +8.10269516658E+001, +1.27000579325E+002
+1.01025031289E+007, +8.10261983081E+001, +1.28530055303E+002
+1.02275344180E+007, +8.10904965507E+001, +1.30294718901E+002
+1.03525657071E+007, +8.10733830196E+001, +1.32008529544E+002
+1.04775969962E+007, +8.12229088740E+001, +1.33716925955E+002
+1.06026282854E+007, +8.12092078475E+001, +1.35258700927E+002
+1.07276595745E+007, +8.13128571714E+001, +1.36866595791E+002
+1.08526908636E+007, +8.13867538343E+001, +1.38633403164E+002
+1.09777221527E+007, +8.13623016371E+001, +1.40293453018E+002
+1.11027534418E+007, +8.14482132576E+001, +1.41849271023E+002
+1.12277847309E+007, +8.15596417220E+001, +1.43508011897E+002
+1.13528160200E+007, +8.16195828575E+001, +1.45233907037E+002
+1.14778473091E+007, +8.14976051676E+001, +1.46683279043E+002
+1.16028785982E+007, +8.16993050202E+001, +1.48358748467E+002
+1.17279098874E+007, +8.17401389075E+001, +1.50059726606E+002
+1.18529411765E+007, +8.18520027113E+001, +1.51725464030E+002
+1.19779724656E+007, +8.16996877697E+001, +1.53436231835E+002
+1.21030037547E+007, +8.19275292909E+001, +1.54923115606E+002
+1.22280350438E+007, +8.19443372916E+001, +1.56651897215E+002
+1.23530663329E+007, +8.19449464430E+001, +1.58187440190E+002
+1.24780976220E+007, +8.22314511523E+001, +1.60090971425E+002
+1.26031289111E+007, +8.21780205123E+001, +1.61709446063E+002
+1.27281602003E+007, +8.24407913148E+001, +1.63444592033E+002
+1.28531914894E+007, +8.26456048647E+001, +1.65037270247E+002
+1.29782227785E+007, +8.24481699852E+001, +1.66822846903E+002
+1.31032540676E+007, +8.24727099839E+001, +1.68452968856E+002
+1.32282853567E+007, +8.25458742213E+001, +1.70218636545E+002
+1.33533166458E+007, +8.25510610460E+001, +1.71980463528E+002
+1.34783479349E+007, +8.26271110372E+001, +1.73542311103E+002
+1.36033792240E+007, +8.26090568002E+001, +1.75267086753E+002
+1.37284105131E+007, +8.25869741231E+001, +1.76913122364E+002
+1.38534418023E+007, +8.27657835835E+001, +1.78504200379E+002
+1.39784730914E+007, +8.29880179080E+001, +1.80226953210E+002
+1.41035043805E+007, +8.28546820143E+001, +1.81899178236E+002
+1.42285356696E+007, +8.31198043197E+001, +1.83686188892E+002
+1.43535669587E+007, +8.32701279338E+001, +1.85369493406E+002
+1.44785982478E+007, +8.33123893472E+001, +1.87133164497E+002
+1.46036295369E+007, +8.33989176729E+001, +1.88883452016E+002
+1.47286608260E+007, +8.35409284492E+001, +1.90520868893E+002
+1.48536921151E+007, +8.36593520561E+001, +1.92161980766E+002
+1.49787234043E+007, +8.37170010525E+001, +1.93891102697E+002
+1.51037546934E+007, +8.37758346672E+001, +1.95865092815E+002
+1.52287859825E+007, +8.39186228221E+001, +1.97393021869E+002
+1.53538172716E+007, +8.38314429005E+001, +1.98947500281E+002
+1.54788485607E+007, +8.38550092036E+001, +2.00930926042E+002
+1.56038798498E+007, +8.40584164852E+001, +2.02783846601E+002
+1.57289111389E+007, +8.40601762265E+001, +2.04203580591E+002
+1.58539424280E+007, +8.43935960307E+001, +2.05994758724E+002
+1.59789737171E+007, +8.42908655240E+001, +2.07385767286E+002
+1.61040050063E+007, +8.43592911780E+001, +2.09547521964E+002
+1.62290362954E+007, +8.46397988508E+001, +2.11181031317E+002
+1.63540675845E+007, +8.45668264823E+001, +2.12960161649E+002
+1.64790988736E+007, +8.43779242913E+001, +2.14489404081E+002
+1.66041301627E+007, +8.43772129894E+001, +2.16585250118E+002
+1.67291614518E+007, +8.45640072961E+001, +2.18101314576E+002
+1.68541927409E+007, +8.51239576291E+001, +2.20008720676E+002
+1.69792240300E+007, +8.48457763579E+001, +2.21527070164E+002
+1.71042553191E+007, +8.50292331672E+001, +2.23700728919E+002
+1.72292866083E+007, +8.48605600449E+001, +2.25715375852E+002
+1.73543178974E+007, +8.50649474616E+001, +2.27016005181E+002
+1.74793491865E+007, +8.49296061397E+001, +2.29002404021E+002
+1.76043804756E+007, +8.54802289172E+001, +2.30684026182E+002
+1.77294117647E+007, +8.55491339296E+001, +2.32613178628E+002
+1.78544430538E+007, +8.55665713912E+001, +2.33992302457E+002
+1.79794743429E+007, +8.59048897725E+001, +2.36317658824E+002
+1.81045056320E+007, +8.57613690949E+001, +2.37857330839E+002
+1.82295369212E+007, +8.58069205467E+001, +2.39456508798E+002
+1.83545682103E+007, +8.62424849898E+001, +2.41360564366E+002
+1.84795994994E+007, +8.63053002629E+001, +2.43185456806E+002
+1.86046307885E+007, +8.64833940754E+001, +2.44873135588E+002
+1.87296620776E+007, +8.66098255117E+001, +2.46782149686E+002
+1.88546933667E+007, +8.68942326905E+001, +2.48627002155E+002
+1.89797246558E+007, +8.68780912428E+001, +2.50342927913E+002
+1.91047559449E+007, +8.68717403581E+001, +2.52243434197E+002
+1.92297872340E+007, +8.67845395186E+001, +2.53930489410E+002
+1.93548185232E+007, +8.69187403518E+001, +2.55687354494E+002
+1.94798498123E+007, +8.75915013123E+001, +2.57403546454E+002
+1.96048811014E+007, +8.71919974255E+001, +2.59444488874E+002
+1.97299123905E+007, +8.74874639146E+001, +2.61406491685E+002
+1.98549436796E+007, +8.74565142349E+001, +2.63146363260E+002
+1.99799749687E+007, +8.76690646924E+001, +2.64841200307E+002
+2.01050062578E+007, +8.79278540405E+001, +2.66402318683E+002
+2.02300375469E+007, +8.79245875144E+001, +2.68523409203E+002
+2.03550688360E+007, +8.85690088265E+001, +2.70441091286E+002
+2.04801001252E+007, +8.81412982847E+001, +2.72475026624E+002
+2.06051314143E+007, +8.85290571776E+001, +2.73765881463E+002
+2.07301627034E+007, +8.79995983391E+001, +2.76172571985E+002
+2.08551939925E+007, +8.85635847569E+001, +2.77266282699E+002
+2.09802252816E+007, +8.91757076330E+001, +2.80039220875E+002
+2.11052565707E+007, +8.89180338589E+001, +2.81296732003E+002
+2.12302878598E+007, +8.91386015874E+001, +2.83540922476E+002
+2.13553191489E+007, +8.94894336751E+001, +2.85524349503E+002
+2.14803504380E+007, +8.89004978008E+001, +2.87492589408E+002
+2.16053817272E+007, +8.92183075353E+001, +2.88983592934E+002
+2.17304130163E+007, +8.93275500903E+001, +2.90931094129E+002
+2.18554443054E+007, +8.99602447947E+001, +2.93125112015E+002
+2.19804755945E+007, +8.94672367357E+001, +2.95111899193E+002
+2.21055068836E+007, +8.98778137431E+001, +2.96606096279E+002
+2.22305381727E+007, +9.03963020339E+001, +2.98763176927E+002
+2.23555694618E+007, +9.05414320166E+001, +3.00330068310E+002
+2.24806007509E+007, +9.09319102946E+001, +3.02597680720E+002
+2.26056320401E+007, +9.11054842814E+001, +3.04247575015E+002
+2.27306633292E+007, +9.14431324230E+001, +3.06314971281E+002
+2.28556946183E+007, +9.10631213054E+001, +3.07406556126E+002
+2.29807259074E+007, +9.15366803419E+001, +3.09587863293E+002
+2.31057571965E+007, +9.16373720095E+001, +3.11837224302E+002
+2.32307884856E+007, +9.21089979055E+001, +3.13768748785E+002
+2.33558197747E+007, +9.20965216350E+001, +3.15651828016E+002
+2.34808510638E+007, +9.22513657402E+001, +3.17773184281E+002
+2.36058823529E+007, +9.18099033942E+001, +3.19909006963E+002
+2.37309136421E+007, +9.28020264205E+001, +3.21357980222E+002
+2.38559449312E+007, +9.26749642902E+001, +3.23768885985E+002
+2.39809762203E+007, +9.32276403531E+001, +3.25164550644E+002
+2.41060075094E+007, +9.26737021320E+001, +3.27619954386E+002
+2.42310387985E+007, +9.31276701266E+001, +3.28751874865E+002
+2.43560700876E+007, +9.29687077395E+001, +3.31309956800E+002
+2.44811013767E+007, +9.27858997286E+001, +3.32992893518E+002
+2.46061326658E+007, +9.32912276718E+001, +3.35456459289E+002
+2.47311639549E+007, +9.34216261087E+001, +3.37101331846E+002
+2.48561952441E+007, +9.37572689937E+001, +3.39329847544E+002
+2.49812265332E+007, +9.43204562349E+001, +3.40343892484E+002
+2.51062578223E+007, +9.35252858441E+001, +3.43397580892E+002
+2.52312891114E+007, +9.45970167557E+001, +3.45166930327E+002
+2.53563204005E+007, +9.52678227342E+001, +3.47394025386E+002
+2.54813516896E+007, +9.46494123103E+001, +3.48856034748E+002
+2.56063829787E+007, +9.49869782903E+001, +3.50664429435E+002
+2.57314142678E+007, +9.50284691800E+001, +3.52640923391E+002
+2.58564455569E+007, +9.53007023348E+001, +3.54801182170E+002
+2.59814768461E+007, +9.53224380240E+001, +3.57204517351E+002
+2.61065081352E+007, +9.59196568474E+001, +3.58826389788E+002
+2.62315394243E+007, +9.59923896039E+001, +3.60524199774E+002
+2.63565707134E+007, +9.58104819600E+001, +3.63418170008E+002
+2.64816020025E+007, +9.67864086048E+001, +3.65657001779E+002
+2.66066332916E+007, +9.58797538330E+001, +3.67176479266E+002
+2.67316645807E+007, +9.66098673545E+001, +3.69118327152E+002
+2.68566958698E+007, +9.69101423191E+001, +3.71471366635E+002
+2.69817271589E+007, +9.75343051687E+001, +3.73473861479E+002
+2.71067584481E+007, +9.78320856658E+001, +3.75282932428E+002
+2.72317897372E+007, +9.77169894108E+001, +3.78322676415E+002
+2.73568210263E+007, +9.71825266489E+001, +3.80217719065E+002
+2.74818523154E+007, +9.72252648842E+001, +3.82227456808E+002
+2.76068836045E+007, +9.75072259225E+001, +3.84706064059E+002
+2.77319148936E+007, +9.80671648631E+001, +3.87209189660E+002
+2.78569461827E+007, +9.85676012439E+001, +3.89074311257E+002
+2.79819774718E+007, +9.83358351841E+001, +3.90546562796E+002
+2.81070087610E+007, +9.82398923335E+001, +3.92181265808E+002
+2.82320400501E+007, +9.80386333676E+001, +3.95068415545E+002
+2.83570713392E+007, +9.91895377401E+001, +3.96694981375E+002
+2.84821026283E+007, +9.97246869804E+001, +3.99231666385E+002
+2.86071339174E+007, +9.98163651020E+001, +4.00936125551E+002
+2.87321652065E+007, +1.00537247322E+002, +4.03738399861E+002
+2.88571964956E+007, +9.98471223695E+001, +4.05337212805E+002
+2.89822277847E+007, +1.00553471381E+002, +4.08323724393E+002
+2.91072590738E+007, +1.00895253619E+002, +4.09943866808E+002
+2.92322903630E+007, +9.99512691075E+001, +4.12106574377E+002
+2.93573216521E+007, +1.00257156121E+002, +4.14851706706E+002
+2.94823529412E+007, +1.00886813861E+002, +4.17015937246E+002
+2.96073842303E+007, +1.01016538655E+002, +4.18617601344E+002
+2.97324155194E+007, +1.00401039098E+002, +4.22268037407E+002
+2.98574468085E+007, +1.00191184958E+002, +4.23797869870E+002
+2.99824780976E+007, +1.01849182957E+002, +4.26039052196E+002
+3.01075093867E+007, +1.02282424360E+002, +4.28367948273E+002
+3.02325406758E+007, +1.01977058240E+002, +4.30525591866E+002
+3.03575719650E+007, +1.02552667290E+002, +4.31977222104E+002
+3.04826032541E+007, +1.02625139541E+002, +4.34372734627E+002
+3.06076345432E+007, +1.02927653532E+002, +4.36776284176E+002
+3.07326658323E+007, +1.03303854482E+002, +4.39486460932E+002
+3.08576971214E+007, +1.03113356852E+002, +4.41252554499E+002
+3.09827284105E+007, +1.04067374482E+002, +4.43178228609E+002
+3.11077596996E+007, +1.02647042180E+002, +4.47434067733E+002
+3.12327909887E+007, +1.03463917309E+002, +4.48701964329E+002
+3.13578222778E+007, +1.04198275841E+002, +4.52047925800E+002
+3.14828535670E+007, +1.03764039406E+002, +4.55050960208E+002
+3.16078848561E+007, +1.04792235299E+002, +4.54906556140E+002
+3.17329161452E+007, +1.04720883227E+002, +4.58515499290E+002
+3.18579474343E+007, +1.05545897506E+002, +4.61477158896E+002
+3.19829787234E+007, +1.05222129329E+002, +4.63097047191E+002
+3.21080100125E+007, +1.04448701405E+002, +4.66110794434E+002
+3.22330413016E+007, +1.04364220470E+002, +4.69024598585E+002
+3.23580725907E+007, +1.06300327780E+002, +4.70110379461E+002
+3.24831038798E+007, +1.06273384838E+002, +4.73630262626E+002
+3.26081351690E+007, +1.06210670178E+002, +4.75958854991E+002
+3.27331664581E+007, +1.06510606717E+002, +4.77325511398E+002
+3.28581977472E+007, +1.07118132812E+002, +4.80327768786E+002
+3.29832290363E+007, +1.08120239350E+002, +4.82997861141E+002
+3.31082603254E+007, +1.06766957766E+002, +4.85749119096E+002
+3.32332916145E+007, +1.06540284450E+002, +4.87200250246E+002
+3.33583229036E+007, +1.07351714753E+002, +4.89864139779E+002
+3.34833541927E+007, +1.08434649999E+002, +4.92378490564E+002
+3.36083854819E+007, +1.09049240198E+002, +4.95350764239E+002
+3.37334167710E+007, +1.08872979057E+002, +4.97148637660E+002
+3.38584480601E+007, +1.09669250958E+002, +4.99793052972E+002
+3.39834793492E+007, +1.07452445779E+002, +5.01849537839E+002
+3.41085106383E+007, +1.08426852842E+002, +5.05190705139E+002
+3.42335419274E+007, +1.10929179356E+002, +5.07941694143E+002
+3.43585732165E+007, +1.09866360944E+002, +5.11923760622E+002
+3.44836045056E+007, +1.12295485770E+002, +5.12719088399E+002
+3.46086357947E+007, +1.10956165369E+002, +5.16220867065E+002
+3.47336670839E+007, +1.11701114236E+002, +5.18335888485E+002
+3.48586983730E+007, +1.10917898070E+002, +5.19651220016E+002
+3.49837296621E+007, +1.12768668986E+002, +5.22367766744E+002
+3.51087609512E+007, +1.11352820724E+002, +5.24550074208E+002
+3.52337922403E+007, +1.11239221028E+002, +5.27855518994E+002
+3.53588235294E+007, +1.12973463310E+002, +5.31475152269E+002
+3.54838548185E+007, +1.12443556910E+002, +5.33789677660E+002
+3.56088861076E+007, +1.14168949390E+002, +5.37281199225E+002
+3.57339173967E+007, +1.14247067240E+002, +5.40276526899E+002
+3.58589486859E+007, +1.14016379090E+002, +5.42065103570E+002
+3.59839799750E+007, +1.17229067691E+002, +5.45195859768E+002
+3.61090112641E+007, +1.13027381507E+002, +5.46772384574E+002
+3.62340425532E+007, +1.15358294851E+002, +5.49679422944E+002
+3.63590738423E+007, +1.16612780839E+002, +5.53715554987E+002
+3.64841051314E+007, +1.15788327603E+002, +5.55780080344E+002
+3.66091364205E+007, +1.15607028936E+002, +5.58243816775E+002
+3.67341677096E+007, +1.15840318757E+002, +5.61671759597E+002
+3.68591989987E+007, +1.16132126561E+002, +5.65619587463E+002
+3.69842302879E+007, +1.17894780578E+002, +5.65569115980E+002
+3.71092615770E+007, +1.17523473804E+002, +5.69078115303E+002
+3.72342928661E+007, +1.16764082606E+002, +5.71741520378E+002
+3.73593241552E+007, +1.19931814626E+002, +5.76671079010E+002
+3.74843554443E+007, +1.18946651613E+002, +5.77743924197E+002
+3.76093867334E+007, +1.20691960389E+002, +5.80506511345E+002
+3.77344180225E+007, +1.20748238531E+002, +5.84681125358E+002
+3.78594493116E+007, +1.19866001644E+002, +5.86957066248E+002
+3.79844806008E+007, +1.19524694034E+002, +5.88114165200E+002
+3.81095118899E+007, +1.21936508852E+002, +5.91780493179E+002
+3.82345431790E+007, +1.21343075645E+002, +5.94110618091E+002
+3.83595744681E+007, +1.21881787881E+002, +5.98454963176E+002
+3.84846057572E+007, +1.21842413477E+002, +6.00761594697E+002
+3.86096370463E+007, +1.20781889926E+002, +6.04573232112E+002
+3.87346683354E+007, +1.23420505429E+002, +6.08383952908E+002
+3.88596996245E+007, +1.21964493354E+002, +6.10037239930E+002
+3.89847309136E+007, +1.25498615340E+002, +6.14170739467E+002
+3.91097622028E+007, +1.24675908636E+002, +6.17125918738E+002
+3.92347934919E+007, +1.26032379615E+002, +6.18584547553E+002
+3.93598247810E+007, +1.25692668132E+002, +6.22635903632E+002
+3.94848560701E+007, +1.28176183964E+002, +6.25080038540E+002
+3.96098873592E+007, +1.27417662555E+002, +6.28498669699E+002
+3.97349186483E+007, +1.25222612328E+002, +6.30529128782E+002
+3.98599499374E+007, +1.27748665706E+002, +6.32892314660E+002
+3.99849812265E+007, +1.26984369521E+002, +6.39593790360E+002
+4.01100125156E+007, +1.29571075480E+002, +6.44116921443E+002
