"# Channel 1"
"# Trace 1"
Frequency, Formatted Data, Formatted Data
+1.00000000000E+005, +1.90483123540E+002, +1.80104297127E-001
+2.25031289111E+005, +1.89467143013E+002, +6.55709010388E+000
+3.50062578223E+005, +1.89588701055E+002, +1.13096173425E+001
+4.75093867334E+005, +1.89457445434E+002, +1.52368660807E+001
+6.00125156446E+005, +1.89339821349E+002, +1.97119835848E+001
+7.25156445557E+005, +1.89665237309E+002, +2.35189694178E+001
+8.50187734668E+005, +1.89757343853E+002, +2.75907282167E+001
+9.75219023780E+005, +1.89584028434E+002, +3.16278353827E+001
+1.10025031289E+006, +1.89762808865E+002, +3.58755784422E+001
+1.22528160200E+006, +1.89852014256E+002, +3.94087282752E+001
+1.35031289111E+006, +1.90549874322E+002, +4.34531354933E+001
+1.47534418023E+006, +1.90344410000E+002, +4.71575234623E+001
+1.60037546934E+006, +1.90273884981E+002, +5.16432475222E+001
+1.72540675845E+006, +1.90438213311E+002, +5.54918128326E+001
+1.85043804756E+006, +1.90488543829E+002, +5.99802427412E+001
+1.97546933667E+006, +1.90669184807E+002, +6.38582397550E+001
+2.10050062578E+006, +1.90839055861E+002, +6.80694333538E+001
+2.22553191489E+006, +1.90673255824E+002, +7.20585225451E+001
+2.35056320401E+006, +1.90871280888E+002, +7.56770753697E+001
+2.47559449312E+006, +1.90973852494E+002, +8.01783025498E+001
+2.60062578223E+006, +1.91704882990E+002, +8.41925871958E+001
+2.72565707134E+006, +1.90588767182E+002, +8.78657064672E+001
+2.85068836045E+006, +1.91520383678E+002, +9.27449069530E+001
+2.97571964956E+006, +1.90827923869E+002, +9.61511432768E+001
+3.10075093867E+006, +1.91394341087E+002, +1.00075692507E+002
+3.22578222778E+006, +1.91802801614E+002, +1.03905069170E+002
+3.35081351690E+006, +1.91742017178E+002, +1.08202696270E+002
+3.47584480601E+006, +1.92039412605E+002, +1.12425905533E+002
+3.60087609512E+006, +1.91782716213E+002, +1.16722761875E+002
+3.72590738423E+006, +1.92738197150E+002, +1.23769793907E+002
+3.85093867334E+006, +1.94733440323E+002, +1.33011261609E+002
+3.97596996245E+006, +1.96114118504E+002, +1.42478840435E+002
+4.10100125156E+006, +1.92621068200E+002, +1.31799769395E+002
+4.22603254068E+006, +1.88577329070E+002, +1.44396799089E+002
+4.35106382979E+006, +1.91408219017E+002, +1.47110708570E+002
+4.47609511890E+006, +1.93175096083E+002, +1.48211160949E+002
+4.60112640801E+006, +1.92967828144E+002, +1.48921708869E+002
+4.72615769712E+006, +1.93604355716E+002, +1.53400926594E+002
+4.85118898623E+006, +1.93335706213E+002, +1.57619284737E+002
+4.97622027534E+006, +1.94263856256E+002, +1.61411750056E+002
+5.10125156446E+006, +1.93840787732E+002, +1.65553741532E+002
+5.22628285357E+006, +1.94575663344E+002, +1.69732277371E+002
+5.35131414268E+006, +1.94450464879E+002, +1.73927444841E+002
+5.47634543179E+006, +1.94419268919E+002, +1.77865788728E+002
+5.60137672090E+006, +1.94197260948E+002, +1.82176796487E+002
+5.72640801001E+006, +1.94738388656E+002, +1.86156901855E+002
+5.85143929912E+006, +1.95676189309E+002, +1.90200873426E+002
+5.97647058824E+006, +1.95113556393E+002, +1.94040111241E+002
+6.10150187735E+006, +1.95370015093E+002, +1.98410203711E+002
+6.22653316646E+006, +1.96140068600E+002, +2.03165717915E+002
+6.35156445557E+006, +1.96506904045E+002, +2.06948209578E+002
+6.47659574468E+006, +1.96625211222E+002, +2.10966618110E+002
+6.60162703379E+006, +1.97955550915E+002, +2.15031039641E+002
+6.72665832290E+006, +1.98403663730E+002, +2.19186475581E+002
+6.85168961202E+006, +1.98813452114E+002, +2.23385290615E+002
+6.97672090113E+006, +1.99169411943E+002, +2.27784151194E+002
+7.10175219024E+006, +1.99556654414E+002, +2.31662071377E+002
+7.22678347935E+006, +1.99981372036E+002, +2.35916764930E+002
+7.35181476846E+006, +2.00448423673E+002, +2.40310151137E+002
+7.47684605757E+006, +2.00283771051E+002, +2.45028754475E+002
+7.60187734668E+006, +2.01049151640E+002, +2.49329138102E+002
+7.72690863579E+006, +2.01579112944E+002, +2.52992985834E+002
+7.85193992491E+006, +2.01603431967E+002, +2.57541030829E+002
+7.97697121402E+006, +2.02316892819E+002, +2.62516204820E+002
+8.10200250313E+006, +2.03020371932E+002, +2.66367530316E+002
+8.22703379224E+006, +2.03191353222E+002, +2.71023967320E+002
+8.35206508135E+006, +2.03909755331E+002, +2.75515087613E+002
+8.47709637046E+006, +2.04126897239E+002, +2.80083675348E+002
+8.60212765957E+006, +2.04665932786E+002, +2.84292069523E+002
+8.72715894869E+006, +2.04520632158E+002, +2.87733932575E+002
+8.85219023780E+006, +2.05061865088E+002, +2.91990122262E+002
+8.97722152691E+006, +2.05776170595E+002, +2.96593423391E+002
+9.10225281602E+006, +2.06200782099E+002, +3.01860339185E+002
+9.22728410513E+006, +2.07338482294E+002, +3.07137995718E+002
+9.35231539424E+006, +2.08351472771E+002, +3.12368860259E+002
+9.47734668335E+006, +2.08180205837E+002, +3.16084649527E+002
+9.60237797247E+006, +2.08272910079E+002, +3.19590199426E+002
+9.72740926158E+006, +2.08723880143E+002, +3.23816318810E+002
+9.85244055069E+006, +2.09278529361E+002, +3.28423818985E+002
+9.97747183980E+006, +2.09857356678E+002, +3.33203216322E+002
+1.01025031289E+007, +2.10702325533E+002, +3.38506470109E+002
+1.02275344180E+007, +2.11166866453E+002, +3.42376206370E+002
+1.03525657071E+007, +2.11162516033E+002, +3.47266035497E+002
+1.04775969962E+007, +2.12307004883E+002, +3.52154140794E+002
+1.06026282854E+007, +2.13465180820E+002, +3.56598345327E+002
+1.07276595745E+007, +2.13546023797E+002, +3.61946926627E+002
+1.08526908636E+007, +2.13660718086E+002, +3.67202432214E+002
+1.09777221527E+007, +2.14444330224E+002, +3.72485489485E+002
+1.11027534418E+007, +2.15209428637E+002, +3.76615021218E+002
+1.12277847309E+007, +2.15803171643E+002, +3.81346574010E+002
+1.13528160200E+007, +2.17175657220E+002, +3.86493424010E+002
+1.14778473091E+007, +2.18371639094E+002, +3.92330600455E+002
+1.16028785982E+007, +2.17941868540E+002, +3.96622017512E+002
+1.17279098874E+007, +2.18643848397E+002, +4.00000511040E+002
+1.18529411765E+007, +2.19716742713E+002, +4.04875768124E+002
+1.19779724656E+007, +2.21152846170E+002, +4.10791517483E+002
+1.21030037547E+007, +2.21900987084E+002, +4.14858132896E+002
+1.22280350438E+007, +2.21549534740E+002, +4.21199378237E+002
+1.23530663329E+007, +2.22577810641E+002, +4.25954481273E+002
+1.24780976220E+007, +2.23349728080E+002, +4.32185311183E+002
+1.26031289111E+007, +2.24219338157E+002, +4.38009215109E+002
+1.27281602003E+007, +2.23966468051E+002, +4.41829847200E+002
+1.28531914894E+007, +2.25382506135E+002, +4.46661602135E+002
+1.29782227785E+007, +2.25569930604E+002, +4.51678741457E+002
+1.31032540676E+007, +2.28347359757E+002, +4.57051717690E+002
+1.32282853567E+007, +2.28497511026E+002, +4.63066604235E+002
+1.33533166458E+007, +2.29048838431E+002, +4.68515828803E+002
+1.34783479349E+007, +2.29795949157E+002, +4.73240110243E+002
+1.36033792240E+007, +2.31646097877E+002, +4.79549778584E+002
+1.37284105131E+007, +2.30894306735E+002, +4.85252707744E+002
+1.38534418023E+007, +2.32479860965E+002, +4.89423542166E+002
+1.39784730914E+007, +2.34841258226E+002, +4.96149943215E+002
+1.41035043805E+007, +2.33087413074E+002, +5.01178732463E+002
+1.42285356696E+007, +2.35498785642E+002, +5.05946577465E+002
+1.43535669587E+007, +2.35346857894E+002, +5.11403239291E+002
+1.44785982478E+007, +2.39025573401E+002, +5.15952052423E+002
+1.46036295369E+007, +2.39238363909E+002, +5.24362211620E+002
+1.47286608260E+007, +2.38943751191E+002, +5.29326676882E+002
+1.48536921151E+007, +2.41266380580E+002, +5.33572039608E+002
+1.49787234043E+007, +2.41317436891E+002, +5.40349405439E+002
+1.51037546934E+007, +2.41082809508E+002, +5.45958851866E+002
+1.52287859825E+007, +2.43641859125E+002, +5.51473774818E+002
+1.53538172716E+007, +2.45132974138E+002, +5.56631014296E+002
+1.54788485607E+007, +2.48019793055E+002, +5.64476843021E+002
+1.56038798498E+007, +2.47753384778E+002, +5.69541293687E+002
+1.57289111389E+007, +2.49847269743E+002, +5.75209990703E+002
+1.58539424280E+007, +2.51002603954E+002, +5.81790991432E+002
+1.59789737171E+007, +2.53390178567E+002, +5.87316650612E+002
+1.61040050063E+007, +2.54395899281E+002, +5.92983699727E+002
+1.62290362954E+007, +2.54432127318E+002, +5.99179123241E+002
+1.63540675845E+007, +2.55669976897E+002, +6.06682213426E+002
+1.64790988736E+007, +2.57937813591E+002, +6.11615236520E+002
+1.66041301627E+007, +2.59864993305E+002, +6.17834365350E+002
+1.67291614518E+007, +2.61338934659E+002, +6.26891658664E+002
+1.68541927409E+007, +2.61898537170E+002, +6.34690355847E+002
+1.69792240300E+007, +2.63273222030E+002, +6.41380530533E+002
+1.71042553191E+007, +2.63686375391E+002, +6.49173008499E+002
+1.72292866083E+007, +2.65556766862E+002, +6.54948555379E+002
+1.73543178974E+007, +2.66366701090E+002, +6.60873779529E+002
+1.74793491865E+007, +2.67186330106E+002, +6.67187335421E+002
+1.76043804756E+007, +2.68774603886E+002, +6.70049456632E+002
+1.77294117647E+007, +2.72433321134E+002, +6.78177111517E+002
+1.78544430538E+007, +2.73877229035E+002, +6.87240732014E+002
+1.79794743429E+007, +2.74608758707E+002, +6.94375415892E+002
+1.81045056320E+007, +2.77116051708E+002, +7.00328555337E+002
+1.82295369212E+007, +2.78053723389E+002, +7.09067941943E+002
+1.83545682103E+007, +2.82212871155E+002, +7.16449713570E+002
+1.84795994994E+007, +2.81300948962E+002, +7.21588914695E+002
+1.86046307885E+007, +2.85555555323E+002, +7.30157007239E+002
+1.87296620776E+007, +2.85922507116E+002, +7.39389467824E+002
+1.88546933667E+007, +2.88126537801E+002, +7.43711768276E+002
+1.89797246558E+007, +2.92851146506E+002, +7.49746396178E+002
+1.91047559449E+007, +2.96600751333E+002, +7.54972624329E+002
+1.92297872340E+007, +2.93895482630E+002, +7.63869219658E+002
+1.93548185232E+007, +2.98878322925E+002, +7.72532043825E+002
+1.94798498123E+007, +3.00675596757E+002, +7.79558477619E+002
+1.96048811014E+007, +3.01870197672E+002, +7.88229708045E+002
+1.97299123905E+007, +3.07001508330E+002, +7.96405369824E+002
+1.98549436796E+007, +3.08156557614E+002, +8.05367693317E+002
+1.99799749687E+007, +3.12578700397E+002, +8.11688905786E+002
+2.01050062578E+007, +3.10174837375E+002, +8.21662223560E+002
+2.02300375469E+007, +3.14009120319E+002, +8.26707714987E+002
+2.03550688360E+007, +3.18221611232E+002, +8.38239791569E+002
+2.04801001252E+007, +3.16772014841E+002, +8.42698600391E+002
+2.06051314143E+007, +3.22935985173E+002, +8.55143808586E+002
+2.07301627034E+007, +3.26499353623E+002, +8.61135110128E+002
+2.08551939925E+007, +3.29062396320E+002, +8.71628480009E+002
+2.09802252816E+007, +3.29418194491E+002, +8.78033728158E+002
+2.11052565707E+007, +3.34484084687E+002, +8.86794487440E+002
+2.12302878598E+007, +3.35762417851E+002, +8.95534444271E+002
+2.13553191489E+007, +3.39991117692E+002, +9.04766439221E+002
+2.14803504380E+007, +3.44398527498E+002, +9.14624817459E+002
+2.16053817272E+007, +3.46930807644E+002, +9.23629190791E+002
+2.17304130163E+007, +3.53172775398E+002, +9.29819902314E+002
+2.18554443054E+007, +3.54830497248E+002, +9.42740069442E+002
+2.19804755945E+007, +3.57590906066E+002, +9.52736399379E+002
+2.21055068836E+007, +3.63120950476E+002, +9.62870801090E+002
+2.22305381727E+007, +3.69954936970E+002, +9.72194042603E+002
+2.23555694618E+007, +3.72983584011E+002, +9.76785012926E+002
+2.24806007509E+007, +3.79923159624E+002, +9.85966604205E+002
+2.26056320401E+007, +3.77590452385E+002, +9.96685741126E+002
+2.27306633292E+007, +3.86951844377E+002, +1.00680244085E+003
+2.28556946183E+007, +3.91525174363E+002, +1.01479867090E+003
+2.29807259074E+007, +3.94987238723E+002, +1.02736369250E+003
+2.31057571965E+007, +4.01494238672E+002, +1.03597411090E+003
+2.32307884856E+007, +4.06538274133E+002, +1.04453352479E+003
+2.33558197747E+007, +4.11746981420E+002, +1.04731817692E+003
+2.34808510638E+007, +4.13226423760E+002, +1.05740821550E+003
+2.36058823529E+007, +4.22461843476E+002, +1.06689918678E+003
+2.37309136421E+007, +4.24892641126E+002, +1.08067499961E+003
+2.38559449312E+007, +4.31805240346E+002, +1.08851750568E+003
+2.39809762203E+007, +4.40661565289E+002, +1.09908208049E+003
+2.41060075094E+007, +4.44165914988E+002, +1.11106678179E+003
+2.42310387985E+007, +4.50390811418E+002, +1.11466877616E+003
+2.43560700876E+007, +4.54440021235E+002, +1.12761924352E+003
+2.44811013767E+007, +4.54855355485E+002, +1.13765365984E+003
+2.46061326658E+007, +4.63029897335E+002, +1.14247208157E+003
+2.47311639549E+007, +4.62937828609E+002, +1.15357498458E+003
+2.48561952441E+007, +4.65707036686E+002, +1.16409505735E+003
+2.49812265332E+007, +4.65237075136E+002, +1.17796499409E+003
+2.51062578223E+007, +4.64140105363E+002, +1.19415639553E+003
+2.52312891114E+007, +4.70379363233E+002, +1.20654695616E+003
+2.53563204005E+007, +4.81308986462E+002, +1.21619959153E+003
+2.54813516896E+007, +4.80129339857E+002, +1.22333358216E+003
+2.56063829787E+007, +4.86441450483E+002, +1.24383233320E+003
+2.57314142678E+007, +4.99287717588E+002, +1.25877390447E+003
+2.58564455569E+007, +5.05486201636E+002, +1.26821939368E+003
+2.59814768461E+007, +5.16481689813E+002, +1.28359323244E+003
+2.61065081352E+007, +5.28200457031E+002, +1.29905031904E+003
+2.62315394243E+007, +5.28498735868E+002, +1.31553051839E+003
+2.63565707134E+007, +5.32298812188E+002, +1.33453529261E+003
+2.64816020025E+007, +5.46551005434E+002, +1.34534803766E+003
+2.66066332916E+007, +5.54281392462E+002, +1.36369720072E+003
+2.67316645807E+007, +5.62683749309E+002, +1.37254311894E+003
+2.68566958698E+007, +5.77137829871E+002, +1.38771200210E+003
+2.69817271589E+007, +5.78971169734E+002, +1.40221089002E+003
+2.71067584481E+007, +5.84401372351E+002, +1.41245606553E+003
+2.72317897372E+007, +5.95795006303E+002, +1.42663113870E+003
+2.73568210263E+007, +5.89053693027E+002, +1.43008255238E+003
+2.74818523154E+007, +5.89421613807E+002, +1.45420113334E+003
+2.76068836045E+007, +6.01673698808E+002, +1.47690619636E+003
+2.77319148936E+007, +6.09451380631E+002, +1.50036990193E+003
+2.78569461827E+007, +6.18659913106E+002, +1.51830886411E+003
+2.79819774718E+007, +6.30152593337E+002, +1.53587643034E+003
+2.81070087610E+007, +6.43091271639E+002, +1.55728665334E+003
+2.82320400501E+007, +6.47496724375E+002, +1.56593048501E+003
+2.83570713392E+007, +6.70764551899E+002, +1.57771069229E+003
+2.84821026283E+007, +6.82542231822E+002, +1.60564948424E+003
+2.86071339174E+007, +6.85166478599E+002, +1.61376330545E+003
+2.87321652065E+007, +7.04347598050E+002, +1.63644254322E+003
+2.88571964956E+007, +7.09434766719E+002, +1.67101378505E+003
+2.89822277847E+007, +7.33580054153E+002, +1.67890198733E+003
+2.91072590738E+007, +7.41840212315E+002, +1.71175793294E+003
+2.92322903630E+007, +7.62532915325E+002, +1.74431689465E+003
+2.93573216521E+007, +7.65893619735E+002, +1.75855133567E+003
+2.94823529412E+007, +7.79318975578E+002, +1.77218129854E+003
+2.96073842303E+007, +7.97835035493E+002, +1.80930426726E+003
+2.97324155194E+007, +8.13364565684E+002, +1.82368182799E+003
+2.98574468085E+007, +8.32326701392E+002, +1.86312903531E+003
+2.99824780976E+007, +8.46255547636E+002, +1.86003458961E+003
+3.01075093867E+007, +8.65829969604E+002, +1.88567503758E+003
+3.02325406758E+007, +8.74299778849E+002, +1.92482885849E+003
+3.03575719650E+007, +9.13043699934E+002, +1.94575181861E+003
+3.04826032541E+007, +9.21670428693E+002, +1.98659640558E+003
+3.06076345432E+007, +9.36391508343E+002, +2.00060518909E+003
+3.07326658323E+007, +9.80816598849E+002, +2.02872911914E+003
+3.08576971214E+007, +9.99527624127E+002, +2.06794534796E+003
+3.09827284105E+007, +1.01292904674E+003, +2.06757038574E+003
+3.11077596996E+007, +1.04080947089E+003, +2.10411131729E+003
+3.12327909887E+007, +1.06364549546E+003, +2.14743243485E+003
+3.13578222778E+007, +1.08164451530E+003, +2.17141683259E+003
+3.14828535670E+007, +1.11723716191E+003, +2.21286684755E+003
+3.16078848561E+007, +1.15336126663E+003, +2.24459258079E+003
+3.17329161452E+007, +1.19459649466E+003, +2.26357215244E+003
+3.18579474343E+007, +1.19842931339E+003, +2.28758918149E+003
+3.19829787234E+007, +1.26525422001E+003, +2.31955721709E+003
+3.21080100125E+007, +1.26799264055E+003, +2.36791623053E+003
+3.22330413016E+007, +1.30252463715E+003, +2.40838247662E+003
+3.23580725907E+007, +1.37597302488E+003, +2.44260105451E+003
+3.24831038798E+007, +1.38918054478E+003, +2.47530075938E+003
+3.26081351690E+007, +1.39356109645E+003, +2.50524355624E+003
+3.27331664581E+007, +1.46904657519E+003, +2.55188002470E+003
+3.28581977472E+007, +1.48787369251E+003, +2.60896199969E+003
+3.29832290363E+007, +1.52517567149E+003, +2.63990600875E+003
+3.31082603254E+007, +1.62031170194E+003, +2.67390202688E+003
+3.32332916145E+007, +1.63612090262E+003, +2.73838789788E+003
+3.33583229036E+007, +1.69714358890E+003, +2.75312428217E+003
+3.34833541927E+007, +1.77083440430E+003, +2.78402969030E+003
+3.36083854819E+007, +1.79858014850E+003, +2.81490857738E+003
+3.37334167710E+007, +1.89815680537E+003, +2.87348257785E+003
+3.38584480601E+007, +1.95797909052E+003, +2.91449883487E+003
+3.39834793492E+007, +1.99278296301E+003, +2.95791080489E+003
+3.41085106383E+007, +2.10752003890E+003, +3.00888977966E+003
+3.42335419274E+007, +2.18879689139E+003, +3.07192531597E+003
+3.43585732165E+007, +2.24974395020E+003, +3.06264657743E+003
+3.44836045056E+007, +2.38607646247E+003, +3.12187315254E+003
+3.46086357947E+007, +2.41321210673E+003, +3.15119331602E+003
+3.47336670839E+007, +2.47395329784E+003, +3.21950230686E+003
+3.48586983730E+007, +2.60762942971E+003, +3.27233046267E+003
+3.49837296621E+007, +2.69673884362E+003, +3.29172514184E+003
+3.51087609512E+007, +2.83820689258E+003, +3.31641528961E+003
+3.52337922403E+007, +2.96049846870E+003, +3.39480641617E+003
+3.53588235294E+007, +3.08048043699E+003, +3.32537705055E+003
+3.54838548185E+007, +3.34017207522E+003, +3.36259224127E+003
+3.56088861076E+007, +3.51622705308E+003, +3.36831442111E+003
+3.57339173967E+007, +3.62359060068E+003, +3.37448925569E+003
+3.58589486859E+007, +3.67545659850E+003, +3.42658054863E+003
+3.59839799750E+007, +3.93200829269E+003, +3.45542463362E+003
+3.61090112641E+007, +4.03593927867E+003, +3.38696281613E+003
+3.62340425532E+007, +4.21086333329E+003, +3.35476644046E+003
+3.63590738423E+007, +4.43827500535E+003, +3.34439943847E+003
+3.64841051314E+007, +4.48686677326E+003, +3.22554423211E+003
+3.66091364205E+007, +4.82261412990E+003, +3.19883676109E+003
+3.67341677096E+007, +5.07381768368E+003, +3.14209523467E+003
+3.68591989987E+007, +5.26444892119E+003, +3.14885484684E+003
+3.69842302879E+007, +5.29568491855E+003, +2.98963991942E+003
+3.71092615770E+007, +5.61723261329E+003, +2.90943308920E+003
+3.72342928661E+007, +5.76956037932E+003, +2.76723831842E+003
+3.73593241552E+007, +5.95385840495E+003, +2.47115565414E+003
+3.74843554443E+007, +6.24390995927E+003, +2.22628280488E+003
+3.76093867334E+007, +6.52714025777E+003, +2.00350349862E+003
+3.77344180225E+007, +6.59077366430E+003, +1.82602699002E+003
+3.78594493116E+007, +6.72764202244E+003, +1.46069841243E+003
+3.79844806008E+007, +6.97875367873E+003, +1.20400125625E+003
+3.81095118899E+007, +7.02172972780E+003, +8.18308549652E+002
+3.82345431790E+007, +7.02050004104E+003, +8.01156254142E+002
+3.83595744681E+007, +6.95558354896E+003, +3.12033133253E+002
+3.84846057572E+007, +7.13366276631E+003, +1.54983918294E+002
+3.86096370463E+007, +7.04252681504E+003, -1.53586188153E+002
+3.87346683354E+007, +7.02904311417E+003, -4.42252288564E+002
+3.88596996245E+007, +7.13214288017E+003, -7.46655760166E+002
+3.89847309136E+007, +6.91056698695E+003, -1.12024760807E+003
+3.91097622028E+007, +6.74891691829E+003, -1.42650957053E+003
+3.92347934919E+007, +6.67648358959E+003, -1.77079641116E+003
+3.93598247810E+007, +6.56567477071E+003, -2.00447451902E+003
+3.94848560701E+007, +6.49984271126E+003, -2.15645348748E+003
+3.96098873592E+007, +6.33335965739E+003, -2.42320797944E+003
+3.97349186483E+007, +5.98809683497E+003, -2.73426279045E+003
+3.98599499374E+007, +5.79500884357E+003, -2.82835787676E+003
+3.99849812265E+007, +5.73801183414E+003, -3.21122506084E+003
+4.01100125156E+007, +5.43406817248E+003, -3.24725573410E+003
