"# Channel 1"
"# Trace 1"
Frequency, Formatted Data, Formatted Data
+1.00000000000E+005, +4.00832891320E+002, -1.08433346072E+001
+2.25031289111E+005, +3.94829246267E+002, +5.88743437637E+000
+3.50062578223E+005, +3.93955809917E+002, +1.02184265818E+001
+4.75093867334E+005, +3.93667834352E+002, +1.45598469035E+001
+6.00125156446E+005, +3.93083762981E+002, +1.81108760360E+001
+7.25156445557E+005, +3.93499804421E+002, +2.30680832263E+001
+8.50187734668E+005, +3.94525851025E+002, +2.70766352474E+001
+9.75219023780E+005, +3.95321594193E+002, +3.09168797491E+001
+1.10025031289E+006, +3.96938296874E+002, +3.60976012313E+001
+1.22528160200E+006, +3.96930016292E+002, +3.79338453017E+001
+1.35031289111E+006, +3.97858422093E+002, +4.31547527994E+001
+1.47534418023E+006, +3.96794491938E+002, +4.56869435808E+001
+1.60037546934E+006, +3.96940269922E+002, +4.96782928135E+001
+1.72540675845E+006, +3.97964670232E+002, +5.42279013030E+001
+1.85043804756E+006, +3.98539630255E+002, +5.85350613114E+001
+1.97546933667E+006, +3.99235662313E+002, +6.29039457499E+001
+2.10050062578E+006, +3.98855453237E+002, +6.54444709026E+001
+2.22553191489E+006, +3.99907047455E+002, +7.20574018077E+001
+2.35056320401E+006, +4.01168536218E+002, +7.49447072065E+001
+2.47559449312E+006, +4.00063587197E+002, +7.95652052233E+001
+2.60062578223E+006, +4.00987958480E+002, +8.24221177233E+001
+2.72565707134E+006, +4.01600478818E+002, +8.71923444865E+001
+2.85068836045E+006, +3.98077770987E+002, +9.24542127414E+001
+2.97571964956E+006, +4.01383270628E+002, +9.47726532274E+001
+3.10075093867E+006, +4.01047045472E+002, +1.00708634538E+002
+3.22578222778E+006, +4.00530943703E+002, +1.05137095562E+002
+3.35081351690E+006, +3.99932945893E+002, +1.08303677099E+002
+3.47584480601E+006, +3.99038645435E+002, +1.11109311841E+002
+3.60087609512E+006, +4.00446821494E+002, +1.13803266791E+002
+3.72590738423E+006, +4.01094385528E+002, +1.20519544004E+002
+3.85093867334E+006, +4.01770760762E+002, +1.21617164422E+002
+3.97596996245E+006, +3.99015324325E+002, +1.25893830383E+002
+4.10100125156E+006, +3.96723503124E+002, +1.36117696761E+002
+4.22603254068E+006, +4.03246547610E+002, +1.33279170816E+002
+4.35106382979E+006, +4.03020740592E+002, +1.39420750470E+002
+4.47609511890E+006, +4.02501664598E+002, +1.44055033535E+002
+4.60112640801E+006, +4.01981901841E+002, +1.48157412345E+002
+4.72615769712E+006, +4.02036624957E+002, +1.50559702801E+002
+4.85118898623E+006, +4.01664534317E+002, +1.54744441691E+002
+4.97622027534E+006, +4.04080326300E+002, +1.59468782209E+002
+5.10125156446E+006, +4.02663087065E+002, +1.65322028487E+002
+5.22628285357E+006, +4.02010521907E+002, +1.67646601355E+002
+5.35131414268E+006, +4.04119498848E+002, +1.72232530750E+002
+5.47634543179E+006, +4.05627669400E+002, +1.75487909243E+002
+5.60137672090E+006, +4.02717526455E+002, +1.79302290049E+002
+5.72640801001E+006, +4.06489939242E+002, +1.83492258158E+002
+5.85143929912E+006, +4.04622496423E+002, +1.86877684324E+002
+5.97647058824E+006, +4.04656532602E+002, +1.91650357053E+002
+6.10150187735E+006, +4.05760160790E+002, +1.97565986454E+002
+6.22653316646E+006, +4.04293120800E+002, +2.00471878911E+002
+6.35156445557E+006, +4.05638020163E+002, +2.04918928957E+002
+6.47659574468E+006, +4.06061407530E+002, +2.09544399862E+002
+6.60162703379E+006, +4.05123627698E+002, +2.12730996493E+002
+6.72665832290E+006, +4.06551766578E+002, +2.17756368954E+002
+6.85168961202E+006, +4.05899964780E+002, +2.21794441466E+002
+6.97672090113E+006, +4.06455522920E+002, +2.25415734202E+002
+7.10175219024E+006, +4.06640284037E+002, +2.30163160188E+002
+7.22678347935E+006, +4.06411590108E+002, +2.34240035552E+002
+7.35181476846E+006, +4.06597397320E+002, +2.39429048835E+002
+7.47684605757E+006, +4.07544892302E+002, +2.42404312951E+002
+7.60187734668E+006, +4.07143196542E+002, +2.46704617959E+002
+7.72690863579E+006, +4.09538371133E+002, +2.51151777240E+002
+7.85193992491E+006, +4.09669919159E+002, +2.56007491149E+002
+7.97697121402E+006, +4.09606289113E+002, +2.59024983401E+002
+8.10200250313E+006, +4.11713827570E+002, +2.64519252060E+002
+8.22703379224E+006, +4.10560427267E+002, +2.70485839712E+002
+8.35206508135E+006, +4.11438788646E+002, +2.72662523047E+002
+8.47709637046E+006, +4.11844934344E+002, +2.77323749151E+002
+8.60212765957E+006, +4.12375384586E+002, +2.82194056594E+002
+8.72715894869E+006, +4.12135488910E+002, +2.86685775070E+002
+8.85219023780E+006, +4.14403685067E+002, +2.90743338810E+002
+8.97722152691E+006, +4.13236679423E+002, +2.96409723331E+002
+9.10225281602E+006, +4.14372087019E+002, +3.01107497047E+002
+9.22728410513E+006, +4.14490573406E+002, +3.06307941116E+002
+9.35231539424E+006, +4.16315664218E+002, +3.09853729577E+002
+9.47734668335E+006, +4.17143479207E+002, +3.16684460638E+002
+9.60237797247E+006, +4.16480524699E+002, +3.18187305329E+002
+9.72740926158E+006, +4.19427367394E+002, +3.22619720927E+002
+9.85244055069E+006, +4.17589156750E+002, +3.29260918650E+002
+9.97747183980E+006, +4.19081215389E+002, +3.33464893890E+002
+1.01025031289E+007, +4.20433855884E+002, +3.38418301395E+002
+1.02275344180E+007, +4.21660583395E+002, +3.43101293272E+002
+1.03525657071E+007, +4.21271163727E+002, +3.47806771404E+002
+1.04775969962E+007, +4.22753398820E+002, +3.53064635749E+002
+1.06026282854E+007, +4.22881415405E+002, +3.57672252834E+002
+1.07276595745E+007, +4.24181584044E+002, +3.62623651294E+002
+1.08526908636E+007, +4.26460298799E+002, +3.68319725464E+002
+1.09777221527E+007, +4.26347449053E+002, +3.72071949957E+002
+1.11027534418E+007, +4.26269688690E+002, +3.76009572488E+002
+1.12277847309E+007, +4.27757541597E+002, +3.81485644336E+002
+1.13528160200E+007, +4.28215058469E+002, +3.86384663634E+002
+1.14778473091E+007, +4.29830288265E+002, +3.91062224647E+002
+1.16028785982E+007, +4.28519775903E+002, +3.96115830531E+002
+1.17279098874E+007, +4.30870905219E+002, +4.02184504421E+002
+1.18529411765E+007, +4.30716879042E+002, +4.05795888219E+002
+1.19779724656E+007, +4.32045666348E+002, +4.12022090880E+002
+1.21030037547E+007, +4.33638652376E+002, +4.15595922686E+002
+1.22280350438E+007, +4.34202734621E+002, +4.23133569745E+002
+1.23530663329E+007, +4.35236231487E+002, +4.26818158442E+002
+1.24780976220E+007, +4.38414449758E+002, +4.30864274258E+002
+1.26031289111E+007, +4.37406264978E+002, +4.37357069021E+002
+1.27281602003E+007, +4.39511505756E+002, +4.43499801275E+002
+1.28531914894E+007, +4.40524631919E+002, +4.46036189261E+002
+1.29782227785E+007, +4.39659804457E+002, +4.52695164276E+002
+1.31032540676E+007, +4.41345533341E+002, +4.58588397252E+002
+1.32282853567E+007, +4.42543513803E+002, +4.63915945154E+002
+1.33533166458E+007, +4.44376473814E+002, +4.69999195786E+002
+1.34783479349E+007, +4.46355715726E+002, +4.73258693910E+002
+1.36033792240E+007, +4.46836509228E+002, +4.81280409185E+002
+1.37284105131E+007, +4.44889189296E+002, +4.86576709354E+002
+1.38534418023E+007, +4.49451368727E+002, +4.90862632263E+002
+1.39784730914E+007, +4.47889148418E+002, +4.96865088894E+002
+1.41035043805E+007, +4.49295386743E+002, +5.00189863166E+002
+1.42285356696E+007, +4.52451220482E+002, +5.07901976430E+002
+1.43535669587E+007, +4.51689761374E+002, +5.12097197223E+002
+1.44785982478E+007, +4.53596550092E+002, +5.19359063219E+002
+1.46036295369E+007, +4.56322738113E+002, +5.24562949901E+002
+1.47286608260E+007, +4.57277714305E+002, +5.30543377751E+002
+1.48536921151E+007, +4.58991696762E+002, +5.36083773808E+002
+1.49787234043E+007, +4.58562038461E+002, +5.43406853976E+002
+1.51037546934E+007, +4.62975350880E+002, +5.48426504098E+002
+1.52287859825E+007, +4.62879726309E+002, +5.54899210295E+002
+1.53538172716E+007, +4.61356526036E+002, +5.57848006196E+002
+1.54788485607E+007, +4.66877853488E+002, +5.65803031020E+002
+1.56038798498E+007, +4.69134931792E+002, +5.68864137750E+002
+1.57289111389E+007, +4.66787931061E+002, +5.76968682106E+002
+1.58539424280E+007, +4.68975350988E+002, +5.83518398310E+002
+1.59789737171E+007, +4.70238877351E+002, +5.88682128700E+002
+1.61040050063E+007, +4.70427172256E+002, +5.96816738808E+002
+1.62290362954E+007, +4.73974437735E+002, +6.02275002765E+002
+1.63540675845E+007, +4.72168998670E+002, +6.07675502953E+002
+1.64790988736E+007, +4.76359397649E+002, +6.15694428029E+002
+1.66041301627E+007, +4.76535238190E+002, +6.22134224277E+002
+1.67291614518E+007, +4.78639754600E+002, +6.26350891635E+002
+1.68541927409E+007, +4.82247150829E+002, +6.33303660293E+002
+1.69792240300E+007, +4.84665106744E+002, +6.40070157040E+002
+1.71042553191E+007, +4.83304852080E+002, +6.50277083984E+002
+1.72292866083E+007, +4.86895240100E+002, +6.56734702071E+002
+1.73543178974E+007, +4.88957735381E+002, +6.63447498917E+002
+1.74793491865E+007, +4.88721013621E+002, +6.71282713533E+002
+1.76043804756E+007, +4.93687745804E+002, +6.73208374903E+002
+1.77294117647E+007, +4.94472177083E+002, +6.82953170618E+002
+1.78544430538E+007, +4.96155131144E+002, +6.87863483954E+002
+1.79794743429E+007, +5.01154886134E+002, +6.97460328261E+002
+1.81045056320E+007, +5.04049234386E+002, +7.03531290858E+002
+1.82295369212E+007, +5.03425194420E+002, +7.12564476568E+002
+1.83545682103E+007, +5.08915999372E+002, +7.13744516714E+002
+1.84795994994E+007, +5.09369765555E+002, +7.21343668828E+002
+1.86046307885E+007, +5.08401723274E+002, +7.25974252559E+002
+1.87296620776E+007, +5.11165865877E+002, +7.36193351040E+002
+1.88546933667E+007, +5.16892494782E+002, +7.44494786512E+002
+1.89797246558E+007, +5.17896099245E+002, +7.52732397862E+002
+1.91047559449E+007, +5.18947482284E+002, +7.58503799541E+002
+1.92297872340E+007, +5.18841425738E+002, +7.67409137832E+002
+1.93548185232E+007, +5.24768512771E+002, +7.74329098543E+002
+1.94798498123E+007, +5.25643788900E+002, +7.77910928322E+002
+1.96048811014E+007, +5.27915064210E+002, +7.89904575276E+002
+1.97299123905E+007, +5.32878847742E+002, +8.03274920516E+002
+1.98549436796E+007, +5.31607824770E+002, +8.06299526749E+002
+1.99799749687E+007, +5.36402848686E+002, +8.09468089482E+002
+2.01050062578E+007, +5.43794399015E+002, +8.24012196841E+002
+2.02300375469E+007, +5.41413626684E+002, +8.26902215477E+002
+2.03550688360E+007, +5.47542507290E+002, +8.36106546253E+002
+2.04801001252E+007, +5.48748097218E+002, +8.41716189800E+002
+2.06051314143E+007, +5.51066924989E+002, +8.50941974284E+002
+2.07301627034E+007, +5.57057756726E+002, +8.64331768485E+002
+2.08551939925E+007, +5.56698885200E+002, +8.70086286922E+002
+2.09802252816E+007, +5.65615173938E+002, +8.81153984621E+002
+2.11052565707E+007, +5.62724070204E+002, +8.88419392934E+002
+2.12302878598E+007, +5.67028524084E+002, +9.00370989145E+002
+2.13553191489E+007, +5.74275837371E+002, +9.03635863148E+002
+2.14803504380E+007, +5.76451833129E+002, +9.15204751630E+002
+2.16053817272E+007, +5.74085321695E+002, +9.22609959030E+002
+2.17304130163E+007, +5.83526862904E+002, +9.28256851737E+002
+2.18554443054E+007, +5.93345256788E+002, +9.37810835672E+002
+2.19804755945E+007, +5.93519882532E+002, +9.54872881478E+002
+2.21055068836E+007, +5.95696634622E+002, +9.62298772766E+002
+2.22305381727E+007, +6.07391237133E+002, +9.71261712855E+002
+2.23555694618E+007, +6.12690879442E+002, +9.73751128046E+002
+2.24806007509E+007, +6.11035379070E+002, +9.76937926509E+002
+2.26056320401E+007, +6.07598091746E+002, +9.92981847864E+002
+2.27306633292E+007, +6.21381012773E+002, +9.97856787333E+002
+2.28556946183E+007, +6.25414395338E+002, +1.01557556123E+003
+2.29807259074E+007, +6.38204124553E+002, +1.02126669680E+003
+2.31057571965E+007, +6.39172162119E+002, +1.03348314763E+003
+2.32307884856E+007, +6.49010706907E+002, +1.04455954232E+003
+2.33558197747E+007, +6.48317236520E+002, +1.04653446361E+003
+2.34808510638E+007, +6.59407166336E+002, +1.05217079664E+003
+2.36058823529E+007, +6.58869478556E+002, +1.07580794059E+003
+2.37309136421E+007, +6.66036295462E+002, +1.07130337857E+003
+2.38559449312E+007, +6.63079884674E+002, +1.08933296626E+003
+2.39809762203E+007, +6.64630323288E+002, +1.08935780197E+003
+2.41060075094E+007, +6.75119548835E+002, +1.11185325270E+003
+2.42310387985E+007, +6.83033455311E+002, +1.11588292534E+003
+2.43560700876E+007, +6.78517429360E+002, +1.11878699775E+003
+2.44811013767E+007, +6.80577771548E+002, +1.13551208018E+003
+2.46061326658E+007, +6.82801068378E+002, +1.15173053210E+003
+2.47311639549E+007, +6.85739807132E+002, +1.15764207564E+003
+2.48561952441E+007, +7.01691615733E+002, +1.16332816286E+003
+2.49812265332E+007, +7.03075535095E+002, +1.16993518461E+003
+2.51062578223E+007, +7.04770857537E+002, +1.18917150875E+003
+2.52312891114E+007, +7.20623808004E+002, +1.20157926175E+003
+2.53563204005E+007, +7.27073155358E+002, +1.22119901872E+003
+2.54813516896E+007, +7.24224057281E+002, +1.23239066840E+003
+2.56063829787E+007, +7.30519201388E+002, +1.24220775102E+003
+2.57314142678E+007, +7.29977696047E+002, +1.25208723535E+003
+2.58564455569E+007, +7.44905046980E+002, +1.27121644337E+003
+2.59814768461E+007, +7.50579036889E+002, +1.28479358422E+003
+2.61065081352E+007, +7.61146832931E+002, +1.29466409345E+003
+2.62315394243E+007, +7.67467481224E+002, +1.30625695498E+003
+2.63565707134E+007, +7.75892799056E+002, +1.33973600235E+003
+2.64816020025E+007, +7.80106548677E+002, +1.33684661775E+003
+2.66066332916E+007, +7.80915929314E+002, +1.34959827448E+003
+2.67316645807E+007, +8.09551134741E+002, +1.36561501626E+003
+2.68566958698E+007, +8.22416063738E+002, +1.39196094434E+003
+2.69817271589E+007, +8.25518144296E+002, +1.38644501871E+003
+2.71067584481E+007, +8.28876111899E+002, +1.39499905844E+003
+2.72317897372E+007, +8.40663482432E+002, +1.42789366113E+003
+2.73568210263E+007, +8.45841931299E+002, +1.42735246305E+003
+2.74818523154E+007, +8.50768376967E+002, +1.44762809795E+003
+2.76068836045E+007, +8.59404149576E+002, +1.48377519811E+003
+2.77319148936E+007, +8.78627634515E+002, +1.49084848142E+003
+2.78569461827E+007, +8.91833598193E+002, +1.50923157811E+003
+2.79819774718E+007, +8.97930049967E+002, +1.53125474589E+003
+2.81070087610E+007, +8.91308622752E+002, +1.54507105412E+003
+2.82320400501E+007, +9.16132473904E+002, +1.58327812858E+003
+2.83570713392E+007, +9.15101598310E+002, +1.59376742348E+003
+2.84821026283E+007, +9.41021069559E+002, +1.60158140373E+003
+2.86071339174E+007, +9.47559363978E+002, +1.62097973881E+003
+2.87321652065E+007, +9.69803589766E+002, +1.63787366849E+003
+2.88571964956E+007, +9.62386299151E+002, +1.67561598060E+003
+2.89822277847E+007, +1.00591897147E+003, +1.66970793772E+003
+2.91072590738E+007, +1.01394520647E+003, +1.69444646979E+003
+2.92322903630E+007, +1.01442164175E+003, +1.71152257029E+003
+2.93573216521E+007, +1.04645344504E+003, +1.74501670610E+003
+2.94823529412E+007, +1.07411469327E+003, +1.77672032501E+003
+2.96073842303E+007, +1.05565567993E+003, +1.77695381017E+003
+2.97324155194E+007, +1.10854365688E+003, +1.80244129183E+003
+2.98574468085E+007, +1.11745046431E+003, +1.83260311521E+003
+2.99824780976E+007, +1.13856520911E+003, +1.83956613315E+003
+3.01075093867E+007, +1.15615488083E+003, +1.87303038543E+003
+3.02325406758E+007, +1.17071359161E+003, +1.88444341064E+003
+3.03575719650E+007, +1.19496459611E+003, +1.89919564111E+003
+3.04826032541E+007, +1.19874610340E+003, +1.93360433304E+003
+3.06076345432E+007, +1.23890782493E+003, +1.94707248612E+003
+3.07326658323E+007, +1.25299285648E+003, +1.98346006331E+003
+3.08576971214E+007, +1.28217412257E+003, +2.03109985061E+003
+3.09827284105E+007, +1.32866973613E+003, +2.03726248469E+003
+3.11077596996E+007, +1.33176380147E+003, +2.10894997359E+003
+3.12327909887E+007, +1.35930574518E+003, +2.12514084572E+003
+3.13578222778E+007, +1.40953256314E+003, +2.14198393992E+003
+3.14828535670E+007, +1.44018104050E+003, +2.16168298307E+003
+3.16078848561E+007, +1.40390248891E+003, +2.13153617874E+003
+3.17329161452E+007, +1.45534496202E+003, +2.21864933195E+003
+3.18579474343E+007, +1.52852967733E+003, +2.25007460811E+003
+3.19829787234E+007, +1.52097474097E+003, +2.25057377178E+003
+3.21080100125E+007, +1.55999538916E+003, +2.30946441606E+003
+3.22330413016E+007, +1.62970994987E+003, +2.37228695238E+003
+3.23580725907E+007, +1.64277848070E+003, +2.33319363592E+003
+3.24831038798E+007, +1.67261253731E+003, +2.38085640198E+003
+3.26081351690E+007, +1.76319358851E+003, +2.45280474065E+003
+3.27331664581E+007, +1.79782950792E+003, +2.42886879046E+003
+3.28581977472E+007, +1.84781765579E+003, +2.48266846996E+003
+3.29832290363E+007, +1.90342349959E+003, +2.54691111557E+003
+3.31082603254E+007, +1.99215379418E+003, +2.58226769570E+003
+3.32332916145E+007, +2.00133219828E+003, +2.66464261016E+003
+3.33583229036E+007, +2.07525697345E+003, +2.62659944579E+003
+3.34833541927E+007, +2.11316231282E+003, +2.66566141114E+003
+3.36083854819E+007, +2.16472125681E+003, +2.67166582327E+003
+3.37334167710E+007, +2.23845544393E+003, +2.73655691293E+003
+3.38584480601E+007, +2.29542839140E+003, +2.76319496603E+003
+3.39834793492E+007, +2.33196781885E+003, +2.78588731364E+003
+3.41085106383E+007, +2.37121610709E+003, +2.86932492437E+003
+3.42335419274E+007, +2.50095823507E+003, +2.82322584023E+003
+3.43585732165E+007, +2.59949767586E+003, +2.97018717215E+003
+3.44836045056E+007, +2.65656390825E+003, +2.83948495240E+003
+3.46086357947E+007, +2.79351122483E+003, +2.90429570394E+003
+3.47336670839E+007, +2.85270524742E+003, +2.91268018800E+003
+3.48586983730E+007, +2.89267866397E+003, +2.96538994580E+003
+3.49837296621E+007, +3.02807775523E+003, +2.91287704993E+003
+3.51087609512E+007, +3.11083817347E+003, +3.04018194955E+003
+3.52337922403E+007, +3.23464337137E+003, +3.03282385533E+003
+3.53588235294E+007, +3.38588525415E+003, +3.05099610750E+003
+3.54838548185E+007, +3.53815127228E+003, +3.01933159241E+003
+3.56088861076E+007, +3.68595494814E+003, +3.11865485941E+003
+3.57339173967E+007, +3.87986937302E+003, +2.93767357552E+003
+3.58589486859E+007, +3.88145931265E+003, +3.15211771647E+003
+3.59839799750E+007, +4.01067584993E+003, +2.89926902800E+003
+3.61090112641E+007, +4.14902082960E+003, +3.11330951042E+003
+3.62340425532E+007, +4.39808906952E+003, +3.02632012748E+003
+3.63590738423E+007, +4.54037633254E+003, +2.78767014071E+003
+3.64841051314E+007, +4.66385082271E+003, +2.93683085885E+003
+3.66091364205E+007, +4.86430089453E+003, +2.91143277777E+003
+3.67341677096E+007, +5.09121923237E+003, +2.85874484876E+003
+3.68591989987E+007, +5.36589008233E+003, +2.70684688652E+003
+3.69842302879E+007, +5.41991350998E+003, +2.57505884800E+003
+3.71092615770E+007, +5.79210516516E+003, +2.56941979833E+003
+3.72342928661E+007, +5.73513758228E+003, +2.45735099157E+003
+3.73593241552E+007, +6.10645490140E+003, +1.97018310006E+003
+3.74843554443E+007, +6.08658920469E+003, +2.01802660714E+003
+3.76093867334E+007, +6.33418344757E+003, +1.89940012240E+003
+3.77344180225E+007, +6.28340858938E+003, +1.62561016958E+003
+3.78594493116E+007, +6.66529141185E+003, +1.47011502459E+003
+3.79844806008E+007, +6.74671820535E+003, +1.39634242002E+003
+3.81095118899E+007, +6.71917897673E+003, +9.44016823725E+002
+3.82345431790E+007, +6.85611996365E+003, +6.95600930079E+002
+3.83595744681E+007, +7.24206117829E+003, +4.73605249478E+002
+3.84846057572E+007, +7.02454253554E+003, +1.92666076477E+001
+3.86096370463E+007, +7.16116939478E+003, -2.38941155523E+002
+3.87346683354E+007, +6.97623078827E+003, -6.54644351378E+002
+3.88596996245E+007, +6.93907084477E+003, -7.99675672908E+002
+3.89847309136E+007, +6.69892040267E+003, -1.19566335112E+003
+3.91097622028E+007, +6.70539923992E+003, -1.47190804245E+003
+3.92347934919E+007, +6.62729516074E+003, -1.64027724221E+003
+3.93598247810E+007, +6.43813814694E+003, -1.90057431283E+003
+3.94848560701E+007, +6.22293124800E+003, -1.85374021315E+003
+3.96098873592E+007, +6.23084507350E+003, -2.24236335721E+003
+3.97349186483E+007, +6.02602983145E+003, -2.48652590637E+003
+3.98599499374E+007, +5.91606546700E+003, -2.55025310486E+003
+3.99849812265E+007, +5.51281162412E+003, -2.84096776601E+003
+4.01100125156E+007, +5.48417840365E+003, -2.98629805003E+003
