"# Channel 1"
"# Trace 1"
Frequency, Formatted Data, Formatted Data
+1.00000000000E+005, +1.19290569879E+002, +6.34563484942E-001
+2.25031289111E+005, +1.18687883571E+002, +4.15723127275E+000
+3.50062578223E+005, +1.18819250429E+002, +6.88086888812E+000
+4.75093867334E+005, +1.18948691831E+002, +9.12041270281E+000
+6.00125156446E+005, +1.18782044724E+002, +1.14885943753E+001
+7.25156445557E+005, +1.18817120125E+002, +1.39765642827E+001
+8.50187734668E+005, +1.19064180341E+002, +1.61849266114E+001
+9.75219023780E+005, +1.19024238060E+002, +1.88032013060E+001
+1.10025031289E+006, +1.19185835016E+002, +2.09741967025E+001
+1.22528160200E+006, +1.19088070978E+002, +2.34606976398E+001
+1.35031289111E+006, +1.19260318529E+002, +2.58815500423E+001
+1.47534418023E+006, +1.19247580188E+002, +2.79699631821E+001
+1.60037546934E+006, +1.19129646170E+002, +3.04940857867E+001
+1.72540675845E+006, +1.19128029437E+002, +3.28609053796E+001
+1.85043804756E+006, +1.19394522860E+002, +3.52662714360E+001
+1.97546933667E+006, +1.19348469171E+002, +3.77901817293E+001
+2.10050062578E+006, +1.19206246380E+002, +4.01594897317E+001
+2.22553191489E+006, +1.19380568561E+002, +4.26113374804E+001
+2.35056320401E+006, +1.19420154175E+002, +4.49069052341E+001
+2.47559449312E+006, +1.19397891717E+002, +4.74726106498E+001
+2.60062578223E+006, +1.19393132548E+002, +4.96491999297E+001
+2.72565707134E+006, +1.19541653679E+002, +5.20970639353E+001
+2.85068836045E+006, +1.19424806290E+002, +5.44360270871E+001
+2.97571964956E+006, +1.19688728904E+002, +5.69854093312E+001
+3.10075093867E+006, +1.19549414656E+002, +5.92930019575E+001
+3.22578222778E+006, +1.19648046732E+002, +6.15200193072E+001
+3.35081351690E+006, +1.19583960752E+002, +6.39162775759E+001
+3.47584480601E+006, +1.19280845491E+002, +6.62041309077E+001
+3.60087609512E+006, +1.19774653980E+002, +6.86171543171E+001
+3.72590738423E+006, +1.19941925211E+002, +7.12274746333E+001
+3.85093867334E+006, +1.19563163798E+002, +7.35919336434E+001
+3.97596996245E+006, +1.19674776711E+002, +7.55741532874E+001
+4.10100125156E+006, +1.19408552342E+002, +7.86190050912E+001
+4.22603254068E+006, +1.20352335567E+002, +8.09136589814E+001
+4.35106382979E+006, +1.19948671703E+002, +8.30158358329E+001
+4.47609511890E+006, +1.20058673119E+002, +8.56653687741E+001
+4.60112640801E+006, +1.20479755329E+002, +8.79076770947E+001
+4.72615769712E+006, +1.20519985957E+002, +9.03307980626E+001
+4.85118898623E+006, +1.20708779716E+002, +9.30742586775E+001
+4.97622027534E+006, +1.20607185069E+002, +9.52437677120E+001
+5.10125156446E+006, +1.20434007196E+002, +9.73110921477E+001
+5.22628285357E+006, +1.20670181878E+002, +9.97815763870E+001
+5.35131414268E+006, +1.20523050040E+002, +1.02574640828E+002
+5.47634543179E+006, +1.21204912575E+002, +1.04933158035E+002
+5.60137672090E+006, +1.20757724047E+002, +1.07140240918E+002
+5.72640801001E+006, +1.20975298180E+002, +1.09536980811E+002
+5.85143929912E+006, +1.21069826334E+002, +1.11735683518E+002
+5.97647058824E+006, +1.20868018903E+002, +1.14377927518E+002
+6.10150187735E+006, +1.20969312633E+002, +1.16684094193E+002
+6.22653316646E+006, +1.21648709872E+002, +1.19393243389E+002
+6.35156445557E+006, +1.21408564404E+002, +1.21659005300E+002
+6.47659574468E+006, +1.21365771769E+002, +1.24054190614E+002
+6.60162703379E+006, +1.21524563885E+002, +1.26232290932E+002
+6.72665832290E+006, +1.21591169753E+002, +1.28929505306E+002
+6.85168961202E+006, +1.21599989557E+002, +1.31246026075E+002
+6.97672090113E+006, +1.21907282842E+002, +1.33610921692E+002
+7.10175219024E+006, +1.21927321403E+002, +1.36236839157E+002
+7.22678347935E+006, +1.21864086278E+002, +1.38693645682E+002
+7.35181476846E+006, +1.22092540951E+002, +1.41042720410E+002
+7.47684605757E+006, +1.22176279131E+002, +1.43583193574E+002
+7.60187734668E+006, +1.22436900382E+002, +1.46062059480E+002
+7.72690863579E+006, +1.22565116890E+002, +1.48666588663E+002
+7.85193992491E+006, +1.22596242536E+002, +1.50976330899E+002
+7.97697121402E+006, +1.22683048537E+002, +1.53412859879E+002
+8.10200250313E+006, +1.22625299800E+002, +1.56036297834E+002
+8.22703379224E+006, +1.22962195697E+002, +1.58301237356E+002
+8.35206508135E+006, +1.23002798272E+002, +1.60806230159E+002
+8.47709637046E+006, +1.23336425429E+002, +1.63658087903E+002
+8.60212765957E+006, +1.23207509670E+002, +1.65875415594E+002
+8.72715894869E+006, +1.23154516801E+002, +1.68299312082E+002
+8.85219023780E+006, +1.23539390073E+002, +1.70916345300E+002
+8.97722152691E+006, +1.23498097032E+002, +1.73363120060E+002
+9.10225281602E+006, +1.23726570437E+002, +1.75861550557E+002
+9.22728410513E+006, +1.23909925765E+002, +1.78758407341E+002
+9.35231539424E+006, +1.24137865390E+002, +1.80582913408E+002
+9.47734668335E+006, +1.23892212832E+002, +1.83732877750E+002
+9.60237797247E+006, +1.24385131141E+002, +1.85866582529E+002
+9.72740926158E+006, +1.24460992881E+002, +1.88693951465E+002
+9.85244055069E+006, +1.24173925527E+002, +1.91236208394E+002
+9.97747183980E+006, +1.24614859152E+002, +1.93930547908E+002
+1.01025031289E+007, +1.24620689750E+002, +1.96394928848E+002
+1.02275344180E+007, +1.25075123218E+002, +1.99010755965E+002
+1.03525657071E+007, +1.25417458820E+002, +2.01474553747E+002
+1.04775969962E+007, +1.25243753759E+002, +2.04471146890E+002
+1.06026282854E+007, +1.25162401782E+002, +2.06702775944E+002
+1.07276595745E+007, +1.25822481257E+002, +2.09404572328E+002
+1.08526908636E+007, +1.25668695382E+002, +2.11614899760E+002
+1.09777221527E+007, +1.25670624493E+002, +2.14222386510E+002
+1.11027534418E+007, +1.26278437105E+002, +2.17234639146E+002
+1.12277847309E+007, +1.25894043410E+002, +2.19629101876E+002
+1.13528160200E+007, +1.26194173290E+002, +2.22308248165E+002
+1.14778473091E+007, +1.26752419808E+002, +2.24652828000E+002
+1.16028785982E+007, +1.26500896487E+002, +2.27287800007E+002
+1.17279098874E+007, +1.26890355595E+002, +2.29930307749E+002
+1.18529411765E+007, +1.26978110213E+002, +2.32538579809E+002
+1.19779724656E+007, +1.26995883684E+002, +2.35795982519E+002
+1.21030037547E+007, +1.27277328415E+002, +2.37848482882E+002
+1.22280350438E+007, +1.27487634970E+002, +2.40776351950E+002
+1.23530663329E+007, +1.27436419727E+002, +2.43670233083E+002
+1.24780976220E+007, +1.28156942482E+002, +2.46244153305E+002
+1.26031289111E+007, +1.28306893577E+002, +2.48648753373E+002
+1.27281602003E+007, +1.28493077829E+002, +2.51280794609E+002
+1.28531914894E+007, +1.28918219615E+002, +2.54073213358E+002
+1.29782227785E+007, +1.28832714444E+002, +2.56469423946E+002
+1.31032540676E+007, +1.28902833135E+002, +2.59522996882E+002
+1.32282853567E+007, +1.28958176798E+002, +2.62227421842E+002
+1.33533166458E+007, +1.29397721349E+002, +2.65012181148E+002
+1.34783479349E+007, +1.29868565668E+002, +2.67515329929E+002
+1.36033792240E+007, +1.29409197496E+002, +2.70586015396E+002
+1.37284105131E+007, +1.29940572410E+002, +2.72750792782E+002
+1.38534418023E+007, +1.29485886612E+002, +2.75696391610E+002
+1.39784730914E+007, +1.30018273776E+002, +2.78418188649E+002
+1.41035043805E+007, +1.29943391225E+002, +2.80890792168E+002
+1.42285356696E+007, +1.31019162561E+002, +2.83765333917E+002
+1.43535669587E+007, +1.31210448078E+002, +2.86595646741E+002
+1.44785982478E+007, +1.31573064976E+002, +2.89570770832E+002
+1.46036295369E+007, +1.31501863189E+002, +2.92527401197E+002
+1.47286608260E+007, +1.32167156383E+002, +2.95250467529E+002
+1.48536921151E+007, +1.32540160101E+002, +2.97938616918E+002
+1.49787234043E+007, +1.32118160570E+002, +3.01352168625E+002
+1.51037546934E+007, +1.32924431432E+002, +3.03145250114E+002
+1.52287859825E+007, +1.33031430698E+002, +3.06208845250E+002
+1.53538172716E+007, +1.33150575425E+002, +3.08515725135E+002
+1.54788485607E+007, +1.33376351405E+002, +3.12494936150E+002
+1.56038798498E+007, +1.34340228167E+002, +3.14836783885E+002
+1.57289111389E+007, +1.33610028478E+002, +3.17418268932E+002
+1.58539424280E+007, +1.33563256640E+002, +3.20466815680E+002
+1.59789737171E+007, +1.34032990722E+002, +3.23191014507E+002
+1.61040050063E+007, +1.34235770344E+002, +3.26390877571E+002
+1.62290362954E+007, +1.35718198109E+002, +3.29344552983E+002
+1.63540675845E+007, +1.34766606363E+002, +3.31568633225E+002
+1.64790988736E+007, +1.34629074891E+002, +3.35005022991E+002
+1.66041301627E+007, +1.35767417820E+002, +3.38146106149E+002
+1.67291614518E+007, +1.35903375460E+002, +3.40488427441E+002
+1.68541927409E+007, +1.35717453915E+002, +3.43602936236E+002
+1.69792240300E+007, +1.36712907388E+002, +3.46962779519E+002
+1.71042553191E+007, +1.36417538753E+002, +3.50380090613E+002
+1.72292866083E+007, +1.36629392127E+002, +3.53818969535E+002
+1.73543178974E+007, +1.36892408292E+002, +3.55535592750E+002
+1.74793491865E+007, +1.37077494483E+002, +3.58673203221E+002
+1.76043804756E+007, +1.37686398941E+002, +3.61342317772E+002
+1.77294117647E+007, +1.38264054320E+002, +3.64825371080E+002
+1.78544430538E+007, +1.38120084817E+002, +3.67659837246E+002
+1.79794743429E+007, +1.38410225032E+002, +3.71078527143E+002
+1.81045056320E+007, +1.39552775163E+002, +3.74029098265E+002
+1.82295369212E+007, +1.39866414781E+002, +3.77590764358E+002
+1.83545682103E+007, +1.40146913230E+002, +3.79532151061E+002
+1.84795994994E+007, +1.39815764366E+002, +3.82636521501E+002
+1.86046307885E+007, +1.41262837215E+002, +3.85864143643E+002
+1.87296620776E+007, +1.41978823127E+002, +3.89433493117E+002
+1.88546933667E+007, +1.41564920884E+002, +3.92677410447E+002
+1.89797246558E+007, +1.41712869024E+002, +3.94846669487E+002
+1.91047559449E+007, +1.41857238602E+002, +3.97974241371E+002
+1.92297872340E+007, +1.42114121522E+002, +4.01327553056E+002
+1.93548185232E+007, +1.43015566562E+002, +4.04497566292E+002
+1.94798498123E+007, +1.44191283285E+002, +4.06946735328E+002
+1.96048811014E+007, +1.43642067149E+002, +4.10009640789E+002
+1.97299123905E+007, +1.43984199629E+002, +4.14508877485E+002
+1.98549436796E+007, +1.43468600740E+002, +4.17237565726E+002
+1.99799749687E+007, +1.44791319855E+002, +4.20758691509E+002
+2.01050062578E+007, +1.44256712616E+002, +4.23649922516E+002
+2.02300375469E+007, +1.45183851474E+002, +4.26815273949E+002
+2.03550688360E+007, +1.47106139727E+002, +4.31035049478E+002
+2.04801001252E+007, +1.46868121410E+002, +4.33439655718E+002
+2.06051314143E+007, +1.47205066498E+002, +4.35378846472E+002
+2.07301627034E+007, +1.46821680813E+002, +4.40251546680E+002
+2.08551939925E+007, +1.46962360393E+002, +4.42309215177E+002
+2.09802252816E+007, +1.48935459300E+002, +4.46953942903E+002
+2.11052565707E+007, +1.48263103633E+002, +4.49992285268E+002
+2.12302878598E+007, +1.48844149926E+002, +4.53924773749E+002
+2.13553191489E+007, +1.49764945067E+002, +4.56229978972E+002
+2.14803504380E+007, +1.50246755055E+002, +4.60120840659E+002
+2.16053817272E+007, +1.50027770764E+002, +4.63543803293E+002
+2.17304130163E+007, +1.52319128444E+002, +4.66680936721E+002
+2.18554443054E+007, +1.52048564722E+002, +4.69091435288E+002
+2.19804755945E+007, +1.51106308192E+002, +4.74261998249E+002
+2.21055068836E+007, +1.53071310532E+002, +4.75745043618E+002
+2.22305381727E+007, +1.54196555421E+002, +4.79712528714E+002
+2.23555694618E+007, +1.54453343975E+002, +4.82816399059E+002
+2.24806007509E+007, +1.55528576542E+002, +4.86821329996E+002
+2.26056320401E+007, +1.55290382180E+002, +4.90407075547E+002
+2.27306633292E+007, +1.56806925820E+002, +4.93137893858E+002
+2.28556946183E+007, +1.57198749049E+002, +4.97429923909E+002
+2.29807259074E+007, +1.58001347915E+002, +4.99592470071E+002
+2.31057571965E+007, +1.57937281484E+002, +5.03982576469E+002
+2.32307884856E+007, +1.58672216496E+002, +5.07603634025E+002
+2.33558197747E+007, +1.60087366632E+002, +5.11868170390E+002
+2.34808510638E+007, +1.61881054516E+002, +5.15111389009E+002
+2.36058823529E+007, +1.60179812102E+002, +5.18552924430E+002
+2.37309136421E+007, +1.60381041225E+002, +5.20787786042E+002
+2.38559449312E+007, +1.60709779063E+002, +5.25388755363E+002
+2.39809762203E+007, +1.62890645073E+002, +5.27314829313E+002
+2.41060075094E+007, +1.61687293710E+002, +5.32063509742E+002
+2.42310387985E+007, +1.63452047866E+002, +5.36493682408E+002
+2.43560700876E+007, +1.64053639755E+002, +5.37031173670E+002
+2.44811013767E+007, +1.64491478493E+002, +5.43073839151E+002
+2.46061326658E+007, +1.64617939407E+002, +5.46943886818E+002
+2.47311639549E+007, +1.65026579415E+002, +5.48510104750E+002
+2.48561952441E+007, +1.67078872721E+002, +5.54369098854E+002
+2.49812265332E+007, +1.67479617295E+002, +5.54611074781E+002
+2.51062578223E+007, +1.67262276496E+002, +5.60901296460E+002
+2.52312891114E+007, +1.68568566007E+002, +5.64068879320E+002
+2.53563204005E+007, +1.68444112249E+002, +5.68490675483E+002
+2.54813516896E+007, +1.68974758497E+002, +5.71009923931E+002
+2.56063829787E+007, +1.68298541993E+002, +5.75730212934E+002
+2.57314142678E+007, +1.69150904936E+002, +5.78321368083E+002
+2.58564455569E+007, +1.71174798374E+002, +5.84119311202E+002
+2.59814768461E+007, +1.70907209468E+002, +5.88466686215E+002
+2.61065081352E+007, +1.72617420689E+002, +5.89299889411E+002
+2.62315394243E+007, +1.73357324664E+002, +5.93388911184E+002
+2.63565707134E+007, +1.71216331408E+002, +6.00734081825E+002
+2.64816020025E+007, +1.75655348127E+002, +6.04814473830E+002
+2.66066332916E+007, +1.73684508019E+002, +6.06219100476E+002
+2.67316645807E+007, +1.75396191651E+002, +6.13763839613E+002
+2.68566958698E+007, +1.76156008414E+002, +6.16792721750E+002
+2.69817271589E+007, +1.76300840201E+002, +6.18744707389E+002
+2.71067584481E+007, +1.78475466143E+002, +6.24472856790E+002
+2.72317897372E+007, +1.78072441371E+002, +6.28889530205E+002
+2.73568210263E+007, +1.78061259350E+002, +6.33341946034E+002
+2.74818523154E+007, +1.79786386940E+002, +6.38182065123E+002
+2.76068836045E+007, +1.79702000985E+002, +6.41135253634E+002
+2.77319148936E+007, +1.80481875109E+002, +6.47575262128E+002
+2.78569461827E+007, +1.83019241453E+002, +6.50661794021E+002
+2.79819774718E+007, +1.81347922893E+002, +6.53014703391E+002
+2.81070087610E+007, +1.82090459315E+002, +6.56452007171E+002
+2.82320400501E+007, +1.82830988678E+002, +6.64703389042E+002
+2.83570713392E+007, +1.84087475930E+002, +6.66321682848E+002
+2.84821026283E+007, +1.85057499885E+002, +6.72880313796E+002
+2.86071339174E+007, +1.84915342969E+002, +6.76415174151E+002
+2.87321652065E+007, +1.87956440981E+002, +6.80390187714E+002
+2.88571964956E+007, +1.86101865668E+002, +6.83940217320E+002
+2.89822277847E+007, +1.90389882861E+002, +6.89466932230E+002
+2.91072590738E+007, +1.89844412150E+002, +6.94150526482E+002
+2.92322903630E+007, +1.88266114503E+002, +6.99502900717E+002
+2.93573216521E+007, +1.91380429389E+002, +7.03216316250E+002
+2.94823529412E+007, +1.92829113490E+002, +7.10164696172E+002
+2.96073842303E+007, +1.94488275109E+002, +7.12305192170E+002
+2.97324155194E+007, +1.94825504419E+002, +7.18894302576E+002
+2.98574468085E+007, +1.94430226665E+002, +7.22480914927E+002
+2.99824780976E+007, +1.95905555975E+002, +7.28160355052E+002
+3.01075093867E+007, +1.97126651305E+002, +7.33392918381E+002
+3.02325406758E+007, +1.96309687380E+002, +7.37179833928E+002
+3.03575719650E+007, +1.98934190300E+002, +7.42554708005E+002
+3.04826032541E+007, +2.00920026261E+002, +7.46404573763E+002
+3.06076345432E+007, +2.02617098484E+002, +7.52682475780E+002
+3.07326658323E+007, +2.02126388137E+002, +7.55589028048E+002
+3.08576971214E+007, +2.01717396701E+002, +7.64979385033E+002
+3.09827284105E+007, +2.04220054941E+002, +7.64111105515E+002
+3.11077596996E+007, +2.02807756848E+002, +7.76949294846E+002
+3.12327909887E+007, +2.05237053862E+002, +7.79270991447E+002
+3.13578222778E+007, +2.06571669681E+002, +7.83944525168E+002
+3.14828535670E+007, +2.10636060356E+002, +7.93513813394E+002
+3.16078848561E+007, +2.09210175667E+002, +7.90568400168E+002
+3.17329161452E+007, +2.09048827205E+002, +7.99517988748E+002
+3.18579474343E+007, +2.13939721402E+002, +8.08967646104E+002
+3.19829787234E+007, +2.11164388815E+002, +8.08814917635E+002
+3.21080100125E+007, +2.10167327885E+002, +8.15810083717E+002
+3.22330413016E+007, +2.13290499310E+002, +8.24860587600E+002
+3.23580725907E+007, +2.15508894436E+002, +8.27552383133E+002
+3.24831038798E+007, +2.14063587799E+002, +8.30878654245E+002
+3.26081351690E+007, +2.20057135543E+002, +8.35848799382E+002
+3.27331664581E+007, +2.18525559943E+002, +8.43817360436E+002
+3.28581977472E+007, +2.25217965020E+002, +8.48442928920E+002
+3.29832290363E+007, +2.21590122959E+002, +8.55310300834E+002
+3.31082603254E+007, +2.23214601869E+002, +8.65055383899E+002
+3.32332916145E+007, +2.23065070646E+002, +8.65915902731E+002
+3.33583229036E+007, +2.24933922428E+002, +8.72058146662E+002
+3.34833541927E+007, +2.24366817007E+002, +8.78353309948E+002
+3.36083854819E+007, +2.25594663872E+002, +8.84096673126E+002
+3.37334167710E+007, +2.31756794741E+002, +8.92833101247E+002
+3.38584480601E+007, +2.31707736452E+002, +8.97984835032E+002
+3.39834793492E+007, +2.33488075243E+002, +9.04346531244E+002
+3.41085106383E+007, +2.30717209692E+002, +9.07433792418E+002
+3.42335419274E+007, +2.36274960389E+002, +9.13778738009E+002
+3.43585732165E+007, +2.33565751914E+002, +9.23565672121E+002
+3.44836045056E+007, +2.40713368923E+002, +9.22782328287E+002
+3.46086357947E+007, +2.42094276546E+002, +9.34456755551E+002
+3.47336670839E+007, +2.45489578516E+002, +9.38959015026E+002
+3.48586983730E+007, +2.46331662455E+002, +9.45598669496E+002
+3.49837296621E+007, +2.48358047401E+002, +9.49681358199E+002
+3.51087609512E+007, +2.44215410262E+002, +9.61037817997E+002
+3.52337922403E+007, +2.49931479312E+002, +9.64301536989E+002
+3.53588235294E+007, +2.51514284935E+002, +9.72307308050E+002
+3.54838548185E+007, +2.51341120383E+002, +9.82479006726E+002
+3.56088861076E+007, +2.56527984571E+002, +9.90530610811E+002
+3.57339173967E+007, +2.59769666767E+002, +9.95586737524E+002
+3.58589486859E+007, +2.58251529786E+002, +1.00620047902E+003
+3.59839799750E+007, +2.63541026958E+002, +1.00672317681E+003
+3.61090112641E+007, +2.63253242811E+002, +1.01714266429E+003
+3.62340425532E+007, +2.64577006325E+002, +1.02097552307E+003
+3.63590738423E+007, +2.71678614195E+002, +1.02841704852E+003
+3.64841051314E+007, +2.64221159388E+002, +1.03721693027E+003
+3.66091364205E+007, +2.72338200826E+002, +1.04564835400E+003
+3.67341677096E+007, +2.72646014258E+002, +1.05732628259E+003
+3.68591989987E+007, +2.73647255270E+002, +1.06244982579E+003
+3.69842302879E+007, +2.76964401406E+002, +1.06728802677E+003
+3.71092615770E+007, +2.76767261830E+002, +1.07453781474E+003
+3.72342928661E+007, +2.81076571556E+002, +1.07801896712E+003
+3.73593241552E+007, +2.89733836104E+002, +1.09823403565E+003
+3.74843554443E+007, +2.87952816792E+002, +1.09630965042E+003
+3.76093867334E+007, +2.91629225226E+002, +1.10938764289E+003
+3.77344180225E+007, +2.92614145883E+002, +1.12137563417E+003
+3.78594493116E+007, +2.92012746920E+002, +1.12567527190E+003
+3.79844806008E+007, +2.91165694078E+002, +1.12881531565E+003
+3.81095118899E+007, +2.98336342158E+002, +1.13677237687E+003
+3.82345431790E+007, +3.08726107780E+002, +1.15323999305E+003
+3.83595744681E+007, +3.02981383919E+002, +1.16108683014E+003
+3.84846057572E+007, +3.10271982284E+002, +1.15997330051E+003
+3.86096370463E+007, +3.13759733683E+002, +1.17668903820E+003
+3.87346683354E+007, +3.11652278153E+002, +1.18860983089E+003
+3.88596996245E+007, +3.15625786326E+002, +1.19899526543E+003
+3.89847309136E+007, +3.23445929100E+002, +1.20723020997E+003
+3.91097622028E+007, +3.23937190124E+002, +1.21725016314E+003
+3.92347934919E+007, +3.26821017331E+002, +1.22577496741E+003
+3.93598247810E+007, +3.33060897636E+002, +1.23182577797E+003
+3.94848560701E+007, +3.40449916793E+002, +1.23950151708E+003
+3.96098873592E+007, +3.36836295021E+002, +1.24336427750E+003
+3.97349186483E+007, +3.41309855399E+002, +1.25094355625E+003
+3.98599499374E+007, +3.48265151633E+002, +1.26319141663E+003
+3.99849812265E+007, +3.46065708272E+002, +1.28386333999E+003
+4.01100125156E+007, +3.57842776536E+002, +1.29262061323E+003
