"# Channel 1"
"# Trace 1"
Frequency, Formatted Data, Formatted Data
+1.00000000000E+005, +1.96628850757E+002, -6.64740403641E-001
+2.25031289111E+005, +1.95695302748E+002, +6.17652595105E+000
+3.50062578223E+005, +1.95385209170E+002, +9.84639424583E+000
+4.75093867334E+005, +1.95482771274E+002, +1.34804913354E+001
+6.00125156446E+005, +1.95529838129E+002, +1.73354709053E+001
+7.25156445557E+005, +1.95477354743E+002, +2.10353812787E+001
+8.50187734668E+005, +1.95974020137E+002, +2.41119150147E+001
+9.75219023780E+005, +1.96147484078E+002, +2.81257122207E+001
+1.10025031289E+006, +1.96055632273E+002, +3.12219487797E+001
+1.22528160200E+006, +1.95983801307E+002, +3.50951927297E+001
+1.35031289111E+006, +1.96147309855E+002, +3.92609174587E+001
+1.47534418023E+006, +1.96103378775E+002, +4.17512829538E+001
+1.60037546934E+006, +1.96472479420E+002, +4.57303563742E+001
+1.72540675845E+006, +1.96516308514E+002, +4.92702875090E+001
+1.85043804756E+006, +1.96629682111E+002, +5.30561319986E+001
+1.97546933667E+006, +1.96937415402E+002, +5.69109941407E+001
+2.10050062578E+006, +1.97057859589E+002, +6.00037667742E+001
+2.22553191489E+006, +1.97299709614E+002, +6.41109962878E+001
+2.35056320401E+006, +1.97459940349E+002, +6.77215930457E+001
+2.47559449312E+006, +1.96962124985E+002, +7.09518990041E+001
+2.60062578223E+006, +1.97390677610E+002, +7.48659233750E+001
+2.72565707134E+006, +1.97222437020E+002, +7.81691503478E+001
+2.85068836045E+006, +1.96849367535E+002, +8.20803839645E+001
+2.97571964956E+006, +1.98093368483E+002, +8.59704938673E+001
+3.10075093867E+006, +1.97484079923E+002, +8.99510007208E+001
+3.22578222778E+006, +1.98361376441E+002, +9.26752510300E+001
+3.35081351690E+006, +1.97468293035E+002, +9.65629396707E+001
+3.47584480601E+006, +1.97957384104E+002, +1.00019547137E+002
+3.60087609512E+006, +1.98402599001E+002, +1.03795925301E+002
+3.72590738423E+006, +1.98377839434E+002, +1.07086878536E+002
+3.85093867334E+006, +1.98279953762E+002, +1.10705643169E+002
+3.97596996245E+006, +1.97955503428E+002, +1.14535634755E+002
+4.10100125156E+006, +1.97475959501E+002, +1.19265628997E+002
+4.22603254068E+006, +1.99997705267E+002, +1.22811249796E+002
+4.35106382979E+006, +1.99716871813E+002, +1.25348957170E+002
+4.47609511890E+006, +1.98830090113E+002, +1.29695367658E+002
+4.60112640801E+006, +1.99981794678E+002, +1.33073010874E+002
+4.72615769712E+006, +1.99813776623E+002, +1.36834642483E+002
+4.85118898623E+006, +2.00218642731E+002, +1.40618443107E+002
+4.97622027534E+006, +2.00137921066E+002, +1.43879787594E+002
+5.10125156446E+006, +2.00095149168E+002, +1.47806303591E+002
+5.22628285357E+006, +2.00050219792E+002, +1.51584543107E+002
+5.35131414268E+006, +2.00606652589E+002, +1.55143330389E+002
+5.47634543179E+006, +2.01592130004E+002, +1.58683058632E+002
+5.60137672090E+006, +2.01072573752E+002, +1.62204691565E+002
+5.72640801001E+006, +2.01210216481E+002, +1.65704121017E+002
+5.85143929912E+006, +2.02031583078E+002, +1.69332096072E+002
+5.97647058824E+006, +2.01387219565E+002, +1.73923970557E+002
+6.10150187735E+006, +2.01788607147E+002, +1.77799946346E+002
+6.22653316646E+006, +2.02185400101E+002, +1.80924461904E+002
+6.35156445557E+006, +2.02594832990E+002, +1.84201395504E+002
+6.47659574468E+006, +2.03009710149E+002, +1.88284291992E+002
+6.60162703379E+006, +2.03007042990E+002, +1.91111814599E+002
+6.72665832290E+006, +2.03168306592E+002, +1.95638805025E+002
+6.85168961202E+006, +2.03658813479E+002, +1.99370364459E+002
+6.97672090113E+006, +2.04111068824E+002, +2.02735005501E+002
+7.10175219024E+006, +2.03639052444E+002, +2.06782175189E+002
+7.22678347935E+006, +2.04055936149E+002, +2.10384882138E+002
+7.35181476846E+006, +2.04969473015E+002, +2.14665322209E+002
+7.47684605757E+006, +2.04715982022E+002, +2.18314447371E+002
+7.60187734668E+006, +2.05625932177E+002, +2.22387121813E+002
+7.72690863579E+006, +2.05561179744E+002, +2.25834661608E+002
+7.85193992491E+006, +2.06526936622E+002, +2.29981306816E+002
+7.97697121402E+006, +2.06536753524E+002, +2.33435435343E+002
+8.10200250313E+006, +2.06419601862E+002, +2.37949233426E+002
+8.22703379224E+006, +2.06745511566E+002, +2.41802027011E+002
+8.35206508135E+006, +2.07565196128E+002, +2.45152952347E+002
+8.47709637046E+006, +2.07734702100E+002, +2.50177421903E+002
+8.60212765957E+006, +2.08781410290E+002, +2.53776449037E+002
+8.72715894869E+006, +2.08799762284E+002, +2.57122050239E+002
+8.85219023780E+006, +2.09229926891E+002, +2.61720646210E+002
+8.97722152691E+006, +2.09020676797E+002, +2.65545181414E+002
+9.10225281602E+006, +2.09799547925E+002, +2.69767248991E+002
+9.22728410513E+006, +2.10230226857E+002, +2.74304107468E+002
+9.35231539424E+006, +2.10215211088E+002, +2.77502827620E+002
+9.47734668335E+006, +2.10516807307E+002, +2.82505164518E+002
+9.60237797247E+006, +2.11566587390E+002, +2.85960465817E+002
+9.72740926158E+006, +2.12116965075E+002, +2.89723302468E+002
+9.85244055069E+006, +2.11913575984E+002, +2.94193796931E+002
+9.97747183980E+006, +2.12980999380E+002, +2.97883418149E+002
+1.01025031289E+007, +2.12713010028E+002, +3.02024080662E+002
+1.02275344180E+007, +2.13798958521E+002, +3.06331766441E+002
+1.03525657071E+007, +2.13671290103E+002, +3.11005045093E+002
+1.04775969962E+007, +2.14626269561E+002, +3.14940680205E+002
+1.06026282854E+007, +2.14750655607E+002, +3.18810619867E+002
+1.07276595745E+007, +2.15572980898E+002, +3.23597727875E+002
+1.08526908636E+007, +2.15962766333E+002, +3.27720055211E+002
+1.09777221527E+007, +2.17333553173E+002, +3.31972090689E+002
+1.11027534418E+007, +2.17519817327E+002, +3.35571386280E+002
+1.12277847309E+007, +2.18464735864E+002, +3.40804192880E+002
+1.13528160200E+007, +2.18249538226E+002, +3.44916804788E+002
+1.14778473091E+007, +2.19685794044E+002, +3.47901347928E+002
+1.16028785982E+007, +2.19504448698E+002, +3.52786089436E+002
+1.17279098874E+007, +2.20837372675E+002, +3.56457757722E+002
+1.18529411765E+007, +2.20455761512E+002, +3.61312187717E+002
+1.19779724656E+007, +2.20517005623E+002, +3.66451944911E+002
+1.21030037547E+007, +2.22308295400E+002, +3.70166866409E+002
+1.22280350438E+007, +2.22552443562E+002, +3.74766921859E+002
+1.23530663329E+007, +2.22636798465E+002, +3.80048936354E+002
+1.24780976220E+007, +2.24099633177E+002, +3.84401466795E+002
+1.26031289111E+007, +2.24268680839E+002, +3.88082611568E+002
+1.27281602003E+007, +2.26592781224E+002, +3.93443193727E+002
+1.28531914894E+007, +2.26908087684E+002, +3.97150635855E+002
+1.29782227785E+007, +2.26243578142E+002, +4.01429641848E+002
+1.31032540676E+007, +2.26941599905E+002, +4.06960263031E+002
+1.32282853567E+007, +2.29117559260E+002, +4.11718337778E+002
+1.33533166458E+007, +2.28210329823E+002, +4.15887509750E+002
+1.34783479349E+007, +2.29649091546E+002, +4.20413218707E+002
+1.36033792240E+007, +2.29848002707E+002, +4.25540443701E+002
+1.37284105131E+007, +2.30656112877E+002, +4.29654211532E+002
+1.38534418023E+007, +2.31749928896E+002, +4.34587190378E+002
+1.39784730914E+007, +2.31701119997E+002, +4.39253796548E+002
+1.41035043805E+007, +2.32751868090E+002, +4.44303347306E+002
+1.42285356696E+007, +2.34581085685E+002, +4.48925116638E+002
+1.43535669587E+007, +2.36302152146E+002, +4.53297257919E+002
+1.44785982478E+007, +2.36082241354E+002, +4.58811426589E+002
+1.46036295369E+007, +2.37482683740E+002, +4.62917337604E+002
+1.47286608260E+007, +2.38152512995E+002, +4.68195324707E+002
+1.48536921151E+007, +2.38836192002E+002, +4.71896665424E+002
+1.49787234043E+007, +2.38062334458E+002, +4.76695053375E+002
+1.51037546934E+007, +2.41714371567E+002, +4.81968034292E+002
+1.52287859825E+007, +2.39821947166E+002, +4.88107988436E+002
+1.53538172716E+007, +2.40845676327E+002, +4.92534295914E+002
+1.54788485607E+007, +2.42059540019E+002, +4.99430346171E+002
+1.56038798498E+007, +2.44099648883E+002, +5.03237256918E+002
+1.57289111389E+007, +2.43099182780E+002, +5.07762872088E+002
+1.58539424280E+007, +2.46499894432E+002, +5.13244728107E+002
+1.59789737171E+007, +2.47196371978E+002, +5.18306046990E+002
+1.61040050063E+007, +2.46538803698E+002, +5.22674491999E+002
+1.62290362954E+007, +2.50229872935E+002, +5.29141146587E+002
+1.63540675845E+007, +2.48809358635E+002, +5.33318124485E+002
+1.64790988736E+007, +2.48942471932E+002, +5.40237404475E+002
+1.66041301627E+007, +2.51142168663E+002, +5.45118518145E+002
+1.67291614518E+007, +2.52513838843E+002, +5.50579489990E+002
+1.68541927409E+007, +2.53590254919E+002, +5.54278215239E+002
+1.69792240300E+007, +2.54964452835E+002, +5.60944387406E+002
+1.71042553191E+007, +2.53811695848E+002, +5.69042018898E+002
+1.72292866083E+007, +2.56758004669E+002, +5.74811615034E+002
+1.73543178974E+007, +2.56454655781E+002, +5.79558076214E+002
+1.74793491865E+007, +2.57792449855E+002, +5.85961750660E+002
+1.76043804756E+007, +2.61957785032E+002, +5.89340959198E+002
+1.77294117647E+007, +2.62025265674E+002, +5.95739698519E+002
+1.78544430538E+007, +2.61224524125E+002, +6.00036320395E+002
+1.79794743429E+007, +2.62879197170E+002, +6.05262023933E+002
+1.81045056320E+007, +2.66099587972E+002, +6.12880926015E+002
+1.82295369212E+007, +2.66709652318E+002, +6.19492166900E+002
+1.83545682103E+007, +2.69059881714E+002, +6.24133521794E+002
+1.84795994994E+007, +2.69286835228E+002, +6.29643280266E+002
+1.86046307885E+007, +2.70904501596E+002, +6.35183692408E+002
+1.87296620776E+007, +2.72302190132E+002, +6.39997677154E+002
+1.88546933667E+007, +2.75383218218E+002, +6.48493605831E+002
+1.89797246558E+007, +2.75377643119E+002, +6.53093589819E+002
+1.91047559449E+007, +2.76025304224E+002, +6.59026187162E+002
+1.92297872340E+007, +2.77712165496E+002, +6.65630516047E+002
+1.93548185232E+007, +2.80494217290E+002, +6.72481732547E+002
+1.94798498123E+007, +2.82259953557E+002, +6.76139340377E+002
+1.96048811014E+007, +2.82987614032E+002, +6.84898422807E+002
+1.97299123905E+007, +2.86511071554E+002, +6.90963625489E+002
+1.98549436796E+007, +2.86398887823E+002, +6.95895664126E+002
+1.99799749687E+007, +2.87067119537E+002, +7.02324592886E+002
+2.01050062578E+007, +2.90083063122E+002, +7.08353900855E+002
+2.02300375469E+007, +2.93769653991E+002, +7.13549410494E+002
+2.03550688360E+007, +2.98239125297E+002, +7.22746382107E+002
+2.04801001252E+007, +2.95199488946E+002, +7.31926816040E+002
+2.06051314143E+007, +2.99019126101E+002, +7.34569392310E+002
+2.07301627034E+007, +2.97421478895E+002, +7.45389935875E+002
+2.08551939925E+007, +3.00632870898E+002, +7.47145252762E+002
+2.09802252816E+007, +3.04813010157E+002, +7.58639385511E+002
+2.11052565707E+007, +3.04476991623E+002, +7.64913123274E+002
+2.12302878598E+007, +3.07250414603E+002, +7.70451786059E+002
+2.13553191489E+007, +3.12185863710E+002, +7.76772679801E+002
+2.14803504380E+007, +3.09993652148E+002, +7.84647762394E+002
+2.16053817272E+007, +3.13340966241E+002, +7.92606009629E+002
+2.17304130163E+007, +3.19974529561E+002, +7.99581680408E+002
+2.18554443054E+007, +3.22713780655E+002, +8.06000215281E+002
+2.19804755945E+007, +3.21079341041E+002, +8.20980485354E+002
+2.21055068836E+007, +3.22704514034E+002, +8.23433023653E+002
+2.22305381727E+007, +3.27169454489E+002, +8.31465404766E+002
+2.23555694618E+007, +3.33987695695E+002, +8.35030752028E+002
+2.24806007509E+007, +3.34882082277E+002, +8.41079008166E+002
+2.26056320401E+007, +3.33852013077E+002, +8.49923368179E+002
+2.27306633292E+007, +3.43610191862E+002, +8.53445234374E+002
+2.28556946183E+007, +3.43142087350E+002, +8.61209987858E+002
+2.29807259074E+007, +3.47999777385E+002, +8.73036079509E+002
+2.31057571965E+007, +3.52244251952E+002, +8.80373773940E+002
+2.32307884856E+007, +3.55127555065E+002, +8.86291925370E+002
+2.33558197747E+007, +3.56196157902E+002, +8.89152745835E+002
+2.34808510638E+007, +3.62028127330E+002, +9.00492430470E+002
+2.36058823529E+007, +3.63441724285E+002, +9.14519128697E+002
+2.37309136421E+007, +3.67721606799E+002, +9.12536970926E+002
+2.38559449312E+007, +3.68501805714E+002, +9.27663479701E+002
+2.39809762203E+007, +3.72245550180E+002, +9.25545790752E+002
+2.41060075094E+007, +3.70367671595E+002, +9.44220143911E+002
+2.42310387985E+007, +3.75604485157E+002, +9.43261603582E+002
+2.43560700876E+007, +3.75448586497E+002, +9.51400035395E+002
+2.44811013767E+007, +3.79573856359E+002, +9.64856416135E+002
+2.46061326658E+007, +3.76578109368E+002, +9.71197133524E+002
+2.47311639549E+007, +3.80725693314E+002, +9.79084033988E+002
+2.48561952441E+007, +3.87726383261E+002, +9.86474877787E+002
+2.49812265332E+007, +3.87653870865E+002, +9.91487745467E+002
+2.51062578223E+007, +3.88301814249E+002, +1.00481136004E+003
+2.52312891114E+007, +3.93951892842E+002, +1.00851543376E+003
+2.53563204005E+007, +4.02205231833E+002, +1.02692182727E+003
+2.54813516896E+007, +4.02000893363E+002, +1.03485071279E+003
+2.56063829787E+007, +4.01677741161E+002, +1.04528464641E+003
+2.57314142678E+007, +4.07672269069E+002, +1.05068660920E+003
+2.58564455569E+007, +4.17474620463E+002, +1.06274554313E+003
+2.59814768461E+007, +4.07953225942E+002, +1.07484337404E+003
+2.61065081352E+007, +4.25002881032E+002, +1.08429865521E+003
+2.62315394243E+007, +4.21894864424E+002, +1.09193904191E+003
+2.63565707134E+007, +4.24838026616E+002, +1.10803664543E+003
+2.64816020025E+007, +4.32429480029E+002, +1.11789401146E+003
+2.66066332916E+007, +4.33990479407E+002, +1.11974622321E+003
+2.67316645807E+007, +4.43598406025E+002, +1.14137132182E+003
+2.68566958698E+007, +4.50904862955E+002, +1.14607033261E+003
+2.69817271589E+007, +4.50347846014E+002, +1.16019328659E+003
+2.71067584481E+007, +4.52844467293E+002, +1.15911614565E+003
+2.72317897372E+007, +4.56865326181E+002, +1.18251029098E+003
+2.73568210263E+007, +4.66117356653E+002, +1.19340489974E+003
+2.74818523154E+007, +4.70455816581E+002, +1.20714599358E+003
+2.76068836045E+007, +4.64911929625E+002, +1.22036404207E+003
+2.77319148936E+007, +4.81677330824E+002, +1.22452236753E+003
+2.78569461827E+007, +4.85241433182E+002, +1.23778362943E+003
+2.79819774718E+007, +4.89645125026E+002, +1.26043470831E+003
+2.81070087610E+007, +4.84322572435E+002, +1.25588054234E+003
+2.82320400501E+007, +5.06087660745E+002, +1.28680207408E+003
+2.83570713392E+007, +5.07313213647E+002, +1.28953426355E+003
+2.84821026283E+007, +5.10697324271E+002, +1.30829042860E+003
+2.86071339174E+007, +5.23992454844E+002, +1.32293472149E+003
+2.87321652065E+007, +5.24761709978E+002, +1.33613183494E+003
+2.88571964956E+007, +5.19384862878E+002, +1.34007271569E+003
+2.89822277847E+007, +5.47000188537E+002, +1.35485228614E+003
+2.91072590738E+007, +5.46265193513E+002, +1.37877983337E+003
+2.92322903630E+007, +5.49207919251E+002, +1.39104907918E+003
+2.93573216521E+007, +5.61513648259E+002, +1.40730906055E+003
+2.94823529412E+007, +5.70838362354E+002, +1.42210748423E+003
+2.96073842303E+007, +5.76684679210E+002, +1.42883452557E+003
+2.97324155194E+007, +5.94312611930E+002, +1.45578338002E+003
+2.98574468085E+007, +5.88973395354E+002, +1.45969552447E+003
+2.99824780976E+007, +6.06017488911E+002, +1.46433150630E+003
+3.01075093867E+007, +6.17892688142E+002, +1.48850125019E+003
+3.02325406758E+007, +6.15167826503E+002, +1.50759979008E+003
+3.03575719650E+007, +6.36417096021E+002, +1.52071468144E+003
+3.04826032541E+007, +6.46664934609E+002, +1.54414991887E+003
+3.06076345432E+007, +6.58941586323E+002, +1.55704028154E+003
+3.07326658323E+007, +6.53575563252E+002, +1.57995076813E+003
+3.08576971214E+007, +6.64951732868E+002, +1.58663413142E+003
+3.09827284105E+007, +6.78298088751E+002, +1.60377431829E+003
+3.11077596996E+007, +6.90855776348E+002, +1.66010357146E+003
+3.12327909887E+007, +7.01799520536E+002, +1.65018855145E+003
+3.13578222778E+007, +7.12529878359E+002, +1.67567434267E+003
+3.14828535670E+007, +7.24454874581E+002, +1.70385324975E+003
+3.16078848561E+007, +7.35614307305E+002, +1.69312960680E+003
+3.17329161452E+007, +7.38128927415E+002, +1.73097829120E+003
+3.18579474343E+007, +7.73651865088E+002, +1.73755135875E+003
+3.19829787234E+007, +7.56455143950E+002, +1.76875920701E+003
+3.21080100125E+007, +7.89556271390E+002, +1.79434857670E+003
+3.22330413016E+007, +7.95556143034E+002, +1.83248999294E+003
+3.23580725907E+007, +8.32360526426E+002, +1.83486403470E+003
+3.24831038798E+007, +8.31066662411E+002, +1.83329384579E+003
+3.26081351690E+007, +8.57134306693E+002, +1.87452793104E+003
+3.27331664581E+007, +8.54744536173E+002, +1.88674769276E+003
+3.28581977472E+007, +8.79865887534E+002, +1.91927020167E+003
+3.29832290363E+007, +8.90714352727E+002, +1.96310357416E+003
+3.31082603254E+007, +9.12767716243E+002, +1.97655067250E+003
+3.32332916145E+007, +9.14424618693E+002, +1.99584912272E+003
+3.33583229036E+007, +9.41912143981E+002, +2.02791969146E+003
+3.34833541927E+007, +9.69311385673E+002, +2.06805146308E+003
+3.36083854819E+007, +1.00635996687E+003, +2.08795112427E+003
+3.37334167710E+007, +1.01935228569E+003, +2.10663392198E+003
+3.38584480601E+007, +1.01357690960E+003, +2.13995881461E+003
+3.39834793492E+007, +1.03994550341E+003, +2.16724262632E+003
+3.41085106383E+007, +1.07693867027E+003, +2.19441559847E+003
+3.42335419274E+007, +1.12559008285E+003, +2.20572134449E+003
+3.43585732165E+007, +1.10689593756E+003, +2.25357264738E+003
+3.44836045056E+007, +1.16504228213E+003, +2.23692367978E+003
+3.46086357947E+007, +1.20194185006E+003, +2.28943952655E+003
+3.47336670839E+007, +1.24509991786E+003, +2.32626745790E+003
+3.48586983730E+007, +1.24370548734E+003, +2.30722386625E+003
+3.49837296621E+007, +1.29873645338E+003, +2.37067542881E+003
+3.51087609512E+007, +1.32557109118E+003, +2.39688381431E+003
+3.52337922403E+007, +1.34002459023E+003, +2.44265986302E+003
+3.53588235294E+007, +1.40123431430E+003, +2.45584521014E+003
+3.54838548185E+007, +1.40918961488E+003, +2.56072154979E+003
+3.56088861076E+007, +1.50069368327E+003, +2.54357368943E+003
+3.57339173967E+007, +1.54137754031E+003, +2.58634134773E+003
+3.58589486859E+007, +1.55330851349E+003, +2.63419466904E+003
+3.59839799750E+007, +1.62978840058E+003, +2.60173903513E+003
+3.61090112641E+007, +1.65903310774E+003, +2.68107219494E+003
+3.62340425532E+007, +1.72049780043E+003, +2.73547674491E+003
+3.63590738423E+007, +1.77765223021E+003, +2.73061605572E+003
+3.64841051314E+007, +1.82953448825E+003, +2.81555097114E+003
+3.66091364205E+007, +1.85867417224E+003, +2.80740904804E+003
+3.67341677096E+007, +1.97437785935E+003, +2.89141121704E+003
+3.68591989987E+007, +2.01257206787E+003, +2.91477157265E+003
+3.69842302879E+007, +2.07829964665E+003, +2.93382551958E+003
+3.71092615770E+007, +2.17432227623E+003, +2.98661403366E+003
+3.72342928661E+007, +2.21106023270E+003, +3.02006291173E+003
+3.73593241552E+007, +2.36130916532E+003, +3.06072519537E+003
+3.74843554443E+007, +2.35765822326E+003, +3.07224376043E+003
+3.76093867334E+007, +2.45143161211E+003, +3.14367566268E+003
+3.77344180225E+007, +2.55876428497E+003, +3.16008545412E+003
+3.78594493116E+007, +2.67740901121E+003, +3.17901335720E+003
+3.79844806008E+007, +2.66453927731E+003, +3.21086065112E+003
+3.81095118899E+007, +2.85633525897E+003, +3.22359319860E+003
+3.82345431790E+007, +2.96753592837E+003, +3.21251015798E+003
+3.83595744681E+007, +3.09591436474E+003, +3.32101814066E+003
+3.84846057572E+007, +3.11562602134E+003, +3.25429279166E+003
+3.86096370463E+007, +3.31996374802E+003, +3.39278784994E+003
+3.87346683354E+007, +3.50858464000E+003, +3.32171559678E+003
+3.88596996245E+007, +3.58850529297E+003, +3.33684849755E+003
+3.89847309136E+007, +3.88525548450E+003, +3.18093446950E+003
+3.91097622028E+007, +3.99750870064E+003, +3.31782120239E+003
+3.92347934919E+007, +4.07601385915E+003, +3.26602018835E+003
+3.93598247810E+007, +4.21643018575E+003, +3.14356762110E+003
+3.94848560701E+007, +4.36957259156E+003, +3.11835627795E+003
+3.96098873592E+007, +4.46364745435E+003, +3.13518739376E+003
+3.97349186483E+007, +4.84076093144E+003, +3.06394401434E+003
+3.98599499374E+007, +5.03074378579E+003, +3.03550067207E+003
+3.99849812265E+007, +5.38661169619E+003, +2.83111219017E+003
+4.01100125156E+007, +5.29335662929E+003, +2.76374825565E+003
