"# Channel 1"
"# Trace 1"
Frequency, Formatted Data, Formatted Data
+1.00000000000E+005, +1.19210635645E+002, +5.65365906747E-001
+2.25031289111E+005, +1.18453087731E+002, +4.23796915405E+000
+3.50062578223E+005, +1.18638955714E+002, +6.53455190152E+000
+4.75093867334E+005, +1.18566528124E+002, +9.10170063460E+000
+6.00125156446E+005, +1.18652422561E+002, +1.14329168177E+001
+7.25156445557E+005, +1.18640454268E+002, +1.39639602072E+001
+8.50187734668E+005, +1.18846712929E+002, +1.62670866628E+001
+9.75219023780E+005, +1.18901556986E+002, +1.87787138252E+001
+1.10025031289E+006, +1.18814004844E+002, +2.09042304420E+001
+1.22528160200E+006, +1.18989519358E+002, +2.33022986829E+001
+1.35031289111E+006, +1.18867612292E+002, +2.58017883486E+001
+1.47534418023E+006, +1.18807003163E+002, +2.80921729409E+001
+1.60037546934E+006, +1.19121064668E+002, +3.04446078711E+001
+1.72540675845E+006, +1.18957386129E+002, +3.28956967107E+001
+1.85043804756E+006, +1.19001043736E+002, +3.53650678369E+001
+1.97546933667E+006, +1.19058657841E+002, +3.78364683466E+001
+2.10050062578E+006, +1.19046681047E+002, +4.00240232604E+001
+2.22553191489E+006, +1.18986240624E+002, +4.27218850721E+001
+2.35056320401E+006, +1.19266663726E+002, +4.50852337068E+001
+2.47559449312E+006, +1.19234954544E+002, +4.70576457755E+001
+2.60062578223E+006, +1.18945625495E+002, +4.96227913150E+001
+2.72565707134E+006, +1.19408894941E+002, +5.21094585305E+001
+2.85068836045E+006, +1.19299980710E+002, +5.45446655747E+001
+2.97571964956E+006, +1.19486747328E+002, +5.68003921004E+001
+3.10075093867E+006, +1.19416354697E+002, +5.94215151379E+001
+3.22578222778E+006, +1.19349782618E+002, +6.16545964347E+001
+3.35081351690E+006, +1.19467791913E+002, +6.40555045735E+001
+3.47584480601E+006, +1.19407119392E+002, +6.62261117309E+001
+3.60087609512E+006, +1.19497003103E+002, +6.87892176236E+001
+3.72590738423E+006, +1.19616697541E+002, +7.10976533189E+001
+3.85093867334E+006, +1.19611965920E+002, +7.35678274096E+001
+3.97596996245E+006, +1.19452911489E+002, +7.56100266584E+001
+4.10100125156E+006, +1.19162588771E+002, +7.88830916338E+001
+4.22603254068E+006, +1.20088387241E+002, +8.08774565395E+001
+4.35106382979E+006, +1.19913151768E+002, +8.32957774909E+001
+4.47609511890E+006, +1.19974873294E+002, +8.57830316963E+001
+4.60112640801E+006, +1.20232601253E+002, +8.78627583691E+001
+4.72615769712E+006, +1.20241278906E+002, +9.04051911542E+001
+4.85118898623E+006, +1.20284020709E+002, +9.30224714839E+001
+4.97622027534E+006, +1.20389291379E+002, +9.53309875420E+001
+5.10125156446E+006, +1.20107407115E+002, +9.75546518377E+001
+5.22628285357E+006, +1.20339698616E+002, +9.98129609307E+001
+5.35131414268E+006, +1.20238480979E+002, +1.02275442085E+002
+5.47634543179E+006, +1.20760961405E+002, +1.04774162868E+002
+5.60137672090E+006, +1.20509731957E+002, +1.07134768417E+002
+5.72640801001E+006, +1.21015557702E+002, +1.09488861465E+002
+5.85143929912E+006, +1.21089562093E+002, +1.11946372864E+002
+5.97647058824E+006, +1.20928638253E+002, +1.14311796007E+002
+6.10150187735E+006, +1.20990457742E+002, +1.16777041032E+002
+6.22653316646E+006, +1.20968510191E+002, +1.19263870123E+002
+6.35156445557E+006, +1.21078943332E+002, +1.21636554696E+002
+6.47659574468E+006, +1.21086146703E+002, +1.24147385740E+002
+6.60162703379E+006, +1.21286904779E+002, +1.26293744664E+002
+6.72665832290E+006, +1.21441130866E+002, +1.29046585527E+002
+6.85168961202E+006, +1.21550037663E+002, +1.31358641460E+002
+6.97672090113E+006, +1.21629457285E+002, +1.33722262421E+002
+7.10175219024E+006, +1.21566391090E+002, +1.36222550609E+002
+7.22678347935E+006, +1.21527820501E+002, +1.38755904460E+002
+7.35181476846E+006, +1.21868834458E+002, +1.41119337575E+002
+7.47684605757E+006, +1.21927970069E+002, +1.43350800677E+002
+7.60187734668E+006, +1.22164583075E+002, +1.46196826953E+002
+7.72690863579E+006, +1.22262567158E+002, +1.48412884300E+002
+7.85193992491E+006, +1.22303421176E+002, +1.51023563316E+002
+7.97697121402E+006, +1.22503819039E+002, +1.53270887077E+002
+8.10200250313E+006, +1.22575769147E+002, +1.56028424558E+002
+8.22703379224E+006, +1.22515421559E+002, +1.58500681683E+002
+8.35206508135E+006, +1.22653166080E+002, +1.60917795018E+002
+8.47709637046E+006, +1.22984756391E+002, +1.63623637336E+002
+8.60212765957E+006, +1.22875285333E+002, +1.66004788609E+002
+8.72715894869E+006, +1.22999626254E+002, +1.68256137170E+002
+8.85219023780E+006, +1.23369109311E+002, +1.71185731081E+002
+8.97722152691E+006, +1.23113837559E+002, +1.73774107461E+002
+9.10225281602E+006, +1.23659033651E+002, +1.76364305761E+002
+9.22728410513E+006, +1.23524827551E+002, +1.78504561055E+002
+9.35231539424E+006, +1.23682662663E+002, +1.80762612721E+002
+9.47734668335E+006, +1.23386548962E+002, +1.83750767527E+002
+9.60237797247E+006, +1.23836273746E+002, +1.86126893478E+002
+9.72740926158E+006, +1.24393329503E+002, +1.88705244137E+002
+9.85244055069E+006, +1.23975683712E+002, +1.91133064059E+002
+9.97747183980E+006, +1.24506551727E+002, +1.93788993186E+002
+1.01025031289E+007, +1.24708994228E+002, +1.96386588830E+002
+1.02275344180E+007, +1.24824932712E+002, +1.99067057640E+002
+1.03525657071E+007, +1.24703762741E+002, +2.01658847801E+002
+1.04775969962E+007, +1.24894693850E+002, +2.04496710049E+002
+1.06026282854E+007, +1.25057257155E+002, +2.06694985975E+002
+1.07276595745E+007, +1.25222159560E+002, +2.09434413066E+002
+1.08526908636E+007, +1.25441887182E+002, +2.12312564520E+002
+1.09777221527E+007, +1.25614059912E+002, +2.14536429680E+002
+1.11027534418E+007, +1.25941310863E+002, +2.16963444591E+002
+1.12277847309E+007, +1.26050107707E+002, +2.19570319192E+002
+1.13528160200E+007, +1.25826906177E+002, +2.22491558668E+002
+1.14778473091E+007, +1.26313302753E+002, +2.24630638897E+002
+1.16028785982E+007, +1.26240414068E+002, +2.27561742215E+002
+1.17279098874E+007, +1.26764488461E+002, +2.30008339842E+002
+1.18529411765E+007, +1.26895271383E+002, +2.32756177079E+002
+1.19779724656E+007, +1.26903229956E+002, +2.35763124049E+002
+1.21030037547E+007, +1.27218925683E+002, +2.38189030479E+002
+1.22280350438E+007, +1.27243685654E+002, +2.40721507983E+002
+1.23530663329E+007, +1.27427415528E+002, +2.43672780930E+002
+1.24780976220E+007, +1.27918289891E+002, +2.46141730154E+002
+1.26031289111E+007, +1.27933705852E+002, +2.48393597800E+002
+1.27281602003E+007, +1.28346997061E+002, +2.51467339062E+002
+1.28531914894E+007, +1.28572741599E+002, +2.53950067732E+002
+1.29782227785E+007, +1.28545820965E+002, +2.56764232299E+002
+1.31032540676E+007, +1.28960739592E+002, +2.59750309132E+002
+1.32282853567E+007, +1.28591463850E+002, +2.62057696324E+002
+1.33533166458E+007, +1.29342823351E+002, +2.65410965482E+002
+1.34783479349E+007, +1.29255369943E+002, +2.67474132031E+002
+1.36033792240E+007, +1.29379400789E+002, +2.69926309221E+002
+1.37284105131E+007, +1.29430257905E+002, +2.73181458756E+002
+1.38534418023E+007, +1.29703345936E+002, +2.75642428133E+002
+1.39784730914E+007, +1.29816922293E+002, +2.78739706467E+002
+1.41035043805E+007, +1.29741200177E+002, +2.81481670105E+002
+1.42285356696E+007, +1.30721531393E+002, +2.84347781140E+002
+1.43535669587E+007, +1.31180457194E+002, +2.86809795965E+002
+1.44785982478E+007, +1.30761923813E+002, +2.90084074154E+002
+1.46036295369E+007, +1.31406207004E+002, +2.92354671348E+002
+1.47286608260E+007, +1.31871927639E+002, +2.95303734273E+002
+1.48536921151E+007, +1.31793379274E+002, +2.97905234297E+002
+1.49787234043E+007, +1.31439843325E+002, +3.01010170976E+002
+1.51037546934E+007, +1.33016386633E+002, +3.03705311167E+002
+1.52287859825E+007, +1.32066237520E+002, +3.06349308285E+002
+1.53538172716E+007, +1.32573411428E+002, +3.09115358364E+002
+1.54788485607E+007, +1.32780413103E+002, +3.12255255835E+002
+1.56038798498E+007, +1.33287031805E+002, +3.15403148000E+002
+1.57289111389E+007, +1.33343344072E+002, +3.17904370962E+002
+1.58539424280E+007, +1.33570684692E+002, +3.20821067897E+002
+1.59789737171E+007, +1.34235700504E+002, +3.23483907622E+002
+1.61040050063E+007, +1.33302418789E+002, +3.26699734473E+002
+1.62290362954E+007, +1.34114114484E+002, +3.29172555707E+002
+1.63540675845E+007, +1.34607956435E+002, +3.32167186685E+002
+1.64790988736E+007, +1.34516913985E+002, +3.35217465218E+002
+1.66041301627E+007, +1.34899941966E+002, +3.38278367183E+002
+1.67291614518E+007, +1.35230356490E+002, +3.41183171748E+002
+1.68541927409E+007, +1.35858452983E+002, +3.44051348955E+002
+1.69792240300E+007, +1.36275138290E+002, +3.46734165529E+002
+1.71042553191E+007, +1.35771084338E+002, +3.50733653652E+002
+1.72292866083E+007, +1.35941220917E+002, +3.52880676413E+002
+1.73543178974E+007, +1.36403538207E+002, +3.56305387074E+002
+1.74793491865E+007, +1.36487655322E+002, +3.58647181089E+002
+1.76043804756E+007, +1.38057548740E+002, +3.61650679936E+002
+1.77294117647E+007, +1.38180764544E+002, +3.64803088759E+002
+1.78544430538E+007, +1.38354078101E+002, +3.68422303141E+002
+1.79794743429E+007, +1.38331396188E+002, +3.70832497916E+002
+1.81045056320E+007, +1.39200668241E+002, +3.73976882876E+002
+1.82295369212E+007, +1.38661715057E+002, +3.77762204219E+002
+1.83545682103E+007, +1.40689311708E+002, +3.79910917633E+002
+1.84795994994E+007, +1.40483686407E+002, +3.82920163909E+002
+1.86046307885E+007, +1.40944692177E+002, +3.86435711692E+002
+1.87296620776E+007, +1.40759413603E+002, +3.89386022614E+002
+1.88546933667E+007, +1.41466175280E+002, +3.92162750184E+002
+1.89797246558E+007, +1.40808418527E+002, +3.95215216845E+002
+1.91047559449E+007, +1.41784729528E+002, +3.98392446398E+002
+1.92297872340E+007, +1.41428273726E+002, +4.02249589991E+002
+1.93548185232E+007, +1.42689234865E+002, +4.04019573239E+002
+1.94798498123E+007, +1.43574533414E+002, +4.06828935452E+002
+1.96048811014E+007, +1.42702102551E+002, +4.11354493834E+002
+1.97299123905E+007, +1.43611887974E+002, +4.14551863982E+002
+1.98549436796E+007, +1.43809100509E+002, +4.17554411500E+002
+1.99799749687E+007, +1.45334668460E+002, +4.21122235130E+002
+2.01050062578E+007, +1.45538245548E+002, +4.24458210584E+002
+2.02300375469E+007, +1.44787893255E+002, +4.26967321926E+002
+2.03550688360E+007, +1.46123925788E+002, +4.30547721588E+002
+2.04801001252E+007, +1.46454917661E+002, +4.33008905367E+002
+2.06051314143E+007, +1.47350574751E+002, +4.35917174567E+002
+2.07301627034E+007, +1.45866824635E+002, +4.40440712570E+002
+2.08551939925E+007, +1.46446547962E+002, +4.42917088100E+002
+2.09802252816E+007, +1.48462165766E+002, +4.47466743097E+002
+2.11052565707E+007, +1.47583091171E+002, +4.50014397363E+002
+2.12302878598E+007, +1.48296964332E+002, +4.53814852100E+002
+2.13553191489E+007, +1.50012783460E+002, +4.57059823145E+002
+2.14803504380E+007, +1.48886453111E+002, +4.60261182781E+002
+2.16053817272E+007, +1.50303705341E+002, +4.62733787532E+002
+2.17304130163E+007, +1.52283599329E+002, +4.67765752338E+002
+2.18554443054E+007, +1.52261249437E+002, +4.70131105506E+002
+2.19804755945E+007, +1.51733319786E+002, +4.74026005161E+002
+2.21055068836E+007, +1.52208374321E+002, +4.77969637441E+002
+2.22305381727E+007, +1.53610130643E+002, +4.81354309055E+002
+2.23555694618E+007, +1.54702018967E+002, +4.83978936028E+002
+2.24806007509E+007, +1.55711840709E+002, +4.86609235662E+002
+2.26056320401E+007, +1.55113577742E+002, +4.89593729550E+002
+2.27306633292E+007, +1.56914150759E+002, +4.93480751712E+002
+2.28556946183E+007, +1.56219569392E+002, +4.97171359799E+002
+2.29807259074E+007, +1.57069471076E+002, +5.00821277154E+002
+2.31057571965E+007, +1.57287397009E+002, +5.05029511981E+002
+2.32307884856E+007, +1.59208664579E+002, +5.07421947520E+002
+2.33558197747E+007, +1.60048985850E+002, +5.12326734563E+002
+2.34808510638E+007, +1.60041038584E+002, +5.14388619009E+002
+2.36058823529E+007, +1.58381233431E+002, +5.19501399670E+002
+2.37309136421E+007, +1.59913042721E+002, +5.21898393148E+002
+2.38559449312E+007, +1.61359667007E+002, +5.26827546189E+002
+2.39809762203E+007, +1.63409297540E+002, +5.27611058100E+002
+2.41060075094E+007, +1.61647095577E+002, +5.33585083905E+002
+2.42310387985E+007, +1.64803722050E+002, +5.35523563032E+002
+2.43560700876E+007, +1.64150444048E+002, +5.38513518263E+002
+2.44811013767E+007, +1.63092558079E+002, +5.43055275880E+002
+2.46061326658E+007, +1.62937267536E+002, +5.47209601553E+002
+2.47311639549E+007, +1.64618579535E+002, +5.47362424754E+002
+2.48561952441E+007, +1.65404449184E+002, +5.53975428946E+002
+2.49812265332E+007, +1.67509652689E+002, +5.55573259349E+002
+2.51062578223E+007, +1.66252876978E+002, +5.62174734749E+002
+2.52312891114E+007, +1.67584680007E+002, +5.64174774093E+002
+2.53563204005E+007, +1.68667538141E+002, +5.69792279438E+002
+2.54813516896E+007, +1.69696317401E+002, +5.71747862542E+002
+2.56063829787E+007, +1.68605747627E+002, +5.76397874979E+002
+2.57314142678E+007, +1.69708137504E+002, +5.78978781775E+002
+2.58564455569E+007, +1.69983964071E+002, +5.84307558790E+002
+2.59814768461E+007, +1.68834162558E+002, +5.87914054521E+002
+2.61065081352E+007, +1.72112307316E+002, +5.91445232437E+002
+2.62315394243E+007, +1.72254849262E+002, +5.95699304077E+002
+2.63565707134E+007, +1.71446983849E+002, +5.99771560386E+002
+2.64816020025E+007, +1.75164699985E+002, +6.06093262712E+002
+2.66066332916E+007, +1.74020294219E+002, +6.07134220125E+002
+2.67316645807E+007, +1.74649921169E+002, +6.11643137828E+002
+2.68566958698E+007, +1.77194867548E+002, +6.16471181240E+002
+2.69817271589E+007, +1.76556856164E+002, +6.19522844669E+002
+2.71067584481E+007, +1.76959893559E+002, +6.22951933963E+002
+2.72317897372E+007, +1.77320556111E+002, +6.29373483161E+002
+2.73568210263E+007, +1.77265257385E+002, +6.32513799899E+002
+2.74818523154E+007, +1.78415027903E+002, +6.37364224671E+002
+2.76068836045E+007, +1.78117779505E+002, +6.41601585441E+002
+2.77319148936E+007, +1.79462870027E+002, +6.46411261601E+002
+2.78569461827E+007, +1.83943817777E+002, +6.50136434533E+002
+2.79819774718E+007, +1.82266792252E+002, +6.55278774506E+002
+2.81070087610E+007, +1.81432751513E+002, +6.57341104297E+002
+2.82320400501E+007, +1.81932635769E+002, +6.66400277782E+002
+2.83570713392E+007, +1.83511648407E+002, +6.67197808620E+002
+2.84821026283E+007, +1.83439441859E+002, +6.71077010038E+002
+2.86071339174E+007, +1.86297755948E+002, +6.76756357861E+002
+2.87321652065E+007, +1.86583193493E+002, +6.81603730953E+002
+2.88571964956E+007, +1.85445682886E+002, +6.86018793894E+002
+2.89822277847E+007, +1.90234603916E+002, +6.88744049662E+002
+2.91072590738E+007, +1.89666356669E+002, +6.93410513238E+002
+2.92322903630E+007, +1.90589654125E+002, +7.00684603364E+002
+2.93573216521E+007, +1.90484552886E+002, +7.05560753156E+002
+2.94823529412E+007, +1.91624868993E+002, +7.10758345875E+002
+2.96073842303E+007, +1.92441456097E+002, +7.14300086285E+002
+2.97324155194E+007, +1.94176843409E+002, +7.21127971770E+002
+2.98574468085E+007, +1.92662167364E+002, +7.24108061077E+002
+2.99824780976E+007, +1.94595758595E+002, +7.27806998163E+002
+3.01075093867E+007, +2.00192424328E+002, +7.36883569774E+002
+3.02325406758E+007, +1.96906533759E+002, +7.38493226654E+002
+3.03575719650E+007, +1.99748456791E+002, +7.41612339731E+002
+3.04826032541E+007, +1.98879085210E+002, +7.46654096412E+002
+3.06076345432E+007, +2.00791965603E+002, +7.51631868462E+002
+3.07326658323E+007, +1.99550365873E+002, +7.57483619504E+002
+3.08576971214E+007, +2.00876901779E+002, +7.63327231239E+002
+3.09827284105E+007, +2.03635564207E+002, +7.67150000160E+002
+3.11077596996E+007, +2.02777295668E+002, +7.75332018691E+002
+3.12327909887E+007, +2.03647310304E+002, +7.79450393438E+002
+3.13578222778E+007, +2.05550739896E+002, +7.86066563971E+002
+3.14828535670E+007, +2.07688045179E+002, +7.90498955926E+002
+3.16078848561E+007, +2.09594094564E+002, +7.91570226185E+002
+3.17329161452E+007, +2.07904973977E+002, +7.97416193798E+002
+3.18579474343E+007, +2.13531450681E+002, +8.05399807803E+002
+3.19829787234E+007, +2.11495244213E+002, +8.10320287627E+002
+3.21080100125E+007, +2.10601748337E+002, +8.12610032348E+002
+3.22330413016E+007, +2.12218443381E+002, +8.24095458311E+002
+3.23580725907E+007, +2.16153086140E+002, +8.27381570872E+002
+3.24831038798E+007, +2.17936608454E+002, +8.32754988433E+002
+3.26081351690E+007, +2.17640987894E+002, +8.40464917696E+002
+3.27331664581E+007, +2.19101566869E+002, +8.44077840608E+002
+3.28581977472E+007, +2.23966598051E+002, +8.45833322974E+002
+3.29832290363E+007, +2.23563409889E+002, +8.56186607516E+002
+3.31082603254E+007, +2.22296199941E+002, +8.61458178216E+002
+3.32332916145E+007, +2.23237186867E+002, +8.68184708850E+002
+3.33583229036E+007, +2.26029825224E+002, +8.76981305496E+002
+3.34833541927E+007, +2.27722332172E+002, +8.83727001495E+002
+3.36083854819E+007, +2.29057247851E+002, +8.83943233457E+002
+3.37334167710E+007, +2.31173805794E+002, +8.90818462941E+002
+3.38584480601E+007, +2.30296464920E+002, +8.97457944428E+002
+3.39834793492E+007, +2.27191518495E+002, +9.04370747782E+002
+3.41085106383E+007, +2.30335849929E+002, +9.13944422005E+002
+3.42335419274E+007, +2.33637379660E+002, +9.15644501344E+002
+3.43585732165E+007, +2.35332332280E+002, +9.19667411447E+002
+3.44836045056E+007, +2.41155842716E+002, +9.24757726439E+002
+3.46086357947E+007, +2.39580645814E+002, +9.36336344756E+002
+3.47336670839E+007, +2.43608646069E+002, +9.39160680352E+002
+3.48586983730E+007, +2.45120939185E+002, +9.43269314406E+002
+3.49837296621E+007, +2.47797948591E+002, +9.47861359671E+002
+3.51087609512E+007, +2.45777161805E+002, +9.58856730595E+002
+3.52337922403E+007, +2.48752960600E+002, +9.63468599980E+002
+3.53588235294E+007, +2.52731741900E+002, +9.73132789325E+002
+3.54838548185E+007, +2.49374127961E+002, +9.80924113227E+002
+3.56088861076E+007, +2.51512603740E+002, +9.89459811154E+002
+3.57339173967E+007, +2.58472809989E+002, +9.99251171549E+002
+3.58589486859E+007, +2.57207877997E+002, +1.00382552901E+003
+3.59839799750E+007, +2.64710645597E+002, +1.00796940707E+003
+3.61090112641E+007, +2.58897841983E+002, +1.01700032283E+003
+3.62340425532E+007, +2.63618096912E+002, +1.02260390670E+003
+3.63590738423E+007, +2.67715347475E+002, +1.02949717877E+003
+3.64841051314E+007, +2.68905062866E+002, +1.04034570618E+003
+3.66091364205E+007, +2.65215467178E+002, +1.04559932317E+003
+3.67341677096E+007, +2.70292270704E+002, +1.05216254775E+003
+3.68591989987E+007, +2.75692907804E+002, +1.06247445148E+003
+3.69842302879E+007, +2.72373490302E+002, +1.06751625931E+003
+3.71092615770E+007, +2.78310459929E+002, +1.07491032567E+003
+3.72342928661E+007, +2.80773051623E+002, +1.07326438433E+003
+3.73593241552E+007, +2.87169492978E+002, +1.10068971596E+003
+3.74843554443E+007, +2.86231465435E+002, +1.09487018644E+003
+3.76093867334E+007, +2.83424721888E+002, +1.10729447151E+003
+3.77344180225E+007, +2.88213807468E+002, +1.11726752556E+003
+3.78594493116E+007, +2.93645843038E+002, +1.12815625107E+003
+3.79844806008E+007, +2.90739493919E+002, +1.12710402371E+003
+3.81095118899E+007, +2.99995892815E+002, +1.14041497599E+003
+3.82345431790E+007, +2.99545383330E+002, +1.15288703932E+003
+3.83595744681E+007, +2.99804320430E+002, +1.15990856539E+003
+3.84846057572E+007, +3.07811831907E+002, +1.16935355689E+003
+3.86096370463E+007, +3.04306876952E+002, +1.17831987366E+003
+3.87346683354E+007, +3.14205352833E+002, +1.18958826055E+003
+3.88596996245E+007, +3.10385253143E+002, +1.19563773963E+003
+3.89847309136E+007, +3.22883813794E+002, +1.21215208763E+003
+3.91097622028E+007, +3.16233754660E+002, +1.21000662324E+003
+3.92347934919E+007, +3.20515632737E+002, +1.22213712912E+003
+3.93598247810E+007, +3.33356272590E+002, +1.23556335942E+003
+3.94848560701E+007, +3.33543342160E+002, +1.23948777268E+003
+3.96098873592E+007, +3.36105009578E+002, +1.24132604782E+003
+3.97349186483E+007, +3.33671085096E+002, +1.25867706427E+003
+3.98599499374E+007, +3.37099211921E+002, +1.26528175898E+003
+3.99849812265E+007, +3.39814460367E+002, +1.28471650739E+003
+4.01100125156E+007, +3.45765182359E+002, +1.29056294925E+003
