"# Channel 1"
"# Trace 1"
Frequency, Formatted Data, Formatted Data
+1.00000000000E+005, +1.70619443375E+002, +2.62523768074E-001
+2.25031289111E+005, +1.69722410420E+002, +6.06403287764E+000
+3.50062578223E+005, +1.70023835850E+002, +9.99803813412E+000
+4.75093867334E+005, +1.69854266569E+002, +1.37561730343E+001
+6.00125156446E+005, +1.69885495265E+002, +1.76244733111E+001
+7.25156445557E+005, +1.70094813802E+002, +2.09622109405E+001
+8.50187734668E+005, +1.70160231926E+002, +2.45248803778E+001
+9.75219023780E+005, +1.70044360906E+002, +2.84744413993E+001
+1.10025031289E+006, +1.70177616210E+002, +3.23843274569E+001
+1.22528160200E+006, +1.69814967656E+002, +3.53350402753E+001
+1.35031289111E+006, +1.70379333491E+002, +3.91162245329E+001
+1.47534418023E+006, +1.70642139912E+002, +4.24978683651E+001
+1.60037546934E+006, +1.70751470618E+002, +4.66224138553E+001
+1.72540675845E+006, +1.70689304598E+002, +4.99273309703E+001
+1.85043804756E+006, +1.70558202957E+002, +5.36706228429E+001
+1.97546933667E+006, +1.70776360916E+002, +5.77305277840E+001
+2.10050062578E+006, +1.70458672622E+002, +6.14338374572E+001
+2.22553191489E+006, +1.70916890114E+002, +6.45568056055E+001
+2.35056320401E+006, +1.70884547342E+002, +6.81748517670E+001
+2.47559449312E+006, +1.71268398168E+002, +7.21968520640E+001
+2.60062578223E+006, +1.71197699275E+002, +7.54260909278E+001
+2.72565707134E+006, +1.70992813635E+002, +7.96652171145E+001
+2.85068836045E+006, +1.71066136468E+002, +8.33291868134E+001
+2.97571964956E+006, +1.71566700190E+002, +8.67172007978E+001
+3.10075093867E+006, +1.71669216139E+002, +9.04309274642E+001
+3.22578222778E+006, +1.71602618821E+002, +9.38967288124E+001
+3.35081351690E+006, +1.71643131208E+002, +9.73418289952E+001
+3.47584480601E+006, +1.71211271051E+002, +1.01209192328E+002
+3.60087609512E+006, +1.71663968996E+002, +1.04946769406E+002
+3.72590738423E+006, +1.72509652050E+002, +1.11233721986E+002
+3.85093867334E+006, +1.74225803184E+002, +1.18810168636E+002
+3.97596996245E+006, +1.74851455404E+002, +1.27032115654E+002
+4.10100125156E+006, +1.71789021221E+002, +1.18756543749E+002
+4.22603254068E+006, +1.68872438736E+002, +1.29201996781E+002
+4.35106382979E+006, +1.70711395365E+002, +1.31819746140E+002
+4.47609511890E+006, +1.72577488189E+002, +1.33106110159E+002
+4.60112640801E+006, +1.72375869485E+002, +1.33918950090E+002
+4.72615769712E+006, +1.72723906602E+002, +1.37949194357E+002
+4.85118898623E+006, +1.73058240729E+002, +1.41822913807E+002
+4.97622027534E+006, +1.73307808166E+002, +1.45248819599E+002
+5.10125156446E+006, +1.73119834217E+002, +1.48558384246E+002
+5.22628285357E+006, +1.73470550882E+002, +1.52838778596E+002
+5.35131414268E+006, +1.73885293807E+002, +1.55978012054E+002
+5.47634543179E+006, +1.73817401232E+002, +1.59807757368E+002
+5.60137672090E+006, +1.73924390515E+002, +1.64110638656E+002
+5.72640801001E+006, +1.73995837210E+002, +1.66951492343E+002
+5.85143929912E+006, +1.74720133130E+002, +1.71457154112E+002
+5.97647058824E+006, +1.73615748005E+002, +1.74394773696E+002
+6.10150187735E+006, +1.74343296029E+002, +1.78971202855E+002
+6.22653316646E+006, +1.75046353177E+002, +1.82499397901E+002
+6.35156445557E+006, +1.75213298969E+002, +1.85955500064E+002
+6.47659574468E+006, +1.75396446348E+002, +1.89704692870E+002
+6.60162703379E+006, +1.76092218830E+002, +1.93203214650E+002
+6.72665832290E+006, +1.76577789282E+002, +1.97233994113E+002
+6.85168961202E+006, +1.76803876390E+002, +2.00889284676E+002
+6.97672090113E+006, +1.76450049375E+002, +2.04927208362E+002
+7.10175219024E+006, +1.77324232218E+002, +2.08445434438E+002
+7.22678347935E+006, +1.77923126488E+002, +2.11657174898E+002
+7.35181476846E+006, +1.77881989663E+002, +2.16119933927E+002
+7.47684605757E+006, +1.78100693427E+002, +2.19773821508E+002
+7.60187734668E+006, +1.78173001241E+002, +2.23932619488E+002
+7.72690863579E+006, +1.78943352582E+002, +2.27115347675E+002
+7.85193992491E+006, +1.79081354223E+002, +2.31160012406E+002
+7.97697121402E+006, +1.79238154994E+002, +2.35410187960E+002
+8.10200250313E+006, +1.79525130988E+002, +2.39101543053E+002
+8.22703379224E+006, +1.79731067240E+002, +2.42918963380E+002
+8.35206508135E+006, +1.80027097248E+002, +2.46903878199E+002
+8.47709637046E+006, +1.80097776144E+002, +2.51458999355E+002
+8.60212765957E+006, +1.80361349948E+002, +2.54780692889E+002
+8.72715894869E+006, +1.80571954802E+002, +2.58095168039E+002
+8.85219023780E+006, +1.81262247597E+002, +2.61803975463E+002
+8.97722152691E+006, +1.81665014667E+002, +2.65975420805E+002
+9.10225281602E+006, +1.82504707126E+002, +2.70794624548E+002
+9.22728410513E+006, +1.83151739113E+002, +2.74532442944E+002
+9.35231539424E+006, +1.84481656196E+002, +2.79405926993E+002
+9.47734668335E+006, +1.83709683433E+002, +2.83087929750E+002
+9.60237797247E+006, +1.83694257945E+002, +2.86449503477E+002
+9.72740926158E+006, +1.84333202536E+002, +2.90220849888E+002
+9.85244055069E+006, +1.84302378614E+002, +2.94242495435E+002
+9.97747183980E+006, +1.84867968017E+002, +2.98522470462E+002
+1.01025031289E+007, +1.84782078071E+002, +3.02827062424E+002
+1.02275344180E+007, +1.85745705410E+002, +3.06801666156E+002
+1.03525657071E+007, +1.86522840779E+002, +3.11221717580E+002
+1.04775969962E+007, +1.86527371628E+002, +3.14669938097E+002
+1.06026282854E+007, +1.87297397267E+002, +3.18983458435E+002
+1.07276595745E+007, +1.87171603238E+002, +3.23184968023E+002
+1.08526908636E+007, +1.87809109773E+002, +3.27695885193E+002
+1.09777221527E+007, +1.88549818020E+002, +3.31888379959E+002
+1.11027534418E+007, +1.88710399988E+002, +3.36325278981E+002
+1.12277847309E+007, +1.89451085814E+002, +3.40428120492E+002
+1.13528160200E+007, +1.90427156482E+002, +3.45170354982E+002
+1.14778473091E+007, +1.91164280867E+002, +3.48939295743E+002
+1.16028785982E+007, +1.90734797802E+002, +3.52715901888E+002
+1.17279098874E+007, +1.90606446284E+002, +3.56706561647E+002
+1.18529411765E+007, +1.91975973009E+002, +3.62388389358E+002
+1.19779724656E+007, +1.91368156181E+002, +3.65963735964E+002
+1.21030037547E+007, +1.93389748445E+002, +3.71643846300E+002
+1.22280350438E+007, +1.93516111836E+002, +3.75297050301E+002
+1.23530663329E+007, +1.93139879456E+002, +3.79398304782E+002
+1.24780976220E+007, +1.94466331174E+002, +3.84183862459E+002
+1.26031289111E+007, +1.94445548623E+002, +3.88159182404E+002
+1.27281602003E+007, +1.94908493867E+002, +3.94185986186E+002
+1.28531914894E+007, +1.95917040608E+002, +3.97522472858E+002
+1.29782227785E+007, +1.96550559200E+002, +4.00539942343E+002
+1.31032540676E+007, +1.97247984782E+002, +4.07088257483E+002
+1.32282853567E+007, +1.98274852829E+002, +4.11534487208E+002
+1.33533166458E+007, +1.98958913591E+002, +4.14877004708E+002
+1.34783479349E+007, +1.99021611535E+002, +4.20846423504E+002
+1.36033792240E+007, +2.00351289642E+002, +4.25070400687E+002
+1.37284105131E+007, +2.00937257203E+002, +4.29657234964E+002
+1.38534418023E+007, +2.01580856502E+002, +4.33445562276E+002
+1.39784730914E+007, +2.02895554144E+002, +4.38301718772E+002
+1.41035043805E+007, +2.02710338382E+002, +4.43444821986E+002
+1.42285356696E+007, +2.02983561232E+002, +4.47532570983E+002
+1.43535669587E+007, +2.03478161844E+002, +4.51822905927E+002
+1.44785982478E+007, +2.04529831635E+002, +4.58418581667E+002
+1.46036295369E+007, +2.04506540582E+002, +4.61956982128E+002
+1.47286608260E+007, +2.06126909218E+002, +4.67727519785E+002
+1.48536921151E+007, +2.06092227522E+002, +4.72012531020E+002
+1.49787234043E+007, +2.06229040260E+002, +4.77845241961E+002
+1.51037546934E+007, +2.08410138839E+002, +4.82199058945E+002
+1.52287859825E+007, +2.09012781181E+002, +4.86345262682E+002
+1.53538172716E+007, +2.10681847210E+002, +4.92042804835E+002
+1.54788485607E+007, +2.09995610383E+002, +4.97282976224E+002
+1.56038798498E+007, +2.10949937066E+002, +5.02419681272E+002
+1.57289111389E+007, +2.11471833361E+002, +5.07220296334E+002
+1.58539424280E+007, +2.13781400741E+002, +5.11760850279E+002
+1.59789737171E+007, +2.15464947875E+002, +5.16941024740E+002
+1.61040050063E+007, +2.15894589200E+002, +5.21022280511E+002
+1.62290362954E+007, +2.14329357529E+002, +5.27391285206E+002
+1.63540675845E+007, +2.18793720015E+002, +5.32505514748E+002
+1.64790988736E+007, +2.18222465800E+002, +5.39224485131E+002
+1.66041301627E+007, +2.19379314957E+002, +5.43244887188E+002
+1.67291614518E+007, +2.19142766343E+002, +5.49538772833E+002
+1.68541927409E+007, +2.20004779259E+002, +5.55920957031E+002
+1.69792240300E+007, +2.21004246968E+002, +5.62258643179E+002
+1.71042553191E+007, +2.20901716534E+002, +5.69229087963E+002
+1.72292866083E+007, +2.21384947915E+002, +5.72862446494E+002
+1.73543178974E+007, +2.24741593615E+002, +5.77979559197E+002
+1.74793491865E+007, +2.24243939289E+002, +5.82355680712E+002
+1.76043804756E+007, +2.26904501094E+002, +5.88860084817E+002
+1.77294117647E+007, +2.27704266656E+002, +5.94095651169E+002
+1.78544430538E+007, +2.30427269231E+002, +6.00320247734E+002
+1.79794743429E+007, +2.30066260843E+002, +6.05374055379E+002
+1.81045056320E+007, +2.31707732972E+002, +6.11086958027E+002
+1.82295369212E+007, +2.32718527308E+002, +6.18365826050E+002
+1.83545682103E+007, +2.33732719520E+002, +6.22296653587E+002
+1.84795994994E+007, +2.36360534345E+002, +6.29035533740E+002
+1.86046307885E+007, +2.36093678690E+002, +6.34790565162E+002
+1.87296620776E+007, +2.38469693966E+002, +6.40726469194E+002
+1.88546933667E+007, +2.38116885495E+002, +6.46802630057E+002
+1.89797246558E+007, +2.39729435638E+002, +6.52533475757E+002
+1.91047559449E+007, +2.42732196329E+002, +6.56897341591E+002
+1.92297872340E+007, +2.43342880903E+002, +6.63399632217E+002
+1.93548185232E+007, +2.43988043055E+002, +6.69658850187E+002
+1.94798498123E+007, +2.47717705835E+002, +6.73948376028E+002
+1.96048811014E+007, +2.48362428672E+002, +6.82393364235E+002
+1.97299123905E+007, +2.48380548719E+002, +6.89911125905E+002
+1.98549436796E+007, +2.51550201484E+002, +6.95080996964E+002
+1.99799749687E+007, +2.52060610089E+002, +7.03370813205E+002
+2.01050062578E+007, +2.52582473309E+002, +7.09331888766E+002
+2.02300375469E+007, +2.55004452333E+002, +7.14918047399E+002
+2.03550688360E+007, +2.56811309330E+002, +7.21662887383E+002
+2.04801001252E+007, +2.58282356915E+002, +7.29957891981E+002
+2.06051314143E+007, +2.61517567146E+002, +7.36237245702E+002
+2.07301627034E+007, +2.62352353690E+002, +7.42099131464E+002
+2.08551939925E+007, +2.64310818775E+002, +7.46890613981E+002
+2.09802252816E+007, +2.65085848771E+002, +7.54555147125E+002
+2.11052565707E+007, +2.65765241073E+002, +7.60226025791E+002
+2.12302878598E+007, +2.71469103341E+002, +7.66408497449E+002
+2.13553191489E+007, +2.69789901117E+002, +7.74587500772E+002
+2.14803504380E+007, +2.71643940496E+002, +7.85307301869E+002
+2.16053817272E+007, +2.74203388641E+002, +7.90429372142E+002
+2.17304130163E+007, +2.77331982047E+002, +7.97435904709E+002
+2.18554443054E+007, +2.80745129541E+002, +8.02698891402E+002
+2.19804755945E+007, +2.83982468867E+002, +8.11224501587E+002
+2.21055068836E+007, +2.88194058459E+002, +8.20930109242E+002
+2.22305381727E+007, +2.85891369346E+002, +8.27126762021E+002
+2.23555694618E+007, +2.94386508876E+002, +8.32562496215E+002
+2.24806007509E+007, +2.92268722213E+002, +8.39150948646E+002
+2.26056320401E+007, +2.95935305121E+002, +8.46767857536E+002
+2.27306633292E+007, +2.98707691020E+002, +8.56417211926E+002
+2.28556946183E+007, +3.00058040959E+002, +8.62108367018E+002
+2.29807259074E+007, +3.03069321059E+002, +8.70671329149E+002
+2.31057571965E+007, +3.07151373656E+002, +8.77979508212E+002
+2.32307884856E+007, +3.11644147314E+002, +8.83435005290E+002
+2.33558197747E+007, +3.15267832519E+002, +8.92232433968E+002
+2.34808510638E+007, +3.18760782711E+002, +8.97642896987E+002
+2.36058823529E+007, +3.21333853733E+002, +9.03912019326E+002
+2.37309136421E+007, +3.27809603869E+002, +9.14121195795E+002
+2.38559449312E+007, +3.26764112136E+002, +9.17415360713E+002
+2.39809762203E+007, +3.29250400141E+002, +9.25964559355E+002
+2.41060075094E+007, +3.31224993733E+002, +9.36213699732E+002
+2.42310387985E+007, +3.34804695185E+002, +9.45294491774E+002
+2.43560700876E+007, +3.38130475218E+002, +9.45922308111E+002
+2.44811013767E+007, +3.41637800205E+002, +9.57286844804E+002
+2.46061326658E+007, +3.40197732556E+002, +9.63828727265E+002
+2.47311639549E+007, +3.45703587099E+002, +9.72026683125E+002
+2.48561952441E+007, +3.45934813770E+002, +9.77205412589E+002
+2.49812265332E+007, +3.45503177600E+002, +9.89572208154E+002
+2.51062578223E+007, +3.48625981028E+002, +9.95280688174E+002
+2.52312891114E+007, +3.48142647094E+002, +1.00735321430E+003
+2.53563204005E+007, +3.52915298761E+002, +1.01128168412E+003
+2.54813516896E+007, +3.56216919442E+002, +1.02219522782E+003
+2.56063829787E+007, +3.59105093771E+002, +1.03267726779E+003
+2.57314142678E+007, +3.64198126596E+002, +1.04199723400E+003
+2.58564455569E+007, +3.67369567187E+002, +1.05850424630E+003
+2.59814768461E+007, +3.74401191695E+002, +1.06847311699E+003
+2.61065081352E+007, +3.74932160231E+002, +1.08458748632E+003
+2.62315394243E+007, +3.79397737492E+002, +1.09302137925E+003
+2.63565707134E+007, +3.83024869089E+002, +1.10074889636E+003
+2.64816020025E+007, +3.85404448987E+002, +1.11730232595E+003
+2.66066332916E+007, +3.89773945256E+002, +1.12300417460E+003
+2.67316645807E+007, +3.92017877094E+002, +1.13163028845E+003
+2.68566958698E+007, +3.94497238056E+002, +1.14277403891E+003
+2.69817271589E+007, +4.04599328412E+002, +1.15009835087E+003
+2.71067584481E+007, +4.11191151789E+002, +1.15806590404E+003
+2.72317897372E+007, +4.15123878572E+002, +1.17217516918E+003
+2.73568210263E+007, +4.17995611178E+002, +1.17769379036E+003
+2.74818523154E+007, +4.15465486911E+002, +1.19946266578E+003
+2.76068836045E+007, +4.11652412068E+002, +1.20740796028E+003
+2.77319148936E+007, +4.23025316002E+002, +1.21884012377E+003
+2.78569461827E+007, +4.27358012940E+002, +1.23548238200E+003
+2.79819774718E+007, +4.32090392489E+002, +1.24701664596E+003
+2.81070087610E+007, +4.33826066355E+002, +1.25631901301E+003
+2.82320400501E+007, +4.37936706475E+002, +1.26750481426E+003
+2.83570713392E+007, +4.46816483251E+002, +1.28345437157E+003
+2.84821026283E+007, +4.60653883371E+002, +1.29881409685E+003
+2.86071339174E+007, +4.73572301803E+002, +1.30224053987E+003
+2.87321652065E+007, +4.63809815141E+002, +1.32161665050E+003
+2.88571964956E+007, +4.71602104551E+002, +1.33532303442E+003
+2.89822277847E+007, +4.81276467583E+002, +1.35459120255E+003
+2.91072590738E+007, +4.82956196774E+002, +1.36511570732E+003
+2.92322903630E+007, +4.84662815967E+002, +1.37775271928E+003
+2.93573216521E+007, +4.84635017503E+002, +1.39913420760E+003
+2.94823529412E+007, +4.96863689247E+002, +1.42120404273E+003
+2.96073842303E+007, +5.12910132832E+002, +1.43356762588E+003
+2.97324155194E+007, +5.11006363956E+002, +1.43822091786E+003
+2.98574468085E+007, +5.16808784066E+002, +1.45696518024E+003
+2.99824780976E+007, +5.29605393421E+002, +1.46854067238E+003
+3.01075093867E+007, +5.37152932786E+002, +1.48285099342E+003
+3.02325406758E+007, +5.39090563814E+002, +1.49907338006E+003
+3.03575719650E+007, +5.45224460359E+002, +1.52512190423E+003
+3.04826032541E+007, +5.72142094997E+002, +1.54040120581E+003
+3.06076345432E+007, +5.69654411187E+002, +1.56776377212E+003
+3.07326658323E+007, +5.79815429808E+002, +1.57716889986E+003
+3.08576971214E+007, +6.09346057354E+002, +1.59226823067E+003
+3.09827284105E+007, +6.10006216416E+002, +1.61202166399E+003
+3.11077596996E+007, +6.22381598806E+002, +1.62722827925E+003
+3.12327909887E+007, +6.23016506738E+002, +1.64688311161E+003
+3.13578222778E+007, +6.36972012539E+002, +1.66402777741E+003
+3.14828535670E+007, +6.48642788222E+002, +1.66992851829E+003
+3.16078848561E+007, +6.41013185052E+002, +1.68186992709E+003
+3.17329161452E+007, +6.54618325286E+002, +1.73390629111E+003
+3.18579474343E+007, +6.75825784508E+002, +1.74053748853E+003
+3.19829787234E+007, +6.89124421933E+002, +1.76117219723E+003
+3.21080100125E+007, +6.85302262347E+002, +1.78426032144E+003
+3.22330413016E+007, +7.16301982953E+002, +1.80433725014E+003
+3.23580725907E+007, +7.24764477554E+002, +1.82423123929E+003
+3.24831038798E+007, +7.43763326798E+002, +1.84482582859E+003
+3.26081351690E+007, +7.46438938671E+002, +1.85810829687E+003
+3.27331664581E+007, +7.66131731757E+002, +1.89650940572E+003
+3.28581977472E+007, +7.71081936919E+002, +1.90482771722E+003
+3.29832290363E+007, +7.80878929884E+002, +1.93834197644E+003
+3.31082603254E+007, +7.97095781016E+002, +1.98179760111E+003
+3.32332916145E+007, +8.14355457161E+002, +1.99063695021E+003
+3.33583229036E+007, +8.35520950875E+002, +2.02261624915E+003
+3.34833541927E+007, +8.61927815469E+002, +2.06782221975E+003
+3.36083854819E+007, +8.66670534794E+002, +2.08683675948E+003
+3.37334167710E+007, +8.99543988694E+002, +2.12199518704E+003
+3.38584480601E+007, +9.23084323708E+002, +2.13538241494E+003
+3.39834793492E+007, +9.58226158731E+002, +2.13250861822E+003
+3.41085106383E+007, +9.71410039521E+002, +2.20325041012E+003
+3.42335419274E+007, +9.82122729877E+002, +2.21724578747E+003
+3.43585732165E+007, +9.93952193781E+002, +2.24169849313E+003
+3.44836045056E+007, +1.03567217147E+003, +2.29851383037E+003
+3.46086357947E+007, +1.07048544356E+003, +2.29512558432E+003
+3.47336670839E+007, +1.08633584818E+003, +2.33919989577E+003
+3.48586983730E+007, +1.09114343899E+003, +2.35066658723E+003
+3.49837296621E+007, +1.14207795774E+003, +2.41025938062E+003
+3.51087609512E+007, +1.15017501482E+003, +2.43484113827E+003
+3.52337922403E+007, +1.20981605521E+003, +2.47279249210E+003
+3.53588235294E+007, +1.27578210527E+003, +2.52485905175E+003
+3.54838548185E+007, +1.29486192263E+003, +2.58273488649E+003
+3.56088861076E+007, +1.34323931654E+003, +2.60435174826E+003
+3.57339173967E+007, +1.37120858571E+003, +2.63173418600E+003
+3.58589486859E+007, +1.43255125197E+003, +2.70669618772E+003
+3.59839799750E+007, +1.44298013651E+003, +2.72878892401E+003
+3.61090112641E+007, +1.51383078162E+003, +2.78519443687E+003
+3.62340425532E+007, +1.58521321337E+003, +2.80465073331E+003
+3.63590738423E+007, +1.57804643794E+003, +2.77889082426E+003
+3.64841051314E+007, +1.63887026878E+003, +2.85605900497E+003
+3.66091364205E+007, +1.68105793343E+003, +2.82391238797E+003
+3.67341677096E+007, +1.73790464463E+003, +2.90804577851E+003
+3.68591989987E+007, +1.73848313818E+003, +2.97079825712E+003
+3.69842302879E+007, +1.83849199169E+003, +3.00741789280E+003
+3.71092615770E+007, +1.89855971205E+003, +3.05350398923E+003
+3.72342928661E+007, +1.98556449306E+003, +3.15112492890E+003
+3.73593241552E+007, +2.10323184706E+003, +3.12071814495E+003
+3.74843554443E+007, +2.15997275000E+003, +3.18958653680E+003
+3.76093867334E+007, +2.23335705733E+003, +3.23363061427E+003
+3.77344180225E+007, +2.27789051237E+003, +3.24913936157E+003
+3.78594493116E+007, +2.44216754281E+003, +3.34823353270E+003
+3.79844806008E+007, +2.50405255665E+003, +3.34633202102E+003
+3.81095118899E+007, +2.66645507970E+003, +3.39682988277E+003
+3.82345431790E+007, +2.70449816630E+003, +3.41877884708E+003
+3.83595744681E+007, +2.82957909108E+003, +3.49613898783E+003
+3.84846057572E+007, +3.01329817352E+003, +3.47968039929E+003
+3.86096370463E+007, +3.06821506130E+003, +3.52539057018E+003
+3.87346683354E+007, +3.19686203084E+003, +3.48369552140E+003
+3.88596996245E+007, +3.43665840279E+003, +3.51067995677E+003
+3.89847309136E+007, +3.47989708561E+003, +3.55398860726E+003
+3.91097622028E+007, +3.63415377863E+003, +3.63985122868E+003
+3.92347934919E+007, +3.80546262120E+003, +3.57406894777E+003
+3.93598247810E+007, +3.93453908347E+003, +3.54434088905E+003
+3.94848560701E+007, +4.10235904620E+003, +3.52660078623E+003
+3.96098873592E+007, +4.33426532143E+003, +3.58178199947E+003
+3.97349186483E+007, +4.49618931949E+003, +3.48730201457E+003
+3.98599499374E+007, +4.63070776684E+003, +3.49067449662E+003
+3.99849812265E+007, +4.95439913116E+003, +3.49023418193E+003
+4.01100125156E+007, +5.19057556799E+003, +3.37926219506E+003
