"# Channel 1"
"# Trace 1"
Frequency, Formatted Data, Formatted Data
+1.00000000000E+005, +7.85953698126E+001, +7.23843509773E-001
+2.25031289111E+005, +7.84615676799E+001, +2.80423526841E+000
+3.50062578223E+005, +7.85121149671E+001, +4.41487274117E+000
+4.75093867334E+005, +7.85428346200E+001, +6.06870763582E+000
+6.00125156446E+005, +7.85299980168E+001, +7.63362000756E+000
+7.25156445557E+005, +7.84761856767E+001, +9.18590853316E+000
+8.50187734668E+005, +7.85851083214E+001, +1.07934966305E+001
+9.75219023780E+005, +7.85553118754E+001, +1.24629765468E+001
+1.10025031289E+006, +7.86522286257E+001, +1.39347412039E+001
+1.22528160200E+006, +7.87089024326E+001, +1.55691477222E+001
+1.35031289111E+006, +7.85794029890E+001, +1.70864043559E+001
+1.47534418023E+006, +7.85857292260E+001, +1.87557540792E+001
+1.60037546934E+006, +7.86446775168E+001, +2.02105971150E+001
+1.72540675845E+006, +7.86399185180E+001, +2.17753870574E+001
+1.85043804756E+006, +7.87316407185E+001, +2.33589317896E+001
+1.97546933667E+006, +7.87379940305E+001, +2.50532973336E+001
+2.10050062578E+006, +7.87891890075E+001, +2.65555899764E+001
+2.22553191489E+006, +7.87224090097E+001, +2.81826080794E+001
+2.35056320401E+006, +7.88179616596E+001, +2.98310058804E+001
+2.47559449312E+006, +7.88785131895E+001, +3.13352548821E+001
+2.60062578223E+006, +7.88721963023E+001, +3.29187274351E+001
+2.72565707134E+006, +7.88810636094E+001, +3.44225265897E+001
+2.85068836045E+006, +7.88831001025E+001, +3.58898139623E+001
+2.97571964956E+006, +7.88514762566E+001, +3.76120876319E+001
+3.10075093867E+006, +7.90189349183E+001, +3.91416344422E+001
+3.22578222778E+006, +7.88695313015E+001, +4.06793481093E+001
+3.35081351690E+006, +7.88952346168E+001, +4.23498242955E+001
+3.47584480601E+006, +7.89047752833E+001, +4.38320284585E+001
+3.60087609512E+006, +7.89817837010E+001, +4.55095811418E+001
+3.72590738423E+006, +7.90248583427E+001, +4.70785572642E+001
+3.85093867334E+006, +7.89842100681E+001, +4.86609189114E+001
+3.97596996245E+006, +7.89026605761E+001, +5.01244371559E+001
+4.10100125156E+006, +7.88207721998E+001, +5.19403806396E+001
+4.22603254068E+006, +7.92297367228E+001, +5.34470547666E+001
+4.35106382979E+006, +7.90250274768E+001, +5.49729406109E+001
+4.47609511890E+006, +7.90888542573E+001, +5.66716884093E+001
+4.60112640801E+006, +7.92551520791E+001, +5.80570213594E+001
+4.72615769712E+006, +7.92424373756E+001, +5.97245929664E+001
+4.85118898623E+006, +7.91801899897E+001, +6.13315778750E+001
+4.97622027534E+006, +7.93917345495E+001, +6.28686508060E+001
+5.10125156446E+006, +7.92951490959E+001, +6.43973361004E+001
+5.22628285357E+006, +7.92400798634E+001, +6.60085712098E+001
+5.35131414268E+006, +7.92796493978E+001, +6.76017283108E+001
+5.47634543179E+006, +7.94788663873E+001, +6.93377493654E+001
+5.60137672090E+006, +7.92915712500E+001, +7.08778458536E+001
+5.72640801001E+006, +7.94981468342E+001, +7.22468679844E+001
+5.85143929912E+006, +7.96312564780E+001, +7.39021077315E+001
+5.97647058824E+006, +7.94627986740E+001, +7.54519145039E+001
+6.10150187735E+006, +7.95545423870E+001, +7.70355890291E+001
+6.22653316646E+006, +7.97349646315E+001, +7.87875487881E+001
+6.35156445557E+006, +7.95361883301E+001, +8.03330981800E+001
+6.47659574468E+006, +7.96016349309E+001, +8.19171986442E+001
+6.60162703379E+006, +7.97218761829E+001, +8.33785801698E+001
+6.72665832290E+006, +7.97183196536E+001, +8.50775693559E+001
+6.85168961202E+006, +7.97002308600E+001, +8.66559769997E+001
+6.97672090113E+006, +7.98250162992E+001, +8.82558947534E+001
+7.10175219024E+006, +7.97777200611E+001, +8.97960850351E+001
+7.22678347935E+006, +7.98029943832E+001, +9.14370397501E+001
+7.35181476846E+006, +7.99660868645E+001, +9.30257208121E+001
+7.47684605757E+006, +7.99770794474E+001, +9.45186041471E+001
+7.60187734668E+006, +8.00677440134E+001, +9.61178187233E+001
+7.72690863579E+006, +8.00500866379E+001, +9.78717116115E+001
+7.85193992491E+006, +8.01098112186E+001, +9.94386536327E+001
+7.97697121402E+006, +8.00578742851E+001, +1.00982593314E+002
+8.10200250313E+006, +8.02135391643E+001, +1.02674292284E+002
+8.22703379224E+006, +8.02119025473E+001, +1.04263528119E+002
+8.35206508135E+006, +8.03746705856E+001, +1.05864651091E+002
+8.47709637046E+006, +8.03963190151E+001, +1.07636975300E+002
+8.60212765957E+006, +8.03160996974E+001, +1.09144834525E+002
+8.72715894869E+006, +8.03427894250E+001, +1.10715859782E+002
+8.85219023780E+006, +8.04630088844E+001, +1.12445969953E+002
+8.97722152691E+006, +8.04242850351E+001, +1.13945182296E+002
+9.10225281602E+006, +8.05816287108E+001, +1.15634074957E+002
+9.22728410513E+006, +8.04269097734E+001, +1.17138667242E+002
+9.35231539424E+006, +8.06442370063E+001, +1.18729612963E+002
+9.47734668335E+006, +8.04950622398E+001, +1.20541174568E+002
+9.60237797247E+006, +8.06778009397E+001, +1.22028377088E+002
+9.72740926158E+006, +8.07982145309E+001, +1.23693605238E+002
+9.85244055069E+006, +8.07416206314E+001, +1.25351210913E+002
+9.97747183980E+006, +8.08497992611E+001, +1.26975359457E+002
+1.01025031289E+007, +8.08775984470E+001, +1.28495360697E+002
+1.02275344180E+007, +8.10458361747E+001, +1.30234839664E+002
+1.03525657071E+007, +8.10511292601E+001, +1.31977538571E+002
+1.04775969962E+007, +8.10078946522E+001, +1.33786181696E+002
+1.06026282854E+007, +8.11252230468E+001, +1.35120888289E+002
+1.07276595745E+007, +8.12114542583E+001, +1.36877640628E+002
+1.08526908636E+007, +8.12639051687E+001, +1.38453787654E+002
+1.09777221527E+007, +8.13440247459E+001, +1.39956831255E+002
+1.11027534418E+007, +8.13778616889E+001, +1.41803721251E+002
+1.12277847309E+007, +8.14055670270E+001, +1.43450478808E+002
+1.13528160200E+007, +8.14164238844E+001, +1.45116749070E+002
+1.14778473091E+007, +8.15185280573E+001, +1.46519577392E+002
+1.16028785982E+007, +8.14659434493E+001, +1.48382555106E+002
+1.17279098874E+007, +8.17037371868E+001, +1.49696581401E+002
+1.18529411765E+007, +8.17702345029E+001, +1.51741841928E+002
+1.19779724656E+007, +8.16507088629E+001, +1.53314382896E+002
+1.21030037547E+007, +8.19059411129E+001, +1.55054982140E+002
+1.22280350438E+007, +8.19812500697E+001, +1.56637473766E+002
+1.23530663329E+007, +8.20092815329E+001, +1.58384613035E+002
+1.24780976220E+007, +8.21213864168E+001, +1.60035819873E+002
+1.26031289111E+007, +8.20210262253E+001, +1.61542645434E+002
+1.27281602003E+007, +8.21730634676E+001, +1.63448810315E+002
+1.28531914894E+007, +8.24389497235E+001, +1.65110333985E+002
+1.29782227785E+007, +8.22681172764E+001, +1.66743659173E+002
+1.31032540676E+007, +8.23794689829E+001, +1.68379694769E+002
+1.32282853567E+007, +8.24633201541E+001, +1.70030646804E+002
+1.33533166458E+007, +8.24967618773E+001, +1.72048762581E+002
+1.34783479349E+007, +8.26808849178E+001, +1.73368688375E+002
+1.36033792240E+007, +8.24831163683E+001, +1.75103779148E+002
+1.37284105131E+007, +8.26992736870E+001, +1.76969550021E+002
+1.38534418023E+007, +8.29024638410E+001, +1.78512012225E+002
+1.39784730914E+007, +8.28521069803E+001, +1.80205071322E+002
+1.41035043805E+007, +8.28885258495E+001, +1.81821292650E+002
+1.42285356696E+007, +8.32252928163E+001, +1.83673394128E+002
+1.43535669587E+007, +8.32043588395E+001, +1.85081783307E+002
+1.44785982478E+007, +8.32363526785E+001, +1.86886543944E+002
+1.46036295369E+007, +8.33827178106E+001, +1.89059329112E+002
+1.47286608260E+007, +8.33475829459E+001, +1.90497288744E+002
+1.48536921151E+007, +8.37631658264E+001, +1.92054289816E+002
+1.49787234043E+007, +8.34980626014E+001, +1.93893338459E+002
+1.51037546934E+007, +8.37822297619E+001, +1.95454030712E+002
+1.52287859825E+007, +8.37874647166E+001, +1.97415400472E+002
+1.53538172716E+007, +8.37012797306E+001, +1.98961366593E+002
+1.54788485607E+007, +8.40075113185E+001, +2.00606856030E+002
+1.56038798498E+007, +8.42749991619E+001, +2.02581882465E+002
+1.57289111389E+007, +8.40124702749E+001, +2.04138175603E+002
+1.58539424280E+007, +8.42753384181E+001, +2.06102702329E+002
+1.59789737171E+007, +8.40831032271E+001, +2.07618251956E+002
+1.61040050063E+007, +8.41575695606E+001, +2.09353323674E+002
+1.62290362954E+007, +8.44521957564E+001, +2.11253829344E+002
+1.63540675845E+007, +8.43745650074E+001, +2.12772829435E+002
+1.64790988736E+007, +8.41436840372E+001, +2.14492171260E+002
+1.66041301627E+007, +8.44772510866E+001, +2.16513139869E+002
+1.67291614518E+007, +8.46983646289E+001, +2.18165763613E+002
+1.68541927409E+007, +8.49069010540E+001, +2.19750982687E+002
+1.69792240300E+007, +8.49358448029E+001, +2.21644583757E+002
+1.71042553191E+007, +8.45984334795E+001, +2.23701097733E+002
+1.72292866083E+007, +8.46896002211E+001, +2.25381032510E+002
+1.73543178974E+007, +8.50234989304E+001, +2.27004155349E+002
+1.74793491865E+007, +8.48823016198E+001, +2.28639094241E+002
+1.76043804756E+007, +8.53651563473E+001, +2.30547159271E+002
+1.77294117647E+007, +8.57302889449E+001, +2.32295500072E+002
+1.78544430538E+007, +8.56193749645E+001, +2.34182188354E+002
+1.79794743429E+007, +8.56379970390E+001, +2.36051195623E+002
+1.81045056320E+007, +8.59587901233E+001, +2.37619439554E+002
+1.82295369212E+007, +8.59108286775E+001, +2.39687615414E+002
+1.83545682103E+007, +8.60831931518E+001, +2.41177242362E+002
+1.84795994994E+007, +8.63536588545E+001, +2.42817669239E+002
+1.86046307885E+007, +8.66552829006E+001, +2.44835111373E+002
+1.87296620776E+007, +8.67326455116E+001, +2.46613802751E+002
+1.88546933667E+007, +8.67119847110E+001, +2.48308212102E+002
+1.89797246558E+007, +8.67600789208E+001, +2.50015268252E+002
+1.91047559449E+007, +8.64869096310E+001, +2.52051851819E+002
+1.92297872340E+007, +8.68311714344E+001, +2.53932954909E+002
+1.93548185232E+007, +8.68056082912E+001, +2.55676794690E+002
+1.94798498123E+007, +8.72603389047E+001, +2.57031562887E+002
+1.96048811014E+007, +8.72218890453E+001, +2.59179574798E+002
+1.97299123905E+007, +8.74369609055E+001, +2.61140623906E+002
+1.98549436796E+007, +8.75576101450E+001, +2.62748409267E+002
+1.99799749687E+007, +8.74557727369E+001, +2.64764856129E+002
+2.01050062578E+007, +8.78666707115E+001, +2.66870493770E+002
+2.02300375469E+007, +8.79385378730E+001, +2.68723318303E+002
+2.03550688360E+007, +8.83056597398E+001, +2.70249091676E+002
+2.04801001252E+007, +8.81942634087E+001, +2.72470586495E+002
+2.06051314143E+007, +8.83005419267E+001, +2.73800499135E+002
+2.07301627034E+007, +8.83660805427E+001, +2.76238419911E+002
+2.08551939925E+007, +8.86743186381E+001, +2.77640273149E+002
+2.09802252816E+007, +8.90365029386E+001, +2.79925483851E+002
+2.11052565707E+007, +8.85569540713E+001, +2.81491335017E+002
+2.12302878598E+007, +8.90414472923E+001, +2.83527239997E+002
+2.13553191489E+007, +8.91669306606E+001, +2.85378547133E+002
+2.14803504380E+007, +8.93532236077E+001, +2.87186361799E+002
+2.16053817272E+007, +8.92390834498E+001, +2.88863910368E+002
+2.17304130163E+007, +8.92090129200E+001, +2.90993063610E+002
+2.18554443054E+007, +8.96778231994E+001, +2.93047104969E+002
+2.19804755945E+007, +8.96308794966E+001, +2.94574222472E+002
+2.21055068836E+007, +8.95952780242E+001, +2.96882019605E+002
+2.22305381727E+007, +9.03874455746E+001, +2.98545508838E+002
+2.23555694618E+007, +9.02684486223E+001, +3.00089520393E+002
+2.24806007509E+007, +9.05954178170E+001, +3.02302664149E+002
+2.26056320401E+007, +9.03832946312E+001, +3.04304051863E+002
+2.27306633292E+007, +9.12684140517E+001, +3.05920553509E+002
+2.28556946183E+007, +9.11117030074E+001, +3.08076680038E+002
+2.29807259074E+007, +9.15307853697E+001, +3.09911133820E+002
+2.31057571965E+007, +9.14954342368E+001, +3.11902399703E+002
+2.32307884856E+007, +9.18729175704E+001, +3.13803179983E+002
+2.33558197747E+007, +9.18726452541E+001, +3.15543260848E+002
+2.34808510638E+007, +9.27280446863E+001, +3.17513005025E+002
+2.36058823529E+007, +9.17735095449E+001, +3.19654503417E+002
+2.37309136421E+007, +9.22941410906E+001, +3.21073869315E+002
+2.38559449312E+007, +9.24821113195E+001, +3.23493287608E+002
+2.39809762203E+007, +9.32504918219E+001, +3.25583078308E+002
+2.41060075094E+007, +9.24186499041E+001, +3.28302644668E+002
+2.42310387985E+007, +9.31010061851E+001, +3.28718716892E+002
+2.43560700876E+007, +9.32116268952E+001, +3.30961521357E+002
+2.44811013767E+007, +9.32241237941E+001, +3.33326935491E+002
+2.46061326658E+007, +9.32167621404E+001, +3.35158786275E+002
+2.47311639549E+007, +9.37859311082E+001, +3.36695904866E+002
+2.48561952441E+007, +9.39613523801E+001, +3.38511628387E+002
+2.49812265332E+007, +9.42818498444E+001, +3.40312714321E+002
+2.51062578223E+007, +9.38339030212E+001, +3.42987973575E+002
+2.52312891114E+007, +9.46518601599E+001, +3.44479179044E+002
+2.53563204005E+007, +9.47592862712E+001, +3.46710113384E+002
+2.54813516896E+007, +9.46954846393E+001, +3.48330273229E+002
+2.56063829787E+007, +9.46448215411E+001, +3.51023784191E+002
+2.57314142678E+007, +9.47569941426E+001, +3.52304888187E+002
+2.58564455569E+007, +9.58199804623E+001, +3.54799159573E+002
+2.59814768461E+007, +9.52016516907E+001, +3.56745588368E+002
+2.61065081352E+007, +9.56208286042E+001, +3.58612274558E+002
+2.62315394243E+007, +9.57800972924E+001, +3.60606384724E+002
+2.63565707134E+007, +9.58798521809E+001, +3.62526901840E+002
+2.64816020025E+007, +9.65352346175E+001, +3.65285870957E+002
+2.66066332916E+007, +9.62161551767E+001, +3.66650023281E+002
+2.67316645807E+007, +9.61705044057E+001, +3.69843780116E+002
+2.68566958698E+007, +9.64714020800E+001, +3.71453498888E+002
+2.69817271589E+007, +9.71306521470E+001, +3.73336065854E+002
+2.71067584481E+007, +9.70884844940E+001, +3.75520858325E+002
+2.72317897372E+007, +9.71292621589E+001, +3.77603237874E+002
+2.73568210263E+007, +9.71795704483E+001, +3.80325958783E+002
+2.74818523154E+007, +9.75402953417E+001, +3.81529056588E+002
+2.76068836045E+007, +9.69969495214E+001, +3.84567455702E+002
+2.77319148936E+007, +9.77195787769E+001, +3.86213663806E+002
+2.78569461827E+007, +9.88207341753E+001, +3.88347031168E+002
+2.79819774718E+007, +9.88767877144E+001, +3.90462416528E+002
+2.81070087610E+007, +9.74916847146E+001, +3.92266020506E+002
+2.82320400501E+007, +9.77133424942E+001, +3.95408150660E+002
+2.83570713392E+007, +9.84014409550E+001, +3.96483238570E+002
+2.84821026283E+007, +9.85125246767E+001, +3.99564058564E+002
+2.86071339174E+007, +9.88992838368E+001, +4.01780079965E+002
+2.87321652065E+007, +9.99230331766E+001, +4.03655767984E+002
+2.88571964956E+007, +9.91703168543E+001, +4.05150287122E+002
+2.89822277847E+007, +1.00476931926E+002, +4.07075898834E+002
+2.91072590738E+007, +9.97830236288E+001, +4.10289547217E+002
+2.92322903630E+007, +1.00308539741E+002, +4.12126427482E+002
+2.93573216521E+007, +1.01000742730E+002, +4.15218474198E+002
+2.94823529412E+007, +1.00177708996E+002, +4.16935575126E+002
+2.96073842303E+007, +1.00547552010E+002, +4.18774192522E+002
+2.97324155194E+007, +1.00322035264E+002, +4.22155949425E+002
+2.98574468085E+007, +1.00220380590E+002, +4.23542784847E+002
+2.99824780976E+007, +1.02057295256E+002, +4.25433739089E+002
+3.01075093867E+007, +1.02172602910E+002, +4.27557685047E+002
+3.02325406758E+007, +1.01434866716E+002, +4.29677280857E+002
+3.03575719650E+007, +1.02473595633E+002, +4.32055803227E+002
+3.04826032541E+007, +1.02786074369E+002, +4.35504080510E+002
+3.06076345432E+007, +1.03395326758E+002, +4.37425603566E+002
+3.07326658323E+007, +1.02693677243E+002, +4.38579955034E+002
+3.08576971214E+007, +1.03739734138E+002, +4.42640276665E+002
+3.09827284105E+007, +1.03428888636E+002, +4.43232006272E+002
+3.11077596996E+007, +1.02880513774E+002, +4.46495025566E+002
+3.12327909887E+007, +1.03305167416E+002, +4.48756957290E+002
+3.13578222778E+007, +1.03617543836E+002, +4.51976975387E+002
+3.14828535670E+007, +1.04389760199E+002, +4.53909354074E+002
+3.16078848561E+007, +1.04689971783E+002, +4.54747819627E+002
+3.17329161452E+007, +1.03916269291E+002, +4.57352185608E+002
+3.18579474343E+007, +1.04963271091E+002, +4.61585618412E+002
+3.19829787234E+007, +1.03588163926E+002, +4.62050658876E+002
+3.21080100125E+007, +1.04348919128E+002, +4.65764890657E+002
+3.22330413016E+007, +1.04313980166E+002, +4.67795778178E+002
+3.23580725907E+007, +1.06252644633E+002, +4.70888634813E+002
+3.24831038798E+007, +1.06306946714E+002, +4.72760158882E+002
+3.26081351690E+007, +1.06986693396E+002, +4.75789815615E+002
+3.27331664581E+007, +1.06051920401E+002, +4.77466469794E+002
+3.28581977472E+007, +1.06772504851E+002, +4.79397328262E+002
+3.29832290363E+007, +1.06683662785E+002, +4.82949819399E+002
+3.31082603254E+007, +1.07174168414E+002, +4.84999135091E+002
+3.32332916145E+007, +1.06128370671E+002, +4.87426872289E+002
+3.33583229036E+007, +1.07876765010E+002, +4.89759382110E+002
+3.34833541927E+007, +1.07354570570E+002, +4.93288655642E+002
+3.36083854819E+007, +1.08644633435E+002, +4.94757225916E+002
+3.37334167710E+007, +1.08875733429E+002, +4.97771477961E+002
+3.38584480601E+007, +1.08319351937E+002, +5.00707205156E+002
+3.39834793492E+007, +1.08608805423E+002, +5.03897737213E+002
+3.41085106383E+007, +1.08273107743E+002, +5.03864024802E+002
+3.42335419274E+007, +1.10065615206E+002, +5.07074051891E+002
+3.43585732165E+007, +1.09813055522E+002, +5.10013488676E+002
+3.44836045056E+007, +1.11184641619E+002, +5.12763311132E+002
+3.46086357947E+007, +1.10012461907E+002, +5.16144636466E+002
+3.47336670839E+007, +1.11738368015E+002, +5.17255125721E+002
+3.48586983730E+007, +1.10927229282E+002, +5.20393318716E+002
+3.49837296621E+007, +1.12572303333E+002, +5.22039419513E+002
+3.51087609512E+007, +1.10383078732E+002, +5.25802590449E+002
+3.52337922403E+007, +1.12687546735E+002, +5.27065264103E+002
+3.53588235294E+007, +1.12131367839E+002, +5.31053805272E+002
+3.54838548185E+007, +1.11706299960E+002, +5.33026384192E+002
+3.56088861076E+007, +1.11916177732E+002, +5.35979871832E+002
+3.57339173967E+007, +1.13700887966E+002, +5.38897754227E+002
+3.58589486859E+007, +1.13597637102E+002, +5.42653759512E+002
+3.59839799750E+007, +1.16809686209E+002, +5.44037195956E+002
+3.61090112641E+007, +1.13240982935E+002, +5.46252615468E+002
+3.62340425532E+007, +1.14822819358E+002, +5.50336880854E+002
+3.63590738423E+007, +1.16240732307E+002, +5.53007573486E+002
+3.64841051314E+007, +1.14733951818E+002, +5.54929922616E+002
+3.66091364205E+007, +1.14659532996E+002, +5.56959331160E+002
+3.67341677096E+007, +1.16409845101E+002, +5.61238082863E+002
+3.68591989987E+007, +1.16701899738E+002, +5.64935845673E+002
+3.69842302879E+007, +1.16683683121E+002, +5.66088473859E+002
+3.71092615770E+007, +1.17279570737E+002, +5.70017940493E+002
+3.72342928661E+007, +1.16635009709E+002, +5.71583679671E+002
+3.73593241552E+007, +1.19335763557E+002, +5.75421502759E+002
+3.74843554443E+007, +1.17205763767E+002, +5.78115234089E+002
+3.76093867334E+007, +1.19054034448E+002, +5.79892203190E+002
+3.77344180225E+007, +1.19381037473E+002, +5.83512079312E+002
+3.78594493116E+007, +1.20089786177E+002, +5.86149803409E+002
+3.79844806008E+007, +1.19495919011E+002, +5.88215855512E+002
+3.81095118899E+007, +1.19366663377E+002, +5.91652396409E+002
+3.82345431790E+007, +1.20989256234E+002, +5.94700119488E+002
+3.83595744681E+007, +1.21316518435E+002, +5.97244362295E+002
+3.84846057572E+007, +1.21201514976E+002, +6.00165910556E+002
+3.86096370463E+007, +1.20030275101E+002, +6.04611074017E+002
+3.87346683354E+007, +1.22577236276E+002, +6.07125478577E+002
+3.88596996245E+007, +1.23309656271E+002, +6.08697342224E+002
+3.89847309136E+007, +1.23776199541E+002, +6.12078447292E+002
+3.91097622028E+007, +1.24767939031E+002, +6.16831361389E+002
+3.92347934919E+007, +1.23725517195E+002, +6.19023485390E+002
+3.93598247810E+007, +1.24500694712E+002, +6.22712204893E+002
+3.94848560701E+007, +1.25915289462E+002, +6.24455971644E+002
+3.96098873592E+007, +1.25216446657E+002, +6.28029837380E+002
+3.97349186483E+007, +1.27007283426E+002, +6.30716212476E+002
+3.98599499374E+007, +1.26401693433E+002, +6.32400436341E+002
+3.99849812265E+007, +1.27204604278E+002, +6.38130169930E+002
+4.01100125156E+007, +1.27182493085E+002, +6.40118752748E+002
