"# Channel 1"
"# Trace 1"
Frequency, Formatted Data, Formatted Data
+1.00000000000E+005, +1.60787576016E+002, +1.23437178846E-001
+2.25031289111E+005, +1.60028926453E+002, +5.47304275868E+000
+3.50062578223E+005, +1.59934701445E+002, +8.81530812604E+000
+4.75093867334E+005, +1.60101793123E+002, +1.21769507153E+001
+6.00125156446E+005, +1.60053420635E+002, +1.54176707042E+001
+7.25156445557E+005, +1.60004982490E+002, +1.84693564563E+001
+8.50187734668E+005, +1.60322844801E+002, +2.16957490206E+001
+9.75219023780E+005, +1.60218545879E+002, +2.50291352151E+001
+1.10025031289E+006, +1.60439002335E+002, +2.80549551517E+001
+1.22528160200E+006, +1.60464108148E+002, +3.15461404697E+001
+1.35031289111E+006, +1.60681732031E+002, +3.44898524689E+001
+1.47534418023E+006, +1.60465797148E+002, +3.77532340371E+001
+1.60037546934E+006, +1.60347424413E+002, +4.05293777321E+001
+1.72540675845E+006, +1.60884004977E+002, +4.36725314738E+001
+1.85043804756E+006, +1.60642633248E+002, +4.74788534157E+001
+1.97546933667E+006, +1.60846212375E+002, +5.04535240086E+001
+2.10050062578E+006, +1.60845470928E+002, +5.35708772207E+001
+2.22553191489E+006, +1.60996577861E+002, +5.70008228073E+001
+2.35056320401E+006, +1.61343284384E+002, +6.02878182935E+001
+2.47559449312E+006, +1.61377787472E+002, +6.34884849068E+001
+2.60062578223E+006, +1.61070628832E+002, +6.64428484996E+001
+2.72565707134E+006, +1.61334972135E+002, +6.98525167943E+001
+2.85068836045E+006, +1.61022228741E+002, +7.31658159393E+001
+2.97571964956E+006, +1.61802298489E+002, +7.62739880359E+001
+3.10075093867E+006, +1.61524824902E+002, +7.93392321399E+001
+3.22578222778E+006, +1.61538316771E+002, +8.24451872668E+001
+3.35081351690E+006, +1.61423255956E+002, +8.61550735767E+001
+3.47584480601E+006, +1.61681343577E+002, +8.87867755361E+001
+3.60087609512E+006, +1.61947790480E+002, +9.23381180454E+001
+3.72590738423E+006, +1.61986137927E+002, +9.52062531616E+001
+3.85093867334E+006, +1.61764891684E+002, +9.82001570827E+001
+3.97596996245E+006, +1.61895664004E+002, +1.01256312195E+002
+4.10100125156E+006, +1.61287586161E+002, +1.05549559987E+002
+4.22603254068E+006, +1.63122943486E+002, +1.09026679185E+002
+4.35106382979E+006, +1.62459583966E+002, +1.11655195364E+002
+4.47609511890E+006, +1.62547531579E+002, +1.15155387945E+002
+4.60112640801E+006, +1.62870306947E+002, +1.17852582915E+002
+4.72615769712E+006, +1.62832228109E+002, +1.21292766538E+002
+4.85118898623E+006, +1.63283374179E+002, +1.24637914663E+002
+4.97622027534E+006, +1.63565074649E+002, +1.27573524013E+002
+5.10125156446E+006, +1.62895037031E+002, +1.31106862018E+002
+5.22628285357E+006, +1.63162441359E+002, +1.34105010086E+002
+5.35131414268E+006, +1.63876400409E+002, +1.37644172050E+002
+5.47634543179E+006, +1.64273161501E+002, +1.40691310530E+002
+5.60137672090E+006, +1.64042791156E+002, +1.43631176230E+002
+5.72640801001E+006, +1.64196314738E+002, +1.47126086836E+002
+5.85143929912E+006, +1.64243539994E+002, +1.50019900637E+002
+5.97647058824E+006, +1.64188666428E+002, +1.53758761131E+002
+6.10150187735E+006, +1.64505306836E+002, +1.57381776407E+002
+6.22653316646E+006, +1.65474038629E+002, +1.60130419485E+002
+6.35156445557E+006, +1.65079665915E+002, +1.63462620715E+002
+6.47659574468E+006, +1.65162592880E+002, +1.66845758651E+002
+6.60162703379E+006, +1.65503161401E+002, +1.69888073718E+002
+6.72665832290E+006, +1.65506750706E+002, +1.73464333402E+002
+6.85168961202E+006, +1.65603592688E+002, +1.76608211596E+002
+6.97672090113E+006, +1.66118009009E+002, +1.80042664464E+002
+7.10175219024E+006, +1.65967657364E+002, +1.83505809189E+002
+7.22678347935E+006, +1.66137276144E+002, +1.86566595295E+002
+7.35181476846E+006, +1.66718564525E+002, +1.89983704232E+002
+7.47684605757E+006, +1.66675572536E+002, +1.93428259496E+002
+7.60187734668E+006, +1.66881429703E+002, +1.96356766422E+002
+7.72690863579E+006, +1.67412595266E+002, +2.00065942751E+002
+7.85193992491E+006, +1.67536816548E+002, +2.03304514552E+002
+7.97697121402E+006, +1.67556113109E+002, +2.06661771737E+002
+8.10200250313E+006, +1.67904123054E+002, +2.10655749198E+002
+8.22703379224E+006, +1.68176396352E+002, +2.13472061186E+002
+8.35206508135E+006, +1.68854885742E+002, +2.17024536040E+002
+8.47709637046E+006, +1.69234992823E+002, +2.20800387108E+002
+8.60212765957E+006, +1.68935117965E+002, +2.23953793779E+002
+8.72715894869E+006, +1.69427822694E+002, +2.27742724464E+002
+8.85219023780E+006, +1.69848443315E+002, +2.31182339595E+002
+8.97722152691E+006, +1.69443500762E+002, +2.34783829119E+002
+9.10225281602E+006, +1.70331047266E+002, +2.38539277919E+002
+9.22728410513E+006, +1.70096381416E+002, +2.41487918266E+002
+9.35231539424E+006, +1.70381213777E+002, +2.44578992932E+002
+9.47734668335E+006, +1.70882480882E+002, +2.49024685098E+002
+9.60237797247E+006, +1.70604589540E+002, +2.51688903209E+002
+9.72740926158E+006, +1.71897987170E+002, +2.55729022603E+002
+9.85244055069E+006, +1.71709790975E+002, +2.59001119540E+002
+9.97747183980E+006, +1.72262759098E+002, +2.63068689231E+002
+1.01025031289E+007, +1.72367213092E+002, +2.66005191869E+002
+1.02275344180E+007, +1.73601324377E+002, +2.70140272037E+002
+1.03525657071E+007, +1.73521327902E+002, +2.73928804208E+002
+1.04775969962E+007, +1.73686397170E+002, +2.77886136406E+002
+1.06026282854E+007, +1.73495448943E+002, +2.81215033664E+002
+1.07276595745E+007, +1.74452177263E+002, +2.84636144794E+002
+1.08526908636E+007, +1.74454218760E+002, +2.87985635577E+002
+1.09777221527E+007, +1.75164428989E+002, +2.92193214873E+002
+1.11027534418E+007, +1.75421139206E+002, +2.94906609416E+002
+1.12277847309E+007, +1.75776148648E+002, +2.99012147317E+002
+1.13528160200E+007, +1.75717865877E+002, +3.03010358209E+002
+1.14778473091E+007, +1.76517886146E+002, +3.05737978155E+002
+1.16028785982E+007, +1.76547174276E+002, +3.10296271055E+002
+1.17279098874E+007, +1.77563191841E+002, +3.13950434878E+002
+1.18529411765E+007, +1.77645505076E+002, +3.16724687213E+002
+1.19779724656E+007, +1.78006086177E+002, +3.21294663878E+002
+1.21030037547E+007, +1.78692638767E+002, +3.25068513568E+002
+1.22280350438E+007, +1.78557437056E+002, +3.28551327156E+002
+1.23530663329E+007, +1.78773953817E+002, +3.32815818252E+002
+1.24780976220E+007, +1.79781877700E+002, +3.37120262431E+002
+1.26031289111E+007, +1.80214991516E+002, +3.40859156457E+002
+1.27281602003E+007, +1.81128953639E+002, +3.44652963051E+002
+1.28531914894E+007, +1.81958443095E+002, +3.47852212666E+002
+1.29782227785E+007, +1.81476670949E+002, +3.52242728155E+002
+1.31032540676E+007, +1.82256301758E+002, +3.56613607180E+002
+1.32282853567E+007, +1.82779336969E+002, +3.60341675532E+002
+1.33533166458E+007, +1.83284669776E+002, +3.64789656246E+002
+1.34783479349E+007, +1.83590368047E+002, +3.67675744821E+002
+1.36033792240E+007, +1.83119214257E+002, +3.71570209331E+002
+1.37284105131E+007, +1.83955595084E+002, +3.75756667684E+002
+1.38534418023E+007, +1.84749311531E+002, +3.79524329529E+002
+1.39784730914E+007, +1.84513417244E+002, +3.83894832972E+002
+1.41035043805E+007, +1.84580129008E+002, +3.87164211881E+002
+1.42285356696E+007, +1.87276846433E+002, +3.91000528546E+002
+1.43535669587E+007, +1.87678890229E+002, +3.95056598385E+002
+1.44785982478E+007, +1.87923787886E+002, +3.99072726892E+002
+1.46036295369E+007, +1.89018207766E+002, +4.03720222722E+002
+1.47286608260E+007, +1.90159904426E+002, +4.07629081194E+002
+1.48536921151E+007, +1.89978055918E+002, +4.11183899624E+002
+1.49787234043E+007, +1.90207382926E+002, +4.16585528424E+002
+1.51037546934E+007, +1.91618505820E+002, +4.20499824730E+002
+1.52287859825E+007, +1.90884135742E+002, +4.24517230047E+002
+1.53538172716E+007, +1.91198766352E+002, +4.27450162419E+002
+1.54788485607E+007, +1.92509249958E+002, +4.33197198002E+002
+1.56038798498E+007, +1.92374754356E+002, +4.36943551445E+002
+1.57289111389E+007, +1.93327535771E+002, +4.41707111331E+002
+1.58539424280E+007, +1.94559704960E+002, +4.45498076571E+002
+1.59789737171E+007, +1.95605261469E+002, +4.49424353668E+002
+1.61040050063E+007, +1.94646603952E+002, +4.54161906844E+002
+1.62290362954E+007, +1.96335749619E+002, +4.56869698447E+002
+1.63540675845E+007, +1.95806211429E+002, +4.61279696769E+002
+1.64790988736E+007, +1.96713187071E+002, +4.66952179660E+002
+1.66041301627E+007, +1.97256687768E+002, +4.71036103733E+002
+1.67291614518E+007, +1.98497390517E+002, +4.75680846217E+002
+1.68541927409E+007, +1.99036573473E+002, +4.79098923628E+002
+1.69792240300E+007, +1.99549469782E+002, +4.85697865732E+002
+1.71042553191E+007, +1.99741354336E+002, +4.91376481112E+002
+1.72292866083E+007, +1.99386083193E+002, +4.96507457317E+002
+1.73543178974E+007, +2.00803307406E+002, +4.99585339758E+002
+1.74793491865E+007, +2.02191403550E+002, +5.03462314885E+002
+1.76043804756E+007, +2.03647803213E+002, +5.07784086333E+002
+1.77294117647E+007, +2.05210429711E+002, +5.13417258896E+002
+1.78544430538E+007, +2.04678964347E+002, +5.17200526089E+002
+1.79794743429E+007, +2.06269388094E+002, +5.22394433287E+002
+1.81045056320E+007, +2.08103892405E+002, +5.26290726790E+002
+1.82295369212E+007, +2.08150080102E+002, +5.31071136896E+002
+1.83545682103E+007, +2.09758974510E+002, +5.36663852943E+002
+1.84795994994E+007, +2.10000254407E+002, +5.40346109955E+002
+1.86046307885E+007, +2.11955628097E+002, +5.44197088275E+002
+1.87296620776E+007, +2.13984698516E+002, +5.49783482294E+002
+1.88546933667E+007, +2.11912064714E+002, +5.53338090026E+002
+1.89797246558E+007, +2.12756015693E+002, +5.59628906280E+002
+1.91047559449E+007, +2.13160169946E+002, +5.64661632327E+002
+1.92297872340E+007, +2.14960465606E+002, +5.69527742029E+002
+1.93548185232E+007, +2.16836113017E+002, +5.75374424890E+002
+1.94798498123E+007, +2.18141252943E+002, +5.77540725215E+002
+1.96048811014E+007, +2.18310589444E+002, +5.83599541825E+002
+1.97299123905E+007, +2.19238871777E+002, +5.90876669387E+002
+1.98549436796E+007, +2.19441690063E+002, +5.94515340451E+002
+1.99799749687E+007, +2.20833532419E+002, +5.99965353664E+002
+2.01050062578E+007, +2.22704003732E+002, +6.05694994506E+002
+2.02300375469E+007, +2.23722100284E+002, +6.10437893932E+002
+2.03550688360E+007, +2.26210398463E+002, +6.16530409966E+002
+2.04801001252E+007, +2.25341685052E+002, +6.21934418409E+002
+2.06051314143E+007, +2.26414764310E+002, +6.24385823624E+002
+2.07301627034E+007, +2.26377412460E+002, +6.34906631675E+002
+2.08551939925E+007, +2.29334972990E+002, +6.36885174748E+002
+2.09802252816E+007, +2.31180716708E+002, +6.43165688390E+002
+2.11052565707E+007, +2.30444197307E+002, +6.46045532954E+002
+2.12302878598E+007, +2.32528797212E+002, +6.54558416719E+002
+2.13553191489E+007, +2.36423394175E+002, +6.56784644318E+002
+2.14803504380E+007, +2.36082713635E+002, +6.65352294157E+002
+2.16053817272E+007, +2.35744931173E+002, +6.68598699627E+002
+2.17304130163E+007, +2.40253011026E+002, +6.73298791044E+002
+2.18554443054E+007, +2.42565532862E+002, +6.81582354196E+002
+2.19804755945E+007, +2.38340549945E+002, +6.88711890967E+002
+2.21055068836E+007, +2.40968465476E+002, +6.92518517918E+002
+2.22305381727E+007, +2.44577961927E+002, +6.98610277371E+002
+2.23555694618E+007, +2.46331003100E+002, +7.02567207461E+002
+2.24806007509E+007, +2.49537757369E+002, +7.08676711638E+002
+2.26056320401E+007, +2.47316687779E+002, +7.15367052726E+002
+2.27306633292E+007, +2.53021728498E+002, +7.21311891150E+002
+2.28556946183E+007, +2.50254282240E+002, +7.24923504585E+002
+2.29807259074E+007, +2.56664787036E+002, +7.29873695202E+002
+2.31057571965E+007, +2.61590075433E+002, +7.40162774874E+002
+2.32307884856E+007, +2.62191308424E+002, +7.44465999407E+002
+2.33558197747E+007, +2.60937270040E+002, +7.50300517694E+002
+2.34808510638E+007, +2.66084865826E+002, +7.56028097268E+002
+2.36058823529E+007, +2.61859936267E+002, +7.64055582310E+002
+2.37309136421E+007, +2.66985023311E+002, +7.66924141478E+002
+2.38559449312E+007, +2.70096398187E+002, +7.75255545546E+002
+2.39809762203E+007, +2.70990700803E+002, +7.78154090128E+002
+2.41060075094E+007, +2.71670488780E+002, +7.88360773913E+002
+2.42310387985E+007, +2.75172631671E+002, +7.92994456788E+002
+2.43560700876E+007, +2.76573540122E+002, +7.94035075881E+002
+2.44811013767E+007, +2.75656572140E+002, +8.05053481024E+002
+2.46061326658E+007, +2.75558084874E+002, +8.07305354405E+002
+2.47311639549E+007, +2.81523331048E+002, +8.12817394827E+002
+2.48561952441E+007, +2.84311620586E+002, +8.20104183125E+002
+2.49812265332E+007, +2.85172444863E+002, +8.21325434754E+002
+2.51062578223E+007, +2.81493685117E+002, +8.34212998218E+002
+2.52312891114E+007, +2.85528611316E+002, +8.37850494440E+002
+2.53563204005E+007, +2.88622656779E+002, +8.47422967534E+002
+2.54813516896E+007, +2.91079250744E+002, +8.50199429997E+002
+2.56063829787E+007, +2.90410102235E+002, +8.59899801799E+002
+2.57314142678E+007, +2.90372942248E+002, +8.64337038132E+002
+2.58564455569E+007, +2.94817368229E+002, +8.76053011792E+002
+2.59814768461E+007, +2.92754628434E+002, +8.80314476297E+002
+2.61065081352E+007, +3.00602666207E+002, +8.89507556722E+002
+2.62315394243E+007, +3.00560150772E+002, +8.92356991731E+002
+2.63565707134E+007, +3.00988765803E+002, +9.09663037267E+002
+2.64816020025E+007, +3.07842205303E+002, +9.15772216803E+002
+2.66066332916E+007, +3.04437075194E+002, +9.20770481815E+002
+2.67316645807E+007, +3.08500662312E+002, +9.28371472570E+002
+2.68566958698E+007, +3.16213159820E+002, +9.35189084670E+002
+2.69817271589E+007, +3.17273677838E+002, +9.42330975011E+002
+2.71067584481E+007, +3.17893245302E+002, +9.47854440819E+002
+2.72317897372E+007, +3.21054496967E+002, +9.59290946960E+002
+2.73568210263E+007, +3.20106324761E+002, +9.66348901645E+002
+2.74818523154E+007, +3.22267356806E+002, +9.74376391630E+002
+2.76068836045E+007, +3.23204958040E+002, +9.85858817260E+002
+2.77319148936E+007, +3.27998625382E+002, +9.94317994708E+002
+2.78569461827E+007, +3.33141066474E+002, +1.00371450601E+003
+2.79819774718E+007, +3.30527957246E+002, +1.01141588144E+003
+2.81070087610E+007, +3.35042621476E+002, +1.01491748880E+003
+2.82320400501E+007, +3.39402608527E+002, +1.03107238375E+003
+2.83570713392E+007, +3.41604933464E+002, +1.04341073304E+003
+2.84821026283E+007, +3.49980458395E+002, +1.04305231077E+003
+2.86071339174E+007, +3.46289667567E+002, +1.05239911297E+003
+2.87321652065E+007, +3.49289597409E+002, +1.06315146443E+003
+2.88571964956E+007, +3.48422598924E+002, +1.06801756394E+003
+2.89822277847E+007, +3.64117238879E+002, +1.08663615815E+003
+2.91072590738E+007, +3.63168425668E+002, +1.09462320982E+003
+2.92322903630E+007, +3.64065399611E+002, +1.10262823414E+003
+2.93573216521E+007, +3.65626326925E+002, +1.11463702267E+003
+2.94823529412E+007, +3.74594299016E+002, +1.12563263800E+003
+2.96073842303E+007, +3.79409810766E+002, +1.13117116593E+003
+2.97324155194E+007, +3.82106258779E+002, +1.14316856688E+003
+2.98574468085E+007, +3.83896173586E+002, +1.15131740163E+003
+2.99824780976E+007, +3.88852696737E+002, +1.15855743069E+003
+3.01075093867E+007, +3.95772552093E+002, +1.16757622937E+003
+3.02325406758E+007, +3.89928447770E+002, +1.18443804772E+003
+3.03575719650E+007, +4.02276079802E+002, +1.19343821598E+003
+3.04826032541E+007, +3.99867712508E+002, +1.20155953954E+003
+3.06076345432E+007, +4.16232436383E+002, +1.21169525324E+003
+3.07326658323E+007, +4.11376966366E+002, +1.21965094193E+003
+3.08576971214E+007, +4.17107328238E+002, +1.23546113292E+003
+3.09827284105E+007, +4.20056855812E+002, +1.24641341606E+003
+3.11077596996E+007, +4.19722659701E+002, +1.26114612270E+003
+3.12327909887E+007, +4.29341513301E+002, +1.27687810242E+003
+3.13578222778E+007, +4.34039588021E+002, +1.28398290695E+003
+3.14828535670E+007, +4.40794808427E+002, +1.30855062829E+003
+3.16078848561E+007, +4.44524747695E+002, +1.29763714805E+003
+3.17329161452E+007, +4.37181608849E+002, +1.31521344055E+003
+3.18579474343E+007, +4.57753768438E+002, +1.33037525220E+003
+3.19829787234E+007, +4.52020142887E+002, +1.33612428740E+003
+3.21080100125E+007, +4.66854399716E+002, +1.35812608331E+003
+3.22330413016E+007, +4.65476057825E+002, +1.37563247844E+003
+3.23580725907E+007, +4.78772464289E+002, +1.38290801723E+003
+3.24831038798E+007, +4.82146026417E+002, +1.39875565772E+003
+3.26081351690E+007, +4.90263678149E+002, +1.41560517760E+003
+3.27331664581E+007, +4.93494255838E+002, +1.42183797589E+003
+3.28581977472E+007, +4.99529536564E+002, +1.43530664030E+003
+3.29832290363E+007, +5.00767901139E+002, +1.45201978763E+003
+3.31082603254E+007, +5.08652110560E+002, +1.47180329830E+003
+3.32332916145E+007, +5.15669030537E+002, +1.49059135611E+003
+3.33583229036E+007, +5.30729449467E+002, +1.50689069063E+003
+3.34833541927E+007, +5.27762964224E+002, +1.52925904100E+003
+3.36083854819E+007, +5.35959802092E+002, +1.52418985031E+003
+3.37334167710E+007, +5.46876597939E+002, +1.54958788423E+003
+3.38584480601E+007, +5.51294114758E+002, +1.55759499709E+003
+3.39834793492E+007, +5.61589913411E+002, +1.58544601253E+003
+3.41085106383E+007, +5.58434422556E+002, +1.59482504588E+003
+3.42335419274E+007, +5.97561453348E+002, +1.59845664154E+003
+3.43585732165E+007, +5.92036990436E+002, +1.62670457823E+003
+3.44836045056E+007, +6.05502085770E+002, +1.62990355782E+003
+3.46086357947E+007, +6.13455640030E+002, +1.66602370267E+003
+3.47336670839E+007, +6.22881558736E+002, +1.67040443473E+003
+3.48586983730E+007, +6.22891809798E+002, +1.67946657283E+003
+3.49837296621E+007, +6.52186667595E+002, +1.68856738771E+003
+3.51087609512E+007, +6.41685347973E+002, +1.71760112258E+003
+3.52337922403E+007, +6.66477111462E+002, +1.73607106674E+003
+3.53588235294E+007, +6.62423133406E+002, +1.76193856683E+003
+3.54838548185E+007, +6.78848922186E+002, +1.78408164130E+003
+3.56088861076E+007, +6.97083744942E+002, +1.80601257465E+003
+3.57339173967E+007, +7.18571153712E+002, +1.81489984650E+003
+3.58589486859E+007, +7.27225342161E+002, +1.85382184462E+003
+3.59839799750E+007, +7.45698503508E+002, +1.85823225042E+003
+3.61090112641E+007, +7.32795607742E+002, +1.88107186240E+003
+3.62340425532E+007, +7.66702021834E+002, +1.89102840700E+003
+3.63590738423E+007, +7.92041722403E+002, +1.92889803540E+003
+3.64841051314E+007, +7.86453137573E+002, +1.96050122833E+003
+3.66091364205E+007, +8.12069057886E+002, +1.97535614778E+003
+3.67341677096E+007, +8.18740239086E+002, +2.00629419948E+003
+3.68591989987E+007, +8.30473928076E+002, +2.03142225252E+003
+3.69842302879E+007, +8.55228939962E+002, +2.03560430462E+003
+3.71092615770E+007, +8.63683884946E+002, +2.08038252864E+003
+3.72342928661E+007, +8.66613571755E+002, +2.07324911063E+003
+3.73593241552E+007, +9.32950664581E+002, +2.12285399138E+003
+3.74843554443E+007, +9.29208625189E+002, +2.13401995401E+003
+3.76093867334E+007, +9.50290202275E+002, +2.15002202428E+003
+3.77344180225E+007, +9.82844597637E+002, +2.19501116891E+003
+3.78594493116E+007, +1.01029369833E+003, +2.22959021814E+003
+3.79844806008E+007, +1.00375475359E+003, +2.24234471330E+003
+3.81095118899E+007, +1.04326672421E+003, +2.27877683776E+003
+3.82345431790E+007, +1.04935942754E+003, +2.30303570901E+003
+3.83595744681E+007, +1.08846658411E+003, +2.34986223898E+003
+3.84846057572E+007, +1.15382914565E+003, +2.35772014899E+003
+3.86096370463E+007, +1.14053703575E+003, +2.41204266733E+003
+3.87346683354E+007, +1.18389753651E+003, +2.44470209261E+003
+3.88596996245E+007, +1.20636878145E+003, +2.47082227857E+003
+3.89847309136E+007, +1.25825063286E+003, +2.48955424875E+003
+3.91097622028E+007, +1.29215495943E+003, +2.53280023003E+003
+3.92347934919E+007, +1.32269498648E+003, +2.54663418763E+003
+3.93598247810E+007, +1.37283331788E+003, +2.58803657108E+003
+3.94848560701E+007, +1.38887871525E+003, +2.58989621637E+003
+3.96098873592E+007, +1.44688468462E+003, +2.61948673078E+003
+3.97349186483E+007, +1.48491994943E+003, +2.68985590696E+003
+3.98599499374E+007, +1.50893463297E+003, +2.69471444511E+003
+3.99849812265E+007, +1.58777801997E+003, +2.78747046172E+003
+4.01100125156E+007, +1.61129934957E+003, +2.83822901977E+003
