"# Channel 1"
"# Trace 1"
Frequency, Formatted Data, Formatted Data
+1.00000000000E+005, +1.41322199377E+002, +3.32564827864E-001
+2.25031289111E+005, +1.40348818258E+002, +4.73356946341E+000
+3.50062578223E+005, +1.40765510501E+002, +7.60958267145E+000
+4.75093867334E+005, +1.40586042697E+002, +1.04959751782E+001
+6.00125156446E+005, +1.40560462699E+002, +1.34843206189E+001
+7.25156445557E+005, +1.40554982842E+002, +1.63477261227E+001
+8.50187734668E+005, +1.40812470553E+002, +1.87745727125E+001
+9.75219023780E+005, +1.40896796790E+002, +2.18756200699E+001
+1.10025031289E+006, +1.40910478631E+002, +2.43499454634E+001
+1.22528160200E+006, +1.40887210488E+002, +2.73681568904E+001
+1.35031289111E+006, +1.41108014785E+002, +3.03844045080E+001
+1.47534418023E+006, +1.40956238173E+002, +3.26947369026E+001
+1.60037546934E+006, +1.41053703281E+002, +3.55729343527E+001
+1.72540675845E+006, +1.41185758435E+002, +3.82081095948E+001
+1.85043804756E+006, +1.41157586905E+002, +4.13987072357E+001
+1.97546933667E+006, +1.41360162238E+002, +4.44578587584E+001
+2.10050062578E+006, +1.41256054894E+002, +4.70958744685E+001
+2.22553191489E+006, +1.41476190496E+002, +4.98466719099E+001
+2.35056320401E+006, +1.41329791944E+002, +5.27742847789E+001
+2.47559449312E+006, +1.41656622772E+002, +5.50884532079E+001
+2.60062578223E+006, +1.41299698492E+002, +5.80366302709E+001
+2.72565707134E+006, +1.41640131000E+002, +6.09889299818E+001
+2.85068836045E+006, +1.41529206308E+002, +6.36402121099E+001
+2.97571964956E+006, +1.41785250837E+002, +6.66223368883E+001
+3.10075093867E+006, +1.41809580199E+002, +6.90875759215E+001
+3.22578222778E+006, +1.41593670917E+002, +7.22123829114E+001
+3.35081351690E+006, +1.41703916553E+002, +7.48914815398E+001
+3.47584480601E+006, +1.41670436162E+002, +7.78890060533E+001
+3.60087609512E+006, +1.42044029756E+002, +8.05889438986E+001
+3.72590738423E+006, +1.42210823645E+002, +8.30065035104E+001
+3.85093867334E+006, +1.42140000977E+002, +8.58280033077E+001
+3.97596996245E+006, +1.41821303953E+002, +8.84992246277E+001
+4.10100125156E+006, +1.41334318553E+002, +9.21601741998E+001
+4.22603254068E+006, +1.43047258347E+002, +9.48615030256E+001
+4.35106382979E+006, +1.42971474976E+002, +9.71795745299E+001
+4.47609511890E+006, +1.42366908660E+002, +9.97895881229E+001
+4.60112640801E+006, +1.42681658605E+002, +1.02859927828E+002
+4.72615769712E+006, +1.42937456766E+002, +1.05751640448E+002
+4.85118898623E+006, +1.42973215302E+002, +1.08728781132E+002
+4.97622027534E+006, +1.43267192747E+002, +1.11833756970E+002
+5.10125156446E+006, +1.43147358315E+002, +1.13992629912E+002
+5.22628285357E+006, +1.42711099522E+002, +1.16993498199E+002
+5.35131414268E+006, +1.43207171497E+002, +1.19906301909E+002
+5.47634543179E+006, +1.44068041837E+002, +1.22745646912E+002
+5.60137672090E+006, +1.43528741637E+002, +1.25746003374E+002
+5.72640801001E+006, +1.43784684095E+002, +1.28043718020E+002
+5.85143929912E+006, +1.44207891096E+002, +1.31318942924E+002
+5.97647058824E+006, +1.44012928454E+002, +1.34035537667E+002
+6.10150187735E+006, +1.44173852510E+002, +1.36592556784E+002
+6.22653316646E+006, +1.44221444892E+002, +1.39561326996E+002
+6.35156445557E+006, +1.44382602360E+002, +1.42538984732E+002
+6.47659574468E+006, +1.44385936240E+002, +1.45480420885E+002
+6.60162703379E+006, +1.44625776866E+002, +1.47971753538E+002
+6.72665832290E+006, +1.44592662447E+002, +1.51227029584E+002
+6.85168961202E+006, +1.44746584101E+002, +1.54085591077E+002
+6.97672090113E+006, +1.45037111604E+002, +1.56837200628E+002
+7.10175219024E+006, +1.45096833710E+002, +1.59479470096E+002
+7.22678347935E+006, +1.45376342186E+002, +1.62484935968E+002
+7.35181476846E+006, +1.45535588429E+002, +1.65707192531E+002
+7.47684605757E+006, +1.45552870401E+002, +1.68180924248E+002
+7.60187734668E+006, +1.45962899391E+002, +1.71276503957E+002
+7.72690863579E+006, +1.46139047379E+002, +1.73940035645E+002
+7.85193992491E+006, +1.46139448303E+002, +1.76965686027E+002
+7.97697121402E+006, +1.46312050568E+002, +1.79911841910E+002
+8.10200250313E+006, +1.46566502618E+002, +1.82910656250E+002
+8.22703379224E+006, +1.46676826796E+002, +1.86035834761E+002
+8.35206508135E+006, +1.46848238336E+002, +1.88829891402E+002
+8.47709637046E+006, +1.47271544432E+002, +1.91739187315E+002
+8.60212765957E+006, +1.47334280419E+002, +1.94878738095E+002
+8.72715894869E+006, +1.47531503634E+002, +1.97910375626E+002
+8.85219023780E+006, +1.47647955273E+002, +2.00825024566E+002
+8.97722152691E+006, +1.47511224429E+002, +2.03906105615E+002
+9.10225281602E+006, +1.48187210606E+002, +2.07012013516E+002
+9.22728410513E+006, +1.47850148785E+002, +2.09666278616E+002
+9.35231539424E+006, +1.48412932544E+002, +2.12608859105E+002
+9.47734668335E+006, +1.48414860485E+002, +2.15995465876E+002
+9.60237797247E+006, +1.48786015442E+002, +2.18951729514E+002
+9.72740926158E+006, +1.49260295852E+002, +2.22153804526E+002
+9.85244055069E+006, +1.49166347772E+002, +2.24949301940E+002
+9.97747183980E+006, +1.49443610244E+002, +2.28264942923E+002
+1.01025031289E+007, +1.49466951238E+002, +2.30848683437E+002
+1.02275344180E+007, +1.50115795301E+002, +2.34428528042E+002
+1.03525657071E+007, +1.50131803005E+002, +2.37274319043E+002
+1.04775969962E+007, +1.50299778796E+002, +2.40556059628E+002
+1.06026282854E+007, +1.50346076909E+002, +2.43093083525E+002
+1.07276595745E+007, +1.50781727985E+002, +2.46653886811E+002
+1.08526908636E+007, +1.51221503622E+002, +2.49503738332E+002
+1.09777221527E+007, +1.51101871013E+002, +2.52793821606E+002
+1.11027534418E+007, +1.51735695321E+002, +2.56013183994E+002
+1.12277847309E+007, +1.51648140756E+002, +2.58895698466E+002
+1.13528160200E+007, +1.51970680101E+002, +2.62380032688E+002
+1.14778473091E+007, +1.52647010494E+002, +2.65057071916E+002
+1.16028785982E+007, +1.52472579046E+002, +2.68468942830E+002
+1.17279098874E+007, +1.52985785145E+002, +2.71197157855E+002
+1.18529411765E+007, +1.53158669945E+002, +2.74180410938E+002
+1.19779724656E+007, +1.53690298176E+002, +2.78058802870E+002
+1.21030037547E+007, +1.54173691169E+002, +2.81052802296E+002
+1.22280350438E+007, +1.54025308225E+002, +2.84174798583E+002
+1.23530663329E+007, +1.54105085554E+002, +2.87236425120E+002
+1.24780976220E+007, +1.54739190961E+002, +2.90380740015E+002
+1.26031289111E+007, +1.55353612874E+002, +2.93400555896E+002
+1.27281602003E+007, +1.55640548995E+002, +2.97628018458E+002
+1.28531914894E+007, +1.56104561675E+002, +2.99828039794E+002
+1.29782227785E+007, +1.55885895599E+002, +3.03922748145E+002
+1.31032540676E+007, +1.56281868296E+002, +3.06589342988E+002
+1.32282853567E+007, +1.56925714433E+002, +3.10465448033E+002
+1.33533166458E+007, +1.57307397780E+002, +3.13539316604E+002
+1.34783479349E+007, +1.57331816074E+002, +3.16552574026E+002
+1.36033792240E+007, +1.57217920351E+002, +3.20354339706E+002
+1.37284105131E+007, +1.58299312195E+002, +3.23586477306E+002
+1.38534418023E+007, +1.58210267009E+002, +3.26245097948E+002
+1.39784730914E+007, +1.58315178900E+002, +3.29937028599E+002
+1.41035043805E+007, +1.58750622881E+002, +3.32984800885E+002
+1.42285356696E+007, +1.59625701529E+002, +3.36773300674E+002
+1.43535669587E+007, +1.59816273112E+002, +3.39630671575E+002
+1.44785982478E+007, +1.60218509913E+002, +3.43106909024E+002
+1.46036295369E+007, +1.60792454481E+002, +3.47013953500E+002
+1.47286608260E+007, +1.61270595670E+002, +3.50085662694E+002
+1.48536921151E+007, +1.61976139384E+002, +3.54026828494E+002
+1.49787234043E+007, +1.61190209572E+002, +3.56392499952E+002
+1.51037546934E+007, +1.63004400437E+002, +3.60756899729E+002
+1.52287859825E+007, +1.62398665630E+002, +3.64257432448E+002
+1.53538172716E+007, +1.63088797498E+002, +3.67304447572E+002
+1.54788485607E+007, +1.62521786717E+002, +3.70859683497E+002
+1.56038798498E+007, +1.64161393470E+002, +3.74893547408E+002
+1.57289111389E+007, +1.64321835613E+002, +3.78223088179E+002
+1.58539424280E+007, +1.64600720706E+002, +3.81150971347E+002
+1.59789737171E+007, +1.65584864383E+002, +3.84761291869E+002
+1.61040050063E+007, +1.64498287142E+002, +3.87537832999E+002
+1.62290362954E+007, +1.66001723553E+002, +3.92160163174E+002
+1.63540675845E+007, +1.66122091868E+002, +3.94996538492E+002
+1.64790988736E+007, +1.65626177239E+002, +3.98997272134E+002
+1.66041301627E+007, +1.67177783010E+002, +4.02911616425E+002
+1.67291614518E+007, +1.68113842331E+002, +4.06652275334E+002
+1.68541927409E+007, +1.68752877443E+002, +4.10029913572E+002
+1.69792240300E+007, +1.69188976988E+002, +4.13683401628E+002
+1.71042553191E+007, +1.68088923923E+002, +4.18426676237E+002
+1.72292866083E+007, +1.68885106700E+002, +4.21426881588E+002
+1.73543178974E+007, +1.69538823355E+002, +4.25404212853E+002
+1.74793491865E+007, +1.69152522403E+002, +4.28314596684E+002
+1.76043804756E+007, +1.70705523421E+002, +4.32010250445E+002
+1.77294117647E+007, +1.72157479184E+002, +4.35797498087E+002
+1.78544430538E+007, +1.73209895462E+002, +4.39808925889E+002
+1.79794743429E+007, +1.73412376623E+002, +4.44216758590E+002
+1.81045056320E+007, +1.74203740205E+002, +4.48415669146E+002
+1.82295369212E+007, +1.74152363094E+002, +4.52625943270E+002
+1.83545682103E+007, +1.74610733360E+002, +4.54170612911E+002
+1.84795994994E+007, +1.75770724891E+002, +4.58592156995E+002
+1.86046307885E+007, +1.76867772151E+002, +4.63041479203E+002
+1.87296620776E+007, +1.76959684817E+002, +4.67206947989E+002
+1.88546933667E+007, +1.77963014398E+002, +4.70143215699E+002
+1.89797246558E+007, +1.77197773148E+002, +4.73490756968E+002
+1.91047559449E+007, +1.78280301398E+002, +4.78694597991E+002
+1.92297872340E+007, +1.78862246328E+002, +4.82260209389E+002
+1.93548185232E+007, +1.79578379130E+002, +4.85846871197E+002
+1.94798498123E+007, +1.81214031994E+002, +4.88499262994E+002
+1.96048811014E+007, +1.80054951994E+002, +4.93592157812E+002
+1.97299123905E+007, +1.81125990645E+002, +4.99026916413E+002
+1.98549436796E+007, +1.81925606094E+002, +5.01342620517E+002
+1.99799749687E+007, +1.83074016894E+002, +5.05386513302E+002
+2.01050062578E+007, +1.84214561421E+002, +5.10999725158E+002
+2.02300375469E+007, +1.84426502448E+002, +5.13840215343E+002
+2.03550688360E+007, +1.85123669455E+002, +5.18039144822E+002
+2.04801001252E+007, +1.85362761326E+002, +5.21725134900E+002
+2.06051314143E+007, +1.86417706012E+002, +5.24985472775E+002
+2.07301627034E+007, +1.86733113237E+002, +5.31255680789E+002
+2.08551939925E+007, +1.86965692059E+002, +5.34512253551E+002
+2.09802252816E+007, +1.89534405927E+002, +5.39671364071E+002
+2.11052565707E+007, +1.89035053803E+002, +5.43380163980E+002
+2.12302878598E+007, +1.89912022553E+002, +5.48589684962E+002
+2.13553191489E+007, +1.92225050752E+002, +5.51531842489E+002
+2.14803504380E+007, +1.92064845163E+002, +5.56382004334E+002
+2.16053817272E+007, +1.91904017621E+002, +5.60317863683E+002
+2.17304130163E+007, +1.93789410672E+002, +5.63934564185E+002
+2.18554443054E+007, +1.95554855923E+002, +5.69956398422E+002
+2.19804755945E+007, +1.95623132504E+002, +5.74821042659E+002
+2.21055068836E+007, +1.95314950727E+002, +5.77790615102E+002
+2.22305381727E+007, +1.97798619253E+002, +5.82907995913E+002
+2.23555694618E+007, +1.99904505754E+002, +5.86289979768E+002
+2.24806007509E+007, +2.00625313443E+002, +5.91374086622E+002
+2.26056320401E+007, +2.00873804079E+002, +5.95278424378E+002
+2.27306633292E+007, +2.04378565824E+002, +5.97508913050E+002
+2.28556946183E+007, +2.03310351641E+002, +6.05257342717E+002
+2.29807259074E+007, +2.04078685008E+002, +6.07257166070E+002
+2.31057571965E+007, +2.05910351149E+002, +6.14137834069E+002
+2.32307884856E+007, +2.07951935862E+002, +6.17631472871E+002
+2.33558197747E+007, +2.09661562017E+002, +6.22953457630E+002
+2.34808510638E+007, +2.11589234821E+002, +6.24441951563E+002
+2.36058823529E+007, +2.09768742962E+002, +6.33782807365E+002
+2.37309136421E+007, +2.10876850193E+002, +6.36582073302E+002
+2.38559449312E+007, +2.11285899830E+002, +6.40156849830E+002
+2.39809762203E+007, +2.13713026454E+002, +6.43731739307E+002
+2.41060075094E+007, +2.13420149519E+002, +6.50781093999E+002
+2.42310387985E+007, +2.17287905541E+002, +6.52858420722E+002
+2.43560700876E+007, +2.16746992915E+002, +6.58113626178E+002
+2.44811013767E+007, +2.15857313335E+002, +6.64076225440E+002
+2.46061326658E+007, +2.16174668544E+002, +6.68367889088E+002
+2.47311639549E+007, +2.16581668252E+002, +6.70892000164E+002
+2.48561952441E+007, +2.21561517226E+002, +6.75576984246E+002
+2.49812265332E+007, +2.22706456161E+002, +6.80618744065E+002
+2.51062578223E+007, +2.21380753919E+002, +6.87454031623E+002
+2.52312891114E+007, +2.23667442432E+002, +6.91518791952E+002
+2.53563204005E+007, +2.24709725009E+002, +6.97566039355E+002
+2.54813516896E+007, +2.25929545170E+002, +7.00533311250E+002
+2.56063829787E+007, +2.26652304924E+002, +7.07046588920E+002
+2.57314142678E+007, +2.24474606294E+002, +7.10061861378E+002
+2.58564455569E+007, +2.29080415147E+002, +7.16434322685E+002
+2.59814768461E+007, +2.28450220564E+002, +7.23177623075E+002
+2.61065081352E+007, +2.29998786638E+002, +7.29553470543E+002
+2.62315394243E+007, +2.31244613012E+002, +7.32632086185E+002
+2.63565707134E+007, +2.29992933888E+002, +7.38674656478E+002
+2.64816020025E+007, +2.35516631293E+002, +7.47830868393E+002
+2.66066332916E+007, +2.34283016814E+002, +7.47292163652E+002
+2.67316645807E+007, +2.37495206486E+002, +7.56846640670E+002
+2.68566958698E+007, +2.39658121246E+002, +7.60667553382E+002
+2.69817271589E+007, +2.39691065175E+002, +7.63368193151E+002
+2.71067584481E+007, +2.42270831021E+002, +7.69585480578E+002
+2.72317897372E+007, +2.41930112265E+002, +7.78910480273E+002
+2.73568210263E+007, +2.43457555773E+002, +7.82551032352E+002
+2.74818523154E+007, +2.44884664304E+002, +7.90195109722E+002
+2.76068836045E+007, +2.46695996746E+002, +7.94016758090E+002
+2.77319148936E+007, +2.47699644022E+002, +8.02750710894E+002
+2.78569461827E+007, +2.47223156978E+002, +8.08518364908E+002
+2.79819774718E+007, +2.51496339405E+002, +8.13649507837E+002
+2.81070087610E+007, +2.49656414224E+002, +8.19367606404E+002
+2.82320400501E+007, +2.51282090344E+002, +8.29982396916E+002
+2.83570713392E+007, +2.52286907591E+002, +8.33808382484E+002
+2.84821026283E+007, +2.54399640313E+002, +8.35300288094E+002
+2.86071339174E+007, +2.56455951519E+002, +8.45133659804E+002
+2.87321652065E+007, +2.59073755943E+002, +8.51971329240E+002
+2.88571964956E+007, +2.58959606734E+002, +8.56884376715E+002
+2.89822277847E+007, +2.66112035242E+002, +8.63884110487E+002
+2.91072590738E+007, +2.65367494347E+002, +8.67963905810E+002
+2.92322903630E+007, +2.67064482295E+002, +8.75862253668E+002
+2.93573216521E+007, +2.67165484942E+002, +8.84560706150E+002
+2.94823529412E+007, +2.65406709949E+002, +8.91941903878E+002
+2.96073842303E+007, +2.71809445609E+002, +8.97658545302E+002
+2.97324155194E+007, +2.69437773240E+002, +9.05029300476E+002
+2.98574468085E+007, +2.71080635513E+002, +9.10049421660E+002
+2.99824780976E+007, +2.80689301442E+002, +9.15096696129E+002
+3.01075093867E+007, +2.82989194286E+002, +9.19778966928E+002
+3.02325406758E+007, +2.78867285905E+002, +9.31841509783E+002
+3.03575719650E+007, +2.82904506265E+002, +9.36572758213E+002
+3.04826032541E+007, +2.82049838291E+002, +9.42531671664E+002
+3.06076345432E+007, +2.89032994300E+002, +9.53855435476E+002
+3.07326658323E+007, +2.86745756020E+002, +9.61399071515E+002
+3.08576971214E+007, +2.90892484244E+002, +9.64433644305E+002
+3.09827284105E+007, +2.92922708716E+002, +9.72228350955E+002
+3.11077596996E+007, +2.91699664236E+002, +9.90883346213E+002
+3.12327909887E+007, +2.95753997066E+002, +9.91723512107E+002
+3.13578222778E+007, +3.00804221862E+002, +1.00232369999E+003
+3.14828535670E+007, +3.00571809869E+002, +1.00899935383E+003
+3.16078848561E+007, +3.07187706234E+002, +1.00604529441E+003
+3.17329161452E+007, +2.98706576526E+002, +1.02021725404E+003
+3.18579474343E+007, +3.12987136759E+002, +1.03415049016E+003
+3.19829787234E+007, +3.08855821000E+002, +1.03354960413E+003
+3.21080100125E+007, +3.08818675499E+002, +1.04565461613E+003
+3.22330413016E+007, +3.11455353651E+002, +1.06114368341E+003
+3.23580725907E+007, +3.19739358993E+002, +1.06166330236E+003
+3.24831038798E+007, +3.24546290084E+002, +1.07177074609E+003
+3.26081351690E+007, +3.26842941857E+002, +1.08024902145E+003
+3.27331664581E+007, +3.25592840745E+002, +1.09184833396E+003
+3.28581977472E+007, +3.30082147328E+002, +1.09760313330E+003
+3.29832290363E+007, +3.38251541801E+002, +1.10789209621E+003
+3.31082603254E+007, +3.37840501654E+002, +1.11639388603E+003
+3.32332916145E+007, +3.36814732572E+002, +1.12188423642E+003
+3.33583229036E+007, +3.42489706338E+002, +1.14123052363E+003
+3.34833541927E+007, +3.46768568395E+002, +1.14440634882E+003
+3.36083854819E+007, +3.50350076215E+002, +1.15093156429E+003
+3.37334167710E+007, +3.49710723951E+002, +1.15645051168E+003
+3.38584480601E+007, +3.50469213615E+002, +1.17372715528E+003
+3.39834793492E+007, +3.53840532513E+002, +1.18134681400E+003
+3.41085106383E+007, +3.53952063763E+002, +1.19463472655E+003
+3.42335419274E+007, +3.59699829808E+002, +1.19918316247E+003
+3.43585732165E+007, +3.60407333690E+002, +1.21012765470E+003
+3.44836045056E+007, +3.78150754775E+002, +1.20696819460E+003
+3.46086357947E+007, +3.67855628769E+002, +1.23597659061E+003
+3.47336670839E+007, +3.82223840699E+002, +1.23244516606E+003
+3.48586983730E+007, +3.83518833140E+002, +1.24634655620E+003
+3.49837296621E+007, +3.92277721699E+002, +1.25460079297E+003
+3.51087609512E+007, +3.86658968750E+002, +1.26841567620E+003
+3.52337922403E+007, +3.90757997531E+002, +1.28207047890E+003
+3.53588235294E+007, +3.98671387190E+002, +1.29255752038E+003
+3.54838548185E+007, +4.05000088925E+002, +1.30236373842E+003
+3.56088861076E+007, +4.08809634896E+002, +1.32036741580E+003
+3.57339173967E+007, +4.15361584333E+002, +1.32985194938E+003
+3.58589486859E+007, +4.15156306608E+002, +1.33495241320E+003
+3.59839799750E+007, +4.34941901565E+002, +1.34872141322E+003
+3.61090112641E+007, +4.30611340655E+002, +1.35464135492E+003
+3.62340425532E+007, +4.25961199398E+002, +1.36487170358E+003
+3.63590738423E+007, +4.48428101760E+002, +1.38590618897E+003
+3.64841051314E+007, +4.44249614427E+002, +1.40305956554E+003
+3.66091364205E+007, +4.41484467837E+002, +1.40876396075E+003
+3.67341677096E+007, +4.53826422762E+002, +1.42166939016E+003
+3.68591989987E+007, +4.60622177689E+002, +1.43215840494E+003
+3.69842302879E+007, +4.70842609844E+002, +1.45033131746E+003
+3.71092615770E+007, +4.67302843771E+002, +1.46593283128E+003
+3.72342928661E+007, +4.69994520949E+002, +1.47790867725E+003
+3.73593241552E+007, +4.95207862175E+002, +1.49228293651E+003
+3.74843554443E+007, +4.79500381263E+002, +1.49410087122E+003
+3.76093867334E+007, +4.98538581063E+002, +1.51121509748E+003
+3.77344180225E+007, +5.01576930787E+002, +1.53230212031E+003
+3.78594493116E+007, +5.05391049291E+002, +1.54140884750E+003
+3.79844806008E+007, +5.14063186210E+002, +1.55499945801E+003
+3.81095118899E+007, +5.30806791323E+002, +1.56486134335E+003
+3.82345431790E+007, +5.36339406443E+002, +1.58461853555E+003
+3.83595744681E+007, +5.32820603312E+002, +1.60036242010E+003
+3.84846057572E+007, +5.58337112365E+002, +1.62084613036E+003
+3.86096370463E+007, +5.36863964445E+002, +1.63640066013E+003
+3.87346683354E+007, +5.60929096899E+002, +1.65293819200E+003
+3.88596996245E+007, +5.83478194202E+002, +1.66693234964E+003
+3.89847309136E+007, +5.93515613552E+002, +1.70912955558E+003
+3.91097622028E+007, +6.01601049708E+002, +1.69730846213E+003
+3.92347934919E+007, +6.03196818474E+002, +1.71795257754E+003
+3.93598247810E+007, +6.17345405167E+002, +1.72592002878E+003
+3.94848560701E+007, +6.32240865183E+002, +1.73939670993E+003
+3.96098873592E+007, +6.45108434938E+002, +1.76507941488E+003
+3.97349186483E+007, +6.44289365670E+002, +1.78372516008E+003
+3.98599499374E+007, +6.61450834508E+002, +1.79861051921E+003
+3.99849812265E+007, +6.67460544499E+002, +1.82415519003E+003
+4.01100125156E+007, +6.73664338916E+002, +1.84570548093E+003
