"# Channel 1"
"# Trace 1"
Frequency, Formatted Data, Formatted Data
+1.00000000000E+005, +1.52886022821E+002, +3.90080852370E-001
+2.25031289111E+005, +1.52210115362E+002, +5.38499877890E+000
+3.50062578223E+005, +1.52527846275E+002, +8.94482691845E+000
+4.75093867334E+005, +1.52338483706E+002, +1.24910305268E+001
+6.00125156446E+005, +1.52389996303E+002, +1.57575053631E+001
+7.25156445557E+005, +1.52196549887E+002, +1.89276917464E+001
+8.50187734668E+005, +1.52099020150E+002, +2.21591668693E+001
+9.75219023780E+005, +1.52226401798E+002, +2.55889052189E+001
+1.10025031289E+006, +1.52458240681E+002, +2.87636474450E+001
+1.22528160200E+006, +1.52985364336E+002, +3.15134091372E+001
+1.35031289111E+006, +1.52517912440E+002, +3.46998495393E+001
+1.47534418023E+006, +1.52704963688E+002, +3.82068011285E+001
+1.60037546934E+006, +1.52635443404E+002, +4.12692585872E+001
+1.72540675845E+006, +1.52810768365E+002, +4.45940298957E+001
+1.85043804756E+006, +1.52763759083E+002, +4.79232911836E+001
+1.97546933667E+006, +1.52560943704E+002, +5.12362682534E+001
+2.10050062578E+006, +1.52928729382E+002, +5.44601798365E+001
+2.22553191489E+006, +1.53093423679E+002, +5.76543908767E+001
+2.35056320401E+006, +1.52970104153E+002, +6.09685975335E+001
+2.47559449312E+006, +1.52747059165E+002, +6.39420324040E+001
+2.60062578223E+006, +1.53003274594E+002, +6.73624878635E+001
+2.72565707134E+006, +1.53092248136E+002, +7.08310624452E+001
+2.85068836045E+006, +1.53126560749E+002, +7.37978591030E+001
+2.97571964956E+006, +1.53295650884E+002, +7.70666378120E+001
+3.10075093867E+006, +1.53495931178E+002, +8.03780445357E+001
+3.22578222778E+006, +1.53548876731E+002, +8.34542658046E+001
+3.35081351690E+006, +1.53291874530E+002, +8.62478625334E+001
+3.47584480601E+006, +1.53646112121E+002, +8.97116802645E+001
+3.60087609512E+006, +1.53415293225E+002, +9.28903966383E+001
+3.72590738423E+006, +1.54418364043E+002, +9.85999056981E+001
+3.85093867334E+006, +1.55477461887E+002, +1.05017050724E+002
+3.97596996245E+006, +1.56251657764E+002, +1.11711296018E+002
+4.10100125156E+006, +1.53859018243E+002, +1.05280080723E+002
+4.22603254068E+006, +1.51289004936E+002, +1.13913121604E+002
+4.35106382979E+006, +1.52659571782E+002, +1.16422691771E+002
+4.47609511890E+006, +1.54015762562E+002, +1.17889663350E+002
+4.60112640801E+006, +1.54218518822E+002, +1.18664818700E+002
+4.72615769712E+006, +1.54187027383E+002, +1.22583952962E+002
+4.85118898623E+006, +1.54817361391E+002, +1.25660059862E+002
+4.97622027534E+006, +1.54536404407E+002, +1.28230704948E+002
+5.10125156446E+006, +1.54795061635E+002, +1.32193269524E+002
+5.22628285357E+006, +1.55076239745E+002, +1.35207092094E+002
+5.35131414268E+006, +1.54832713303E+002, +1.38713430234E+002
+5.47634543179E+006, +1.54757924479E+002, +1.42013505063E+002
+5.60137672090E+006, +1.55073222117E+002, +1.45530048917E+002
+5.72640801001E+006, +1.55528028186E+002, +1.48348558568E+002
+5.85143929912E+006, +1.55592766763E+002, +1.52022885298E+002
+5.97647058824E+006, +1.55730278576E+002, +1.55073926874E+002
+6.10150187735E+006, +1.55967870000E+002, +1.58165649892E+002
+6.22653316646E+006, +1.56006467120E+002, +1.61239727686E+002
+6.35156445557E+006, +1.56002478122E+002, +1.64642377700E+002
+6.47659574468E+006, +1.56504342018E+002, +1.68000548686E+002
+6.60162703379E+006, +1.56838995539E+002, +1.71298488332E+002
+6.72665832290E+006, +1.57192651082E+002, +1.74552470360E+002
+6.85168961202E+006, +1.57283588810E+002, +1.77957950688E+002
+6.97672090113E+006, +1.57481352560E+002, +1.81165291371E+002
+7.10175219024E+006, +1.57714433506E+002, +1.84403103481E+002
+7.22678347935E+006, +1.58114281014E+002, +1.87751787659E+002
+7.35181476846E+006, +1.57935320697E+002, +1.91231657861E+002
+7.47684605757E+006, +1.58092957611E+002, +1.94904012034E+002
+7.60187734668E+006, +1.58297518987E+002, +1.97788732299E+002
+7.72690863579E+006, +1.58684848526E+002, +2.00963374782E+002
+7.85193992491E+006, +1.58674191732E+002, +2.04512778733E+002
+7.97697121402E+006, +1.59051129154E+002, +2.08413889876E+002
+8.10200250313E+006, +1.59513446266E+002, +2.11070944087E+002
+8.22703379224E+006, +1.59472691210E+002, +2.14390408124E+002
+8.35206508135E+006, +1.59422965014E+002, +2.17966610156E+002
+8.47709637046E+006, +1.59751371384E+002, +2.22181600919E+002
+8.60212765957E+006, +1.60011756333E+002, +2.25753791657E+002
+8.72715894869E+006, +1.60365228869E+002, +2.28534211628E+002
+8.85219023780E+006, +1.60812979803E+002, +2.31696105682E+002
+8.97722152691E+006, +1.60994151761E+002, +2.35014300131E+002
+9.10225281602E+006, +1.61023214798E+002, +2.38992310433E+002
+9.22728410513E+006, +1.61734906262E+002, +2.42584531147E+002
+9.35231539424E+006, +1.62249892940E+002, +2.46975015282E+002
+9.47734668335E+006, +1.62319019042E+002, +2.49984048582E+002
+9.60237797247E+006, +1.62563596294E+002, +2.52789304365E+002
+9.72740926158E+006, +1.62525706013E+002, +2.56304953836E+002
+9.85244055069E+006, +1.62756873858E+002, +2.59406417729E+002
+9.97747183980E+006, +1.63059499048E+002, +2.62615098833E+002
+1.01025031289E+007, +1.63326388097E+002, +2.67110234150E+002
+1.02275344180E+007, +1.63686821791E+002, +2.70567082283E+002
+1.03525657071E+007, +1.63956115606E+002, +2.73907968478E+002
+1.04775969962E+007, +1.64327527880E+002, +2.77243876092E+002
+1.06026282854E+007, +1.65126438667E+002, +2.81817838593E+002
+1.07276595745E+007, +1.65070734829E+002, +2.85372999536E+002
+1.08526908636E+007, +1.64903268057E+002, +2.88464945610E+002
+1.09777221527E+007, +1.65883726205E+002, +2.92382115190E+002
+1.11027534418E+007, +1.65678769542E+002, +2.95906203116E+002
+1.12277847309E+007, +1.66382987097E+002, +2.99626113041E+002
+1.13528160200E+007, +1.66639362643E+002, +3.03515006097E+002
+1.14778473091E+007, +1.67917826226E+002, +3.07350480265E+002
+1.16028785982E+007, +1.67655987869E+002, +3.10660000081E+002
+1.17279098874E+007, +1.67502364658E+002, +3.13724914637E+002
+1.18529411765E+007, +1.68025031539E+002, +3.17559857026E+002
+1.19779724656E+007, +1.68021740544E+002, +3.21468834681E+002
+1.21030037547E+007, +1.68874452063E+002, +3.25369446166E+002
+1.22280350438E+007, +1.69698412217E+002, +3.29556832728E+002
+1.23530663329E+007, +1.69209121625E+002, +3.33344826270E+002
+1.24780976220E+007, +1.70229984471E+002, +3.37136914021E+002
+1.26031289111E+007, +1.69630938518E+002, +3.41237020079E+002
+1.27281602003E+007, +1.69584286577E+002, +3.44711854576E+002
+1.28531914894E+007, +1.70765502814E+002, +3.48892384587E+002
+1.29782227785E+007, +1.70826212894E+002, +3.52447579743E+002
+1.31032540676E+007, +1.71344679041E+002, +3.56460925537E+002
+1.32282853567E+007, +1.72874703244E+002, +3.59701764430E+002
+1.33533166458E+007, +1.71965967110E+002, +3.63817835410E+002
+1.34783479349E+007, +1.73145485740E+002, +3.68116773053E+002
+1.36033792240E+007, +1.73400030037E+002, +3.72126889489E+002
+1.37284105131E+007, +1.73784389906E+002, +3.75986344511E+002
+1.38534418023E+007, +1.74846115893E+002, +3.79985189880E+002
+1.39784730914E+007, +1.76397963325E+002, +3.83584555913E+002
+1.41035043805E+007, +1.75446863974E+002, +3.87901433271E+002
+1.42285356696E+007, +1.76659863342E+002, +3.91211811287E+002
+1.43535669587E+007, +1.76490277141E+002, +3.95205891317E+002
+1.44785982478E+007, +1.77433433820E+002, +3.99569746046E+002
+1.46036295369E+007, +1.77124949509E+002, +4.03438036679E+002
+1.47286608260E+007, +1.77540833047E+002, +4.07714101871E+002
+1.48536921151E+007, +1.77573492493E+002, +4.11681411724E+002
+1.49787234043E+007, +1.78442016266E+002, +4.15894960519E+002
+1.51037546934E+007, +1.80559034280E+002, +4.20412703416E+002
+1.52287859825E+007, +1.79678795435E+002, +4.24428845925E+002
+1.53538172716E+007, +1.79877261327E+002, +4.28494446639E+002
+1.54788485607E+007, +1.81233885441E+002, +4.32676140247E+002
+1.56038798498E+007, +1.81460729672E+002, +4.36673594755E+002
+1.57289111389E+007, +1.81518001364E+002, +4.41759425794E+002
+1.58539424280E+007, +1.83091729316E+002, +4.45037115376E+002
+1.59789737171E+007, +1.83308308938E+002, +4.49632629892E+002
+1.61040050063E+007, +1.83765511531E+002, +4.52854039831E+002
+1.62290362954E+007, +1.85640605495E+002, +4.57790477934E+002
+1.63540675845E+007, +1.84569724606E+002, +4.62136802832E+002
+1.64790988736E+007, +1.86404372096E+002, +4.66339624745E+002
+1.66041301627E+007, +1.87509259050E+002, +4.71856779760E+002
+1.67291614518E+007, +1.86694722509E+002, +4.75724692173E+002
+1.68541927409E+007, +1.87999895974E+002, +4.81627366355E+002
+1.69792240300E+007, +1.87615303494E+002, +4.86669452649E+002
+1.71042553191E+007, +1.87755174459E+002, +4.92231222339E+002
+1.72292866083E+007, +1.88075158933E+002, +4.95419460595E+002
+1.73543178974E+007, +1.89086164577E+002, +4.98846820518E+002
+1.74793491865E+007, +1.89338633439E+002, +5.02887864728E+002
+1.76043804756E+007, +1.90528140985E+002, +5.07042991946E+002
+1.77294117647E+007, +1.92289736346E+002, +5.12574020561E+002
+1.78544430538E+007, +1.92969389971E+002, +5.16877758616E+002
+1.79794743429E+007, +1.93233053592E+002, +5.21961336414E+002
+1.81045056320E+007, +1.94289748460E+002, +5.27761287189E+002
+1.82295369212E+007, +1.96131723400E+002, +5.31249304580E+002
+1.83545682103E+007, +1.95559205402E+002, +5.36143337840E+002
+1.84795994994E+007, +1.96137887456E+002, +5.40889476098E+002
+1.86046307885E+007, +1.97462700668E+002, +5.45937312287E+002
+1.87296620776E+007, +1.99286716554E+002, +5.49558125800E+002
+1.88546933667E+007, +2.01293574565E+002, +5.56380102968E+002
+1.89797246558E+007, +2.00951116177E+002, +5.59361929365E+002
+1.91047559449E+007, +2.01773097050E+002, +5.63872621787E+002
+1.92297872340E+007, +2.03475206748E+002, +5.68804428605E+002
+1.93548185232E+007, +2.02828116302E+002, +5.74538563595E+002
+1.94798498123E+007, +2.04282597203E+002, +5.79380430757E+002
+1.96048811014E+007, +2.05517846811E+002, +5.82602843439E+002
+1.97299123905E+007, +2.04842762454E+002, +5.89273610893E+002
+1.98549436796E+007, +2.07777069928E+002, +5.94060197643E+002
+1.99799749687E+007, +2.07115032005E+002, +5.99371432082E+002
+2.01050062578E+007, +2.09889277344E+002, +6.04688759242E+002
+2.02300375469E+007, +2.09680492721E+002, +6.10991671578E+002
+2.03550688360E+007, +2.11298934773E+002, +6.13695732732E+002
+2.04801001252E+007, +2.12231903397E+002, +6.21571204918E+002
+2.06051314143E+007, +2.12465523615E+002, +6.28024750761E+002
+2.07301627034E+007, +2.13547623305E+002, +6.31982116335E+002
+2.08551939925E+007, +2.15014183008E+002, +6.36100708666E+002
+2.09802252816E+007, +2.14977434314E+002, +6.40520454825E+002
+2.11052565707E+007, +2.17367295298E+002, +6.44993756090E+002
+2.12302878598E+007, +2.18660603868E+002, +6.52222969676E+002
+2.13553191489E+007, +2.19551618087E+002, +6.58693524753E+002
+2.14803504380E+007, +2.20848894370E+002, +6.63547019942E+002
+2.16053817272E+007, +2.22272371340E+002, +6.72091833454E+002
+2.17304130163E+007, +2.23883355078E+002, +6.74589870707E+002
+2.18554443054E+007, +2.27207426145E+002, +6.80884565520E+002
+2.19804755945E+007, +2.26453958814E+002, +6.87457190124E+002
+2.21055068836E+007, +2.31457071313E+002, +6.93043397123E+002
+2.22305381727E+007, +2.31473920247E+002, +6.99140441025E+002
+2.23555694618E+007, +2.31771492608E+002, +7.04097830785E+002
+2.24806007509E+007, +2.30482946081E+002, +7.09392738107E+002
+2.26056320401E+007, +2.33545475868E+002, +7.12993994469E+002
+2.27306633292E+007, +2.37321994853E+002, +7.20469604839E+002
+2.28556946183E+007, +2.38098882719E+002, +7.25917173246E+002
+2.29807259074E+007, +2.39430701528E+002, +7.31646479679E+002
+2.31057571965E+007, +2.39920508869E+002, +7.39077313318E+002
+2.32307884856E+007, +2.42437158906E+002, +7.42324459498E+002
+2.33558197747E+007, +2.44639994978E+002, +7.48942501870E+002
+2.34808510638E+007, +2.48649744387E+002, +7.53864806753E+002
+2.36058823529E+007, +2.51030434297E+002, +7.55666514680E+002
+2.37309136421E+007, +2.53079132040E+002, +7.63830876162E+002
+2.38559449312E+007, +2.53382997443E+002, +7.70621098865E+002
+2.39809762203E+007, +2.58082321769E+002, +7.77839230603E+002
+2.41060075094E+007, +2.55966421826E+002, +7.83163692545E+002
+2.42310387985E+007, +2.58673461553E+002, +7.87976213457E+002
+2.43560700876E+007, +2.60570157829E+002, +7.95149714343E+002
+2.44811013767E+007, +2.62648593129E+002, +7.98478695027E+002
+2.46061326658E+007, +2.63755088959E+002, +8.08329937408E+002
+2.47311639549E+007, +2.62946476484E+002, +8.12176690313E+002
+2.48561952441E+007, +2.63626170683E+002, +8.17312123600E+002
+2.49812265332E+007, +2.65605908747E+002, +8.26393154139E+002
+2.51062578223E+007, +2.63582179996E+002, +8.34950854115E+002
+2.52312891114E+007, +2.67873670123E+002, +8.38349205004E+002
+2.53563204005E+007, +2.67900569322E+002, +8.42676909075E+002
+2.54813516896E+007, +2.68531118411E+002, +8.52421060745E+002
+2.56063829787E+007, +2.73359421635E+002, +8.59423084924E+002
+2.57314142678E+007, +2.72781966295E+002, +8.63857223927E+002
+2.58564455569E+007, +2.74423710479E+002, +8.73572092082E+002
+2.59814768461E+007, +2.78723610427E+002, +8.81605082250E+002
+2.61065081352E+007, +2.83751487323E+002, +8.96169822746E+002
+2.62315394243E+007, +2.83631552255E+002, +8.99606793014E+002
+2.63565707134E+007, +2.86325214610E+002, +9.07682717175E+002
+2.64816020025E+007, +2.86921117196E+002, +9.11280814870E+002
+2.66066332916E+007, +2.91391058976E+002, +9.22071144742E+002
+2.67316645807E+007, +2.91091069730E+002, +9.27301100004E+002
+2.68566958698E+007, +2.95133482046E+002, +9.35900001925E+002
+2.69817271589E+007, +2.98487927298E+002, +9.45002098344E+002
+2.71067584481E+007, +3.02542559523E+002, +9.49708128477E+002
+2.72317897372E+007, +3.04185443903E+002, +9.59367472838E+002
+2.73568210263E+007, +3.02065115388E+002, +9.63145342281E+002
+2.74818523154E+007, +3.02436728370E+002, +9.70909178646E+002
+2.76068836045E+007, +3.03343948597E+002, +9.79421062434E+002
+2.77319148936E+007, +3.02828369101E+002, +9.89801705245E+002
+2.78569461827E+007, +3.06145888934E+002, +9.97538208268E+002
+2.79819774718E+007, +3.11643571778E+002, +1.00872409275E+003
+2.81070087610E+007, +3.16790480261E+002, +1.01626107332E+003
+2.82320400501E+007, +3.20535820875E+002, +1.02487107310E+003
+2.83570713392E+007, +3.19848875279E+002, +1.03525797328E+003
+2.84821026283E+007, +3.27114367326E+002, +1.04409941360E+003
+2.86071339174E+007, +3.28731540062E+002, +1.04875155037E+003
+2.87321652065E+007, +3.31526468699E+002, +1.06095036737E+003
+2.88571964956E+007, +3.35497451280E+002, +1.07024351998E+003
+2.89822277847E+007, +3.35991627343E+002, +1.08094991243E+003
+2.91072590738E+007, +3.42997956844E+002, +1.09034690417E+003
+2.92322903630E+007, +3.36327664914E+002, +1.10083213783E+003
+2.93573216521E+007, +3.44684301249E+002, +1.11265768884E+003
+2.94823529412E+007, +3.42060430782E+002, +1.12818629778E+003
+2.96073842303E+007, +3.43853297730E+002, +1.13659219047E+003
+2.97324155194E+007, +3.52461677902E+002, +1.13962601259E+003
+2.98574468085E+007, +3.55964144385E+002, +1.15094744326E+003
+2.99824780976E+007, +3.59671357056E+002, +1.15849969464E+003
+3.01075093867E+007, +3.58756756127E+002, +1.16590193680E+003
+3.02325406758E+007, +3.61348312821E+002, +1.17974621605E+003
+3.03575719650E+007, +3.67423289151E+002, +1.19616368136E+003
+3.04826032541E+007, +3.69797528134E+002, +1.20351807437E+003
+3.06076345432E+007, +3.76571719917E+002, +1.21925754325E+003
+3.07326658323E+007, +3.84187993856E+002, +1.23175832157E+003
+3.08576971214E+007, +3.96729724823E+002, +1.23633686153E+003
+3.09827284105E+007, +3.95893747768E+002, +1.25391248695E+003
+3.11077596996E+007, +3.95751749565E+002, +1.26700936183E+003
+3.12327909887E+007, +4.05542374709E+002, +1.27607589082E+003
+3.13578222778E+007, +4.03651806043E+002, +1.28236642145E+003
+3.14828535670E+007, +4.06263620702E+002, +1.30067129336E+003
+3.16078848561E+007, +4.08172549490E+002, +1.30771499252E+003
+3.17329161452E+007, +4.15285183844E+002, +1.32302227290E+003
+3.18579474343E+007, +4.23988150990E+002, +1.33957143145E+003
+3.19829787234E+007, +4.35764687245E+002, +1.34838435285E+003
+3.21080100125E+007, +4.34309518059E+002, +1.35446794680E+003
+3.22330413016E+007, +4.42086688902E+002, +1.36907975054E+003
+3.23580725907E+007, +4.44443981903E+002, +1.38982314146E+003
+3.24831038798E+007, +4.47066057517E+002, +1.39830732489E+003
+3.26081351690E+007, +4.58176677943E+002, +1.41466908727E+003
+3.27331664581E+007, +4.61200173417E+002, +1.42906102153E+003
+3.28581977472E+007, +4.67237545620E+002, +1.44171293852E+003
+3.29832290363E+007, +4.67348236256E+002, +1.45760958192E+003
+3.31082603254E+007, +4.66190479888E+002, +1.46977987659E+003
+3.32332916145E+007, +4.73802833043E+002, +1.49161549161E+003
+3.33583229036E+007, +4.83913517760E+002, +1.50696259277E+003
+3.34833541927E+007, +4.96258155104E+002, +1.52804112877E+003
+3.36083854819E+007, +5.01836252392E+002, +1.53104137274E+003
+3.37334167710E+007, +5.14348987244E+002, +1.55215127693E+003
+3.38584480601E+007, +5.20387459854E+002, +1.57326304092E+003
+3.39834793492E+007, +5.23933476739E+002, +1.58394816318E+003
+3.41085106383E+007, +5.28425523417E+002, +1.60574928932E+003
+3.42335419274E+007, +5.38172019509E+002, +1.63259232862E+003
+3.43585732165E+007, +5.43963239179E+002, +1.63812061466E+003
+3.44836045056E+007, +5.58763265375E+002, +1.65063322058E+003
+3.46086357947E+007, +5.66070060114E+002, +1.67457342709E+003
+3.47336670839E+007, +5.66950927953E+002, +1.67745102153E+003
+3.48586983730E+007, +5.84104956134E+002, +1.69653179410E+003
+3.49837296621E+007, +5.88897716796E+002, +1.71697030050E+003
+3.51087609512E+007, +6.05264731192E+002, +1.74659667010E+003
+3.52337922403E+007, +6.19642755035E+002, +1.76508912659E+003
+3.53588235294E+007, +6.28827456878E+002, +1.80154587953E+003
+3.54838548185E+007, +6.31644762995E+002, +1.79813712348E+003
+3.56088861076E+007, +6.58940385279E+002, +1.83265896558E+003
+3.57339173967E+007, +6.67432129837E+002, +1.85851998385E+003
+3.58589486859E+007, +6.66215951376E+002, +1.86891864651E+003
+3.59839799750E+007, +6.88979164272E+002, +1.91320649369E+003
+3.61090112641E+007, +6.86815143991E+002, +1.91823428793E+003
+3.62340425532E+007, +7.13050603400E+002, +1.95296795128E+003
+3.63590738423E+007, +7.26315254545E+002, +1.97719707223E+003
+3.64841051314E+007, +7.47768961569E+002, +1.97800564371E+003
+3.66091364205E+007, +7.77858279257E+002, +1.99383046143E+003
+3.67341677096E+007, +7.67959789418E+002, +2.03429234552E+003
+3.68591989987E+007, +7.87176794173E+002, +2.04114796023E+003
+3.69842302879E+007, +7.87441600071E+002, +2.07183302950E+003
+3.71092615770E+007, +8.12507406618E+002, +2.09908011997E+003
+3.72342928661E+007, +8.10718793930E+002, +2.12010174957E+003
+3.73593241552E+007, +8.44675582083E+002, +2.15999817362E+003
+3.74843554443E+007, +8.32931390427E+002, +2.17515881942E+003
+3.76093867334E+007, +8.83493080308E+002, +2.20129440494E+003
+3.77344180225E+007, +9.13354326247E+002, +2.24896354093E+003
+3.78594493116E+007, +9.44010402219E+002, +2.26531818114E+003
+3.79844806008E+007, +9.78344647123E+002, +2.29586337679E+003
+3.81095118899E+007, +1.02239725725E+003, +2.33943130689E+003
+3.82345431790E+007, +1.02541085655E+003, +2.34560623348E+003
+3.83595744681E+007, +1.04824539299E+003, +2.35327781580E+003
+3.84846057572E+007, +1.06885658527E+003, +2.39542032683E+003
+3.86096370463E+007, +1.07098908363E+003, +2.42076549898E+003
+3.87346683354E+007, +1.11163672929E+003, +2.43168221605E+003
+3.88596996245E+007, +1.11418316716E+003, +2.52030062556E+003
+3.89847309136E+007, +1.18743763646E+003, +2.51344792687E+003
+3.91097622028E+007, +1.19639456721E+003, +2.57250228359E+003
+3.92347934919E+007, +1.23088463927E+003, +2.60259172139E+003
+3.93598247810E+007, +1.25244150265E+003, +2.62989262158E+003
+3.94848560701E+007, +1.29426007651E+003, +2.69223252287E+003
+3.96098873592E+007, +1.35378100627E+003, +2.71448444900E+003
+3.97349186483E+007, +1.35914797028E+003, +2.74148481868E+003
+3.98599499374E+007, +1.43220937086E+003, +2.77359303449E+003
+3.99849812265E+007, +1.46951000576E+003, +2.81453225877E+003
+4.01100125156E+007, +1.49712528657E+003, +2.81764643589E+003
