"# Channel 1"
"# Trace 1"
Frequency, Formatted Data, Formatted Data
+1.00000000000E+005, +1.61035734725E+002, -1.61080039318E-001
+2.25031289111E+005, +1.60102804619E+002, +5.50351232198E+000
+3.50062578223E+005, +1.60217859873E+002, +8.90412398991E+000
+4.75093867334E+005, +1.60145692677E+002, +1.18743888848E+001
+6.00125156446E+005, +1.60169371918E+002, +1.51805349813E+001
+7.25156445557E+005, +1.60131694338E+002, +1.87046338227E+001
+8.50187734668E+005, +1.60480624185E+002, +2.14370989694E+001
+9.75219023780E+005, +1.60307249392E+002, +2.49226910194E+001
+1.10025031289E+006, +1.60395234744E+002, +2.79804220962E+001
+1.22528160200E+006, +1.60639196811E+002, +3.10692690790E+001
+1.35031289111E+006, +1.60702182502E+002, +3.46214589214E+001
+1.47534418023E+006, +1.60709077836E+002, +3.72583760438E+001
+1.60037546934E+006, +1.60698183233E+002, +4.04917734741E+001
+1.72540675845E+006, +1.60928064914E+002, +4.36247539181E+001
+1.85043804756E+006, +1.60993074911E+002, +4.73447188195E+001
+1.97546933667E+006, +1.61198057110E+002, +5.07810305096E+001
+2.10050062578E+006, +1.61190912808E+002, +5.36010134565E+001
+2.22553191489E+006, +1.60767425050E+002, +5.68879404241E+001
+2.35056320401E+006, +1.61408584543E+002, +6.02443799903E+001
+2.47559449312E+006, +1.61375339487E+002, +6.32292664899E+001
+2.60062578223E+006, +1.61216790967E+002, +6.65868507909E+001
+2.72565707134E+006, +1.61646496142E+002, +6.96517964053E+001
+2.85068836045E+006, +1.61257352268E+002, +7.26513974029E+001
+2.97571964956E+006, +1.61872228484E+002, +7.63943065055E+001
+3.10075093867E+006, +1.61643636764E+002, +7.96348927230E+001
+3.22578222778E+006, +1.61687694804E+002, +8.26233069591E+001
+3.35081351690E+006, +1.61660546333E+002, +8.54199640107E+001
+3.47584480601E+006, +1.61980534325E+002, +8.87728058261E+001
+3.60087609512E+006, +1.61866005972E+002, +9.25252841765E+001
+3.72590738423E+006, +1.62497464628E+002, +9.53513320412E+001
+3.85093867334E+006, +1.62068413530E+002, +9.81711204570E+001
+3.97596996245E+006, +1.62011038351E+002, +1.01323211019E+002
+4.10100125156E+006, +1.61446300164E+002, +1.05660964192E+002
+4.22603254068E+006, +1.63476797110E+002, +1.09055131865E+002
+4.35106382979E+006, +1.62895232201E+002, +1.11546051668E+002
+4.47609511890E+006, +1.62735784290E+002, +1.15239006426E+002
+4.60112640801E+006, +1.63099251084E+002, +1.17554114545E+002
+4.72615769712E+006, +1.63495512716E+002, +1.21016459441E+002
+4.85118898623E+006, +1.63754124246E+002, +1.24973411348E+002
+4.97622027534E+006, +1.63830061112E+002, +1.27901163956E+002
+5.10125156446E+006, +1.62661571779E+002, +1.30788823161E+002
+5.22628285357E+006, +1.63542834106E+002, +1.33754953143E+002
+5.35131414268E+006, +1.63325120552E+002, +1.37525427590E+002
+5.47634543179E+006, +1.64277692884E+002, +1.40633051935E+002
+5.60137672090E+006, +1.63910650669E+002, +1.43772943181E+002
+5.72640801001E+006, +1.64733012586E+002, +1.47624816942E+002
+5.85143929912E+006, +1.65127258730E+002, +1.50125821669E+002
+5.97647058824E+006, +1.64243688901E+002, +1.53556372615E+002
+6.10150187735E+006, +1.64496966066E+002, +1.56871681631E+002
+6.22653316646E+006, +1.64715164852E+002, +1.60032505889E+002
+6.35156445557E+006, +1.65196210944E+002, +1.63600582643E+002
+6.47659574468E+006, +1.65348491223E+002, +1.66982934330E+002
+6.60162703379E+006, +1.65482752890E+002, +1.69681342944E+002
+6.72665832290E+006, +1.65912126846E+002, +1.73451817246E+002
+6.85168961202E+006, +1.65668151551E+002, +1.76520101384E+002
+6.97672090113E+006, +1.66282857473E+002, +1.79974271989E+002
+7.10175219024E+006, +1.66290346200E+002, +1.83537202586E+002
+7.22678347935E+006, +1.66282965249E+002, +1.86708679733E+002
+7.35181476846E+006, +1.66932646281E+002, +1.89919469818E+002
+7.47684605757E+006, +1.67082053986E+002, +1.93299902969E+002
+7.60187734668E+006, +1.67690196566E+002, +1.96656893569E+002
+7.72690863579E+006, +1.67806152248E+002, +2.00231119240E+002
+7.85193992491E+006, +1.67736487559E+002, +2.03438611077E+002
+7.97697121402E+006, +1.68137925819E+002, +2.06590999861E+002
+8.10200250313E+006, +1.67694655843E+002, +2.10673423690E+002
+8.22703379224E+006, +1.68295978938E+002, +2.13641204663E+002
+8.35206508135E+006, +1.69117334210E+002, +2.17349359441E+002
+8.47709637046E+006, +1.69225189743E+002, +2.20923538704E+002
+8.60212765957E+006, +1.69096365251E+002, +2.24040347790E+002
+8.72715894869E+006, +1.69626960796E+002, +2.27942076149E+002
+8.85219023780E+006, +1.70530373974E+002, +2.30920229099E+002
+8.97722152691E+006, +1.70124882324E+002, +2.34624909943E+002
+9.10225281602E+006, +1.70664514017E+002, +2.38101850438E+002
+9.22728410513E+006, +1.70442053728E+002, +2.41790361359E+002
+9.35231539424E+006, +1.71071721606E+002, +2.44748485277E+002
+9.47734668335E+006, +1.70913731611E+002, +2.49086021251E+002
+9.60237797247E+006, +1.71692903518E+002, +2.52241667732E+002
+9.72740926158E+006, +1.72123133044E+002, +2.55883029623E+002
+9.85244055069E+006, +1.71583192963E+002, +2.59522736188E+002
+9.97747183980E+006, +1.72501776086E+002, +2.62858946798E+002
+1.01025031289E+007, +1.72607429881E+002, +2.65846081969E+002
+1.02275344180E+007, +1.73225808932E+002, +2.69802856110E+002
+1.03525657071E+007, +1.73590087747E+002, +2.73463590773E+002
+1.04775969962E+007, +1.73944950126E+002, +2.77660841062E+002
+1.06026282854E+007, +1.74066404782E+002, +2.80856625504E+002
+1.07276595745E+007, +1.74970095327E+002, +2.84953439758E+002
+1.08526908636E+007, +1.74826889134E+002, +2.88051776568E+002
+1.09777221527E+007, +1.74810797410E+002, +2.91874788122E+002
+1.11027534418E+007, +1.75383820819E+002, +2.95275029668E+002
+1.12277847309E+007, +1.75991674744E+002, +2.99722761356E+002
+1.13528160200E+007, +1.76527157684E+002, +3.02781191764E+002
+1.14778473091E+007, +1.76928530663E+002, +3.06285830246E+002
+1.16028785982E+007, +1.76800760736E+002, +3.10042042418E+002
+1.17279098874E+007, +1.77664957376E+002, +3.13874061759E+002
+1.18529411765E+007, +1.78367848155E+002, +3.17808628118E+002
+1.19779724656E+007, +1.77554046609E+002, +3.21739602076E+002
+1.21030037547E+007, +1.79203909802E+002, +3.25164742903E+002
+1.22280350438E+007, +1.79235375716E+002, +3.28971376107E+002
+1.23530663329E+007, +1.78888403592E+002, +3.33630596734E+002
+1.24780976220E+007, +1.80588504005E+002, +3.37205088465E+002
+1.26031289111E+007, +1.80524494945E+002, +3.40668924349E+002
+1.27281602003E+007, +1.81593602226E+002, +3.45504418979E+002
+1.28531914894E+007, +1.81858974189E+002, +3.48237473406E+002
+1.29782227785E+007, +1.81989753525E+002, +3.52739563054E+002
+1.31032540676E+007, +1.81836321486E+002, +3.56437408169E+002
+1.32282853567E+007, +1.82522183731E+002, +3.60505920175E+002
+1.33533166458E+007, +1.83486179469E+002, +3.64524122562E+002
+1.34783479349E+007, +1.83688194131E+002, +3.67702265048E+002
+1.36033792240E+007, +1.84187957106E+002, +3.72040929965E+002
+1.37284105131E+007, +1.84403665417E+002, +3.74893324694E+002
+1.38534418023E+007, +1.85262279070E+002, +3.79172855892E+002
+1.39784730914E+007, +1.84982014558E+002, +3.84062996722E+002
+1.41035043805E+007, +1.85991283856E+002, +3.87612716254E+002
+1.42285356696E+007, +1.86500565900E+002, +3.92519748588E+002
+1.43535669587E+007, +1.87394232011E+002, +3.95158367624E+002
+1.44785982478E+007, +1.87674338589E+002, +3.99803599248E+002
+1.46036295369E+007, +1.89632535358E+002, +4.04662922098E+002
+1.47286608260E+007, +1.89104731412E+002, +4.07968489692E+002
+1.48536921151E+007, +1.89769207017E+002, +4.11192424747E+002
+1.49787234043E+007, +1.89815659241E+002, +4.16424644218E+002
+1.51037546934E+007, +1.91248378710E+002, +4.20842248412E+002
+1.52287859825E+007, +1.90729241227E+002, +4.25138531369E+002
+1.53538172716E+007, +1.91165407168E+002, +4.28477268045E+002
+1.54788485607E+007, +1.92628025553E+002, +4.33137623046E+002
+1.56038798498E+007, +1.94230516972E+002, +4.37608806452E+002
+1.57289111389E+007, +1.94573240955E+002, +4.40751938452E+002
+1.58539424280E+007, +1.95233986960E+002, +4.46163523925E+002
+1.59789737171E+007, +1.95271876441E+002, +4.50108267416E+002
+1.61040050063E+007, +1.95141424096E+002, +4.54294050612E+002
+1.62290362954E+007, +1.97343423194E+002, +4.58114629656E+002
+1.63540675845E+007, +1.97174521401E+002, +4.62493584574E+002
+1.64790988736E+007, +1.96831190927E+002, +4.67021886102E+002
+1.66041301627E+007, +1.97860687713E+002, +4.71913424809E+002
+1.67291614518E+007, +1.98703853309E+002, +4.75643422844E+002
+1.68541927409E+007, +1.99239268456E+002, +4.79140367665E+002
+1.69792240300E+007, +2.00377917050E+002, +4.85362830220E+002
+1.71042553191E+007, +1.99238267008E+002, +4.91045624914E+002
+1.72292866083E+007, +2.00265244158E+002, +4.96255426097E+002
+1.73543178974E+007, +2.02526926624E+002, +4.98832432713E+002
+1.74793491865E+007, +2.01117299010E+002, +5.04245439516E+002
+1.76043804756E+007, +2.04650589973E+002, +5.08366770192E+002
+1.77294117647E+007, +2.05225938617E+002, +5.13493983249E+002
+1.78544430538E+007, +2.04364711299E+002, +5.17410032075E+002
+1.79794743429E+007, +2.06803224611E+002, +5.22743689470E+002
+1.81045056320E+007, +2.09300391829E+002, +5.27504045760E+002
+1.82295369212E+007, +2.09290568937E+002, +5.33090289883E+002
+1.83545682103E+007, +2.10732066326E+002, +5.36212435379E+002
+1.84795994994E+007, +2.09513526854E+002, +5.41216469070E+002
+1.86046307885E+007, +2.12640072938E+002, +5.45090505614E+002
+1.87296620776E+007, +2.14523697113E+002, +5.50525450872E+002
+1.88546933667E+007, +2.14905931212E+002, +5.55612405069E+002
+1.89797246558E+007, +2.14053984690E+002, +5.60759353887E+002
+1.91047559449E+007, +2.14149329793E+002, +5.65081432293E+002
+1.92297872340E+007, +2.14767467214E+002, +5.70476234789E+002
+1.93548185232E+007, +2.16842085828E+002, +5.75416880717E+002
+1.94798498123E+007, +2.17916538897E+002, +5.80345674399E+002
+1.96048811014E+007, +2.17959703224E+002, +5.84234116399E+002
+1.97299123905E+007, +2.20360220291E+002, +5.90820671982E+002
+1.98549436796E+007, +2.20507948557E+002, +5.94795589765E+002
+1.99799749687E+007, +2.22277023298E+002, +6.00338001475E+002
+2.01050062578E+007, +2.22267980564E+002, +6.04484137562E+002
+2.02300375469E+007, +2.22902340734E+002, +6.10604195369E+002
+2.03550688360E+007, +2.27003910946E+002, +6.16791841356E+002
+2.04801001252E+007, +2.25998758507E+002, +6.20655056776E+002
+2.06051314143E+007, +2.26986206784E+002, +6.24783825455E+002
+2.07301627034E+007, +2.26769428363E+002, +6.31589941248E+002
+2.08551939925E+007, +2.28727194465E+002, +6.36409769659E+002
+2.09802252816E+007, +2.32099986127E+002, +6.41372541245E+002
+2.11052565707E+007, +2.33466646838E+002, +6.47795313341E+002
+2.12302878598E+007, +2.34227568690E+002, +6.53764104142E+002
+2.13553191489E+007, +2.36197225620E+002, +6.56966302876E+002
+2.14803504380E+007, +2.36331312016E+002, +6.67439406600E+002
+2.16053817272E+007, +2.38669340083E+002, +6.72012315255E+002
+2.17304130163E+007, +2.42484531329E+002, +6.73929123209E+002
+2.18554443054E+007, +2.42770174044E+002, +6.82424440630E+002
+2.19804755945E+007, +2.41437853771E+002, +6.88713360602E+002
+2.21055068836E+007, +2.44378181771E+002, +6.94297290850E+002
+2.22305381727E+007, +2.48741868530E+002, +6.98132728504E+002
+2.23555694618E+007, +2.47328493677E+002, +7.02436281049E+002
+2.24806007509E+007, +2.51960839001E+002, +7.08454919397E+002
+2.26056320401E+007, +2.50960437542E+002, +7.14596486767E+002
+2.27306633292E+007, +2.54594516163E+002, +7.19706227098E+002
+2.28556946183E+007, +2.53450379691E+002, +7.25167748168E+002
+2.29807259074E+007, +2.57017013807E+002, +7.31189372726E+002
+2.31057571965E+007, +2.60846267191E+002, +7.39409470984E+002
+2.32307884856E+007, +2.63775799615E+002, +7.45742383524E+002
+2.33558197747E+007, +2.64898259876E+002, +7.51472571267E+002
+2.34808510638E+007, +2.65226913361E+002, +7.53863633170E+002
+2.36058823529E+007, +2.68528688279E+002, +7.63790515130E+002
+2.37309136421E+007, +2.66561521107E+002, +7.64593943736E+002
+2.38559449312E+007, +2.70732927392E+002, +7.75232032022E+002
+2.39809762203E+007, +2.72614790169E+002, +7.77414368209E+002
+2.41060075094E+007, +2.74085348483E+002, +7.85589443136E+002
+2.42310387985E+007, +2.78254596648E+002, +7.89325226530E+002
+2.43560700876E+007, +2.75927592984E+002, +7.95263780502E+002
+2.44811013767E+007, +2.77986969317E+002, +8.02684960398E+002
+2.46061326658E+007, +2.75400332410E+002, +8.09175202913E+002
+2.47311639549E+007, +2.77120660182E+002, +8.13382157835E+002
+2.48561952441E+007, +2.79539684047E+002, +8.21955838074E+002
+2.49812265332E+007, +2.82729310119E+002, +8.26844048275E+002
+2.51062578223E+007, +2.81041026583E+002, +8.34868074324E+002
+2.52312891114E+007, +2.86476216996E+002, +8.41047858151E+002
+2.53563204005E+007, +2.89188063343E+002, +8.51696108755E+002
+2.54813516896E+007, +2.85138857487E+002, +8.52946733932E+002
+2.56063829787E+007, +2.89855237325E+002, +8.62556302566E+002
+2.57314142678E+007, +2.89948943713E+002, +8.68158159711E+002
+2.58564455569E+007, +2.95883010563E+002, +8.73269056856E+002
+2.59814768461E+007, +2.97819024209E+002, +8.86087767964E+002
+2.61065081352E+007, +2.99856523659E+002, +8.90812982457E+002
+2.62315394243E+007, +3.01552292900E+002, +8.99308553284E+002
+2.63565707134E+007, +3.01209121766E+002, +9.08708993787E+002
+2.64816020025E+007, +3.07639783119E+002, +9.16097613337E+002
+2.66066332916E+007, +3.04162417497E+002, +9.26154751974E+002
+2.67316645807E+007, +3.11144760471E+002, +9.33917269903E+002
+2.68566958698E+007, +3.19205368969E+002, +9.36111054699E+002
+2.69817271589E+007, +3.12228463101E+002, +9.44490608095E+002
+2.71067584481E+007, +3.19652339299E+002, +9.51748452360E+002
+2.72317897372E+007, +3.24285193392E+002, +9.59897063401E+002
+2.73568210263E+007, +3.19864560803E+002, +9.71560531419E+002
+2.74818523154E+007, +3.25757593335E+002, +9.79627989377E+002
+2.76068836045E+007, +3.24775923896E+002, +9.91003739471E+002
+2.77319148936E+007, +3.28856685817E+002, +9.97520861624E+002
+2.78569461827E+007, +3.35104433708E+002, +1.00090617518E+003
+2.79819774718E+007, +3.38555889997E+002, +1.01358452259E+003
+2.81070087610E+007, +3.38212103285E+002, +1.02040574068E+003
+2.82320400501E+007, +3.40825948500E+002, +1.03568664350E+003
+2.83570713392E+007, +3.44325192484E+002, +1.03672626021E+003
+2.84821026283E+007, +3.47181611774E+002, +1.04908854506E+003
+2.86071339174E+007, +3.51082309303E+002, +1.05829954778E+003
+2.87321652065E+007, +3.55054900176E+002, +1.06353927311E+003
+2.88571964956E+007, +3.52492173145E+002, +1.07174834389E+003
+2.89822277847E+007, +3.63263128704E+002, +1.08539534987E+003
+2.91072590738E+007, +3.65212035681E+002, +1.09384491423E+003
+2.92322903630E+007, +3.66445913297E+002, +1.10492103981E+003
+2.93573216521E+007, +3.74130248835E+002, +1.11531780772E+003
+2.94823529412E+007, +3.71074059808E+002, +1.12347920431E+003
+2.96073842303E+007, +3.78677249542E+002, +1.13112600968E+003
+2.97324155194E+007, +3.85524092519E+002, +1.14430537637E+003
+2.98574468085E+007, +3.80602993701E+002, +1.15763339044E+003
+2.99824780976E+007, +3.90498160237E+002, +1.16341559733E+003
+3.01075093867E+007, +3.93672496255E+002, +1.16967155506E+003
+3.02325406758E+007, +3.90667678594E+002, +1.18445374859E+003
+3.03575719650E+007, +4.01969703405E+002, +1.19141189892E+003
+3.04826032541E+007, +3.97899624484E+002, +1.20435975402E+003
+3.06076345432E+007, +4.11884265437E+002, +1.21240763476E+003
+3.07326658323E+007, +4.14540417629E+002, +1.23255832058E+003
+3.08576971214E+007, +4.16143503923E+002, +1.23884124800E+003
+3.09827284105E+007, +4.22080139914E+002, +1.25130204381E+003
+3.11077596996E+007, +4.17716754725E+002, +1.26876968566E+003
+3.12327909887E+007, +4.20555983108E+002, +1.27739156880E+003
+3.13578222778E+007, +4.43701275429E+002, +1.28771663029E+003
+3.14828535670E+007, +4.45018706149E+002, +1.30464627676E+003
+3.16078848561E+007, +4.48353685507E+002, +1.30232766515E+003
+3.17329161452E+007, +4.42433711846E+002, +1.31891748197E+003
+3.18579474343E+007, +4.60881520613E+002, +1.34040293178E+003
+3.19829787234E+007, +4.59991537640E+002, +1.34927849977E+003
+3.21080100125E+007, +4.52481188735E+002, +1.35575738695E+003
+3.22330413016E+007, +4.71903246295E+002, +1.38643011834E+003
+3.23580725907E+007, +4.87431680693E+002, +1.39464509383E+003
+3.24831038798E+007, +4.87622545749E+002, +1.40283355895E+003
+3.26081351690E+007, +4.99084816490E+002, +1.42184727181E+003
+3.27331664581E+007, +5.03507904155E+002, +1.43613722147E+003
+3.28581977472E+007, +5.09091629716E+002, +1.43694539241E+003
+3.29832290363E+007, +5.13681419467E+002, +1.46496614882E+003
+3.31082603254E+007, +5.18642258106E+002, +1.47924705210E+003
+3.32332916145E+007, +5.13973881538E+002, +1.49416780522E+003
+3.33583229036E+007, +5.29277778228E+002, +1.51831666616E+003
+3.34833541927E+007, +5.35222158114E+002, +1.51760876889E+003
+3.36083854819E+007, +5.50597628392E+002, +1.53756545313E+003
+3.37334167710E+007, +5.51213668982E+002, +1.55434377592E+003
+3.38584480601E+007, +5.60939537430E+002, +1.55882446862E+003
+3.39834793492E+007, +5.71428004757E+002, +1.58741880653E+003
+3.41085106383E+007, +5.64025832301E+002, +1.60254924822E+003
+3.42335419274E+007, +5.94751087947E+002, +1.61508659770E+003
+3.43585732165E+007, +5.87995492134E+002, +1.63324331556E+003
+3.44836045056E+007, +6.02583358730E+002, +1.64052119810E+003
+3.46086357947E+007, +6.18282866924E+002, +1.66879404337E+003
+3.47336670839E+007, +6.41769856970E+002, +1.67604019300E+003
+3.48586983730E+007, +6.24150069140E+002, +1.68474763757E+003
+3.49837296621E+007, +6.57755003843E+002, +1.71281805487E+003
+3.51087609512E+007, +6.55201064410E+002, +1.72944440050E+003
+3.52337922403E+007, +6.50900310135E+002, +1.75025435185E+003
+3.53588235294E+007, +6.90328282387E+002, +1.77680455605E+003
+3.54838548185E+007, +6.89040103023E+002, +1.79388979779E+003
+3.56088861076E+007, +6.91496809256E+002, +1.80724000150E+003
+3.57339173967E+007, +7.21465977091E+002, +1.82767026211E+003
+3.58589486859E+007, +7.19703026114E+002, +1.86102721734E+003
+3.59839799750E+007, +7.63866045485E+002, +1.84824398706E+003
+3.61090112641E+007, +7.50837993625E+002, +1.89292239649E+003
+3.62340425532E+007, +7.69780215037E+002, +1.91054073846E+003
+3.63590738423E+007, +7.86859085877E+002, +1.95087226797E+003
+3.64841051314E+007, +7.99423322884E+002, +1.96993852597E+003
+3.66091364205E+007, +8.05520053566E+002, +1.97583402576E+003
+3.67341677096E+007, +8.29022039422E+002, +2.00523078539E+003
+3.68591989987E+007, +8.64721720662E+002, +2.05061272199E+003
+3.69842302879E+007, +8.57821714222E+002, +2.04457780947E+003
+3.71092615770E+007, +8.75293872434E+002, +2.06839128796E+003
+3.72342928661E+007, +8.91788109775E+002, +2.10513556070E+003
+3.73593241552E+007, +9.55324531252E+002, +2.14852265374E+003
+3.74843554443E+007, +9.40066865177E+002, +2.15353405360E+003
+3.76093867334E+007, +9.55300503604E+002, +2.17972333594E+003
+3.77344180225E+007, +9.98375437213E+002, +2.21625910654E+003
+3.78594493116E+007, +1.02723940754E+003, +2.24420966005E+003
+3.79844806008E+007, +1.02058843059E+003, +2.24078736400E+003
+3.81095118899E+007, +1.04880713504E+003, +2.27594077807E+003
+3.82345431790E+007, +1.09550787637E+003, +2.31216507417E+003
+3.83595744681E+007, +1.12890388084E+003, +2.34450742297E+003
+3.84846057572E+007, +1.13674757970E+003, +2.37882515892E+003
+3.86096370463E+007, +1.18804943853E+003, +2.42677887286E+003
+3.87346683354E+007, +1.21723678108E+003, +2.44533389823E+003
+3.88596996245E+007, +1.24042972062E+003, +2.46078012818E+003
+3.89847309136E+007, +1.29029949586E+003, +2.51866402165E+003
+3.91097622028E+007, +1.32788853868E+003, +2.55683667153E+003
+3.92347934919E+007, +1.33172760504E+003, +2.59068002996E+003
+3.93598247810E+007, +1.42345411055E+003, +2.57899577365E+003
+3.94848560701E+007, +1.43382993387E+003, +2.60358825601E+003
+3.96098873592E+007, +1.45097954000E+003, +2.67592820540E+003
+3.97349186483E+007, +1.51446232901E+003, +2.67659890026E+003
+3.98599499374E+007, +1.54900666374E+003, +2.70437366344E+003
+3.99849812265E+007, +1.60518294774E+003, +2.75292556917E+003
+4.01100125156E+007, +1.64867530826E+003, +2.80619099864E+003
