"# Channel 1"
"# Trace 1"
Frequency, Formatted Data, Formatted Data
+1.00000000000E+005, +1.41527681345E+002, +3.24673150201E-001
+2.25031289111E+005, +1.40964376015E+002, +4.75364317874E+000
+3.50062578223E+005, +1.41286441513E+002, +7.65746820454E+000
+4.75093867334E+005, +1.41095133021E+002, +1.07852223262E+001
+6.00125156446E+005, +1.40834079243E+002, +1.33593492024E+001
+7.25156445557E+005, +1.41050703179E+002, +1.62154449625E+001
+8.50187734668E+005, +1.41349772055E+002, +1.87398488005E+001
+9.75219023780E+005, +1.41321970561E+002, +2.19640900592E+001
+1.10025031289E+006, +1.41106063405E+002, +2.44575321269E+001
+1.22528160200E+006, +1.41418741590E+002, +2.73321572153E+001
+1.35031289111E+006, +1.41137963750E+002, +3.04574509431E+001
+1.47534418023E+006, +1.41232286831E+002, +3.28332623763E+001
+1.60037546934E+006, +1.41485885006E+002, +3.55960767801E+001
+1.72540675845E+006, +1.41162379890E+002, +3.82159393099E+001
+1.85043804756E+006, +1.41529545657E+002, +4.13696054781E+001
+1.97546933667E+006, +1.41665281398E+002, +4.41143699425E+001
+2.10050062578E+006, +1.41796741730E+002, +4.67222553835E+001
+2.22553191489E+006, +1.41707643130E+002, +4.99502834178E+001
+2.35056320401E+006, +1.41944919695E+002, +5.26291285354E+001
+2.47559449312E+006, +1.41968600501E+002, +5.53231498307E+001
+2.60062578223E+006, +1.41924214411E+002, +5.79578716589E+001
+2.72565707134E+006, +1.41846202010E+002, +6.09628374160E+001
+2.85068836045E+006, +1.42012882138E+002, +6.34865875544E+001
+2.97571964956E+006, +1.42172491442E+002, +6.63719526743E+001
+3.10075093867E+006, +1.42080046110E+002, +6.93627656408E+001
+3.22578222778E+006, +1.41872177981E+002, +7.21183230874E+001
+3.35081351690E+006, +1.41923278597E+002, +7.50043503312E+001
+3.47584480601E+006, +1.42263606559E+002, +7.78075050800E+001
+3.60087609512E+006, +1.42360987663E+002, +8.04909020831E+001
+3.72590738423E+006, +1.42546622677E+002, +8.31907773175E+001
+3.85093867334E+006, +1.42663868296E+002, +8.60666402609E+001
+3.97596996245E+006, +1.42413405623E+002, +8.85192140616E+001
+4.10100125156E+006, +1.41857551975E+002, +9.22585000941E+001
+4.22603254068E+006, +1.43311140451E+002, +9.49031855322E+001
+4.35106382979E+006, +1.42989921579E+002, +9.70720072547E+001
+4.47609511890E+006, +1.43089665779E+002, +1.00444015188E+002
+4.60112640801E+006, +1.43335300437E+002, +1.03037882966E+002
+4.72615769712E+006, +1.43550386711E+002, +1.05724599947E+002
+4.85118898623E+006, +1.43792281330E+002, +1.08634700699E+002
+4.97622027534E+006, +1.43758614317E+002, +1.11382531253E+002
+5.10125156446E+006, +1.42755095288E+002, +1.13859426915E+002
+5.22628285357E+006, +1.43307380811E+002, +1.16664458868E+002
+5.35131414268E+006, +1.43663604495E+002, +1.19790977152E+002
+5.47634543179E+006, +1.44218365839E+002, +1.22550532911E+002
+5.60137672090E+006, +1.43975433594E+002, +1.25161529882E+002
+5.72640801001E+006, +1.44035375969E+002, +1.28273446943E+002
+5.85143929912E+006, +1.44330803362E+002, +1.30835861763E+002
+5.97647058824E+006, +1.43982090040E+002, +1.33560982829E+002
+6.10150187735E+006, +1.43916231707E+002, +1.36633840135E+002
+6.22653316646E+006, +1.44960451502E+002, +1.39523974365E+002
+6.35156445557E+006, +1.44755831304E+002, +1.42645110723E+002
+6.47659574468E+006, +1.44919327921E+002, +1.45517848752E+002
+6.60162703379E+006, +1.44961421563E+002, +1.48108343630E+002
+6.72665832290E+006, +1.45100371022E+002, +1.51169892516E+002
+6.85168961202E+006, +1.45032009231E+002, +1.53723958620E+002
+6.97672090113E+006, +1.45779279428E+002, +1.56727935517E+002
+7.10175219024E+006, +1.45338169619E+002, +1.59670182465E+002
+7.22678347935E+006, +1.45589917501E+002, +1.62823315842E+002
+7.35181476846E+006, +1.45832805740E+002, +1.65644004751E+002
+7.47684605757E+006, +1.45896346305E+002, +1.68283549682E+002
+7.60187734668E+006, +1.46233954728E+002, +1.71274750256E+002
+7.72690863579E+006, +1.46390442817E+002, +1.74060916776E+002
+7.85193992491E+006, +1.46530935198E+002, +1.77404269606E+002
+7.97697121402E+006, +1.46447797251E+002, +1.80113658512E+002
+8.10200250313E+006, +1.47082735429E+002, +1.83219580464E+002
+8.22703379224E+006, +1.47093956270E+002, +1.85762776332E+002
+8.35206508135E+006, +1.47637860136E+002, +1.88865074840E+002
+8.47709637046E+006, +1.47571974788E+002, +1.91893286927E+002
+8.60212765957E+006, +1.47581065797E+002, +1.95248455357E+002
+8.72715894869E+006, +1.47751259786E+002, +1.97863700019E+002
+8.85219023780E+006, +1.47881696561E+002, +2.01171758343E+002
+8.97722152691E+006, +1.47854258403E+002, +2.03838286320E+002
+9.10225281602E+006, +1.48320929078E+002, +2.06903149867E+002
+9.22728410513E+006, +1.48609018766E+002, +2.09887123256E+002
+9.35231539424E+006, +1.48917054005E+002, +2.12862420866E+002
+9.47734668335E+006, +1.48584415080E+002, +2.16265733908E+002
+9.60237797247E+006, +1.49340290074E+002, +2.18859029232E+002
+9.72740926158E+006, +1.49599328976E+002, +2.21790256009E+002
+9.85244055069E+006, +1.49314508525E+002, +2.24914610554E+002
+9.97747183980E+006, +1.49659404700E+002, +2.28124102555E+002
+1.01025031289E+007, +1.49895824020E+002, +2.31074210649E+002
+1.02275344180E+007, +1.50309321166E+002, +2.34597897495E+002
+1.03525657071E+007, +1.50832792254E+002, +2.37486246194E+002
+1.04775969962E+007, +1.50746833839E+002, +2.40541875178E+002
+1.06026282854E+007, +1.50929581737E+002, +2.43410856116E+002
+1.07276595745E+007, +1.51230254131E+002, +2.46735983342E+002
+1.08526908636E+007, +1.51398481371E+002, +2.50060117149E+002
+1.09777221527E+007, +1.51631237679E+002, +2.52917912069E+002
+1.11027534418E+007, +1.51896521537E+002, +2.55703625497E+002
+1.12277847309E+007, +1.52273960057E+002, +2.58987823902E+002
+1.13528160200E+007, +1.52238101448E+002, +2.62141692685E+002
+1.14778473091E+007, +1.52667325179E+002, +2.64942467951E+002
+1.16028785982E+007, +1.53012469533E+002, +2.68367086235E+002
+1.17279098874E+007, +1.53335148533E+002, +2.71476243413E+002
+1.18529411765E+007, +1.53639147939E+002, +2.74713582086E+002
+1.19779724656E+007, +1.53441806321E+002, +2.77817729308E+002
+1.21030037547E+007, +1.54012005413E+002, +2.80864083564E+002
+1.22280350438E+007, +1.54294944581E+002, +2.84292737927E+002
+1.23530663329E+007, +1.54593621035E+002, +2.87674246192E+002
+1.24780976220E+007, +1.55394311811E+002, +2.90823420573E+002
+1.26031289111E+007, +1.55400639517E+002, +2.94494371549E+002
+1.27281602003E+007, +1.55875370453E+002, +2.97575493958E+002
+1.28531914894E+007, +1.56585291477E+002, +3.00210015802E+002
+1.29782227785E+007, +1.56272611018E+002, +3.03966649871E+002
+1.31032540676E+007, +1.57004095430E+002, +3.07045262865E+002
+1.32282853567E+007, +1.57071274350E+002, +3.10376209555E+002
+1.33533166458E+007, +1.57630252792E+002, +3.14048313469E+002
+1.34783479349E+007, +1.58409187533E+002, +3.16639173557E+002
+1.36033792240E+007, +1.57915603504E+002, +3.20070723888E+002
+1.37284105131E+007, +1.58069660180E+002, +3.23364425595E+002
+1.38534418023E+007, +1.58404474416E+002, +3.26511374974E+002
+1.39784730914E+007, +1.59171776343E+002, +3.30133910505E+002
+1.41035043805E+007, +1.58927351721E+002, +3.33059056974E+002
+1.42285356696E+007, +1.60344411340E+002, +3.36887399226E+002
+1.43535669587E+007, +1.60441562325E+002, +3.39729153535E+002
+1.44785982478E+007, +1.61084411078E+002, +3.42694120452E+002
+1.46036295369E+007, +1.61889404277E+002, +3.47028220244E+002
+1.47286608260E+007, +1.61848010555E+002, +3.50320434927E+002
+1.48536921151E+007, +1.61751863018E+002, +3.53046184661E+002
+1.49787234043E+007, +1.62327321405E+002, +3.56439732489E+002
+1.51037546934E+007, +1.62912631730E+002, +3.60241632967E+002
+1.52287859825E+007, +1.63048038383E+002, +3.64277073054E+002
+1.53538172716E+007, +1.62855476115E+002, +3.66917250793E+002
+1.54788485607E+007, +1.64659926100E+002, +3.71110937857E+002
+1.56038798498E+007, +1.64782450137E+002, +3.74324512559E+002
+1.57289111389E+007, +1.64650889586E+002, +3.78178225334E+002
+1.58539424280E+007, +1.64907732931E+002, +3.81510981735E+002
+1.59789737171E+007, +1.66189940294E+002, +3.84252662231E+002
+1.61040050063E+007, +1.65671871279E+002, +3.88588536575E+002
+1.62290362954E+007, +1.66486169896E+002, +3.92221302527E+002
+1.63540675845E+007, +1.66703709249E+002, +3.94980867539E+002
+1.64790988736E+007, +1.66072251883E+002, +3.99333753143E+002
+1.66041301627E+007, +1.66682945383E+002, +4.03334299880E+002
+1.67291614518E+007, +1.68461763898E+002, +4.07063169639E+002
+1.68541927409E+007, +1.69468678734E+002, +4.09810849721E+002
+1.69792240300E+007, +1.68714370421E+002, +4.13590851477E+002
+1.71042553191E+007, +1.68309470583E+002, +4.18288358341E+002
+1.72292866083E+007, +1.69409802504E+002, +4.22081872552E+002
+1.73543178974E+007, +1.69489448938E+002, +4.24903843843E+002
+1.74793491865E+007, +1.69916816581E+002, +4.29053958610E+002
+1.76043804756E+007, +1.71819000979E+002, +4.32153837954E+002
+1.77294117647E+007, +1.72319659565E+002, +4.35725595141E+002
+1.78544430538E+007, +1.71521586918E+002, +4.39646075228E+002
+1.79794743429E+007, +1.72818646695E+002, +4.44437289916E+002
+1.81045056320E+007, +1.73869690028E+002, +4.47911519069E+002
+1.82295369212E+007, +1.74693974395E+002, +4.51806552480E+002
+1.83545682103E+007, +1.75879138515E+002, +4.55003674960E+002
+1.84795994994E+007, +1.75154748021E+002, +4.57675291867E+002
+1.86046307885E+007, +1.77454963914E+002, +4.61536955948E+002
+1.87296620776E+007, +1.77296890660E+002, +4.66515773161E+002
+1.88546933667E+007, +1.78476135110E+002, +4.70091433145E+002
+1.89797246558E+007, +1.79017923941E+002, +4.74823940732E+002
+1.91047559449E+007, +1.79004726817E+002, +4.77847540206E+002
+1.92297872340E+007, +1.77466689162E+002, +4.81616321526E+002
+1.93548185232E+007, +1.80679704733E+002, +4.85696475488E+002
+1.94798498123E+007, +1.80607530355E+002, +4.87918810960E+002
+1.96048811014E+007, +1.81132552571E+002, +4.92351774299E+002
+1.97299123905E+007, +1.83398218362E+002, +4.98026109830E+002
+1.98549436796E+007, +1.81020474519E+002, +5.01210826364E+002
+1.99799749687E+007, +1.82378179769E+002, +5.05495049245E+002
+2.01050062578E+007, +1.83107752462E+002, +5.09103751332E+002
+2.02300375469E+007, +1.84195030175E+002, +5.13956001161E+002
+2.03550688360E+007, +1.87416398299E+002, +5.18306860066E+002
+2.04801001252E+007, +1.85625887896E+002, +5.22681573573E+002
+2.06051314143E+007, +1.86503280050E+002, +5.24538796489E+002
+2.07301627034E+007, +1.87655270870E+002, +5.31998907720E+002
+2.08551939925E+007, +1.88153156734E+002, +5.33329590404E+002
+2.09802252816E+007, +1.89513773167E+002, +5.38839626393E+002
+2.11052565707E+007, +1.88298799834E+002, +5.43800072610E+002
+2.12302878598E+007, +1.91118421136E+002, +5.46996231513E+002
+2.13553191489E+007, +1.91139310657E+002, +5.51073807632E+002
+2.14803504380E+007, +1.91689298562E+002, +5.57980124970E+002
+2.16053817272E+007, +1.91930972114E+002, +5.60180683918E+002
+2.17304130163E+007, +1.95289905363E+002, +5.65464831060E+002
+2.18554443054E+007, +1.95443581225E+002, +5.68588461379E+002
+2.19804755945E+007, +1.95269214416E+002, +5.74189587181E+002
+2.21055068836E+007, +1.96542078213E+002, +5.79052862909E+002
+2.22305381727E+007, +1.97934560464E+002, +5.82272477289E+002
+2.23555694618E+007, +1.99810927421E+002, +5.86991081962E+002
+2.24806007509E+007, +2.00194296032E+002, +5.89892026370E+002
+2.26056320401E+007, +2.00778602520E+002, +5.93852891069E+002
+2.27306633292E+007, +2.03931652470E+002, +5.99095766200E+002
+2.28556946183E+007, +2.03402613324E+002, +6.04431939711E+002
+2.29807259074E+007, +2.04870961201E+002, +6.09000161988E+002
+2.31057571965E+007, +2.06336820723E+002, +6.13021827929E+002
+2.32307884856E+007, +2.08483224048E+002, +6.16850379463E+002
+2.33558197747E+007, +2.09925412703E+002, +6.23152099728E+002
+2.34808510638E+007, +2.12350060307E+002, +6.28770726651E+002
+2.36058823529E+007, +2.12005056841E+002, +6.32411400750E+002
+2.37309136421E+007, +2.11344212104E+002, +6.35111367368E+002
+2.38559449312E+007, +2.11841089611E+002, +6.41246075087E+002
+2.39809762203E+007, +2.15355241307E+002, +6.42340980445E+002
+2.41060075094E+007, +2.13372281377E+002, +6.50077917503E+002
+2.42310387985E+007, +2.16661533959E+002, +6.51634374378E+002
+2.43560700876E+007, +2.14469305881E+002, +6.55806699128E+002
+2.44811013767E+007, +2.15734840359E+002, +6.62990023003E+002
+2.46061326658E+007, +2.16199811845E+002, +6.67383905753E+002
+2.47311639549E+007, +2.20009149939E+002, +6.71005588351E+002
+2.48561952441E+007, +2.21122500578E+002, +6.74312385174E+002
+2.49812265332E+007, +2.21671323667E+002, +6.79101561482E+002
+2.51062578223E+007, +2.19991570085E+002, +6.86842972545E+002
+2.52312891114E+007, +2.23512690992E+002, +6.90399902512E+002
+2.53563204005E+007, +2.23665937354E+002, +6.96836219123E+002
+2.54813516896E+007, +2.24750716069E+002, +7.01186488300E+002
+2.56063829787E+007, +2.24093613402E+002, +7.05619749629E+002
+2.57314142678E+007, +2.26392304130E+002, +7.08834890302E+002
+2.58564455569E+007, +2.29797664455E+002, +7.17608280114E+002
+2.59814768461E+007, +2.27752506335E+002, +7.23694206125E+002
+2.61065081352E+007, +2.31845750709E+002, +7.27627606663E+002
+2.62315394243E+007, +2.32054390376E+002, +7.31858826491E+002
+2.63565707134E+007, +2.31493844646E+002, +7.39824068863E+002
+2.64816020025E+007, +2.37210571330E+002, +7.46900038185E+002
+2.66066332916E+007, +2.34539417293E+002, +7.47372972730E+002
+2.67316645807E+007, +2.38296226614E+002, +7.54560047140E+002
+2.68566958698E+007, +2.39268187892E+002, +7.60880712930E+002
+2.69817271589E+007, +2.40033541020E+002, +7.65891514609E+002
+2.71067584481E+007, +2.43454969163E+002, +7.67524378489E+002
+2.72317897372E+007, +2.42219484567E+002, +7.77099551447E+002
+2.73568210263E+007, +2.44904053266E+002, +7.83337291765E+002
+2.74818523154E+007, +2.45496184085E+002, +7.88178056907E+002
+2.76068836045E+007, +2.44257885567E+002, +7.96007234702E+002
+2.77319148936E+007, +2.47332068384E+002, +8.01730671869E+002
+2.78569461827E+007, +2.48928264592E+002, +8.06689161725E+002
+2.79819774718E+007, +2.50241566371E+002, +8.12261935459E+002
+2.81070087610E+007, +2.48719568832E+002, +8.20118793846E+002
+2.82320400501E+007, +2.49132037173E+002, +8.28107337811E+002
+2.83570713392E+007, +2.53726861279E+002, +8.29919684614E+002
+2.84821026283E+007, +2.55105224368E+002, +8.37909460809E+002
+2.86071339174E+007, +2.60128689189E+002, +8.43211828896E+002
+2.87321652065E+007, +2.62101968284E+002, +8.50271022996E+002
+2.88571964956E+007, +2.56984297601E+002, +8.58736446556E+002
+2.89822277847E+007, +2.66228508712E+002, +8.65855350405E+002
+2.91072590738E+007, +2.64395184907E+002, +8.70759271098E+002
+2.92322903630E+007, +2.66609895143E+002, +8.75111341896E+002
+2.93573216521E+007, +2.68002971005E+002, +8.85506595708E+002
+2.94823529412E+007, +2.69373561699E+002, +8.88670923474E+002
+2.96073842303E+007, +2.70523900062E+002, +8.92678260614E+002
+2.97324155194E+007, +2.75168971553E+002, +9.07118126082E+002
+2.98574468085E+007, +2.74475041599E+002, +9.13534733082E+002
+2.99824780976E+007, +2.75515617788E+002, +9.14333145272E+002
+3.01075093867E+007, +2.82412733430E+002, +9.22770389593E+002
+3.02325406758E+007, +2.80856801329E+002, +9.31200740440E+002
+3.03575719650E+007, +2.86180435996E+002, +9.39764635386E+002
+3.04826032541E+007, +2.82456712484E+002, +9.47552675174E+002
+3.06076345432E+007, +2.84643324104E+002, +9.53570202359E+002
+3.07326658323E+007, +2.91661545608E+002, +9.60613127528E+002
+3.08576971214E+007, +2.90283746042E+002, +9.72607504437E+002
+3.09827284105E+007, +2.98684006998E+002, +9.73034007506E+002
+3.11077596996E+007, +2.92349233780E+002, +9.87293385133E+002
+3.12327909887E+007, +2.98564006199E+002, +9.97269355582E+002
+3.13578222778E+007, +3.04549413789E+002, +1.00283586136E+003
+3.14828535670E+007, +3.02522784191E+002, +1.01106578298E+003
+3.16078848561E+007, +3.04268936522E+002, +1.01166104248E+003
+3.17329161452E+007, +3.04663931903E+002, +1.02076266854E+003
+3.18579474343E+007, +3.16591766588E+002, +1.03785832740E+003
+3.19829787234E+007, +3.08218313608E+002, +1.03426424656E+003
+3.21080100125E+007, +3.14011243241E+002, +1.04778892291E+003
+3.22330413016E+007, +3.13688414863E+002, +1.06175215901E+003
+3.23580725907E+007, +3.21283854280E+002, +1.06425675267E+003
+3.24831038798E+007, +3.27152711258E+002, +1.06845147802E+003
+3.26081351690E+007, +3.25772415312E+002, +1.07914390139E+003
+3.27331664581E+007, +3.25482763914E+002, +1.09251097756E+003
+3.28581977472E+007, +3.32902560441E+002, +1.09964988062E+003
+3.29832290363E+007, +3.36558209549E+002, +1.10878167966E+003
+3.31082603254E+007, +3.36888897128E+002, +1.11997549849E+003
+3.32332916145E+007, +3.37401351298E+002, +1.12349829574E+003
+3.33583229036E+007, +3.42299708346E+002, +1.13796980168E+003
+3.34833541927E+007, +3.48398941775E+002, +1.14541286013E+003
+3.36083854819E+007, +3.50579836068E+002, +1.15446548808E+003
+3.37334167710E+007, +3.48642334118E+002, +1.15850348429E+003
+3.38584480601E+007, +3.56668054124E+002, +1.17733207956E+003
+3.39834793492E+007, +3.56465101882E+002, +1.18353926368E+003
+3.41085106383E+007, +3.56165866587E+002, +1.18750179226E+003
+3.42335419274E+007, +3.68447285213E+002, +1.20408011291E+003
+3.43585732165E+007, +3.69423974866E+002, +1.21030961417E+003
+3.44836045056E+007, +3.80660580092E+002, +1.21511572608E+003
+3.46086357947E+007, +3.77733130824E+002, +1.23283345508E+003
+3.47336670839E+007, +3.90128226289E+002, +1.23685298548E+003
+3.48586983730E+007, +3.81530432811E+002, +1.24819300165E+003
+3.49837296621E+007, +3.91542375508E+002, +1.25255792162E+003
+3.51087609512E+007, +3.97851246601E+002, +1.26833824120E+003
+3.52337922403E+007, +3.95110683770E+002, +1.27786838593E+003
+3.53588235294E+007, +3.99578072632E+002, +1.29516570345E+003
+3.54838548185E+007, +4.06964047274E+002, +1.31283509005E+003
+3.56088861076E+007, +4.08647752138E+002, +1.31367636285E+003
+3.57339173967E+007, +4.19416922477E+002, +1.32957405854E+003
+3.58589486859E+007, +4.15421377786E+002, +1.34007404190E+003
+3.59839799750E+007, +4.35901196928E+002, +1.34389038213E+003
+3.61090112641E+007, +4.22518508627E+002, +1.36370872027E+003
+3.62340425532E+007, +4.37806900382E+002, +1.38237895200E+003
+3.63590738423E+007, +4.48165324430E+002, +1.38627899647E+003
+3.64841051314E+007, +4.44421540874E+002, +1.40178870677E+003
+3.66091364205E+007, +4.47825549496E+002, +1.41221701661E+003
+3.67341677096E+007, +4.50839423604E+002, +1.42190613329E+003
+3.68591989987E+007, +4.64827281155E+002, +1.44113037448E+003
+3.69842302879E+007, +4.67066794016E+002, +1.44338037122E+003
+3.71092615770E+007, +4.65615345669E+002, +1.45461437366E+003
+3.72342928661E+007, +4.72421814147E+002, +1.46747731316E+003
+3.73593241552E+007, +4.94655156413E+002, +1.49543954158E+003
+3.74843554443E+007, +4.91246223720E+002, +1.50461439243E+003
+3.76093867334E+007, +4.96754418696E+002, +1.51410654958E+003
+3.77344180225E+007, +4.99419222978E+002, +1.53115308683E+003
+3.78594493116E+007, +5.08164800500E+002, +1.54711250739E+003
+3.79844806008E+007, +5.04407609335E+002, +1.55260387189E+003
+3.81095118899E+007, +5.35449585051E+002, +1.55952411113E+003
+3.82345431790E+007, +5.41945413509E+002, +1.58150859968E+003
+3.83595744681E+007, +5.51038082698E+002, +1.60649016376E+003
+3.84846057572E+007, +5.62122874376E+002, +1.61310241173E+003
+3.86096370463E+007, +5.64826648409E+002, +1.64710042098E+003
+3.87346683354E+007, +5.75852709367E+002, +1.65860260110E+003
+3.88596996245E+007, +5.88649906221E+002, +1.66478748623E+003
+3.89847309136E+007, +5.89865459609E+002, +1.68377679963E+003
+3.91097622028E+007, +6.01007474991E+002, +1.70154309971E+003
+3.92347934919E+007, +6.01435486169E+002, +1.72313649995E+003
+3.93598247810E+007, +6.44007232151E+002, +1.72741888503E+003
+3.94848560701E+007, +6.33816495890E+002, +1.73663544929E+003
+3.96098873592E+007, +6.43423034941E+002, +1.76030692676E+003
+3.97349186483E+007, +6.45658408972E+002, +1.77244134250E+003
+3.98599499374E+007, +6.60165480774E+002, +1.79107403412E+003
+3.99849812265E+007, +6.61462479255E+002, +1.83504587269E+003
+4.01100125156E+007, +6.97770254705E+002, +1.83257718737E+003
