"# Channel 1"
"# Trace 1"
Frequency, Formatted Data, Formatted Data
+1.00000000000E+005, +1.90800094798E+002, -2.73888169931E-003
+2.25031289111E+005, +1.89425589203E+002, +6.56899510750E+000
+3.50062578223E+005, +1.90140703981E+002, +1.08994126783E+001
+4.75093867334E+005, +1.89856523334E+002, +1.56433120597E+001
+6.00125156446E+005, +1.89484338688E+002, +1.94345691360E+001
+7.25156445557E+005, +1.89703178512E+002, +2.35496406254E+001
+8.50187734668E+005, +1.90117824060E+002, +2.80351891622E+001
+9.75219023780E+005, +1.89825315145E+002, +3.15794990314E+001
+1.10025031289E+006, +1.89854024930E+002, +3.58865195061E+001
+1.22528160200E+006, +1.90234383709E+002, +3.94533486534E+001
+1.35031289111E+006, +1.89846985560E+002, +4.30821395718E+001
+1.47534418023E+006, +1.90432624132E+002, +4.73294475281E+001
+1.60037546934E+006, +1.90121778317E+002, +5.14232136669E+001
+1.72540675845E+006, +1.90430444276E+002, +5.56791637482E+001
+1.85043804756E+006, +1.90596409532E+002, +5.97817770575E+001
+1.97546933667E+006, +1.90168496758E+002, +6.34385114723E+001
+2.10050062578E+006, +1.90491096472E+002, +6.82084269759E+001
+2.22553191489E+006, +1.91146764263E+002, +7.22768325829E+001
+2.35056320401E+006, +1.90845426964E+002, +7.64967035883E+001
+2.47559449312E+006, +1.91229152142E+002, +8.03554264887E+001
+2.60062578223E+006, +1.91575699920E+002, +8.37976973986E+001
+2.72565707134E+006, +1.91753984420E+002, +8.81704241730E+001
+2.85068836045E+006, +1.91891187354E+002, +9.17817320362E+001
+2.97571964956E+006, +1.91525269477E+002, +9.64724593667E+001
+3.10075093867E+006, +1.91648885979E+002, +1.00799165164E+002
+3.22578222778E+006, +1.91856558876E+002, +1.04293962913E+002
+3.35081351690E+006, +1.91992909989E+002, +1.08305314365E+002
+3.47584480601E+006, +1.92529777373E+002, +1.12013374215E+002
+3.60087609512E+006, +1.91735901225E+002, +1.16062198794E+002
+3.72590738423E+006, +1.92966797029E+002, +1.23983828761E+002
+3.85093867334E+006, +1.94478770236E+002, +1.32895567438E+002
+3.97596996245E+006, +1.96276796250E+002, +1.43049139749E+002
+4.10100125156E+006, +1.92388368787E+002, +1.31767733737E+002
+4.22603254068E+006, +1.88851986534E+002, +1.44367703950E+002
+4.35106382979E+006, +1.92283928774E+002, +1.47767559701E+002
+4.47609511890E+006, +1.92826761961E+002, +1.48514965952E+002
+4.60112640801E+006, +1.93181712288E+002, +1.49270708842E+002
+4.72615769712E+006, +1.93455586514E+002, +1.53346326444E+002
+4.85118898623E+006, +1.94281875339E+002, +1.57542598799E+002
+4.97622027534E+006, +1.93695916972E+002, +1.61339624435E+002
+5.10125156446E+006, +1.94043935050E+002, +1.65481532963E+002
+5.22628285357E+006, +1.94671738072E+002, +1.70014752672E+002
+5.35131414268E+006, +1.94931272028E+002, +1.73331804424E+002
+5.47634543179E+006, +1.95478127948E+002, +1.78192504473E+002
+5.60137672090E+006, +1.95459949758E+002, +1.82304818698E+002
+5.72640801001E+006, +1.95441689717E+002, +1.86324689566E+002
+5.85143929912E+006, +1.95082934359E+002, +1.90958493847E+002
+5.97647058824E+006, +1.95980397558E+002, +1.95071921281E+002
+6.10150187735E+006, +1.95964555764E+002, +1.98811944435E+002
+6.22653316646E+006, +1.96718326687E+002, +2.02937043926E+002
+6.35156445557E+006, +1.96971530092E+002, +2.06833847307E+002
+6.47659574468E+006, +1.96849496617E+002, +2.11222017042E+002
+6.60162703379E+006, +1.97995493790E+002, +2.14989074698E+002
+6.72665832290E+006, +1.98242396216E+002, +2.19253294779E+002
+6.85168961202E+006, +1.98627984516E+002, +2.23391970018E+002
+6.97672090113E+006, +1.99035794811E+002, +2.27871277585E+002
+7.10175219024E+006, +1.99850511322E+002, +2.31806524278E+002
+7.22678347935E+006, +2.00442019109E+002, +2.35999346081E+002
+7.35181476846E+006, +2.00582631155E+002, +2.40163476672E+002
+7.47684605757E+006, +2.00202703705E+002, +2.44707486627E+002
+7.60187734668E+006, +2.01149815191E+002, +2.48854136547E+002
+7.72690863579E+006, +2.01790732767E+002, +2.53325188967E+002
+7.85193992491E+006, +2.01725992273E+002, +2.57155139494E+002
+7.97697121402E+006, +2.02322042110E+002, +2.62175040540E+002
+8.10200250313E+006, +2.02701927988E+002, +2.66464017755E+002
+8.22703379224E+006, +2.03174513110E+002, +2.70379996648E+002
+8.35206508135E+006, +2.03954815067E+002, +2.75227750211E+002
+8.47709637046E+006, +2.03837344122E+002, +2.80279833586E+002
+8.60212765957E+006, +2.03954764636E+002, +2.84690078018E+002
+8.72715894869E+006, +2.05001358718E+002, +2.88155236510E+002
+8.85219023780E+006, +2.05869007240E+002, +2.92025955235E+002
+8.97722152691E+006, +2.05705566685E+002, +2.96204267728E+002
+9.10225281602E+006, +2.06844498360E+002, +3.01223642624E+002
+9.22728410513E+006, +2.07373949925E+002, +3.07389049632E+002
+9.35231539424E+006, +2.08923146763E+002, +3.12530675801E+002
+9.47734668335E+006, +2.08398652253E+002, +3.16658364399E+002
+9.60237797247E+006, +2.08187945383E+002, +3.20438701736E+002
+9.72740926158E+006, +2.08638446649E+002, +3.24336246240E+002
+9.85244055069E+006, +2.09043793912E+002, +3.28560787209E+002
+9.97747183980E+006, +2.10190718955E+002, +3.33347727830E+002
+1.01025031289E+007, +2.10846941238E+002, +3.38951236369E+002
+1.02275344180E+007, +2.11188626801E+002, +3.43013159959E+002
+1.03525657071E+007, +2.11436201208E+002, +3.47735868712E+002
+1.04775969962E+007, +2.12108044364E+002, +3.52776538507E+002
+1.06026282854E+007, +2.13094562791E+002, +3.56954321582E+002
+1.07276595745E+007, +2.14187939659E+002, +3.61944359997E+002
+1.08526908636E+007, +2.14321133521E+002, +3.66990150330E+002
+1.09777221527E+007, +2.14385180731E+002, +3.72415959409E+002
+1.11027534418E+007, +2.15616859386E+002, +3.77560346822E+002
+1.12277847309E+007, +2.16018024203E+002, +3.81707413080E+002
+1.13528160200E+007, +2.16864544129E+002, +3.86837225296E+002
+1.14778473091E+007, +2.17567098000E+002, +3.91599261697E+002
+1.16028785982E+007, +2.18203724228E+002, +3.95977102632E+002
+1.17279098874E+007, +2.18772713071E+002, +4.00859347886E+002
+1.18529411765E+007, +2.19814817535E+002, +4.05895650461E+002
+1.19779724656E+007, +2.19937267545E+002, +4.10514506593E+002
+1.21030037547E+007, +2.21789079467E+002, +4.16830435868E+002
+1.22280350438E+007, +2.21925436949E+002, +4.21817352776E+002
+1.23530663329E+007, +2.22559888364E+002, +4.26550995024E+002
+1.24780976220E+007, +2.23281552779E+002, +4.32220706000E+002
+1.26031289111E+007, +2.23623864963E+002, +4.37977804414E+002
+1.27281602003E+007, +2.25113477057E+002, +4.42371454674E+002
+1.28531914894E+007, +2.24637428433E+002, +4.47107889366E+002
+1.29782227785E+007, +2.25446994029E+002, +4.52729264903E+002
+1.31032540676E+007, +2.27337624573E+002, +4.57815240438E+002
+1.32282853567E+007, +2.28882615056E+002, +4.64052107721E+002
+1.33533166458E+007, +2.29544063051E+002, +4.68379169324E+002
+1.34783479349E+007, +2.29980500995E+002, +4.73700211219E+002
+1.36033792240E+007, +2.30884335966E+002, +4.79177795128E+002
+1.37284105131E+007, +2.32475625931E+002, +4.83914177101E+002
+1.38534418023E+007, +2.33959189894E+002, +4.88906486995E+002
+1.39784730914E+007, +2.35062183041E+002, +4.94107634018E+002
+1.41035043805E+007, +2.34943308954E+002, +5.00367568344E+002
+1.42285356696E+007, +2.35899518775E+002, +5.05819022580E+002
+1.43535669587E+007, +2.36371048446E+002, +5.11096337016E+002
+1.44785982478E+007, +2.37117803317E+002, +5.17995649961E+002
+1.46036295369E+007, +2.39147286255E+002, +5.22941706446E+002
+1.47286608260E+007, +2.41406262948E+002, +5.27833368841E+002
+1.48536921151E+007, +2.41677063835E+002, +5.33349725097E+002
+1.49787234043E+007, +2.40992686073E+002, +5.39894915642E+002
+1.51037546934E+007, +2.43448298648E+002, +5.45405823352E+002
+1.52287859825E+007, +2.44198320926E+002, +5.51538820064E+002
+1.53538172716E+007, +2.45290846569E+002, +5.57484541228E+002
+1.54788485607E+007, +2.46169279215E+002, +5.63891954293E+002
+1.56038798498E+007, +2.46703337689E+002, +5.69357546500E+002
+1.57289111389E+007, +2.50983220791E+002, +5.76632878965E+002
+1.58539424280E+007, +2.53052651459E+002, +5.82365391465E+002
+1.59789737171E+007, +2.52662881525E+002, +5.86970075406E+002
+1.61040050063E+007, +2.53493310305E+002, +5.93025565369E+002
+1.62290362954E+007, +2.54487682765E+002, +6.01024427721E+002
+1.63540675845E+007, +2.56952448474E+002, +6.05886932082E+002
+1.64790988736E+007, +2.58886583815E+002, +6.11980374820E+002
+1.66041301627E+007, +2.59270764387E+002, +6.19455439094E+002
+1.67291614518E+007, +2.59488280632E+002, +6.25237502134E+002
+1.68541927409E+007, +2.61590422933E+002, +6.35541903741E+002
+1.69792240300E+007, +2.62661281366E+002, +6.43763613067E+002
+1.71042553191E+007, +2.61087624050E+002, +6.49166212430E+002
+1.72292866083E+007, +2.66109784910E+002, +6.52527813221E+002
+1.73543178974E+007, +2.65440231005E+002, +6.58950274424E+002
+1.74793491865E+007, +2.67959365448E+002, +6.66012506113E+002
+1.76043804756E+007, +2.70612449592E+002, +6.71737227685E+002
+1.77294117647E+007, +2.71144632653E+002, +6.82082341559E+002
+1.78544430538E+007, +2.70638502047E+002, +6.84844034293E+002
+1.79794743429E+007, +2.76200337854E+002, +6.92070579250E+002
+1.81045056320E+007, +2.77967027118E+002, +7.00515482301E+002
+1.82295369212E+007, +2.78984995918E+002, +7.07153024920E+002
+1.83545682103E+007, +2.80673712899E+002, +7.13139883855E+002
+1.84795994994E+007, +2.83105930563E+002, +7.22910884775E+002
+1.86046307885E+007, +2.85154999067E+002, +7.28488510835E+002
+1.87296620776E+007, +2.84769514546E+002, +7.37944768526E+002
+1.88546933667E+007, +2.91051234309E+002, +7.41380449587E+002
+1.89797246558E+007, +2.91688068648E+002, +7.50774668780E+002
+1.91047559449E+007, +2.95318452407E+002, +7.54097761577E+002
+1.92297872340E+007, +2.96296961013E+002, +7.63506394898E+002
+1.93548185232E+007, +2.96882484835E+002, +7.73853351853E+002
+1.94798498123E+007, +2.99284639937E+002, +7.78977765404E+002
+1.96048811014E+007, +3.05299420451E+002, +7.85843651188E+002
+1.97299123905E+007, +3.03789655136E+002, +7.94349345164E+002
+1.98549436796E+007, +3.07109311883E+002, +8.04645977086E+002
+1.99799749687E+007, +3.12695028470E+002, +8.10924532344E+002
+2.01050062578E+007, +3.08986601746E+002, +8.23424731057E+002
+2.02300375469E+007, +3.14468143829E+002, +8.28062611102E+002
+2.03550688360E+007, +3.16817464002E+002, +8.35816802638E+002
+2.04801001252E+007, +3.18164344229E+002, +8.44010568213E+002
+2.06051314143E+007, +3.22797285977E+002, +8.52355136764E+002
+2.07301627034E+007, +3.27514689383E+002, +8.64405551562E+002
+2.08551939925E+007, +3.26799580184E+002, +8.69654898839E+002
+2.09802252816E+007, +3.30006910604E+002, +8.79771127502E+002
+2.11052565707E+007, +3.31887673455E+002, +8.86991780556E+002
+2.12302878598E+007, +3.40642771153E+002, +8.92731014680E+002
+2.13553191489E+007, +3.42636640573E+002, +9.05688043495E+002
+2.14803504380E+007, +3.39085200533E+002, +9.16013664118E+002
+2.16053817272E+007, +3.48292622305E+002, +9.26807809507E+002
+2.17304130163E+007, +3.51647076712E+002, +9.32749858396E+002
+2.18554443054E+007, +3.55851196179E+002, +9.40386313662E+002
+2.19804755945E+007, +3.57221712869E+002, +9.48341744115E+002
+2.21055068836E+007, +3.64980891835E+002, +9.57004270654E+002
+2.22305381727E+007, +3.72848040564E+002, +9.72292241893E+002
+2.23555694618E+007, +3.72334107956E+002, +9.80332294937E+002
+2.24806007509E+007, +3.76095620376E+002, +9.87209684678E+002
+2.26056320401E+007, +3.75168231075E+002, +9.97339133657E+002
+2.27306633292E+007, +3.83219004887E+002, +1.00538420473E+003
+2.28556946183E+007, +3.87485249515E+002, +1.01608877708E+003
+2.29807259074E+007, +3.92518744742E+002, +1.02609849232E+003
+2.31057571965E+007, +3.94425408924E+002, +1.03643913105E+003
+2.32307884856E+007, +4.02631880313E+002, +1.04550279820E+003
+2.33558197747E+007, +4.08791291363E+002, +1.05013227940E+003
+2.34808510638E+007, +4.16553773620E+002, +1.05564592078E+003
+2.36058823529E+007, +4.21785851686E+002, +1.06383820816E+003
+2.37309136421E+007, +4.24362575478E+002, +1.07774601997E+003
+2.38559449312E+007, +4.32257534685E+002, +1.08605403756E+003
+2.39809762203E+007, +4.40890054954E+002, +1.09859990428E+003
+2.41060075094E+007, +4.43794499617E+002, +1.10994460124E+003
+2.42310387985E+007, +4.49043715284E+002, +1.11382340498E+003
+2.43560700876E+007, +4.55478716135E+002, +1.12362291024E+003
+2.44811013767E+007, +4.52632931235E+002, +1.13170163162E+003
+2.46061326658E+007, +4.57401128778E+002, +1.13735513912E+003
+2.47311639549E+007, +4.64566143710E+002, +1.15697387672E+003
+2.48561952441E+007, +4.68146420935E+002, +1.16922070245E+003
+2.49812265332E+007, +4.63799182812E+002, +1.17703888892E+003
+2.51062578223E+007, +4.71209010742E+002, +1.18853246670E+003
+2.52312891114E+007, +4.72890864260E+002, +1.20128027764E+003
+2.53563204005E+007, +4.77085720694E+002, +1.21208873150E+003
+2.54813516896E+007, +4.81111491957E+002, +1.22983381908E+003
+2.56063829787E+007, +4.93135702757E+002, +1.23890146744E+003
+2.57314142678E+007, +4.95048487366E+002, +1.25475588254E+003
+2.58564455569E+007, +5.09075810423E+002, +1.26161301424E+003
+2.59814768461E+007, +5.15249036483E+002, +1.28729851516E+003
+2.61065081352E+007, +5.21826186179E+002, +1.29874804130E+003
+2.62315394243E+007, +5.25148690298E+002, +1.31661262595E+003
+2.63565707134E+007, +5.31818966552E+002, +1.32852733197E+003
+2.64816020025E+007, +5.46023906256E+002, +1.34571912684E+003
+2.66066332916E+007, +5.55536171662E+002, +1.36316736163E+003
+2.67316645807E+007, +5.50072104411E+002, +1.37107936553E+003
+2.68566958698E+007, +5.65616055322E+002, +1.38456850468E+003
+2.69817271589E+007, +5.75623989082E+002, +1.39335912789E+003
+2.71067584481E+007, +5.82585370907E+002, +1.41326507067E+003
+2.72317897372E+007, +5.94711439068E+002, +1.42523022041E+003
+2.73568210263E+007, +5.91849264838E+002, +1.43318991986E+003
+2.74818523154E+007, +5.97153094755E+002, +1.46323342756E+003
+2.76068836045E+007, +5.88924617692E+002, +1.48012908968E+003
+2.77319148936E+007, +6.05664412889E+002, +1.49162371311E+003
+2.78569461827E+007, +6.22392916975E+002, +1.50440960005E+003
+2.79819774718E+007, +6.31781946315E+002, +1.53877651750E+003
+2.81070087610E+007, +6.48849449272E+002, +1.55205383802E+003
+2.82320400501E+007, +6.50852268272E+002, +1.56857473549E+003
+2.83570713392E+007, +6.61217880558E+002, +1.58150452290E+003
+2.84821026283E+007, +6.81346112078E+002, +1.59802951185E+003
+2.86071339174E+007, +6.89346795876E+002, +1.62103310157E+003
+2.87321652065E+007, +7.00873347286E+002, +1.64072491548E+003
+2.88571964956E+007, +7.13106593557E+002, +1.66475342548E+003
+2.89822277847E+007, +7.21294799828E+002, +1.67423826403E+003
+2.91072590738E+007, +7.35809639835E+002, +1.71653862759E+003
+2.92322903630E+007, +7.58421312818E+002, +1.72964022431E+003
+2.93573216521E+007, +7.66666584575E+002, +1.76714309988E+003
+2.94823529412E+007, +7.73828175833E+002, +1.78798687959E+003
+2.96073842303E+007, +7.84695640458E+002, +1.81701524188E+003
+2.97324155194E+007, +7.95649503227E+002, +1.82960707167E+003
+2.98574468085E+007, +8.03356801968E+002, +1.84556631352E+003
+2.99824780976E+007, +8.32254456171E+002, +1.86160247525E+003
+3.01075093867E+007, +8.49827714165E+002, +1.88421247131E+003
+3.02325406758E+007, +8.62252400109E+002, +1.90116430260E+003
+3.03575719650E+007, +8.88870036760E+002, +1.93642982022E+003
+3.04826032541E+007, +9.07464587409E+002, +1.97184035069E+003
+3.06076345432E+007, +9.29624840525E+002, +1.98783684509E+003
+3.07326658323E+007, +9.67585927625E+002, +2.01701881737E+003
+3.08576971214E+007, +9.95851294372E+002, +2.03854463455E+003
+3.09827284105E+007, +1.03581821064E+003, +2.07654048532E+003
+3.11077596996E+007, +1.04694406681E+003, +2.10664896986E+003
+3.12327909887E+007, +1.06188730879E+003, +2.11424109731E+003
+3.13578222778E+007, +1.07553984102E+003, +2.17815859065E+003
+3.14828535670E+007, +1.09757090856E+003, +2.18790126457E+003
+3.16078848561E+007, +1.12574092013E+003, +2.22908513401E+003
+3.17329161452E+007, +1.15376683144E+003, +2.28316396110E+003
+3.18579474343E+007, +1.18198234304E+003, +2.29161677249E+003
+3.19829787234E+007, +1.24733020252E+003, +2.33679556438E+003
+3.21080100125E+007, +1.25276871484E+003, +2.35749784841E+003
+3.22330413016E+007, +1.30035236145E+003, +2.37754565212E+003
+3.23580725907E+007, +1.33270233237E+003, +2.42036595243E+003
+3.24831038798E+007, +1.36590924594E+003, +2.46721126253E+003
+3.26081351690E+007, +1.39864042365E+003, +2.47983924881E+003
+3.27331664581E+007, +1.45081269331E+003, +2.52829754080E+003
+3.28581977472E+007, +1.46410579760E+003, +2.56826423395E+003
+3.29832290363E+007, +1.50374967663E+003, +2.61261492413E+003
+3.31082603254E+007, +1.58802914319E+003, +2.63222965357E+003
+3.32332916145E+007, +1.63067009694E+003, +2.71144539297E+003
+3.33583229036E+007, +1.69279768138E+003, +2.74683220950E+003
+3.34833541927E+007, +1.74191929436E+003, +2.80319820407E+003
+3.36083854819E+007, +1.80777458426E+003, +2.83664105067E+003
+3.37334167710E+007, +1.86523157952E+003, +2.87008260437E+003
+3.38584480601E+007, +1.94267038147E+003, +2.86066131270E+003
+3.39834793492E+007, +2.02027350081E+003, +2.94997823053E+003
+3.41085106383E+007, +2.14214506607E+003, +2.97200836618E+003
+3.42335419274E+007, +2.18214065110E+003, +3.04833051643E+003
+3.43585732165E+007, +2.26201079106E+003, +3.02765897963E+003
+3.44836045056E+007, +2.31475830872E+003, +3.09619348929E+003
+3.46086357947E+007, +2.42014512460E+003, +3.15605594904E+003
+3.47336670839E+007, +2.49240255074E+003, +3.18392378122E+003
+3.48586983730E+007, +2.60593220931E+003, +3.18866475833E+003
+3.49837296621E+007, +2.64978471964E+003, +3.23386142374E+003
+3.51087609512E+007, +2.79592886032E+003, +3.24175417654E+003
+3.52337922403E+007, +2.98812515293E+003, +3.30643491327E+003
+3.53588235294E+007, +3.08057088867E+003, +3.42622613231E+003
+3.54838548185E+007, +3.26970935670E+003, +3.32672909509E+003
+3.56088861076E+007, +3.43392696804E+003, +3.29533101213E+003
+3.57339173967E+007, +3.58897803715E+003, +3.39557027039E+003
+3.58589486859E+007, +3.69825036014E+003, +3.49624549185E+003
+3.59839799750E+007, +3.87073155906E+003, +3.42500335536E+003
+3.61090112641E+007, +3.97385081741E+003, +3.49972225703E+003
+3.62340425532E+007, +4.30413344392E+003, +3.45492005008E+003
+3.63590738423E+007, +4.56903826127E+003, +3.41888618349E+003
+3.64841051314E+007, +4.63503958200E+003, +3.20189238816E+003
+3.66091364205E+007, +4.71033162890E+003, +3.13268788555E+003
+3.67341677096E+007, +4.84860593340E+003, +3.06835432884E+003
+3.68591989987E+007, +5.19093960509E+003, +3.05011388446E+003
+3.69842302879E+007, +5.45891023699E+003, +3.04717378432E+003
+3.71092615770E+007, +5.50348758024E+003, +2.93261431989E+003
+3.72342928661E+007, +5.71726698081E+003, +2.74966029860E+003
+3.73593241552E+007, +6.03448252041E+003, +2.51100818647E+003
+3.74843554443E+007, +6.29198057264E+003, +2.37966415129E+003
+3.76093867334E+007, +6.41464828950E+003, +2.10524150431E+003
+3.77344180225E+007, +6.60302153291E+003, +1.75018374229E+003
+3.78594493116E+007, +6.80420078123E+003, +1.59682245241E+003
+3.79844806008E+007, +6.75143626530E+003, +1.28265790879E+003
+3.81095118899E+007, +6.84204293413E+003, +9.97720832850E+002
+3.82345431790E+007, +6.89971973757E+003, +7.16619978488E+002
+3.83595744681E+007, +7.20641078112E+003, +5.08598607451E+002
+3.84846057572E+007, +7.16960332178E+003, +1.24869841507E+002
+3.86096370463E+007, +7.12135806995E+003, +3.53797550400E+001
+3.87346683354E+007, +7.32672064043E+003, -4.91403273196E+002
+3.88596996245E+007, +6.84823666415E+003, -9.01338899029E+002
+3.89847309136E+007, +7.03094843115E+003, -1.09198096045E+003
+3.91097622028E+007, +7.08313920970E+003, -1.35892625181E+003
+3.92347934919E+007, +6.78949734019E+003, -1.81211042804E+003
+3.93598247810E+007, +6.77080856253E+003, -1.84713226737E+003
+3.94848560701E+007, +6.62845029375E+003, -2.05356662316E+003
+3.96098873592E+007, +6.43660590072E+003, -2.26911372989E+003
+3.97349186483E+007, +6.21648449591E+003, -2.67672716146E+003
+3.98599499374E+007, +5.92855705090E+003, -2.91716209498E+003
+3.99849812265E+007, +5.85134226757E+003, -3.12409050727E+003
+4.01100125156E+007, +5.48110881809E+003, -3.24959206926E+003
