"# Channel 1"
"# Trace 1"
Frequency, Formatted Data, Formatted Data
+1.00000000000E+005, +1.00442835995E+002, +6.35659527207E-001
+2.25031289111E+005, +1.00325426069E+002, +3.50265714762E+000
+3.50062578223E+005, +1.00328501417E+002, +5.52855599298E+000
+4.75093867334E+005, +1.00372747341E+002, +7.57473157410E+000
+6.00125156446E+005, +1.00448575520E+002, +9.56357055010E+000
+7.25156445557E+005, +1.00178987480E+002, +1.15405521837E+001
+8.50187734668E+005, +1.00464332347E+002, +1.36057905322E+001
+9.75219023780E+005, +1.00345250391E+002, +1.56329839109E+001
+1.10025031289E+006, +1.00460642524E+002, +1.75320162902E+001
+1.22528160200E+006, +1.00406240748E+002, +1.94430688609E+001
+1.35031289111E+006, +1.00507227235E+002, +2.14866325970E+001
+1.47534418023E+006, +1.00482223836E+002, +2.33383333740E+001
+1.60037546934E+006, +1.00501207235E+002, +2.53979538986E+001
+1.72540675845E+006, +1.00328324900E+002, +2.73175453407E+001
+1.85043804756E+006, +1.00583238427E+002, +2.93796768572E+001
+1.97546933667E+006, +1.00626757792E+002, +3.13579553031E+001
+2.10050062578E+006, +1.00629405900E+002, +3.32758481230E+001
+2.22553191489E+006, +1.00661438418E+002, +3.54586317660E+001
+2.35056320401E+006, +1.00675965186E+002, +3.74374314286E+001
+2.47559449312E+006, +1.00601206715E+002, +3.93130361439E+001
+2.60062578223E+006, +1.00566287586E+002, +4.12965708758E+001
+2.72565707134E+006, +1.00766915190E+002, +4.33367009768E+001
+2.85068836045E+006, +1.00886396061E+002, +4.51292915062E+001
+2.97571964956E+006, +1.00719894044E+002, +4.74403636475E+001
+3.10075093867E+006, +1.00691975861E+002, +4.93795158782E+001
+3.22578222778E+006, +1.00831258658E+002, +5.12390423375E+001
+3.35081351690E+006, +1.00836108948E+002, +5.31458653989E+001
+3.47584480601E+006, +1.00892609223E+002, +5.51708737036E+001
+3.60087609512E+006, +1.01037399741E+002, +5.71775371992E+001
+3.72590738423E+006, +1.01096797244E+002, +5.91582303186E+001
+3.85093867334E+006, +1.00981345189E+002, +6.12049169139E+001
+3.97596996245E+006, +1.00848281735E+002, +6.30084761488E+001
+4.10100125156E+006, +1.00796892618E+002, +6.54872407272E+001
+4.22603254068E+006, +1.01375840300E+002, +6.73566536506E+001
+4.35106382979E+006, +1.01201297696E+002, +6.91795796362E+001
+4.47609511890E+006, +1.01220675779E+002, +7.10651191312E+001
+4.60112640801E+006, +1.01269233751E+002, +7.30005823475E+001
+4.72615769712E+006, +1.01431759254E+002, +7.52495455958E+001
+4.85118898623E+006, +1.01452263056E+002, +7.72566303766E+001
+4.97622027534E+006, +1.01512054161E+002, +7.92271774188E+001
+5.10125156446E+006, +1.01473248511E+002, +8.10827217185E+001
+5.22628285357E+006, +1.01545969203E+002, +8.28796903681E+001
+5.35131414268E+006, +1.01467961650E+002, +8.49257862057E+001
+5.47634543179E+006, +1.01897687839E+002, +8.70364011974E+001
+5.60137672090E+006, +1.01403621592E+002, +8.89842452750E+001
+5.72640801001E+006, +1.01913461422E+002, +9.09261859578E+001
+5.85143929912E+006, +1.01912868496E+002, +9.28935463311E+001
+5.97647058824E+006, +1.01795823223E+002, +9.49652205002E+001
+6.10150187735E+006, +1.01999721035E+002, +9.68998035724E+001
+6.22653316646E+006, +1.02175799881E+002, +9.89023963421E+001
+6.35156445557E+006, +1.02075754111E+002, +1.00972755354E+002
+6.47659574468E+006, +1.02033681494E+002, +1.02997903005E+002
+6.60162703379E+006, +1.02097246012E+002, +1.04835103846E+002
+6.72665832290E+006, +1.02112003299E+002, +1.07145618797E+002
+6.85168961202E+006, +1.02174983572E+002, +1.09077840354E+002
+6.97672090113E+006, +1.02313686177E+002, +1.11039042544E+002
+7.10175219024E+006, +1.02285313725E+002, +1.13173858725E+002
+7.22678347935E+006, +1.02362658331E+002, +1.15221265826E+002
+7.35181476846E+006, +1.02591206982E+002, +1.17116638003E+002
+7.47684605757E+006, +1.02540439012E+002, +1.18925164799E+002
+7.60187734668E+006, +1.02652796796E+002, +1.21078463296E+002
+7.72690863579E+006, +1.02742585153E+002, +1.23142424211E+002
+7.85193992491E+006, +1.02833252743E+002, +1.25062507281E+002
+7.97697121402E+006, +1.02871048746E+002, +1.27208097604E+002
+8.10200250313E+006, +1.02997444849E+002, +1.29475539076E+002
+8.22703379224E+006, +1.03029774311E+002, +1.31413919462E+002
+8.35206508135E+006, +1.03182051712E+002, +1.33482304767E+002
+8.47709637046E+006, +1.03165415176E+002, +1.35635435010E+002
+8.60212765957E+006, +1.03269185537E+002, +1.37629331668E+002
+8.72715894869E+006, +1.03325608106E+002, +1.39579304209E+002
+8.85219023780E+006, +1.03433853874E+002, +1.41882921925E+002
+8.97722152691E+006, +1.03299904287E+002, +1.43672215493E+002
+9.10225281602E+006, +1.03691799529E+002, +1.45693043358E+002
+9.22728410513E+006, +1.03555951480E+002, +1.47865543541E+002
+9.35231539424E+006, +1.03718956447E+002, +1.49813830093E+002
+9.47734668335E+006, +1.03500828318E+002, +1.52192392950E+002
+9.60237797247E+006, +1.03979341141E+002, +1.53898861653E+002
+9.72740926158E+006, +1.03955356762E+002, +1.56271646006E+002
+9.85244055069E+006, +1.03781765562E+002, +1.58344368048E+002
+9.97747183980E+006, +1.04008555695E+002, +1.60202781636E+002
+1.01025031289E+007, +1.04127092077E+002, +1.62322623102E+002
+1.02275344180E+007, +1.04401730057E+002, +1.64466793223E+002
+1.03525657071E+007, +1.04566279197E+002, +1.66710047427E+002
+1.04775969962E+007, +1.04638038524E+002, +1.68953271235E+002
+1.06026282854E+007, +1.04364834677E+002, +1.70725347527E+002
+1.07276595745E+007, +1.04858011023E+002, +1.72958082839E+002
+1.08526908636E+007, +1.04796935470E+002, +1.75115066470E+002
+1.09777221527E+007, +1.04875560598E+002, +1.77033019829E+002
+1.11027534418E+007, +1.05193544819E+002, +1.79233859233E+002
+1.12277847309E+007, +1.05230822095E+002, +1.81318846046E+002
+1.13528160200E+007, +1.05027652231E+002, +1.83625692601E+002
+1.14778473091E+007, +1.05156310718E+002, +1.85325231817E+002
+1.16028785982E+007, +1.05183599434E+002, +1.87793386045E+002
+1.17279098874E+007, +1.05653696613E+002, +1.89805262405E+002
+1.18529411765E+007, +1.05486522641E+002, +1.91818675018E+002
+1.19779724656E+007, +1.05586077270E+002, +1.93978337862E+002
+1.21030037547E+007, +1.06060324035E+002, +1.96303214948E+002
+1.22280350438E+007, +1.06023240240E+002, +1.98295153556E+002
+1.23530663329E+007, +1.05879969857E+002, +2.00470776817E+002
+1.24780976220E+007, +1.06384838272E+002, +2.02999724264E+002
+1.26031289111E+007, +1.06233876298E+002, +2.04641279769E+002
+1.27281602003E+007, +1.06504469318E+002, +2.07052784371E+002
+1.28531914894E+007, +1.06973163887E+002, +2.09225755816E+002
+1.29782227785E+007, +1.06767754790E+002, +2.11684476620E+002
+1.31032540676E+007, +1.06946591788E+002, +2.13513732522E+002
+1.32282853567E+007, +1.06831188201E+002, +2.15567775836E+002
+1.33533166458E+007, +1.07214210509E+002, +2.18073078163E+002
+1.34783479349E+007, +1.07229964173E+002, +2.20303500182E+002
+1.36033792240E+007, +1.07097370019E+002, +2.22557671357E+002
+1.37284105131E+007, +1.07448483954E+002, +2.24450598731E+002
+1.38534418023E+007, +1.07620126965E+002, +2.26459717630E+002
+1.39784730914E+007, +1.07874900318E+002, +2.29116229710E+002
+1.41035043805E+007, +1.07786519658E+002, +2.30648759804E+002
+1.42285356696E+007, +1.08072266664E+002, +2.33299574069E+002
+1.43535669587E+007, +1.08082352165E+002, +2.35410136856E+002
+1.44785982478E+007, +1.08324572082E+002, +2.37831930653E+002
+1.46036295369E+007, +1.08494748258E+002, +2.39929020668E+002
+1.47286608260E+007, +1.08442896002E+002, +2.42292094471E+002
+1.48536921151E+007, +1.08862175338E+002, +2.44032437921E+002
+1.49787234043E+007, +1.08762653860E+002, +2.46422488008E+002
+1.51037546934E+007, +1.09613984274E+002, +2.48949981798E+002
+1.52287859825E+007, +1.09116033061E+002, +2.51106779272E+002
+1.53538172716E+007, +1.08950176770E+002, +2.53041420258E+002
+1.54788485607E+007, +1.09498611242E+002, +2.55552454318E+002
+1.56038798498E+007, +1.10135613199E+002, +2.58024633844E+002
+1.57289111389E+007, +1.09986748295E+002, +2.60020016189E+002
+1.58539424280E+007, +1.10174610656E+002, +2.62183697513E+002
+1.59789737171E+007, +1.10140662916E+002, +2.64569999404E+002
+1.61040050063E+007, +1.10258651398E+002, +2.66844608103E+002
+1.62290362954E+007, +1.10709419944E+002, +2.68976718892E+002
+1.63540675845E+007, +1.10441620687E+002, +2.71229578891E+002
+1.64790988736E+007, +1.10557757114E+002, +2.73655776446E+002
+1.66041301627E+007, +1.11002608303E+002, +2.75835005329E+002
+1.67291614518E+007, +1.11170316800E+002, +2.78526160277E+002
+1.68541927409E+007, +1.11425115822E+002, +2.80231427418E+002
+1.69792240300E+007, +1.11197602202E+002, +2.82858642176E+002
+1.71042553191E+007, +1.11297240681E+002, +2.85597909577E+002
+1.72292866083E+007, +1.11367439722E+002, +2.87860966824E+002
+1.73543178974E+007, +1.11723011411E+002, +2.90017895157E+002
+1.74793491865E+007, +1.11621738374E+002, +2.92214787864E+002
+1.76043804756E+007, +1.12795574871E+002, +2.94474734880E+002
+1.77294117647E+007, +1.12898925216E+002, +2.96923013539E+002
+1.78544430538E+007, +1.12460035173E+002, +2.98883285874E+002
+1.79794743429E+007, +1.12960420367E+002, +3.01670443487E+002
+1.81045056320E+007, +1.13433945934E+002, +3.04069150543E+002
+1.82295369212E+007, +1.13076072937E+002, +3.06319239899E+002
+1.83545682103E+007, +1.13726959345E+002, +3.08499755645E+002
+1.84795994994E+007, +1.13763857748E+002, +3.10925759168E+002
+1.86046307885E+007, +1.14308019037E+002, +3.13211321980E+002
+1.87296620776E+007, +1.14422999004E+002, +3.15882809401E+002
+1.88546933667E+007, +1.14674081674E+002, +3.18494519802E+002
+1.89797246558E+007, +1.14340286516E+002, +3.20411259874E+002
+1.91047559449E+007, +1.14836238474E+002, +3.23198767756E+002
+1.92297872340E+007, +1.14915558527E+002, +3.25557882459E+002
+1.93548185232E+007, +1.15802414337E+002, +3.28216015390E+002
+1.94798498123E+007, +1.16116198557E+002, +3.30076375046E+002
+1.96048811014E+007, +1.15785779421E+002, +3.32417664679E+002
+1.97299123905E+007, +1.15841867184E+002, +3.34991655552E+002
+1.98549436796E+007, +1.15921163043E+002, +3.37851132291E+002
+1.99799749687E+007, +1.16641693842E+002, +3.39978656529E+002
+2.01050062578E+007, +1.16745627322E+002, +3.42853237794E+002
+2.02300375469E+007, +1.16585759816E+002, +3.44898394767E+002
+2.03550688360E+007, +1.17774283734E+002, +3.48122840310E+002
+2.04801001252E+007, +1.16963055085E+002, +3.50659937657E+002
+2.06051314143E+007, +1.17827805240E+002, +3.52393965431E+002
+2.07301627034E+007, +1.18113054937E+002, +3.55634217565E+002
+2.08551939925E+007, +1.18374361315E+002, +3.57533412061E+002
+2.09802252816E+007, +1.18937066721E+002, +3.60050367885E+002
+2.11052565707E+007, +1.18404892474E+002, +3.62026152265E+002
+2.12302878598E+007, +1.18973086622E+002, +3.64974170298E+002
+2.13553191489E+007, +1.19390656091E+002, +3.68039963419E+002
+2.14803504380E+007, +1.19654764867E+002, +3.70143803439E+002
+2.16053817272E+007, +1.19841304111E+002, +3.72660724877E+002
+2.17304130163E+007, +1.21177508028E+002, +3.74952644913E+002
+2.18554443054E+007, +1.20939283180E+002, +3.78460007480E+002
+2.19804755945E+007, +1.19945465359E+002, +3.79874922096E+002
+2.21055068836E+007, +1.20729354411E+002, +3.82736597015E+002
+2.22305381727E+007, +1.21519489661E+002, +3.85882487974E+002
+2.23555694618E+007, +1.21571983352E+002, +3.87739680292E+002
+2.24806007509E+007, +1.22536288228E+002, +3.90115191606E+002
+2.26056320401E+007, +1.22535555157E+002, +3.92125119906E+002
+2.27306633292E+007, +1.23638778443E+002, +3.95158339955E+002
+2.28556946183E+007, +1.22660393910E+002, +3.98052076382E+002
+2.29807259074E+007, +1.23852533279E+002, +4.00675435274E+002
+2.31057571965E+007, +1.24311022351E+002, +4.03296873951E+002
+2.32307884856E+007, +1.25182699127E+002, +4.05867773411E+002
+2.33558197747E+007, +1.25423483662E+002, +4.08692681918E+002
+2.34808510638E+007, +1.25806337981E+002, +4.11446370731E+002
+2.36058823529E+007, +1.25866704285E+002, +4.14794008786E+002
+2.37309136421E+007, +1.26179693379E+002, +4.16609472333E+002
+2.38559449312E+007, +1.26302657869E+002, +4.19788564860E+002
+2.39809762203E+007, +1.27106813487E+002, +4.20655590122E+002
+2.41060075094E+007, +1.26317740587E+002, +4.25127335367E+002
+2.42310387985E+007, +1.27402155610E+002, +4.26917262047E+002
+2.43560700876E+007, +1.27128603736E+002, +4.29581576619E+002
+2.44811013767E+007, +1.26756616460E+002, +4.32555679088E+002
+2.46061326658E+007, +1.26968446591E+002, +4.35043639343E+002
+2.47311639549E+007, +1.27828177291E+002, +4.37040931161E+002
+2.48561952441E+007, +1.28331161533E+002, +4.39474470666E+002
+2.49812265332E+007, +1.29702385883E+002, +4.42432642019E+002
+2.51062578223E+007, +1.29701760593E+002, +4.45739118395E+002
+2.52312891114E+007, +1.30265162800E+002, +4.48601300505E+002
+2.53563204005E+007, +1.29719910396E+002, +4.51828607443E+002
+2.54813516896E+007, +1.29807819770E+002, +4.54218052625E+002
+2.56063829787E+007, +1.30162810836E+002, +4.55972608141E+002
+2.57314142678E+007, +1.30436158900E+002, +4.58522668584E+002
+2.58564455569E+007, +1.31605604374E+002, +4.62554119254E+002
+2.59814768461E+007, +1.31443256699E+002, +4.65619866596E+002
+2.61065081352E+007, +1.32014483254E+002, +4.68008044921E+002
+2.62315394243E+007, +1.32150455226E+002, +4.70611340226E+002
+2.63565707134E+007, +1.31598950351E+002, +4.73366588711E+002
+2.64816020025E+007, +1.33540526936E+002, +4.77379654008E+002
+2.66066332916E+007, +1.32258774248E+002, +4.79917591909E+002
+2.67316645807E+007, +1.32821580068E+002, +4.82956651079E+002
+2.68566958698E+007, +1.35016555518E+002, +4.86717255773E+002
+2.69817271589E+007, +1.34423131017E+002, +4.87975174500E+002
+2.71067584481E+007, +1.35007823393E+002, +4.90401815294E+002
+2.72317897372E+007, +1.35052959188E+002, +4.94408875350E+002
+2.73568210263E+007, +1.36238049042E+002, +4.97174984328E+002
+2.74818523154E+007, +1.35172771250E+002, +4.99856843585E+002
+2.76068836045E+007, +1.34469117326E+002, +5.04410647527E+002
+2.77319148936E+007, +1.36354728664E+002, +5.07521236063E+002
+2.78569461827E+007, +1.37797616636E+002, +5.10022856542E+002
+2.79819774718E+007, +1.37377629639E+002, +5.12235641120E+002
+2.81070087610E+007, +1.37529245169E+002, +5.15846027439E+002
+2.82320400501E+007, +1.36955564419E+002, +5.19937558906E+002
+2.83570713392E+007, +1.38082724147E+002, +5.22627364073E+002
+2.84821026283E+007, +1.39156109704E+002, +5.25296861170E+002
+2.86071339174E+007, +1.38706310378E+002, +5.28500169181E+002
+2.87321652065E+007, +1.40625513397E+002, +5.31401841800E+002
+2.88571964956E+007, +1.39866318947E+002, +5.34445322730E+002
+2.89822277847E+007, +1.42874747209E+002, +5.37501757276E+002
+2.91072590738E+007, +1.40523918272E+002, +5.41101663358E+002
+2.92322903630E+007, +1.40262720874E+002, +5.43677714364E+002
+2.93573216521E+007, +1.41734720634E+002, +5.47167199917E+002
+2.94823529412E+007, +1.42759057090E+002, +5.52624888011E+002
+2.96073842303E+007, +1.41634164474E+002, +5.53058966877E+002
+2.97324155194E+007, +1.44350595034E+002, +5.60028694465E+002
+2.98574468085E+007, +1.42514713378E+002, +5.60325936907E+002
+2.99824780976E+007, +1.44733942660E+002, +5.64840858075E+002
+3.01075093867E+007, +1.44164152794E+002, +5.66132098520E+002
+3.02325406758E+007, +1.43878109468E+002, +5.69878111690E+002
+3.03575719650E+007, +1.45721908866E+002, +5.73301173250E+002
+3.04826032541E+007, +1.45971995026E+002, +5.78337105680E+002
+3.06076345432E+007, +1.46755257682E+002, +5.79995717205E+002
+3.07326658323E+007, +1.47750388221E+002, +5.83688788488E+002
+3.08576971214E+007, +1.46378799860E+002, +5.88521858752E+002
+3.09827284105E+007, +1.49507705708E+002, +5.88415241159E+002
+3.11077596996E+007, +1.47032771753E+002, +5.96017958583E+002
+3.12327909887E+007, +1.48122344569E+002, +5.98434546427E+002
+3.13578222778E+007, +1.48739664149E+002, +6.01393611193E+002
+3.14828535670E+007, +1.50521568084E+002, +6.06791830676E+002
+3.16078848561E+007, +1.52085144778E+002, +6.07668619884E+002
+3.17329161452E+007, +1.50294209165E+002, +6.11733448897E+002
+3.18579474343E+007, +1.53369280936E+002, +6.16954129370E+002
+3.19829787234E+007, +1.51715608474E+002, +6.16704999501E+002
+3.21080100125E+007, +1.51727524380E+002, +6.22526115292E+002
+3.22330413016E+007, +1.51936751961E+002, +6.25557229079E+002
+3.23580725907E+007, +1.53960179709E+002, +6.30087958485E+002
+3.24831038798E+007, +1.53393674979E+002, +6.34732004098E+002
+3.26081351690E+007, +1.53983733873E+002, +6.38366031425E+002
+3.27331664581E+007, +1.55681480668E+002, +6.40104985058E+002
+3.28581977472E+007, +1.55574814192E+002, +6.45989875769E+002
+3.29832290363E+007, +1.57081654701E+002, +6.49517835089E+002
+3.31082603254E+007, +1.56643906849E+002, +6.54200355992E+002
+3.32332916145E+007, +1.56333474403E+002, +6.56249827884E+002
+3.33583229036E+007, +1.58772413324E+002, +6.59952771569E+002
+3.34833541927E+007, +1.58918512592E+002, +6.63420754483E+002
+3.36083854819E+007, +1.59901407809E+002, +6.67342955415E+002
+3.37334167710E+007, +1.60178896545E+002, +6.70080856023E+002
+3.38584480601E+007, +1.59800205568E+002, +6.76414473608E+002
+3.39834793492E+007, +1.60608393683E+002, +6.79210086851E+002
+3.41085106383E+007, +1.58973045164E+002, +6.81817838765E+002
+3.42335419274E+007, +1.62802217093E+002, +6.86453259495E+002
+3.43585732165E+007, +1.62679686780E+002, +6.91762761565E+002
+3.44836045056E+007, +1.66137825266E+002, +6.92813579422E+002
+3.46086357947E+007, +1.66438214567E+002, +7.00742185599E+002
+3.47336670839E+007, +1.67492372855E+002, +7.01779348793E+002
+3.48586983730E+007, +1.65232757706E+002, +7.05138648556E+002
+3.49837296621E+007, +1.67978485869E+002, +7.10014140367E+002
+3.51087609512E+007, +1.65455079422E+002, +7.14337804581E+002
+3.52337922403E+007, +1.68829200227E+002, +7.18090183206E+002
+3.53588235294E+007, +1.69127753897E+002, +7.22616880066E+002
+3.54838548185E+007, +1.70293487353E+002, +7.27142329385E+002
+3.56088861076E+007, +1.70196949681E+002, +7.31983699433E+002
+3.57339173967E+007, +1.71710807277E+002, +7.38038481958E+002
+3.58589486859E+007, +1.69182425137E+002, +7.41259279423E+002
+3.59839799750E+007, +1.77471387803E+002, +7.44609131945E+002
+3.61090112641E+007, +1.71734245443E+002, +7.50522709238E+002
+3.62340425532E+007, +1.75512126145E+002, +7.52014905205E+002
+3.63590738423E+007, +1.76448922567E+002, +7.57343517876E+002
+3.64841051314E+007, +1.73627838070E+002, +7.62832315712E+002
+3.66091364205E+007, +1.76361052089E+002, +7.64919981774E+002
+3.67341677096E+007, +1.77382455726E+002, +7.71346554352E+002
+3.68591989987E+007, +1.78397856161E+002, +7.78928009109E+002
+3.69842302879E+007, +1.80831892838E+002, +7.78379425420E+002
+3.71092615770E+007, +1.80155075800E+002, +7.85689447287E+002
+3.72342928661E+007, +1.79267163245E+002, +7.85181697103E+002
+3.73593241552E+007, +1.85606372489E+002, +7.98004541449E+002
+3.74843554443E+007, +1.83928486575E+002, +7.99244382994E+002
+3.76093867334E+007, +1.85667505704E+002, +8.02011870091E+002
+3.77344180225E+007, +1.86702641534E+002, +8.08420934814E+002
+3.78594493116E+007, +1.90563983901E+002, +8.11877722970E+002
+3.79844806008E+007, +1.89202935614E+002, +8.15396592144E+002
+3.81095118899E+007, +1.88941461930E+002, +8.20908805871E+002
+3.82345431790E+007, +1.89256424280E+002, +8.26008759599E+002
+3.83595744681E+007, +1.89186193695E+002, +8.32389862104E+002
+3.84846057572E+007, +1.92606344947E+002, +8.35928262101E+002
+3.86096370463E+007, +1.90580401040E+002, +8.41676517936E+002
+3.87346683354E+007, +1.94990959526E+002, +8.48526467712E+002
+3.88596996245E+007, +1.95269449244E+002, +8.49374014040E+002
+3.89847309136E+007, +1.97785102376E+002, +8.58165818521E+002
+3.91097622028E+007, +1.98903357784E+002, +8.60160956056E+002
+3.92347934919E+007, +1.99642758281E+002, +8.68374988909E+002
+3.93598247810E+007, +2.01415349605E+002, +8.73695525351E+002
+3.94848560701E+007, +2.03722775138E+002, +8.75054452329E+002
+3.96098873592E+007, +2.06157180726E+002, +8.81387614410E+002
+3.97349186483E+007, +2.05789757250E+002, +8.86353995749E+002
+3.98599499374E+007, +2.05947978609E+002, +8.92124116821E+002
+3.99849812265E+007, +2.05067389359E+002, +8.98747084894E+002
+4.01100125156E+007, +2.06746358834E+002, +9.02819055759E+002
