"# Channel 1"
"# Trace 1"
Frequency, Formatted Data, Formatted Data
+1.00000000000E+005, +7.88047416125E+001, +6.64945498003E-001
+2.25031289111E+005, +7.86772675312E+001, +2.91105229119E+000
+3.50062578223E+005, +7.87061411898E+001, +4.33178473192E+000
+4.75093867334E+005, +7.86342130688E+001, +6.10579885879E+000
+6.00125156446E+005, +7.86468063974E+001, +7.64887924989E+000
+7.25156445557E+005, +7.87021336679E+001, +9.22858759056E+000
+8.50187734668E+005, +7.88019535606E+001, +1.07922023640E+001
+9.75219023780E+005, +7.86959878879E+001, +1.23793654882E+001
+1.10025031289E+006, +7.87051355867E+001, +1.39642962995E+001
+1.22528160200E+006, +7.88474866471E+001, +1.55439850437E+001
+1.35031289111E+006, +7.87857598898E+001, +1.71935579005E+001
+1.47534418023E+006, +7.87596830635E+001, +1.86472022657E+001
+1.60037546934E+006, +7.89002452407E+001, +2.01516433116E+001
+1.72540675845E+006, +7.87894280734E+001, +2.17035392649E+001
+1.85043804756E+006, +7.88844855696E+001, +2.32680178652E+001
+1.97546933667E+006, +7.89104764718E+001, +2.50361888356E+001
+2.10050062578E+006, +7.88141472233E+001, +2.65131898124E+001
+2.22553191489E+006, +7.88661857739E+001, +2.81501262208E+001
+2.35056320401E+006, +7.89546950617E+001, +2.96647210649E+001
+2.47559449312E+006, +7.89375222197E+001, +3.12627266484E+001
+2.60062578223E+006, +7.89786639465E+001, +3.28761201879E+001
+2.72565707134E+006, +7.89785668997E+001, +3.42442550790E+001
+2.85068836045E+006, +7.89528074171E+001, +3.59452961559E+001
+2.97571964956E+006, +7.89998335143E+001, +3.76482833170E+001
+3.10075093867E+006, +7.90417669169E+001, +3.91758885952E+001
+3.22578222778E+006, +7.90097049133E+001, +4.07115944175E+001
+3.35081351690E+006, +7.89691380347E+001, +4.23095519679E+001
+3.47584480601E+006, +7.89967953750E+001, +4.38799595351E+001
+3.60087609512E+006, +7.91242955334E+001, +4.55146496357E+001
+3.72590738423E+006, +7.91108288867E+001, +4.69743695315E+001
+3.85093867334E+006, +7.89600038882E+001, +4.85974750388E+001
+3.97596996245E+006, +7.90070852469E+001, +5.00305871889E+001
+4.10100125156E+006, +7.89186644482E+001, +5.18746857174E+001
+4.22603254068E+006, +7.94158732489E+001, +5.34225399223E+001
+4.35106382979E+006, +7.93006790610E+001, +5.48144205684E+001
+4.47609511890E+006, +7.90752579633E+001, +5.66949778722E+001
+4.60112640801E+006, +7.94608499804E+001, +5.81428757605E+001
+4.72615769712E+006, +7.92435433522E+001, +5.97427013756E+001
+4.85118898623E+006, +7.93863808858E+001, +6.12980909753E+001
+4.97622027534E+006, +7.95381080943E+001, +6.29537404201E+001
+5.10125156446E+006, +7.93755177596E+001, +6.42390808570E+001
+5.22628285357E+006, +7.94106143140E+001, +6.59951747362E+001
+5.35131414268E+006, +7.93646568699E+001, +6.76641641142E+001
+5.47634543179E+006, +7.96644283432E+001, +6.90949409869E+001
+5.60137672090E+006, +7.94326010735E+001, +7.06822651611E+001
+5.72640801001E+006, +7.97606660664E+001, +7.21637046630E+001
+5.85143929912E+006, +7.98033397734E+001, +7.38951179411E+001
+5.97647058824E+006, +7.97386593951E+001, +7.53008068090E+001
+6.10150187735E+006, +7.96980572148E+001, +7.70734857250E+001
+6.22653316646E+006, +7.97086603844E+001, +7.85759204746E+001
+6.35156445557E+006, +7.97659477990E+001, +8.02242987457E+001
+6.47659574468E+006, +7.97064875056E+001, +8.18361071862E+001
+6.60162703379E+006, +7.98158586245E+001, +8.33299997127E+001
+6.72665832290E+006, +7.98527472725E+001, +8.50203598191E+001
+6.85168961202E+006, +7.98943939718E+001, +8.65968082733E+001
+6.97672090113E+006, +7.99969590408E+001, +8.81466868335E+001
+7.10175219024E+006, +7.99446958289E+001, +8.98174929587E+001
+7.22678347935E+006, +8.00432114944E+001, +9.13784447394E+001
+7.35181476846E+006, +8.00784058714E+001, +9.29658811818E+001
+7.47684605757E+006, +8.00741546565E+001, +9.44736044334E+001
+7.60187734668E+006, +8.01425509136E+001, +9.62302250861E+001
+7.72690863579E+006, +8.02551013788E+001, +9.77456996699E+001
+7.85193992491E+006, +8.02524737996E+001, +9.93731367008E+001
+7.97697121402E+006, +8.02516698458E+001, +1.00796525331E+002
+8.10200250313E+006, +8.03139271176E+001, +1.02639449105E+002
+8.22703379224E+006, +8.03699182414E+001, +1.04193676214E+002
+8.35206508135E+006, +8.03851897808E+001, +1.05816604126E+002
+8.47709637046E+006, +8.04912706208E+001, +1.07583198928E+002
+8.60212765957E+006, +8.03933608817E+001, +1.08941167063E+002
+8.72715894869E+006, +8.05064544232E+001, +1.10600394780E+002
+8.85219023780E+006, +8.06654276997E+001, +1.12355016095E+002
+8.97722152691E+006, +8.06613585368E+001, +1.13912183140E+002
+9.10225281602E+006, +8.06530279094E+001, +1.15574804478E+002
+9.22728410513E+006, +8.06195569315E+001, +1.17083555682E+002
+9.35231539424E+006, +8.07068511967E+001, +1.18604363647E+002
+9.47734668335E+006, +8.07020287312E+001, +1.20580645903E+002
+9.60237797247E+006, +8.07925823247E+001, +1.22005973178E+002
+9.72740926158E+006, +8.10475076821E+001, +1.23671619128E+002
+9.85244055069E+006, +8.08312664118E+001, +1.25331643020E+002
+9.97747183980E+006, +8.09651461049E+001, +1.26812696965E+002
+1.01025031289E+007, +8.10698955640E+001, +1.28499559130E+002
+1.02275344180E+007, +8.11420525964E+001, +1.30087145184E+002
+1.03525657071E+007, +8.11256241598E+001, +1.31860483853E+002
+1.04775969962E+007, +8.13712948681E+001, +1.33533882046E+002
+1.06026282854E+007, +8.12874297506E+001, +1.35091167860E+002
+1.07276595745E+007, +8.13884483532E+001, +1.36768228044E+002
+1.08526908636E+007, +8.12332465727E+001, +1.38428420356E+002
+1.09777221527E+007, +8.12758220094E+001, +1.40143454121E+002
+1.11027534418E+007, +8.15388164667E+001, +1.41772543885E+002
+1.12277847309E+007, +8.14891719613E+001, +1.43249790519E+002
+1.13528160200E+007, +8.14604896580E+001, +1.45041353291E+002
+1.14778473091E+007, +8.16304725286E+001, +1.46561488146E+002
+1.16028785982E+007, +8.15330347389E+001, +1.48299576807E+002
+1.17279098874E+007, +8.17274995800E+001, +1.49888604506E+002
+1.18529411765E+007, +8.19286936327E+001, +1.51624841600E+002
+1.19779724656E+007, +8.17390097658E+001, +1.53166816491E+002
+1.21030037547E+007, +8.19825907528E+001, +1.54866656133E+002
+1.22280350438E+007, +8.19388266781E+001, +1.56808582132E+002
+1.23530663329E+007, +8.19501152741E+001, +1.58157546385E+002
+1.24780976220E+007, +8.20072688259E+001, +1.59977880685E+002
+1.26031289111E+007, +8.21236105197E+001, +1.61468385013E+002
+1.27281602003E+007, +8.22940985683E+001, +1.63370027208E+002
+1.28531914894E+007, +8.24981788644E+001, +1.64940939957E+002
+1.29782227785E+007, +8.23971663667E+001, +1.66557841440E+002
+1.31032540676E+007, +8.24653476145E+001, +1.68358657071E+002
+1.32282853567E+007, +8.25376636584E+001, +1.69928690194E+002
+1.33533166458E+007, +8.26673228346E+001, +1.72035735668E+002
+1.34783479349E+007, +8.25983727733E+001, +1.73326035582E+002
+1.36033792240E+007, +8.25661737084E+001, +1.75065312158E+002
+1.37284105131E+007, +8.27543747791E+001, +1.76797727729E+002
+1.38534418023E+007, +8.27572314429E+001, +1.78428963713E+002
+1.39784730914E+007, +8.28986653511E+001, +1.80163871174E+002
+1.41035043805E+007, +8.29287312536E+001, +1.81537889159E+002
+1.42285356696E+007, +8.30921659256E+001, +1.83638997304E+002
+1.43535669587E+007, +8.33381067817E+001, +1.85181221380E+002
+1.44785982478E+007, +8.32215085314E+001, +1.86856158827E+002
+1.46036295369E+007, +8.32778122572E+001, +1.88711690281E+002
+1.47286608260E+007, +8.34314931232E+001, +1.90276002821E+002
+1.48536921151E+007, +8.37247548326E+001, +1.91900514812E+002
+1.49787234043E+007, +8.36767539050E+001, +1.93711466933E+002
+1.51037546934E+007, +8.40675024681E+001, +1.95456249728E+002
+1.52287859825E+007, +8.37173467967E+001, +1.97325350395E+002
+1.53538172716E+007, +8.36236884039E+001, +1.98722423956E+002
+1.54788485607E+007, +8.41370898994E+001, +2.00793113281E+002
+1.56038798498E+007, +8.43314760282E+001, +2.02565685539E+002
+1.57289111389E+007, +8.38243125684E+001, +2.04263806511E+002
+1.58539424280E+007, +8.41632251051E+001, +2.05953079394E+002
+1.59789737171E+007, +8.41535711384E+001, +2.07396965141E+002
+1.61040050063E+007, +8.42239580720E+001, +2.09179904327E+002
+1.62290362954E+007, +8.46711233107E+001, +2.10830662561E+002
+1.63540675845E+007, +8.44209116166E+001, +2.12505456248E+002
+1.64790988736E+007, +8.43390415146E+001, +2.14439009997E+002
+1.66041301627E+007, +8.44474438507E+001, +2.16491223950E+002
+1.67291614518E+007, +8.47078736690E+001, +2.17976217635E+002
+1.68541927409E+007, +8.47521694315E+001, +2.19740545409E+002
+1.69792240300E+007, +8.47437147303E+001, +2.21617339613E+002
+1.71042553191E+007, +8.49052124319E+001, +2.23559897844E+002
+1.72292866083E+007, +8.47803588520E+001, +2.25524194293E+002
+1.73543178974E+007, +8.51462413758E+001, +2.26956539179E+002
+1.74793491865E+007, +8.48757942318E+001, +2.28705074165E+002
+1.76043804756E+007, +8.55555182152E+001, +2.30295927616E+002
+1.77294117647E+007, +8.54914742552E+001, +2.32215063747E+002
+1.78544430538E+007, +8.54849111980E+001, +2.33756019708E+002
+1.79794743429E+007, +8.54830644141E+001, +2.36052269453E+002
+1.81045056320E+007, +8.57861578384E+001, +2.37511797893E+002
+1.82295369212E+007, +8.59001225136E+001, +2.39571801903E+002
+1.83545682103E+007, +8.59945670181E+001, +2.40978076139E+002
+1.84795994994E+007, +8.62114262395E+001, +2.43024763545E+002
+1.86046307885E+007, +8.65964721937E+001, +2.44785880099E+002
+1.87296620776E+007, +8.65393293474E+001, +2.46488634736E+002
+1.88546933667E+007, +8.68687743935E+001, +2.48140341141E+002
+1.89797246558E+007, +8.67982279622E+001, +2.49985578088E+002
+1.91047559449E+007, +8.67472195409E+001, +2.51515721928E+002
+1.92297872340E+007, +8.64839644283E+001, +2.53688040861E+002
+1.93548185232E+007, +8.71482016429E+001, +2.55504403366E+002
+1.94798498123E+007, +8.72749576114E+001, +2.57100250113E+002
+1.96048811014E+007, +8.72090187305E+001, +2.58926182055E+002
+1.97299123905E+007, +8.73084864176E+001, +2.60806773058E+002
+1.98549436796E+007, +8.74103654595E+001, +2.62708570435E+002
+1.99799749687E+007, +8.76369289359E+001, +2.64644369502E+002
+2.01050062578E+007, +8.77704992608E+001, +2.66223186440E+002
+2.02300375469E+007, +8.80497820601E+001, +2.68160172525E+002
+2.03550688360E+007, +8.84861548536E+001, +2.70577274804E+002
+2.04801001252E+007, +8.83415478051E+001, +2.72195489424E+002
+2.06051314143E+007, +8.82057599051E+001, +2.74016641938E+002
+2.07301627034E+007, +8.82504175203E+001, +2.76120694545E+002
+2.08551939925E+007, +8.83309359460E+001, +2.77437336863E+002
+2.09802252816E+007, +8.85808199703E+001, +2.79501910436E+002
+2.11052565707E+007, +8.87261454990E+001, +2.81334606704E+002
+2.12302878598E+007, +8.91501731840E+001, +2.83560239253E+002
+2.13553191489E+007, +8.91220547665E+001, +2.85123041509E+002
+2.14803504380E+007, +8.90356004963E+001, +2.86875139669E+002
+2.16053817272E+007, +8.91041915873E+001, +2.88829920102E+002
+2.17304130163E+007, +8.97325083341E+001, +2.90591533788E+002
+2.18554443054E+007, +8.97069747686E+001, +2.92334609675E+002
+2.19804755945E+007, +8.92474615159E+001, +2.95096810811E+002
+2.21055068836E+007, +8.97619678354E+001, +2.96925571247E+002
+2.22305381727E+007, +9.02931381644E+001, +2.98513387894E+002
+2.23555694618E+007, +9.03856706336E+001, +3.00250431295E+002
+2.24806007509E+007, +9.06824949835E+001, +3.01693043195E+002
+2.26056320401E+007, +9.02537036597E+001, +3.03900989676E+002
+2.27306633292E+007, +9.15877980898E+001, +3.05716334950E+002
+2.28556946183E+007, +9.09783474947E+001, +3.07788851877E+002
+2.29807259074E+007, +9.11971528811E+001, +3.09775156144E+002
+2.31057571965E+007, +9.16686536098E+001, +3.11698257053E+002
+2.32307884856E+007, +9.24897081959E+001, +3.13837231504E+002
+2.33558197747E+007, +9.20043568528E+001, +3.15742424357E+002
+2.34808510638E+007, +9.21641659861E+001, +3.17151145754E+002
+2.36058823529E+007, +9.14487093592E+001, +3.19450447413E+002
+2.37309136421E+007, +9.25054531449E+001, +3.21202519956E+002
+2.38559449312E+007, +9.27141539567E+001, +3.23565127229E+002
+2.39809762203E+007, +9.25377049404E+001, +3.25162428696E+002
+2.41060075094E+007, +9.22759557711E+001, +3.27190676656E+002
+2.42310387985E+007, +9.31051283955E+001, +3.28932758263E+002
+2.43560700876E+007, +9.26056829309E+001, +3.30614251222E+002
+2.44811013767E+007, +9.31942427314E+001, +3.32419512817E+002
+2.46061326658E+007, +9.29664609782E+001, +3.34680089107E+002
+2.47311639549E+007, +9.29411583323E+001, +3.36340649971E+002
+2.48561952441E+007, +9.41567171331E+001, +3.38625321678E+002
+2.49812265332E+007, +9.44305970250E+001, +3.40565642018E+002
+2.51062578223E+007, +9.42734145949E+001, +3.42204272712E+002
+2.52312891114E+007, +9.45114517038E+001, +3.44867159871E+002
+2.53563204005E+007, +9.47011727867E+001, +3.46999359675E+002
+2.54813516896E+007, +9.43715894121E+001, +3.48382160625E+002
+2.56063829787E+007, +9.46905035007E+001, +3.49904790142E+002
+2.57314142678E+007, +9.46547733609E+001, +3.52046163828E+002
+2.58564455569E+007, +9.55163621642E+001, +3.54610052442E+002
+2.59814768461E+007, +9.51064486408E+001, +3.56085796311E+002
+2.61065081352E+007, +9.56895198337E+001, +3.57997512647E+002
+2.62315394243E+007, +9.60347748100E+001, +3.60198213020E+002
+2.63565707134E+007, +9.56645548610E+001, +3.62611861953E+002
+2.64816020025E+007, +9.62306748328E+001, +3.64644234624E+002
+2.66066332916E+007, +9.52566167404E+001, +3.66595955619E+002
+2.67316645807E+007, +9.55830070726E+001, +3.69623607364E+002
+2.68566958698E+007, +9.64909410299E+001, +3.71252031593E+002
+2.69817271589E+007, +9.71152338946E+001, +3.73145421129E+002
+2.71067584481E+007, +9.74626246959E+001, +3.74787506712E+002
+2.72317897372E+007, +9.66462074971E+001, +3.77341857489E+002
+2.73568210263E+007, +9.69349260105E+001, +3.79985350760E+002
+2.74818523154E+007, +9.72349268368E+001, +3.82225019319E+002
+2.76068836045E+007, +9.72657799862E+001, +3.84233492804E+002
+2.77319148936E+007, +9.77358651274E+001, +3.85522574784E+002
+2.78569461827E+007, +9.80069003808E+001, +3.88754430747E+002
+2.79819774718E+007, +9.84093919268E+001, +3.90358746912E+002
+2.81070087610E+007, +9.79340092826E+001, +3.92271255999E+002
+2.82320400501E+007, +9.77261561300E+001, +3.94903774839E+002
+2.83570713392E+007, +9.84832838430E+001, +3.96708401802E+002
+2.84821026283E+007, +9.92136835291E+001, +3.98754605723E+002
+2.86071339174E+007, +9.89322601730E+001, +4.01035588876E+002
+2.87321652065E+007, +9.91053763298E+001, +4.03476459208E+002
+2.88571964956E+007, +9.86791034720E+001, +4.04976831495E+002
+2.89822277847E+007, +1.00213538106E+002, +4.07740582039E+002
+2.91072590738E+007, +1.00168236237E+002, +4.10014114758E+002
+2.92322903630E+007, +1.00081727829E+002, +4.11772950733E+002
+2.93573216521E+007, +1.00575388360E+002, +4.14685524561E+002
+2.94823529412E+007, +1.00044226188E+002, +4.16778918531E+002
+2.96073842303E+007, +1.00204234218E+002, +4.17761318013E+002
+2.97324155194E+007, +1.00528628697E+002, +4.21436245017E+002
+2.98574468085E+007, +1.00400240905E+002, +4.22835621291E+002
+2.99824780976E+007, +1.01901498393E+002, +4.25131280737E+002
+3.01075093867E+007, +1.01844358041E+002, +4.27756514396E+002
+3.02325406758E+007, +1.02145514540E+002, +4.29402299529E+002
+3.03575719650E+007, +1.02178433992E+002, +4.32185845914E+002
+3.04826032541E+007, +1.01548690603E+002, +4.34751546102E+002
+3.06076345432E+007, +1.02536899724E+002, +4.36970210884E+002
+3.07326658323E+007, +1.02601772727E+002, +4.38599826885E+002
+3.08576971214E+007, +1.02833092972E+002, +4.42159545094E+002
+3.09827284105E+007, +1.03498353923E+002, +4.42903419429E+002
+3.11077596996E+007, +1.02316643733E+002, +4.47203337170E+002
+3.12327909887E+007, +1.02789080917E+002, +4.47577686558E+002
+3.13578222778E+007, +1.04099576368E+002, +4.51286897037E+002
+3.14828535670E+007, +1.04564597236E+002, +4.53530344397E+002
+3.16078848561E+007, +1.04749290892E+002, +4.54648658673E+002
+3.17329161452E+007, +1.03459097617E+002, +4.57050615249E+002
+3.18579474343E+007, +1.04754114617E+002, +4.61314198980E+002
+3.19829787234E+007, +1.04606706746E+002, +4.61880646994E+002
+3.21080100125E+007, +1.05274447988E+002, +4.64933372667E+002
+3.22330413016E+007, +1.04231958922E+002, +4.68951540986E+002
+3.23580725907E+007, +1.06536414856E+002, +4.69951160791E+002
+3.24831038798E+007, +1.06070476411E+002, +4.72710970203E+002
+3.26081351690E+007, +1.06403747142E+002, +4.75100550635E+002
+3.27331664581E+007, +1.06195572786E+002, +4.76307292846E+002
+3.28581977472E+007, +1.06903807648E+002, +4.78470980443E+002
+3.29832290363E+007, +1.06222107235E+002, +4.82593782064E+002
+3.31082603254E+007, +1.07013444043E+002, +4.84953816747E+002
+3.32332916145E+007, +1.06133156532E+002, +4.87372357693E+002
+3.33583229036E+007, +1.08343116522E+002, +4.89843140313E+002
+3.34833541927E+007, +1.07382560219E+002, +4.92632186020E+002
+3.36083854819E+007, +1.08129645552E+002, +4.94602803970E+002
+3.37334167710E+007, +1.08511932966E+002, +4.97389876134E+002
+3.38584480601E+007, +1.08059737866E+002, +5.00206242591E+002
+3.39834793492E+007, +1.07810661372E+002, +5.01790120935E+002
+3.41085106383E+007, +1.07359063281E+002, +5.04597693128E+002
+3.42335419274E+007, +1.09955333356E+002, +5.07167820011E+002
+3.43585732165E+007, +1.09611012384E+002, +5.09202142092E+002
+3.44836045056E+007, +1.11175205437E+002, +5.11320135215E+002
+3.46086357947E+007, +1.10628882856E+002, +5.15773633595E+002
+3.47336670839E+007, +1.11852871732E+002, +5.16921399022E+002
+3.48586983730E+007, +1.11688480870E+002, +5.18264628271E+002
+3.49837296621E+007, +1.12119682537E+002, +5.21812824453E+002
+3.51087609512E+007, +1.10867942409E+002, +5.24926102412E+002
+3.52337922403E+007, +1.11663161190E+002, +5.28423490581E+002
+3.53588235294E+007, +1.11745400172E+002, +5.29214959519E+002
+3.54838548185E+007, +1.11988655253E+002, +5.32926379339E+002
+3.56088861076E+007, +1.12579013586E+002, +5.35323447614E+002
+3.57339173967E+007, +1.13246984653E+002, +5.40219637823E+002
+3.58589486859E+007, +1.12905431951E+002, +5.41945056205E+002
+3.59839799750E+007, +1.16150644944E+002, +5.44587366977E+002
+3.61090112641E+007, +1.13424844029E+002, +5.46807035265E+002
+3.62340425532E+007, +1.14483332208E+002, +5.49697427145E+002
+3.63590738423E+007, +1.16650397783E+002, +5.52150931738E+002
+3.64841051314E+007, +1.15334269694E+002, +5.53554493773E+002
+3.66091364205E+007, +1.14686887721E+002, +5.57467988824E+002
+3.67341677096E+007, +1.15293657257E+002, +5.62198299782E+002
+3.68591989987E+007, +1.15427055635E+002, +5.63433067297E+002
+3.69842302879E+007, +1.17055479806E+002, +5.65217554755E+002
+3.71092615770E+007, +1.15793367833E+002, +5.69486544076E+002
+3.72342928661E+007, +1.18495803982E+002, +5.70457270250E+002
+3.73593241552E+007, +1.17819967580E+002, +5.76180930652E+002
+3.74843554443E+007, +1.17074223381E+002, +5.76972244762E+002
+3.76093867334E+007, +1.18270024646E+002, +5.79732117169E+002
+3.77344180225E+007, +1.17505625130E+002, +5.83035623191E+002
+3.78594493116E+007, +1.19822833523E+002, +5.87025251824E+002
+3.79844806008E+007, +1.19414117686E+002, +5.88094793964E+002
+3.81095118899E+007, +1.19254667424E+002, +5.90816914704E+002
+3.82345431790E+007, +1.21051038310E+002, +5.93833137077E+002
+3.83595744681E+007, +1.19463257841E+002, +5.97682605460E+002
+3.84846057572E+007, +1.22093659796E+002, +5.98964585215E+002
+3.86096370463E+007, +1.19706464712E+002, +6.04713020754E+002
+3.87346683354E+007, +1.22159450075E+002, +6.07539730777E+002
+3.88596996245E+007, +1.22332746841E+002, +6.09885078656E+002
+3.89847309136E+007, +1.24291054314E+002, +6.12800344439E+002
+3.91097622028E+007, +1.24547136127E+002, +6.16678869714E+002
+3.92347934919E+007, +1.23649151052E+002, +6.18681968735E+002
+3.93598247810E+007, +1.24070899175E+002, +6.22969283899E+002
+3.94848560701E+007, +1.25798869453E+002, +6.24166505639E+002
+3.96098873592E+007, +1.25291703444E+002, +6.26704316087E+002
+3.97349186483E+007, +1.25939988960E+002, +6.29531902970E+002
+3.98599499374E+007, +1.27677734900E+002, +6.34415894928E+002
+3.99849812265E+007, +1.26107062221E+002, +6.37390084717E+002
+4.01100125156E+007, +1.26818697447E+002, +6.40585854679E+002
