"# Channel 1"
"# Trace 1"
Frequency, Formatted Data, Formatted Data
+1.00000000000E+005, +1.41183557295E+002, +2.80919586296E-001
+2.25031289111E+005, +1.40873035501E+002, +4.73638212700E+000
+3.50062578223E+005, +1.40835597048E+002, +7.59787985594E+000
+4.75093867334E+005, +1.40879931253E+002, +1.05002709425E+001
+6.00125156446E+005, +1.40864326214E+002, +1.33559423808E+001
+7.25156445557E+005, +1.40873395200E+002, +1.62008945765E+001
+8.50187734668E+005, +1.40853471872E+002, +1.88606449602E+001
+9.75219023780E+005, +1.40805537664E+002, +2.17514070346E+001
+1.10025031289E+006, +1.40887152439E+002, +2.46818558730E+001
+1.22528160200E+006, +1.41247540142E+002, +2.70881821508E+001
+1.35031289111E+006, +1.40942239673E+002, +3.01873841930E+001
+1.47534418023E+006, +1.40990821712E+002, +3.28345317784E+001
+1.60037546934E+006, +1.41319775255E+002, +3.55358501255E+001
+1.72540675845E+006, +1.41145250557E+002, +3.82212001706E+001
+1.85043804756E+006, +1.41410126884E+002, +4.13519426789E+001
+1.97546933667E+006, +1.41404227391E+002, +4.41290835171E+001
+2.10050062578E+006, +1.41447747594E+002, +4.68863138681E+001
+2.22553191489E+006, +1.41760462653E+002, +5.01317184292E+001
+2.35056320401E+006, +1.41678913801E+002, +5.26555695986E+001
+2.47559449312E+006, +1.41548554113E+002, +5.54684879925E+001
+2.60062578223E+006, +1.41963846460E+002, +5.82446717207E+001
+2.72565707134E+006, +1.41844413281E+002, +6.12256536358E+001
+2.85068836045E+006, +1.41634934385E+002, +6.34450178932E+001
+2.97571964956E+006, +1.42000785268E+002, +6.67716364874E+001
+3.10075093867E+006, +1.41976271886E+002, +6.95165323265E+001
+3.22578222778E+006, +1.42004202945E+002, +7.21530060418E+001
+3.35081351690E+006, +1.41860599619E+002, +7.46576440721E+001
+3.47584480601E+006, +1.41933665166E+002, +7.75522156057E+001
+3.60087609512E+006, +1.42002155046E+002, +8.05739343577E+001
+3.72590738423E+006, +1.42288611714E+002, +8.30774320871E+001
+3.85093867334E+006, +1.42159694694E+002, +8.59019907794E+001
+3.97596996245E+006, +1.42116124339E+002, +8.85224931804E+001
+4.10100125156E+006, +1.41367123237E+002, +9.21028223273E+001
+4.22603254068E+006, +1.42970605254E+002, +9.47940256372E+001
+4.35106382979E+006, +1.42745289750E+002, +9.72891975658E+001
+4.47609511890E+006, +1.42763322383E+002, +1.00037685246E+002
+4.60112640801E+006, +1.42921824556E+002, +1.02965557431E+002
+4.72615769712E+006, +1.42933014950E+002, +1.05880610634E+002
+4.85118898623E+006, +1.43378331511E+002, +1.08752188897E+002
+4.97622027534E+006, +1.43519046658E+002, +1.11298845997E+002
+5.10125156446E+006, +1.43071313040E+002, +1.14022040314E+002
+5.22628285357E+006, +1.43013624642E+002, +1.16870762437E+002
+5.35131414268E+006, +1.43258521946E+002, +1.19992515030E+002
+5.47634543179E+006, +1.44115109634E+002, +1.22973467593E+002
+5.60137672090E+006, +1.43516592765E+002, +1.25089078046E+002
+5.72640801001E+006, +1.43773138170E+002, +1.27937392961E+002
+5.85143929912E+006, +1.44164024785E+002, +1.30949981194E+002
+5.97647058824E+006, +1.44052938812E+002, +1.33712060932E+002
+6.10150187735E+006, +1.44261187508E+002, +1.37074829018E+002
+6.22653316646E+006, +1.44697867817E+002, +1.39342711560E+002
+6.35156445557E+006, +1.44402159324E+002, +1.42619400075E+002
+6.47659574468E+006, +1.44729114389E+002, +1.45378119112E+002
+6.60162703379E+006, +1.44686770782E+002, +1.47887459426E+002
+6.72665832290E+006, +1.45025255087E+002, +1.51165812054E+002
+6.85168961202E+006, +1.45291771979E+002, +1.54042085689E+002
+6.97672090113E+006, +1.45270630212E+002, +1.56714480235E+002
+7.10175219024E+006, +1.45080972357E+002, +1.59705363784E+002
+7.22678347935E+006, +1.45263138518E+002, +1.62621094695E+002
+7.35181476846E+006, +1.45837159072E+002, +1.65537242919E+002
+7.47684605757E+006, +1.45719229000E+002, +1.67941686431E+002
+7.60187734668E+006, +1.46073738492E+002, +1.71266938588E+002
+7.72690863579E+006, +1.46108228981E+002, +1.74044040356E+002
+7.85193992491E+006, +1.46295069464E+002, +1.77000125612E+002
+7.97697121402E+006, +1.46442623778E+002, +1.79753982917E+002
+8.10200250313E+006, +1.46729833813E+002, +1.82991380079E+002
+8.22703379224E+006, +1.46906916845E+002, +1.85994747893E+002
+8.35206508135E+006, +1.47050944950E+002, +1.88796371188E+002
+8.47709637046E+006, +1.47374303021E+002, +1.91818132064E+002
+8.60212765957E+006, +1.47182317410E+002, +1.95148701656E+002
+8.72715894869E+006, +1.47553090785E+002, +1.97853109818E+002
+8.85219023780E+006, +1.48154586808E+002, +2.00927824097E+002
+8.97722152691E+006, +1.47994545851E+002, +2.03882011411E+002
+9.10225281602E+006, +1.48303473408E+002, +2.06873889678E+002
+9.22728410513E+006, +1.48054407791E+002, +2.09982970970E+002
+9.35231539424E+006, +1.48448871757E+002, +2.12496272091E+002
+9.47734668335E+006, +1.48729415745E+002, +2.16531719068E+002
+9.60237797247E+006, +1.48991975399E+002, +2.18748686841E+002
+9.72740926158E+006, +1.49436311558E+002, +2.21686235410E+002
+9.85244055069E+006, +1.49218767291E+002, +2.25216784177E+002
+9.97747183980E+006, +1.49957035455E+002, +2.28236178965E+002
+1.01025031289E+007, +1.49910157721E+002, +2.31453274490E+002
+1.02275344180E+007, +1.50160448263E+002, +2.34126191976E+002
+1.03525657071E+007, +1.50557093768E+002, +2.37509015191E+002
+1.04775969962E+007, +1.50986861099E+002, +2.40692739192E+002
+1.06026282854E+007, +1.50890810273E+002, +2.43751049654E+002
+1.07276595745E+007, +1.51033649193E+002, +2.46802977723E+002
+1.08526908636E+007, +1.51412168942E+002, +2.50091067473E+002
+1.09777221527E+007, +1.51046023080E+002, +2.53122026563E+002
+1.11027534418E+007, +1.52011097499E+002, +2.55696584098E+002
+1.12277847309E+007, +1.52202367571E+002, +2.59294189577E+002
+1.13528160200E+007, +1.52272878745E+002, +2.62751665214E+002
+1.14778473091E+007, +1.52865067505E+002, +2.64798213174E+002
+1.16028785982E+007, +1.52863100559E+002, +2.67995240249E+002
+1.17279098874E+007, +1.54037633431E+002, +2.71230040240E+002
+1.18529411765E+007, +1.53572129090E+002, +2.74927542816E+002
+1.19779724656E+007, +1.53667213013E+002, +2.77803329412E+002
+1.21030037547E+007, +1.54416817026E+002, +2.81258534420E+002
+1.22280350438E+007, +1.54632808348E+002, +2.84110308601E+002
+1.23530663329E+007, +1.54869548812E+002, +2.87772244235E+002
+1.24780976220E+007, +1.55138115871E+002, +2.91028370603E+002
+1.26031289111E+007, +1.55293264332E+002, +2.93757958087E+002
+1.27281602003E+007, +1.55664475311E+002, +2.97457124193E+002
+1.28531914894E+007, +1.56951645552E+002, +3.00411549003E+002
+1.29782227785E+007, +1.56691141772E+002, +3.03778434409E+002
+1.31032540676E+007, +1.56732854010E+002, +3.07224345001E+002
+1.32282853567E+007, +1.57193824335E+002, +3.10158686625E+002
+1.33533166458E+007, +1.57440894815E+002, +3.13462369814E+002
+1.34783479349E+007, +1.58024641053E+002, +3.16739336923E+002
+1.36033792240E+007, +1.58802393169E+002, +3.20509246224E+002
+1.37284105131E+007, +1.58324355816E+002, +3.23046265572E+002
+1.38534418023E+007, +1.58911995604E+002, +3.26370283228E+002
+1.39784730914E+007, +1.58260201599E+002, +3.29813406151E+002
+1.41035043805E+007, +1.59212550661E+002, +3.33145553403E+002
+1.42285356696E+007, +1.60403454988E+002, +3.36708078002E+002
+1.43535669587E+007, +1.60432757691E+002, +3.39841632036E+002
+1.44785982478E+007, +1.60903175791E+002, +3.43558787445E+002
+1.46036295369E+007, +1.61429767248E+002, +3.47323619954E+002
+1.47286608260E+007, +1.62365744019E+002, +3.50448542743E+002
+1.48536921151E+007, +1.61891854382E+002, +3.53328410725E+002
+1.49787234043E+007, +1.61720546312E+002, +3.56758380419E+002
+1.51037546934E+007, +1.62838406574E+002, +3.60407125161E+002
+1.52287859825E+007, +1.62756862129E+002, +3.63633304025E+002
+1.53538172716E+007, +1.62569502623E+002, +3.66408527197E+002
+1.54788485607E+007, +1.63937300712E+002, +3.71486061380E+002
+1.56038798498E+007, +1.64814557756E+002, +3.74836709285E+002
+1.57289111389E+007, +1.64856765071E+002, +3.77758061099E+002
+1.58539424280E+007, +1.65361825356E+002, +3.81071215021E+002
+1.59789737171E+007, +1.65546236794E+002, +3.84436608278E+002
+1.61040050063E+007, +1.65089347991E+002, +3.88604170790E+002
+1.62290362954E+007, +1.67337370470E+002, +3.92036357445E+002
+1.63540675845E+007, +1.66334967218E+002, +3.95583694821E+002
+1.64790988736E+007, +1.66598940758E+002, +3.99014452420E+002
+1.66041301627E+007, +1.67635477155E+002, +4.03006150690E+002
+1.67291614518E+007, +1.68391157649E+002, +4.06934705142E+002
+1.68541927409E+007, +1.68537277337E+002, +4.10478463241E+002
+1.69792240300E+007, +1.68472532966E+002, +4.14446204306E+002
+1.71042553191E+007, +1.67892181050E+002, +4.18357138653E+002
+1.72292866083E+007, +1.68490204933E+002, +4.22604643827E+002
+1.73543178974E+007, +1.70256659383E+002, +4.25510018766E+002
+1.74793491865E+007, +1.70916184226E+002, +4.28711768777E+002
+1.76043804756E+007, +1.72083924500E+002, +4.32871269408E+002
+1.77294117647E+007, +1.72834169919E+002, +4.35905911904E+002
+1.78544430538E+007, +1.71489085239E+002, +4.39836123259E+002
+1.79794743429E+007, +1.73579198898E+002, +4.44600680477E+002
+1.81045056320E+007, +1.74491380327E+002, +4.47967712068E+002
+1.82295369212E+007, +1.74794360067E+002, +4.51891671976E+002
+1.83545682103E+007, +1.74983692685E+002, +4.54593095153E+002
+1.84795994994E+007, +1.74889277316E+002, +4.57845350076E+002
+1.86046307885E+007, +1.77491153604E+002, +4.62199161794E+002
+1.87296620776E+007, +1.78748219179E+002, +4.67368656113E+002
+1.88546933667E+007, +1.78288724120E+002, +4.69942389234E+002
+1.89797246558E+007, +1.77463017725E+002, +4.74113124688E+002
+1.91047559449E+007, +1.78080274627E+002, +4.78545894089E+002
+1.92297872340E+007, +1.77942103834E+002, +4.82006224168E+002
+1.93548185232E+007, +1.81218393179E+002, +4.85955517562E+002
+1.94798498123E+007, +1.81966651732E+002, +4.88693734842E+002
+1.96048811014E+007, +1.80803154597E+002, +4.93570891266E+002
+1.97299123905E+007, +1.82642145020E+002, +4.98990726923E+002
+1.98549436796E+007, +1.82588133249E+002, +5.01327697728E+002
+1.99799749687E+007, +1.83799626672E+002, +5.06656404715E+002
+2.01050062578E+007, +1.84125791909E+002, +5.10881347568E+002
+2.02300375469E+007, +1.85598635828E+002, +5.12831313845E+002
+2.03550688360E+007, +1.87673799549E+002, +5.19392233768E+002
+2.04801001252E+007, +1.86237225102E+002, +5.23345748996E+002
+2.06051314143E+007, +1.86883611467E+002, +5.27099030871E+002
+2.07301627034E+007, +1.87271432249E+002, +5.32292870060E+002
+2.08551939925E+007, +1.89063082891E+002, +5.33797842414E+002
+2.09802252816E+007, +1.89989046361E+002, +5.39086174238E+002
+2.11052565707E+007, +1.90405673900E+002, +5.43511510076E+002
+2.12302878598E+007, +1.91475892487E+002, +5.48684663872E+002
+2.13553191489E+007, +1.92525748168E+002, +5.53721979311E+002
+2.14803504380E+007, +1.91892051022E+002, +5.56074659015E+002
+2.16053817272E+007, +1.92368057652E+002, +5.61172276707E+002
+2.17304130163E+007, +1.96588769108E+002, +5.64742261543E+002
+2.18554443054E+007, +1.97491919291E+002, +5.68701101944E+002
+2.19804755945E+007, +1.94908720359E+002, +5.75495227942E+002
+2.21055068836E+007, +1.95722242721E+002, +5.79468306524E+002
+2.22305381727E+007, +1.98650508388E+002, +5.84342311281E+002
+2.23555694618E+007, +1.99412395176E+002, +5.85956871645E+002
+2.24806007509E+007, +2.00416249931E+002, +5.89681313695E+002
+2.26056320401E+007, +2.01349271780E+002, +5.95302837178E+002
+2.27306633292E+007, +2.04783882554E+002, +5.98999104154E+002
+2.28556946183E+007, +2.03681789237E+002, +6.05266805124E+002
+2.29807259074E+007, +2.05796466804E+002, +6.08656961210E+002
+2.31057571965E+007, +2.07637512383E+002, +6.13260664675E+002
+2.32307884856E+007, +2.09060272520E+002, +6.19419921076E+002
+2.33558197747E+007, +2.09593313380E+002, +6.22768220970E+002
+2.34808510638E+007, +2.12345964579E+002, +6.26113742019E+002
+2.36058823529E+007, +2.11573592297E+002, +6.33955269792E+002
+2.37309136421E+007, +2.11610310145E+002, +6.35225684587E+002
+2.38559449312E+007, +2.13481768612E+002, +6.42297550709E+002
+2.39809762203E+007, +2.14854901402E+002, +6.42958326398E+002
+2.41060075094E+007, +2.14763774401E+002, +6.52303024894E+002
+2.42310387985E+007, +2.16167479350E+002, +6.53084082719E+002
+2.43560700876E+007, +2.18685193440E+002, +6.58622699096E+002
+2.44811013767E+007, +2.16587200577E+002, +6.65582645408E+002
+2.46061326658E+007, +2.16342017126E+002, +6.70196835379E+002
+2.47311639549E+007, +2.18633821059E+002, +6.71887829970E+002
+2.48561952441E+007, +2.23723187423E+002, +6.77160646753E+002
+2.49812265332E+007, +2.23999166848E+002, +6.81772689097E+002
+2.51062578223E+007, +2.21829521208E+002, +6.86270147811E+002
+2.52312891114E+007, +2.22518603093E+002, +6.92777525323E+002
+2.53563204005E+007, +2.25827125186E+002, +6.98797523139E+002
+2.54813516896E+007, +2.24573404385E+002, +7.00552824255E+002
+2.56063829787E+007, +2.25262434632E+002, +7.06088986714E+002
+2.57314142678E+007, +2.27926814923E+002, +7.10751882707E+002
+2.58564455569E+007, +2.29381991790E+002, +7.17380067694E+002
+2.59814768461E+007, +2.28076121425E+002, +7.23753628482E+002
+2.61065081352E+007, +2.30901733009E+002, +7.25562035183E+002
+2.62315394243E+007, +2.32809459634E+002, +7.32733459485E+002
+2.63565707134E+007, +2.33757229119E+002, +7.41070754753E+002
+2.64816020025E+007, +2.35419800850E+002, +7.44838425366E+002
+2.66066332916E+007, +2.37214961937E+002, +7.49203681880E+002
+2.67316645807E+007, +2.39074785715E+002, +7.57440574470E+002
+2.68566958698E+007, +2.41925862886E+002, +7.64204820264E+002
+2.69817271589E+007, +2.43831687265E+002, +7.66142838690E+002
+2.71067584481E+007, +2.44271527481E+002, +7.70346995197E+002
+2.72317897372E+007, +2.42286049159E+002, +7.80053110186E+002
+2.73568210263E+007, +2.45509539196E+002, +7.85818860010E+002
+2.74818523154E+007, +2.42560303950E+002, +7.90353675723E+002
+2.76068836045E+007, +2.45288405580E+002, +7.98939824774E+002
+2.77319148936E+007, +2.53058266556E+002, +8.05557601499E+002
+2.78569461827E+007, +2.53547020174E+002, +8.09759075520E+002
+2.79819774718E+007, +2.50630883702E+002, +8.17745904344E+002
+2.81070087610E+007, +2.51901634380E+002, +8.19428465871E+002
+2.82320400501E+007, +2.54680242104E+002, +8.32285106210E+002
+2.83570713392E+007, +2.54256489985E+002, +8.34459674671E+002
+2.84821026283E+007, +2.54619436428E+002, +8.37815517058E+002
+2.86071339174E+007, +2.61462850806E+002, +8.45598224450E+002
+2.87321652065E+007, +2.62876524429E+002, +8.51022182959E+002
+2.88571964956E+007, +2.60935017774E+002, +8.57701005860E+002
+2.89822277847E+007, +2.66887299397E+002, +8.63900251351E+002
+2.91072590738E+007, +2.69373022770E+002, +8.70551699717E+002
+2.92322903630E+007, +2.65327104331E+002, +8.78233096234E+002
+2.93573216521E+007, +2.67654905014E+002, +8.85639013489E+002
+2.94823529412E+007, +2.72748517326E+002, +8.96599439793E+002
+2.96073842303E+007, +2.70986940220E+002, +8.99097685283E+002
+2.97324155194E+007, +2.76175703536E+002, +9.10559283108E+002
+2.98574468085E+007, +2.77405974216E+002, +9.14426054190E+002
+2.99824780976E+007, +2.83122349165E+002, +9.17185501260E+002
+3.01075093867E+007, +2.83779984877E+002, +9.26371106592E+002
+3.02325406758E+007, +2.84690551482E+002, +9.35545132838E+002
+3.03575719650E+007, +2.85355127451E+002, +9.42178001448E+002
+3.04826032541E+007, +2.92615657055E+002, +9.47561387299E+002
+3.06076345432E+007, +2.90323097016E+002, +9.56029709418E+002
+3.07326658323E+007, +2.89207331677E+002, +9.63529925408E+002
+3.08576971214E+007, +2.93668440215E+002, +9.74213039481E+002
+3.09827284105E+007, +2.92676983562E+002, +9.73998773571E+002
+3.11077596996E+007, +2.93717428974E+002, +9.88822150608E+002
+3.12327909887E+007, +2.99319097541E+002, +9.95875997834E+002
+3.13578222778E+007, +3.03466901198E+002, +1.00642410508E+003
+3.14828535670E+007, +3.07859688009E+002, +1.01174974434E+003
+3.16078848561E+007, +3.06642961638E+002, +1.01077756530E+003
+3.17329161452E+007, +3.04780159213E+002, +1.02638461584E+003
+3.18579474343E+007, +3.17300181054E+002, +1.03537915400E+003
+3.19829787234E+007, +3.12312829724E+002, +1.04088125371E+003
+3.21080100125E+007, +3.14706066902E+002, +1.04972211011E+003
+3.22330413016E+007, +3.15579695579E+002, +1.06432655688E+003
+3.23580725907E+007, +3.23754935232E+002, +1.06480402892E+003
+3.24831038798E+007, +3.28712784490E+002, +1.07622559257E+003
+3.26081351690E+007, +3.30146984266E+002, +1.08553692673E+003
+3.27331664581E+007, +3.30161390099E+002, +1.09215265999E+003
+3.28581977472E+007, +3.35328001728E+002, +1.09896637559E+003
+3.29832290363E+007, +3.36217428737E+002, +1.11169803667E+003
+3.31082603254E+007, +3.42760755191E+002, +1.12106819802E+003
+3.32332916145E+007, +3.38408921985E+002, +1.13731023266E+003
+3.33583229036E+007, +3.47352436333E+002, +1.14002625701E+003
+3.34833541927E+007, +3.49940363762E+002, +1.15008011221E+003
+3.36083854819E+007, +3.58337993539E+002, +1.15597571577E+003
+3.37334167710E+007, +3.57529247095E+002, +1.16464778676E+003
+3.38584480601E+007, +3.54294379774E+002, +1.17661139966E+003
+3.39834793492E+007, +3.56029553625E+002, +1.18557282618E+003
+3.41085106383E+007, +3.61459704991E+002, +1.19566446691E+003
+3.42335419274E+007, +3.73825465418E+002, +1.20364621188E+003
+3.43585732165E+007, +3.73007116244E+002, +1.21328719198E+003
+3.44836045056E+007, +3.89571072486E+002, +1.22008374065E+003
+3.46086357947E+007, +3.85801301838E+002, +1.23305917807E+003
+3.47336670839E+007, +3.94198096506E+002, +1.24307996583E+003
+3.48586983730E+007, +3.93215191111E+002, +1.24345072014E+003
+3.49837296621E+007, +3.97074577744E+002, +1.25669658429E+003
+3.51087609512E+007, +3.92920233400E+002, +1.27373467373E+003
+3.52337922403E+007, +3.98710746544E+002, +1.28540446078E+003
+3.53588235294E+007, +4.12849110314E+002, +1.29777712292E+003
+3.54838548185E+007, +4.12992237182E+002, +1.30554642906E+003
+3.56088861076E+007, +4.15829528712E+002, +1.32428524132E+003
+3.57339173967E+007, +4.27775557088E+002, +1.33128946138E+003
+3.58589486859E+007, +4.24094962150E+002, +1.34566098959E+003
+3.59839799750E+007, +4.44223330810E+002, +1.35240369297E+003
+3.61090112641E+007, +4.34155926156E+002, +1.36853428877E+003
+3.62340425532E+007, +4.39838655201E+002, +1.37998623605E+003
+3.63590738423E+007, +4.60376806670E+002, +1.39027715599E+003
+3.64841051314E+007, +4.46165210962E+002, +1.39911672899E+003
+3.66091364205E+007, +4.57077501517E+002, +1.41962814057E+003
+3.67341677096E+007, +4.70183012781E+002, +1.43081234989E+003
+3.68591989987E+007, +4.67995918216E+002, +1.44285987200E+003
+3.69842302879E+007, +4.83269660991E+002, +1.45189746135E+003
+3.71092615770E+007, +4.73685240533E+002, +1.46816327712E+003
+3.72342928661E+007, +4.83373813554E+002, +1.47323477793E+003
+3.73593241552E+007, +5.04531599718E+002, +1.50906253885E+003
+3.74843554443E+007, +5.01587388865E+002, +1.50593189535E+003
+3.76093867334E+007, +5.12165238403E+002, +1.51952114614E+003
+3.77344180225E+007, +5.22233993747E+002, +1.54685577255E+003
+3.78594493116E+007, +5.21095263594E+002, +1.55669769410E+003
+3.79844806008E+007, +5.24564221070E+002, +1.55409436234E+003
+3.81095118899E+007, +5.33628002849E+002, +1.57467726247E+003
+3.82345431790E+007, +5.51557272039E+002, +1.57758369625E+003
+3.83595744681E+007, +5.51341320818E+002, +1.61960699128E+003
+3.84846057572E+007, +5.62511350191E+002, +1.62625933109E+003
+3.86096370463E+007, +5.70392942848E+002, +1.65208779617E+003
+3.87346683354E+007, +5.82936165576E+002, +1.65812433109E+003
+3.88596996245E+007, +5.93486603092E+002, +1.66936026572E+003
+3.89847309136E+007, +6.10732108889E+002, +1.70281937252E+003
+3.91097622028E+007, +6.09226850484E+002, +1.70430652213E+003
+3.92347934919E+007, +6.15036657162E+002, +1.72535278994E+003
+3.93598247810E+007, +6.40062254890E+002, +1.75695803986E+003
+3.94848560701E+007, +6.43368290999E+002, +1.76235033793E+003
+3.96098873592E+007, +6.43269021603E+002, +1.76162878330E+003
+3.97349186483E+007, +6.50978052566E+002, +1.79577369184E+003
+3.98599499374E+007, +6.63822905359E+002, +1.79632693950E+003
+3.99849812265E+007, +6.87333295658E+002, +1.84635907338E+003
+4.01100125156E+007, +7.00307055216E+002, +1.84662536849E+003
