"# Channel 1"
"# Trace 1"
Frequency, Formatted Data, Formatted Data
+1.00000000000E+005, +1.00683309259E+002, +5.71562290347E-001
+2.25031289111E+005, +1.00259290361E+002, +3.46527610580E+000
+3.50062578223E+005, +1.00409286576E+002, +5.50582540831E+000
+4.75093867334E+005, +1.00494500010E+002, +7.65513887084E+000
+6.00125156446E+005, +1.00458128939E+002, +9.58189739775E+000
+7.25156445557E+005, +1.00393734456E+002, +1.16334856455E+001
+8.50187734668E+005, +1.00545217070E+002, +1.36242842601E+001
+9.75219023780E+005, +1.00498329899E+002, +1.56179835059E+001
+1.10025031289E+006, +1.00642182850E+002, +1.74620755116E+001
+1.22528160200E+006, +1.00629772683E+002, +1.93731264966E+001
+1.35031289111E+006, +1.00629872478E+002, +2.14349807023E+001
+1.47534418023E+006, +1.00789119662E+002, +2.34284552808E+001
+1.60037546934E+006, +1.00581951232E+002, +2.53235856358E+001
+1.72540675845E+006, +1.00812841059E+002, +2.71724300879E+001
+1.85043804756E+006, +1.00750698423E+002, +2.92783243790E+001
+1.97546933667E+006, +1.00775737602E+002, +3.15253025973E+001
+2.10050062578E+006, +1.00793545765E+002, +3.32673101749E+001
+2.22553191489E+006, +1.00772356864E+002, +3.52955952599E+001
+2.35056320401E+006, +1.00697111951E+002, +3.74355005694E+001
+2.47559449312E+006, +1.00874587288E+002, +3.92910045606E+001
+2.60062578223E+006, +1.00829691524E+002, +4.12188950298E+001
+2.72565707134E+006, +1.00803842783E+002, +4.32830842846E+001
+2.85068836045E+006, +1.00845482750E+002, +4.49742057112E+001
+2.97571964956E+006, +1.00988579368E+002, +4.75181290595E+001
+3.10075093867E+006, +1.00891028932E+002, +4.92555175853E+001
+3.22578222778E+006, +1.01002495473E+002, +5.11472408435E+001
+3.35081351690E+006, +1.00994199468E+002, +5.31776795614E+001
+3.47584480601E+006, +1.00975228833E+002, +5.48467042431E+001
+3.60087609512E+006, +1.01103959852E+002, +5.71669346313E+001
+3.72590738423E+006, +1.01209186152E+002, +5.89220982720E+001
+3.85093867334E+006, +1.00862503018E+002, +6.09711321462E+001
+3.97596996245E+006, +1.00925224035E+002, +6.27677606932E+001
+4.10100125156E+006, +1.00777199351E+002, +6.51644277697E+001
+4.22603254068E+006, +1.01340569760E+002, +6.70238831888E+001
+4.35106382979E+006, +1.01325742772E+002, +6.89055243058E+001
+4.47609511890E+006, +1.01248360793E+002, +7.11411336269E+001
+4.60112640801E+006, +1.01423803981E+002, +7.28067921343E+001
+4.72615769712E+006, +1.01156870938E+002, +7.49659674292E+001
+4.85118898623E+006, +1.01622898749E+002, +7.70729776314E+001
+4.97622027534E+006, +1.01700625517E+002, +7.90050596945E+001
+5.10125156446E+006, +1.01439376953E+002, +8.07660667337E+001
+5.22628285357E+006, +1.01563299761E+002, +8.27702022090E+001
+5.35131414268E+006, +1.01579444672E+002, +8.49344225060E+001
+5.47634543179E+006, +1.01731366736E+002, +8.69258060175E+001
+5.60137672090E+006, +1.01850287993E+002, +8.89627933251E+001
+5.72640801001E+006, +1.02037739123E+002, +9.11145789346E+001
+5.85143929912E+006, +1.01998148191E+002, +9.27496502329E+001
+5.97647058824E+006, +1.01981798478E+002, +9.47735100693E+001
+6.10150187735E+006, +1.01950334127E+002, +9.66181730294E+001
+6.22653316646E+006, +1.02233532945E+002, +9.86663637847E+001
+6.35156445557E+006, +1.02156800495E+002, +1.00872855195E+002
+6.47659574468E+006, +1.02133514954E+002, +1.02825774247E+002
+6.60162703379E+006, +1.02269962716E+002, +1.04700215709E+002
+6.72665832290E+006, +1.02270579227E+002, +1.06865393177E+002
+6.85168961202E+006, +1.02231403102E+002, +1.08802029253E+002
+6.97672090113E+006, +1.02445385818E+002, +1.10707653276E+002
+7.10175219024E+006, +1.02426568579E+002, +1.12743944943E+002
+7.22678347935E+006, +1.02381571065E+002, +1.14808409172E+002
+7.35181476846E+006, +1.02675914637E+002, +1.16887284282E+002
+7.47684605757E+006, +1.02672264619E+002, +1.18788744065E+002
+7.60187734668E+006, +1.02665119881E+002, +1.20932630877E+002
+7.72690863579E+006, +1.02968349538E+002, +1.22898050508E+002
+7.85193992491E+006, +1.03028922634E+002, +1.24854197968E+002
+7.97697121402E+006, +1.03047544444E+002, +1.26870939879E+002
+8.10200250313E+006, +1.03239031781E+002, +1.29133810155E+002
+8.22703379224E+006, +1.03081833505E+002, +1.31015753827E+002
+8.35206508135E+006, +1.03213849742E+002, +1.33033850456E+002
+8.47709637046E+006, +1.03329752093E+002, +1.35355411418E+002
+8.60212765957E+006, +1.03245078846E+002, +1.37292687958E+002
+8.72715894869E+006, +1.03344902749E+002, +1.39278681739E+002
+8.85219023780E+006, +1.03579084614E+002, +1.41431770925E+002
+8.97722152691E+006, +1.03401441706E+002, +1.43368343745E+002
+9.10225281602E+006, +1.03676686032E+002, +1.45653255575E+002
+9.22728410513E+006, +1.03662003018E+002, +1.47516053745E+002
+9.35231539424E+006, +1.03765373933E+002, +1.49646270286E+002
+9.47734668335E+006, +1.03548843926E+002, +1.51826345253E+002
+9.60237797247E+006, +1.03798039114E+002, +1.53742920182E+002
+9.72740926158E+006, +1.04145328084E+002, +1.55847939538E+002
+9.85244055069E+006, +1.04009895204E+002, +1.57978885682E+002
+9.97747183980E+006, +1.04370681104E+002, +1.59846282619E+002
+1.01025031289E+007, +1.04104713730E+002, +1.61917109982E+002
+1.02275344180E+007, +1.04711192461E+002, +1.64097750535E+002
+1.03525657071E+007, +1.04638378909E+002, +1.66311696684E+002
+1.04775969962E+007, +1.04748919113E+002, +1.68315922096E+002
+1.06026282854E+007, +1.04796623393E+002, +1.70628213023E+002
+1.07276595745E+007, +1.04863720244E+002, +1.72573197881E+002
+1.08526908636E+007, +1.04841955329E+002, +1.74732626061E+002
+1.09777221527E+007, +1.05125462329E+002, +1.76897720075E+002
+1.11027534418E+007, +1.05444029238E+002, +1.78874190553E+002
+1.12277847309E+007, +1.05201842661E+002, +1.81125714863E+002
+1.13528160200E+007, +1.05219563626E+002, +1.83384115601E+002
+1.14778473091E+007, +1.05365805103E+002, +1.85100338890E+002
+1.16028785982E+007, +1.05554231709E+002, +1.87309555872E+002
+1.17279098874E+007, +1.05588566258E+002, +1.89272852905E+002
+1.18529411765E+007, +1.05756854097E+002, +1.91596701934E+002
+1.19779724656E+007, +1.05821463734E+002, +1.93826484166E+002
+1.21030037547E+007, +1.06147867902E+002, +1.95733958125E+002
+1.22280350438E+007, +1.06388367899E+002, +1.97959984318E+002
+1.23530663329E+007, +1.05991474738E+002, +2.00171938182E+002
+1.24780976220E+007, +1.06460512157E+002, +2.02652821532E+002
+1.26031289111E+007, +1.06422734507E+002, +2.04544916016E+002
+1.27281602003E+007, +1.06592084185E+002, +2.06974700001E+002
+1.28531914894E+007, +1.06950680827E+002, +2.08962247241E+002
+1.29782227785E+007, +1.06833880644E+002, +2.10893555024E+002
+1.31032540676E+007, +1.06854061878E+002, +2.13091483883E+002
+1.32282853567E+007, +1.07135829867E+002, +2.15348869834E+002
+1.33533166458E+007, +1.07423937927E+002, +2.17588433755E+002
+1.34783479349E+007, +1.07596979708E+002, +2.19740550201E+002
+1.36033792240E+007, +1.07321984494E+002, +2.21865427182E+002
+1.37284105131E+007, +1.07496429463E+002, +2.23983834356E+002
+1.38534418023E+007, +1.07662908685E+002, +2.26253949893E+002
+1.39784730914E+007, +1.07595839802E+002, +2.28583881318E+002
+1.41035043805E+007, +1.07652964461E+002, +2.30782441621E+002
+1.42285356696E+007, +1.08306867474E+002, +2.32736802277E+002
+1.43535669587E+007, +1.08327596487E+002, +2.35007326121E+002
+1.44785982478E+007, +1.08404959160E+002, +2.37534231692E+002
+1.46036295369E+007, +1.08378161783E+002, +2.39411982041E+002
+1.47286608260E+007, +1.08455691637E+002, +2.41619920632E+002
+1.48536921151E+007, +1.08985668129E+002, +2.43610217082E+002
+1.49787234043E+007, +1.08937524586E+002, +2.46102934934E+002
+1.51037546934E+007, +1.09166540326E+002, +2.48246860601E+002
+1.52287859825E+007, +1.09508706633E+002, +2.50502328905E+002
+1.53538172716E+007, +1.09479223306E+002, +2.52466190945E+002
+1.54788485607E+007, +1.09616848915E+002, +2.55081325414E+002
+1.56038798498E+007, +1.10003104084E+002, +2.57425188416E+002
+1.57289111389E+007, +1.09639202656E+002, +2.59569652774E+002
+1.58539424280E+007, +1.10041609015E+002, +2.62121394524E+002
+1.59789737171E+007, +1.09993117641E+002, +2.64346917205E+002
+1.61040050063E+007, +1.10069975369E+002, +2.66508612371E+002
+1.62290362954E+007, +1.10832498085E+002, +2.68360399403E+002
+1.63540675845E+007, +1.10562133485E+002, +2.70781140711E+002
+1.64790988736E+007, +1.10953364175E+002, +2.73378950566E+002
+1.66041301627E+007, +1.11232157575E+002, +2.75704344206E+002
+1.67291614518E+007, +1.11132190761E+002, +2.78161441600E+002
+1.68541927409E+007, +1.11159134627E+002, +2.79779416268E+002
+1.69792240300E+007, +1.11673897374E+002, +2.82248515066E+002
+1.71042553191E+007, +1.11828521134E+002, +2.85060675006E+002
+1.72292866083E+007, +1.11427716797E+002, +2.87583872328E+002
+1.73543178974E+007, +1.11582261494E+002, +2.89310324056E+002
+1.74793491865E+007, +1.11474784992E+002, +2.92051217772E+002
+1.76043804756E+007, +1.12746814887E+002, +2.93863593908E+002
+1.77294117647E+007, +1.12565517940E+002, +2.96677777885E+002
+1.78544430538E+007, +1.12183516018E+002, +2.98568010575E+002
+1.79794743429E+007, +1.13279990651E+002, +3.01791344901E+002
+1.81045056320E+007, +1.13323229791E+002, +3.03707502857E+002
+1.82295369212E+007, +1.13264019507E+002, +3.06606995709E+002
+1.83545682103E+007, +1.14082593816E+002, +3.08362016474E+002
+1.84795994994E+007, +1.13876636908E+002, +3.10725777489E+002
+1.86046307885E+007, +1.14400437582E+002, +3.13168362341E+002
+1.87296620776E+007, +1.14614977636E+002, +3.15162714442E+002
+1.88546933667E+007, +1.14469626819E+002, +3.17675360977E+002
+1.89797246558E+007, +1.14547416842E+002, +3.20055148200E+002
+1.91047559449E+007, +1.14597636002E+002, +3.22603263904E+002
+1.92297872340E+007, +1.14990437754E+002, +3.24918437071E+002
+1.93548185232E+007, +1.15623119817E+002, +3.27609485612E+002
+1.94798498123E+007, +1.15637950698E+002, +3.29381220841E+002
+1.96048811014E+007, +1.15389764713E+002, +3.32205600278E+002
+1.97299123905E+007, +1.16442547192E+002, +3.35243191615E+002
+1.98549436796E+007, +1.15706704633E+002, +3.37131535760E+002
+1.99799749687E+007, +1.15778606141E+002, +3.39786464675E+002
+2.01050062578E+007, +1.17193790741E+002, +3.42091883201E+002
+2.02300375469E+007, +1.16943121519E+002, +3.44691414531E+002
+2.03550688360E+007, +1.18007494319E+002, +3.47396824721E+002
+2.04801001252E+007, +1.18477768085E+002, +3.49696135617E+002
+2.06051314143E+007, +1.17685353088E+002, +3.52243819490E+002
+2.07301627034E+007, +1.17490242275E+002, +3.55037639119E+002
+2.08551939925E+007, +1.18486611854E+002, +3.56531181287E+002
+2.09802252816E+007, +1.18805320389E+002, +3.60063915293E+002
+2.11052565707E+007, +1.18534871922E+002, +3.61746130872E+002
+2.12302878598E+007, +1.19062759134E+002, +3.64951263176E+002
+2.13553191489E+007, +1.20033969827E+002, +3.67207103489E+002
+2.14803504380E+007, +1.19823495131E+002, +3.69690173476E+002
+2.16053817272E+007, +1.19723035815E+002, +3.72473249734E+002
+2.17304130163E+007, +1.20602611651E+002, +3.75200952867E+002
+2.18554443054E+007, +1.20521100082E+002, +3.77518884612E+002
+2.19804755945E+007, +1.20130569865E+002, +3.80621070372E+002
+2.21055068836E+007, +1.20517690509E+002, +3.82907179748E+002
+2.22305381727E+007, +1.21644088537E+002, +3.84947886878E+002
+2.23555694618E+007, +1.22179289689E+002, +3.87434186614E+002
+2.24806007509E+007, +1.22271253892E+002, +3.89847589119E+002
+2.26056320401E+007, +1.22537779250E+002, +3.93227767463E+002
+2.27306633292E+007, +1.23967990701E+002, +3.95359049307E+002
+2.28556946183E+007, +1.23442907576E+002, +3.97508248497E+002
+2.29807259074E+007, +1.23815150173E+002, +4.00473367692E+002
+2.31057571965E+007, +1.24543398298E+002, +4.02786231361E+002
+2.32307884856E+007, +1.25309827839E+002, +4.06476941371E+002
+2.33558197747E+007, +1.25365650769E+002, +4.08779990621E+002
+2.34808510638E+007, +1.25759232240E+002, +4.10885269094E+002
+2.36058823529E+007, +1.26054168120E+002, +4.13966566713E+002
+2.37309136421E+007, +1.25752202696E+002, +4.15885456700E+002
+2.38559449312E+007, +1.25521213487E+002, +4.19347086966E+002
+2.39809762203E+007, +1.27596281295E+002, +4.21473810684E+002
+2.41060075094E+007, +1.26653864471E+002, +4.25294410091E+002
+2.42310387985E+007, +1.28112972557E+002, +4.26799068078E+002
+2.43560700876E+007, +1.27406581765E+002, +4.28350681591E+002
+2.44811013767E+007, +1.26763601997E+002, +4.31671655054E+002
+2.46061326658E+007, +1.27153067138E+002, +4.34553248319E+002
+2.47311639549E+007, +1.28356456703E+002, +4.36986983023E+002
+2.48561952441E+007, +1.28188769080E+002, +4.40082392176E+002
+2.49812265332E+007, +1.29213762560E+002, +4.41950716869E+002
+2.51062578223E+007, +1.28505069840E+002, +4.44983185945E+002
+2.52312891114E+007, +1.30377820183E+002, +4.47498213414E+002
+2.53563204005E+007, +1.30239638622E+002, +4.51172956974E+002
+2.54813516896E+007, +1.29751805546E+002, +4.52817782494E+002
+2.56063829787E+007, +1.30943687514E+002, +4.56233083622E+002
+2.57314142678E+007, +1.30576290247E+002, +4.58610740765E+002
+2.58564455569E+007, +1.31001769178E+002, +4.62443323470E+002
+2.59814768461E+007, +1.30919499819E+002, +4.65314535809E+002
+2.61065081352E+007, +1.31577989567E+002, +4.66575111474E+002
+2.62315394243E+007, +1.31804953942E+002, +4.70105122498E+002
+2.63565707134E+007, +1.31547169576E+002, +4.73993635328E+002
+2.64816020025E+007, +1.34517691882E+002, +4.77301307402E+002
+2.66066332916E+007, +1.32545679713E+002, +4.78364908823E+002
+2.67316645807E+007, +1.34140483193E+002, +4.82669867985E+002
+2.68566958698E+007, +1.33851684377E+002, +4.85756073322E+002
+2.69817271589E+007, +1.34995876827E+002, +4.88462100292E+002
+2.71067584481E+007, +1.34468479814E+002, +4.91343849096E+002
+2.72317897372E+007, +1.35877515744E+002, +4.94912074033E+002
+2.73568210263E+007, +1.35917138751E+002, +4.98300409211E+002
+2.74818523154E+007, +1.35401794257E+002, +5.00487236706E+002
+2.76068836045E+007, +1.35563144665E+002, +5.03784453422E+002
+2.77319148936E+007, +1.36733484260E+002, +5.06706716841E+002
+2.78569461827E+007, +1.38561916819E+002, +5.10223855268E+002
+2.79819774718E+007, +1.38245488827E+002, +5.13304588862E+002
+2.81070087610E+007, +1.36518185801E+002, +5.14367239572E+002
+2.82320400501E+007, +1.38050507174E+002, +5.19447897329E+002
+2.83570713392E+007, +1.38026006420E+002, +5.21794415255E+002
+2.84821026283E+007, +1.39719948217E+002, +5.25224401633E+002
+2.86071339174E+007, +1.39009147663E+002, +5.28460400157E+002
+2.87321652065E+007, +1.39896427414E+002, +5.31272061968E+002
+2.88571964956E+007, +1.38826376389E+002, +5.34822694950E+002
+2.89822277847E+007, +1.41650577097E+002, +5.37681399991E+002
+2.91072590738E+007, +1.41394336836E+002, +5.40255908630E+002
+2.92322903630E+007, +1.42143445448E+002, +5.43394552230E+002
+2.93573216521E+007, +1.41981922502E+002, +5.47563322771E+002
+2.94823529412E+007, +1.42194667374E+002, +5.51462076393E+002
+2.96073842303E+007, +1.42778188412E+002, +5.53114025889E+002
+2.97324155194E+007, +1.43369259823E+002, +5.57489714553E+002
+2.98574468085E+007, +1.43207113298E+002, +5.58477426793E+002
+2.99824780976E+007, +1.44237984195E+002, +5.61624759791E+002
+3.01075093867E+007, +1.45537832402E+002, +5.67575176258E+002
+3.02325406758E+007, +1.45573279462E+002, +5.69511340313E+002
+3.03575719650E+007, +1.47180502667E+002, +5.72893046615E+002
+3.04826032541E+007, +1.45972746044E+002, +5.76329936349E+002
+3.06076345432E+007, +1.46915970080E+002, +5.79787924330E+002
+3.07326658323E+007, +1.47139477589E+002, +5.83457081995E+002
+3.08576971214E+007, +1.47690994700E+002, +5.87049054336E+002
+3.09827284105E+007, +1.47174490900E+002, +5.88960949972E+002
+3.11077596996E+007, +1.46127249344E+002, +5.96002053662E+002
+3.12327909887E+007, +1.48108543776E+002, +5.98168469106E+002
+3.13578222778E+007, +1.48321810833E+002, +6.03135052399E+002
+3.14828535670E+007, +1.49845266435E+002, +6.04654436886E+002
+3.16078848561E+007, +1.51228758636E+002, +6.07440362928E+002
+3.17329161452E+007, +1.50159287105E+002, +6.10144204604E+002
+3.18579474343E+007, +1.53500195531E+002, +6.15191788839E+002
+3.19829787234E+007, +1.52211228321E+002, +6.17177125341E+002
+3.21080100125E+007, +1.52141086352E+002, +6.22343914885E+002
+3.22330413016E+007, +1.52142248326E+002, +6.26958700552E+002
+3.23580725907E+007, +1.54060374870E+002, +6.29820478892E+002
+3.24831038798E+007, +1.53559450490E+002, +6.33552443961E+002
+3.26081351690E+007, +1.53817965085E+002, +6.37305556556E+002
+3.27331664581E+007, +1.55903000219E+002, +6.39249850155E+002
+3.28581977472E+007, +1.55584995088E+002, +6.44365135886E+002
+3.29832290363E+007, +1.56239240101E+002, +6.49159471379E+002
+3.31082603254E+007, +1.56235776677E+002, +6.53390839362E+002
+3.32332916145E+007, +1.56434446537E+002, +6.55074072426E+002
+3.33583229036E+007, +1.57801047792E+002, +6.60543362603E+002
+3.34833541927E+007, +1.58542426655E+002, +6.65303847779E+002
+3.36083854819E+007, +1.57668133459E+002, +6.66317202320E+002
+3.37334167710E+007, +1.60011666597E+002, +6.71512032059E+002
+3.38584480601E+007, +1.62364904765E+002, +6.76886653325E+002
+3.39834793492E+007, +1.61539861268E+002, +6.78604133790E+002
+3.41085106383E+007, +1.58397602465E+002, +6.80751037868E+002
+3.42335419274E+007, +1.61855383582E+002, +6.85932193774E+002
+3.43585732165E+007, +1.61283840515E+002, +6.90881090051E+002
+3.44836045056E+007, +1.66980645743E+002, +6.92700064670E+002
+3.46086357947E+007, +1.65457476192E+002, +6.99356115137E+002
+3.47336670839E+007, +1.68175921901E+002, +7.02499922690E+002
+3.48586983730E+007, +1.68264158556E+002, +7.04951062400E+002
+3.49837296621E+007, +1.69710959724E+002, +7.09654619291E+002
+3.51087609512E+007, +1.65769599418E+002, +7.13836115716E+002
+3.52337922403E+007, +1.67360951417E+002, +7.16999844822E+002
+3.53588235294E+007, +1.71558845728E+002, +7.23791534520E+002
+3.54838548185E+007, +1.70408355825E+002, +7.27802457828E+002
+3.56088861076E+007, +1.71495713617E+002, +7.33266036373E+002
+3.57339173967E+007, +1.72566354347E+002, +7.38075823461E+002
+3.58589486859E+007, +1.72574830852E+002, +7.41181518670E+002
+3.59839799750E+007, +1.77340222203E+002, +7.45022625424E+002
+3.61090112641E+007, +1.73391599640E+002, +7.50072155109E+002
+3.62340425532E+007, +1.75077419958E+002, +7.53515564830E+002
+3.63590738423E+007, +1.79818393935E+002, +7.57020278363E+002
+3.64841051314E+007, +1.74835561035E+002, +7.62671449764E+002
+3.66091364205E+007, +1.77816541828E+002, +7.67165641645E+002
+3.67341677096E+007, +1.78630785423E+002, +7.73008248477E+002
+3.68591989987E+007, +1.75897172365E+002, +7.76667915434E+002
+3.69842302879E+007, +1.79107545973E+002, +7.78363483590E+002
+3.71092615770E+007, +1.79279693506E+002, +7.83430064521E+002
+3.72342928661E+007, +1.81796658656E+002, +7.87533087484E+002
+3.73593241552E+007, +1.87204261711E+002, +7.96517090220E+002
+3.74843554443E+007, +1.82322600470E+002, +7.98286511786E+002
+3.76093867334E+007, +1.84617461255E+002, +8.05007029579E+002
+3.77344180225E+007, +1.86195710639E+002, +8.08072271007E+002
+3.78594493116E+007, +1.88092826338E+002, +8.12507572168E+002
+3.79844806008E+007, +1.87165154706E+002, +8.17906600613E+002
+3.81095118899E+007, +1.87706171883E+002, +8.21470141341E+002
+3.82345431790E+007, +1.93022982781E+002, +8.25935410745E+002
+3.83595744681E+007, +1.89621879091E+002, +8.33685192516E+002
+3.84846057572E+007, +1.94075879120E+002, +8.37806158529E+002
+3.86096370463E+007, +1.93025953622E+002, +8.42527138619E+002
+3.87346683354E+007, +1.92015819793E+002, +8.45828044209E+002
+3.88596996245E+007, +1.94082400599E+002, +8.53587165978E+002
+3.89847309136E+007, +1.97262801220E+002, +8.57847131665E+002
+3.91097622028E+007, +1.98053765891E+002, +8.63405859079E+002
+3.92347934919E+007, +1.98380045066E+002, +8.69922819377E+002
+3.93598247810E+007, +2.02695954466E+002, +8.73259811633E+002
+3.94848560701E+007, +2.02602060663E+002, +8.78334974275E+002
+3.96098873592E+007, +2.04392166696E+002, +8.82432259419E+002
+3.97349186483E+007, +2.04124201761E+002, +8.86952991823E+002
+3.98599499374E+007, +2.03784960125E+002, +8.91685638316E+002
+3.99849812265E+007, +2.04153257172E+002, +9.01389509948E+002
+4.01100125156E+007, +2.05014072213E+002, +9.05246381871E+002
