"# Channel 1"
"# Trace 1"
Frequency, Formatted Data, Formatted Data
+1.00000000000E+005, +3.95160257196E+002, -1.16792945908E+001
+2.25031289111E+005, +3.91020805985E+002, +5.31741957751E+000
+3.50062578223E+005, +3.91122428395E+002, +9.61191926979E+000
+4.75093867334E+005, +3.89924549461E+002, +1.41774508041E+001
+6.00125156446E+005, +3.89562022141E+002, +1.83433032306E+001
+7.25156445557E+005, +3.90051547642E+002, +2.29510858584E+001
+8.50187734668E+005, +3.91656597086E+002, +2.59466784650E+001
+9.75219023780E+005, +3.91110879798E+002, +3.05486026249E+001
+1.10025031289E+006, +3.90853389699E+002, +3.36584511551E+001
+1.22528160200E+006, +3.91918503475E+002, +3.72370973785E+001
+1.35031289111E+006, +3.94889840369E+002, +4.14506724768E+001
+1.47534418023E+006, +3.91816763133E+002, +4.56284412155E+001
+1.60037546934E+006, +3.92263355552E+002, +5.02602961395E+001
+1.72540675845E+006, +3.93506660090E+002, +5.43624714616E+001
+1.85043804756E+006, +3.93691467029E+002, +5.88052592878E+001
+1.97546933667E+006, +3.93746682825E+002, +6.27417554925E+001
+2.10050062578E+006, +3.94752205818E+002, +6.65398110851E+001
+2.22553191489E+006, +3.94155868693E+002, +7.05674556010E+001
+2.35056320401E+006, +3.94395489217E+002, +7.41728537952E+001
+2.47559449312E+006, +3.94754196989E+002, +7.92258536047E+001
+2.60062578223E+006, +3.96661694351E+002, +8.20045199175E+001
+2.72565707134E+006, +3.94609249383E+002, +8.81561168286E+001
+2.85068836045E+006, +3.93978905956E+002, +9.20648380225E+001
+2.97571964956E+006, +3.98453167065E+002, +9.46059059277E+001
+3.10075093867E+006, +3.97790913866E+002, +9.99252980785E+001
+3.22578222778E+006, +3.96219350491E+002, +1.05340988583E+002
+3.35081351690E+006, +3.95856737204E+002, +1.07705681414E+002
+3.47584480601E+006, +3.94416232590E+002, +1.09162962940E+002
+3.60087609512E+006, +3.97008054363E+002, +1.14445287301E+002
+3.72590738423E+006, +3.95380409425E+002, +1.18706553699E+002
+3.85093867334E+006, +3.96210354996E+002, +1.23022163477E+002
+3.97596996245E+006, +3.93561523096E+002, +1.27725696708E+002
+4.10100125156E+006, +3.93078758668E+002, +1.35701162243E+002
+4.22603254068E+006, +3.99522469916E+002, +1.35381219440E+002
+4.35106382979E+006, +3.98870685655E+002, +1.39637405103E+002
+4.47609511890E+006, +3.98295706025E+002, +1.41710936634E+002
+4.60112640801E+006, +3.97073258452E+002, +1.47921601996E+002
+4.72615769712E+006, +3.97469375328E+002, +1.50322559005E+002
+4.85118898623E+006, +3.98444656674E+002, +1.55742468145E+002
+4.97622027534E+006, +3.99601865610E+002, +1.59592300476E+002
+5.10125156446E+006, +3.97410713748E+002, +1.64021883180E+002
+5.22628285357E+006, +3.98138833126E+002, +1.66751655839E+002
+5.35131414268E+006, +3.97376881430E+002, +1.70916752058E+002
+5.47634543179E+006, +4.02308239689E+002, +1.75147890046E+002
+5.60137672090E+006, +3.99145871696E+002, +1.77642342074E+002
+5.72640801001E+006, +4.00517280819E+002, +1.83383538397E+002
+5.85143929912E+006, +4.00917656994E+002, +1.87514353173E+002
+5.97647058824E+006, +3.99767732211E+002, +1.92502821621E+002
+6.10150187735E+006, +3.99995877807E+002, +1.97193914751E+002
+6.22653316646E+006, +4.00086902662E+002, +2.00424656546E+002
+6.35156445557E+006, +3.99982011524E+002, +2.04403522917E+002
+6.47659574468E+006, +4.01110740752E+002, +2.08746480842E+002
+6.60162703379E+006, +4.00655900355E+002, +2.12896155138E+002
+6.72665832290E+006, +4.01643669629E+002, +2.17953128293E+002
+6.85168961202E+006, +4.02351428357E+002, +2.20739936838E+002
+6.97672090113E+006, +4.01616478768E+002, +2.24696602226E+002
+7.10175219024E+006, +4.01788391289E+002, +2.29513795990E+002
+7.22678347935E+006, +4.02082772221E+002, +2.34513885639E+002
+7.35181476846E+006, +4.02556573322E+002, +2.38602451959E+002
+7.47684605757E+006, +4.02621785971E+002, +2.41676480117E+002
+7.60187734668E+006, +4.03686200803E+002, +2.46148188966E+002
+7.72690863579E+006, +4.04877987866E+002, +2.51597599480E+002
+7.85193992491E+006, +4.05793850831E+002, +2.54765212463E+002
+7.97697121402E+006, +4.05274257951E+002, +2.58826584617E+002
+8.10200250313E+006, +4.07182977484E+002, +2.65677855602E+002
+8.22703379224E+006, +4.06173349837E+002, +2.68531234827E+002
+8.35206508135E+006, +4.07704746719E+002, +2.73254017176E+002
+8.47709637046E+006, +4.08911074599E+002, +2.77294139611E+002
+8.60212765957E+006, +4.08289564485E+002, +2.82878885365E+002
+8.72715894869E+006, +4.08214276399E+002, +2.86346367613E+002
+8.85219023780E+006, +4.10274886548E+002, +2.90536474268E+002
+8.97722152691E+006, +4.09831009998E+002, +2.96968931234E+002
+9.10225281602E+006, +4.11111871277E+002, +3.01443832383E+002
+9.22728410513E+006, +4.09952858606E+002, +3.05656367689E+002
+9.35231539424E+006, +4.11480300921E+002, +3.09395292498E+002
+9.47734668335E+006, +4.11796999802E+002, +3.16295284839E+002
+9.60237797247E+006, +4.13069269123E+002, +3.18251332829E+002
+9.72740926158E+006, +4.14681689824E+002, +3.23113971221E+002
+9.85244055069E+006, +4.13857467581E+002, +3.30344238500E+002
+9.97747183980E+006, +4.15220959273E+002, +3.34174125936E+002
+1.01025031289E+007, +4.14538117827E+002, +3.37229590903E+002
+1.02275344180E+007, +4.16229686131E+002, +3.43026598576E+002
+1.03525657071E+007, +4.17999311798E+002, +3.47743326247E+002
+1.04775969962E+007, +4.19621665071E+002, +3.53439493515E+002
+1.06026282854E+007, +4.18662001572E+002, +3.56987107452E+002
+1.07276595745E+007, +4.20845700983E+002, +3.62098169081E+002
+1.08526908636E+007, +4.21155981011E+002, +3.67442427603E+002
+1.09777221527E+007, +4.21210676356E+002, +3.72214070945E+002
+1.11027534418E+007, +4.21965510869E+002, +3.75103814179E+002
+1.12277847309E+007, +4.23193454830E+002, +3.82106339314E+002
+1.13528160200E+007, +4.24059818424E+002, +3.87000766747E+002
+1.14778473091E+007, +4.23993868395E+002, +3.91406534327E+002
+1.16028785982E+007, +4.26149751732E+002, +3.95965764819E+002
+1.17279098874E+007, +4.25759078476E+002, +4.00727089335E+002
+1.18529411765E+007, +4.28403060272E+002, +4.06378341166E+002
+1.19779724656E+007, +4.27118983023E+002, +4.11434717286E+002
+1.21030037547E+007, +4.30107185362E+002, +4.15653688280E+002
+1.22280350438E+007, +4.29368845288E+002, +4.21747154177E+002
+1.23530663329E+007, +4.28969076692E+002, +4.27822210107E+002
+1.24780976220E+007, +4.32474108292E+002, +4.32301830223E+002
+1.26031289111E+007, +4.32644926924E+002, +4.37593817765E+002
+1.27281602003E+007, +4.35758185693E+002, +4.41278932224E+002
+1.28531914894E+007, +4.36031575432E+002, +4.46526204978E+002
+1.29782227785E+007, +4.37082178362E+002, +4.51001915572E+002
+1.31032540676E+007, +4.39402772820E+002, +4.58648437574E+002
+1.32282853567E+007, +4.40587009131E+002, +4.63969615105E+002
+1.33533166458E+007, +4.40578874295E+002, +4.69513661177E+002
+1.34783479349E+007, +4.41126703332E+002, +4.73924213070E+002
+1.36033792240E+007, +4.40849590400E+002, +4.80179281044E+002
+1.37284105131E+007, +4.43253456674E+002, +4.85524130731E+002
+1.38534418023E+007, +4.42829811976E+002, +4.90608153319E+002
+1.39784730914E+007, +4.43179816044E+002, +4.96536451699E+002
+1.41035043805E+007, +4.45049846167E+002, +5.01070061015E+002
+1.42285356696E+007, +4.49940777181E+002, +5.08151687123E+002
+1.43535669587E+007, +4.49741742291E+002, +5.11165470708E+002
+1.44785982478E+007, +4.50108608428E+002, +5.18445668243E+002
+1.46036295369E+007, +4.52847852701E+002, +5.24484181098E+002
+1.47286608260E+007, +4.53176954832E+002, +5.29743233300E+002
+1.48536921151E+007, +4.54509835390E+002, +5.35316132660E+002
+1.49787234043E+007, +4.55148820158E+002, +5.42080801645E+002
+1.51037546934E+007, +4.59216332500E+002, +5.44767591235E+002
+1.52287859825E+007, +4.59799310541E+002, +5.54595804747E+002
+1.53538172716E+007, +4.55720214746E+002, +5.59470407927E+002
+1.54788485607E+007, +4.62096404555E+002, +5.64744283666E+002
+1.56038798498E+007, +4.63696012562E+002, +5.68778895046E+002
+1.57289111389E+007, +4.65125774733E+002, +5.76249063839E+002
+1.58539424280E+007, +4.65248899699E+002, +5.82646258017E+002
+1.59789737171E+007, +4.67863250381E+002, +5.88240631778E+002
+1.61040050063E+007, +4.67342269267E+002, +5.97001004743E+002
+1.62290362954E+007, +4.70159361607E+002, +6.03538184594E+002
+1.63540675845E+007, +4.68745730478E+002, +6.08498049996E+002
+1.64790988736E+007, +4.70985214528E+002, +6.15585448875E+002
+1.66041301627E+007, +4.72757578949E+002, +6.23604699584E+002
+1.67291614518E+007, +4.74730340986E+002, +6.25949310289E+002
+1.68541927409E+007, +4.78495666713E+002, +6.31419505164E+002
+1.69792240300E+007, +4.81460293769E+002, +6.41176049015E+002
+1.71042553191E+007, +4.79216125831E+002, +6.52362870544E+002
+1.72292866083E+007, +4.83901607830E+002, +6.58651490219E+002
+1.73543178974E+007, +4.81604228983E+002, +6.63209382732E+002
+1.74793491865E+007, +4.85563507568E+002, +6.72275228221E+002
+1.76043804756E+007, +4.88415511514E+002, +6.71637656818E+002
+1.77294117647E+007, +4.89972428954E+002, +6.79863976983E+002
+1.78544430538E+007, +4.92749933834E+002, +6.90580679784E+002
+1.79794743429E+007, +4.94618740509E+002, +6.94066020803E+002
+1.81045056320E+007, +5.00781049169E+002, +7.04869534699E+002
+1.82295369212E+007, +5.01010348172E+002, +7.11101051079E+002
+1.83545682103E+007, +5.02028978458E+002, +7.12330382829E+002
+1.84795994994E+007, +5.02578356114E+002, +7.23876628102E+002
+1.86046307885E+007, +5.07172675664E+002, +7.27627655499E+002
+1.87296620776E+007, +5.10673755292E+002, +7.37408520678E+002
+1.88546933667E+007, +5.11447460124E+002, +7.43093767799E+002
+1.89797246558E+007, +5.11610924035E+002, +7.48203288592E+002
+1.91047559449E+007, +5.14763890213E+002, +7.59352272705E+002
+1.92297872340E+007, +5.14336298926E+002, +7.71223766986E+002
+1.93548185232E+007, +5.20694333682E+002, +7.74407273505E+002
+1.94798498123E+007, +5.23216662237E+002, +7.76983694092E+002
+1.96048811014E+007, +5.24100743256E+002, +7.88557052679E+002
+1.97299123905E+007, +5.30042479223E+002, +8.00267941326E+002
+1.98549436796E+007, +5.30911493493E+002, +8.08606398766E+002
+1.99799749687E+007, +5.33786545566E+002, +8.13334878336E+002
+2.01050062578E+007, +5.34136757283E+002, +8.22709830675E+002
+2.02300375469E+007, +5.38584990838E+002, +8.27905788595E+002
+2.03550688360E+007, +5.49085117797E+002, +8.35091224974E+002
+2.04801001252E+007, +5.43917050066E+002, +8.44943135406E+002
+2.06051314143E+007, +5.45223749842E+002, +8.53103492093E+002
+2.07301627034E+007, +5.50659055009E+002, +8.67693331270E+002
+2.08551939925E+007, +5.51910066623E+002, +8.71297504385E+002
+2.09802252816E+007, +5.63785052193E+002, +8.81290605513E+002
+2.11052565707E+007, +5.62769385947E+002, +8.91839551738E+002
+2.12302878598E+007, +5.65764410904E+002, +8.95588387020E+002
+2.13553191489E+007, +5.70896366627E+002, +9.04335589515E+002
+2.14803504380E+007, +5.74061480103E+002, +9.16398753468E+002
+2.16053817272E+007, +5.70286939170E+002, +9.22507799960E+002
+2.17304130163E+007, +5.83430393591E+002, +9.29786552327E+002
+2.18554443054E+007, +5.90508410079E+002, +9.40552736005E+002
+2.19804755945E+007, +5.86727985628E+002, +9.53442744316E+002
+2.21055068836E+007, +5.86050714505E+002, +9.66038137081E+002
+2.22305381727E+007, +6.00830222961E+002, +9.63628844799E+002
+2.23555694618E+007, +6.02623079703E+002, +9.73839972265E+002
+2.24806007509E+007, +6.03692661373E+002, +9.87540859510E+002
+2.26056320401E+007, +6.04891960938E+002, +9.92065111029E+002
+2.27306633292E+007, +6.22847878878E+002, +1.00523621940E+003
+2.28556946183E+007, +6.15804749152E+002, +1.01138932655E+003
+2.29807259074E+007, +6.21438787866E+002, +1.01854975841E+003
+2.31057571965E+007, +6.36975614607E+002, +1.03077834490E+003
+2.32307884856E+007, +6.43481466320E+002, +1.03992288039E+003
+2.33558197747E+007, +6.52689773592E+002, +1.04978398342E+003
+2.34808510638E+007, +6.53759482853E+002, +1.04990608929E+003
+2.36058823529E+007, +6.54598840431E+002, +1.07723617571E+003
+2.37309136421E+007, +6.58174814814E+002, +1.07643227227E+003
+2.38559449312E+007, +6.65148401606E+002, +1.08993482055E+003
+2.39809762203E+007, +6.69598380905E+002, +1.08690012212E+003
+2.41060075094E+007, +6.69903772168E+002, +1.10741545796E+003
+2.42310387985E+007, +6.80308565542E+002, +1.10403242610E+003
+2.43560700876E+007, +6.79399528239E+002, +1.12116212445E+003
+2.44811013767E+007, +6.83245159674E+002, +1.13737263946E+003
+2.46061326658E+007, +6.82472719862E+002, +1.16250059246E+003
+2.47311639549E+007, +6.85384614199E+002, +1.15121008738E+003
+2.48561952441E+007, +6.92650463235E+002, +1.16661989007E+003
+2.49812265332E+007, +6.97567669080E+002, +1.16746963935E+003
+2.51062578223E+007, +7.03388571689E+002, +1.19238381847E+003
+2.52312891114E+007, +7.15735136939E+002, +1.19798247422E+003
+2.53563204005E+007, +7.25144840189E+002, +1.22507066392E+003
+2.54813516896E+007, +7.21097980712E+002, +1.22829137853E+003
+2.56063829787E+007, +7.30795477623E+002, +1.23695704810E+003
+2.57314142678E+007, +7.32184382603E+002, +1.25880360693E+003
+2.58564455569E+007, +7.47495643926E+002, +1.26768947437E+003
+2.59814768461E+007, +7.41780573416E+002, +1.28462748565E+003
+2.61065081352E+007, +7.61627691280E+002, +1.29021180877E+003
+2.62315394243E+007, +7.56881594515E+002, +1.31388158403E+003
+2.63565707134E+007, +7.71463745612E+002, +1.33374047366E+003
+2.64816020025E+007, +8.01019234601E+002, +1.34195372554E+003
+2.66066332916E+007, +7.79700301678E+002, +1.34881173587E+003
+2.67316645807E+007, +8.02033340098E+002, +1.36908267829E+003
+2.68566958698E+007, +8.22224686991E+002, +1.38251668566E+003
+2.69817271589E+007, +8.19440302419E+002, +1.39030380260E+003
+2.71067584481E+007, +8.27405789349E+002, +1.41368561214E+003
+2.72317897372E+007, +8.31937115884E+002, +1.42624810324E+003
+2.73568210263E+007, +8.40483729350E+002, +1.44758183246E+003
+2.74818523154E+007, +8.54602052027E+002, +1.45232987926E+003
+2.76068836045E+007, +8.55919436542E+002, +1.48458986383E+003
+2.77319148936E+007, +8.78793107868E+002, +1.50906564319E+003
+2.78569461827E+007, +8.89616204557E+002, +1.51427122805E+003
+2.79819774718E+007, +8.87090148964E+002, +1.53983834386E+003
+2.81070087610E+007, +8.90388623688E+002, +1.55307420714E+003
+2.82320400501E+007, +9.06303257404E+002, +1.57717225907E+003
+2.83570713392E+007, +9.32143885427E+002, +1.58137609295E+003
+2.84821026283E+007, +9.37185267057E+002, +1.60292152975E+003
+2.86071339174E+007, +9.49139642777E+002, +1.63115384923E+003
+2.87321652065E+007, +9.59989075495E+002, +1.64428433952E+003
+2.88571964956E+007, +9.73596302508E+002, +1.68546173391E+003
+2.89822277847E+007, +1.00019097270E+003, +1.66034285123E+003
+2.91072590738E+007, +1.00928951105E+003, +1.69201273010E+003
+2.92322903630E+007, +1.02060418240E+003, +1.72846157800E+003
+2.93573216521E+007, +1.03847048974E+003, +1.74562451595E+003
+2.94823529412E+007, +1.05101689219E+003, +1.77185578624E+003
+2.96073842303E+007, +1.06742004403E+003, +1.77754066527E+003
+2.97324155194E+007, +1.10035110399E+003, +1.82006517862E+003
+2.98574468085E+007, +1.10863743841E+003, +1.83590033788E+003
+2.99824780976E+007, +1.11667097448E+003, +1.84586948575E+003
+3.01075093867E+007, +1.16312569242E+003, +1.85732446584E+003
+3.02325406758E+007, +1.15617630243E+003, +1.89722255010E+003
+3.03575719650E+007, +1.18367866225E+003, +1.91734953026E+003
+3.04826032541E+007, +1.19813404595E+003, +1.94129173030E+003
+3.06076345432E+007, +1.23192016718E+003, +1.96094902082E+003
+3.07326658323E+007, +1.25363303071E+003, +1.98320884106E+003
+3.08576971214E+007, +1.29755302977E+003, +2.03083499387E+003
+3.09827284105E+007, +1.28977705801E+003, +2.02042777706E+003
+3.11077596996E+007, +1.33666223550E+003, +2.11701305011E+003
+3.12327909887E+007, +1.34531270393E+003, +2.12527953978E+003
+3.13578222778E+007, +1.39618735074E+003, +2.14739048116E+003
+3.14828535670E+007, +1.45238397340E+003, +2.16623294282E+003
+3.16078848561E+007, +1.43787455615E+003, +2.18323626198E+003
+3.17329161452E+007, +1.45023390432E+003, +2.21128474029E+003
+3.18579474343E+007, +1.53885871826E+003, +2.25396963332E+003
+3.19829787234E+007, +1.54529385600E+003, +2.27351236591E+003
+3.21080100125E+007, +1.60161548687E+003, +2.30103031112E+003
+3.22330413016E+007, +1.62163397400E+003, +2.37338226769E+003
+3.23580725907E+007, +1.66271309092E+003, +2.34349857493E+003
+3.24831038798E+007, +1.68197939229E+003, +2.37872905790E+003
+3.26081351690E+007, +1.72041256378E+003, +2.43155155092E+003
+3.27331664581E+007, +1.76339797368E+003, +2.49057913299E+003
+3.28581977472E+007, +1.86268328962E+003, +2.45429478728E+003
+3.29832290363E+007, +1.92365789552E+003, +2.53085285189E+003
+3.31082603254E+007, +1.94334027657E+003, +2.56786199501E+003
+3.32332916145E+007, +1.98834160486E+003, +2.66253452343E+003
+3.33583229036E+007, +2.06941791735E+003, +2.66706047520E+003
+3.34833541927E+007, +2.11709716259E+003, +2.66694640728E+003
+3.36083854819E+007, +2.15903730259E+003, +2.69150906258E+003
+3.37334167710E+007, +2.24115434779E+003, +2.72197990947E+003
+3.38584480601E+007, +2.28607922510E+003, +2.81541527369E+003
+3.39834793492E+007, +2.38300992831E+003, +2.81301793194E+003
+3.41085106383E+007, +2.36192028165E+003, +2.82627386315E+003
+3.42335419274E+007, +2.55343229198E+003, +2.79078951658E+003
+3.43585732165E+007, +2.62737706450E+003, +2.93801015739E+003
+3.44836045056E+007, +2.70256888544E+003, +2.80804484265E+003
+3.46086357947E+007, +2.80808110454E+003, +2.87375858717E+003
+3.47336670839E+007, +2.83040409491E+003, +2.87960446127E+003
+3.48586983730E+007, +2.96319178828E+003, +2.97265559888E+003
+3.49837296621E+007, +3.01944096778E+003, +2.91703319137E+003
+3.51087609512E+007, +3.10580643691E+003, +3.02242711574E+003
+3.52337922403E+007, +3.25546088484E+003, +3.04436339420E+003
+3.53588235294E+007, +3.41462205907E+003, +3.04227224045E+003
+3.54838548185E+007, +3.56996571996E+003, +3.06684620452E+003
+3.56088861076E+007, +3.67706809563E+003, +3.10393614176E+003
+3.57339173967E+007, +3.76304825139E+003, +3.02989331011E+003
+3.58589486859E+007, +3.97322632477E+003, +3.08347114173E+003
+3.59839799750E+007, +4.08015078481E+003, +2.93732835549E+003
+3.61090112641E+007, +4.19759087799E+003, +3.15156175270E+003
+3.62340425532E+007, +4.32885086888E+003, +3.04772149876E+003
+3.63590738423E+007, +4.48494231993E+003, +2.75828567816E+003
+3.64841051314E+007, +4.85318444761E+003, +2.94308070254E+003
+3.66091364205E+007, +5.01005590404E+003, +2.85265251202E+003
+3.67341677096E+007, +5.21271854993E+003, +2.69224711878E+003
+3.68591989987E+007, +5.33745155991E+003, +2.84962615602E+003
+3.69842302879E+007, +5.46083386667E+003, +2.65499607032E+003
+3.71092615770E+007, +5.70420032508E+003, +2.51271447185E+003
+3.72342928661E+007, +5.71497395649E+003, +2.47685313830E+003
+3.73593241552E+007, +5.99758909031E+003, +2.01895876122E+003
+3.74843554443E+007, +6.07927770365E+003, +2.08141647653E+003
+3.76093867334E+007, +6.39656000786E+003, +1.75364384528E+003
+3.77344180225E+007, +6.53891749867E+003, +1.49439722719E+003
+3.78594493116E+007, +6.59719392952E+003, +1.30923095943E+003
+3.79844806008E+007, +6.67810161854E+003, +1.24781596316E+003
+3.81095118899E+007, +6.84295081511E+003, +9.82214326643E+002
+3.82345431790E+007, +6.74948818948E+003, +5.12621083791E+002
+3.83595744681E+007, +7.19780115796E+003, +3.26481092148E+002
+3.84846057572E+007, +6.88111211827E+003, -7.16644915534E+001
+3.86096370463E+007, +7.14090992381E+003, -4.13684201231E+002
+3.87346683354E+007, +6.68010178081E+003, -5.94435731046E+002
+3.88596996245E+007, +6.93285095989E+003, -9.11464054379E+002
+3.89847309136E+007, +6.78103901269E+003, -1.24268401094E+003
+3.91097622028E+007, +6.94188473155E+003, -1.41208289029E+003
+3.92347934919E+007, +6.59827306833E+003, -1.84055226029E+003
+3.93598247810E+007, +6.31644737429E+003, -1.98354725186E+003
+3.94848560701E+007, +6.22436248280E+003, -2.08266265329E+003
+3.96098873592E+007, +6.09637301236E+003, -2.29400562355E+003
+3.97349186483E+007, +6.05307937344E+003, -2.44503691994E+003
+3.98599499374E+007, +5.58565839382E+003, -2.49444659528E+003
+3.99849812265E+007, +5.47124092254E+003, -2.78865498973E+003
+4.01100125156E+007, +5.30384856479E+003, -2.90909281909E+003
